! TOUCHSTONE file generated by CST MICROWAVE STUDIO
! Date and time: Mon Nov 30 08:09:25 2020
! Project name: Scenario_1_Planar_Body_Tissue_Out_of_Line.cst
! Parameters = {dy1=276.8; L_HA=400; Ltissue=700; MT=2.54; Rad_Dielectric=30; Rad_Lower=7.3; Rad_Upper=30; Wtissue=700; a_HA=580; a_WG=246; b_HA=500; b_WG=121; c_HA=0; c_WG=187; d_feed=85; dx1=866; h_feed=15; h_lower=18; h_upper=40; hfat=3; hgap=25; hmuscle=50; hskin=1.5}
! Header version: 2018
! Port assignment regex: !\s*Touchstone port\s*([0-9]+)\s*=\s*(CST MWS port|CST DS port)\s*([0-9]+|Zmin|Zmax)\s*\(\"(.*)\"\)(\s*mode\s*([0-9]+))?.*
! Touchstone port assignment:
! Touchstone port 1 = CST MWS port 1 ("")
! Touchstone port 2 = CST MWS port 2 ("")
# GHz S DB R 50
0.5                    -0.122598        -122.086         -64.9604         85.4026         -64.9588         85.4102      -0.00751586          151.15
0.501                  -0.132521        -122.466         -64.9912         84.4543         -64.9877         84.4383      -0.00759546         151.085
0.502                  -0.142367        -122.849         -65.0211         83.4986         -65.0155         83.4581      -0.00767531          151.02
0.503                  -0.152139        -123.235         -65.0501         82.5359         -65.0423         82.4698      -0.00775542         150.954
0.504                  -0.161837        -123.624          -65.078         81.5666         -65.0679         81.4738      -0.00783579         150.889
0.505                  -0.171464        -124.015         -65.1046         80.5911         -65.0922         80.4703      -0.00791643         150.823
0.506                  -0.181021        -124.409         -65.1301         79.6098         -65.1151         79.4599      -0.00799735         150.758
0.507                   -0.19051        -124.806          -65.154         78.6235         -65.1365          78.443      -0.00807855         150.692
0.508                  -0.199933        -125.206         -65.1765         77.6328         -65.1562         77.4203      -0.00816005         150.626
0.509                  -0.209293        -125.608         -65.1972         76.6385          -65.174         76.3924      -0.00824185         150.561
0.51                   -0.218591        -126.014         -65.2161         75.6413         -65.1898           75.36      -0.00832395         150.495
0.511                  -0.227831        -126.422         -65.2329         74.6423         -65.2035          74.324      -0.00840638         150.429
0.512                  -0.237014        -126.834         -65.2475         73.6426         -65.2148         73.2853      -0.00848914         150.363
0.513                  -0.246144        -127.248         -65.2597         72.6434         -65.2235         72.2451      -0.00857224         150.297
0.514                  -0.255223        -127.666         -65.2693         71.6461         -65.2294         71.2046      -0.00865569          150.23
0.515                  -0.264255        -128.086         -65.2759         70.6523         -65.2322         70.1652       -0.0087395         150.164
0.516                  -0.273241         -128.51         -65.2793         69.6637         -65.2316         69.1283      -0.00882369         150.098
0.517                  -0.282186        -128.936         -65.2793         68.6823         -65.2275         68.0957      -0.00890827         150.031
0.518                  -0.291094        -129.366         -65.2754         67.7101         -65.2193         67.0692      -0.00899325         149.965
0.519                  -0.299966        -129.799         -65.2673         66.7496         -65.2067         66.0511      -0.00907863         149.898
0.52                   -0.308809        -130.236         -65.2546         65.8035         -65.1894         65.0436      -0.00916445         149.831
0.521                  -0.317624        -130.676         -65.2368         64.8746         -65.1669         64.0494      -0.00925071         149.765
0.522                  -0.326417        -131.119         -65.2134         63.9664         -65.1385         63.0712      -0.00933742         149.698
0.523                  -0.335192        -131.565         -65.1837         63.0822         -65.1039         62.1122       -0.0094246         149.631
0.524                  -0.343953        -132.015         -65.1471         62.2262         -65.0622         61.1759      -0.00951227         149.564
0.525                  -0.352706        -132.468         -65.1028         61.4026         -65.0128         60.2659      -0.00960044         149.497
0.526                  -0.361455        -132.925         -65.0499         60.6161         -64.9549         59.3864      -0.00968913         149.429
0.527                  -0.370205        -133.385         -64.9874         59.8719         -64.8873         58.5419      -0.00977836         149.362
0.528                  -0.378962        -133.849          -64.914         59.1755         -64.8091          57.737      -0.00986813         149.295
0.529                  -0.387732        -134.317         -64.8284         58.5329          -64.719         56.9767      -0.00995848         149.227
0.53                   -0.396522        -134.788          -64.729         57.9503         -64.6154         56.2666       -0.0100494          149.16
0.531                  -0.405336        -135.264         -64.6138         57.4344         -64.4967          55.612        -0.010141         149.092
0.532                  -0.414183        -135.743         -64.4808         56.9921         -64.3608         55.0187       -0.0102332         149.024
0.533                  -0.423069        -136.226         -64.3272           56.63         -64.2055         54.4923        -0.010326         148.956
0.534                  -0.432002        -136.713           -64.15         56.3549         -64.0279         54.0382       -0.0104195         148.888
0.535                  -0.440989        -137.204         -63.9456         56.1729          -63.825         53.6613       -0.0105137          148.82
0.536                  -0.450039        -137.699         -63.7098          56.089         -63.5928         53.3655       -0.0106086         148.752
0.537                   -0.45916        -138.199         -63.4377         56.1067         -63.3271          53.153       -0.0107042         148.684
0.538                  -0.468362        -138.702         -63.1233         56.2268         -63.0227         53.0239       -0.0108006         148.615
0.539                  -0.477654         -139.21         -62.7598         56.4463         -62.6736         52.9748       -0.0108977         148.547
0.54                   -0.487047        -139.723         -62.3393         56.7573         -62.2728         52.9975       -0.0109957         148.478
0.541                   -0.49655         -140.24         -61.8523         57.1446         -61.8121         53.0774       -0.0110945         148.409
0.542                  -0.506177        -140.761         -61.2882         57.5834         -61.2821          53.191       -0.0111942         148.341
0.543                  -0.515937        -141.288         -60.6341         58.0361         -60.6717         53.3026       -0.0112947         148.272
0.544                  -0.525844        -141.819         -59.8755          58.448         -59.9684         53.3603       -0.0113961         148.203
0.545                  -0.535912        -142.354         -58.9949         58.7405         -59.1575         53.2895       -0.0114985         148.134
0.546                  -0.546154        -142.895         -57.9715          58.801         -58.2218         52.9836       -0.0116018         148.064
0.547                  -0.556586        -143.441         -56.7799         58.4653         -57.1414         52.2885       -0.0117061         147.995
0.548                  -0.567223        -143.992         -55.3883         57.4839         -55.8935         50.9756       -0.0118115         147.925
0.549                  -0.578081        -144.548         -53.7572         55.4551         -54.4526         48.6937       -0.0119178         147.856
0.55                   -0.589179        -145.109         -51.8412         51.6846         -52.7964         44.8795       -0.0120253         147.786
0.551                  -0.600536        -145.676          -49.609         44.8898          -50.924         38.6042       -0.0121338         147.716
0.552                  -0.612171        -146.249          -47.145         32.7006         -48.9195         28.3973       -0.0122434         147.646
0.553                  -0.624106        -146.827         -44.9977         11.9889         -47.1081         12.5567       -0.0123541         147.576
0.554                  -0.636361         -147.41         -44.4153        -15.2644         -46.1676        -8.47242       -0.0124659         147.506
0.555                  -0.648959            -148         -45.6284        -38.2702         -46.5291        -29.3933       -0.0125793         147.436
0.556                  -0.661929        -148.596         -47.4036        -52.7113         -47.7114        -45.2137       -0.0126939         147.365
0.557                  -0.675299        -149.197         -49.0281        -61.3654         -49.0635        -55.7838       -0.0128098         147.295
0.558                  -0.689094        -149.805         -50.3646        -66.8582         -50.2927        -62.8093       -0.0129269         147.224
0.559                  -0.703346        -150.419         -51.4383        -70.6267         -51.3313        -67.6837       -0.0130454         147.153
0.56                   -0.718086         -151.04         -52.2986        -73.4185          -52.187        -71.2623       -0.0131653         147.083
0.561                   -0.73335        -151.667         -52.9892        -75.6386         -52.8856        -74.0472       -0.0132866         147.012
0.562                  -0.749173        -152.301         -53.5441        -77.5179         -53.4532        -76.3375       -0.0134093          146.94
0.563                  -0.765595        -152.941         -53.9895        -79.1942         -53.9124         -78.317       -0.0135336         146.869
0.564                  -0.782657        -153.588         -54.3455        -80.7528         -54.2816        -80.1017       -0.0136594         146.798
0.565                  -0.800402        -154.243         -54.6276         -82.248         -54.5758        -81.7671       -0.0137867         146.726
0.566                  -0.818879        -154.904         -54.8479        -83.7149         -54.8068         -83.363       -0.0139157         146.654
0.567                  -0.838137        -155.573          -55.016        -85.1765         -54.9842         -84.923       -0.0140463         146.583
0.568                   -0.85823        -156.249         -55.1399        -86.6482          -55.116        -86.4697       -0.0141786         146.511
0.569                  -0.879213        -156.932         -55.2258          -88.14         -55.2086        -88.0188       -0.0143126         146.438
0.57                   -0.901148        -157.622         -55.2789        -89.6584         -55.2673         -89.581       -0.0144484         146.366
0.571                  -0.924099        -158.321         -55.3036        -91.2078         -55.2966        -91.1636        -0.014586         146.294
0.572                  -0.948134        -159.026         -55.3034        -92.7907         -55.3002        -92.7716       -0.0147254         146.221
0.573                  -0.973326        -159.739         -55.2815        -94.4087         -55.2814        -94.4082       -0.0148667         146.149
0.574                  -0.999752         -160.46         -55.2405        -96.0627         -55.2429        -96.0758         -0.01501         146.076
0.575                   -1.02749        -161.189         -55.1825        -97.7529         -55.1869        -97.7757       -0.0151552         146.003
0.576                   -1.05664        -161.925         -55.1096        -99.4793         -55.1155        -99.5088       -0.0153023          145.93
0.577                   -1.08728        -162.668         -55.0234        -101.242         -55.0304        -101.276       -0.0154516         145.856
0.578                   -1.11951        -163.419         -54.9254         -103.04         -54.9333        -103.076       -0.0156028         145.783
0.579                   -1.15344        -164.177         -54.8169        -104.874         -54.8253        -104.911       -0.0157562         145.709
0.58                    -1.18917        -164.943         -54.6991        -106.742         -54.7079        -106.779       -0.0159118         145.636
0.581                   -1.22681        -165.715         -54.5731        -108.645         -54.5819        -108.681       -0.0160695         145.562
0.582                   -1.26649        -166.493         -54.4397        -110.582         -54.4485        -110.616       -0.0162295         145.488
0.583                   -1.30833        -167.278         -54.2998        -112.553         -54.3085        -112.585       -0.0163917         145.414
0.584                   -1.35247        -168.069         -54.1543        -114.557         -54.1627        -114.586       -0.0165562         145.339
0.585                   -1.39902        -168.864         -54.0038        -116.593         -54.0118         -116.62       -0.0167231         145.265
0.586                   -1.44814        -169.665          -53.849        -118.663         -53.8566        -118.687       -0.0168923          145.19
0.587                   -1.49995        -170.469         -53.6905        -120.764         -53.6977        -120.786       -0.0170639         145.115
0.588                   -1.55462        -171.276          -53.529        -122.898         -53.5356        -122.917        -0.017238          145.04
0.589                   -1.61227        -172.086         -53.3649        -125.063          -53.371        -125.079       -0.0174144         144.965
0.59                    -1.67304        -172.896         -53.1988        -127.258         -53.2044        -127.273       -0.0175934          144.89
0.591                   -1.73709        -173.706         -53.0313        -129.485         -53.0362        -129.497       -0.0177749         144.814
0.592                   -1.80454        -174.514         -52.8626        -131.742          -52.867        -131.752       -0.0179589         144.739
0.593                   -1.87551        -175.318         -52.6935        -134.028         -52.6973        -134.036       -0.0181455         144.663
0.594                   -1.95011        -176.118         -52.5241        -136.343         -52.5274         -136.35       -0.0183347         144.587
0.595                   -2.02844         -176.91         -52.3551        -138.687         -52.3579        -138.692       -0.0185264          144.51
0.596                   -2.11056        -177.693         -52.1867        -141.058          -52.189        -141.062       -0.0187208         144.434
0.597                   -2.19652        -178.463         -52.0194        -143.456         -52.0213        -143.459       -0.0189178         144.358
0.598                   -2.28631        -179.219         -51.8536         -145.88          -51.855        -145.882       -0.0191174         144.281
0.599                   -2.37989        -179.958         -51.6895        -148.328         -51.6905         -148.33       -0.0193197         144.204
0.6                     -2.47719         179.324         -51.5276          -150.8         -51.5282        -150.802       -0.0195247         144.127
0.601                   -2.57805         178.629         -51.3681        -153.295         -51.3684        -153.296       -0.0197323         144.049
0.602                   -2.68226         177.961         -51.2114        -155.811         -51.2114        -155.811       -0.0199426         143.972
0.603                   -2.78953         177.324         -51.0576        -158.346         -51.0574        -158.346       -0.0201555         143.894
0.604                   -2.89948          176.72         -50.9072        -160.899         -50.9067        -160.899       -0.0203712         143.816
0.605                   -3.01166         176.152         -50.7602        -163.468         -50.7596        -163.469       -0.0205895         143.738
0.606                   -3.12552         175.624         -50.6169        -166.052         -50.6161        -166.053       -0.0208106          143.66
0.607                    -3.2404         175.138         -50.4775        -168.649         -50.4767         -168.65       -0.0210343         143.581
0.608                   -3.35557         174.697         -50.3422        -171.256         -50.3412        -171.257       -0.0212607         143.503
0.609                    -3.4702         174.302         -50.2109        -173.873           -50.21        -173.874       -0.0214898         143.424
0.61                     -3.5834         173.953          -50.084        -176.496          -50.083        -176.497       -0.0217217         143.345
0.611                   -3.69419         173.652         -49.9613        -179.124         -49.9603        -179.126       -0.0219562         143.265
0.612                    -3.8016         173.396         -49.8429         178.245          -49.842         178.243       -0.0221935         143.186
0.613                    -3.9046         173.185         -49.7289         175.613          -49.728         175.611       -0.0224335         143.106
0.614                   -4.00221         173.014         -49.6191         172.982         -49.6183         172.981       -0.0226763         143.026
0.615                   -4.09349          172.88         -49.5136         170.354         -49.5129         170.353       -0.0229219         142.946
0.616                   -4.17759         172.777         -49.4123         167.731         -49.4117          167.73       -0.0231703         142.865
0.617                   -4.25378         172.699          -49.315         165.115         -49.3146         165.114       -0.0234216         142.784
0.618                   -4.32147         172.639         -49.2216         162.507         -49.2213         162.506       -0.0236757         142.703
0.619                   -4.38026         172.589          -49.132         159.908         -49.1319         159.909       -0.0239328         142.622
0.62                    -4.42992         172.542          -49.046         157.322          -49.046         157.322        -0.024193         142.541
0.621                   -4.47041         172.489         -48.9634         154.747         -48.9635         154.749       -0.0244562         142.459
0.622                    -4.5019         172.422          -48.884         152.187         -48.8842         152.189       -0.0247226         142.377
0.623                   -4.52471         172.334         -48.8075         149.641         -48.8079         149.644       -0.0249922         142.295
0.624                   -4.53933         172.217         -48.7338         147.112         -48.7343         147.115       -0.0252651         142.213
0.625                    -4.5464         172.066         -48.6626         144.598         -48.6632         144.602       -0.0255415          142.13
0.626                   -4.54664         171.874         -48.5936         142.102         -48.5943         142.107       -0.0258213         142.047
0.627                   -4.54086         171.637         -48.5267         139.624         -48.5275          139.63       -0.0261049         141.964
0.628                   -4.52992         171.352         -48.4615         137.163         -48.4624          137.17       -0.0263921          141.88
0.629                   -4.51469         171.015         -48.3979         134.721         -48.3988         134.729       -0.0266833         141.797
