! TOUCHSTONE file generated by CST MICROWAVE STUDIO
! Date and time: Thu Feb 18 07:37:37 2021
! Project name: Scenario_1_Planar_Body_Tissue_Out_of_Line.cst
! Parameters = {L_HA=400; Ltissue=1000; MT=2.54; Rad_Dielectric=30; Rad_Lower=7.3; Rad_Upper=30; Wtissue=1000; a_HA=580; a_WG=246; b_HA=500; b_WG=121; c_HA=0; c_WG=187; d_feed=85; dx1=346; dy1=294.1; h_feed=15; h_lower=18; h_upper=40; hfat=3; hgap=25; hmuscle=50; hskin=1.5}
! Header version: 2018
! Port assignment regex: !\s*Touchstone port\s*([0-9]+)\s*=\s*(CST MWS port|CST DS port)\s*([0-9]+|Zmin|Zmax)\s*\(\"(.*)\"\)(\s*mode\s*([0-9]+))?.*
! Touchstone port assignment:
! Touchstone port 1 = CST MWS port 1 ("")
! Touchstone port 2 = CST MWS port 2 ("")
# GHz S DB R 50
0.5                    -0.259871        -121.681         -58.2848         4.16356         -58.2848          4.1649      -0.00815172         151.147
0.501                  -0.261624        -122.073         -58.2221          2.8236         -58.2222         2.82479      -0.00821165         151.082
0.502                   -0.26338        -122.467         -58.1586         1.46689         -58.1587         1.46793      -0.00827193         151.016
0.503                   -0.26514        -122.864         -58.0943       0.0933412         -58.0945       0.0942503      -0.00833259         150.951
0.504                  -0.266908        -123.264         -58.0293        -1.29712         -58.0295        -1.29634      -0.00839363         150.886
0.505                  -0.268684        -123.667         -57.9635        -2.70457         -57.9638         -2.7039      -0.00845508          150.82
0.506                  -0.270471        -124.073         -57.8971        -4.12905         -57.8974        -4.12847      -0.00851694         150.755
0.507                  -0.272272        -124.481         -57.8299        -5.57057         -57.8303        -5.57009      -0.00857925         150.689
0.508                  -0.274089        -124.892         -57.7622        -7.02916         -57.7626        -7.02876      -0.00864201         150.624
0.509                  -0.275925        -125.306         -57.6938         -8.5048         -57.6943        -8.50446      -0.00870525         150.558
0.51                   -0.277782        -125.724         -57.6249        -9.99744         -57.6254        -9.99716      -0.00876897         150.492
0.511                  -0.279663        -126.144         -57.5554         -11.507          -57.556        -11.5068       -0.0088332         150.426
0.512                  -0.281571        -126.567         -57.4855        -13.0335          -57.486        -13.0333      -0.00889796          150.36
0.513                  -0.283509        -126.993          -57.415        -14.5767         -57.4157        -14.5765      -0.00896326         150.294
0.514                  -0.285479        -127.423         -57.3442        -16.1364         -57.3449        -16.1362      -0.00902912         150.228
0.515                  -0.287485        -127.856          -57.273        -17.7126         -57.2737        -17.7124      -0.00909556         150.162
0.516                  -0.289531        -128.292         -57.2015        -19.3049         -57.2023        -19.3047       -0.0091626         150.095
0.517                  -0.291618        -128.731         -57.1298        -20.9132         -57.1306         -20.913      -0.00923025         150.029
0.518                  -0.293752        -129.174         -57.0578        -22.5372         -57.0587        -22.5369      -0.00929854         149.962
0.519                  -0.295936         -129.62         -56.9857        -24.1764         -56.9866         -24.176      -0.00936748         149.896
0.52                   -0.298172        -130.069         -56.9135        -25.8306         -56.9144        -25.8302      -0.00943709         149.829
0.521                  -0.300467        -130.522         -56.8413        -27.4994         -56.8422        -27.4988       -0.0095074         149.762
0.522                  -0.302822        -130.979         -56.7691        -29.1822           -56.77        -29.1815      -0.00957842         149.696
0.523                  -0.305244        -131.439          -56.697        -30.8786         -56.6979        -30.8778      -0.00965016         149.629
0.524                  -0.307735        -131.903          -56.625         -32.588         -56.6259        -32.5871      -0.00972266         149.562
0.525                  -0.310302        -132.371         -56.5532        -34.3099         -56.5542        -34.3089      -0.00979593         149.494
0.526                  -0.312948        -132.842         -56.4816        -36.0435         -56.4826        -36.0424      -0.00986998         149.427
0.527                  -0.315678        -133.318         -56.4104        -37.7883         -56.4114         -37.787      -0.00994485          149.36
0.528                  -0.318499        -133.797         -56.3395        -39.5435         -56.3405        -39.5421       -0.0100206         149.293
0.529                  -0.321415        -134.281          -56.269        -41.3083           -56.27        -41.3067       -0.0100971         149.225
0.53                   -0.324433        -134.768          -56.199        -43.0819            -56.2        -43.0801       -0.0101745         149.157
0.531                  -0.327558         -135.26         -56.1294        -44.8634         -56.1305        -44.8614       -0.0102528          149.09
0.532                  -0.330796        -135.756         -56.0604        -46.6519         -56.0615        -46.6498       -0.0103321         149.022
0.533                  -0.334155        -136.256          -55.992        -48.4465          -55.993        -48.4442       -0.0104122         148.954
0.534                  -0.337641        -136.761         -55.9242        -50.2462         -55.9252        -50.2438       -0.0104934         148.886
0.535                  -0.341261         -137.27         -55.8569          -52.05         -55.8579        -52.0474       -0.0105755         148.818
0.536                  -0.345024        -137.784         -55.7903        -53.8569         -55.7913        -53.8541       -0.0106586          148.75
0.537                  -0.348937        -138.303         -55.7243        -55.6658         -55.7253        -55.6628       -0.0107427         148.681
0.538                  -0.353009        -138.826          -55.659        -57.4755           -55.66        -57.4724       -0.0108279         148.613
0.539                  -0.357248        -139.354         -55.5943        -59.2851         -55.5952        -59.2819       -0.0109141         148.545
0.54                   -0.361664        -139.887         -55.5302        -61.0934         -55.5311          -61.09       -0.0110014         148.476
0.541                  -0.366266        -140.425         -55.4666        -62.8992         -55.4675        -62.8957       -0.0110899         148.407
0.542                  -0.371066        -140.968         -55.4036        -64.7016         -55.4045        -64.6979       -0.0111794         148.338
0.543                  -0.376073        -141.517         -55.3411        -66.4993         -55.3419        -66.4955       -0.0112702         148.269
0.544                  -0.381301        -142.071          -55.279        -68.2912         -55.2798        -68.2874       -0.0113621           148.2
0.545                  -0.386759         -142.63         -55.2173        -70.0764          -55.218        -70.0725       -0.0114552         148.131
0.546                  -0.392462        -143.195         -55.1559        -71.8538         -55.1566        -71.8499       -0.0115496         148.062
0.547                  -0.398423        -143.766         -55.0947        -73.6224         -55.0953        -73.6183       -0.0116452         147.993
0.548                  -0.404656        -144.342         -55.0336        -75.3811         -55.0342        -75.3771       -0.0117421         147.923
0.549                  -0.411177        -144.925         -54.9725        -77.1291         -54.9731         -77.125       -0.0118403         147.853
0.55                   -0.418001        -145.514         -54.9113        -78.8655         -54.9119        -78.8615       -0.0119399         147.784
0.551                  -0.425145        -146.108         -54.8499        -80.5895         -54.8504        -80.5854       -0.0120407         147.714
0.552                  -0.432628         -146.71         -54.7882        -82.3003         -54.7886        -82.2963        -0.012143         147.644
0.553                  -0.440469        -147.317          -54.726        -83.9972         -54.7264        -83.9933       -0.0122467         147.574
0.554                  -0.448687        -147.932         -54.6631        -85.6797         -54.6635        -85.6758       -0.0123518         147.504
0.555                  -0.457304        -148.553         -54.5995        -87.3471         -54.5999        -87.3432       -0.0124584         147.433
0.556                  -0.466343        -149.181          -54.535         -88.999         -54.5353        -88.9952       -0.0125664         147.363
0.557                  -0.475829        -149.817         -54.4694         -90.635         -54.4697        -90.6313       -0.0126759         147.292
0.558                  -0.485787        -150.459         -54.4026        -92.2548         -54.4029        -92.2513        -0.012787         147.222
0.559                  -0.496244         -151.11         -54.3344        -93.8582         -54.3346        -93.8548       -0.0128997         147.151
0.56                    -0.50723        -151.768         -54.2647         -95.445         -54.2648        -95.4418       -0.0130139          147.08
0.561                  -0.518777        -152.433         -54.1932        -97.0153         -54.1933        -97.0122       -0.0131298         147.009
0.562                  -0.530916        -153.107         -54.1198        -98.5691         -54.1199        -98.5661       -0.0132473         146.938
0.563                  -0.543685        -153.789         -54.0444        -100.106         -54.0445        -100.104       -0.0133664         146.866
0.564                   -0.55712         -154.48         -53.9667        -101.628         -53.9668        -101.625       -0.0134873         146.795
0.565                  -0.571263        -155.179         -53.8867        -103.133         -53.8867        -103.131       -0.0136099         146.723
0.566                  -0.586156        -155.887         -53.8041        -104.623         -53.8041        -104.621       -0.0137342         146.652
0.567                  -0.601846        -156.604         -53.7188        -106.098         -53.7188        -106.096       -0.0138603          146.58
0.568                  -0.618383        -157.331         -53.6306        -107.559         -53.6306        -107.557       -0.0139882         146.508
0.569                  -0.635819        -158.067         -53.5394        -109.006         -53.5394        -109.004        -0.014118         146.436
0.57                   -0.654212        -158.813         -53.4451         -110.44          -53.445        -110.439       -0.0142496         146.363
0.571                  -0.673622        -159.569         -53.3474        -111.862         -53.3474        -111.861       -0.0143831         146.291
0.572                  -0.694115        -160.335         -53.2464        -113.274         -53.2463        -113.272       -0.0145185         146.219
0.573                  -0.715762        -161.112         -53.1417        -114.675         -53.1417        -114.674       -0.0146559         146.146
0.574                  -0.738638        -161.899         -53.0334        -116.067         -53.0334        -116.066       -0.0147952         146.073
0.575                  -0.762824        -162.698         -52.9213        -117.452         -52.9213        -117.451       -0.0149365             146
0.576                  -0.788407        -163.507         -52.8053         -118.83         -52.8053        -118.829       -0.0150799         145.927
0.577                  -0.815481        -164.329         -52.6854        -120.203         -52.6853        -120.202       -0.0152253         145.854
0.578                  -0.844147        -165.162         -52.5613        -121.572         -52.5613        -121.571       -0.0153728          145.78
0.579                  -0.874514        -166.007         -52.4332        -122.939         -52.4331        -122.938       -0.0155224         145.707
0.58                     -0.9067        -166.865         -52.3008        -124.305         -52.3008        -124.305       -0.0156741         145.633
0.581                   -0.94083        -167.735         -52.1642        -125.672         -52.1642        -125.672        -0.015828         145.559
0.582                   -0.97704        -168.617         -52.0233        -127.042         -52.0233        -127.042        -0.015984         145.485
0.583                   -1.01548        -169.513         -51.8782        -128.416         -51.8782        -128.416       -0.0161423         145.411
0.584                    -1.0563        -170.422         -51.7287        -129.796         -51.7287        -129.796       -0.0163028         145.337
0.585                   -1.09968        -171.344         -51.5749        -131.184         -51.5749        -131.184       -0.0164656         145.262
0.586                    -1.1458        -172.279         -51.4169        -132.581         -51.4169        -132.581       -0.0166307         145.187
0.587                   -1.19485        -173.228         -51.2546        -133.991         -51.2546        -133.991       -0.0167981         145.113
0.588                   -1.24706        -174.191         -51.0881        -135.414         -51.0881        -135.414       -0.0169677         145.038
0.589                   -1.30265        -175.167         -50.9175        -136.853         -50.9176        -136.852       -0.0171398         144.962
0.59                    -1.36187        -176.156          -50.743        -138.309          -50.743        -138.309       -0.0173142         144.887
0.591                   -1.42498        -177.159         -50.5645        -139.785         -50.5645        -139.785        -0.017491         144.812
0.592                   -1.49228        -178.175         -50.3822        -141.284         -50.3823        -141.283       -0.0176703         144.736
0.593                   -1.56408        -179.203         -50.1964        -142.806         -50.1964        -142.806       -0.0178519          144.66
0.594                    -1.6407         179.757         -50.0071        -144.355         -50.0071        -144.354        -0.018036         144.584
0.595                    -1.7225         178.705         -49.8146        -145.931         -49.8146        -145.931       -0.0182226         144.508
0.596                   -1.80986         177.642         -49.6191        -147.538         -49.6192        -147.538       -0.0184117         144.431
0.597                   -1.90319          176.57         -49.4209        -149.178          -49.421        -149.178       -0.0186032         144.355
0.598                   -2.00291          175.49         -49.2203        -150.852         -49.2203        -150.852       -0.0187973         144.278
0.599                    -2.1095         174.404         -49.0175        -152.563         -49.0176        -152.562       -0.0189939         144.201
0.6                     -2.22342         173.313          -48.813        -154.312          -48.813        -154.311       -0.0191931         144.124
0.601                   -2.34519         172.219         -48.6071        -156.101         -48.6071          -156.1       -0.0193948         144.047
0.602                   -2.47535         171.126         -48.4003        -157.932         -48.4003        -157.931        -0.019599         143.969
0.603                   -2.61444         170.037         -48.1929        -159.806         -48.1929        -159.806       -0.0198059         143.892
0.604                   -2.76303         168.957         -47.9855        -161.726         -47.9855        -161.725       -0.0200153         143.814
0.605                   -2.92169         167.888         -47.7786        -163.691         -47.7786         -163.69       -0.0202274         143.736
0.606                   -3.09101         166.838         -47.5728        -165.703         -47.5728        -165.702        -0.020442         143.657
0.607                   -3.27155         165.811         -47.3685        -167.762         -47.3685        -167.761       -0.0206593         143.579
0.608                   -3.46384         164.817         -47.1665        -169.869         -47.1665        -169.868       -0.0208792           143.5
0.609                   -3.66838         163.862         -46.9674        -172.024         -46.9673        -172.023       -0.0211018         143.421
0.61                    -3.88558         162.956         -46.7717        -174.226         -46.7716        -174.225       -0.0213271         143.342
0.611                   -4.11576          162.11         -46.5802        -176.474         -46.5801        -176.474        -0.021555         143.263
0.612                   -4.35909         161.337         -46.3934        -178.768         -46.3934        -178.768       -0.0217856         143.183
0.613                   -4.61553         160.651         -46.2122         178.895         -46.2121         178.895        -0.022019         143.103
0.614                   -4.88479         160.066          -46.037         176.517         -46.0369         176.517       -0.0222551         143.023
0.615                   -5.16627         159.599         -45.8686           174.1         -45.8685         174.101        -0.022494         142.943
0.616                   -5.45893         159.268         -45.7074         171.649         -45.7074         171.649       -0.0227358         142.863
0.617                   -5.76121         159.093         -45.5541         169.166          -45.554         169.166       -0.0229804         142.782
0.618                   -6.07095         159.093         -45.4091         166.655         -45.4091         166.655       -0.0232279         142.701
0.619                   -6.38522         159.288         -45.2729         164.122         -45.2728         164.122       -0.0234783          142.62
0.62                    -6.70029         159.696         -45.1457         161.571         -45.1456         161.571       -0.0237318         142.539
0.621                   -7.01151         160.331         -45.0278         159.007         -45.0278         159.006       -0.0239883         142.457
0.622                   -7.31332         161.205         -44.9195         156.435         -44.9194         156.434        -0.024248         142.375
0.623                   -7.59933         162.322         -44.8207          153.86         -44.8206          153.86       -0.0245109         142.293
0.624                   -7.86254         163.676         -44.7314         151.289         -44.7314         151.289       -0.0247772          142.21
0.625                   -8.09571          165.25         -44.6516         148.726         -44.6516         148.726       -0.0250468         142.128
0.626                   -8.29186         167.015         -44.5811         146.176         -44.5811         146.176         -0.02532         142.045
0.627                   -8.44496         168.929         -44.5196         143.645         -44.5196         143.644       -0.0255968         141.962
0.628                    -8.5505          170.94         -44.4666         141.136         -44.4667         141.136       -0.0258774         141.878
0.629                   -8.60609         172.989         -44.4219         138.655         -44.4219         138.654       -0.0261618         141.794
