! TOUCHSTONE file generated by CST MICROWAVE STUDIO
! Date and time: Fri Dec 11 14:17:47 2020
! Project name: Scenario_1_Planar_Body_Tissue_Out_of_Line_v2.cst
! Parameters = {dy1=294.1; L_HA=400; Ltissue=700; MT=2.54; Rad_Dielectric=30; Rad_Lower=7.3; Rad_Upper=30; Wtissue=700; a_HA=580; a_WG=246; b_HA=500; b_WG=121; c_HA=0; c_WG=187; d_feed=85; dx1=520; h_feed=15; h_lower=18; h_upper=40; hfat=3; hgap=25; hmuscle=50; hskin=1.5}
! Header version: 2018
! Port assignment regex: !\s*Touchstone port\s*([0-9]+)\s*=\s*(CST MWS port|CST DS port)\s*([0-9]+|Zmin|Zmax)\s*\(\"(.*)\"\)(\s*mode\s*([0-9]+))?.*
! Touchstone port assignment:
! Touchstone port 1 = CST MWS port 1 ("")
! Touchstone port 2 = CST MWS port 2 ("")
# GHz S DB R 50
0.5                   -0.0983305        -121.938         -64.8082        -80.6103         -64.8059        -80.6014      -0.00735729         151.153
0.501                  -0.101574        -122.393         -64.6072         -81.733         -64.6056        -81.7232      -0.00742664         151.088
0.502                  -0.105085        -122.851         -64.4023        -82.8657         -64.4013         -82.855      -0.00749683         151.023
0.503                   -0.10888        -123.313         -64.1935        -84.0093         -64.1931        -83.9975      -0.00756786         150.957
0.504                  -0.112978        -123.778         -63.9807        -85.1645         -63.9809        -85.1516      -0.00763976         150.892
0.505                  -0.117397        -124.247         -63.7639        -86.3324         -63.7645        -86.3184      -0.00771253         150.826
0.506                  -0.122159         -124.72         -63.5429        -87.5139          -63.544        -87.4988      -0.00778619         150.761
0.507                  -0.127287        -125.197         -63.3178        -88.7102         -63.3192         -88.694      -0.00786078         150.695
0.508                  -0.132805        -125.677         -63.0885        -89.9225         -63.0902        -89.9052      -0.00793629         150.629
0.509                   -0.13874        -126.161         -62.8548        -91.1521         -62.8567        -91.1337      -0.00801277         150.563
0.51                    -0.14512        -126.649         -62.6168        -92.4002         -62.6189        -92.3809      -0.00809022         150.498
0.511                  -0.151976        -127.141         -62.3744        -93.6685         -62.3767        -93.6482      -0.00816867         150.431
0.512                   -0.15934        -127.638         -62.1276        -94.9583           -62.13        -94.9373      -0.00824816         150.365
0.513                  -0.167248        -128.138         -61.8763        -96.2715         -61.8788        -96.2498       -0.0083287         150.299
0.514                  -0.175737        -128.641         -61.6206        -97.6097         -61.6231        -97.5874      -0.00841033         150.233
0.515                  -0.184849        -129.149         -61.3605        -98.9748         -61.3629        -98.9521      -0.00849307         150.167
0.516                  -0.194626        -129.661         -61.0959        -100.369         -61.0982        -100.346      -0.00857696           150.1
0.517                  -0.205114        -130.177         -60.8269        -101.794         -60.8291        -101.771      -0.00866203         150.034
0.518                  -0.216363        -130.696         -60.5535        -103.252         -60.5557        -103.229      -0.00874832         149.967
0.519                  -0.228424        -131.219         -60.2759        -104.746         -60.2779        -104.723      -0.00883586           149.9
0.52                   -0.241352        -131.746         -59.9941        -106.277         -59.9959        -106.255      -0.00892471         149.834
0.521                  -0.255204        -132.276         -59.7082        -107.849         -59.7099        -107.828      -0.00901489         149.767
0.522                  -0.270041        -132.809         -59.4185        -109.464           -59.42        -109.444      -0.00910646           149.7
0.523                  -0.285925        -133.345          -59.125        -111.124         -59.1264        -111.105      -0.00919947         149.633
0.524                   -0.30292        -133.884         -58.8281        -112.833         -58.8293        -112.815      -0.00929396         149.566
0.525                  -0.321089        -134.424          -58.528        -114.593         -58.5291        -114.577      -0.00938998         149.499
0.526                    -0.3405        -134.967         -58.2251        -116.407         -58.2259        -116.393       -0.0094876         149.431
0.527                  -0.361214        -135.511         -57.9196        -118.278         -57.9203        -118.265      -0.00958685         149.364
0.528                  -0.383294        -136.055         -57.6121        -120.209         -57.6127        -120.198      -0.00968781         149.296
0.529                  -0.406796        -136.599          -57.303        -122.202         -57.3034        -122.193      -0.00979052         149.229
0.53                    -0.43177        -137.142         -56.9928         -124.26         -56.9932        -124.252      -0.00989504         149.161
0.531                  -0.458257        -137.683         -56.6821        -126.385         -56.6825         -126.38       -0.0100014         149.093
0.532                  -0.486286        -138.221         -56.3717         -128.58          -56.372        -128.577       -0.0101097         149.026
0.533                  -0.515868        -138.755         -56.0622        -130.846         -56.0626        -130.845       -0.0102199         148.958
0.534                  -0.546997        -139.284         -55.7545        -133.186         -55.7549        -133.187       -0.0103321          148.89
0.535                   -0.57964        -139.807         -55.4493          -135.6         -55.4498        -135.603       -0.0104462         148.821
0.536                  -0.613735        -140.321         -55.1477        -138.089         -55.1483        -138.093       -0.0105624         148.753
0.537                   -0.64919        -140.826         -54.8506        -140.653         -54.8513        -140.658       -0.0106804         148.685
0.538                  -0.685873        -141.321          -54.559        -143.291         -54.5598        -143.298       -0.0108004         148.617
0.539                  -0.723611        -141.803         -54.2738        -146.002         -54.2748         -146.01       -0.0109221         148.548
0.54                   -0.762187        -142.271         -53.9963        -148.783         -53.9974        -148.792       -0.0110456          148.48
0.541                  -0.801341        -142.725         -53.7273        -151.632         -53.7286        -151.641       -0.0111705         148.411
0.542                  -0.840769        -143.163         -53.4679        -154.544         -53.4694        -154.553       -0.0112968         148.342
0.543                  -0.880128        -143.584         -53.2191        -157.514         -53.2207        -157.523       -0.0114241         148.273
0.544                  -0.919039        -143.988         -52.9816        -160.537         -52.9833        -160.545       -0.0115523         148.204
0.545                  -0.957101        -144.376         -52.7563        -163.605         -52.7581        -163.613       -0.0116808         148.135
0.546                    -0.9939        -144.747         -52.5438        -166.712         -52.5457        -166.719       -0.0118095         148.066
0.547                   -1.02903        -145.103         -52.3447         -169.85         -52.3466        -169.856       -0.0119379         147.997
0.548                   -1.06208        -145.445         -52.1592         -173.01         -52.1611        -173.015       -0.0120658         147.928
0.549                   -1.09271        -145.774         -51.9875        -176.183         -51.9894        -176.187       -0.0121927         147.858
0.55                    -1.12059        -146.094         -51.8297        -179.361         -51.8315        -179.365       -0.0123184         147.789
0.551                   -1.14549        -146.407         -51.6856         177.463         -51.6873         177.461       -0.0124427         147.719
0.552                   -1.16721        -146.716         -51.5548           174.3         -51.5564         174.298       -0.0125655         147.649
0.553                   -1.18567        -147.023         -51.4369         171.155         -51.4384         171.154       -0.0126867          147.58
0.554                   -1.20084        -147.333         -51.3314         168.036         -51.3326         168.036       -0.0128063          147.51
0.555                   -1.21279        -147.648         -51.2374          164.95         -51.2385         164.951       -0.0129244         147.439
0.556                   -1.22163         -147.97         -51.1543         161.902         -51.1551         161.902       -0.0130413         147.369
0.557                   -1.22756        -148.304         -51.0811         158.896         -51.0818         158.897       -0.0131572         147.299
0.558                   -1.23083         -148.65          -51.017         155.936         -51.0175         155.937       -0.0132724         147.228
0.559                   -1.23169         -149.01         -50.9612         153.025         -50.9614         153.026       -0.0133872         147.158
0.56                    -1.23046        -149.387         -50.9126         150.166         -50.9126         150.166        -0.013502         147.087
0.561                   -1.22744        -149.782         -50.8704         147.359         -50.8703         147.359       -0.0136171         147.016
0.562                   -1.22295        -150.194         -50.8337         144.605         -50.8335         144.605       -0.0137328         146.945
0.563                    -1.2173        -150.626         -50.8018         141.906         -50.8014         141.904       -0.0138493         146.874
0.564                   -1.21077        -151.076         -50.7738         139.259         -50.7734         139.257       -0.0139671         146.803
0.565                   -1.20364        -151.546         -50.7491         136.665         -50.7486         136.663       -0.0140862         146.731
0.566                   -1.19616        -152.034          -50.727         134.123         -50.7264          134.12       -0.0142069          146.66
0.567                   -1.18856        -152.542         -50.7069          131.63         -50.7063         131.626       -0.0143294         146.588
0.568                   -1.18104        -153.067         -50.6883         129.186         -50.6876         129.182       -0.0144538         146.516
0.569                   -1.17378         -153.61         -50.6705         126.789         -50.6698         126.784       -0.0145803         146.444
0.57                    -1.16695         -154.17         -50.6533         124.436         -50.6526         124.431       -0.0147088         146.372
0.571                   -1.16067        -154.747         -50.6362         122.127         -50.6355          122.12       -0.0148396           146.3
0.572                   -1.15507        -155.339         -50.6188         119.858         -50.6181         119.851       -0.0149726         146.227
0.573                   -1.15025        -155.947         -50.6009         117.627         -50.6002          117.62       -0.0151079         146.155
0.574                   -1.14629        -156.569         -50.5821         115.434         -50.5815         115.427       -0.0152455         146.082
0.575                   -1.14326        -157.206         -50.5623         113.275         -50.5618         113.268       -0.0153855         146.009
0.576                   -1.14124        -157.857         -50.5413         111.149         -50.5407         111.141       -0.0155278         145.936
0.577                   -1.14027        -158.521         -50.5187         109.054         -50.5183         109.046       -0.0156726         145.863
0.578                   -1.14039        -159.197         -50.4946         106.987         -50.4942          106.98       -0.0158197          145.79
0.579                   -1.14166        -159.886         -50.4688         104.948         -50.4684         104.941       -0.0159693         145.716
0.58                     -1.1441        -160.587         -50.4411         102.935         -50.4407         102.927       -0.0161213         145.642
0.581                   -1.14775          -161.3         -50.4114         100.945         -50.4112         100.938       -0.0162757         145.569
0.582                   -1.15264        -162.025         -50.3798         98.9774         -50.3796         98.9704       -0.0164325         145.495
0.583                   -1.15879        -162.761         -50.3461         97.0305         -50.3459         97.0238       -0.0165918         145.421
0.584                   -1.16624        -163.507         -50.3103         95.1028         -50.3101         95.0964       -0.0167535         145.346
0.585                     -1.175        -164.265         -50.2723         93.1929         -50.2721         93.1868       -0.0169176         145.272
0.586                   -1.18511        -165.034         -50.2321         91.2995          -50.232         91.2938       -0.0170842         145.197
0.587                    -1.1966        -165.813         -50.1896         89.4212         -50.1896         89.4159       -0.0172533         145.123
0.588                    -1.2095        -166.603         -50.1449         87.5569         -50.1449          87.552       -0.0174249         145.048
0.589                   -1.22383        -167.403          -50.098         85.7053          -50.098         85.7009       -0.0175989         144.973
0.59                    -1.23964        -168.214         -50.0488         83.8654         -50.0488         83.8613       -0.0177754         144.897
0.591                   -1.25696        -169.035         -49.9973         82.0359         -49.9974         82.0322       -0.0179545         144.822
0.592                   -1.27582        -169.867         -49.9436         80.2159         -49.9436         80.2126        -0.018136         144.746
0.593                   -1.29628        -170.709         -49.8877         78.4043         -49.8877         78.4014       -0.0183201         144.671
0.594                   -1.31839        -171.561         -49.8295         76.6002         -49.8295         76.5976       -0.0185067         144.595
0.595                   -1.34218        -172.424          -49.769         74.8025          -49.769         74.8003        -0.018696         144.519
0.596                   -1.36771        -173.298         -49.7064         73.0104         -49.7064         73.0085       -0.0188878         144.442
0.597                   -1.39505        -174.182         -49.6416         71.2229         -49.6416         71.2214       -0.0190822         144.366
0.598                   -1.42426        -175.076         -49.5746         69.4391         -49.5746          69.438       -0.0192792         144.289
0.599                   -1.45539        -175.981         -49.5055         67.6583         -49.5054         67.6574       -0.0194789         144.212
0.6                     -1.48854        -176.897         -49.4343         65.8796         -49.4342         65.8789       -0.0196812         144.135
0.601                   -1.52376        -177.823          -49.361         64.1021         -49.3609         64.1017       -0.0198863         144.058
0.602                   -1.56115         -178.76         -49.2857         62.3251         -49.2856         62.3249        -0.020094         143.981
0.603                    -1.6008        -179.708         -49.2083         60.5477         -49.2082         60.5477       -0.0203045         143.903
0.604                   -1.64279         179.334         -49.1291         58.7692         -49.1289         58.7694       -0.0205178         143.825
0.605                   -1.68723         178.365         -49.0479         56.9889         -49.0478         56.9891       -0.0207339         143.747
0.606                   -1.73422         177.385         -48.9649         55.2059         -48.9647         55.2063       -0.0209528         143.669
0.607                   -1.78388         176.395           -48.88         53.4196         -48.8798         53.4201       -0.0211745         143.591
0.608                   -1.83632         175.395         -48.7934         51.6293         -48.7932         51.6298       -0.0213991         143.512
0.609                   -1.89167         174.384         -48.7051         49.8342         -48.7049         49.8347       -0.0216266         143.433
0.61                    -1.95007         173.363         -48.6152         48.0336          -48.615         48.0342       -0.0218571         143.354
0.611                   -2.01165         172.332         -48.5237         46.2269         -48.5235         46.2275       -0.0220905         143.275
0.612                   -2.07657         171.291         -48.4307         44.4133         -48.4305         44.4139       -0.0223269         143.195
0.613                   -2.14497         170.241         -48.3363         42.5923         -48.3361         42.5929       -0.0225663         143.116
0.614                   -2.21703         169.181         -48.2406         40.7632         -48.2404         40.7638       -0.0228088         143.036
0.615                    -2.2929         168.113         -48.1436         38.9254         -48.1434          38.926       -0.0230544         142.956
0.616                   -2.37278         167.037         -48.0455         37.0783         -48.0453         37.0788       -0.0233032         142.875
0.617                   -2.45684         165.953         -47.9463         35.2213         -47.9461         35.2218       -0.0235551         142.795
0.618                   -2.54528         164.862         -47.8462         33.3539          -47.846         33.3543       -0.0238102         142.714
0.619                   -2.63831         163.764         -47.7452         31.4755          -47.745         31.4759       -0.0240685         142.633
0.62                    -2.73613         162.661         -47.6435         29.5857         -47.6433          29.586       -0.0243302         142.551
0.621                   -2.83895         161.554         -47.5411         27.6839         -47.5409         27.6843       -0.0245951          142.47
0.622                   -2.94701         160.443         -47.4382         25.7699         -47.4381         25.7702       -0.0248635         142.388
0.623                   -3.06052          159.33          -47.335         23.8431         -47.3349         23.8433       -0.0251352         142.306
0.624                   -3.17972         158.216         -47.2316         21.9033         -47.2314         21.9035       -0.0254104         142.224
0.625                   -3.30485         157.102          -47.128         19.9501         -47.1279         19.9503       -0.0256892         142.141
0.626                   -3.43614         155.992         -47.0246         17.9833         -47.0245         17.9835       -0.0259715         142.059
0.627                   -3.57385         154.885         -46.9213         16.0027         -46.9212         16.0029       -0.0262574         141.976
0.628                    -3.7182         153.785         -46.8184         14.0083         -46.8183         14.0084        -0.026547         141.892
0.629                   -3.86943         152.694          -46.716         11.9999         -46.7159              12       -0.0268403         141.809
