! TOUCHSTONE file generated by CST MICROWAVE STUDIO
! Date and time: Mon Nov 30 08:09:08 2020
! Project name: Scenario_1_Planar_Body_Tissue_Out_of_Line.cst
! Parameters = {dy1=294.1; L_HA=400; Ltissue=700; MT=2.54; Rad_Dielectric=30; Rad_Lower=7.3; Rad_Upper=30; Wtissue=700; a_HA=580; a_WG=246; b_HA=500; b_WG=121; c_HA=0; c_WG=187; d_feed=85; dx1=866; h_feed=15; h_lower=18; h_upper=40; hfat=3; hgap=25; hmuscle=50; hskin=1.5}
! Header version: 2018
! Port assignment regex: !\s*Touchstone port\s*([0-9]+)\s*=\s*(CST MWS port|CST DS port)\s*([0-9]+|Zmin|Zmax)\s*\(\"(.*)\"\)(\s*mode\s*([0-9]+))?.*
! Touchstone port assignment:
! Touchstone port 1 = CST MWS port 1 ("")
! Touchstone port 2 = CST MWS port 2 ("")
# GHz S DB R 50
0.5                    -0.124529         -122.08         -65.1195         82.6596         -65.1182         82.6661      -0.00749865         151.159
0.501                  -0.135903        -122.484         -64.8518         81.4313         -64.8531          81.434      -0.00756407         151.094
0.502                  -0.147162         -122.89         -64.5794          80.153         -64.5835         80.1527       -0.0076301         151.029
0.503                  -0.158306        -123.297         -64.3025         78.8221         -64.3093         78.8196      -0.00769676         150.963
0.504                  -0.169338        -123.706         -64.0211          77.436         -64.0307          77.432      -0.00776406         150.898
0.505                  -0.180259        -124.116         -63.7354         75.9916         -63.7477         75.9872      -0.00783201         150.833
0.506                  -0.191071        -124.528         -63.4456         74.4862         -63.4606         74.4822      -0.00790063         150.767
0.507                  -0.201775        -124.941         -63.1517         72.9164         -63.1695         72.9139      -0.00796992         150.701
0.508                  -0.212374        -125.357         -62.8541         71.2792         -62.8746         71.2791      -0.00803991         150.636
0.509                  -0.222869        -125.774         -62.5531          69.571         -62.5762         69.5744       -0.0081106          150.57
0.51                   -0.233263        -126.192         -62.2489         67.7884         -62.2746         67.7965      -0.00818202         150.504
0.511                  -0.243558        -126.613         -61.9421         65.9278         -61.9703         65.9418      -0.00825417         150.438
0.512                  -0.253757        -127.036          -61.633         63.9857         -61.6637         64.0068      -0.00832707         150.372
0.513                  -0.263862        -127.461         -61.3222         61.9586         -61.3553          61.988      -0.00840074         150.306
0.514                  -0.273875        -127.887         -61.0104         59.8429         -61.0458         59.8818      -0.00847519          150.24
0.515                  -0.283801        -128.316         -60.6984         57.6353         -60.7358         57.6851      -0.00855045         150.174
0.516                  -0.293642        -128.747         -60.3869         55.3328         -60.4263         55.3946      -0.00862653         150.107
0.517                    -0.3034        -129.181         -60.0769         52.9325         -60.1181         53.0077      -0.00870345         150.041
0.518                   -0.31308        -129.617         -59.7695         50.4322         -59.8123          50.522      -0.00878124         149.974
0.519                  -0.322686        -130.055         -59.4658         47.8302         -59.5099         47.9357      -0.00885992         149.908
0.52                    -0.33222        -130.495         -59.1671         45.1257         -59.2122         45.2478      -0.00893952         149.841
0.521                  -0.341686        -130.939         -58.8748         42.3188         -58.9206         42.4584      -0.00902005         149.774
0.522                   -0.35109        -131.385         -58.5902         39.4105         -58.6364         39.5683      -0.00910155         149.707
0.523                  -0.360436        -131.833         -58.3148         36.4035         -58.3611         36.5797      -0.00918406          149.64
0.524                  -0.369727        -132.284         -58.0503         33.3014         -58.0962         33.4962      -0.00926761         149.573
0.525                  -0.378969        -132.739          -57.798         30.1098         -57.8432          30.323      -0.00935223         149.506
0.526                  -0.388167        -133.196         -57.5593         26.8355         -57.6034         27.0666      -0.00943798         149.439
0.527                  -0.397326        -133.656         -57.3357         23.4871         -57.3783         23.7351       -0.0095249         149.372
0.528                  -0.406452        -134.119         -57.1283         20.0748         -57.1691         20.3383      -0.00961304         149.304
0.529                  -0.415552        -134.585          -56.938         16.6097         -56.9766         16.8872      -0.00970249         149.237
0.53                    -0.42463        -135.055         -56.7656         13.1045         -56.8018          13.394      -0.00979329         149.169
0.531                  -0.433695        -135.528         -56.6116         9.57237          -56.645         9.87154      -0.00988555         149.101
0.532                  -0.442752        -136.004         -56.4761         6.02695         -56.5066          6.3334      -0.00997937         149.033
0.533                  -0.451809        -136.484         -56.3589         2.48194         -56.3863         2.79309       -0.0100748         148.965
0.534                  -0.460874        -136.967         -56.2597        -1.04936         -56.2839       -0.736106       -0.0101721         148.897
0.535                  -0.469956        -137.454         -56.1775        -4.55439         -56.1986        -4.24161       -0.0102714         148.829
0.536                  -0.479062        -137.945         -56.1115        -8.02169         -56.1296        -7.71184       -0.0103728         148.761
0.537                  -0.488201        -138.439         -56.0605        -11.4411         -56.0756        -11.1364       -0.0104766         148.693
0.538                  -0.497384        -138.938         -56.0231        -14.8039         -56.0353        -14.5065        -0.010583         148.624
0.539                  -0.506621        -139.441         -55.9979        -18.1031         -56.0075        -17.8147       -0.0106924         148.556
0.54                   -0.515921        -139.947         -55.9833        -21.3331         -55.9904        -21.0553       -0.0108051         148.487
0.541                  -0.525297        -140.458         -55.9778        -24.4899         -55.9827        -24.2239       -0.0109215         148.418
0.542                  -0.534761        -140.974         -55.9799        -27.5711         -55.9828        -27.3177        -0.011042          148.35
0.543                  -0.544324        -141.494         -55.9881        -30.5753         -55.9892        -30.3353        -0.011167         148.281
0.544                     -0.554        -142.018          -56.001        -33.5024         -56.0007        -33.2762        -0.011297         148.212
0.545                  -0.563804        -142.547         -56.0174        -36.3533         -56.0157        -36.1411       -0.0114322         148.142
0.546                   -0.57375        -143.081          -56.036        -39.1296         -56.0333        -38.9314       -0.0115724         148.073
0.547                  -0.583854         -143.62         -56.0557        -41.8335         -56.0521        -41.6493       -0.0117171         148.004
0.548                  -0.594133        -144.164         -56.0756        -44.4678         -56.0713        -44.2972        -0.011865         147.935
0.549                  -0.604605        -144.713         -56.0948        -47.0357           -56.09        -46.8784       -0.0120139         147.865
0.55                   -0.615288        -145.267         -56.1125        -49.5404         -56.1073        -49.3959       -0.0121608         147.796
0.551                  -0.626202        -145.827         -56.1281        -51.9856         -56.1226        -51.8534       -0.0123025         147.726
0.552                  -0.637369        -146.392         -56.1409        -54.3748         -56.1353        -54.2545       -0.0124358         147.657
0.553                   -0.64881        -146.963         -56.1505        -56.7119         -56.1448        -56.6027       -0.0125589         147.587
0.554                   -0.66055        -147.539         -56.1563        -59.0002         -56.1507        -58.9016       -0.0126717         147.517
0.555                  -0.672615        -148.121         -56.1581        -61.2436         -56.1526        -61.1549       -0.0127757         147.447
0.556                   -0.68503         -148.71         -56.1556        -63.4455         -56.1502        -63.3661       -0.0128733         147.377
0.557                  -0.697824        -149.304         -56.1484        -65.6092         -56.1432        -65.5386       -0.0129673         147.307
0.558                  -0.711028        -149.905         -56.1364        -67.7382         -56.1315        -67.6756       -0.0130604         147.236
0.559                  -0.724674        -150.512         -56.1194        -69.8355         -56.1148        -69.7805       -0.0131545         147.166
0.56                   -0.738797        -151.126         -56.0973        -71.9042         -56.0929        -71.8562        -0.013251         147.095
0.561                  -0.753431        -151.746         -56.0699        -73.9472         -56.0659        -73.9056       -0.0133506         147.024
0.562                  -0.768618        -152.373         -56.0372        -75.9674         -56.0336        -75.9317       -0.0134539         146.953
0.563                  -0.784397        -153.007         -55.9992        -77.9675          -55.996        -77.9371       -0.0135609         146.882
0.564                  -0.800812        -153.648         -55.9559        -79.9499         -55.9529        -79.9245       -0.0136717         146.811
0.565                   -0.81791        -154.296         -55.9071        -81.9171         -55.9046        -81.8962       -0.0137862         146.739
0.566                  -0.835741        -154.951          -55.853        -83.8716         -55.8508        -83.8547       -0.0139042         146.667
0.567                  -0.854357        -155.614         -55.7936        -85.8155         -55.7917        -85.8022       -0.0140255         146.596
0.568                  -0.873815        -156.284         -55.7288         -87.751         -55.7273         -87.741       -0.0141501         146.524
0.569                  -0.894173        -156.961         -55.6589        -89.6803         -55.6577        -89.6732       -0.0142776         146.452
0.57                   -0.915496        -157.646         -55.5837        -91.6053         -55.5829        -91.6007       -0.0144081         146.379
0.571                   -0.93785        -158.339         -55.5035        -93.5279         -55.5029        -93.5256       -0.0145414         146.307
0.572                  -0.961306         -159.04         -55.4183        -95.4501          -55.418        -95.4497       -0.0146774         146.235
0.573                   -0.98594        -159.748         -55.3282        -97.3736         -55.3281        -97.3749        -0.014816         146.162
0.574                   -1.01183        -160.464         -55.2332        -99.3002         -55.2334        -99.3029       -0.0149571         146.089
0.575                   -1.03907        -161.187         -55.1336        -101.232          -55.134        -101.235       -0.0151007         146.016
0.576                   -1.06774        -161.919         -55.0294        -103.169           -55.03        -103.174       -0.0152468         145.943
0.577                   -1.09793        -162.657         -54.9208        -105.115         -54.9216        -105.121       -0.0153952          145.87
0.578                   -1.12975        -163.404         -54.8078        -107.071         -54.8088        -107.077        -0.015546         145.797
0.579                    -1.1633        -164.157         -54.6908        -109.037         -54.6919        -109.044       -0.0156992         145.723
0.58                    -1.19869        -164.918         -54.5698        -111.016          -54.571        -111.023       -0.0158546          145.65
0.581                   -1.23603        -165.685          -54.445        -113.009         -54.4463        -113.016       -0.0160124         145.576
0.582                   -1.27545        -166.459         -54.3165        -115.018          -54.318        -115.025       -0.0161725         145.502
0.583                   -1.31706        -167.239         -54.1846        -117.043         -54.1862         -117.05       -0.0163349         145.428
0.584                     -1.361        -168.024         -54.0495        -119.086         -54.0511        -119.092       -0.0164996         145.354
0.585                    -1.4074        -168.814         -53.9114        -121.148          -53.913        -121.154       -0.0166665         145.279
0.586                   -1.45638        -169.609         -53.7705         -123.23         -53.7722        -123.236       -0.0168358         145.205
0.587                   -1.50808        -170.407         -53.6271        -125.334         -53.6287         -125.34       -0.0170074          145.13
0.588                   -1.56265        -171.208         -53.4813        -127.461         -53.4829        -127.466       -0.0171813         145.055
0.589                   -1.62021         -172.01         -53.3335         -129.61         -53.3351        -129.615       -0.0173575          144.98
0.59                    -1.68089        -172.813          -53.184        -131.784         -53.1855        -131.788       -0.0175361         144.905
0.591                   -1.74483        -173.615         -53.0329        -133.983         -53.0344        -133.987        -0.017717         144.829
0.592                   -1.81212        -174.414         -52.8807        -136.207         -52.8821        -136.211       -0.0179002         144.754
0.593                   -1.88289         -175.21         -52.7275        -138.458         -52.7289        -138.461       -0.0180858         144.678
0.594                   -1.95721        -175.999         -52.5738        -140.735         -52.5751        -140.738       -0.0182738         144.602
0.595                   -2.03516         -176.78         -52.4199        -143.039         -52.4211        -143.041       -0.0184642         144.526
0.596                   -2.11677        -177.551          -52.266         -145.37         -52.2671        -145.372        -0.018657          144.45
0.597                   -2.20207         -178.31         -52.1125        -147.728         -52.1135        -147.729       -0.0188523         144.373
0.598                   -2.29101        -179.053         -51.9598        -150.112         -51.9607        -150.113         -0.01905         144.297
0.599                   -2.38354        -179.779         -51.8081        -152.523         -51.8089        -152.524       -0.0192501          144.22
0.6                     -2.47953         179.516         -51.6579        -154.959         -51.6586         -154.96       -0.0194527         144.143
0.601                    -2.5788         178.835         -51.5095        -157.421         -51.5101        -157.421       -0.0196578         144.066
0.602                   -2.68112          178.18         -51.3631        -159.906         -51.3636        -159.907       -0.0198653         143.988
0.603                   -2.78617         177.555         -51.2192        -162.414         -51.2195        -162.415       -0.0200755         143.911
0.604                   -2.89355         176.963         -51.0779        -164.944         -51.0782        -164.945       -0.0202881         143.833
0.605                   -3.00282         176.406         -50.9396        -167.494         -50.9398        -167.495       -0.0205033         143.755
0.606                    -3.1134         175.887         -50.8046        -170.062         -50.8047        -170.063       -0.0207211         143.677
0.607                   -3.22468         175.407         -50.6731        -172.647         -50.6731        -172.647       -0.0209415         143.598
0.608                   -3.33594          174.97         -50.5452        -175.246         -50.5452        -175.246       -0.0211645          143.52
0.609                    -3.4464         174.575         -50.4213        -177.857         -50.4212        -177.858       -0.0213902         143.441
0.61                    -3.55524         174.223         -50.3013         179.522         -50.3012         179.521       -0.0216185         143.362
0.611                   -3.66158         173.915         -50.1855         176.893         -50.1854         176.892       -0.0218495         143.283
0.612                    -3.7645         173.647          -50.074         174.258         -50.0738         174.257       -0.0220833         143.203
0.613                   -3.86313         173.419         -49.9667         171.621         -49.9664          171.62       -0.0223199         143.124
0.614                   -3.95658         173.228         -49.8636         168.984         -49.8634         168.982       -0.0225592         143.044
0.615                   -4.04404         173.068         -49.7648         166.348         -49.7645         166.346       -0.0228014         142.964
0.616                   -4.12479         172.936         -49.6701         163.717         -49.6699         163.715       -0.0230465         142.883
0.617                    -4.1982         172.825         -49.5795         161.092         -49.5792          161.09       -0.0232946         142.803
0.618                   -4.26378         172.728         -49.4928         158.475         -49.4925         158.474       -0.0235456         142.722
0.619                    -4.3212          172.64         -49.4098          155.87         -49.4096         155.868       -0.0237997         142.641
0.62                    -4.37027         172.553         -49.3304         153.277         -49.3301         153.275       -0.0240569          142.56
0.621                   -4.41098          172.46         -49.2543         150.698          -49.254         150.696       -0.0243173         142.478
0.622                   -4.44349         172.353         -49.1812         148.134          -49.181         148.133       -0.0245809         142.396
0.623                   -4.46808         172.226          -49.111         145.588         -49.1108         145.587       -0.0248479         142.314
0.624                    -4.4852         172.072         -49.0432          143.06         -49.0431         143.059       -0.0251183         142.232
0.625                    -4.4954         171.886         -48.9778         140.551         -48.9777          140.55       -0.0253923          142.15
0.626                   -4.49931         171.663         -48.9143         138.062         -48.9142         138.061       -0.0256698         142.067
0.627                   -4.49764         171.398         -48.8525         135.593         -48.8524         135.592        -0.025951         141.984
0.628                   -4.49116         171.088         -48.7921         133.144          -48.792         133.144       -0.0262361           141.9
0.629                   -4.48064          170.73         -48.7327         130.717         -48.7327         130.716       -0.0265251         141.817
