! TOUCHSTONE file generated by CST MICROWAVE STUDIO
! Date and time: Thu Feb 18 07:37:51 2021
! Project name: Scenario_1_Planar_Body_Tissue_Out_of_Line.cst
! Parameters = {L_HA=400; Ltissue=1000; MT=2.54; Rad_Dielectric=30; Rad_Lower=7.3; Rad_Upper=30; Wtissue=1000; a_HA=580; a_WG=246; b_HA=500; b_WG=121; c_HA=0; c_WG=187; d_feed=85; dx1=346; dy1=311.4; h_feed=15; h_lower=18; h_upper=40; hfat=3; hgap=25; hmuscle=50; hskin=1.5}
! Header version: 2018
! Port assignment regex: !\s*Touchstone port\s*([0-9]+)\s*=\s*(CST MWS port|CST DS port)\s*([0-9]+|Zmin|Zmax)\s*\(\"(.*)\"\)(\s*mode\s*([0-9]+))?.*
! Touchstone port assignment:
! Touchstone port 1 = CST MWS port 1 ("")
! Touchstone port 2 = CST MWS port 2 ("")
# GHz S DB R 50
0.5                    -0.256449         -121.69         -58.6072        0.083366         -58.6072        0.084501      -0.00810367         151.147
0.501                  -0.257815        -122.082         -58.8763        -16.1624         -58.9752        -16.4253      -0.00815745         151.082
0.502                  -0.259208        -122.477         -59.1027         -26.586         -59.2312        -26.9008      -0.00821196         151.017
0.503                   -0.26063        -122.874         -59.2675        -33.8374         -59.4003         -34.148      -0.00826721         150.952
0.504                  -0.262082        -123.274         -59.3824        -39.2155         -59.5104        -39.5064      -0.00832321         150.886
0.505                  -0.263568        -123.677         -59.4603         -43.408         -59.5803        -43.6757      -0.00837996         150.821
0.506                  -0.265088        -124.082         -59.5109        -46.8072          -59.622        -47.0523      -0.00843749         150.755
0.507                  -0.266644        -124.491         -59.5408        -49.6516         -59.6433         -49.876       -0.0084958          150.69
0.508                  -0.268238        -124.902          -59.555        -52.0941         -59.6495        -52.2997      -0.00855489         150.624
0.509                  -0.269873        -125.316         -59.5569        -54.2368         -59.6439        -54.4255      -0.00861478         150.558
0.51                    -0.27155        -125.733         -59.5489        -56.1504         -59.6292         -56.324      -0.00867548         150.492
0.511                  -0.273271        -126.153         -59.5328        -57.8854          -59.607        -58.0455      -0.00873699         150.426
0.512                   -0.27504        -126.576         -59.5101        -59.4788         -59.5787        -59.6268      -0.00879934          150.36
0.513                  -0.276858        -127.002         -59.4817        -60.9584         -59.5453        -61.0954      -0.00886252         150.294
0.514                  -0.278729        -127.431         -59.4485        -62.3454         -59.5075        -62.4725      -0.00892655         150.228
0.515                  -0.280654        -127.863          -59.411        -63.6563         -59.4659        -63.7744      -0.00899145         150.162
0.516                  -0.282636        -128.299         -59.3699         -64.904          -59.421        -65.0139      -0.00905721         150.095
0.517                  -0.284679        -128.737         -59.3255        -66.0989         -59.3731        -66.2013      -0.00912385         150.029
0.518                  -0.286785        -129.179          -59.278        -67.2494         -59.3225        -67.3449      -0.00919139         149.962
0.519                  -0.288957        -129.625         -59.2279        -68.3624         -59.2694        -68.4516      -0.00925983         149.896
0.52                     -0.2912        -130.074         -59.1753        -69.4436         -59.2141         -69.527      -0.00932919         149.829
0.521                  -0.293515        -130.526         -59.1203        -70.4978         -59.1566        -70.5758      -0.00939947         149.762
0.522                  -0.295908        -130.982         -59.0631        -71.5288         -59.0971        -71.6018       -0.0094707         149.695
0.523                  -0.298381        -131.441         -59.0039        -72.5402         -59.0357        -72.6085      -0.00954287         149.628
0.524                  -0.300939        -131.905         -58.9427        -73.5347         -58.9725        -73.5987        -0.009616         149.561
0.525                  -0.303585        -132.371         -58.8796        -74.5149         -58.9076        -74.5749      -0.00969011         149.494
0.526                  -0.306325        -132.842         -58.8147        -75.4829          -58.841        -75.5391       -0.0097652         149.427
0.527                  -0.309162        -133.316         -58.7481        -76.4405         -58.7727        -76.4933       -0.0098413          149.36
0.528                  -0.312102        -133.795         -58.6797        -77.3895         -58.7028        -77.4389       -0.0099184         149.292
0.529                  -0.315149        -134.277         -58.6097        -78.3312         -58.6314        -78.3776      -0.00999653         149.225
0.53                   -0.318309        -134.763         -58.5381         -79.267         -58.5584        -79.3105       -0.0100757         149.157
0.531                  -0.321587        -135.254         -58.4648         -80.198         -58.4839        -80.2387       -0.0101559         149.089
0.532                   -0.32499        -135.748         -58.3899        -81.1251         -58.4079        -81.1632       -0.0102372         149.021
0.533                  -0.328522        -136.247         -58.3135        -82.0493         -58.3303        -82.0851       -0.0103195         148.953
0.534                  -0.332191        -136.751         -58.2355        -82.9715         -58.2513        -83.0049        -0.010403         148.885
0.535                  -0.336004        -137.258          -58.156        -83.8923         -58.1708        -83.9236       -0.0104875         148.817
0.536                  -0.339967         -137.77         -58.0749        -84.8125         -58.0888        -84.8418       -0.0105732         148.749
0.537                  -0.344088        -138.287         -57.9923        -85.7327         -58.0053        -85.7601         -0.01066         148.681
0.538                  -0.348375        -138.809         -57.9081        -86.6535         -57.9203        -86.6791       -0.0107479         148.612
0.539                  -0.352837        -139.335         -57.8224        -87.5754         -57.8337        -87.5992        -0.010837         148.544
0.54                   -0.357481        -139.866         -57.7351        -88.4989         -57.7457        -88.5211       -0.0109273         148.475
0.541                  -0.362318        -140.403         -57.6463        -89.4244         -57.6562        -89.4451       -0.0110188         148.407
0.542                  -0.367357        -140.944         -57.5559        -90.3525         -57.5651        -90.3717       -0.0111115         148.338
0.543                  -0.372608         -141.49         -57.4639        -91.2834         -57.4725        -91.3013       -0.0112054         148.269
0.544                  -0.378083        -142.042         -57.3704        -92.2177         -57.3784        -92.2343       -0.0113005           148.2
0.545                  -0.383793        -142.599         -57.2752        -93.1557         -57.2826         -93.171       -0.0113969         148.131
0.546                   -0.38975        -143.162         -57.1785        -94.0977         -57.1853        -94.1119       -0.0114945         148.061
0.547                  -0.395968         -143.73         -57.0801        -95.0441         -57.0864        -95.0572       -0.0115935         147.992
0.548                  -0.402459        -144.305           -56.98        -95.9952         -56.9859        -96.0073       -0.0116937         147.922
0.549                  -0.409239        -144.885         -56.8784        -96.9514         -56.8838        -96.9625       -0.0117953         147.853
0.55                   -0.416322        -145.471          -56.775        -97.9129           -56.78        -97.9231       -0.0118982         147.783
0.551                  -0.423726        -146.063           -56.67        -98.8801         -56.6746        -98.8894       -0.0120024         147.713
0.552                  -0.431468        -146.662         -56.5632        -99.8532         -56.5674        -99.8617        -0.012108         147.643
0.553                  -0.439565        -147.267         -56.4548        -100.833         -56.4586         -100.84        -0.012215         147.573
0.554                  -0.448038        -147.878         -56.3446        -101.819         -56.3481        -101.826       -0.0123234         147.503
0.555                  -0.456907        -148.497         -56.2326        -102.812         -56.2358        -102.818       -0.0124332         147.433
0.556                  -0.466195        -149.122         -56.1189        -103.812         -56.1217        -103.817       -0.0125445         147.362
0.557                  -0.475926        -149.754         -56.0034        -104.819         -56.0059        -104.825       -0.0126572         147.292
0.558                  -0.486123        -150.394         -55.8861        -105.835         -55.8883        -105.839       -0.0127715         147.221
0.559                  -0.496814        -151.041         -55.7669        -106.858         -55.7689        -106.862       -0.0128872          147.15
0.56                   -0.508028        -151.696         -55.6459         -107.89         -55.6476        -107.894       -0.0130044         147.079
0.561                  -0.519795        -152.358          -55.523        -108.931         -55.5245        -108.934       -0.0131232         147.008
0.562                  -0.532147        -153.029         -55.3983        -109.981         -55.3995        -109.984       -0.0132435         146.937
0.563                  -0.545119        -153.707         -55.2716         -111.04         -55.2727        -111.042       -0.0133654         146.866
0.564                  -0.558749        -154.394          -55.143        -112.109         -55.1439        -112.111       -0.0134889         146.794
0.565                  -0.573075         -155.09         -55.0125        -113.188         -55.0132         -113.19        -0.013614         146.723
0.566                   -0.58814        -155.794           -54.88        -114.278         -54.8805        -114.279       -0.0137408         146.651
0.567                   -0.60399        -156.508         -54.7455        -115.378         -54.7459         -115.38       -0.0138692         146.579
0.568                  -0.620673        -157.231         -54.6091         -116.49         -54.6093        -116.491       -0.0139993         146.507
0.569                  -0.638241        -157.963         -54.4706        -117.614         -54.4707        -117.615       -0.0141311         146.435
0.57                    -0.65675        -158.705         -54.3302         -118.75         -54.3301         -118.75       -0.0142647         146.363
0.571                  -0.676261        -159.457         -54.1877        -119.898         -54.1875        -119.898          -0.0144         146.291
0.572                  -0.696836        -160.219         -54.0431        -121.059         -54.0428        -121.059       -0.0145371         146.218
0.573                  -0.718546        -160.991         -53.8966        -122.234         -53.8962        -122.234       -0.0146759         146.145
0.574                  -0.741465        -161.774         -53.7479        -123.423         -53.7474        -123.423       -0.0148166         146.073
0.575                  -0.765672        -162.568         -53.5972        -124.626         -53.5967        -124.626       -0.0149592             146
0.576                  -0.791253        -163.374         -53.4445        -125.844         -53.4438        -125.844       -0.0151036         145.927
0.577                  -0.818301        -164.191         -53.2897        -127.078          -53.289        -127.078       -0.0152499         145.853
0.578                  -0.846915        -165.019         -53.1328        -128.329          -53.132        -128.328       -0.0153982          145.78
0.579                  -0.877202         -165.86         -52.9739        -129.596         -52.9731        -129.596       -0.0155483         145.706
0.58                   -0.909277        -166.712          -52.813         -130.88         -52.8121         -130.88       -0.0157005         145.633
0.581                  -0.943265        -167.578           -52.65        -132.183         -52.6491        -132.183       -0.0158546         145.559
0.582                  -0.979299        -168.455         -52.4851        -133.504         -52.4841        -133.504       -0.0160108         145.485
0.583                   -1.01752        -169.346         -52.3181        -134.845         -52.3171        -134.845       -0.0161691         145.411
0.584                    -1.0581         -170.25         -52.1493        -136.207         -52.1482        -136.207       -0.0163294         145.336
0.585                   -1.10118        -171.167         -51.9785        -137.589         -51.9774        -137.589       -0.0164918         145.262
0.586                   -1.14696        -172.097         -51.8058        -138.993         -51.8048        -138.993       -0.0166563         145.187
0.587                   -1.19563        -173.041         -51.6314         -140.42         -51.6303         -140.42        -0.016823         145.112
0.588                    -1.2474        -173.998         -51.4552         -141.87         -51.4541        -141.871       -0.0169919         145.037
0.589                    -1.3025        -174.968         -51.2773        -143.345         -51.2762        -143.346        -0.017163         144.962
0.59                    -1.36117        -175.952         -51.0978        -144.845         -51.0968        -144.846       -0.0173364         144.887
0.591                   -1.42368        -176.949         -50.9168        -146.372         -50.9158        -146.372        -0.017512         144.811
0.592                    -1.4903        -177.959         -50.7344        -147.925         -50.7334        -147.926       -0.0176899         144.736
0.593                   -1.56134        -178.982         -50.5507        -149.507         -50.5497        -149.507       -0.0178702          144.66
0.594                   -1.63712         179.983         -50.3658        -151.117         -50.3649        -151.118       -0.0180528         144.584
0.595                     -1.718         178.937         -50.1799        -152.758          -50.179        -152.759       -0.0182378         144.508
0.596                   -1.80434          177.88         -49.9932         -154.43         -49.9923         -154.43       -0.0184252         144.431
0.597                   -1.89655         176.814         -49.8057        -156.133         -49.8049        -156.134       -0.0186151         144.355
0.598                   -1.99504          175.74         -49.6178         -157.87          -49.617        -157.871       -0.0188074         144.278
0.599                   -2.10028         174.659         -49.4296         -159.64         -49.4288        -159.641       -0.0190023         144.201
0.6                     -2.21271         173.573         -49.2413        -161.445         -49.2406        -161.446       -0.0191997         144.124
0.601                   -2.33286         172.485         -49.0532        -163.285         -49.0526        -163.286       -0.0193997         144.047
0.602                   -2.46122         171.397         -48.8656        -165.162          -48.865        -165.163       -0.0196022         143.969
0.603                   -2.59835         170.313         -48.6788        -167.076         -48.6783        -167.077       -0.0198074         143.891
0.604                    -2.7448         169.237          -48.493        -169.027         -48.4925        -169.028       -0.0200153         143.813
0.605                   -2.90111         168.172         -48.3087        -171.016         -48.3083        -171.017       -0.0202258         143.735
0.606                   -3.06786         167.125         -48.1261        -173.043         -48.1257        -173.044       -0.0204391         143.657
0.607                   -3.24558         166.101         -47.9457        -175.108         -47.9454        -175.109       -0.0206551         143.579
0.608                    -3.4348         165.108         -47.7679        -177.212         -47.7676        -177.212       -0.0208739           143.5
0.609                     -3.636         164.153         -47.5929        -179.353         -47.5927        -179.354       -0.0210956         143.421
0.61                    -3.84956         163.246         -47.4214         178.468         -47.4212         178.467       -0.0213201         143.342
0.611                   -4.07578         162.397         -47.2537         176.252         -47.2535         176.252       -0.0215474         143.262
0.612                   -4.31484         161.619         -47.0902         174.001         -47.0901         174.001       -0.0217777         143.183
0.613                   -4.56669         160.924         -46.9315         171.715         -46.9314         171.715       -0.0220109         143.103
0.614                   -4.83105         160.327         -46.7778         169.397         -46.7778         169.397       -0.0222472         143.023
0.615                   -5.10733         159.844         -46.6298         167.048         -46.6298         167.048       -0.0224864         142.943
0.616                   -5.39455         159.492         -46.4877          164.67         -46.4877         164.671       -0.0227287         142.862
0.617                   -5.69122         159.291          -46.352         162.267         -46.3521         162.267       -0.0229741         142.781
0.618                   -5.99527         159.257          -46.223          159.84         -46.2231         159.841       -0.0232227         142.701
0.619                   -6.30396         159.411         -46.1011         157.394         -46.1012         157.395       -0.0234744         142.619
0.62                    -6.61374          159.77         -45.9865         154.931         -45.9867         154.932       -0.0237294         142.538
0.621                   -6.92025         160.348         -45.8796         152.456         -45.8797         152.457       -0.0239876         142.456
0.622                   -7.21825         161.155         -45.7804         149.971         -45.7805         149.973       -0.0242493         142.374
0.623                   -7.50172         162.197         -45.6891         147.482         -45.6892         147.484       -0.0245143         142.292
0.624                   -7.76405         163.468         -45.6057         144.992         -45.6059         144.994       -0.0247828          142.21
0.625                   -7.99838         164.954         -45.5304         142.505         -45.5305         142.507       -0.0250549         142.127
0.626                   -8.19803         166.629         -45.4629         140.026          -45.463         140.028       -0.0253306         142.044
0.627                   -8.35711         168.455         -45.4032         137.559         -45.4033         137.561         -0.02561         141.961
0.628                   -8.47109         170.383         -45.3512         135.107         -45.3513         135.109       -0.0258933         141.877
0.629                   -8.53732         172.359         -45.3065         132.674         -45.3066         132.676       -0.0261805         141.794
