! TOUCHSTONE file generated by CST MICROWAVE STUDIO
! Date and time: Sat Nov 14 20:03:40 2020
! Project name: Scenario_1_Planar_Body_Tissue_Out_of_Line.cst
! Parameters = {dy1=-311.4; L_HA=400; Ltissue=700; MT=2.54; Rad_Dielectric=30; Rad_Lower=7.3; Rad_Upper=30; Wtissue=700; a_HA=580; a_WG=246; b_HA=500; b_WG=121; c_HA=0; c_WG=187; d_feed=85; dx1=693; h_feed=15; h_lower=18; h_upper=40; hfat=3; hgap=25; hmuscle=50; hskin=1.5}
! Header version: 2018
! Port assignment regex: !\s*Touchstone port\s*([0-9]+)\s*=\s*(CST MWS port|CST DS port)\s*([0-9]+|Zmin|Zmax)\s*\(\"(.*)\"\)(\s*mode\s*([0-9]+))?.*
! Touchstone port assignment:
! Touchstone port 1 = CST MWS port 1 ("")
! Touchstone port 2 = CST MWS port 2 ("")
# GHz S DB R 50
0.5                    -0.173954        -121.682          -63.339         169.498         -63.3387         169.502      -0.00776357         151.156
0.501                  -0.177528        -122.101         -63.2413         167.595         -63.2413         167.599      -0.00782447         151.091
0.502                  -0.181121        -122.523         -63.1425          165.68         -63.1429         165.685      -0.00788582         151.026
0.503                  -0.184738        -122.948         -63.0428         163.755         -63.0435         163.759      -0.00794764          150.96
0.504                  -0.188382        -123.375         -62.9422         161.819         -62.9431         161.824      -0.00800994         150.895
0.505                  -0.192055        -123.805         -62.8407         159.873          -62.842         159.879      -0.00807275          150.83
0.506                  -0.195764        -124.238         -62.7385         157.919           -62.74         157.924      -0.00813607         150.764
0.507                  -0.199512        -124.673         -62.6356         155.955         -62.6373         155.961      -0.00819991         150.698
0.508                  -0.203304        -125.112         -62.5321         153.984          -62.534          153.99      -0.00826431         150.633
0.509                  -0.207145        -125.553          -62.428         152.006         -62.4301         152.013      -0.00832927         150.567
0.51                   -0.211041        -125.997         -62.3235         150.022         -62.3257         150.028      -0.00839482         150.501
0.511                  -0.214997        -126.444         -62.2185         148.032         -62.2208         148.039      -0.00846097         150.435
0.512                   -0.21902        -126.895         -62.1132         146.037         -62.1156         146.044      -0.00852774         150.369
0.513                  -0.223117        -127.349         -62.0076         144.038           -62.01         144.046      -0.00859514         150.303
0.514                  -0.227294        -127.806         -61.9017         142.037         -61.9042         142.045      -0.00866321         150.237
0.515                   -0.23156        -128.266         -61.7956         140.033         -61.7981         140.042      -0.00873195         150.171
0.516                  -0.235922         -128.73         -61.6894         138.028         -61.6919         138.037       -0.0088014         150.104
0.517                  -0.240389        -129.197          -61.583         136.023         -61.5855         136.033      -0.00887156         150.038
0.518                  -0.244971        -129.668         -61.4766         134.019          -61.479         134.029      -0.00894247         149.971
0.519                  -0.249678        -130.142           -61.37         132.017         -61.3724         132.027      -0.00901414         149.905
0.52                   -0.254519        -130.621         -61.2634         130.018         -61.2657         130.027      -0.00908659         149.838
0.521                  -0.259507        -131.103         -61.1567         128.022         -61.1589         128.032      -0.00915986         149.771
0.522                  -0.264653        -131.589           -61.05         126.031          -61.052         126.041      -0.00923395         149.704
0.523                   -0.26997        -132.079         -60.9431         124.046          -60.945         124.056      -0.00930891         149.637
0.524                  -0.275471        -132.573         -60.8361         122.068         -60.8378         122.077      -0.00938474          149.57
0.525                  -0.281172        -133.072         -60.7289         120.098         -60.7304         120.107      -0.00946148         149.503
0.526                  -0.287088        -133.574         -60.6214         118.136         -60.6228         118.145      -0.00953916         149.436
0.527                  -0.293234        -134.082         -60.5136         116.184         -60.5149         116.192      -0.00961779         149.368
0.528                   -0.29963        -134.593         -60.4054         114.242         -60.4065          114.25      -0.00969741         149.301
0.529                  -0.306294        -135.109         -60.2967         112.312         -60.2976         112.319      -0.00977804         149.233
0.53                   -0.313245         -135.63         -60.1874         110.393         -60.1881           110.4      -0.00985972         149.166
0.531                  -0.320506        -136.155         -60.0773         108.488         -60.0779         108.493      -0.00994246         149.098
0.532                  -0.328099        -136.686         -59.9664         106.595         -59.9667           106.6       -0.0100263          149.03
0.533                  -0.336048        -137.221         -59.8543         104.716         -59.8546          104.72       -0.0101113         148.962
0.534                  -0.344381        -137.761         -59.7411         102.851         -59.7412         102.854       -0.0101974         148.894
0.535                  -0.353123        -138.307         -59.6265         101.001         -59.6265         101.002       -0.0102847         148.826
0.536                  -0.362305        -138.857         -59.5104         99.1646         -59.5102          99.165       -0.0103733         148.758
0.537                  -0.371959        -139.413         -59.3924         97.3431         -59.3921         97.3423       -0.0104631          148.69
0.538                  -0.382118        -139.974         -59.2725         95.5359         -59.2721          95.534       -0.0105541         148.621
0.539                  -0.392819        -140.541         -59.1505          93.743           -59.15         93.7399       -0.0106465         148.553
0.54                   -0.404098        -141.113          -59.026         91.9637         -59.0255         91.9595       -0.0107403         148.484
0.541                  -0.415999        -141.691          -58.899         90.1977         -58.8984         90.1923       -0.0108354         148.415
0.542                  -0.428563        -142.274         -58.7692          88.444         -58.7685         88.4375        -0.010932         148.346
0.543                  -0.441838        -142.863         -58.6363         86.7019         -58.6357         86.6943         -0.01103         148.277
0.544                  -0.455873        -143.458         -58.5002         84.9703         -58.4996         84.9617       -0.0111295         148.208
0.545                   -0.47072        -144.059         -58.3606         83.2478           -58.36         83.2383       -0.0112305         148.139
0.546                  -0.486436        -144.665         -58.2175         81.5332         -58.2169         81.5228       -0.0113331          148.07
0.547                  -0.503078        -145.277         -58.0705         79.8247         -58.0699         79.8136       -0.0114372             148
0.548                  -0.520711        -145.895         -57.9195         78.1206          -57.919         78.1088        -0.011543         147.931
0.549                  -0.539401        -146.518         -57.7643         76.4189         -57.7639         76.4066       -0.0116504         147.861
0.55                   -0.559217        -147.147         -57.6049         74.7176         -57.6046         74.7049       -0.0117596         147.791
0.551                  -0.580234        -147.781         -57.4411         73.0143         -57.4409         73.0014       -0.0118704         147.722
0.552                   -0.60253        -148.421         -57.2728         71.3067         -57.2727         71.2936        -0.011983         147.652
0.553                  -0.626185        -149.066            -57.1         69.5921            -57.1          69.579       -0.0120974         147.582
0.554                  -0.651285        -149.715         -56.9226          67.868         -56.9227          67.855       -0.0122136         147.511
0.555                  -0.677919        -150.369         -56.7407         66.1314         -56.7408         66.1187       -0.0123317         147.441
0.556                  -0.706177        -151.027         -56.5542         64.3797         -56.5545         64.3673       -0.0124516          147.37
0.557                  -0.736154        -151.689         -56.3633         62.6098         -56.3637         62.5978       -0.0125734           147.3
0.558                  -0.767945        -152.355         -56.1682         60.8187         -56.1686         60.8073       -0.0126971         147.229
0.559                  -0.801646        -153.022         -55.9689         59.0035         -55.9693         58.9928       -0.0128228         147.158
0.56                   -0.837355        -153.692         -55.7656         57.1612         -55.7662         57.1513       -0.0129505         147.087
0.561                  -0.875167        -154.363         -55.5588         55.2889         -55.5593         55.2797       -0.0130801         147.016
0.562                  -0.915172        -155.034         -55.3485         53.3837         -55.3491         53.3754       -0.0132117         146.945
0.563                  -0.957458        -155.705         -55.1353         51.4428         -55.1359         51.4354       -0.0133453         146.874
0.564                    -1.0021        -156.374         -54.9194         49.4638           -54.92         49.4573       -0.0134809         146.802
0.565                   -1.04917        -157.039         -54.7014         47.4442          -54.702         47.4385       -0.0136186         146.731
0.566                   -1.09873          -157.7         -54.4818         45.3818         -54.4823          45.377       -0.0137583         146.659
0.567                    -1.1508        -158.355          -54.261         43.2748         -54.2615         43.2709       -0.0138999         146.587
0.568                    -1.2054        -159.001         -54.0397         41.1215         -54.0401         41.1184       -0.0140436         146.515
0.569                   -1.26251        -159.638         -53.8184         38.9208         -53.8188         38.9184       -0.0141893         146.443
0.57                     -1.3221        -160.264         -53.5978         36.6719         -53.5981         36.6701       -0.0143369         146.371
0.571                   -1.38406        -160.876         -53.3786         34.3742         -53.3788          34.373       -0.0144866         146.299
0.572                   -1.44829        -161.471         -53.1614         32.0279         -53.1615         32.0272       -0.0146381         146.226
0.573                   -1.51459        -162.049         -52.9469         29.6335          -52.947         29.6332       -0.0147916         146.153
0.574                   -1.58274        -162.606         -52.7359         27.1921         -52.7358         27.1921       -0.0149469         146.081
0.575                   -1.65244        -163.141         -52.5289         24.7051         -52.5288         24.7054       -0.0151042         146.008
0.576                   -1.72335        -163.652         -52.3266         22.1748         -52.3264         22.1752       -0.0152632         145.935
0.577                   -1.79504        -164.137         -52.1297         19.6036         -52.1295          19.604        -0.015424         145.861
0.578                   -1.86705        -164.594         -51.9388         16.9946         -51.9384          16.995       -0.0155866         145.788
0.579                   -1.93884        -165.022         -51.7542         14.3513         -51.7539         14.3516       -0.0157509         145.715
0.58                    -2.00983        -165.421         -51.5766         11.6776         -51.5762         11.6777       -0.0159169         145.641
0.581                   -2.07939         -165.79         -51.4063         8.97763         -51.4058         8.97762       -0.0160845         145.567
0.582                   -2.14688        -166.131         -51.2435         6.25593          -51.243         6.25573       -0.0162538         145.493
0.583                   -2.21165        -166.444         -51.0886         3.51715         -51.0881         3.51676       -0.0164246         145.419
0.584                   -2.27305        -166.731         -50.9416        0.766069         -50.9411        0.765475        -0.016597         145.345
0.585                   -2.33048        -166.995         -50.8026        -1.99253         -50.8021        -1.99331       -0.0167709          145.27
0.586                   -2.38337         -167.24         -50.6715         -4.7539         -50.6711        -4.75485       -0.0169463         145.196
0.587                   -2.43126        -167.469         -50.5483        -7.51346         -50.5479        -7.51454       -0.0171232         145.121
0.588                   -2.47375        -167.686         -50.4327        -10.2668         -50.4323         -10.268       -0.0173016         145.046
0.589                   -2.51058        -167.897         -50.3245        -13.0099         -50.3242        -13.0111       -0.0174816         144.971
0.59                    -2.54159        -168.108         -50.2234        -15.7388          -50.223          -15.74        -0.017663         144.896
0.591                   -2.56675        -168.321         -50.1288        -18.4502         -50.1286        -18.4514       -0.0178459          144.82
0.592                   -2.58614        -168.545         -50.0405         -21.141         -50.0403        -21.1422       -0.0180304         144.745
0.593                   -2.59996        -168.781          -49.958        -23.8087         -49.9579        -23.8097       -0.0182165         144.669
0.594                   -2.60851        -169.037         -49.8808        -26.4509         -49.8807        -26.4518       -0.0184042         144.593
0.595                   -2.61218        -169.315         -49.8084         -29.066         -49.8083        -29.0667       -0.0185936         144.517
0.596                   -2.61143        -169.619         -49.7403        -31.6525         -49.7402         -31.653       -0.0187848         144.441
0.597                   -2.60675        -169.952         -49.6759        -34.2093          -49.676        -34.2096       -0.0189777         144.364
0.598                   -2.59869        -170.316         -49.6149        -36.7359          -49.615         -36.736       -0.0191725         144.287
0.599                   -2.58781        -170.714         -49.5567        -39.2319         -49.5568        -39.2317       -0.0193692         144.211
0.6                     -2.57465        -171.147         -49.5009        -41.6973          -49.501        -41.6968        -0.019568         144.134
0.601                   -2.55976        -171.615          -49.447        -44.1322         -49.4471        -44.1314       -0.0197689         144.056
0.602                   -2.54366        -172.119         -49.3946        -46.5372         -49.3947        -46.5362       -0.0199721         143.979
0.603                   -2.52684        -172.659         -49.3433        -48.9129         -49.3435        -48.9116       -0.0201775         143.901
0.604                   -2.50977        -173.234         -49.2928        -51.2601          -49.293        -51.2586       -0.0203854         143.823
0.605                   -2.49285        -173.844         -49.2427        -53.5799         -49.2429        -53.5781       -0.0205958         143.745
0.606                   -2.47648        -174.489         -49.1927        -55.8733         -49.1929        -55.8713       -0.0208088         143.667
0.607                   -2.46101        -175.167         -49.1425        -58.1415         -49.1427        -58.1393       -0.0210246         143.588
0.608                   -2.44675        -175.878         -49.0919        -60.3858         -49.0921        -60.3835       -0.0212432          143.51
0.609                   -2.43398        -176.619         -49.0407        -62.6076         -49.0409        -62.6051       -0.0214647         143.431
0.61                    -2.42294        -177.392         -48.9886        -64.8082         -48.9887        -64.8056       -0.0216893         143.352
0.611                   -2.41386        -178.193         -48.9354         -66.989         -48.9356        -66.9863       -0.0219171         143.272
0.612                   -2.40694        -179.023          -48.881        -69.1515         -48.8812        -69.1487       -0.0221481         143.193
0.613                   -2.40235         -179.88         -48.8253         -71.297         -48.8254        -71.2942       -0.0223825         143.113
0.614                   -2.40025         179.237         -48.7681        -73.4271         -48.7682        -73.4243       -0.0226203         143.033
0.615                   -2.40079         178.328         -48.7094        -75.5432         -48.7095        -75.5403       -0.0228618         142.953
0.616                    -2.4041         177.395          -48.649        -77.6466          -48.649        -77.6438       -0.0231069         142.872
0.617                   -2.41031         176.439         -48.5868        -79.7387         -48.5869        -79.7359       -0.0233558         142.792
0.618                   -2.41952         175.459         -48.5229         -81.821         -48.5229        -81.8182       -0.0236085         142.711
0.619                   -2.43186         174.457         -48.4571        -83.8946         -48.4572         -83.892       -0.0238652         142.629
0.62                    -2.44744         173.434         -48.3896        -85.9611         -48.3896        -85.9586       -0.0241259         142.548
0.621                   -2.46635         172.389         -48.3201        -88.0216         -48.3201        -88.0192       -0.0243907         142.466
0.622                   -2.48872         171.324         -48.2488        -90.0774         -48.2488        -90.0751       -0.0246598         142.384
0.623                   -2.51465         170.239         -48.1756        -92.1297         -48.1756        -92.1275       -0.0249332         142.302
0.624                   -2.54426         169.134         -48.1006        -94.1796         -48.1006        -94.1776       -0.0252109          142.22
0.625                   -2.57766          168.01         -48.0238        -96.2284         -48.0238        -96.2265       -0.0254931         142.137
0.626                   -2.61499         166.868         -47.9452        -98.2771         -47.9452        -98.2754       -0.0257798         142.054
0.627                   -2.65637         165.707         -47.8649        -100.327         -47.8649        -100.325       -0.0260712         141.971
0.628                   -2.70194         164.529          -47.783        -102.379          -47.783        -102.377       -0.0263672         141.887
0.629                   -2.75185         163.333         -47.6994        -104.433         -47.6994        -104.432        -0.026668         141.804
