! TOUCHSTONE file generated by CST MICROWAVE STUDIO
! Date and time: Tue Nov 24 13:48:32 2020
! Project name: Scenario_1_Planar_Body_Tissue_Out_of_Line.cst
! Parameters = {dy1=311.4; L_HA=400; Ltissue=700; MT=2.54; Rad_Dielectric=30; Rad_Lower=7.3; Rad_Upper=30; Wtissue=700; a_HA=580; a_WG=246; b_HA=500; b_WG=121; c_HA=0; c_WG=187; d_feed=85; dx1=1039; h_feed=15; h_lower=18; h_upper=40; hfat=3; hgap=25; hmuscle=50; hskin=1.5}
! Header version: 2018
! Port assignment regex: !\s*Touchstone port\s*([0-9]+)\s*=\s*(CST MWS port|CST DS port)\s*([0-9]+|Zmin|Zmax)\s*\(\"(.*)\"\)(\s*mode\s*([0-9]+))?.*
! Touchstone port assignment:
! Touchstone port 1 = CST MWS port 1 ("")
! Touchstone port 2 = CST MWS port 2 ("")
# GHz S DB R 50
0.5                    -0.145109        -121.712         -65.8521        -31.1226         -65.8508        -31.1221      -0.00761569         151.151
0.501                  -0.147914        -122.145         -65.7413        -33.0657           -65.74        -33.0665      -0.00767946         151.086
0.502                  -0.150837        -122.581         -65.6283        -35.0218          -65.627        -35.0239       -0.0077439         151.021
0.503                  -0.153887         -123.02          -65.513        -36.9905         -65.5117        -36.9937      -0.00780901         150.955
0.504                  -0.157071        -123.462         -65.3955        -38.9715         -65.3942        -38.9758      -0.00787481          150.89
0.505                  -0.160397        -123.907         -65.2758        -40.9643         -65.2745        -40.9697      -0.00794131         150.825
0.506                  -0.163874        -124.356         -65.1538        -42.9685         -65.1525        -42.9749      -0.00800851         150.759
0.507                  -0.167511        -124.808         -65.0297        -44.9838         -65.0284         -44.991      -0.00807643         150.693
0.508                  -0.171319        -125.263         -64.9033        -47.0096         -64.9021        -47.0177      -0.00814508         150.628
0.509                   -0.17531        -125.721         -64.7748        -49.0457         -64.7736        -49.0545      -0.00821446         150.562
0.51                   -0.179493        -126.183         -64.6441        -51.0914          -64.643        -51.1009       -0.0082846         150.496
0.511                  -0.183883        -126.649         -64.5113        -53.1465         -64.5103        -53.1564      -0.00835549          150.43
0.512                  -0.188492        -127.118         -64.3763        -55.2104         -64.3753        -55.2207      -0.00842716         150.364
0.513                  -0.193336         -127.59         -64.2391        -57.2827         -64.2382        -57.2934      -0.00849962         150.298
0.514                  -0.198429        -128.067         -64.0997        -59.3629          -64.099        -59.3738      -0.00857288         150.232
0.515                  -0.203788        -128.547         -63.9582        -61.4508         -63.9575        -61.4618      -0.00864696         150.165
0.516                  -0.209431        -129.031         -63.8144        -63.5458         -63.8138        -63.5568      -0.00872186         150.099
0.517                  -0.215377        -129.519         -63.6683        -65.6476         -63.6679        -65.6586      -0.00879762         150.032
0.518                  -0.221648        -130.011           -63.52         -67.756         -63.5196        -67.7667      -0.00887424         149.966
0.519                  -0.228264        -130.506         -63.3693        -69.8707          -63.369        -69.8811      -0.00895174         149.899
0.52                   -0.235251        -131.006         -63.2162        -71.9914          -63.216        -72.0014      -0.00903014         149.833
0.521                  -0.242633         -131.51         -63.0606        -74.1181         -63.0605        -74.1276      -0.00910946         149.766
0.522                  -0.250438        -132.018         -62.9024        -76.2507         -62.9024        -76.2596      -0.00918972         149.699
0.523                  -0.258696        -132.531         -62.7416        -78.3893         -62.7417        -78.3976      -0.00927095         149.632
0.524                  -0.267437        -133.047         -62.5781        -80.5342         -62.5782        -80.5416      -0.00935317         149.565
0.525                  -0.276697        -133.568         -62.4117        -82.6855         -62.4119        -82.6921       -0.0094364         149.498
0.526                   -0.28651        -134.092         -62.2424        -84.8439         -62.2426        -84.8496      -0.00952067          149.43
0.527                  -0.296915        -134.622           -62.07        -87.0098         -62.0702        -87.0146      -0.00960601         149.363
0.528                  -0.307954        -135.155         -61.8944        -89.1842         -61.8946        -89.1881      -0.00969246         149.295
0.529                   -0.31967        -135.692         -61.7155        -91.3681         -61.7157        -91.3709      -0.00978003         149.228
0.53                   -0.332109        -136.234         -61.5332        -93.5626         -61.5334        -93.5644      -0.00986878          149.16
0.531                   -0.34532        -136.779         -61.3474        -95.7691         -61.3476        -95.7699      -0.00995873         149.093
0.532                  -0.359355        -137.328         -61.1581        -97.9893         -61.1582        -97.9891       -0.0100499         149.025
0.533                  -0.374266        -137.881         -60.9651        -100.225         -60.9652        -100.224       -0.0101424         148.957
0.534                  -0.390111        -138.438         -60.7684        -102.478         -60.7684        -102.476       -0.0102362         148.889
0.535                  -0.406946        -138.998          -60.568        -104.752         -60.5679        -104.749       -0.0103314         148.821
0.536                   -0.42483         -139.56         -60.3638        -107.048         -60.3637        -107.044        -0.010428         148.752
0.537                  -0.443824        -140.126         -60.1561        -109.369         -60.1558        -109.365        -0.010526         148.684
0.538                  -0.463985        -140.693         -59.9448        -111.718         -59.9444        -111.713       -0.0106256         148.616
0.539                  -0.485372        -141.263         -59.7301        -114.098         -59.7295        -114.093       -0.0107267         148.547
0.54                    -0.50804        -141.833         -59.5122        -116.513         -59.5115        -116.508       -0.0108294         148.478
0.541                  -0.532039        -142.404         -59.2914        -118.965         -59.2906         -118.96       -0.0109337          148.41
0.542                  -0.557412        -142.975         -59.0681        -121.459         -59.0672        -121.453       -0.0110398         148.341
0.543                  -0.584195        -143.545         -58.8426        -123.996         -58.8416         -123.99       -0.0111475         148.272
0.544                   -0.61241        -144.113         -58.6156         -126.58         -58.6145        -126.575       -0.0112569         148.203
0.545                  -0.642063        -144.678         -58.3875        -129.214         -58.3863        -129.209       -0.0113681         148.134
0.546                  -0.673145        -145.238          -58.159        -131.901         -58.1577        -131.896       -0.0114811         148.064
0.547                   -0.70562        -145.794         -57.9309        -134.642         -57.9295        -134.638       -0.0115957         147.995
0.548                  -0.739427        -146.343          -57.704         -137.44         -57.7025        -137.436       -0.0117121         147.926
0.549                  -0.774477        -146.885         -57.4791        -140.295         -57.4776        -140.292       -0.0118301         147.856
0.55                   -0.810642        -147.418         -57.2572        -143.208         -57.2557        -143.206       -0.0119497         147.786
0.551                  -0.847761         -147.94         -57.0393        -146.179         -57.0377        -146.177       -0.0120708         147.717
0.552                  -0.885634        -148.451         -56.8263        -149.205         -56.8247        -149.204       -0.0121933         147.647
0.553                   -0.92402         -148.95         -56.6192        -152.286         -56.6176        -152.286        -0.012317         147.577
0.554                  -0.962643        -149.437          -56.419        -155.419         -56.4175        -155.419        -0.012442         147.507
0.555                   -1.00119        -149.909         -56.2266        -158.598         -56.2252        -158.599        -0.012568         147.436
0.556                   -1.03933        -150.368         -56.0429         -161.82         -56.0415        -161.821        -0.012695         147.366
0.557                    -1.0767        -150.813         -55.8686        -165.078         -55.8673         -165.08       -0.0128228         147.295
0.558                   -1.11294        -151.246         -55.7044        -168.367         -55.7032        -168.369       -0.0129513         147.225
0.559                   -1.14769        -151.666         -55.5508         -171.68         -55.5497        -171.682       -0.0130805         147.154
0.56                    -1.18062        -152.076         -55.4082        -175.008         -55.4072        -175.011       -0.0132102         147.083
0.561                   -1.21142        -152.477         -55.2767        -178.345         -55.2758        -178.348       -0.0133406         147.012
0.562                   -1.23984        -152.872         -55.1564         178.317         -55.1556         178.315       -0.0134714         146.941
0.563                   -1.26567        -153.264         -55.0471         174.987         -55.0464         174.984       -0.0136029          146.87
0.564                    -1.2888        -153.654         -54.9487         171.671          -54.948         171.668       -0.0137349         146.799
0.565                   -1.30917        -154.046         -54.8605         168.375           -54.86         168.373       -0.0138675         146.727
0.566                   -1.32678        -154.442         -54.7822         165.108         -54.7817         165.105       -0.0140008         146.656
0.567                   -1.34172        -154.845          -54.713         161.873         -54.7126         161.871       -0.0141349         146.584
0.568                   -1.35414        -155.259         -54.6523         158.676         -54.6519         158.674       -0.0142699         146.512
0.569                   -1.36423        -155.684         -54.5992         155.521         -54.5989          155.52       -0.0144059          146.44
0.57                    -1.37224        -156.124         -54.5529         152.412         -54.5526          152.41       -0.0145429         146.368
0.571                   -1.37843         -156.58         -54.5125          149.35         -54.5123         149.349        -0.014681         146.296
0.572                    -1.3831        -157.052         -54.4772         146.337          -54.477         146.336       -0.0148204         146.223
0.573                   -1.38656        -157.543         -54.4462         143.375         -54.4461         143.375       -0.0149612         146.151
0.574                   -1.38911        -158.053         -54.4187         140.464         -54.4185         140.464       -0.0151033         146.078
0.575                   -1.39104        -158.583         -54.3938         137.604         -54.3937         137.604        -0.015247         146.005
0.576                   -1.39264        -159.132         -54.3709         134.794         -54.3708         134.794       -0.0153923         145.932
0.577                   -1.39417          -159.7         -54.3492         132.032         -54.3491         132.032       -0.0155392         145.859
0.578                   -1.39589        -160.288         -54.3282         129.319         -54.3281         129.319       -0.0156879         145.786
0.579                   -1.39803        -160.896         -54.3073         126.651         -54.3072         126.651       -0.0158383         145.712
0.58                    -1.40078        -161.522         -54.2858         124.027         -54.2857         124.028       -0.0159906         145.639
0.581                   -1.40436        -162.166         -54.2635         121.445         -54.2634         121.446       -0.0161448         145.565
0.582                   -1.40891        -162.828         -54.2397         118.903         -54.2396         118.904        -0.016301         145.491
0.583                    -1.4146        -163.507         -54.2143         116.399         -54.2141           116.4       -0.0164593         145.417
0.584                   -1.42157        -164.203         -54.1867          113.93         -54.1866         113.931       -0.0166196         145.342
0.585                   -1.42995        -164.915         -54.1568         111.493         -54.1566         111.494        -0.016782         145.268
0.586                   -1.43985        -165.642         -54.1242         109.087         -54.1241         109.088       -0.0169465         145.193
0.587                   -1.45137        -166.385         -54.0888         106.708         -54.0887         106.709       -0.0171133         145.119
0.588                   -1.46462        -167.142         -54.0504         104.355         -54.0502         104.357       -0.0172823         145.044
0.589                    -1.4797        -167.913         -54.0087         102.026         -54.0086         102.027       -0.0174537         144.969
0.59                    -1.49669        -168.698         -53.9638         99.7171         -53.9636         99.7182       -0.0176273         144.893
0.591                   -1.51568        -169.496         -53.9154         97.4271         -53.9152         97.4282       -0.0178033         144.818
0.592                   -1.53676        -170.306         -53.8635         95.1535         -53.8634         95.1545       -0.0179817         144.742
0.593                   -1.56002        -171.129         -53.8081         92.8942         -53.8079         92.8952       -0.0181626         144.667
0.594                   -1.58555        -171.964          -53.749          90.647         -53.7488          90.648        -0.018346         144.591
0.595                   -1.61344         -172.81         -53.6863           88.41         -53.6861         88.4109       -0.0185319         144.514
0.596                   -1.64378        -173.668         -53.6199         86.1811         -53.6198          86.182       -0.0187204         144.438
0.597                   -1.67667        -174.536           -53.55         83.9583         -53.5498         83.9592       -0.0189115         144.362
0.598                   -1.71222        -175.414         -53.4764         81.7399         -53.4762         81.7406       -0.0191052         144.285
0.599                   -1.75053        -176.302         -53.3993         79.5238         -53.3991         79.5245       -0.0193016         144.208
0.6                      -1.7917          -177.2         -53.3186         77.3083         -53.3185          77.309       -0.0195008         144.131
0.601                   -1.83586        -178.106         -53.2346         75.0917         -53.2344         75.0923       -0.0197027         144.054
0.602                   -1.88312         -179.02         -53.1472         72.8722          -53.147         72.8728       -0.0199074         143.976
0.603                   -1.93361        -179.943         -53.0565         70.6482         -53.0564         70.6488        -0.020115         143.899
0.604                   -1.98745         179.128         -52.9627         68.4182         -52.9626         68.4187       -0.0203255         143.821
0.605                   -2.04479         178.193         -52.8658         66.1806         -52.8657          66.181        -0.020539         143.743
0.606                   -2.10576         177.253         -52.7661         63.9339          -52.766         63.9343       -0.0207554         143.664
0.607                   -2.17049         176.308         -52.6637         61.6767         -52.6636         61.6771       -0.0209749         143.586
0.608                   -2.23914          175.36         -52.5587         59.4077         -52.5586         59.4081       -0.0211974         143.507
0.609                   -2.31183          174.41         -52.4513         57.1256         -52.4512         57.1259        -0.021423         143.428
0.61                    -2.38872         173.459         -52.3417         54.8293         -52.3417         54.8296       -0.0216518         143.349
0.611                   -2.46993         172.508         -52.2302         52.5175         -52.2301         52.5178       -0.0218838          143.27
0.612                   -2.55561          171.56         -52.1168         50.1894         -52.1168         50.1896       -0.0221191         143.191
0.613                   -2.64588         170.616         -52.0019         47.8439         -52.0019         47.8442       -0.0223576         143.111
0.614                   -2.74086         169.678         -51.8857         45.4804         -51.8857         45.4807       -0.0225995         143.031
0.615                   -2.84063         168.747         -51.7684         43.0981         -51.7684         43.0984       -0.0228448         142.951
0.616                    -2.9453         167.828         -51.6503         40.6964         -51.6503         40.6967       -0.0230935          142.87
0.617                    -3.0549         166.921         -51.5318         38.2751         -51.5318         38.2754       -0.0233457          142.79
0.618                   -3.16948          166.03         -51.4129         35.8337         -51.4129          35.834       -0.0236015         142.709
0.619                   -3.28903         165.157         -51.2941         33.3721         -51.2941         33.3725       -0.0238608         142.628
0.62                     -3.4135         164.306         -51.1756         30.8905         -51.1756         30.8909       -0.0241237         142.546
0.621                   -3.54279          163.48         -51.0577         28.3891         -51.0577         28.3894       -0.0243903         142.465
0.622                   -3.67677         162.683         -50.9406         25.8681         -50.9407         25.8685       -0.0246606         142.383
0.623                   -3.81522         161.917         -50.8248         23.3282         -50.8248         23.3287       -0.0249346         142.301
0.624                   -3.95785         161.187         -50.7103         20.7702         -50.7104         20.7706       -0.0252125         142.218
0.625                   -4.10432         160.497         -50.5976         18.1949         -50.5977         18.1953       -0.0254943         142.136
0.626                   -4.25416         159.849         -50.4868         15.6034         -50.4869         15.6039       -0.0257799         142.053
0.627                   -4.40686         159.248         -50.3783          12.997         -50.3784         12.9975       -0.0260695          141.97
0.628                   -4.56177         158.697         -50.2721         10.3771         -50.2722         10.3776       -0.0263632         141.886
0.629                   -4.71818         158.198         -50.1685          7.7453         -50.1686         7.74584       -0.0266609         141.803
