! TOUCHSTONE file generated by CST MICROWAVE STUDIO
! Date and time: Sat Nov 14 20:32:28 2020
! Project name: Scenario_1_Planar_Body_Tissue_Out_of_Line_v2.cst
! Parameters = {dy1=311.4; L_HA=400; Ltissue=700; MT=2.54; Rad_Dielectric=30; Rad_Lower=7.3; Rad_Upper=30; Wtissue=700; a_HA=580; a_WG=246; b_HA=500; b_WG=121; c_HA=0; c_WG=187; d_feed=85; dx1=173; h_feed=15; h_lower=18; h_upper=40; hfat=3; hgap=25; hmuscle=50; hskin=1.5}
! Header version: 2018
! Port assignment regex: !\s*Touchstone port\s*([0-9]+)\s*=\s*(CST MWS port|CST DS port)\s*([0-9]+|Zmin|Zmax)\s*\(\"(.*)\"\)(\s*mode\s*([0-9]+))?.*
! Touchstone port assignment:
! Touchstone port 1 = CST MWS port 1 ("")
! Touchstone port 2 = CST MWS port 2 ("")
# GHz S DB R 50
0.5                   -0.0697661        -121.813         -68.1317         110.503         -68.1277         110.504      -0.00711609         151.144
0.501                  -0.116049        -121.993         -68.1499             109         -68.1468         109.007      -0.00719116         151.078
0.502                  -0.161069        -122.177         -68.1652         107.464          -68.163         107.477      -0.00726718         151.012
0.503                  -0.204862        -122.368         -68.1773         105.895         -68.1761         105.913      -0.00734413         150.946
0.504                  -0.247465        -122.563         -68.1859         104.292         -68.1858         104.314      -0.00742204          150.88
0.505                  -0.288913        -122.764         -68.1907         102.655         -68.1918         102.682      -0.00750088         150.814
0.506                  -0.329239         -122.97         -68.1914         100.985         -68.1937         101.017      -0.00758068         150.748
0.507                  -0.368476        -123.181         -68.1879         99.2812         -68.1914         99.3179      -0.00766143         150.682
0.508                  -0.406654        -123.397         -68.1796         97.5451         -68.1844          97.586      -0.00774312         150.615
0.509                  -0.443804        -123.618         -68.1664          95.777         -68.1725         95.8217      -0.00782577         150.549
0.51                   -0.479954        -123.844         -68.1479         93.9776         -68.1554         94.0259      -0.00790938         150.482
0.511                  -0.515132        -124.074         -68.1238         92.1479         -68.1327         92.1994      -0.00799394         150.416
0.512                  -0.549363        -124.309         -68.0938         90.2891         -68.1041         90.3434      -0.00807946         150.349
0.513                  -0.582675        -124.548         -68.0576         88.4025         -68.0694         88.4591      -0.00816594         150.283
0.514                  -0.615091        -124.792          -68.015         86.4895         -68.0283          86.548      -0.00825338         150.216
0.515                  -0.646635        -125.041         -67.9655         84.5518         -67.9804         84.6118       -0.0083418         150.149
0.516                  -0.677331        -125.294         -67.9091         82.5914         -67.9255         82.6523      -0.00843118         150.083
0.517                  -0.707201        -125.551         -67.8455         80.6101         -67.8634         80.6715      -0.00852153         150.016
0.518                  -0.736266        -125.813         -67.7744         78.6101         -67.7938         78.6715      -0.00861286         149.949
0.519                  -0.764546        -126.079         -67.6956         76.5938         -67.7166         76.6546      -0.00870517         149.882
0.52                   -0.792062        -126.349         -67.6091         74.5635         -67.6316         74.6232      -0.00879846         149.815
0.521                  -0.818834        -126.623         -67.5147         72.5217         -67.5387         72.5798      -0.00889273         149.747
0.522                  -0.844879        -126.902         -67.4122          70.471         -67.4378         70.5269        -0.008988          149.68
0.523                  -0.870216        -127.185         -67.3017         68.4139         -67.3287         68.4672      -0.00908426         149.613
0.524                  -0.894863        -127.472         -67.1831          66.353         -67.2115         66.4033      -0.00918151         149.545
0.525                  -0.918836        -127.763         -67.0565         64.2911         -67.0863         64.3378      -0.00927977         149.478
0.526                  -0.942153        -128.059         -66.9218         62.2306         -66.9529         62.2734      -0.00937903          149.41
0.527                  -0.964828        -128.358         -66.7792          60.174         -66.8116         60.2125       -0.0094793         149.343
0.528                  -0.986877        -128.662         -66.6287         58.1238         -66.6623         58.1576      -0.00958059         149.275
0.529                   -1.00832        -128.969         -66.4706         56.0822         -66.5054         56.1111       -0.0096829         149.207
0.53                    -1.02916        -129.281          -66.305         54.0514         -66.3408         54.0751      -0.00978623         149.139
0.531                   -1.04942        -129.597         -66.1321         52.0335         -66.1689         52.0518       -0.0098906         149.071
0.532                   -1.06911        -129.917         -65.9521         50.0303         -65.9898          50.043        -0.009996         149.003
0.533                   -1.08825        -130.241         -65.7652         48.0435         -65.8038         48.0505       -0.0101024         148.935
0.534                   -1.10685        -130.569         -65.5718         46.0746         -65.6111         46.0758       -0.0102099         148.867
0.535                   -1.12491        -130.901          -65.372          44.125          -65.412         44.1203       -0.0103185         148.798
0.536                   -1.14246        -131.238         -65.1661         42.1957         -65.2068         42.1851       -0.0104281          148.73
0.537                   -1.15951        -131.578         -64.9545         40.2876         -64.9958         40.2713       -0.0105387         148.661
0.538                   -1.17606        -131.923         -64.7374         38.4017         -64.7792         38.3796       -0.0106505         148.593
0.539                   -1.19213        -132.271         -64.5151         36.5384         -64.5573         36.5106       -0.0107633         148.524
0.54                    -1.20773        -132.624         -64.2878         34.6981         -64.3304         34.6649       -0.0108772         148.455
0.541                   -1.22287        -132.981         -64.0559         32.8812         -64.0988         32.8425       -0.0109922         148.386
0.542                   -1.23755        -133.342         -63.8197         31.0877         -63.8628         31.0438       -0.0111083         148.317
0.543                    -1.2518        -133.708         -63.5793         29.3175         -63.6226         29.2686       -0.0112256         148.248
0.544                   -1.26562        -134.077          -63.335         27.5705         -63.3785         27.5168       -0.0113439         148.179
0.545                   -1.27902        -134.451         -63.0871         25.8464         -63.1307         25.7881       -0.0114634          148.11
0.546                   -1.29201        -134.829         -62.8359         24.1447         -62.8795         24.0822        -0.011584          148.04
0.547                    -1.3046        -135.211         -62.5814          22.465         -62.6251         22.3984       -0.0117057         147.971
0.548                    -1.3168        -135.598          -62.324         20.8067         -62.3676         20.7363       -0.0118286         147.901
0.549                   -1.32862        -135.989         -62.0639         19.1691         -62.1074         19.0951       -0.0119527         147.832
0.55                    -1.34006        -136.384         -61.8011         17.5514         -61.8446         17.4741       -0.0120779         147.762
0.551                   -1.35114        -136.784          -61.536         15.9529         -61.5793         15.8725       -0.0122043         147.692
0.552                   -1.36186        -137.188         -61.2686         14.3726         -61.3118         14.2895       -0.0123319         147.622
0.553                   -1.37224        -137.597         -60.9991         12.8096         -61.0421          12.724       -0.0124607         147.552
0.554                   -1.38227         -138.01         -60.7277         11.2631         -60.7705         11.1753       -0.0125908         147.482
0.555                   -1.39198        -138.428         -60.4544         9.73201          -60.497         9.64222        -0.012722         147.411
0.556                   -1.40136         -138.85         -60.1794         8.21531         -60.2218         8.12382       -0.0128545         147.341
0.557                   -1.41042        -139.278         -59.9028         6.71197         -59.9449         6.61903       -0.0129882          147.27
0.558                   -1.41918        -139.709         -59.6246         5.22091         -59.6665         5.12679       -0.0131233           147.2
0.559                   -1.42764        -140.146         -59.3451         3.74107         -59.3867         3.64601       -0.0132595         147.129
0.56                    -1.43581        -140.587         -59.0642         2.27134         -59.1055         2.17559       -0.0133971         147.058
0.561                   -1.44369        -141.033          -58.782        0.810605         -58.8231        0.714401        -0.013536         146.987
0.562                    -1.4513        -141.484         -58.4986       -0.642264         -58.5394       -0.738681       -0.0136761         146.916
0.563                   -1.45863         -141.94         -58.2141         -2.0884         -58.2545         -2.1848       -0.0138176         146.844
0.564                   -1.46571        -142.401         -57.9285        -3.52896         -57.9686        -3.62511       -0.0139605         146.773
0.565                   -1.47253        -142.868         -57.6419         -4.9651         -57.6817        -5.06078       -0.0141047         146.701
0.566                    -1.4791        -143.339         -57.3543        -6.39798         -57.3937        -6.49298       -0.0142503          146.63
0.567                   -1.48543        -143.815         -57.0658        -7.82879         -57.1048        -7.92289       -0.0143972         146.558
0.568                   -1.49154        -144.297         -56.7763        -9.25871          -56.815        -9.35171       -0.0145456         146.486
0.569                   -1.49741        -144.784          -56.486        -10.6889         -56.5243        -10.7806       -0.0146954         146.414
0.57                    -1.50307        -145.277         -56.1949        -12.1207         -56.2328        -12.2109       -0.0148466         146.342
0.571                   -1.50852        -145.775          -55.903        -13.5552         -55.9405        -13.6437       -0.0149993         146.269
0.572                   -1.51376        -146.279         -55.6103        -14.9936         -55.6474        -15.0802       -0.0151535         146.197
0.573                   -1.51881        -146.788          -55.317        -16.4373         -55.3536        -16.5218       -0.0153091         146.124
0.574                   -1.52368        -147.303         -55.0229        -17.8874         -55.0592        -17.9697       -0.0154663         146.052
0.575                   -1.52836        -147.824         -54.7283        -19.3452         -54.7641        -19.4252        -0.015625         145.979
0.576                   -1.53287        -148.351         -54.4331        -20.8121         -54.4684        -20.8895       -0.0157852         145.906
0.577                   -1.53721        -148.883         -54.1373        -22.2893         -54.1721         -22.364        -0.015947         145.833
0.578                    -1.5414        -149.422          -53.841        -23.7782         -53.8754        -23.8499       -0.0161104         145.759
0.579                   -1.54544        -149.967         -53.5444        -25.2799         -53.5782        -25.3487       -0.0162754         145.686
0.58                    -1.54934        -150.519         -53.2474         -26.796         -53.2806        -26.8617        -0.016442         145.612
0.581                    -1.5531        -151.077         -52.9501        -28.3278         -52.9828        -28.3902       -0.0166103         145.538
0.582                   -1.55674        -151.641         -52.6525        -29.8766         -52.6847        -29.9355       -0.0167803         145.465
0.583                   -1.56027        -152.212         -52.3549        -31.4438         -52.3865        -31.4992        -0.016952          145.39
0.584                   -1.56368        -152.789         -52.0573        -33.0308         -52.0882        -33.0826       -0.0171254         145.316
0.585                     -1.567        -153.374         -51.7597         -34.639           -51.79        -34.6871       -0.0173005         145.242
0.586                   -1.57023        -153.965         -51.4624        -36.2698          -51.492        -36.3142       -0.0174775         145.167
0.587                   -1.57338        -154.564         -51.1655        -37.9246         -51.1944        -37.9651       -0.0176562         145.093
0.588                   -1.57646         -155.17          -50.869        -39.6047         -50.8972        -39.6414       -0.0178368         145.018
0.589                   -1.57948        -155.783         -50.5732        -41.3116         -50.6006        -41.3444       -0.0180192         144.943
0.59                    -1.58245        -156.404         -50.2783        -43.0466         -50.3049        -43.0755       -0.0182036         144.867
0.591                   -1.58538        -157.032         -49.9844         -44.811         -50.0102         -44.836       -0.0183898         144.792
0.592                   -1.58827        -157.668         -49.6919         -46.606         -49.7168        -46.6271        -0.018578         144.717
0.593                   -1.59116        -158.312         -49.4008        -48.4329         -49.4248        -48.4503       -0.0187682         144.641
0.594                   -1.59403        -158.964         -49.1116        -50.2929         -49.1347        -50.3065       -0.0189603         144.565
0.595                   -1.59691        -159.624         -48.8244        -52.1869         -48.8465        -52.1969       -0.0191546         144.489
0.596                   -1.59981        -160.293         -48.5397        -54.1159         -48.5607        -54.1225       -0.0193509         144.413
0.597                   -1.60274        -160.971         -48.2576        -56.0808         -48.2776         -56.084       -0.0195493         144.336
0.598                   -1.60571        -161.657         -47.9786        -58.0822         -47.9974        -58.0823       -0.0197498         144.259
0.599                   -1.60875        -162.352          -47.703        -60.1206         -47.7207        -60.1179       -0.0199526         144.183
0.6                     -1.61185        -163.056         -47.4313        -62.1964         -47.4478        -62.1911       -0.0201575         144.106
0.601                   -1.61504        -163.769         -47.1637        -64.3096         -47.1791        -64.3021       -0.0203647         144.028
0.602                   -1.61834        -164.493         -46.9009        -66.4602         -46.9149        -66.4507       -0.0205743         143.951
0.603                   -1.62176        -165.225         -46.6431        -68.6476         -46.6559        -68.6366       -0.0207861         143.873
0.604                   -1.62531        -165.968         -46.3908        -70.8713         -46.4024        -70.8592       -0.0210003         143.796
0.605                   -1.62902        -166.721         -46.1446        -73.1303         -46.1548        -73.1175        -0.021217         143.718
0.606                    -1.6329        -167.484         -45.9047        -75.4233         -45.9136        -75.4103       -0.0214361         143.639
0.607                   -1.63697        -168.258         -45.6717        -77.7486         -45.6793        -77.7359       -0.0216577         143.561
0.608                   -1.64126        -169.043          -45.446        -80.1043         -45.4523        -80.0924       -0.0218819         143.482
0.609                   -1.64578        -169.839         -45.2281        -82.4881          -45.233        -82.4776       -0.0221086         143.403
0.61                    -1.65057        -170.646         -45.0181        -84.8975         -45.0218        -84.8889        -0.022338         143.324
0.611                   -1.65563        -171.465         -44.8166        -87.3294          -44.819        -87.3232       -0.0225701         143.245
0.612                     -1.661        -172.296         -44.6238        -89.7806          -44.625        -89.7774        -0.022805         143.166
0.613                   -1.66671         -173.14           -44.44        -92.2478           -44.44         -92.248       -0.0230426         143.086
0.614                   -1.67277        -173.995         -44.2654        -94.7271         -44.2643        -94.7313       -0.0232831         143.006
0.615                   -1.67923        -174.864         -44.1001        -97.2148          -44.098        -97.2234       -0.0235265         142.926
0.616                    -1.6861        -175.745         -43.9442        -99.7068         -43.9411        -99.7201       -0.0237728         142.845
0.617                   -1.69343         -176.64         -43.7978        -102.199         -43.7938        -102.218       -0.0240221         142.765
0.618                   -1.70125        -177.549         -43.6608        -104.687         -43.6559        -104.711       -0.0242745         142.684
0.619                   -1.70958        -178.472          -43.533        -107.168         -43.5275        -107.198       -0.0245301         142.603
0.62                    -1.71848        -179.409         -43.4143        -109.637         -43.4082        -109.672       -0.0247888         142.521
0.621                   -1.72798         179.639         -43.3046         -112.09         -43.2979        -112.131       -0.0250508          142.44
0.622                   -1.73812         178.671         -43.2034        -114.524         -43.1963        -114.571       -0.0253161         142.358
0.623                   -1.74894         177.688         -43.1105        -116.935         -43.1031        -116.988       -0.0255848         142.276
0.624                    -1.7605         176.689         -43.0254        -119.321         -43.0178         -119.38       -0.0258569         142.193
0.625                   -1.77284         175.674         -42.9479        -121.678           -42.94        -121.743       -0.0261326         142.111
0.626                   -1.78602         174.642         -42.8773        -124.004         -42.8694        -124.075       -0.0264118         142.028
0.627                   -1.80008         173.592         -42.8132        -126.298         -42.8054        -126.374       -0.0266948         141.944
0.628                   -1.81509         172.525         -42.7552        -128.556         -42.7474        -128.638       -0.0269814         141.861
0.629                   -1.83111          171.44         -42.7027        -130.779         -42.6951        -130.865       -0.0272719         141.777
