! TOUCHSTONE file generated by CST MICROWAVE STUDIO
! Date and time: Thu Feb 11 19:31:07 2021
! Project name: Scenario_1_Planar_Body_Tissue_Out_of_Line.cst
! Parameters = {L_HA=400; Ltissue=1000; MT=2.54; Rad_Dielectric=30; Rad_Lower=7.3; Rad_Upper=30; Wtissue=1000; a_HA=580; a_WG=246; b_HA=500; b_WG=121; c_HA=0; c_WG=187; d_feed=85; dx1=346; dy1=-311.4; h_feed=15; h_lower=18; h_upper=40; hfat=3; hgap=25; hmuscle=50; hskin=1.5}
! Header version: 2018
! Port assignment regex: !\s*Touchstone port\s*([0-9]+)\s*=\s*(CST MWS port|CST DS port)\s*([0-9]+|Zmin|Zmax)\s*\(\"(.*)\"\)(\s*mode\s*([0-9]+))?.*
! Touchstone port assignment:
! Touchstone port 1 = CST MWS port 1 ("")
! Touchstone port 2 = CST MWS port 2 ("")
# GHz S DB R 50
0.5                    -0.257191        -121.688         -58.8477        -5.77216         -58.8478        -5.77201      -0.00807191         151.146
0.501                  -0.256876        -122.099         -58.8935        -7.19922         -58.8934        -7.20075      -0.00812548         151.081
0.502                  -0.256661        -122.513         -58.9379         -8.6452         -58.9377        -8.64837      -0.00817982         151.015
0.503                  -0.256547        -122.929         -58.9808        -10.1102         -58.9805        -10.1149      -0.00823495          150.95
0.504                  -0.256535        -123.347         -59.0222        -11.5943         -59.0217        -11.6006      -0.00829086         150.885
0.505                  -0.256628        -123.768         -59.0619        -13.0976         -59.0612        -13.1053      -0.00834756         150.819
0.506                  -0.256825         -124.19         -59.0998        -14.6199          -59.099         -14.629      -0.00840507         150.754
0.507                  -0.257128        -124.616         -59.1358        -16.1614         -59.1348        -16.1718      -0.00846339         150.688
0.508                  -0.257539        -125.043         -59.1698        -17.7219         -59.1686        -17.7336      -0.00852253         150.622
0.509                  -0.258059        -125.473         -59.2015        -19.3014         -59.2002        -19.3142      -0.00858249         150.556
0.51                   -0.258689        -125.906          -59.231        -20.8996         -59.2295        -20.9136      -0.00864329          150.49
0.511                  -0.259432         -126.34         -59.2581        -22.5164         -59.2564        -22.5314      -0.00870494         150.425
0.512                  -0.260288        -126.778         -59.2827        -24.1515         -59.2808        -24.1675      -0.00876743         150.358
0.513                   -0.26126        -127.218         -59.3046        -25.8047         -59.3025        -25.8215      -0.00883079         150.292
0.514                   -0.26235         -127.66         -59.3237        -27.4755         -59.3214        -27.4931      -0.00889502         150.226
0.515                  -0.263558        -128.106         -59.3398        -29.1636         -59.3374        -29.1819      -0.00896012          150.16
0.516                  -0.264888        -128.554         -59.3529        -30.8685         -59.3504        -30.8875      -0.00902611         150.093
0.517                   -0.26634        -129.004         -59.3629        -32.5898         -59.3602        -32.6092        -0.009093         150.027
0.518                  -0.267918        -129.458         -59.3696        -34.3268         -59.3667        -34.3467      -0.00916079         149.961
0.519                  -0.269624        -129.914         -59.3728         -36.079         -59.3698        -36.0992       -0.0092295         149.894
0.52                   -0.271459        -130.373         -59.3726        -37.8456         -59.3694        -37.8662      -0.00929913         149.827
0.521                  -0.273427        -130.835         -59.3687         -39.626         -59.3653        -39.6468       -0.0093697          149.76
0.522                   -0.27553          -131.3         -59.3611        -41.4194         -59.3576        -41.4403      -0.00944121         149.693
0.523                   -0.27777        -131.768         -59.3497         -43.225         -59.3461         -43.246      -0.00951368         149.626
0.524                   -0.28015        -132.239         -59.3344         -45.042         -59.3306         -45.063      -0.00958711         149.559
0.525                  -0.282674        -132.714         -59.3151        -46.8695         -59.3112        -46.8903      -0.00966152         149.492
0.526                  -0.285345        -133.191         -59.2917        -48.7064         -59.2877        -48.7271      -0.00973691         149.425
0.527                  -0.288165        -133.672         -59.2642         -50.552         -59.2601        -50.5724       -0.0098133         149.358
0.528                  -0.291138        -134.156         -59.2326        -52.4052         -59.2284        -52.4253       -0.0098907          149.29
0.529                  -0.294268        -134.643         -59.1968         -54.265         -59.1925        -54.2847      -0.00996912         149.223
0.53                   -0.297559        -135.134         -59.1567        -56.1303         -59.1523        -56.1497       -0.0100486         149.155
0.531                  -0.301015        -135.628         -59.1123        -58.0003         -59.1079        -58.0191       -0.0101291         149.087
0.532                   -0.30464        -136.126         -59.0637        -59.8738         -59.0592        -59.8921       -0.0102106          149.02
0.533                  -0.308438        -136.627         -59.0108        -61.7498         -59.0063        -61.7675       -0.0102932         148.952
0.534                  -0.312415        -137.133         -58.9536        -63.6273          -58.949        -63.6444       -0.0103769         148.884
0.535                  -0.316575        -137.642         -58.8921        -65.5053         -58.8876        -65.5218       -0.0104617         148.816
0.536                  -0.320923        -138.155         -58.8265        -67.3829         -58.8219        -67.3987       -0.0105476         148.747
0.537                  -0.325465        -138.671         -58.7566        -69.2591         -58.7521        -69.2742       -0.0106346         148.679
0.538                  -0.330208        -139.192         -58.6826        -71.1329         -58.6781        -71.1473       -0.0107227         148.611
0.539                  -0.335157        -139.717         -58.6046        -73.0035         -58.6001        -73.0172        -0.010812         148.542
0.54                   -0.340318        -140.246         -58.5225          -74.87         -58.5181         -74.883       -0.0109024         148.473
0.541                    -0.3457         -140.78         -58.4365        -76.7317         -58.4321         -76.744        -0.010994         148.405
0.542                  -0.351309        -141.318         -58.3466        -78.5878         -58.3423        -78.5993       -0.0110868         148.336
0.543                  -0.357153         -141.86          -58.253        -80.4376         -58.2488        -80.4484       -0.0111808         148.267
0.544                   -0.36324        -142.407         -58.1557        -82.2805         -58.1515        -82.2906        -0.011276         148.198
0.545                   -0.36958        -142.959         -58.0548        -84.1158         -58.0507        -84.1252       -0.0113724         148.129
0.546                  -0.376182        -143.515         -57.9504        -85.9431         -57.9464        -85.9518       -0.0114701         148.059
0.547                  -0.383056        -144.077         -57.8426        -87.7619         -57.8388        -87.7699        -0.011569          147.99
0.548                  -0.390213        -144.643         -57.7316        -89.5717         -57.7278         -89.579       -0.0116692         147.921
0.549                  -0.397663        -145.215         -57.6174        -91.3722         -57.6138         -91.379       -0.0117707         147.851
0.55                   -0.405419        -145.792         -57.5001        -93.1632         -57.4966        -93.1693       -0.0118735         147.781
0.551                  -0.413494        -146.374         -57.3799        -94.9443         -57.3765        -94.9499       -0.0119776         147.711
0.552                  -0.421901        -146.962         -57.2568        -96.7155         -57.2536        -96.7204        -0.012083         147.642
0.553                  -0.430656        -147.555         -57.1311        -98.4765          -57.128        -98.4809       -0.0121899         147.571
0.554                  -0.439773        -148.155         -57.0027        -100.227         -56.9998        -100.231        -0.012298         147.501
0.555                  -0.449269         -148.76         -56.8718        -101.968          -56.869        -101.971       -0.0124076         147.431
0.556                  -0.459162        -149.372         -56.7385        -103.698         -56.7359        -103.701       -0.0125186         147.361
0.557                  -0.469471         -149.99         -56.6029        -105.419         -56.6005        -105.421        -0.012631          147.29
0.558                  -0.480217        -150.614         -56.4651        -107.129         -56.4629        -107.131       -0.0127448         147.219
0.559                   -0.49142        -151.246         -56.3252        -108.829         -56.3231        -108.831       -0.0128601         147.149
0.56                   -0.503104        -151.883         -56.1833         -110.52         -56.1814        -110.522       -0.0129769         147.078
0.561                  -0.515295        -152.528         -56.0395        -112.202         -56.0378        -112.203       -0.0130952         147.007
0.562                  -0.528018        -153.181         -55.8939        -113.874         -55.8923        -113.875       -0.0132151         146.935
0.563                  -0.541303         -153.84         -55.7465        -115.538         -55.7452        -115.539       -0.0133364         146.864
0.564                   -0.55518        -154.508         -55.5975        -117.193         -55.5963        -117.194       -0.0134593         146.793
0.565                  -0.569682        -155.183         -55.4469         -118.84         -55.4459        -118.841       -0.0135838         146.721
0.566                  -0.584845        -155.866         -55.2949         -120.48          -55.294         -120.48       -0.0137099          146.65
0.567                  -0.600707        -156.558         -55.1414        -122.112         -55.1406        -122.112       -0.0138377         146.578
0.568                  -0.617308        -157.258         -54.9865        -123.738         -54.9859        -123.738       -0.0139671         146.506
0.569                  -0.634694        -157.967         -54.8303        -125.357         -54.8299        -125.357       -0.0140981         146.434
0.57                   -0.652911        -158.685          -54.673        -126.971         -54.6727        -126.971       -0.0142309         146.361
0.571                  -0.672012        -159.412         -54.5144         -128.58         -54.5143        -128.579       -0.0143653         146.289
0.572                  -0.692051        -160.149         -54.3547        -130.184         -54.3548        -130.183       -0.0145016         146.217
0.573                  -0.713089        -160.896          -54.194        -131.784         -54.1942        -131.783       -0.0146395         146.144
0.574                   -0.73519        -161.653         -54.0322         -133.38         -54.0326        -133.379       -0.0147793         146.071
0.575                  -0.758424        -162.421         -53.8695        -134.974           -53.87        -134.973       -0.0149209         145.998
0.576                  -0.782866        -163.199         -53.7059        -136.565         -53.7065        -136.564       -0.0150643         145.925
0.577                  -0.808599        -163.989         -53.5414        -138.155         -53.5422        -138.154       -0.0152096         145.852
0.578                  -0.835711        -164.789         -53.3761        -139.744          -53.377        -139.743       -0.0153568         145.778
0.579                  -0.864298        -165.602           -53.21        -141.332          -53.211        -141.331       -0.0155059         145.705
0.58                   -0.894463        -166.427         -53.0431        -142.922         -53.0442         -142.92       -0.0156569         145.631
0.581                   -0.92632        -167.263         -52.8756        -144.512         -52.8768        -144.511       -0.0158099         145.557
0.582                  -0.959992        -168.113         -52.7073        -146.104         -52.7087        -146.103        -0.015965         145.483
0.583                   -0.99561        -168.976         -52.5384        -147.699         -52.5399        -147.698        -0.016122         145.409
0.584                   -1.03332        -169.852          -52.369        -149.298         -52.3705        -149.296       -0.0162811         145.335
0.585                   -1.07328        -170.741          -52.199          -150.9         -52.2006        -150.899       -0.0164423          145.26
0.586                   -1.11565        -171.645         -52.0285        -152.508         -52.0302        -152.507       -0.0166057         145.186
0.587                   -1.16063        -172.562         -51.8575        -154.122         -51.8593         -154.12       -0.0167712         145.111
0.588                   -1.20841        -173.494         -51.6861        -155.742         -51.6879         -155.74       -0.0169388         145.036
0.589                   -1.25922         -174.44         -51.5143         -157.37         -51.5162        -157.368       -0.0171087         144.961
0.59                    -1.31329        -175.402         -51.3421        -159.006         -51.3441        -159.004       -0.0172809         144.885
0.591                   -1.37087        -176.377         -51.1697        -160.651         -51.1718        -160.649       -0.0174553          144.81
0.592                   -1.43225        -177.368         -50.9971        -162.307         -50.9992        -162.305        -0.017632         144.734
0.593                   -1.49773        -178.373         -50.8244        -163.974         -50.8265        -163.972       -0.0178111         144.658
0.594                   -1.56765        -179.393         -50.6515        -165.653         -50.6536        -165.651       -0.0179926         144.582
0.595                   -1.64235         179.573         -50.4786        -167.345         -50.4808        -167.342       -0.0181765         144.506
0.596                   -1.72223         178.525         -50.3058        -169.051          -50.308        -169.048       -0.0183629          144.43
0.597                    -1.8077         177.464         -50.1331        -170.772         -50.1353        -170.769       -0.0185518         144.353
0.598                   -1.89921         176.391         -49.9606        -172.509         -49.9629        -172.506       -0.0187432         144.276
0.599                   -1.99725         175.307         -49.7886        -174.263         -49.7908         -174.26       -0.0189371         144.199
0.6                     -2.10233         174.214         -49.6169        -176.034         -49.6191        -176.031       -0.0191337         144.122
0.601                     -2.215         173.113         -49.4459        -177.825         -49.4481        -177.822        -0.019333         144.045
0.602                   -2.33586         172.006         -49.2755        -179.636         -49.2777        -179.632       -0.0195349         143.967
0.603                   -2.46552         170.898         -49.1061         178.532         -49.1082         178.536       -0.0197396          143.89
0.604                   -2.60463         169.789         -48.9377         176.679         -48.9398         176.683       -0.0199471         143.812
0.605                   -2.75387         168.686         -48.7705         174.802         -48.7725         174.806       -0.0201574         143.734
0.606                   -2.91393         167.593         -48.6047         172.902         -48.6067         172.906       -0.0203706         143.655
0.607                   -3.08552         166.515         -48.4405         170.977         -48.4424         170.981       -0.0205866         143.577
0.608                   -3.26933          165.46         -48.2782         169.027         -48.2801         169.031       -0.0208057         143.498
0.609                   -3.46604         164.436          -48.118          167.05         -48.1198         167.055       -0.0210277         143.419
0.61                    -3.67627         163.451         -47.9602         165.047         -47.9619         165.051       -0.0212528          143.34
0.611                   -3.90057         162.517          -47.805         163.016         -47.8066         163.021       -0.0214811         143.261
0.612                   -4.13934         161.647         -47.6527         160.958         -47.6542         160.962       -0.0217124         143.181
0.613                   -4.39284         160.854         -47.5038         158.871         -47.5052         158.875        -0.021947         143.101
0.614                   -4.66106         160.155         -47.3585         156.756         -47.3598          156.76       -0.0221848         143.021
0.615                   -4.94369         159.567         -47.2171         154.613         -47.2183         154.617        -0.022426         142.941
0.616                   -5.23998         159.111         -47.0801         152.442         -47.0812         152.446       -0.0226705          142.86
0.617                   -5.54866         158.808         -46.9478         150.243         -46.9488         150.247       -0.0229185         142.779
0.618                   -5.86778          158.68         -46.8207         148.018         -46.8215         148.022       -0.0231699         142.699
0.619                    -6.1946         158.751         -46.6991         145.767         -46.6998          145.77       -0.0234249         142.617
0.62                    -6.52546         159.042         -46.5834         143.491         -46.5841         143.494       -0.0236834         142.536
0.621                   -6.85562         159.573         -46.4741         141.193         -46.4747         141.196       -0.0239457         142.454
0.622                   -7.17926          160.36         -46.3716         138.873          -46.372         138.876       -0.0242117         142.372
0.623                   -7.48952         161.411         -46.2762         136.535         -46.2766         136.537       -0.0244814          142.29
0.624                   -7.77866         162.725         -46.1883         134.181         -46.1886         134.183       -0.0247551         142.208
0.625                   -8.03849         164.287         -46.1083         131.813         -46.1085         131.815       -0.0250327         142.125
0.626                   -8.26093          166.07         -46.0364         129.436         -46.0365         129.437       -0.0253143         142.042
0.627                    -8.4388         168.029         -45.9729         127.052          -45.973         127.053          -0.0256         141.959
0.628                   -8.56657         170.109         -45.9181         124.666         -45.9182         124.666       -0.0258898         141.875
0.629                    -8.6411         172.243         -45.8722         122.282         -45.8721         122.281        -0.026184         141.791
