! TOUCHSTONE file generated by CST MICROWAVE STUDIO
! Date and time: Sat Nov 14 20:44:13 2020
! Project name: Scenario_1_Planar_Body_Tissue_Out_of_Line_v2.cst
! Parameters = {dy1=-328.7; L_HA=400; Ltissue=700; MT=2.54; Rad_Dielectric=30; Rad_Lower=7.3; Rad_Upper=30; Wtissue=700; a_HA=580; a_WG=246; b_HA=500; b_WG=121; c_HA=0; c_WG=187; d_feed=85; dx1=173; h_feed=15; h_lower=18; h_upper=40; hfat=3; hgap=25; hmuscle=50; hskin=1.5}
! Header version: 2018
! Port assignment regex: !\s*Touchstone port\s*([0-9]+)\s*=\s*(CST MWS port|CST DS port)\s*([0-9]+|Zmin|Zmax)\s*\(\"(.*)\"\)(\s*mode\s*([0-9]+))?.*
! Touchstone port assignment:
! Touchstone port 1 = CST MWS port 1 ("")
! Touchstone port 2 = CST MWS port 2 ("")
# GHz S DB R 50
0.5                   -0.0739952        -121.837          -67.841         113.816         -67.8388         113.818      -0.00710222         151.141
0.501                 -0.0759248        -122.282         -67.6678         113.238         -67.6654         113.239      -0.00716252         151.076
0.502                 -0.0779766        -122.731         -67.4909         112.655         -67.4884         112.657      -0.00722351         151.011
0.503                 -0.0801581        -123.183         -67.3104         112.068         -67.3076          112.07       -0.0072852         150.945
0.504                  -0.082477        -123.638         -67.1261         111.476         -67.1232         111.478       -0.0073476          150.88
0.505                 -0.0849417        -124.097         -66.9381         110.879         -66.9351          110.88      -0.00741072         150.814
0.506                 -0.0875612         -124.56         -66.7464         110.276         -66.7432         110.277      -0.00747458         150.749
0.507                 -0.0903448        -125.027         -66.5509         109.667         -66.5476         109.668      -0.00753918         150.683
0.508                 -0.0933028        -125.498         -66.3516         109.051         -66.3482         109.051      -0.00760454         150.617
0.509                 -0.0964458        -125.972         -66.1485         108.428         -66.1451         108.428      -0.00767067         150.551
0.51                  -0.0997855        -126.451         -65.9416         107.797         -65.9381         107.797      -0.00773759         150.485
0.511                  -0.103334        -126.933         -65.7309         107.158         -65.7274         107.158       -0.0078053         150.419
0.512                  -0.107105         -127.42         -65.5164          106.51         -65.5128          106.51      -0.00787383         150.353
0.513                  -0.111112        -127.912          -65.298         105.853         -65.2944         105.852      -0.00794317         150.287
0.514                   -0.11537        -128.407         -65.0758         105.186         -65.0721         105.185      -0.00801336         150.221
0.515                  -0.119896        -128.907         -64.8497         104.509          -64.846         104.507       -0.0080844         150.154
0.516                  -0.124706        -129.412         -64.6197          103.82         -64.6161         103.818       -0.0081563         150.088
0.517                   -0.12982        -129.922         -64.3859          103.12         -64.3823         103.118      -0.00822909         150.021
0.518                  -0.135256        -130.436         -64.1482         102.407         -64.1446         102.405      -0.00830277         149.955
0.519                  -0.141037        -130.955         -63.9066         101.682         -63.9031         101.679      -0.00837737         149.888
0.52                   -0.147185         -131.48         -63.6611         100.942         -63.6577         100.939       -0.0084529         149.821
0.521                  -0.153726        -132.009         -63.4118         100.188         -63.4084         100.185      -0.00852937         149.754
0.522                  -0.160684        -132.544         -63.1586         99.4191         -63.1553         99.4155      -0.00860681         149.687
0.523                   -0.16809        -133.084         -62.9015         98.6339         -62.8983         98.6301      -0.00868522          149.62
0.524                  -0.175973         -133.63         -62.6406         97.8319         -62.6374         97.8279      -0.00876464         149.553
0.525                  -0.184367        -134.181         -62.3758         97.0124         -62.3727         97.0082      -0.00884508         149.486
0.526                  -0.193306        -134.739         -62.1071         96.1743         -62.1042         96.1699      -0.00892656         149.419
0.527                   -0.20283        -135.302         -61.8347         95.3169         -61.8318         95.3124      -0.00900909         149.351
0.528                   -0.21298        -135.871         -61.5584         94.4393         -61.5557         94.4346      -0.00909271         149.284
0.529                  -0.223799        -136.446         -61.2783         93.5404         -61.2757         93.5356      -0.00917743         149.216
0.53                   -0.235337        -137.028         -60.9945         92.6193          -60.992         92.6145      -0.00926327         149.148
0.531                  -0.247645        -137.616         -60.7069          91.675         -60.7045         91.6701      -0.00935027          149.08
0.532                  -0.260779         -138.21         -60.4156         90.7065         -60.4133         90.7016      -0.00943844         149.012
0.533                    -0.2748        -138.811         -60.1206         89.7126         -60.1185         89.7076      -0.00952782         148.944
0.534                  -0.289772        -139.419         -59.8219         88.6921           -59.82         88.6872      -0.00961842         148.876
0.535                  -0.305767        -140.033         -59.5197          87.644         -59.5178         87.6391      -0.00971029         148.808
0.536                   -0.32286        -140.655         -59.2139         86.5669         -59.2121         86.5622      -0.00980344          148.74
0.537                  -0.341133        -141.283         -58.9046         85.4596          -58.903          85.455      -0.00989792         148.671
0.538                  -0.360676        -141.918         -58.5918         84.3208         -58.5903         84.3163      -0.00999376         148.603
0.539                  -0.381584         -142.56         -58.2757         83.1491         -58.2743         83.1448        -0.010091         148.534
0.54                   -0.403961        -143.209         -57.9563          81.943          -57.955         81.9388       -0.0101897         148.465
0.541                  -0.427916        -143.865         -57.6336          80.701         -57.6325         80.6971       -0.0102898         148.397
0.542                   -0.45357        -144.528         -57.3079         79.4217         -57.3069          79.418       -0.0103915         148.328
0.543                  -0.481051        -145.197         -56.9792         78.1033         -56.9783         78.0999       -0.0104947         148.258
0.544                  -0.510496        -145.873         -56.6476         76.7443         -56.6469         76.7412       -0.0105996         148.189
0.545                  -0.542052        -146.555         -56.3134         75.3429         -56.3127         75.3401       -0.0107061          148.12
0.546                  -0.575878        -147.243         -55.9765         73.8974          -55.976         73.8949       -0.0108143         148.051
0.547                  -0.612138        -147.936         -55.6373          72.406         -55.6369         72.4037       -0.0109244         147.981
0.548                   -0.65101        -148.634          -55.296         70.8667         -55.2956         70.8648       -0.0110363         147.911
0.549                  -0.692681        -149.336         -54.9527         69.2778         -54.9524         69.2763       -0.0111501         147.842
0.55                   -0.737344        -150.041         -54.6078         67.6373         -54.6076         67.6361       -0.0112659         147.772
0.551                  -0.785202        -150.748         -54.2615         65.9432         -54.2613         65.9424       -0.0113839         147.702
0.552                  -0.836463        -151.456         -53.9141         64.1938          -53.914         64.1933        -0.011504         147.632
0.553                   -0.89134        -152.163          -53.566          62.387         -53.5659         62.3869       -0.0116263         147.562
0.554                  -0.950044        -152.868         -53.2175          60.521         -53.2175         60.5212        -0.011751         147.491
0.555                   -1.01278        -153.569         -52.8692          58.594         -52.8692         58.5945       -0.0118781         147.421
0.556                   -1.07976        -154.263         -52.5214         56.6043         -52.5215         56.6052       -0.0120078          147.35
0.557                   -1.15114        -154.947         -52.1748         54.5503         -52.1749         54.5515       -0.0121402          147.28
0.558                   -1.22711        -155.619         -51.8298         52.4308         -51.8299         52.4322       -0.0122753         147.209
0.559                   -1.30776        -156.275          -51.487         50.2444         -51.4871         50.2461       -0.0124132         147.138
0.56                    -1.39318        -156.912         -51.1471         47.9903         -51.1472         47.9922       -0.0125542         147.067
0.561                   -1.48338        -157.524         -50.8108         45.6679          -50.811         45.6701       -0.0126981         146.995
0.562                   -1.57828        -158.107         -50.4789         43.2771          -50.479         43.2794       -0.0128452         146.924
0.563                   -1.67772        -158.657          -50.152          40.818         -50.1521         40.8204       -0.0129955         146.853
0.564                    -1.7814        -159.167         -49.8309         38.2914         -49.8311         38.2939       -0.0131491         146.781
0.565                   -1.88891        -159.632         -49.5166         35.6986         -49.5167         35.7011        -0.013306         146.709
0.566                   -1.99965        -160.047         -49.2098         33.0413         -49.2099         33.0438       -0.0134661         146.638
0.567                   -2.11286        -160.406         -48.9113         30.3222         -48.9113         30.3247       -0.0136295         146.566
0.568                   -2.22759        -160.704         -48.6219         27.5444          -48.622         27.5468       -0.0137961         146.494
0.569                   -2.34269        -160.936         -48.3424         24.7117         -48.3425          24.714       -0.0139658         146.421
0.57                    -2.45682          -161.1         -48.0736         21.8286         -48.0736         21.8307       -0.0141384         146.349
0.571                    -2.5685        -161.193         -47.8161         18.9003         -47.8161         18.9021       -0.0143138         146.277
0.572                   -2.67607        -161.215         -47.5704         15.9323         -47.5704          15.934       -0.0144918         146.204
0.573                   -2.77782        -161.167         -47.3371          12.931         -47.3371         12.9324        -0.014672         146.131
0.574                   -2.87202        -161.053         -47.1165         9.90302         -47.1165         9.90413       -0.0148541         146.059
0.575                     -2.957         -160.88         -46.9089          6.8552         -46.9089         6.85603        -0.015038         145.986
0.576                   -3.03123        -160.655         -46.7144         3.79468         -46.7143         3.79523       -0.0152232         145.913
0.577                   -3.09343        -160.389         -46.5329        0.728601         -46.5329        0.728869       -0.0154095         145.839
0.578                   -3.14263        -160.094         -46.3645        -2.33599         -46.3645        -2.33599       -0.0155966         145.766
0.579                   -3.17821        -159.784         -46.2088        -5.39228         -46.2088        -5.39254       -0.0157843         145.693
0.58                    -3.19997         -159.47         -46.0653         -8.4338         -46.0654        -8.43429       -0.0159722         145.619
0.581                   -3.20809        -159.169         -45.9338        -11.4545         -45.9339        -11.4552       -0.0161604         145.545
0.582                   -3.20313         -158.89         -45.8135         -14.449         -45.8136        -14.4499       -0.0163486         145.471
0.583                   -3.18597        -158.647         -45.7039        -17.4124          -45.704        -17.4134       -0.0165368         145.397
0.584                   -3.15775        -158.449         -45.6042        -20.3404         -45.6044        -20.3415       -0.0167251         145.323
0.585                   -3.11977        -158.303         -45.5137        -23.2294         -45.5139        -23.2307       -0.0169133         145.249
0.586                   -3.07345        -158.216         -45.4317        -26.0767         -45.4319         -26.078       -0.0171018         145.174
0.587                   -3.02023        -158.191         -45.3573          -28.88         -45.3575        -28.8813       -0.0172905         145.099
0.588                   -2.96152         -158.23         -45.2898        -31.6376           -45.29        -31.6389       -0.0174796         145.025
0.589                   -2.89866        -158.334         -45.2284        -34.3484         -45.2287        -34.3497       -0.0176692         144.949
0.59                    -2.83287        -158.502         -45.1725         -37.012         -45.1727        -37.0133       -0.0178597         144.874
0.591                   -2.76525        -158.733         -45.1212        -39.6283         -45.1215        -39.6295        -0.018051         144.799
0.592                   -2.69678        -159.024          -45.074        -42.1976         -45.0743        -42.1987       -0.0182436         144.723
0.593                   -2.62826        -159.372         -45.0302        -44.7206         -45.0305        -44.7216       -0.0184374         144.648
0.594                   -2.56041        -159.774         -44.9892        -47.1982         -44.9896        -47.1991       -0.0186327         144.572
0.595                   -2.49378        -160.227         -44.9506        -49.6318         -44.9509        -49.6326       -0.0188297         144.496
0.596                   -2.42883        -160.726         -44.9138        -52.0228         -44.9141        -52.0234       -0.0190285         144.419
0.597                   -2.36593        -161.269         -44.8784        -54.3726         -44.8787        -54.3731       -0.0192292         144.343
0.598                   -2.30536        -161.853         -44.8439        -56.6831         -44.8442        -56.6835       -0.0194321         144.266
0.599                   -2.24732        -162.474         -44.8101        -58.9559         -44.8104        -58.9562       -0.0196372         144.189
0.6                     -2.19196        -163.129         -44.7766         -61.193         -44.7769        -61.1932       -0.0198447         144.112
0.601                   -2.13937        -163.817         -44.7432        -63.3961         -44.7434        -63.3962       -0.0200547         144.035
0.602                   -2.08961        -164.533         -44.7095        -65.5672         -44.7097        -65.5672       -0.0202672         143.958
0.603                   -2.04271        -165.277         -44.6754         -67.708         -44.6755         -67.708       -0.0204823          143.88
0.604                   -1.99867        -166.047         -44.6406        -69.8204         -44.6407        -69.8203       -0.0207002         143.802
0.605                   -1.95746        -166.839         -44.6051        -71.9062         -44.6052         -71.906       -0.0209209         143.724
0.606                   -1.91906        -167.654         -44.5687        -73.9671         -44.5687        -73.9669       -0.0211444         143.646
0.607                   -1.88342         -168.49         -44.5313        -76.0048         -44.5313        -76.0046       -0.0213709         143.567
0.608                   -1.85048        -169.345         -44.4927         -78.021         -44.4926        -78.0208       -0.0216004         143.489
0.609                   -1.82021        -170.218         -44.4529        -80.0172         -44.4528         -80.017       -0.0218329          143.41
0.61                    -1.79253        -171.109         -44.4119         -81.995         -44.4118        -81.9948       -0.0220686         143.331
0.611                   -1.76739        -172.016         -44.3695        -83.9557         -44.3694        -83.9556       -0.0223073         143.252
0.612                   -1.74473         -172.94         -44.3258        -85.9008         -44.3257        -85.9007       -0.0225493         143.172
0.613                   -1.72451         -173.88         -44.2808        -87.8316         -44.2806        -87.8316       -0.0227945         143.092
0.614                   -1.70666        -174.834         -44.2344        -89.7494         -44.2341        -89.7495        -0.023043         143.012
0.615                   -1.69115        -175.803         -44.1866        -91.6554         -44.1863        -91.6555       -0.0232948         142.932
0.616                   -1.67792        -176.787         -44.1374        -93.5506         -44.1371        -93.5509       -0.0235499         142.852
0.617                   -1.66694        -177.785         -44.0869        -95.4363         -44.0865        -95.4366       -0.0238085         142.771
0.618                   -1.65818        -178.797          -44.035        -97.3133         -44.0346        -97.3138       -0.0240705          142.69
0.619                    -1.6516        -179.823         -43.9818        -99.1828         -43.9814        -99.1834        -0.024336         142.609
0.62                    -1.64718         179.137         -43.9273        -101.045         -43.9269        -101.046       -0.0246049         142.528
0.621                   -1.64489         178.083         -43.8716        -102.902         -43.8712        -102.903       -0.0248775         142.446
0.622                   -1.64474         177.015         -43.8147        -104.754         -43.8142        -104.755       -0.0251536         142.364
0.623                    -1.6467         175.933         -43.7566        -106.602          -43.756        -106.603       -0.0254333         142.282
0.624                   -1.65077         174.837         -43.6973        -108.446         -43.6968        -108.448       -0.0257168           142.2
0.625                   -1.65696         173.726          -43.637        -110.287         -43.6364        -110.289       -0.0260039         142.117
0.626                   -1.66527         172.601         -43.5756        -112.127          -43.575        -112.128       -0.0262948         142.035
0.627                   -1.67571         171.462         -43.5132        -113.964         -43.5127        -113.966       -0.0265895         141.951
0.628                    -1.6883         170.307         -43.4499        -115.801         -43.4493        -115.803        -0.026888         141.868
0.629                   -1.70306         169.137         -43.3857        -117.637         -43.3851        -117.639       -0.0271904         141.785
