! TOUCHSTONE file generated by CST MICROWAVE STUDIO
! Date and time: Thu Feb 18 07:39:30 2021
! Project name: Scenario_1_Planar_Body_Tissue_Out_of_Line.cst
! Parameters = {L_HA=400; Ltissue=1000; MT=2.54; Rad_Dielectric=30; Rad_Lower=7.3; Rad_Upper=30; Wtissue=1000; a_HA=580; a_WG=246; b_HA=500; b_WG=121; c_HA=0; c_WG=187; d_feed=85; dx1=346; dy1=328.7; h_feed=15; h_lower=18; h_upper=40; hfat=3; hgap=25; hmuscle=50; hskin=1.5}
! Header version: 2018
! Port assignment regex: !\s*Touchstone port\s*([0-9]+)\s*=\s*(CST MWS port|CST DS port)\s*([0-9]+|Zmin|Zmax)\s*\(\"(.*)\"\)(\s*mode\s*([0-9]+))?.*
! Touchstone port assignment:
! Touchstone port 1 = CST MWS port 1 ("")
! Touchstone port 2 = CST MWS port 2 ("")
# GHz S DB R 50
0.5                    -0.252914        -121.704          -58.954        -4.21881         -58.9542        -4.21898      -0.00803885         151.145
0.501                  -0.262255        -122.091         -58.8236         -6.9321         -58.8237        -6.93181      -0.00808931          151.08
0.502                  -0.270917        -122.476         -58.7018        -9.62563         -58.7019        -9.62495      -0.00814058         151.015
0.503                  -0.278893        -122.861         -58.5886        -12.2963         -58.5887        -12.2953      -0.00819267          150.95
0.504                  -0.286189        -123.247         -58.4836        -14.9413         -58.4836        -14.9401      -0.00824559         150.884
0.505                  -0.292828        -123.633         -58.3865         -17.558         -58.3865        -17.5565      -0.00829935         150.819
0.506                  -0.298838        -124.022          -58.297        -20.1438         -58.2969        -20.1422      -0.00835397         150.753
0.507                  -0.304259        -124.413         -58.2146        -22.6965         -58.2145        -22.6949      -0.00840945         150.688
0.508                  -0.309132        -124.806         -58.1389        -25.2144         -58.1388        -25.2127       -0.0084658         150.622
0.509                  -0.313503        -125.203         -58.0696        -27.6956         -58.0695        -27.6939      -0.00852304         150.556
0.51                   -0.317419        -125.602         -58.0062        -30.1389         -58.0061        -30.1372      -0.00858119          150.49
0.511                  -0.320925        -126.006         -57.9482        -32.5431         -57.9481        -32.5414      -0.00864024         150.425
0.512                  -0.324068        -126.413         -57.8953        -34.9074         -57.8951        -34.9058      -0.00870022         150.358
0.513                  -0.326891        -126.824         -57.8469        -37.2311         -57.8467        -37.2296      -0.00876114         150.292
0.514                  -0.329436         -127.24         -57.8026         -39.514         -57.8024        -39.5125        -0.008823         150.226
0.515                  -0.331742        -127.659          -57.762        -41.7557         -57.7618        -41.7544      -0.00888583          150.16
0.516                  -0.333847        -128.083         -57.7247        -43.9565         -57.7245        -43.9553      -0.00894963         150.094
0.517                  -0.335783        -128.512         -57.6903        -46.1165         -57.6901        -46.1154      -0.00901441         150.027
0.518                  -0.337584        -128.944         -57.6583         -48.236         -57.6582        -48.2351       -0.0090802         149.961
0.519                  -0.339277        -129.382         -57.6285        -50.3157         -57.6284         -50.315      -0.00914699         149.894
0.52                   -0.340891        -129.824         -57.6005        -52.3562         -57.6003        -52.3556      -0.00921482         149.827
0.521                   -0.34245         -130.27         -57.5739        -54.3581         -57.5738        -54.3577      -0.00928367         149.761
0.522                  -0.343976        -130.721         -57.5485        -56.3225         -57.5484        -56.3222      -0.00935359         149.694
0.523                  -0.345491        -131.176         -57.5239        -58.2501         -57.5238        -58.2499      -0.00942456         149.627
0.524                  -0.347014        -131.636         -57.4998         -60.142         -57.4998         -60.142      -0.00949662          149.56
0.525                  -0.348564        -132.101         -57.4761        -61.9992         -57.4761        -61.9993      -0.00956976         149.492
0.526                  -0.350156         -132.57         -57.4525        -63.8227         -57.4525        -63.8229      -0.00964401         149.425
0.527                  -0.351806        -133.044         -57.4287        -65.6136         -57.4287         -65.614      -0.00971938         149.358
0.528                   -0.35353        -133.523         -57.4046        -67.3731         -57.4046        -67.3735      -0.00979589          149.29
0.529                   -0.35534        -134.006           -57.38        -69.1022           -57.38        -69.1027      -0.00987353         149.223
0.53                    -0.35725        -134.494         -57.3546         -70.802         -57.3546        -70.8026      -0.00995234         149.155
0.531                  -0.359272        -134.987         -57.3284        -72.4737         -57.3284        -72.4744       -0.0100323         149.088
0.532                  -0.361418        -135.485         -57.3011        -74.1183         -57.3012         -74.119       -0.0101135          149.02
0.533                    -0.3637        -135.987         -57.2727        -75.7369         -57.2728        -75.7377       -0.0101959         148.952
0.534                  -0.366129        -136.495          -57.243        -77.3306         -57.2431        -77.3315       -0.0102795         148.884
0.535                  -0.368716        -137.007         -57.2119        -78.9005          -57.212        -78.9015       -0.0103643         148.816
0.536                  -0.371472        -137.524         -57.1792        -80.4476         -57.1794        -80.4486       -0.0104504         148.747
0.537                  -0.374407        -138.046          -57.145        -81.9729         -57.1451        -81.9739       -0.0105377         148.679
0.538                  -0.377533        -138.573          -57.109        -83.4773         -57.1092        -83.4784       -0.0106263         148.611
0.539                  -0.380861        -139.106         -57.0713        -84.9619         -57.0715        -84.9631       -0.0107162         148.542
0.54                   -0.384401        -139.643         -57.0317        -86.4276         -57.0318        -86.4288       -0.0108074         148.474
0.541                  -0.388164        -140.186         -56.9901        -87.8754         -56.9903        -87.8765       -0.0108999         148.405
0.542                  -0.392164        -140.734         -56.9465         -89.306         -56.9467        -89.3072       -0.0109937         148.336
0.543                   -0.39641        -141.288         -56.9009        -90.7205         -56.9011        -90.7217       -0.0110889         148.267
0.544                  -0.400916        -141.847         -56.8531        -92.1196         -56.8534        -92.1208       -0.0111855         148.198
0.545                  -0.405695        -142.411         -56.8032        -93.5042         -56.8034        -93.5053       -0.0112834         148.129
0.546                  -0.410759        -142.981          -56.751         -94.875         -56.7512        -94.8762       -0.0113827          148.06
0.547                  -0.416122        -143.557         -56.6965         -96.233         -56.6968        -96.2341       -0.0114835          147.99
0.548                  -0.421799        -144.139         -56.6398        -97.5788           -56.64          -97.58       -0.0115856         147.921
0.549                  -0.427806        -144.727         -56.5806        -98.9133         -56.5809        -98.9144       -0.0116892         147.851
0.55                   -0.434157        -145.321         -56.5191        -100.237         -56.5193        -100.238       -0.0117942         147.781
0.551                   -0.44087        -145.921         -56.4551        -101.551         -56.4554        -101.552       -0.0119007         147.711
0.552                  -0.447962        -146.528         -56.3887        -102.856         -56.3889        -102.857       -0.0120087         147.642
0.553                  -0.455453        -147.141         -56.3197        -104.152           -56.32        -104.153       -0.0121182         147.571
0.554                  -0.463361         -147.76         -56.2482         -105.44         -56.2485        -105.441       -0.0122292         147.501
0.555                  -0.471708        -148.387         -56.1742        -106.722         -56.1745        -106.722       -0.0123417         147.431
0.556                  -0.480516         -149.02         -56.0976        -107.996         -56.0978        -107.997       -0.0124557         147.361
0.557                  -0.489808         -149.66         -56.0184        -109.265         -56.0186        -109.266       -0.0125713          147.29
0.558                   -0.49961        -150.307         -55.9365        -110.529         -55.9367         -110.53       -0.0126885         147.219
0.559                  -0.509948        -150.962         -55.8519        -111.789         -55.8522         -111.79       -0.0128072         147.149
0.56                    -0.52085        -151.624         -55.7647        -113.045          -55.765        -113.045       -0.0129275         147.078
0.561                  -0.532346        -152.293         -55.6748        -114.297          -55.675        -114.298       -0.0130495         147.007
0.562                  -0.544468        -152.971         -55.5821        -115.547         -55.5824        -115.548        -0.013173         146.935
0.563                  -0.557251        -153.656         -55.4867        -116.795          -55.487        -116.796       -0.0132982         146.864
0.564                  -0.570731         -154.35         -55.3886        -118.042         -55.3888        -118.043       -0.0134251         146.793
0.565                  -0.584947        -155.052         -55.2876        -119.289         -55.2879        -119.289       -0.0135536         146.721
0.566                  -0.599941        -155.763         -55.1839        -120.535         -55.1841        -120.535       -0.0136838         146.649
0.567                  -0.615757        -156.482         -55.0773        -121.782         -55.0775        -121.783       -0.0138157         146.578
0.568                  -0.632443         -157.21         -54.9679        -123.031         -54.9681        -123.032       -0.0139493         146.506
0.569                   -0.65005        -157.948         -54.8557        -124.282         -54.8559        -124.283       -0.0140846         146.434
0.57                   -0.668632        -158.695         -54.7406        -125.536         -54.7408        -125.537       -0.0142216         146.361
0.571                  -0.688248        -159.451         -54.6226        -126.794         -54.6228        -126.794       -0.0143604         146.289
0.572                  -0.708961        -160.218         -54.5018        -128.056          -54.502        -128.056       -0.0145009         146.216
0.573                  -0.730838        -160.994         -54.3781        -129.323         -54.3782        -129.323       -0.0146432         146.144
0.574                  -0.753952        -161.781         -54.2515        -130.596         -54.2516        -130.596       -0.0147873         146.071
0.575                  -0.778379        -162.578          -54.122        -131.876         -54.1221        -131.875       -0.0149331         145.998
0.576                  -0.804205        -163.386         -53.9896        -133.163         -53.9897        -133.163       -0.0150808         145.925
0.577                  -0.831517        -164.205         -53.8543        -134.458         -53.8545        -134.458       -0.0152303         145.852
0.578                  -0.860413        -165.035         -53.7162        -135.763         -53.7163        -135.763       -0.0153817         145.778
0.579                  -0.890997        -165.877         -53.5752        -137.078         -53.5753        -137.077       -0.0155349         145.705
0.58                   -0.923379         -166.73         -53.4313        -138.403         -53.4314        -138.403       -0.0156899         145.631
0.581                  -0.957681        -167.595         -53.2846        -139.741         -53.2847         -139.74       -0.0158469         145.557
0.582                  -0.994031        -168.472          -53.135        -141.091         -53.1351        -141.091       -0.0160057         145.483
0.583                   -1.03257        -169.361         -52.9827        -142.456         -52.9828        -142.455       -0.0161664         145.409
0.584                   -1.07344        -170.263         -52.8276        -143.835         -52.8277        -143.835        -0.016329         145.335
0.585                   -1.11682        -171.177         -52.6698        -145.231         -52.6699         -145.23       -0.0164936          145.26
0.586                   -1.16286        -172.104         -52.5094        -146.643         -52.5094        -146.642       -0.0166601         145.186
0.587                   -1.21177        -173.044         -52.3463        -148.074         -52.3464        -148.073       -0.0168286         145.111
0.588                   -1.26373        -173.996         -52.1808        -149.524         -52.1808        -149.523       -0.0169991         145.036
0.589                   -1.31898        -174.961         -52.0127        -150.994         -52.0127        -150.994       -0.0171716         144.961
0.59                    -1.37773        -175.938         -51.8423        -152.487         -51.8423        -152.486       -0.0173461         144.886
0.591                   -1.44025        -176.928         -51.6696        -154.002         -51.6696        -154.002       -0.0175226          144.81
0.592                    -1.5068         -177.93         -51.4947        -155.542         -51.4947        -155.542       -0.0177012         144.735
0.593                   -1.57767        -178.943         -51.3179        -157.108         -51.3179        -157.107       -0.0178819         144.659
0.594                   -1.65316        -179.968         -51.1391          -158.7         -51.1391        -158.699       -0.0180647         144.583
0.595                   -1.73362         178.997         -50.9586        -160.321         -50.9586         -160.32       -0.0182496         144.507
0.596                   -1.81938         177.952         -50.7766        -161.971         -50.7766         -161.97       -0.0184367          144.43
0.597                   -1.91084         176.899         -50.5932        -163.652         -50.5932        -163.651        -0.018626         144.354
0.598                   -2.00838         175.838         -50.4087        -165.365         -50.4087        -165.364       -0.0188174         144.277
0.599                   -2.11243         174.771         -50.2234        -167.112         -50.2233        -167.111       -0.0190112           144.2
0.6                     -2.22344         173.701         -50.0374        -168.893         -50.0374        -168.892       -0.0192072         144.123
0.601                   -2.34187         172.629         -49.8511         -170.71         -49.8511         -170.71       -0.0194055         144.046
0.602                   -2.46821         171.557         -49.6649        -172.564         -49.6648        -172.564       -0.0196062         143.968
0.603                   -2.60296          170.49         -49.4789        -174.456         -49.4789        -174.455       -0.0198093         143.891
0.604                   -2.74665         169.431         -49.2937        -176.387         -49.2937        -176.386       -0.0200148         143.813
0.605                   -2.89978         168.384         -49.1096        -178.357         -49.1096        -178.356       -0.0202229         143.735
0.606                   -3.06289         167.353         -48.9271         179.633          -48.927         179.634       -0.0204334         143.656
0.607                   -3.23648         166.346         -48.7465         177.583         -48.7465         177.584       -0.0206466         143.578
0.608                   -3.42103         165.368         -48.5684         175.493         -48.5684         175.493       -0.0208624         143.499
0.609                   -3.61699         164.427         -48.3932         173.362         -48.3932         173.362       -0.0210809          143.42
0.61                    -3.82473         163.532         -48.2215         171.191         -48.2215         171.192       -0.0213022         143.341
0.611                   -4.04451         162.693         -48.0538         168.982         -48.0537         168.982       -0.0215263         143.262
0.612                   -4.27649          161.92         -47.8905         166.735         -47.8905         166.735       -0.0217534         143.182
0.613                   -4.52064         161.226         -47.7323         164.451         -47.7322         164.452       -0.0219834         143.102
0.614                    -4.7767         160.626         -47.5796         162.133         -47.5795         162.134       -0.0222164         143.022
0.615                   -5.04413         160.133         -47.4329         159.783         -47.4329         159.784       -0.0224526         142.942
0.616                   -5.32202         159.764         -47.2927         157.404         -47.2927         157.404        -0.022692         142.862
0.617                   -5.60903         159.536         -47.1595         154.998         -47.1595         154.999       -0.0229347         142.781
0.618                   -5.90327         159.467         -47.0337         152.569         -47.0336          152.57       -0.0231808           142.7
0.619                   -6.20222         159.574         -46.9156         150.121         -46.9155         150.122       -0.0234303         142.619
0.62                    -6.50268         159.873         -46.8055         147.658         -46.8055         147.659       -0.0236835         142.537
0.621                   -6.80064         160.379         -46.7036         145.184         -46.7036         145.185       -0.0239403         142.456
0.622                   -7.09135         161.102         -46.6103         142.704         -46.6103         142.704       -0.0242008         142.374
0.623                   -7.36927         162.047         -46.5254         140.222         -46.5254         140.222       -0.0244653         142.292
0.624                   -7.62833         163.212         -46.4491         137.743         -46.4491         137.743       -0.0247337         142.209
0.625                   -7.86211         164.585         -46.3813         135.271         -46.3813         135.272       -0.0250062         142.127
0.626                   -8.06429         166.144         -46.3219         132.812         -46.3219         132.813       -0.0252828         142.044
0.627                   -8.22914         167.857         -46.2706          130.37         -46.2706         130.371       -0.0255638          141.96
0.628                   -8.35205         169.679         -46.2271         127.949         -46.2272         127.949       -0.0258493         141.877
0.629                   -8.43001         171.562         -46.1913         125.553         -46.1913         125.553       -0.0261392         141.793
