! TOUCHSTONE file generated by CST MICROWAVE STUDIO
! Date and time: Sat Nov 14 20:44:36 2020
! Project name: Scenario_1_Planar_Body_Tissue_Out_of_Line_v2.cst
! Parameters = {dy1=-346; L_HA=400; Ltissue=700; MT=2.54; Rad_Dielectric=30; Rad_Lower=7.3; Rad_Upper=30; Wtissue=700; a_HA=580; a_WG=246; b_HA=500; b_WG=121; c_HA=0; c_WG=187; d_feed=85; dx1=173; h_feed=15; h_lower=18; h_upper=40; hfat=3; hgap=25; hmuscle=50; hskin=1.5}
! Header version: 2018
! Port assignment regex: !\s*Touchstone port\s*([0-9]+)\s*=\s*(CST MWS port|CST DS port)\s*([0-9]+|Zmin|Zmax)\s*\(\"(.*)\"\)(\s*mode\s*([0-9]+))?.*
! Touchstone port assignment:
! Touchstone port 1 = CST MWS port 1 ("")
! Touchstone port 2 = CST MWS port 2 ("")
# GHz S DB R 50
0.5                   -0.0783437        -121.835         -68.7959         109.696         -68.7937         109.696      -0.00717108         151.142
0.501                 -0.0798962        -122.284         -68.5904         109.498         -68.5886         109.505      -0.00719735         151.077
0.502                 -0.0815932        -122.735         -68.3815         109.273           -68.38         109.286      -0.00722618         151.012
0.503                 -0.0834428         -123.19         -68.1693         109.019         -68.1681         109.038      -0.00725753         150.946
0.504                 -0.0854538        -123.649         -67.9539         108.736          -67.953         108.761       -0.0072914         150.881
0.505                 -0.0876354        -124.111         -67.7354         108.425         -67.7347         108.455      -0.00732777         150.815
0.506                 -0.0899974        -124.577         -67.5138         108.085         -67.5133          108.12      -0.00736663          150.75
0.507                 -0.0925503        -125.047         -67.2893         107.717         -67.2889         107.756      -0.00740795         150.684
0.508                 -0.0953051         -125.52         -67.0618         107.319         -67.0615         107.363      -0.00745171         150.618
0.509                 -0.0982737        -125.998         -66.8314         106.893         -66.8312         106.941      -0.00749792         150.552
0.51                   -0.101469        -126.479         -66.5982         106.438         -66.5981          106.49      -0.00754654         150.486
0.511                  -0.104903        -126.965         -66.3623         105.954         -66.3623         106.009      -0.00759755          150.42
0.512                  -0.108592        -127.454         -66.1237         105.442         -66.1237           105.5      -0.00765095         150.354
0.513                   -0.11255        -127.948         -65.8825           104.9         -65.8824         104.961      -0.00770672         150.288
0.514                  -0.116793        -128.446         -65.6386          104.33         -65.6385         104.393      -0.00776483         150.221
0.515                  -0.121339        -128.949         -65.3922         103.731          -65.392         103.796      -0.00782528         150.155
0.516                  -0.126207        -129.456         -65.1432         103.103          -65.143         103.169      -0.00788804         150.088
0.517                  -0.131415        -129.968         -64.8917         102.446         -64.8915         102.514       -0.0079531         150.022
0.518                  -0.136984        -130.484         -64.6378          101.76         -64.6375         101.829      -0.00802044         149.955
0.519                  -0.142939        -131.006         -64.3814         101.045         -64.3811         101.116      -0.00809005         149.888
0.52                   -0.149301        -131.532         -64.1226         100.301         -64.1222         100.373       -0.0081619         149.822
0.521                  -0.156098        -132.063         -63.8614         99.5286         -63.8609         99.6004      -0.00823598         149.755
0.522                  -0.163357        -132.599         -63.5978         98.7266         -63.5973         98.7987      -0.00831228         149.688
0.523                  -0.171107         -133.14         -63.3319         97.8955         -63.3313         97.9676      -0.00839078          149.62
0.524                   -0.17938        -133.687         -63.0637          97.035          -63.063          97.107      -0.00847145         149.553
0.525                  -0.188209        -134.239         -62.7932          96.145         -62.7924         96.2166      -0.00855429         149.486
0.526                  -0.197632        -134.796         -62.5203         95.2253         -62.5194         95.2963      -0.00863928         149.418
0.527                  -0.207686        -135.359         -62.2452         94.2757         -62.2442          94.346       -0.0087264         149.351
0.528                  -0.218414        -135.928         -61.9679          93.296         -61.9668         93.3655      -0.00881564         149.283
0.529                   -0.22986        -136.503         -61.6882          92.286         -61.6871         92.3544      -0.00890698         149.216
0.53                   -0.242072        -137.083         -61.4064         91.2454         -61.4052         91.3125       -0.0090004         149.148
0.531                  -0.255101        -137.669         -61.1223         90.1737          -61.121         90.2395       -0.0090959          149.08
0.532                  -0.269003        -138.261         -60.8361         89.0708         -60.8347          89.135      -0.00919345         149.012
0.533                  -0.283837        -138.859         -60.5477         87.9361         -60.5463         87.9987      -0.00929304         148.944
0.534                  -0.299666        -139.463         -60.2571         86.7692         -60.2556         86.8301      -0.00939465         148.876
0.535                  -0.316559        -140.073         -59.9645         85.5698         -59.9629         85.6288      -0.00949827         148.807
0.536                  -0.334587        -140.689         -59.6697         84.3371         -59.6681         84.3942      -0.00960389         148.739
0.537                  -0.353828        -141.311          -59.373         83.0708         -59.3713         83.1259      -0.00971149          148.67
0.538                  -0.374367         -141.94         -59.0742         81.7702         -59.0725         81.8231      -0.00982106         148.602
0.539                  -0.396292        -142.574         -58.7734         80.4347         -58.7717         80.4854      -0.00993259         148.533
0.54                   -0.419697        -143.214         -58.4708         79.0636         -58.4691          79.112       -0.0100461         148.464
0.541                  -0.444685         -143.86         -58.1663         77.6561         -58.1646         77.7022       -0.0101614         148.395
0.542                  -0.471363        -144.511           -57.86         76.2114         -57.8583         76.2552       -0.0102788         148.326
0.543                  -0.499846        -145.167         -57.5521         74.7289         -57.5503         74.7703        -0.010398         148.257
0.544                  -0.530253        -145.829         -57.2425         73.2075         -57.2408         73.2465       -0.0105191         148.188
0.545                  -0.562714        -146.495         -56.9315         71.6464         -56.9297          71.683        -0.010642         148.119
0.546                  -0.597361        -147.165          -56.619         70.0447         -56.6173         70.0788       -0.0107669         148.049
0.547                  -0.634336        -147.839         -56.3053         68.4013         -56.3036          68.433       -0.0108936          147.98
0.548                  -0.673784        -148.515         -55.9905         66.7153         -55.9888         66.7445       -0.0110221          147.91
0.549                  -0.715857        -149.194         -55.6747         64.9856         -55.6731         65.0125       -0.0111525         147.841
0.55                   -0.760708        -149.874         -55.3581         63.2112         -55.3566         63.2357       -0.0112847         147.771
0.551                  -0.808495        -150.554         -55.0409          61.391         -55.0395         61.4131       -0.0114188         147.701
0.552                  -0.859374        -151.232         -54.7234         59.5239         -54.7221         59.5438       -0.0115546         147.631
0.553                    -0.9135        -151.908         -54.4058         57.6089         -54.4045         57.6265       -0.0116922          147.56
0.554                  -0.971021         -152.58         -54.0883         55.6449         -54.0871         55.6604       -0.0118316          147.49
0.555                   -1.03207        -153.245         -53.7712          53.631         -53.7701         53.6444       -0.0119728          147.42
0.556                   -1.09679        -153.902         -53.4549         51.5662         -53.4539         51.5776       -0.0121158         147.349
0.557                   -1.16525        -154.549         -53.1397         49.4496         -53.1388         49.4591       -0.0122605         147.278
0.558                   -1.23755        -155.181         -52.8259         47.2805         -52.8252         47.2881        -0.012407         147.208
0.559                   -1.31372        -155.797         -52.5141         45.0581         -52.5135         45.0641       -0.0125552         147.137
0.56                    -1.39375        -156.394         -52.2045         42.7822         -52.2041         42.7866       -0.0127052         147.066
0.561                   -1.47757        -156.967         -51.8978         40.4522         -51.8974         40.4552       -0.0128569         146.994
0.562                   -1.56504        -157.513         -51.5942         38.0682          -51.594         38.0699       -0.0130104         146.923
0.563                   -1.65594        -158.028         -51.2945         35.6302         -51.2944         35.6308       -0.0131656         146.852
0.564                   -1.74996        -158.507          -50.999         33.1388          -50.999         33.1384       -0.0133225          146.78
0.565                   -1.84667        -158.948         -50.7084         30.5946         -50.7085         30.5933       -0.0134811         146.709
0.566                   -1.94555        -159.345         -50.4232         27.9988         -50.4235         27.9967       -0.0136415         146.637
0.567                   -2.04591        -159.695          -50.144         25.3526         -50.1443         25.3501       -0.0138035         146.565
0.568                   -2.14697        -159.995         -49.8713         22.6581         -49.8718         22.6551       -0.0139673         146.493
0.569                   -2.24779        -160.241         -49.6058         19.9175         -49.6063         19.9142       -0.0141328         146.421
0.57                    -2.34733        -160.432         -49.3478         17.1333         -49.3484         17.1299          -0.0143         146.348
0.571                   -2.44444        -160.566         -49.0981         14.3087         -49.0987         14.3053        -0.014469         146.276
0.572                   -2.53787        -160.644          -48.857         11.4472         -48.8577         11.4438       -0.0146396         146.203
0.573                   -2.62635        -160.668         -48.6251         8.55254         -48.6257         8.54936        -0.014812          146.13
0.574                   -2.70861        -160.639         -48.4026         5.62903         -48.4033         5.62612        -0.014986         146.058
0.575                   -2.78341        -160.564           -48.19         2.68117         -48.1906         2.67861       -0.0151618         145.985
0.576                   -2.84964        -160.449         -47.9874       -0.286243          -47.988       -0.288418       -0.0153393         145.911
0.577                   -2.90631          -160.3         -47.7951        -3.26825         -47.7956           -3.27       -0.0155186         145.838
0.578                   -2.95267        -160.126         -47.6132        -6.25974         -47.6136        -6.26106       -0.0156995         145.765
0.579                   -2.98819        -159.938         -47.4417        -9.25557         -47.4419        -9.25647       -0.0158823         145.691
0.58                    -3.01262        -159.745         -47.2805        -12.2506         -47.2806        -12.2511       -0.0160667         145.617
0.581                   -3.02597        -159.557         -47.1295        -15.2399         -47.1294          -15.24       -0.0162529         145.543
0.582                   -3.02852        -159.384         -46.9884        -18.2185         -46.9882        -18.2184       -0.0164409         145.469
0.583                   -3.02078        -159.236         -46.8571         -21.182         -46.8566        -21.1816       -0.0166306         145.395
0.584                   -3.00348        -159.119          -46.735        -24.1259         -46.7344        -24.1254       -0.0168221         145.321
0.585                    -2.9775        -159.042         -46.6219        -27.0464          -46.621        -27.0458       -0.0170154         145.246
0.586                   -2.94382        -159.009         -46.5173        -29.9399         -46.5162        -29.9393       -0.0172105         145.171
0.587                   -2.90351        -159.025         -46.4206        -32.8033         -46.4192        -32.8028       -0.0174074         145.097
0.588                   -2.85763        -159.093         -46.3313        -35.6338         -46.3297        -35.6336       -0.0176061         145.022
0.589                   -2.80725        -159.214         -46.2489        -38.4292         -46.2471        -38.4293       -0.0178066         144.946
0.59                    -2.75337         -159.39         -46.1729        -41.1876         -46.1708        -41.1881        -0.018009         144.871
0.591                   -2.69694         -159.62         -46.1026        -43.9076         -46.1003        -43.9086       -0.0182132         144.796
0.592                   -2.63881        -159.903         -46.0375        -46.5881          -46.035        -46.5896       -0.0184194          144.72
0.593                   -2.57975        -160.237         -45.9771        -49.2284         -45.9744        -49.2306       -0.0186274         144.644
0.594                   -2.52044        -160.621         -45.9209        -51.8281          -45.918         -51.831       -0.0188373         144.568
0.595                   -2.46144        -161.051         -45.8682        -54.3872         -45.8652        -54.3909       -0.0190491         144.492
0.596                   -2.40326        -161.527         -45.8188        -56.9059         -45.8155        -56.9105       -0.0192629         144.415
0.597                   -2.34631        -162.045          -45.772        -59.3847         -45.7686        -59.3901       -0.0194786         144.339
0.598                   -2.29091        -162.603         -45.7275        -61.8241         -45.7239        -61.8305       -0.0196963         144.262
0.599                   -2.23734        -163.198         -45.6848        -64.2252         -45.6811        -64.2324       -0.0199161         144.185
0.6                     -2.18582        -163.828         -45.6436        -66.5887         -45.6398        -66.5969       -0.0201378         144.108
0.601                   -2.13651         -164.49         -45.6036        -68.9159         -45.5996        -68.9251       -0.0203616         144.031
0.602                   -2.08954        -165.183         -45.5643        -71.2079         -45.5603        -71.2181       -0.0205875         143.953
0.603                   -2.04498        -165.905         -45.5256        -73.4661         -45.5215        -73.4772       -0.0208155         143.875
0.604                   -2.00291        -166.653         -45.4872        -75.6917          -45.483        -75.7038       -0.0210457         143.797
0.605                   -1.96335        -167.427         -45.4488        -77.8861         -45.4445        -77.8991        -0.021278         143.719
0.606                   -1.92633        -168.224         -45.4102        -80.0508         -45.4059        -80.0648       -0.0215124         143.641
0.607                   -1.89184        -169.043         -45.3713        -82.1872         -45.3669         -82.202       -0.0217492         143.562
0.608                   -1.85988        -169.883         -45.3318        -84.2966         -45.3274        -84.3123       -0.0219881         143.484
0.609                   -1.83043        -170.744         -45.2916        -86.3806         -45.2872        -86.3971       -0.0222294         143.405
0.61                    -1.80347        -171.623         -45.2505        -88.4404         -45.2462        -88.4577        -0.022473         143.326
0.611                   -1.77896        -172.521         -45.2086        -90.4776         -45.2043        -90.4956       -0.0227189         143.246
0.612                   -1.75689        -173.436         -45.1656        -92.4935         -45.1613        -92.5122       -0.0229673         143.167
0.613                   -1.73721        -174.369         -45.1215        -94.4893         -45.1172        -94.5087       -0.0232181         143.087
0.614                   -1.71991        -175.317         -45.0761        -96.4665         -45.0719        -96.4865       -0.0234713         143.007
0.615                   -1.70495        -176.282         -45.0296        -98.4263         -45.0254        -98.4468       -0.0237271         142.927
0.616                    -1.6923        -177.263         -44.9817         -100.37         -44.9776        -100.391       -0.0239855         142.846
0.617                   -1.68194        -178.259         -44.9324        -102.299         -44.9284         -102.32       -0.0242465         142.765
0.618                   -1.67386         -179.27         -44.8818        -104.214         -44.8779        -104.236       -0.0245101         142.684
0.619                   -1.66802         179.704         -44.8298        -106.116          -44.826        -106.138       -0.0247765         142.603
0.62                    -1.66443         178.663         -44.7764        -108.007         -44.7727        -108.029       -0.0250456         142.522
0.621                   -1.66306         177.607         -44.7216        -109.887          -44.718         -109.91       -0.0253175          142.44
0.622                   -1.66392         176.537         -44.6654        -111.758         -44.6618        -111.781       -0.0255923         142.358
0.623                   -1.66701         175.452         -44.6077        -113.621         -44.6043        -113.644         -0.02587         142.276
0.624                   -1.67232         174.351         -44.5487        -115.476         -44.5454        -115.499       -0.0261507         142.194
0.625                   -1.67988         173.236         -44.4883        -117.325         -44.4852        -117.348       -0.0264345         142.111
0.626                   -1.68968         172.106         -44.4266        -119.169         -44.4236        -119.192       -0.0267213         142.028
0.627                   -1.70176          170.96         -44.3635        -121.007         -44.3606         -121.03       -0.0270113         141.945
0.628                   -1.71613         169.799         -44.2992        -122.842         -44.2964        -122.865       -0.0273045         141.861
0.629                   -1.73282         168.623         -44.2336        -124.674          -44.231        -124.696       -0.0276011         141.778
