! TOUCHSTONE file generated by CST MICROWAVE STUDIO
! Date and time: Thu Feb 18 07:39:44 2021
! Project name: Scenario_1_Planar_Body_Tissue_Out_of_Line.cst
! Parameters = {L_HA=400; Ltissue=1000; MT=2.54; Rad_Dielectric=30; Rad_Lower=7.3; Rad_Upper=30; Wtissue=1000; a_HA=580; a_WG=246; b_HA=500; b_WG=121; c_HA=0; c_WG=187; d_feed=85; dx1=346; dy1=346; h_feed=15; h_lower=18; h_upper=40; hfat=3; hgap=25; hmuscle=50; hskin=1.5}
! Header version: 2018
! Port assignment regex: !\s*Touchstone port\s*([0-9]+)\s*=\s*(CST MWS port|CST DS port)\s*([0-9]+|Zmin|Zmax)\s*\(\"(.*)\"\)(\s*mode\s*([0-9]+))?.*
! Touchstone port assignment:
! Touchstone port 1 = CST MWS port 1 ("")
! Touchstone port 2 = CST MWS port 2 ("")
# GHz S DB R 50
0.5                    -0.248999         -121.68         -59.3122        -8.77649         -59.3126        -8.77568       -0.0079848         151.146
0.501                  -0.255918        -122.051         -59.2669        -11.4142         -59.2672        -11.4143      -0.00803949          151.08
0.502                  -0.262271        -122.424         -59.2228         -14.028          -59.223        -14.0289      -0.00809496         151.015
0.503                  -0.268103          -122.8         -59.1799        -16.6167         -59.1799        -16.6182      -0.00815123          150.95
0.504                  -0.273459         -123.18          -59.138        -19.1789          -59.138        -19.1812       -0.0082083         150.884
0.505                  -0.278381        -123.563         -59.0971        -21.7138          -59.097        -21.7167      -0.00826618         150.819
0.506                  -0.282908         -123.95         -59.0572        -24.2203          -59.057        -24.2238      -0.00832488         150.753
0.507                  -0.287081         -124.34         -59.0181        -26.6978         -59.0178        -26.7018       -0.0083844         150.688
0.508                  -0.290934        -124.734         -58.9798        -29.1453         -58.9794        -29.1498      -0.00844476         150.622
0.509                  -0.294502        -125.133         -58.9421        -31.5625         -58.9418        -31.5674      -0.00850596         150.556
0.51                   -0.297817        -125.535         -58.9051        -33.9488         -58.9047        -33.9541      -0.00856801          150.49
0.511                  -0.300909        -125.941         -58.8686        -36.3038         -58.8682        -36.3094      -0.00863091         150.424
0.512                  -0.303806        -126.352         -58.8325        -38.6273         -58.8321        -38.6331      -0.00869469         150.358
0.513                  -0.306533        -126.766         -58.7968         -40.919         -58.7963        -40.9251      -0.00875933         150.292
0.514                  -0.309115        -127.185         -58.7613        -43.1789         -58.7608        -43.1851      -0.00882487         150.226
0.515                  -0.311576        -127.608          -58.726        -45.4069         -58.7255        -45.4133      -0.00889129         150.159
0.516                  -0.313936        -128.035         -58.6907        -47.6031         -58.6902        -47.6096      -0.00895862         150.093
0.517                  -0.316215        -128.466         -58.6555        -49.7677         -58.6549        -49.7743      -0.00902686         150.027
0.518                  -0.318431        -128.902         -58.6201        -51.9008         -58.6196        -51.9074      -0.00909601          149.96
0.519                  -0.320603        -129.342         -58.5845        -54.0027          -58.584        -54.0093       -0.0091661         149.893
0.52                   -0.322746        -129.786         -58.5487        -56.0738         -58.5482        -56.0803      -0.00923713         149.827
0.521                  -0.324876        -130.234         -58.5125        -58.1143          -58.512        -58.1208      -0.00930911          149.76
0.522                  -0.327008        -130.687         -58.4759        -60.1247         -58.4754        -60.1312      -0.00938205         149.693
0.523                  -0.329156        -131.144         -58.4388        -62.1055         -58.4383        -62.1119      -0.00945596         149.626
0.524                  -0.331332        -131.606         -58.4011        -64.0572         -58.4006        -64.0634      -0.00953085         149.559
0.525                  -0.333549        -132.072         -58.3627        -65.9802         -58.3622        -65.9862      -0.00960673         149.492
0.526                  -0.335819        -132.542         -58.3236        -67.8751         -58.3232         -67.881      -0.00968361         149.424
0.527                  -0.338155        -133.017         -58.2838        -69.7425         -58.2833        -69.7482      -0.00976151         149.357
0.528                  -0.340566        -133.497         -58.2431        -71.5829         -58.2427        -71.5885      -0.00984043          149.29
0.529                  -0.343065         -133.98         -58.2015        -73.3971         -58.2011        -73.4025      -0.00992038         149.222
0.53                   -0.345661        -134.469         -58.1589        -75.1856         -58.1585        -75.1907       -0.0100014         149.155
0.531                  -0.348365        -134.962         -58.1153        -76.9491         -58.1149         -76.954       -0.0100834         149.087
0.532                  -0.351189         -135.46         -58.0707        -78.6881         -58.0703        -78.6928       -0.0101666         149.019
0.533                  -0.354141        -135.962         -58.0249        -80.4035         -58.0245        -80.4079       -0.0102508         148.951
0.534                  -0.357232        -136.469         -57.9779        -82.0957         -57.9775           -82.1       -0.0103361         148.883
0.535                  -0.360472        -136.981         -57.9297        -83.7656         -57.9294        -83.7696       -0.0104225         148.815
0.536                  -0.363873        -137.498         -57.8802        -85.4137         -57.8799        -85.4175         -0.01051         148.747
0.537                  -0.367443         -138.02         -57.8294        -87.0408         -57.8291        -87.0443       -0.0105987         148.678
0.538                  -0.371194        -138.547         -57.7772        -88.6475         -57.7769        -88.6508       -0.0106885          148.61
0.539                  -0.375137        -139.078         -57.7237        -90.2345         -57.7234        -90.2375       -0.0107795         148.541
0.54                   -0.379281        -139.615         -57.6686        -91.8024         -57.6684        -91.8052       -0.0108716         148.473
0.541                   -0.38364        -140.157         -57.6121        -93.3519         -57.6118        -93.3545       -0.0109649         148.404
0.542                  -0.388225        -140.705         -57.5541        -94.8837         -57.5538        -94.8861       -0.0110594         148.335
0.543                  -0.393046        -141.258         -57.4944        -96.3985         -57.4942        -96.4006       -0.0111552         148.266
0.544                  -0.398118        -141.816         -57.4332        -97.8969          -57.433        -97.8988       -0.0112521         148.197
0.545                  -0.403453        -142.379         -57.3703        -99.3795         -57.3701        -99.3812       -0.0113503         148.128
0.546                  -0.409064        -142.949         -57.3058        -100.847         -57.3056        -100.849       -0.0114498         148.059
0.547                  -0.414966        -143.524         -57.2395          -102.3         -57.2393        -102.301       -0.0115505         147.989
0.548                  -0.421173        -144.105         -57.1715        -103.739         -57.1713        -103.741       -0.0116525          147.92
0.549                  -0.427702        -144.691         -57.1017        -105.166         -57.1016        -105.167       -0.0117559          147.85
0.55                   -0.434567        -145.284         -57.0301        -106.579           -57.03         -106.58       -0.0118605         147.781
0.551                  -0.441786        -145.883         -56.9567        -107.981         -56.9565        -107.982       -0.0119665         147.711
0.552                  -0.449378        -146.489         -56.8813        -109.372         -56.8812        -109.372       -0.0120738         147.641
0.553                   -0.45736          -147.1         -56.8041        -110.752         -56.8039        -110.752       -0.0121825         147.571
0.554                  -0.465754        -147.718         -56.7249        -112.122         -56.7247        -112.122       -0.0122926         147.501
0.555                   -0.47458        -148.343         -56.6437        -113.482         -56.6435        -113.482        -0.012404          147.43
0.556                  -0.483861        -148.975         -56.5605        -114.834         -56.5604        -114.834       -0.0125169          147.36
0.557                  -0.493621        -149.613         -56.4753        -116.178         -56.4751        -116.178       -0.0126313         147.289
0.558                  -0.503884        -150.259          -56.388        -117.515         -56.3878        -117.514        -0.012747         147.219
0.559                  -0.514678        -150.912         -56.2986        -118.844         -56.2984        -118.844       -0.0128643         147.148
0.56                   -0.526031        -151.572          -56.207        -120.168         -56.2069        -120.167        -0.012983         147.077
0.561                  -0.537973         -152.24         -56.1133        -121.486         -56.1131        -121.485       -0.0131033         147.006
0.562                  -0.550536        -152.916         -56.0174        -122.799         -56.0172        -122.798       -0.0132251         146.935
0.563                  -0.563755        -153.599         -55.9193        -124.108         -55.9191        -124.108       -0.0133484         146.863
0.564                  -0.577667        -154.291         -55.8189        -125.414         -55.8187        -125.413       -0.0134733         146.792
0.565                  -0.592309        -154.991         -55.7162        -126.717         -55.7161        -126.716       -0.0135997          146.72
0.566                  -0.607725        -155.699         -55.6113        -128.018         -55.6111        -128.016       -0.0137278         146.649
0.567                  -0.623958        -156.416          -55.504        -129.317         -55.5038        -129.316       -0.0138575         146.577
0.568                  -0.641056        -157.142         -55.3943        -130.615         -55.3942        -130.614       -0.0139889         146.505
0.569                   -0.65907        -157.877         -55.2823        -131.914         -55.2821        -131.913       -0.0141219         146.433
0.57                   -0.678054        -158.621         -55.1679        -133.213         -55.1677        -133.212       -0.0142566         146.361
0.571                  -0.698067        -159.375          -55.051        -134.514         -55.0508        -134.513        -0.014393         146.288
0.572                   -0.71917        -160.138         -54.9317        -135.817         -54.9315        -135.816       -0.0145311         146.216
0.573                  -0.741431        -160.911         -54.8099        -137.123         -54.8097        -137.122        -0.014671         146.143
0.574                  -0.764922        -161.695         -54.6856        -138.433         -54.6854        -138.432       -0.0148126          146.07
0.575                   -0.78972        -162.488         -54.5589        -139.748         -54.5587        -139.747        -0.014956         145.997
0.576                  -0.815906        -163.292         -54.4296        -141.068         -54.4294        -141.067       -0.0151013         145.924
0.577                  -0.843571        -164.107         -54.2978        -142.395         -54.2976        -142.394       -0.0152484         145.851
0.578                  -0.872808        -164.933         -54.1635        -143.729         -54.1633        -143.728       -0.0153973         145.778
0.579                  -0.903722        -165.771         -54.0267        -145.072         -54.0265         -145.07       -0.0155482         145.704
0.58                   -0.936421        -166.619         -53.8874        -146.423         -53.8872        -146.422       -0.0157009          145.63
0.581                  -0.971025        -167.479         -53.7455        -147.785         -53.7453        -147.784       -0.0158556         145.557
0.582                   -1.00766        -168.351         -53.6011        -149.158          -53.601        -149.157       -0.0160122         145.483
0.583                   -1.04646        -169.235         -53.4543        -150.544         -53.4541        -150.543       -0.0161709         145.408
0.584                   -1.08758        -170.131          -53.305        -151.943         -53.3048        -151.942       -0.0163315         145.334
0.585                   -1.13118        -171.039         -53.1533        -153.356         -53.1531        -153.356       -0.0164941          145.26
0.586                   -1.17742        -171.959         -52.9992        -154.785          -52.999        -154.785       -0.0166588         145.185
0.587                   -1.22648        -172.892         -52.8428        -156.231         -52.8426        -156.231       -0.0168256          145.11
0.588                   -1.27858        -173.837         -52.6841        -157.695         -52.6839        -157.695       -0.0169945         145.035
0.589                   -1.33391        -174.794         -52.5231        -159.179          -52.523        -159.178       -0.0171655          144.96
0.59                     -1.3927        -175.763         -52.3601        -160.683         -52.3599        -160.682       -0.0173386         144.885
0.591                    -1.4552        -176.744         -52.1951        -162.208         -52.1949        -162.208        -0.017514         144.809
0.592                   -1.52167        -177.736         -52.0281        -163.757         -52.0279        -163.757       -0.0176915         144.734
0.593                   -1.59239         -178.74         -51.8593        -165.331         -51.8591         -165.33       -0.0178713         144.658
0.594                   -1.66766        -179.754         -51.6889         -166.93         -51.6887         -166.93       -0.0180534         144.582
0.595                    -1.7478         179.222         -51.5169        -168.556         -51.5168        -168.556       -0.0182378         144.506
0.596                   -1.83314         178.189         -51.3437        -170.211         -51.3436        -170.211       -0.0184245         144.429
0.597                   -1.92406         177.148         -51.1693        -171.896         -51.1692        -171.896       -0.0186135         144.353
0.598                   -2.02093         176.101         -50.9941        -173.611          -50.994        -173.611        -0.018805         144.276
0.599                   -2.12416         175.048         -50.8182        -175.359         -50.8181         -175.36       -0.0189988         144.199
0.6                     -2.23417         173.992         -50.6419        -177.141         -50.6418        -177.141       -0.0191952         144.122
0.601                   -2.35141         172.935         -50.4655        -178.958         -50.4654        -178.958        -0.019394         144.045
0.602                   -2.47633          171.88         -50.2893          179.19         -50.2892          179.19       -0.0195953         143.967
0.603                   -2.60942         170.829         -50.1137         177.301         -50.1136         177.301       -0.0197992         143.889
0.604                   -2.75115         169.787          -49.939         175.375          -49.939         175.375       -0.0200058         143.812
0.605                   -2.90201         168.758         -49.7657         173.411         -49.7656          173.41        -0.020215         143.733
0.606                   -3.06248         167.746         -49.5941         171.408         -49.5941         171.408       -0.0204269         143.655
0.607                   -3.23304         166.757         -49.4247         169.366         -49.4247         169.366       -0.0206415         143.577
0.608                    -3.4141         165.798          -49.258         167.286          -49.258         167.286       -0.0208589         143.498
0.609                   -3.60607         164.875         -49.0944         165.167         -49.0944         165.167       -0.0210792         143.419
0.61                    -3.80926         163.998         -48.9345         163.011         -48.9345         163.011       -0.0213024          143.34
0.611                   -4.02389         163.176         -48.7787         160.818         -48.7787         160.817       -0.0215286          143.26
0.612                   -4.25006         162.419         -48.6275         158.589         -48.6275         158.589       -0.0217578         143.181
0.613                    -4.4877         161.739         -48.4815         156.327         -48.4815         156.326       -0.0219901         143.101
0.614                   -4.73649         161.148         -48.3411         154.032         -48.3411         154.032       -0.0222256         143.021
0.615                   -4.99588         160.662         -48.2068         151.709         -48.2068         151.708       -0.0224644         142.941
0.616                   -5.26494         160.295         -48.0791         149.358         -48.0791         149.358       -0.0227064          142.86
0.617                   -5.54235         160.062         -47.9583         146.985         -47.9583         146.984       -0.0229519          142.78
0.618                   -5.82628          159.98         -47.8449         144.591         -47.8449         144.591       -0.0232009         142.699
0.619                   -6.11434         160.065         -47.7391         142.182         -47.7391         142.182       -0.0234535         142.617
0.62                     -6.4035         160.331         -47.6412         139.761         -47.6412          139.76       -0.0237098         142.536
0.621                   -6.69003         160.791         -47.5513         137.332         -47.5514         137.332       -0.0239699         142.454
0.622                   -6.96953         161.455         -47.4697           134.9         -47.4698           134.9       -0.0242339         142.372
0.623                   -7.23694         162.325         -47.3963         132.469         -47.3964         132.469       -0.0245019          142.29
0.624                   -7.48672           163.4         -47.3312         130.045         -47.3312         130.045        -0.024774         142.208
0.625                   -7.71305         164.669         -47.2741         127.631         -47.2741         127.631       -0.0250504         142.125
0.626                   -7.91019         166.112         -47.2249         125.232          -47.225         125.232       -0.0253311         142.042
0.627                   -8.07293           167.7         -47.1835         122.852         -47.1835         122.852       -0.0256162         141.959
0.628                   -8.19701         169.394         -47.1493         120.496         -47.1494         120.496       -0.0259059         141.875
0.629                   -8.27955         171.149         -47.1222         118.166         -47.1222         118.166       -0.0262003         141.792
