! TOUCHSTONE file generated by CST MICROWAVE STUDIO
! Date and time: Fri Dec 11 14:18:30 2020
! Project name: Scenario_1_Planar_Body_Tissue_Out_of_Line_v2.cst
! Parameters = {dy1=346; L_HA=400; Ltissue=700; MT=2.54; Rad_Dielectric=30; Rad_Lower=7.3; Rad_Upper=30; Wtissue=700; a_HA=580; a_WG=246; b_HA=500; b_WG=121; c_HA=0; c_WG=187; d_feed=85; dx1=520; h_feed=15; h_lower=18; h_upper=40; hfat=3; hgap=25; hmuscle=50; hskin=1.5}
! Header version: 2018
! Port assignment regex: !\s*Touchstone port\s*([0-9]+)\s*=\s*(CST MWS port|CST DS port)\s*([0-9]+|Zmin|Zmax)\s*\(\"(.*)\"\)(\s*mode\s*([0-9]+))?.*
! Touchstone port assignment:
! Touchstone port 1 = CST MWS port 1 ("")
! Touchstone port 2 = CST MWS port 2 ("")
# GHz S DB R 50
0.5                    -0.105585        -121.966         -65.8349        -91.8952          -65.832        -91.8841      -0.00739833          151.16
0.501                  -0.109664        -122.418         -65.6314        -93.0628         -65.6288        -93.0534       -0.0074691         151.094
0.502                  -0.113993        -122.873         -65.4242        -94.2441         -65.4218        -94.2361      -0.00754076         151.029
0.503                  -0.118586        -123.332         -65.2131        -95.4398         -65.2109        -95.4332      -0.00761333         150.964
0.504                  -0.123462        -123.794         -64.9981        -96.6509         -64.9962        -96.6454      -0.00768681         150.898
0.505                  -0.128639         -124.26         -64.7793        -97.8783         -64.7776        -97.8737      -0.00776124         150.833
0.506                  -0.134137        -124.729         -64.5565        -99.1229          -64.555        -99.1192      -0.00783663         150.767
0.507                  -0.139978        -125.201         -64.3298        -100.386         -64.3285        -100.383        -0.007913         150.702
0.508                  -0.146185        -125.677         -64.0992        -101.668         -64.0981        -101.666      -0.00799036         150.636
0.509                  -0.152782        -126.157         -63.8647        -102.971         -63.8637        -102.969      -0.00806875          150.57
0.51                   -0.159795         -126.64         -63.6262        -104.295         -63.6253        -104.294      -0.00814819         150.504
0.511                  -0.167253        -127.126         -63.3837        -105.643          -63.383        -105.641      -0.00822869         150.438
0.512                  -0.175186        -127.617         -63.1374        -107.015         -63.1368        -107.013      -0.00831027         150.372
0.513                  -0.183626        -128.111         -62.8871        -108.412         -62.8867        -108.411      -0.00839297         150.306
0.514                  -0.192606        -128.608         -62.6331        -109.837         -62.6327        -109.836       -0.0084768          150.24
0.515                  -0.202164        -129.109         -62.3752        -111.291         -62.3749         -111.29      -0.00856178         150.173
0.516                  -0.212337        -129.613         -62.1136        -112.776         -62.1134        -112.774      -0.00864795         150.107
0.517                  -0.223166        -130.121         -61.8484        -114.292         -61.8483         -114.29      -0.00873532         150.041
0.518                  -0.234692        -130.632         -61.5797        -115.843         -61.5795        -115.841      -0.00882391         149.974
0.519                  -0.246961        -131.146         -61.3075        -117.429         -61.3074        -117.427      -0.00891376         149.907
0.52                   -0.260019        -131.663          -61.032        -119.053          -61.032        -119.051      -0.00900488         149.841
0.521                  -0.273913        -132.183         -60.7535        -120.717         -60.7534        -120.714       -0.0090973         149.774
0.522                  -0.288693        -132.706          -60.472        -122.422         -60.4719        -122.419      -0.00919103         149.707
0.523                  -0.304407        -133.231         -60.1879        -124.171         -60.1878        -124.168      -0.00928609          149.64
0.524                  -0.321105        -133.757         -59.9013        -125.966         -59.9011        -125.963       -0.0093825         149.573
0.525                  -0.338837        -134.286         -59.6125        -127.809         -59.6123        -127.805      -0.00948027         149.506
0.526                  -0.357649        -134.816         -59.3219        -129.701         -59.3217        -129.697      -0.00957941         149.439
0.527                  -0.377587        -135.346         -59.0298        -131.646         -59.0295        -131.642      -0.00967992         149.371
0.528                  -0.398691        -135.876         -58.7366        -133.644         -58.7363         -133.64      -0.00978182         149.304
0.529                  -0.420994        -136.406         -58.4428        -135.697         -58.4425        -135.693      -0.00988508         149.236
0.53                   -0.444522        -136.935         -58.1489        -137.808         -58.1485        -137.804       -0.0099897         149.169
0.531                  -0.469293        -137.462         -57.8553        -139.978         -57.8548        -139.974       -0.0100957         149.101
0.532                  -0.495308        -137.985         -57.5626        -142.208         -57.5622        -142.204       -0.0102029         149.033
0.533                  -0.522557        -138.505         -57.2716        -144.499         -57.2711        -144.496       -0.0103114         148.966
0.534                  -0.551008         -139.02         -56.9827        -146.852         -56.9822        -146.849       -0.0104212         148.898
0.535                  -0.580609        -139.529         -56.6968        -149.268         -56.6963        -149.265       -0.0105321          148.83
0.536                  -0.611286        -140.032         -56.4146        -151.745         -56.4141        -151.743       -0.0106441         148.761
0.537                  -0.642934        -140.526         -56.1368        -154.285         -56.1363        -154.283        -0.010757         148.693
0.538                  -0.675424        -141.012         -55.8642        -156.885         -55.8637        -156.884       -0.0108709         148.625
0.539                  -0.708593        -141.488         -55.5976        -159.545         -55.5971        -159.543       -0.0109856         148.557
0.54                   -0.742251        -141.952         -55.3378        -162.261         -55.3373         -162.26       -0.0111009         148.488
0.541                  -0.776176        -142.406         -55.0855        -165.031         -55.0851         -165.03       -0.0112167         148.419
0.542                  -0.810122        -142.847         -54.8416        -167.852         -54.8413        -167.851        -0.011333         148.351
0.543                  -0.843818        -143.277         -54.6066        -170.719         -54.6064        -170.719       -0.0114495         148.282
0.544                  -0.876978        -143.694         -54.3813        -173.628         -54.3811        -173.628       -0.0115661         148.213
0.545                  -0.909306        -144.099         -54.1662        -176.573         -54.1661        -176.573       -0.0116828         148.144
0.546                  -0.940506        -144.493         -53.9617        -179.549         -53.9617        -179.548       -0.0117993         148.075
0.547                  -0.970292        -144.876         -53.7683         177.451         -53.7683         177.452       -0.0119156         148.006
0.548                  -0.998398         -145.25         -53.5861         174.433         -53.5862         174.434       -0.0120315         147.937
0.549                   -1.02459        -145.617         -53.4153         171.403         -53.4155         171.404       -0.0121471         147.867
0.55                    -1.04866        -145.978         -53.2559         168.368         -53.2561          168.37       -0.0122623         147.798
0.551                   -1.07046        -146.335         -53.1078         165.335         -53.1081         165.337       -0.0123771         147.728
0.552                   -1.08988        -146.691         -52.9708          162.31         -52.9711         162.312       -0.0124915         147.658
0.553                   -1.10688        -147.047         -52.8444         159.298         -52.8448         159.301       -0.0126055         147.588
0.554                   -1.12146        -147.406         -52.7284         156.307         -52.7288         156.309       -0.0127193         147.518
0.555                   -1.13367        -147.771         -52.6222         153.339         -52.6225         153.342        -0.012833         147.448
0.556                   -1.14361        -148.142         -52.5251           150.4         -52.5255         150.404       -0.0129468         147.378
0.557                   -1.15142        -148.522         -52.4367         147.495          -52.437         147.499       -0.0130606         147.308
0.558                   -1.15726        -148.913          -52.356         144.625         -52.3563         144.629       -0.0131748         147.237
0.559                   -1.16134        -149.315         -52.2826         141.794         -52.2828         141.799       -0.0132896         147.167
0.56                    -1.16386        -149.731         -52.2156         139.004         -52.2158         139.009        -0.013405         147.096
0.561                   -1.16503        -150.161         -52.1544         136.256         -52.1546         136.261       -0.0135212         147.025
0.562                    -1.1651        -150.605         -52.0983         133.552         -52.0984         133.556       -0.0136385         146.954
0.563                   -1.16427        -151.064         -52.0466         130.891         -52.0466         130.895        -0.013757         146.883
0.564                   -1.16276        -151.539         -51.9986         128.274         -51.9986         128.277       -0.0138768         146.812
0.565                   -1.16077         -152.03         -51.9538           125.7         -51.9538         125.703       -0.0139981          146.74
0.566                   -1.15849        -152.536         -51.9115         123.169         -51.9115         123.172       -0.0141211         146.669
0.567                    -1.1561        -153.058         -51.8714         120.679         -51.8713         120.682       -0.0142457         146.597
0.568                   -1.15376        -153.594         -51.8328          118.23         -51.8327         118.232       -0.0143722         146.525
0.569                   -1.15161        -154.146         -51.7954         115.821         -51.7953         115.822       -0.0145006         146.453
0.57                    -1.14978        -154.713         -51.7587         113.449         -51.7586         113.449       -0.0146311         146.381
0.571                    -1.1484        -155.294         -51.7224         111.113         -51.7223         111.113       -0.0147635         146.309
0.572                   -1.14756        -155.889         -51.6861         108.811         -51.6861         108.811       -0.0148981         146.236
0.573                   -1.14735        -156.498         -51.6496         106.543         -51.6496         106.542       -0.0150349         146.164
0.574                   -1.14787        -157.119         -51.6127         104.305         -51.6127         104.303       -0.0151739         146.091
0.575                   -1.14918        -157.754          -51.575         102.097         -51.5751         102.094       -0.0153151         146.018
0.576                   -1.15135        -158.401         -51.5365          99.916         -51.5366         99.9129       -0.0154586         145.945
0.577                   -1.15443        -159.061         -51.4969          97.761         -51.4971         97.7574       -0.0156043         145.872
0.578                   -1.15848        -159.732         -51.4561         95.6302         -51.4564          95.626       -0.0157524         145.799
0.579                   -1.16354        -160.415          -51.414         93.5219         -51.4144         93.5172       -0.0159028         145.725
0.58                    -1.16966         -161.11         -51.3705         91.4346          -51.371         91.4295       -0.0160555         145.652
0.581                   -1.17688        -161.816         -51.3255         89.3668         -51.3261         89.3613       -0.0162105         145.578
0.582                   -1.18524        -162.532          -51.279          87.317         -51.2797         87.3111       -0.0163679         145.504
0.583                   -1.19478         -163.26         -51.2308         85.2839         -51.2316         85.2777       -0.0165276          145.43
0.584                   -1.20553        -163.998          -51.181          83.266         -51.1819         83.2596       -0.0166897         145.356
0.585                   -1.21753        -164.747         -51.1295         81.2622         -51.1305         81.2556       -0.0168542         145.282
0.586                   -1.23081        -165.506         -51.0764         79.2711         -51.0775         79.2645       -0.0170211         145.207
0.587                   -1.24543        -166.276         -51.0215         77.2916         -51.0227          77.285       -0.0171903         145.132
0.588                   -1.26141        -167.055         -50.9649         75.3227         -50.9662         75.3161       -0.0173619         145.058
0.589                    -1.2788        -167.845         -50.9066         73.3632          -50.908         73.3567       -0.0175359         144.983
0.59                    -1.29764        -168.645         -50.8465         71.4122          -50.848         71.4058       -0.0177123         144.907
0.591                   -1.31798        -169.456         -50.7848         69.4686         -50.7864         69.4625       -0.0178911         144.832
0.592                   -1.33986        -170.276         -50.7215         67.5316         -50.7231         67.5258       -0.0180723         144.756
0.593                   -1.36333        -171.106         -50.6565         65.6003         -50.6582         65.5948       -0.0182559         144.681
0.594                   -1.38846        -171.946         -50.5898         63.6738         -50.5916         63.6686       -0.0184419         144.605
0.595                   -1.41529        -172.797         -50.5216         61.7513         -50.5235         61.7466       -0.0186304         144.529
0.596                   -1.44388        -173.657         -50.4518         59.8322         -50.4537         59.8279       -0.0188213         144.453
0.597                   -1.47431        -174.527         -50.3805         57.9155         -50.3824         57.9117       -0.0190147         144.376
0.598                   -1.50664        -175.407         -50.3076         56.0007         -50.3096         55.9974       -0.0192106           144.3
0.599                   -1.54094        -176.298         -50.2334         54.0871         -50.2353         54.0842       -0.0194089         144.223
0.6                     -1.57729        -177.198         -50.1576         52.1739         -50.1596         52.1715       -0.0196097         144.146
0.601                   -1.61577        -178.107         -50.0805         50.2606         -50.0825         50.2587       -0.0198131         144.069
0.602                   -1.65646        -179.027         -50.0021         48.3464         -50.0041         48.3451       -0.0200189         143.991
0.603                   -1.69947        -179.956         -49.9224          46.431         -49.9243         46.4301       -0.0202273         143.914
0.604                   -1.74488         179.105         -49.8414         44.5135         -49.8433         44.5131       -0.0204383         143.836
0.605                   -1.79279         178.157         -49.7592         42.5935         -49.7611         42.5936       -0.0206518         143.758
0.606                   -1.84332         177.199         -49.6758         40.6705         -49.6777          40.671        -0.020868          143.68
0.607                   -1.89656         176.232         -49.5914         38.7438         -49.5932         38.7447       -0.0210868         143.602
0.608                   -1.95265         175.257         -49.5059          36.813         -49.5076         36.8142       -0.0213082         143.523
0.609                    -2.0117         174.272         -49.4194         34.8776          -49.421         34.8791       -0.0215323         143.444
0.61                    -2.07384         173.279          -49.332         32.9369         -49.3335         32.9387        -0.021759         143.365
0.611                   -2.13921         172.279         -49.2437         30.9907         -49.2451         30.9927       -0.0219885         143.286
0.612                   -2.20794          171.27         -49.1546         29.0383          -49.156         29.0405       -0.0222208         143.207
0.613                   -2.28018         170.254         -49.0648         27.0793          -49.066         27.0817       -0.0224558         143.127
0.614                   -2.35607         169.232         -48.9743         25.1132         -48.9755         25.1157       -0.0226937         143.047
0.615                   -2.43579         168.204         -48.8832         23.1398         -48.8843         23.1423       -0.0229344         142.967
0.616                   -2.51947          167.17         -48.7916         21.1584         -48.7926         21.1609        -0.023178         142.887
0.617                    -2.6073         166.131         -48.6996         19.1687         -48.7005         19.1712       -0.0234245         142.807
0.618                   -2.69943         165.089         -48.6072         17.1704         -48.6081         17.1728        -0.023674         142.726
0.619                   -2.79604         164.044         -48.5146         15.1631         -48.5154         15.1653       -0.0239265         142.645
0.62                    -2.89731         162.997         -48.4219         13.1464         -48.4226         13.1485       -0.0241821         142.564
0.621                    -3.0034         161.949         -48.3291         11.1202         -48.3297          11.122       -0.0244408         142.482
0.622                   -3.11451         160.902         -48.2364         9.08397         -48.2369         9.08556       -0.0247027         142.401
0.623                    -3.2308         159.857         -48.1439         7.03765         -48.1443         7.03897       -0.0249679         142.319
0.624                   -3.35245         158.816         -48.0516           4.981          -48.052         4.98202       -0.0252363         142.236
0.625                   -3.47963          157.78         -47.9598         2.91388         -47.9601         2.91458       -0.0255081         142.154
0.626                   -3.61251         156.752         -47.8685        0.836168         -47.8687        0.836539       -0.0257833         142.071
0.627                   -3.75124         155.733         -47.7779        -1.25218          -47.778        -1.25215        -0.026062         141.988
0.628                   -3.89599         154.726          -47.688        -3.35117         -47.6881        -3.35148       -0.0263443         141.905
0.629                   -4.04688         153.733         -47.5991        -5.46075         -47.5992        -5.46139       -0.0266303         141.822
