! TOUCHSTONE file generated by CST MICROWAVE STUDIO
! Date and time: Sat Nov 14 20:32:42 2020
! Project name: Scenario_1_Planar_Body_Tissue_Out_of_Line_v2.cst
! Parameters = {dy1=294.1; L_HA=400; Ltissue=700; MT=2.54; Rad_Dielectric=30; Rad_Lower=7.3; Rad_Upper=30; Wtissue=700; a_HA=580; a_WG=246; b_HA=500; b_WG=121; c_HA=0; c_WG=187; d_feed=85; dx1=173; h_feed=15; h_lower=18; h_upper=40; hfat=3; hgap=25; hmuscle=50; hskin=1.5}
! Header version: 2018
! Port assignment regex: !\s*Touchstone port\s*([0-9]+)\s*=\s*(CST MWS port|CST DS port)\s*([0-9]+|Zmin|Zmax)\s*\(\"(.*)\"\)(\s*mode\s*([0-9]+))?.*
! Touchstone port assignment:
! Touchstone port 1 = CST MWS port 1 ("")
! Touchstone port 2 = CST MWS port 2 ("")
# GHz S DB R 50
0.5                    -0.065852        -121.795         -67.1159         114.026         -67.1114          114.03      -0.00701702         151.138
0.501                  -0.068286        -122.244           -66.92         113.509         -66.9157         113.512      -0.00707714         151.073
0.502                 -0.0708096        -122.696         -66.7217         112.983         -66.7176         112.986      -0.00713787         151.007
0.503                 -0.0734285        -123.152          -66.521          112.45         -66.5171         112.453      -0.00719922         150.942
0.504                 -0.0761488         -123.61         -66.3178         111.908         -66.3142         111.911       -0.0072612         150.876
0.505                 -0.0789769        -124.073         -66.1122         111.358         -66.1087          111.36      -0.00732382         150.811
0.506                 -0.0819199        -124.538          -65.904           110.8         -65.9007         110.802      -0.00738709         150.745
0.507                 -0.0849854        -125.007         -65.6933         110.233         -65.6902         110.234      -0.00745102         150.679
0.508                 -0.0881814         -125.48           -65.48         109.656         -65.4771         109.657      -0.00751563         150.614
0.509                 -0.0915167        -125.957         -65.2641          109.07         -65.2613         109.072      -0.00758093         150.548
0.51                  -0.0950009        -126.438         -65.0454         108.475         -65.0428         108.476      -0.00764692         150.482
0.511                  -0.098644        -126.922         -64.8241          107.87         -64.8216         107.871      -0.00771363         150.416
0.512                  -0.102457        -127.411            -64.6         107.255         -64.5977         107.255      -0.00778106          150.35
0.513                  -0.106452        -127.904         -64.3732         106.629          -64.371          106.63      -0.00784923         150.283
0.514                  -0.110642        -128.401         -64.1435         105.993         -64.1414         105.993      -0.00791815         150.217
0.515                   -0.11504        -128.903         -63.9109         105.345          -63.909         105.345      -0.00798783         150.151
0.516                  -0.119661        -129.409         -63.6754         104.686         -63.6737         104.686       -0.0080583         150.084
0.517                  -0.124522         -129.92          -63.437         104.015         -63.4353         104.015      -0.00812957         150.018
0.518                   -0.12964        -130.436         -63.1956         103.331          -63.194         103.331      -0.00820165         149.951
0.519                  -0.135034        -130.956         -62.9511         102.635         -62.9497         102.635      -0.00827456         149.884
0.52                   -0.140724        -131.482         -62.7035         101.926         -62.7022         101.926      -0.00834832         149.817
0.521                  -0.146733        -132.013         -62.4528         101.202         -62.4516         101.202      -0.00842295          149.75
0.522                  -0.153085         -132.55         -62.1989         100.465         -62.1978         100.465      -0.00849847         149.683
0.523                  -0.159805        -133.092         -61.9418         99.7125         -61.9408         99.7124      -0.00857489         149.616
0.524                  -0.166922         -133.64         -61.6815         98.9447         -61.6806         98.9445      -0.00865224         149.549
0.525                  -0.174466        -134.194         -61.4178         98.1607          -61.417         98.1605      -0.00873055         149.482
0.526                  -0.182472        -134.754         -61.1508           97.36           -61.15         97.3598      -0.00880983         149.414
0.527                  -0.190976         -135.32         -60.8803         96.5417         -60.8796         96.5416      -0.00889011         149.347
0.528                  -0.200016        -135.893         -60.6064         95.7052         -60.6058         95.7051      -0.00897141         149.279
0.529                  -0.209637        -136.472          -60.329         94.8497         -60.3285         94.8496      -0.00905377         149.212
0.53                   -0.219884        -137.058         -60.0481         93.9742         -60.0476         93.9742      -0.00913721         149.144
0.531                   -0.23081        -137.651         -59.7636         93.0778         -59.7632         93.0779      -0.00922176         149.076
0.532                   -0.24247        -138.252         -59.4755         92.1597         -59.4751         92.1597      -0.00930746         149.008
0.533                  -0.254924         -138.86         -59.1837         91.2186         -59.1834         91.2188      -0.00939434          148.94
0.534                   -0.26824        -139.475         -58.8882         90.2537          -58.888         90.2539      -0.00948243         148.872
0.535                  -0.282491        -140.099          -58.589         89.2636         -58.5888         89.2639      -0.00957178         148.804
0.536                  -0.297754         -140.73         -58.2861         88.2472         -58.2859         88.2475      -0.00966242         148.735
0.537                  -0.314118         -141.37         -57.9794         87.2031         -57.9792         87.2035      -0.00975441         148.667
0.538                  -0.331678        -142.018         -57.6689         86.1299         -57.6688         86.1304      -0.00984778         148.598
0.539                  -0.350537        -142.675         -57.3545         85.0262         -57.3545         85.0267      -0.00994259          148.53
0.54                    -0.37081         -143.34         -57.0364         83.8904         -57.0364         83.8909       -0.0100389         148.461
0.541                   -0.39262        -144.015         -56.7145         82.7207         -56.7145         82.7213       -0.0101368         148.392
0.542                  -0.416103        -144.698         -56.3888         81.5155         -56.3888         81.5162       -0.0102362         148.323
0.543                   -0.44141         -145.39         -56.0594         80.2728         -56.0594         80.2735       -0.0103374         148.254
0.544                  -0.468702        -146.091         -55.7262         78.9907         -55.7263         78.9915       -0.0104403         148.185
0.545                  -0.498156        -146.801         -55.3894         77.6671         -55.3895         77.6679       -0.0105451         148.115
0.546                  -0.529967         -147.52          -55.049         76.2996         -55.0491         76.3005       -0.0106518         148.046
0.547                  -0.564345        -148.248         -54.7052         74.8861         -54.7053          74.887       -0.0107605         147.976
0.548                  -0.601519        -148.984          -54.358         73.4241         -54.3581          73.425       -0.0108713         147.906
0.549                  -0.641738        -149.728         -54.0076         71.9109         -54.0077         71.9118       -0.0109843         147.837
0.55                   -0.685269        -150.479         -53.6542         70.3439         -53.6543         70.3449       -0.0110997         147.767
0.551                    -0.7324        -151.237          -53.298         68.7204         -53.2981         68.7213       -0.0112175         147.697
0.552                  -0.783438            -152         -52.9393         67.0373         -52.9394         67.0383       -0.0113379         147.626
0.553                  -0.838713        -152.767         -52.5784         65.2919         -52.5785         65.2928        -0.011461         147.556
0.554                  -0.898567        -153.536         -52.2156          63.481         -52.2157         63.4819        -0.011587         147.486
0.555                   -0.96336        -154.306         -51.8515         61.6016         -51.8515         61.6025        -0.011716         147.415
0.556                   -1.03346        -155.074         -51.4863         59.6507         -51.4864         59.6516       -0.0118482         147.345
0.557                   -1.10924        -155.837         -51.1208         57.6252         -51.1208          57.626       -0.0119837         147.274
0.558                   -1.19107        -156.592         -50.7555         55.5223         -50.7555          55.523       -0.0121227         147.203
0.559                   -1.27928        -157.333         -50.3911         53.3391         -50.3911         53.3399       -0.0122653         147.132
0.56                     -1.3742        -158.057         -50.0284         51.0733         -50.0284          51.074       -0.0124117         147.061
0.561                   -1.47606        -158.758         -49.6683         48.7226         -49.6683         48.7233        -0.012562         146.989
0.562                   -1.58505        -159.429         -49.3117         46.2854         -49.3117          46.286       -0.0127163         146.918
0.563                   -1.70121        -160.062         -48.9597         43.7604         -48.9597         43.7609       -0.0128747         146.846
0.564                   -1.82443         -160.65         -48.6133         41.1472         -48.6133         41.1476       -0.0130372         146.775
0.565                   -1.95441        -161.183         -48.2739          38.446         -48.2739         38.4463       -0.0132038         146.703
0.566                   -2.09059        -161.651         -47.9425          35.658         -47.9425         35.6582       -0.0133744         146.631
0.567                   -2.23212        -162.046         -47.6205         32.7854         -47.6205         32.7856        -0.013549         146.559
0.568                   -2.37779        -162.356         -47.3092         29.8316         -47.3092         29.8318       -0.0137273         146.487
0.569                   -2.52603        -162.572         -47.0097         26.8013         -47.0097         26.8013        -0.013909         146.415
0.57                    -2.67485        -162.687         -46.7234            23.7         -46.7235            23.7       -0.0140938         146.342
0.571                   -2.82187        -162.694         -46.4514          20.535         -46.4514          20.535       -0.0142814          146.27
0.572                   -2.96437         -162.59         -46.1947         17.3144         -46.1947         17.3143       -0.0144712         146.197
0.573                   -3.09934        -162.375         -45.9541         14.0475         -45.9541         14.0474       -0.0146627         146.125
0.574                    -3.2237        -162.054         -45.7304         10.7444         -45.7304         10.7442       -0.0148556         146.052
0.575                   -3.33437        -161.636         -45.5238         7.41589         -45.5239         7.41569       -0.0150491         145.979
0.576                   -3.42858        -161.136         -45.3348         4.07312         -45.3348         4.07291        -0.015243         145.906
0.577                   -3.50402        -160.573         -45.1632        0.727364         -45.1633        0.727152       -0.0154367         145.833
0.578                   -3.55904        -159.967         -45.0089        -2.61032         -45.0089        -2.61053         -0.01563         145.759
0.579                   -3.59281        -159.344         -44.8712        -5.92936         -44.8712        -5.92955       -0.0158225         145.686
0.58                     -3.6053        -158.728         -44.7496        -9.21991         -44.7496        -9.22009       -0.0160141         145.612
0.581                   -3.59735        -158.141         -44.6431        -12.4731         -44.6432        -12.4732       -0.0162047         145.539
0.582                   -3.57047        -157.604         -44.5508        -15.6811         -44.5509        -15.6812       -0.0163944         145.465
0.583                   -3.52672        -157.135         -44.4716        -18.8373         -44.4716        -18.8374       -0.0165831         145.391
0.584                   -3.46852        -156.747         -44.4042        -21.9363         -44.4042        -21.9365       -0.0167711         145.316
0.585                   -3.39844        -156.448         -44.3474        -24.9742         -44.3474        -24.9742       -0.0169587         145.242
0.586                   -3.31906        -156.244         -44.2999        -27.9477         -44.2999        -27.9478       -0.0171459         145.168
0.587                   -3.23281        -156.136         -44.2607        -30.8553         -44.2607        -30.8553       -0.0173332         145.093
0.588                   -3.14192        -156.123         -44.2285        -33.6958         -44.2285        -33.6959       -0.0175209         145.018
0.589                   -3.04834        -156.201         -44.2021        -36.4695         -44.2021        -36.4695       -0.0177092         144.943
0.59                     -2.9537        -156.366         -44.1807         -39.177         -44.1807         -39.177       -0.0178984         144.868
0.591                   -2.85939        -156.612         -44.1632        -41.8196         -44.1631        -41.8197       -0.0180888         144.792
0.592                   -2.76649        -156.932         -44.1487        -44.3993         -44.1486        -44.3994       -0.0182807         144.717
0.593                   -2.67585        -157.321         -44.1365        -46.9183         -44.1364        -46.9184       -0.0184743         144.641
0.594                   -2.58812        -157.772         -44.1258        -49.3792         -44.1258        -49.3792       -0.0186698         144.565
0.595                   -2.50375         -158.28         -44.1161        -51.7846         -44.1161        -51.7847       -0.0188675         144.489
0.596                   -2.42307        -158.837         -44.1068        -54.1375         -44.1068        -54.1376       -0.0190676         144.413
0.597                   -2.34628        -159.441         -44.0975        -56.4409         -44.0975         -56.441       -0.0192701         144.336
0.598                   -2.27348        -160.085         -44.0877        -58.6977         -44.0877        -58.6977       -0.0194753         144.259
0.599                   -2.20471        -160.766         -44.0771        -60.9108         -44.0771        -60.9109       -0.0196832         144.182
0.6                     -2.13994         -161.48         -44.0655        -63.0832         -44.0654        -63.0833       -0.0198939         144.105
0.601                   -2.07913        -162.224         -44.0525        -65.2177         -44.0525        -65.2178       -0.0201076         144.028
0.602                   -2.02218        -162.995          -44.038         -67.317          -44.038        -67.3171       -0.0203244          143.95
0.603                   -1.96898        -163.791         -44.0219        -69.3838         -44.0219        -69.3839       -0.0205442         143.873
0.604                   -1.91941        -164.608          -44.004        -71.4205          -44.004        -71.4206       -0.0207672         143.795
0.605                   -1.87334        -165.447         -43.9842        -73.4295         -43.9842        -73.4295       -0.0209934         143.717
0.606                   -1.83064        -166.304         -43.9625         -75.413         -43.9625         -75.413       -0.0212228         143.639
0.607                   -1.79118         -167.18         -43.9389        -77.3731         -43.9389        -77.3732       -0.0214555          143.56
0.608                   -1.75484        -168.071         -43.9133        -79.3119         -43.9133        -79.3119       -0.0216915         143.481
0.609                   -1.72149        -168.978         -43.8858        -81.2311         -43.8858        -81.2311       -0.0219308         143.402
0.61                    -1.69101          -169.9         -43.8562        -83.1325         -43.8562        -83.1324       -0.0221734         143.323
0.611                   -1.66329        -170.837         -43.8248        -85.0177         -43.8248        -85.0176       -0.0224194         143.244
0.612                   -1.63824        -171.786         -43.7914        -86.8881         -43.7915         -86.888       -0.0226687         143.164
0.613                   -1.61576        -172.749         -43.7562        -88.7452         -43.7563         -88.745       -0.0229214         143.085
0.614                   -1.59575        -173.725         -43.7192        -90.5902         -43.7193          -90.59       -0.0231775         143.005
0.615                   -1.57814        -174.714         -43.6805        -92.4243         -43.6805         -92.424       -0.0234369         142.924
0.616                   -1.56287        -175.715         -43.6401        -94.2485         -43.6401        -94.2481       -0.0236997         142.844
0.617                   -1.54986        -176.728         -43.5981        -96.0638         -43.5981        -96.0634       -0.0239659         142.763
0.618                   -1.53906        -177.753         -43.5545        -97.8712         -43.5545        -97.8708       -0.0242355         142.682
0.619                   -1.53041        -178.791         -43.5094        -99.6715         -43.5094         -99.671       -0.0245084         142.601
0.62                    -1.52388        -179.841         -43.4629        -101.465         -43.4629        -101.465       -0.0247847          142.52
0.621                   -1.51944         179.096          -43.415        -103.254          -43.415        -103.253       -0.0250643         142.438
0.622                   -1.51704         178.021         -43.3658        -105.037         -43.3659        -105.036       -0.0253474         142.356
0.623                   -1.51667         176.933         -43.3155        -106.815         -43.3155        -106.815       -0.0256338         142.274
0.624                   -1.51831         175.832         -43.2639         -108.59         -43.2639        -108.589       -0.0259236         142.192
0.625                   -1.52196         174.718         -43.2112        -110.361         -43.2112         -110.36       -0.0262167         142.109
0.626                   -1.52759         173.591         -43.1575        -112.129         -43.1575        -112.128       -0.0265132         142.027
0.627                   -1.53522          172.45         -43.1027        -113.895         -43.1028        -113.893       -0.0268132         141.944
0.628                   -1.54485         171.296         -43.0471        -115.658         -43.0471        -115.656       -0.0271165          141.86
0.629                   -1.55649         170.127         -42.9905        -117.419         -42.9905        -117.417       -0.0274233         141.777
