! TOUCHSTONE file generated by CST MICROWAVE STUDIO
! Date and time: Mon Nov 30 08:40:28 2020
! Project name: Scenario_1_Planar_Body_Tissue_Out_of_Line.cst
! Parameters = {dy1=-294.1; L_HA=400; Ltissue=700; MT=2.54; Rad_Dielectric=30; Rad_Lower=7.3; Rad_Upper=30; Wtissue=700; a_HA=580; a_WG=246; b_HA=500; b_WG=121; c_HA=0; c_WG=187; d_feed=85; dx1=866; h_feed=15; h_lower=18; h_upper=40; hfat=3; hgap=25; hmuscle=50; hskin=1.5}
! Header version: 2018
! Port assignment regex: !\s*Touchstone port\s*([0-9]+)\s*=\s*(CST MWS port|CST DS port)\s*([0-9]+|Zmin|Zmax)\s*\(\"(.*)\"\)(\s*mode\s*([0-9]+))?.*
! Touchstone port assignment:
! Touchstone port 1 = CST MWS port 1 ("")
! Touchstone port 2 = CST MWS port 2 ("")
# GHz S DB R 50
0.5                    -0.124565        -122.083         -65.0411         86.1938          -65.041         86.2012      -0.00751755         151.157
0.501                  -0.135701        -122.492         -64.9574         84.2207         -64.9569         84.2304      -0.00759097         151.092
0.502                  -0.146747        -122.903         -64.8698         82.2225          -64.869         82.2346      -0.00766494         151.027
0.503                  -0.157702        -123.315         -64.7785         80.1996         -64.7774          80.214      -0.00773947         150.961
0.504                  -0.168567        -123.728         -64.6834          78.152          -64.682         78.1688      -0.00781456         150.896
0.505                  -0.179342        -124.142         -64.5844         76.0799         -64.5826          76.099      -0.00789021          150.83
0.506                  -0.190027        -124.558         -64.4815         73.9836         -64.4795          74.005      -0.00796645         150.765
0.507                  -0.200623        -124.975         -64.3746         71.8632         -64.3723         71.8869      -0.00804326         150.699
0.508                   -0.21113        -125.394         -64.2639         69.7191         -64.2613         69.7451      -0.00812066         150.633
0.509                  -0.221549        -125.814         -64.1492         67.5515         -64.1464         67.5796      -0.00819865         150.568
0.51                   -0.231882        -126.236         -64.0307         65.3607         -64.0276         65.3909      -0.00827724         150.502
0.511                  -0.242129        -126.659         -63.9083         63.1469         -63.9049         63.1792      -0.00835643         150.436
0.512                  -0.252292        -127.084          -63.782         60.9105         -63.7784         60.9448      -0.00843623          150.37
0.513                  -0.262372        -127.512          -63.652         58.6516         -63.6481         58.6879      -0.00851666         150.304
0.514                  -0.272371        -127.941         -63.5182         56.3708         -63.5141         56.4088       -0.0085977         150.238
0.515                  -0.282292        -128.372         -63.3808         54.0681         -63.3764         54.1079      -0.00867938         150.171
0.516                  -0.292135        -128.805         -63.2399          51.744         -63.2353         51.7855       -0.0087617         150.105
0.517                  -0.301904         -129.24         -63.0955         49.3987         -63.0907         49.4417      -0.00884466         150.039
0.518                  -0.311601        -129.677         -62.9478         47.0325         -62.9427          47.077      -0.00892827         149.972
0.519                  -0.321228        -130.116         -62.7969         44.6458         -62.7916         44.6916      -0.00901255         149.905
0.52                   -0.330789        -130.558          -62.643         42.2388         -62.6375         42.2858      -0.00909749         149.839
0.521                  -0.340286        -131.003         -62.4862         39.8119         -62.4805         39.8599      -0.00918311         149.772
0.522                  -0.349724        -131.449         -62.3267         37.3654         -62.3208         37.4143      -0.00926942         149.705
0.523                  -0.359105        -131.899         -62.1647         34.8996         -62.1586         34.9493      -0.00935641         149.638
0.524                  -0.368434        -132.351         -62.0004         32.4149         -61.9942         32.4651      -0.00944411         149.571
0.525                  -0.377715        -132.805         -61.8341         29.9116         -61.8276         29.9622      -0.00953251         149.504
0.526                  -0.386953        -133.263         -61.6658           27.39         -61.6592          27.441      -0.00962163         149.437
0.527                  -0.396151        -133.723          -61.496         24.8507         -61.4892         24.9017      -0.00971148          149.37
0.528                  -0.405316        -134.186         -61.3248          22.294         -61.3178          22.345      -0.00980206         149.302
0.529                  -0.414453        -134.653         -61.1525         19.7204         -61.1454         19.7712      -0.00989339         149.235
0.53                   -0.423568        -135.122         -60.9793         17.1304         -60.9721         17.1809      -0.00998548         149.167
0.531                  -0.432666        -135.595         -60.8056         14.5247         -60.7983         14.5746       -0.0100783         149.099
0.532                  -0.441754        -136.071         -60.6316         11.9039         -60.6242         11.9531       -0.0101719         149.032
0.533                   -0.45084         -136.55         -60.4576         9.26862         -60.4501         9.31695       -0.0102663         148.964
0.534                   -0.45993        -137.033          -60.284         6.61972         -60.2763         6.66702       -0.0103616         148.896
0.535                  -0.469032        -137.519         -60.1109         3.95804         -60.1032         4.00416       -0.0104576         148.828
0.536                  -0.478156         -138.01         -59.9387         1.28454         -59.9309         1.32932       -0.0105544          148.76
0.537                  -0.487309        -138.504         -59.7676        -1.39976         -59.7598        -1.35644        -0.010652         148.691
0.538                    -0.4965        -139.001          -59.598        -4.09372         -59.5902        -4.05199       -0.0107505         148.623
0.539                  -0.505741        -139.503         -59.4301        -6.79611         -59.4223        -6.75609       -0.0108499         148.555
0.54                    -0.51504        -140.009         -59.2641        -9.50561         -59.2564        -9.46741       -0.0109501         148.486
0.541                   -0.52441        -140.519         -59.1004        -12.2208         -59.0927        -12.1845       -0.0110512         148.417
0.542                  -0.533863        -141.034         -58.9391        -14.9402         -58.9314        -14.9059       -0.0111531         148.349
0.543                   -0.54341        -141.553         -58.7805        -17.6622         -58.7729        -17.6299        -0.011256          148.28
0.544                  -0.553065        -142.076         -58.6247        -20.3851         -58.6172         -20.355       -0.0113598         148.211
0.545                  -0.562842        -142.604         -58.4719        -23.1072         -58.4645        -23.0792       -0.0114645         148.142
0.546                  -0.572756        -143.137         -58.3223        -25.8268          -58.315        -25.8009       -0.0115702         148.072
0.547                  -0.582823        -143.675         -58.1759        -28.5419         -58.1688        -28.5182       -0.0116768         148.003
0.548                  -0.593059        -144.217         -58.0329        -31.2507          -58.026        -31.2292       -0.0117845         147.934
0.549                  -0.603483        -144.765         -57.8933        -33.9514         -57.8866         -33.932       -0.0118931         147.864
0.55                   -0.614114        -145.318         -57.7571         -36.642         -57.7507        -36.6247       -0.0120027         147.794
0.551                  -0.624971        -145.877         -57.6244        -39.3208         -57.6182        -39.3055       -0.0121133         147.725
0.552                  -0.636076        -146.441         -57.4951        -41.9859         -57.4891        -41.9725        -0.012225         147.655
0.553                  -0.647452         -147.01         -57.3691        -44.6356         -57.3634         -44.624       -0.0123378         147.585
0.554                  -0.659122        -147.586         -57.2464        -47.2682          -57.241        -47.2583       -0.0124516         147.515
0.555                  -0.671112        -148.167         -57.1268        -49.8821         -57.1218        -49.8738       -0.0125666         147.444
0.556                   -0.68345        -148.754         -57.0103        -52.4759         -57.0055        -52.4691       -0.0126827         147.374
0.557                  -0.696165        -149.348         -56.8966        -55.0482         -56.8921        -55.0428       -0.0127999         147.304
0.558                  -0.709287        -149.947         -56.7855        -57.5978         -56.7813        -57.5937       -0.0129183         147.233
0.559                  -0.722848        -150.554         -56.6768        -60.1236          -56.673        -60.1207       -0.0130379         147.162
0.56                   -0.736885        -151.166         -56.5703        -62.6249         -56.5668        -62.6229       -0.0131587         147.091
0.561                  -0.751433        -151.786         -56.4658        -65.1007         -56.4626        -65.0996       -0.0132808          147.02
0.562                  -0.766532        -152.412          -56.363        -67.5506         -56.3601        -67.5502       -0.0134041         146.949
0.563                  -0.782224        -153.045         -56.2616        -69.9741          -56.259        -69.9743       -0.0135288         146.878
0.564                  -0.798553        -153.685         -56.1614        -72.3711         -56.1591        -72.3717       -0.0136548         146.807
0.565                  -0.815568        -154.332          -56.062        -74.7414           -56.06        -74.7424       -0.0137822         146.735
0.566                  -0.833317        -154.987         -55.9633        -77.0852         -55.9615        -77.0864       -0.0139109         146.664
0.567                  -0.851855        -155.649         -55.8648        -79.4029         -55.8633        -79.4042       -0.0140411         146.592
0.568                  -0.871238        -156.319         -55.7663        -81.6948         -55.7651        -81.6961       -0.0141728          146.52
0.569                  -0.891528        -156.996         -55.6676        -83.9616         -55.6666        -83.9628        -0.014306         146.448
0.57                   -0.912787         -157.68         -55.5683        -86.2041         -55.5675        -86.2052       -0.0144407         146.376
0.571                  -0.935085        -158.373         -55.4682        -88.4232         -55.4676        -88.4241       -0.0145771         146.303
0.572                  -0.958494        -159.073         -55.3671        -90.6201         -55.3666        -90.6207       -0.0147151         146.231
0.573                   -0.98309        -159.781         -55.2646        -92.7959         -55.2643        -92.7962       -0.0148547         146.158
0.574                   -1.00896        -160.497         -55.1606        -94.9521         -55.1605         -94.952       -0.0149961         146.086
0.575                   -1.03617         -161.22         -55.0548        -97.0901         -55.0548        -97.0896       -0.0151393         146.013
0.576                   -1.06484        -161.951          -54.947        -99.2115         -54.9471        -99.2106       -0.0152844          145.94
0.577                   -1.09504         -162.69          -54.837        -101.318         -54.8372        -101.317       -0.0154313         145.866
0.578                   -1.12689        -163.436         -54.7247        -103.412          -54.725         -103.41       -0.0155801         145.793
0.579                   -1.16048         -164.19         -54.6099        -105.494         -54.6103        -105.492        -0.015731          145.72
0.58                    -1.19594         -164.95         -54.4925        -107.568         -54.4929        -107.565       -0.0158839         145.646
0.581                   -1.23336        -165.718         -54.3723        -109.635         -54.3727        -109.632       -0.0160389         145.572
0.582                   -1.27288        -166.492         -54.2492        -111.697         -54.2497        -111.693       -0.0161961         145.498
0.583                   -1.31462        -167.271         -54.1233        -113.756         -54.1238        -113.752       -0.0163556         145.424
0.584                   -1.35871        -168.057         -53.9944        -115.815         -53.9949        -115.811       -0.0165173          145.35
0.585                   -1.40527        -168.847         -53.8626        -117.877         -53.8631        -117.872       -0.0166814         145.275
0.586                   -1.45446        -169.642         -53.7279        -119.942         -53.7283        -119.938       -0.0168479         145.201
0.587                   -1.50639         -170.44         -53.5903        -122.015         -53.5907         -122.01       -0.0170169         145.126
0.588                   -1.56121        -171.241         -53.4498        -124.097         -53.4502        -124.092       -0.0171884         145.051
0.589                   -1.61906        -172.043         -53.3067         -126.19          -53.307        -126.185       -0.0173625         144.976
0.59                    -1.68005        -172.845         -53.1609        -128.297         -53.1613        -128.292       -0.0175391         144.901
0.591                   -1.74433        -173.646         -53.0128         -130.42         -53.0131        -130.415       -0.0177185         144.825
0.592                   -1.81199        -174.445         -52.8625        -132.562         -52.8627        -132.557       -0.0179005         144.749
0.593                   -1.88316        -175.239         -52.7102        -134.723         -52.7104        -134.719       -0.0180853         144.674
0.594                   -1.95791        -176.028         -52.5563        -136.907         -52.5564        -136.903       -0.0182728         144.598
0.595                   -2.03631        -176.808          -52.401        -139.115          -52.401        -139.111       -0.0184631         144.522
0.596                   -2.11839        -177.577         -52.2445        -141.348         -52.2446        -141.344       -0.0186562         144.445
0.597                   -2.20418        -178.334         -52.0874        -143.609         -52.0875        -143.605       -0.0188521         144.369
0.598                   -2.29363        -179.075           -51.93        -145.897           -51.93        -145.893       -0.0190508         144.292
0.599                   -2.38668        -179.797         -51.7727        -148.214         -51.7726        -148.211       -0.0192524         144.215
0.6                     -2.48319         179.501         -51.6159        -150.561         -51.6158        -150.558       -0.0194567         144.138
0.601                   -2.58298         178.824           -51.46        -152.938         -51.4599        -152.936       -0.0196638         144.061
0.602                    -2.6858         178.174         -51.3055        -155.345         -51.3054        -155.343       -0.0198736         143.983
0.603                   -2.79132         177.554         -51.1529        -157.781         -51.1528        -157.779       -0.0200863         143.906
0.604                   -2.89916         176.967         -51.0026        -160.246         -51.0024        -160.244       -0.0203016         143.828
0.605                   -3.00881         176.416          -50.855        -162.739         -50.8548        -162.737       -0.0205197          143.75
0.606                   -3.11973         175.903         -50.7105        -165.258         -50.7104        -165.257       -0.0207405         143.672
0.607                   -3.23127         175.431         -50.5697        -167.801         -50.5695        -167.801        -0.020964         143.593
0.608                    -3.3427         175.001         -50.4327        -170.367         -50.4326        -170.367       -0.0211902         143.514
0.609                   -3.45323         174.615            -50.3        -172.954         -50.2999        -172.953       -0.0214191         143.436
0.61                    -3.56201         174.272         -50.1718        -175.557         -50.1717        -175.557       -0.0216506         143.357
0.611                   -3.66814         173.972         -50.0484        -178.175         -50.0483        -178.175       -0.0218849         143.277
0.612                   -3.77072         173.714           -49.93         179.195         -49.9299         179.195       -0.0221218         143.198
0.613                   -3.86883         173.495         -49.8166         176.556         -49.8165         176.556       -0.0223615         143.118
0.614                   -3.96161         173.313         -49.7083         173.913         -49.7083         173.913       -0.0226039         143.038
0.615                   -4.04822         173.162         -49.6052         171.267         -49.6052         171.267       -0.0228491         142.958
0.616                   -4.12793         173.039         -49.5072         168.623         -49.5072         168.623       -0.0230971         142.878
0.617                   -4.20014         172.936         -49.4141         165.983         -49.4141         165.982        -0.023348         142.797
0.618                   -4.26436         172.847         -49.3259          163.35         -49.3259         163.349       -0.0236018         142.716
0.619                   -4.32026         172.766         -49.2423         160.727         -49.2423         160.726       -0.0238586         142.635
0.62                    -4.36768         172.684          -49.163         158.116          -49.163         158.116       -0.0241185         142.554
0.621                   -4.40663         172.596         -49.0878          155.52         -49.0878          155.52       -0.0243816         142.472
0.622                   -4.43727         172.492         -49.0164         152.941         -49.0164         152.941       -0.0246478          142.39
0.623                   -4.45994         172.367         -48.9483         150.381         -48.9483          150.38       -0.0249174         142.308
0.624                   -4.47508         172.214         -48.8833          147.84         -48.8834          147.84       -0.0251903         142.226
0.625                   -4.48328         172.028          -48.821         145.321          -48.821         145.321       -0.0254668         142.143
0.626                   -4.48519         171.802          -48.761         142.823          -48.761         142.823       -0.0257468         142.061
0.627                   -4.48155         171.534         -48.7029         140.349         -48.7029         140.349       -0.0260305         141.977
0.628                   -4.47314          171.22         -48.6464         137.897         -48.6464         137.897       -0.0263181         141.894
0.629                   -4.46076         170.857         -48.5911         135.468         -48.5911         135.468       -0.0266095          141.81
