! TOUCHSTONE file generated by CST MICROWAVE STUDIO
! Date and time: Thu Feb 11 19:31:24 2021
! Project name: Scenario_1_Planar_Body_Tissue_Out_of_Line.cst
! Parameters = {L_HA=400; Ltissue=1000; MT=2.54; Rad_Dielectric=30; Rad_Lower=7.3; Rad_Upper=30; Wtissue=1000; a_HA=580; a_WG=246; b_HA=500; b_WG=121; c_HA=0; c_WG=187; d_feed=85; dx1=346; dy1=-276.8; h_feed=15; h_lower=18; h_upper=40; hfat=3; hgap=25; hmuscle=50; hskin=1.5}
! Header version: 2018
! Port assignment regex: !\s*Touchstone port\s*([0-9]+)\s*=\s*(CST MWS port|CST DS port)\s*([0-9]+|Zmin|Zmax)\s*\(\"(.*)\"\)(\s*mode\s*([0-9]+))?.*
! Touchstone port assignment:
! Touchstone port 1 = CST MWS port 1 ("")
! Touchstone port 2 = CST MWS port 2 ("")
# GHz S DB R 50
0.5                    -0.263712        -121.672         -58.1924         2.70318         -58.1927         2.70408      -0.00817108         151.145
0.501                  -0.266026        -122.045         -58.0697       0.0719806         -58.0697       0.0728991      -0.00822781          151.08
0.502                  -0.268274        -122.422         -57.9559        -2.54773         -57.9558        -2.54689      -0.00828512         151.015
0.503                  -0.270459        -122.803          -57.851        -5.15163         -57.8506        -5.15093      -0.00834301          150.95
0.504                  -0.272587        -123.187         -57.7545         -7.7356          -57.754        -7.73511       -0.0084015         150.884
0.505                  -0.274664        -123.574         -57.6663        -10.2958         -57.6657        -10.2956      -0.00846059         150.819
0.506                  -0.276694        -123.966         -57.5859        -12.8286         -57.5851        -12.8287      -0.00852029         150.753
0.507                  -0.278682         -124.36         -57.5129        -15.3309          -57.512        -15.3313      -0.00858062         150.688
0.508                  -0.280633        -124.759         -57.4468        -17.7997         -57.4458        -17.8005      -0.00864158         150.622
0.509                  -0.282553        -125.161         -57.3872        -20.2326         -57.3861        -20.2337      -0.00870319         150.556
0.51                   -0.284447        -125.566         -57.3335        -22.6274         -57.3323         -22.629      -0.00876546          150.49
0.511                  -0.286319        -125.976         -57.2853        -24.9825         -57.2841        -24.9844      -0.00882839         150.424
0.512                  -0.288175        -126.389         -57.2419        -27.2963         -57.2407        -27.2986      -0.00889201         150.358
0.513                   -0.29002        -126.806          -57.203         -29.568         -57.2018        -29.5706      -0.00895632         150.292
0.514                  -0.291859        -127.226          -57.168        -31.7967         -57.1667        -31.7997      -0.00902133         150.226
0.515                  -0.293698         -127.65         -57.1364        -33.9821         -57.1351        -33.9854      -0.00908705          150.16
0.516                  -0.295541        -128.079         -57.1077         -36.124         -57.1064        -36.1276       -0.0091535         150.094
0.517                  -0.297395        -128.511         -57.0814        -38.2225         -57.0801        -38.2264      -0.00922069         150.027
0.518                  -0.299265        -128.947         -57.0572        -40.2781         -57.0559        -40.2822      -0.00928863         149.961
0.519                  -0.301155        -129.387         -57.0345        -42.2911         -57.0333        -42.2954      -0.00935733         149.894
0.52                   -0.303073        -129.831          -57.013        -44.2623         -57.0118        -44.2668      -0.00942681         149.827
0.521                  -0.305023        -130.279         -56.9924        -46.1925         -56.9912        -46.1971      -0.00949708         149.761
0.522                  -0.307012        -130.731         -56.9722        -48.0826          -56.971        -48.0874      -0.00956815         149.694
0.523                  -0.309046        -131.187         -56.9522        -49.9338         -56.9511        -49.9387      -0.00964004         149.627
0.524                   -0.31113        -131.648          -56.932        -51.7471          -56.931        -51.7521      -0.00971276          149.56
0.525                  -0.313271        -132.112         -56.9115        -53.5237         -56.9104        -53.5287      -0.00978632         149.492
0.526                  -0.315476        -132.581         -56.8902        -55.2649         -56.8892        -55.2699      -0.00986074         149.425
0.527                   -0.31775        -133.054         -56.8681        -56.9718         -56.8672        -56.9768      -0.00993603         149.358
0.528                  -0.320102        -133.532         -56.8449        -58.6458          -56.844        -58.6508       -0.0100122          149.29
0.529                  -0.322537        -134.014         -56.8204        -60.2882         -56.8195        -60.2931       -0.0100893         149.223
0.53                   -0.325063        -134.501         -56.7944        -61.9002         -56.7936         -61.905       -0.0101673         149.155
0.531                  -0.327688        -134.992         -56.7668         -63.483          -56.766        -63.4878       -0.0102462         149.088
0.532                  -0.330418        -135.488         -56.7375        -65.0381         -56.7367        -65.0428       -0.0103261          149.02
0.533                  -0.333263        -135.989         -56.7062        -66.5666         -56.7055        -66.5711       -0.0104069         148.952
0.534                   -0.33623        -136.494         -56.6729        -68.0697         -56.6723        -68.0741       -0.0104888         148.884
0.535                  -0.339327        -137.004         -56.6376        -69.5486          -56.637         -69.553       -0.0105716         148.816
0.536                  -0.342564        -137.519            -56.6        -71.0046         -56.5994        -71.0088       -0.0106554         148.748
0.537                   -0.34595        -138.039         -56.5601        -72.4387         -56.5596        -72.4428       -0.0107403         148.679
0.538                  -0.349495        -138.564         -56.5179        -73.8521         -56.5174         -73.856       -0.0108262         148.611
0.539                  -0.353207        -139.095         -56.4732        -75.2459         -56.4728        -75.2497       -0.0109131         148.542
0.54                   -0.357098         -139.63         -56.4261        -76.6212         -56.4257        -76.6247       -0.0110012         148.474
0.541                  -0.361179        -140.171         -56.3764        -77.9788          -56.376        -77.9823       -0.0110903         148.405
0.542                  -0.365461        -140.718         -56.3241          -79.32         -56.3238        -79.3233       -0.0111806         148.336
0.543                  -0.369956         -141.27         -56.2692        -80.6456         -56.2689        -80.6487        -0.011272         148.267
0.544                  -0.374675        -141.827         -56.2116        -81.9566         -56.2113        -81.9596       -0.0113646         148.198
0.545                  -0.379634        -142.391         -56.1513         -83.254         -56.1511        -83.2567       -0.0114583         148.129
0.546                  -0.384844         -142.96         -56.0883        -84.5385         -56.0881        -84.5411       -0.0115533          148.06
0.547                   -0.39032        -143.535         -56.0225        -85.8111         -56.0223        -85.8136       -0.0116494          147.99
0.548                  -0.396078        -144.116          -55.954        -87.0727         -55.9538         -87.075       -0.0117468         147.921
0.549                  -0.402134        -144.704         -55.8826        -88.3241         -55.8824        -88.3262       -0.0118455         147.851
0.55                   -0.408503        -145.298         -55.8084         -89.566         -55.8083        -89.5679       -0.0119454         147.781
0.551                  -0.415205        -145.898         -55.7314        -90.7993         -55.7313        -90.8011       -0.0120466         147.711
0.552                  -0.422258        -146.505         -55.6515        -92.0247         -55.6514        -92.0264       -0.0121492         147.641
0.553                  -0.429681        -147.118         -55.5687        -93.2431         -55.5686        -93.2446       -0.0122531         147.571
0.554                  -0.437495        -147.738         -55.4831        -94.4551          -55.483        -94.4565       -0.0123583         147.501
0.555                  -0.445722        -148.366         -55.3945        -95.6615         -55.3945        -95.6628        -0.012465         147.431
0.556                  -0.454387            -149         -55.3031        -96.8631         -55.3031        -96.8642       -0.0125731          147.36
0.557                  -0.463514        -149.642         -55.2088        -98.0605         -55.2087        -98.0614       -0.0126826          147.29
0.558                  -0.473128        -150.292         -55.1115        -99.2544         -55.1115        -99.2552       -0.0127936         147.219
0.559                  -0.483259        -150.949         -55.0113        -100.446         -55.0113        -100.446        -0.012906         147.148
0.56                   -0.493936        -151.613         -54.9081        -101.635         -54.9081        -101.635         -0.01302         147.077
0.561                   -0.50519        -152.286         -54.8021        -102.822         -54.8021        -102.823       -0.0131355         147.006
0.562                  -0.517056        -152.967          -54.693        -104.009         -54.6931         -104.01       -0.0132526         146.935
0.563                   -0.52957        -153.657         -54.5811        -105.197         -54.5811        -105.197       -0.0133713         146.864
0.564                  -0.542769        -154.355         -54.4661        -106.384         -54.4662        -106.385       -0.0134916         146.792
0.565                  -0.556694        -155.062         -54.3482        -107.574         -54.3483        -107.574       -0.0136135         146.721
0.566                  -0.571391        -155.777         -54.2274        -108.765         -54.2274        -108.765       -0.0137371         146.649
0.567                  -0.586904        -156.502         -54.1035        -109.959         -54.1036        -109.959       -0.0138625         146.577
0.568                  -0.603284        -157.237         -53.9767        -111.157         -53.9768        -111.157       -0.0139895         146.505
0.569                  -0.620585        -157.981          -53.847        -112.358          -53.847        -112.358       -0.0141184         146.433
0.57                   -0.638864        -158.735         -53.7142        -113.565         -53.7143        -113.565        -0.014249         146.361
0.571                  -0.658181        -159.499         -53.5785        -114.778         -53.5786        -114.778       -0.0143814         146.288
0.572                  -0.678604        -160.274         -53.4399        -115.997         -53.4399        -115.997       -0.0145157         146.216
0.573                  -0.700202        -161.059         -53.2982        -117.223         -53.2983        -117.223       -0.0146519         146.143
0.574                  -0.723052        -161.855         -53.1536        -118.458         -53.1537        -118.457         -0.01479          146.07
0.575                  -0.747235        -162.662         -53.0061        -119.701         -53.0062        -119.701       -0.0149301         145.997
0.576                  -0.772839         -163.48         -52.8556        -120.954         -52.8557        -120.954       -0.0150721         145.924
0.577                  -0.799958        -164.311         -52.7022        -122.218         -52.7023        -122.217       -0.0152162         145.851
0.578                  -0.828693        -165.153         -52.5459        -123.493          -52.546        -123.492       -0.0153623         145.777
0.579                  -0.859154        -166.007         -52.3867         -124.78         -52.3868        -124.779       -0.0155105         145.704
0.58                   -0.891459        -166.873         -52.2246         -126.08         -52.2247         -126.08       -0.0156608          145.63
0.581                  -0.925733        -167.753         -52.0597        -127.395         -52.0597        -127.394       -0.0158133         145.556
0.582                  -0.962116        -168.645         -51.8919        -128.725          -51.892        -128.724       -0.0159679         145.482
0.583                   -1.00075         -169.55         -51.7214        -130.071         -51.7214         -130.07       -0.0161248         145.408
0.584                    -1.0418        -170.468         -51.5481        -131.434         -51.5481        -131.434        -0.016284         145.333
0.585                   -1.08544          -171.4         -51.3721        -132.816         -51.3721        -132.816       -0.0164454         145.259
0.586                   -1.13185        -172.345         -51.1935        -134.217         -51.1935        -134.217       -0.0166092         145.184
0.587                   -1.18122        -173.304         -51.0123        -135.639         -51.0123        -135.638       -0.0167753         145.109
0.588                   -1.23379        -174.277         -50.8285        -137.082         -50.8286        -137.082       -0.0169439         145.034
0.589                   -1.28977        -175.263         -50.6424        -138.549         -50.6424        -138.548       -0.0171149         144.959
0.59                    -1.34943        -176.263         -50.4539        -140.039         -50.4539        -140.039       -0.0172884         144.883
0.591                   -1.41303        -177.277         -50.2632        -141.555         -50.2632        -141.555       -0.0174643         144.808
0.592                   -1.48085        -178.304         -50.0703        -143.098         -50.0704        -143.098       -0.0176428         144.732
0.593                   -1.55323        -179.344         -49.8755        -144.669         -49.8755        -144.669       -0.0178239         144.656
0.594                   -1.63049         179.604         -49.6788        -146.269         -49.6788        -146.269       -0.0180076          144.58
0.595                   -1.71299          178.54         -49.4804        -147.901         -49.4805          -147.9        -0.018194         144.504
0.596                   -1.80113         177.465         -49.2806        -149.564         -49.2806        -149.564        -0.018383         144.427
0.597                   -1.89532          176.38         -49.0794        -151.261         -49.0794         -151.26       -0.0185747         144.351
0.598                   -1.99601         175.287         -48.8771        -152.992         -48.8772        -152.992       -0.0187691         144.274
0.599                   -2.10365         174.186          -48.674         -154.76         -48.6741         -154.76       -0.0189663         144.197
0.6                     -2.21877         173.081         -48.4704        -156.565         -48.4704        -156.565       -0.0191662          144.12
0.601                   -2.34187         171.972         -48.2665        -158.409         -48.2665        -158.409       -0.0193689         144.042
0.602                   -2.47352         170.864         -48.0626        -160.293         -48.0626        -160.293       -0.0195745         143.965
0.603                   -2.61429         169.759         -47.8591        -162.218         -47.8591        -162.218       -0.0197828         143.887
0.604                   -2.76478         168.661         -47.6564        -164.185         -47.6564        -164.184        -0.019994         143.809
0.605                    -2.9256         167.575         -47.4548        -166.194         -47.4548        -166.194        -0.020208         143.731
0.606                   -3.09736         166.507         -47.2549        -168.247         -47.2549        -168.247       -0.0204249         143.652
0.607                   -3.28067         165.462          -47.057        -170.343          -47.057        -170.343       -0.0206446         143.574
0.608                   -3.47612         164.448         -46.8616        -172.484         -46.8616        -172.484       -0.0208672         143.495
0.609                   -3.68426         163.473         -46.6693        -174.669         -46.6693        -174.669       -0.0210926         143.416
0.61                    -3.90557         162.548         -46.4806        -176.898         -46.4806        -176.898       -0.0213208         143.337
0.611                   -4.14042         161.684          -46.296        -179.169          -46.296        -179.169       -0.0215519         143.258
0.612                   -4.38906         160.892          -46.116         178.517          -46.116         178.517       -0.0217857         143.178
0.613                   -4.65153         160.188         -45.9413         176.163         -45.9413         176.162       -0.0220224         143.098
0.614                   -4.92761         159.588         -45.7723         173.769         -45.7724         173.769       -0.0222618         143.018
0.615                   -5.21677         159.109         -45.6097         171.339         -45.6097         171.339       -0.0225041         142.938
0.616                   -5.51802          158.77         -45.4539         168.875         -45.4539         168.874       -0.0227491         142.857
0.617                   -5.82984         158.592         -45.3055         166.379         -45.3055         166.379       -0.0229969         142.776
0.618                   -6.15004         158.596         -45.1648         163.856         -45.1648         163.856       -0.0232474         142.695
0.619                   -6.47565         158.805         -45.0324         161.309         -45.0324         161.309       -0.0235008         142.614
0.62                    -6.80277         159.237         -44.9086         158.742         -44.9086         158.742        -0.023757         142.533
0.621                   -7.12651         159.911         -44.7936          156.16         -44.7936         156.159        -0.024016         142.451
0.622                   -7.44092         160.839         -44.6877         153.567         -44.6877         153.567        -0.024278         142.369
0.623                   -7.73911         162.027          -44.591         150.968         -44.5911         150.968       -0.0245429         142.287
0.624                   -8.01342         163.469         -44.5037         148.369         -44.5037         148.369       -0.0248108         142.204
0.625                   -8.25587          165.15         -44.4257         145.774         -44.4257         145.774        -0.025082         142.121
0.626                   -8.45873         167.036         -44.3568         143.188         -44.3568         143.188       -0.0253563         142.038
0.627                    -8.6153         169.083          -44.297         140.617          -44.297         140.616       -0.0256342         141.955
0.628                   -8.72059         171.233         -44.2459         138.064         -44.2459         138.064       -0.0259155         141.872
0.629                   -8.77205         173.419         -44.2033         135.534         -44.2032         135.534       -0.0262006         141.788
