! TOUCHSTONE file generated by CST MICROWAVE STUDIO
! Date and time: Fri Dec 11 13:53:10 2020
! Project name: Scenario_1_Planar_Body_Tissue_Out_of_Line_v2.cst
! Parameters = {dy1=-276.8; L_HA=400; Ltissue=700; MT=2.54; Rad_Dielectric=30; Rad_Lower=7.3; Rad_Upper=30; Wtissue=700; a_HA=580; a_WG=246; b_HA=500; b_WG=121; c_HA=0; c_WG=187; d_feed=85; dx1=520; h_feed=15; h_lower=18; h_upper=40; hfat=3; hgap=25; hmuscle=50; hskin=1.5}
! Header version: 2018
! Port assignment regex: !\s*Touchstone port\s*([0-9]+)\s*=\s*(CST MWS port|CST DS port)\s*([0-9]+|Zmin|Zmax)\s*\(\"(.*)\"\)(\s*mode\s*([0-9]+))?.*
! Touchstone port assignment:
! Touchstone port 1 = CST MWS port 1 ("")
! Touchstone port 2 = CST MWS port 2 ("")
# GHz S DB R 50
0.5                   -0.0961167        -121.943         -64.1413        -72.2605         -64.1409        -72.2568      -0.00733552         151.157
0.501                 -0.0996854        -122.397         -63.9355        -73.3956         -63.9352        -73.3918      -0.00740168         151.092
0.502                  -0.103484        -122.854         -63.7264        -74.5413         -63.7261        -74.5376      -0.00746864         151.027
0.503                   -0.10753        -123.315         -63.5139        -75.6984         -63.5135        -75.6946      -0.00753643         150.961
0.504                  -0.111841        -123.779         -63.2978        -76.8674         -63.2975        -76.8637      -0.00760508         150.896
0.505                  -0.116437        -124.247         -63.0782        -78.0492         -63.0779        -78.0455      -0.00767462          150.83
0.506                   -0.12134        -124.719         -62.8549        -79.2446         -62.8546         -79.241      -0.00774508         150.765
0.507                  -0.126571        -125.195         -62.6279        -80.4544         -62.6276        -80.4509      -0.00781651         150.699
0.508                  -0.132158        -125.675         -62.3971        -81.6797         -62.3968        -81.6763      -0.00788894         150.633
0.509                  -0.138125        -126.159         -62.1623        -82.9215         -62.1621        -82.9183       -0.0079624         150.567
0.51                   -0.144504        -126.647         -61.9236        -84.1811         -61.9234        -84.1779      -0.00803694         150.501
0.511                  -0.151325        -127.139         -61.6809        -85.4596         -61.6806        -85.4566      -0.00811261         150.435
0.512                  -0.158624        -127.636          -61.434        -86.7585         -61.4338        -86.7556      -0.00818944         150.369
0.513                  -0.166437        -128.136          -61.183        -88.0792         -61.1828        -88.0765      -0.00826749         150.303
0.514                  -0.174806        -128.641         -60.9278        -89.4234         -60.9276        -89.4209      -0.00834681         150.237
0.515                  -0.183772         -129.15         -60.6682        -90.7928         -60.6681        -90.7905      -0.00842743          150.17
0.516                  -0.193384        -129.663         -60.4044        -92.1893         -60.4043        -92.1872      -0.00850943         150.104
0.517                  -0.203691        -130.181         -60.1363         -93.615         -60.1361        -93.6131      -0.00859285         150.037
0.518                  -0.214747        -130.702         -59.8638        -95.0721         -59.8637        -95.0703      -0.00867775         149.971
0.519                  -0.226611        -131.228          -59.587        -96.5628         -59.5869        -96.5612      -0.00876419         149.904
0.52                   -0.239345        -131.758         -59.3059        -98.0896         -59.3059        -98.0883      -0.00885224         149.837
0.521                  -0.253013        -132.291         -59.0207        -99.6553         -59.0206        -99.6541      -0.00894194          149.77
0.522                  -0.267685        -132.828         -58.7313        -101.263         -58.7313        -101.261      -0.00903337         149.703
0.523                  -0.283433        -133.369          -58.438        -102.914          -58.438        -102.913      -0.00912659         149.636
0.524                  -0.300334        -133.912         -58.1408        -104.614         -58.1409        -104.613      -0.00922166         149.569
0.525                  -0.318465        -134.459         -57.8401        -106.364         -57.8402        -106.363      -0.00931863         149.502
0.526                  -0.337906        -135.007         -57.5361        -108.168         -57.5363        -108.167      -0.00941758         149.435
0.527                  -0.358737        -135.557         -57.2292         -110.03         -57.2294        -110.029      -0.00951856         149.367
0.528                  -0.381036        -136.109         -56.9197        -111.952         -56.9199        -111.951      -0.00962161           149.3
0.529                  -0.404878         -136.66         -56.6081        -113.939         -56.6083        -113.938      -0.00972679         149.232
0.53                   -0.430332        -137.211          -56.295        -115.993         -56.2952        -115.992      -0.00983413         149.164
0.531                  -0.457459         -137.76         -55.9809        -118.118         -55.9812        -118.117      -0.00994366         149.097
0.532                  -0.486304        -138.306         -55.6667        -120.316          -55.667        -120.315       -0.0100554         149.029
0.533                  -0.516898        -138.849         -55.3531        -122.591         -55.3533         -122.59       -0.0101693         148.961
0.534                  -0.549246        -139.386         -55.0409        -124.945         -55.0411        -124.944       -0.0102854         148.893
0.535                  -0.583328        -139.915         -54.7312        -127.378         -54.7314        -127.377       -0.0104037         148.825
0.536                  -0.619087        -140.436          -54.425        -129.894         -54.4252        -129.892       -0.0105241         148.756
0.537                  -0.656427        -140.947         -54.1234        -132.491         -54.1236         -132.49       -0.0106465         148.688
0.538                  -0.695204        -141.445         -53.8275        -135.169         -53.8277        -135.168       -0.0107708          148.62
0.539                  -0.735225        -141.929         -53.5388        -137.928         -53.5389        -137.927       -0.0108969         148.551
0.54                   -0.776238        -142.398         -53.2582        -140.764         -53.2584        -140.763       -0.0110246         148.483
0.541                  -0.817937         -142.85         -52.9871        -143.674         -52.9873        -143.673       -0.0111538         148.414
0.542                  -0.859959        -143.283         -52.7267        -146.654         -52.7268        -146.653       -0.0112841         148.345
0.543                  -0.901889        -143.697         -52.4781        -149.696         -52.4781        -149.695       -0.0114155         148.276
0.544                  -0.943271        -144.091         -52.2422        -152.795         -52.2423        -152.794       -0.0115476         148.207
0.545                  -0.983617        -144.465         -52.0201        -155.941         -52.0201        -155.941       -0.0116802         148.138
0.546                   -1.02243        -144.821         -51.8123        -159.127         -51.8123        -159.127       -0.0118131         148.069
0.547                   -1.05922        -145.158         -51.6194        -162.343         -51.6194        -162.343       -0.0119458             148
0.548                   -1.09351         -145.48         -51.4418        -165.578         -51.4417        -165.578       -0.0120783         147.931
0.549                    -1.1249        -145.788         -51.2795        -168.823         -51.2794        -168.824       -0.0122103         147.861
0.55                    -1.15303        -146.086         -51.1324        -172.068         -51.1324        -172.069       -0.0123415         147.792
0.551                   -1.17765        -146.377         -51.0003        -175.303         -51.0003        -175.304       -0.0124718         147.722
0.552                   -1.19858        -146.664         -50.8826        -178.518         -50.8826        -178.519       -0.0126011         147.652
0.553                   -1.21578        -146.951         -50.7787         178.294         -50.7787         178.293       -0.0127292         147.582
0.554                   -1.22926        -147.242         -50.6877         175.142         -50.6877          175.14       -0.0128561         147.512
0.555                   -1.23915         -147.54         -50.6088          172.03         -50.6089         172.029       -0.0129819         147.442
0.556                   -1.24566        -147.849          -50.541         168.966         -50.5411         168.964       -0.0131064         147.372
0.557                   -1.24906        -148.171         -50.4833         165.953         -50.4834         165.951       -0.0132299         147.302
0.558                   -1.24966        -148.508         -50.4345         162.995         -50.4347         162.993       -0.0133525         147.231
0.559                   -1.24782        -148.862         -50.3938         160.094         -50.3939         160.092       -0.0134742         147.161
0.56                     -1.2439        -149.235           -50.36         157.251         -50.3601          157.25       -0.0135953          147.09
0.561                   -1.23826        -149.628         -50.3322         154.468         -50.3323         154.466        -0.013716         147.019
0.562                   -1.23126        -150.041         -50.3094         151.744         -50.3096         151.743       -0.0138364         146.948
0.563                   -1.22323        -150.474         -50.2909         149.079         -50.2911         149.078       -0.0139569         146.877
0.564                    -1.2145        -150.928         -50.2758         146.472          -50.276         146.471       -0.0140775         146.806
0.565                   -1.20534        -151.402         -50.2634         143.921         -50.2636         143.921       -0.0141985         146.735
0.566                   -1.19601        -151.896          -50.253         141.426         -50.2532         141.425       -0.0143201         146.663
0.567                   -1.18674        -152.409         -50.2441         138.983         -50.2442         138.983       -0.0144426         146.591
0.568                   -1.17772         -152.94          -50.236         136.591         -50.2362         136.591        -0.014566          146.52
0.569                   -1.16913         -153.49         -50.2285         134.248         -50.2285         134.248       -0.0146906         146.448
0.57                    -1.16111        -154.057         -50.2209         131.952          -50.221         131.952       -0.0148166         146.376
0.571                   -1.15377         -154.64          -50.213           129.7          -50.213           129.7        -0.014944         146.303
0.572                   -1.14723        -155.239         -50.2044          127.49         -50.2044         127.491       -0.0150731         146.231
0.573                   -1.14157        -155.853         -50.1949         125.321         -50.1949         125.321       -0.0152039         146.158
0.574                   -1.13687        -156.482         -50.1842         123.189         -50.1841         123.189       -0.0153366         146.086
0.575                   -1.13317        -157.125         -50.1721         121.093          -50.172         121.093       -0.0154712         146.013
0.576                   -1.13053        -157.781         -50.1584          119.03         -50.1583         119.031       -0.0156079          145.94
0.577                     -1.129        -158.451          -50.143             117         -50.1428             117       -0.0157467         145.867
0.578                   -1.12861        -159.132         -50.1257         114.999         -50.1255         114.999       -0.0158877         145.793
0.579                   -1.12939        -159.827         -50.1064         113.026         -50.1062         113.027        -0.016031          145.72
0.58                    -1.13136        -160.532          -50.085          111.08         -50.0847         111.081       -0.0161765         145.646
0.581                   -1.13456         -161.25         -50.0615         109.159         -50.0611         109.159       -0.0163245         145.572
0.582                     -1.139        -161.979         -50.0356         107.261         -50.0353         107.261       -0.0164749         145.499
0.583                   -1.14471        -162.719         -50.0075         105.384         -50.0072         105.384       -0.0166278         145.424
0.584                    -1.1517        -163.469         -49.9771         103.528         -49.9767         103.528       -0.0167831          145.35
0.585                   -1.16002        -164.231         -49.9442          101.69         -49.9438          101.69        -0.016941         145.276
0.586                   -1.16967        -165.003         -49.9089         99.8701         -49.9085         99.8695       -0.0171014         145.201
0.587                   -1.18068        -165.787         -49.8712         98.0661         -49.8708         98.0654       -0.0172645         145.126
0.588                   -1.19309         -166.58          -49.831          96.277         -49.8305         96.2762       -0.0174301         145.051
0.589                   -1.20692        -167.384         -49.7883         94.5017         -49.7879         94.5008       -0.0175984         144.976
0.59                    -1.22221        -168.199         -49.7431          92.739         -49.7427         92.7379       -0.0177694         144.901
0.591                     -1.239        -169.024         -49.6954         90.9877          -49.695         90.9865       -0.0179431         144.826
0.592                   -1.25732         -169.86         -49.6453         89.2468         -49.6448         89.2455       -0.0181195          144.75
0.593                   -1.27721        -170.706         -49.5926         87.5153         -49.5922         87.5138       -0.0182987         144.674
0.594                   -1.29873        -171.563         -49.5375          85.792          -49.537         85.7904       -0.0184806         144.598
0.595                   -1.32193        -172.431         -49.4798         84.0761         -49.4794         84.0744       -0.0186653         144.522
0.596                   -1.34686        -173.309         -49.4198         82.3665         -49.4194         82.3647       -0.0188528         144.446
0.597                   -1.37358        -174.198         -49.3572         80.6623         -49.3569         80.6605       -0.0190432         144.369
0.598                   -1.40216        -175.098         -49.2923         78.9626         -49.2919         78.9607       -0.0192364         144.293
0.599                   -1.43267        -176.009          -49.225         77.2665         -49.2246         77.2645       -0.0194325         144.216
0.6                     -1.46518        -176.931         -49.1553         75.5731         -49.1549          75.571       -0.0196315         144.139
0.601                   -1.49977        -177.863         -49.0832         73.8814         -49.0829         73.8793       -0.0198335         144.061
0.602                   -1.53653        -178.807         -49.0089         72.1907         -49.0086         72.1885       -0.0200384         143.984
0.603                   -1.57555        -179.762         -48.9322            70.5          -48.932         70.4979       -0.0202463         143.906
0.604                   -1.61693         179.272         -48.8534         68.8087         -48.8531         68.8065       -0.0204573         143.828
0.605                   -1.66078         178.295         -48.7724         67.1157         -48.7721         67.1136       -0.0206713          143.75
0.606                   -1.70719         177.307         -48.6892         65.4204         -48.6889         65.4182       -0.0208883         143.672
0.607                    -1.7563         176.307         -48.6039         63.7218         -48.6037         63.7197       -0.0211085         143.594
0.608                   -1.80823         175.297         -48.5166         62.0193         -48.5164         62.0173       -0.0213318         143.515
0.609                   -1.86311         174.276         -48.4274         60.3121         -48.4272         60.3101       -0.0215583         143.436
0.61                    -1.92107         173.244         -48.3362         58.5993          -48.336         58.5973        -0.021788         143.357
0.611                   -1.98228         172.201         -48.2432         56.8802          -48.243         56.8784       -0.0220209         143.278
0.612                   -2.04688         171.148         -48.1484         55.1541         -48.1483         55.1524       -0.0222572         143.198
0.613                   -2.11503         170.085         -48.0519         53.4203         -48.0518         53.4186       -0.0224967         143.118
0.614                   -2.18692         169.012         -47.9539          51.678         -47.9538         51.6765       -0.0227396         143.038
0.615                   -2.26272          167.93         -47.8543         49.9266         -47.8542         49.9251       -0.0229859         142.958
0.616                   -2.34262         166.839         -47.7533         48.1654         -47.7532          48.164       -0.0232357         142.878
0.617                   -2.42682         165.739          -47.651         46.3937         -47.6509         46.3924       -0.0234889         142.797
0.618                   -2.51553         164.632         -47.5474         44.6109         -47.5474         44.6098       -0.0237456         142.716
0.619                   -2.60896         163.518         -47.4428         42.8164         -47.4428         42.8154        -0.024006         142.635
0.62                    -2.70734         162.397         -47.3372         41.0096         -47.3372         41.0088       -0.0242699         142.554
0.621                   -2.81089         161.271         -47.2307         39.1901         -47.2307         39.1894       -0.0245375         142.472
0.622                   -2.91986         160.141         -47.1235         37.3573         -47.1236         37.3567       -0.0248089          142.39
0.623                    -3.0345         159.009         -47.0158         35.5107         -47.0158         35.5102        -0.025084         142.308
0.624                   -3.15505         157.875         -46.9076           33.65         -46.9076         33.6496        -0.025363         142.226
0.625                   -3.28177         156.741         -46.7991         31.7747         -46.7991         31.7745       -0.0256458         142.143
0.626                   -3.41492         155.609         -46.6904         29.8846         -46.6904         29.8845       -0.0259326         142.061
0.627                   -3.55477          154.48         -46.5818         27.9795         -46.5818         27.9795       -0.0262234         141.978
0.628                   -3.70158         153.358         -46.4734         26.0591         -46.4734         26.0592       -0.0265183         141.894
0.629                   -3.85561         152.245         -46.3653         24.1233         -46.3653         24.1235       -0.0268173         141.811
