! TOUCHSTONE file generated by CST MICROWAVE STUDIO
! Date and time: Sat Nov 14 19:58:35 2020
! Project name: Scenario_1_Planar_Body_Tissue_Out_of_Line.cst
! Parameters = {dy1=276.8; L_HA=400; Ltissue=700; MT=2.54; Rad_Dielectric=30; Rad_Lower=7.3; Rad_Upper=30; Wtissue=700; a_HA=580; a_WG=246; b_HA=500; b_WG=121; c_HA=0; c_WG=187; d_feed=85; dx1=693; h_feed=15; h_lower=18; h_upper=40; hfat=3; hgap=25; hmuscle=50; hskin=1.5}
! Header version: 2018
! Port assignment regex: !\s*Touchstone port\s*([0-9]+)\s*=\s*(CST MWS port|CST DS port)\s*([0-9]+|Zmin|Zmax)\s*\(\"(.*)\"\)(\s*mode\s*([0-9]+))?.*
! Touchstone port assignment:
! Touchstone port 1 = CST MWS port 1 ("")
! Touchstone port 2 = CST MWS port 2 ("")
# GHz S DB R 50
0.5                    -0.178193        -121.665         -62.9875         170.989         -62.9862          170.99      -0.00776445         151.149
0.501                   -0.18097        -122.085         -62.9336         169.466          -62.932         169.464      -0.00782453         151.084
0.502                  -0.183815        -122.508         -62.8777         167.917         -62.8758         167.913      -0.00788515         151.019
0.503                  -0.186732        -122.933         -62.8198         166.343         -62.8175         166.336      -0.00794632         150.953
0.504                  -0.189723         -123.36         -62.7597         164.741          -62.757         164.732      -0.00800806         150.888
0.505                  -0.192791        -123.791         -62.6973         163.113         -62.6943         163.101      -0.00807038         150.823
0.506                   -0.19594        -124.223         -62.6326         161.456         -62.6292         161.442      -0.00813331         150.757
0.507                  -0.199173        -124.659         -62.5654         159.771         -62.5617         159.755      -0.00819684         150.691
0.508                  -0.202493        -125.098         -62.4957         158.058         -62.4916          158.04      -0.00826101         150.626
0.509                  -0.205905        -125.539         -62.4232         156.315         -62.4188         156.295      -0.00832583          150.56
0.51                   -0.209412        -125.983          -62.348         154.542         -62.3432         154.521       -0.0083913         150.494
0.511                  -0.213019         -126.43         -62.2698         152.739         -62.2647         152.717      -0.00845746         150.428
0.512                   -0.21673         -126.88         -62.1886         150.905         -62.1832         150.881      -0.00852431         150.362
0.513                   -0.22055        -127.333         -62.1042         149.039         -62.0985         149.015      -0.00859187         150.296
0.514                  -0.224485         -127.79         -62.0164         147.142         -62.0105         147.117      -0.00866017          150.23
0.515                  -0.228539        -128.249         -61.9253         145.212         -61.9191         145.186      -0.00872921         150.163
0.516                   -0.23272        -128.712         -61.8305         143.248         -61.8241         143.223      -0.00879902         150.097
0.517                  -0.237032        -129.178         -61.7319         141.251         -61.7254         141.225      -0.00886961         150.031
0.518                  -0.241484        -129.647         -61.6295         139.219         -61.6229         139.194        -0.008941         149.964
0.519                  -0.246081         -130.12         -61.5229         137.153         -61.5163         137.128      -0.00901322         149.897
0.52                   -0.250832        -130.597         -61.4121          135.05         -61.4054         135.026      -0.00908628         149.831
0.521                  -0.255746        -131.077         -61.2968         132.911         -61.2902         132.889       -0.0091602         149.764
0.522                  -0.260829        -131.561         -61.1768         130.735         -61.1705         130.714        -0.009235         149.697
0.523                  -0.266093        -132.048          -61.052         128.521         -61.0459         128.502       -0.0093107          149.63
0.524                  -0.271547        -132.539          -60.922         126.268         -60.9163         126.251      -0.00938733         149.563
0.525                  -0.277201        -133.035         -60.7867         123.975         -60.7815         123.961       -0.0094649         149.496
0.526                  -0.283068        -133.534         -60.6457         121.642         -60.6412          121.63      -0.00954343         149.428
0.527                  -0.289159        -134.037         -60.4988         119.268         -60.4951         119.258      -0.00962295         149.361
0.528                  -0.295488        -134.545         -60.3456         116.851          -60.343         116.844      -0.00970348         149.294
0.529                  -0.302069        -135.057         -60.1858          114.39         -60.1843         114.387      -0.00978504         149.226
0.53                   -0.308917        -135.573          -60.019         111.885         -60.0189         111.885      -0.00986766         149.158
0.531                  -0.316048        -136.094         -59.8446         109.334         -59.8462         109.337      -0.00995136         149.091
0.532                  -0.323481        -136.619         -59.6621         106.737         -59.6657         106.743       -0.0100362         149.023
0.533                  -0.331233        -137.149          -59.471         104.091         -59.4769         104.099       -0.0101221         148.955
0.534                  -0.339325        -137.684         -59.2705         101.396         -59.2791         101.407       -0.0102092         148.887
0.535                   -0.34778        -138.224         -59.0599         98.6509         -59.0716         98.6627       -0.0102974         148.819
0.536                  -0.356621        -138.769         -58.8381         95.8548         -58.8534         95.8666       -0.0103869          148.75
0.537                  -0.365872        -139.319         -58.6042         93.0068         -58.6235         93.0172       -0.0104776         148.682
0.538                  -0.375562        -139.874         -58.3568          90.107         -58.3808         90.1137       -0.0105695         148.614
0.539                   -0.38572        -140.434         -58.0944         87.1556         -58.1237         87.1558       -0.0106628         148.545
0.54                   -0.396378            -141         -57.8154         84.1539         -57.8506          84.144       -0.0107573         148.476
0.541                   -0.40757        -141.572         -57.5175         81.1047         -57.5594         81.0796       -0.0108532         148.408
0.542                  -0.419334        -142.149         -57.1985         78.0123         -57.2479         77.9659       -0.0109504         148.339
0.543                  -0.431709        -142.732         -56.8555         74.8838         -56.9132          74.808       -0.0110491          148.27
0.544                  -0.444738         -143.32         -56.4853         71.7302          -56.552         71.6144       -0.0111492         148.201
0.545                   -0.45847        -143.915         -56.0841         68.5672         -56.1607         68.3984       -0.0112507         148.132
0.546                  -0.472953        -144.516         -55.6478          65.418         -55.7347         65.1794       -0.0113537         148.062
0.547                  -0.488242        -145.123         -55.1718         62.3149         -55.2691         61.9857       -0.0114583         147.993
0.548                  -0.504397        -145.736         -54.6513         59.3035         -54.7588          58.858       -0.0115644         147.923
0.549                   -0.52148        -146.355         -54.0819         56.4462         -54.1981         55.8533        -0.011672         147.854
0.55                   -0.539561        -146.981         -53.4599          53.827         -53.5821         53.0509       -0.0117813         147.784
0.551                  -0.558712        -147.613         -52.7842         51.5571         -52.9073         50.5579       -0.0118922         147.714
0.552                  -0.579013        -148.251         -52.0579         49.7772          -52.174         48.5159       -0.0120048         147.644
0.553                  -0.600549        -148.895          -51.292         48.6559         -51.3891         47.1028       -0.0121191         147.574
0.554                  -0.623412        -149.546         -50.5094         48.3742          -50.571         46.5249       -0.0122352         147.504
0.555                  -0.647699        -150.202         -49.7498          49.086         -49.7557         46.9855        -0.012353         147.433
0.556                  -0.673515        -150.865         -49.0701         50.8448         -49.0009         48.6129       -0.0124726         147.363
0.557                  -0.700971        -151.533          -48.537         53.5123         -48.3821         51.3482       -0.0125941         147.292
0.558                  -0.730185        -152.207         -48.2066         56.7068          -47.973         54.8453       -0.0127174         147.221
0.559                  -0.761282        -152.885         -48.0992         59.8761         -47.8128         58.4989       -0.0128426         147.151
0.56                   -0.794392        -153.568         -48.1894         62.4858          -47.885         61.6527       -0.0129697          147.08
0.561                  -0.829651        -154.255         -48.4202         64.1932         -48.1281         63.8464       -0.0130987         147.009
0.562                  -0.867201        -154.945         -48.7282          64.892          -48.467          64.913       -0.0132297         146.937
0.563                  -0.907185        -155.638         -49.0616         64.6477         -48.8387         64.9116       -0.0133627         146.866
0.564                  -0.949748        -156.332         -49.3856         63.6083         -49.2011         64.0123       -0.0134977         146.795
0.565                  -0.995034        -157.026         -49.6805         61.9395         -49.5307         62.4093       -0.0136347         146.723
0.566                   -1.04318        -157.718         -49.9371         59.7924          -49.817         60.2785       -0.0137738         146.651
0.567                   -1.09432        -158.408         -50.1529         57.2916         -50.0573         57.7636       -0.0139149         146.579
0.568                   -1.14857        -159.093         -50.3292         54.5351         -50.2534         54.9753        -0.014058         146.507
0.569                   -1.20602        -159.772         -50.4689         51.5975         -50.4091         51.9971       -0.0142033         146.435
0.57                    -1.26675        -160.441         -50.5761          48.535         -50.5289         48.8905       -0.0143505         146.363
0.571                   -1.33077        -161.098         -50.6546         45.3893         -50.6175         45.7005       -0.0144999         146.291
0.572                   -1.39808        -161.741         -50.7086         42.1911         -50.6795         42.4598       -0.0146513         146.218
0.573                   -1.46859        -162.366         -50.7416         38.9632         -50.7187         39.1924       -0.0148047         146.145
0.574                   -1.54217         -162.97         -50.7567         35.7224         -50.7389         35.9155       -0.0149601         146.073
0.575                   -1.61858        -163.549         -50.7569         32.4811          -50.743         32.6417       -0.0151175             146
0.576                   -1.69749        -164.101         -50.7446         29.2484         -50.7339         29.3801       -0.0152768         145.927
0.577                   -1.77848        -164.621         -50.7219         26.0312         -50.7137         26.1372       -0.0154381         145.853
0.578                   -1.86101        -165.106         -50.6907         22.8344         -50.6845          22.918       -0.0156012          145.78
0.579                   -1.94441        -165.554         -50.6525          19.662         -50.6479         19.7259       -0.0157661         145.706
0.58                    -2.02791        -165.961         -50.6086         16.5166         -50.6053         16.5635       -0.0159327         145.633
0.581                   -2.11064        -166.328         -50.5601         13.4004         -50.5579         13.4327       -0.0161011         145.559
0.582                   -2.19162        -166.652         -50.5081          10.315         -50.5067         10.3347       -0.0162711         145.485
0.583                   -2.26983        -166.935         -50.4532         7.26152         -50.4525         7.27051       -0.0164427         145.411
0.584                   -2.34423        -167.177         -50.3962          4.2409         -50.3961         4.24085       -0.0166158         145.337
0.585                   -2.41378        -167.383         -50.3376         1.25375          -50.338         1.24612       -0.0167903         145.262
0.586                   -2.47753        -167.557         -50.2778        -1.69949         -50.2786        -1.71339       -0.0169663         145.188
0.587                   -2.53462        -167.704         -50.2173        -4.61854         -50.2183        -4.63757       -0.0171436         145.113
0.588                   -2.58437        -167.831         -50.1562        -7.50326         -50.1575         -7.5264       -0.0173222         145.038
0.589                   -2.62628        -167.945         -50.0949        -10.3536         -50.0964          -10.38       -0.0175022         144.963
0.59                    -2.66007        -168.054         -50.0335        -13.1697         -50.0352        -13.1985       -0.0176833         144.888
0.591                    -2.6857        -168.168         -49.9721        -15.9516         -49.9739        -15.9822       -0.0178658         144.812
0.592                   -2.70334        -168.292         -49.9109        -18.6996         -49.9128        -18.7314       -0.0180495         144.737
0.593                   -2.71336        -168.436         -49.8498        -21.4141         -49.8518        -21.4466       -0.0182345         144.661
0.594                   -2.71632        -168.606          -49.789        -24.0953          -49.791        -24.1281       -0.0184208         144.585
0.595                    -2.7129        -168.806         -49.7284        -26.7439         -49.7304        -26.7766       -0.0186085         144.509
0.596                   -2.70388        -169.043         -49.6679        -29.3603         -49.6699        -29.3926       -0.0187977         144.432
0.597                    -2.6901        -169.319         -49.6076        -31.9452         -49.6097        -31.9767       -0.0189884         144.356
0.598                   -2.67242        -169.637         -49.5475         -34.499         -49.5495        -34.5297       -0.0191807         144.279
0.599                   -2.65167        -169.999         -49.4874        -37.0226         -49.4894        -37.0522       -0.0193748         144.202
0.6                     -2.62866        -170.405         -49.4274        -39.5167         -49.4293         -39.545       -0.0195708         144.125
0.601                   -2.60415        -170.855         -49.3673         -41.982         -49.3691         -42.009       -0.0197687         144.048
0.602                   -2.57882        -171.349          -49.307        -44.4194         -49.3088        -44.4449       -0.0199689          143.97
0.603                   -2.55328        -171.885         -49.2466        -46.8297         -49.2483        -46.8537       -0.0201713         143.893
0.604                   -2.52807        -172.462         -49.1858        -49.2138         -49.1875        -49.2363       -0.0203761         143.815
0.605                   -2.50367        -173.078         -49.1247        -51.5726         -49.1263        -51.5935       -0.0205836         143.737
0.606                   -2.48046        -173.732         -49.0632         -53.907         -49.0647        -53.9264       -0.0207937         143.659
0.607                    -2.4588        -174.422         -49.0012        -56.2181         -49.0026        -56.2359       -0.0210068          143.58
0.608                   -2.43896        -175.146         -48.9386        -58.5067         -48.9399        -58.5229       -0.0212228         143.501
0.609                   -2.42119        -175.903         -48.8753        -60.7739         -48.8766        -60.7886       -0.0214421         143.422
0.61                    -2.40568         -176.69         -48.8114        -63.0206         -48.8125        -63.0338       -0.0216646         143.343
0.611                   -2.39259        -177.507         -48.7466        -65.2479         -48.7477        -65.2597       -0.0218905         143.264
0.612                   -2.38206        -178.351         -48.6811        -67.4568          -48.682        -67.4672         -0.02212         143.184
0.613                    -2.3742        -179.222         -48.6146        -69.6482         -48.6154        -69.6573       -0.0223531         143.104
0.614                   -2.36911         179.882         -48.5472        -71.8233         -48.5479        -71.8311       -0.0225899         143.024
0.615                   -2.36688         178.962         -48.4788        -73.9831         -48.4794        -73.9897       -0.0228307         142.944
0.616                   -2.36757         178.018         -48.4093        -76.1285         -48.4099        -76.1339       -0.0230754         142.864
0.617                   -2.37125         177.052         -48.3388        -78.2606         -48.3393        -78.2649       -0.0233241         142.783
0.618                   -2.37798         176.064         -48.2672        -80.3804         -48.2676        -80.3838        -0.023577         142.702
0.619                   -2.38784         175.054         -48.1945        -82.4889         -48.1947        -82.4914        -0.023834         142.621
0.62                    -2.40089         174.024         -48.1206        -84.5872         -48.1207        -84.5888       -0.0240954         142.539
0.621                   -2.41719         172.974         -48.0455        -86.6762         -48.0456         -86.677       -0.0243611         142.457
0.622                   -2.43682         171.904         -47.9692         -88.757         -47.9692         -88.757       -0.0246312         142.375
0.623                   -2.45986         170.814         -47.8918        -90.8305         -47.8917        -90.8299       -0.0249058         142.293
0.624                   -2.48639         169.705         -47.8131        -92.8977          -47.813        -92.8965        -0.025185         142.211
0.625                   -2.51651         168.577         -47.7333        -94.9596          -47.733        -94.9578       -0.0254688         142.128
0.626                   -2.55033          167.43         -47.6522        -97.0171         -47.6519        -97.0148       -0.0257572         142.045
0.627                   -2.58795         166.264           -47.57        -99.0712         -47.5696        -99.0685       -0.0260504         141.962
0.628                    -2.6295          165.08         -47.4866        -101.123         -47.4862         -101.12       -0.0263484         141.878
0.629                   -2.67512         163.877         -47.4021        -103.173         -47.4016        -103.169       -0.0266512         141.794
