! TOUCHSTONE file generated by CST MICROWAVE STUDIO
! Date and time: Mon Nov 30 08:40:07 2020
! Project name: Scenario_1_Planar_Body_Tissue_Out_of_Line.cst
! Parameters = {dy1=-276.8; L_HA=400; Ltissue=700; MT=2.54; Rad_Dielectric=30; Rad_Lower=7.3; Rad_Upper=30; Wtissue=700; a_HA=580; a_WG=246; b_HA=500; b_WG=121; c_HA=0; c_WG=187; d_feed=85; dx1=866; h_feed=15; h_lower=18; h_upper=40; hfat=3; hgap=25; hmuscle=50; hskin=1.5}
! Header version: 2018
! Port assignment regex: !\s*Touchstone port\s*([0-9]+)\s*=\s*(CST MWS port|CST DS port)\s*([0-9]+|Zmin|Zmax)\s*\(\"(.*)\"\)(\s*mode\s*([0-9]+))?.*
! Touchstone port assignment:
! Touchstone port 1 = CST MWS port 1 ("")
! Touchstone port 2 = CST MWS port 2 ("")
# GHz S DB R 50
0.5                     -0.12265         -122.09         -64.8899         88.7434         -64.8893         88.7456      -0.00751218         151.151
0.501                   -0.13051        -122.491         -65.4431          86.079         -65.4421         86.0701      -0.00758366         151.086
0.502                  -0.138418        -122.895         -65.9978          82.993          -65.996          82.973      -0.00765574          151.02
0.503                  -0.146376          -123.3         -66.5452         79.4426         -66.5424         79.4118      -0.00772842         150.955
0.504                  -0.154386        -123.707         -67.0738         75.3912         -67.0696         75.3504      -0.00780171          150.89
0.505                  -0.162448        -124.116         -67.5691         70.8163          -67.563         70.7672      -0.00787563         150.824
0.506                  -0.170563        -124.528         -68.0136         65.7197         -68.0053         65.6647      -0.00795017         150.759
0.507                  -0.178734        -124.941         -68.3881         60.1385         -68.3774         60.0813      -0.00802535         150.693
0.508                   -0.18696        -125.356          -68.674         54.1536         -68.6607         54.0985      -0.00810117         150.628
0.509                  -0.195244        -125.774          -68.856         47.8908         -68.8403         47.8422      -0.00817764         150.562
0.51                   -0.203587        -126.194         -68.9255         41.5096         -68.9077         41.4717      -0.00825477         150.496
0.511                   -0.21199        -126.615         -68.8825         35.1824         -68.8631         35.1581      -0.00833257          150.43
0.512                  -0.220455        -127.039         -68.7353         29.0683         -68.7151         29.0591      -0.00841105         150.364
0.513                  -0.228983        -127.466         -68.4991         23.2918         -68.4787         23.2979       -0.0084902         150.298
0.514                  -0.237577        -127.894         -68.1922         17.9331          -68.172         17.9532      -0.00857006         150.232
0.515                  -0.246238        -128.325         -67.8333         13.0284         -67.8138         13.0607      -0.00865061         150.166
0.516                  -0.254968        -128.758         -67.4394         8.57938         -67.4209         8.62175      -0.00873188         150.099
0.517                   -0.26377        -129.194         -67.0248         4.56351         -67.0074         4.61379      -0.00881387         150.033
0.518                  -0.272644        -129.632         -66.6004        0.944667         -66.5843         1.00089      -0.00889658         149.966
0.519                  -0.281593        -130.072         -66.1745         -2.3193         -66.1596        -2.25886      -0.00898004           149.9
0.52                   -0.290621        -130.515         -65.7531        -5.27147         -65.7393        -5.20825      -0.00906424         149.833
0.521                  -0.299728        -130.961         -65.3399        -7.95289         -65.3273        -7.88806      -0.00914921         149.766
0.522                  -0.308918        -131.409         -64.9377         -10.401         -64.9262        -10.3355      -0.00923494         149.699
0.523                  -0.318193         -131.86          -64.548        -12.6491         -64.5374        -12.5837      -0.00932145         149.632
0.524                  -0.327556        -132.314         -64.1715        -14.7264         -64.1618        -14.6617      -0.00940875         149.565
0.525                   -0.33701         -132.77         -63.8086        -16.6582         -63.7998        -16.5945      -0.00949685         149.498
0.526                  -0.346559        -133.229         -63.4591        -18.4661         -63.4511        -18.4039      -0.00958576         149.431
0.527                  -0.356204        -133.691         -63.1229         -20.169         -63.1156        -20.1085      -0.00967549         149.364
0.528                  -0.365951        -134.156         -62.7995        -21.7828         -62.7928        -21.7243      -0.00976605         149.296
0.529                  -0.375802        -134.624         -62.4882        -23.3214         -62.4821         -23.265      -0.00985746         149.229
0.53                   -0.385762        -135.094         -62.1886        -24.7967          -62.183        -24.7423      -0.00994972         149.161
0.531                  -0.395834        -135.568         -61.8999        -26.2187         -61.8948        -26.1666       -0.0100428         149.094
0.532                  -0.406023        -136.045         -61.6216        -27.5964          -61.617        -27.5466       -0.0101369         149.026
0.533                  -0.416333        -136.525         -61.3531        -28.9374         -61.3488        -28.8899       -0.0102318         148.958
0.534                  -0.426768        -137.009         -61.0937        -30.2484         -61.0898        -30.2032       -0.0103276          148.89
0.535                  -0.437335        -137.495         -60.8429        -31.5351         -60.8394        -31.4922       -0.0104243         148.822
0.536                  -0.448038        -137.985         -60.6001        -32.8027         -60.5969         -32.762       -0.0105219         148.754
0.537                  -0.458882        -138.479         -60.3649        -34.0556          -60.362        -34.0172       -0.0106205         148.686
0.538                  -0.469874        -138.976         -60.1367        -35.2978         -60.1341        -35.2616       -0.0107201         148.617
0.539                   -0.48102        -139.476         -59.9151        -36.5327         -59.9127        -36.4987       -0.0108206         148.549
0.54                   -0.492326         -139.98         -59.6996        -37.7634         -59.6975        -37.7315       -0.0109221          148.48
0.541                    -0.5038        -140.488         -59.4899        -38.9928         -59.4879         -38.963       -0.0110245         148.411
0.542                  -0.515449            -141         -59.2855        -40.2232         -59.2837        -40.1954        -0.011128         148.343
0.543                   -0.52728        -141.515         -59.0861        -41.4569         -59.0845        -41.4312       -0.0112326         148.274
0.544                  -0.539302        -142.035         -58.8914         -42.696         -58.8899        -42.6722       -0.0113381         148.205
0.545                  -0.551524        -142.558         -58.7009        -43.9422         -58.6996        -43.9202       -0.0114447         148.136
0.546                  -0.563955        -143.086         -58.5146        -45.1971         -58.5134         -45.177       -0.0115524         148.066
0.547                  -0.576605        -143.617          -58.332        -46.4624         -58.3309         -46.444       -0.0116612         147.997
0.548                  -0.589484        -144.153         -58.1529        -47.7393          -58.152        -47.7227       -0.0117711         147.928
0.549                  -0.602604        -144.694         -57.9771        -49.0292         -57.9762        -49.0142       -0.0118821         147.858
0.55                   -0.615977        -145.238         -57.8043        -50.3332         -57.8035        -50.3199       -0.0119942         147.788
0.551                  -0.629615        -145.788         -57.6343        -51.6525         -57.6336        -51.6407       -0.0121075         147.719
0.552                  -0.643531        -146.342         -57.4669        -52.9879         -57.4664        -52.9777       -0.0122219         147.649
0.553                   -0.65774        -146.901          -57.302        -54.3406         -57.3015        -54.3318       -0.0123375         147.579
0.554                  -0.672258        -147.464         -57.1393        -55.7113         -57.1389        -55.7039       -0.0124544         147.508
0.555                    -0.6871        -148.033         -56.9787         -57.101         -56.9784        -57.0949       -0.0125724         147.438
0.556                  -0.702283        -148.607           -56.82        -58.5103         -56.8198        -58.5055       -0.0126917         147.368
0.557                  -0.717827        -149.185         -56.6631          -59.94         -56.6629        -59.9365       -0.0128122         147.297
0.558                  -0.733752         -149.77         -56.5079        -61.3909         -56.5078        -61.3886       -0.0129341         147.227
0.559                  -0.750077        -150.359         -56.3542        -62.8636         -56.3541        -62.8624       -0.0130572         147.156
0.56                   -0.766826        -150.954          -56.202        -64.3587         -56.2019        -64.3586       -0.0131816         147.085
0.561                  -0.784022        -151.555          -56.051        -65.8769          -56.051        -65.8778       -0.0133074         147.014
0.562                  -0.801693        -152.162         -55.9012        -67.4186         -55.9013        -67.4205       -0.0134345         146.943
0.563                  -0.819864        -152.774         -55.7526        -68.9845         -55.7527        -68.9873        -0.013563         146.872
0.564                  -0.838567        -153.393          -55.605        -70.5751         -55.6051        -70.5788       -0.0136929           146.8
0.565                  -0.857832        -154.017         -55.4583        -72.1908         -55.4585        -72.1953       -0.0138243         146.729
0.566                  -0.877694        -154.648         -55.3126        -73.8321         -55.3128        -73.8374        -0.013957         146.657
0.567                  -0.898189        -155.286         -55.1677        -75.4995         -55.1679        -75.5055       -0.0140912         146.585
0.568                  -0.919355         -155.93         -55.0236        -77.1933         -55.0238        -77.2001        -0.014227         146.513
0.569                  -0.941237         -156.58         -54.8802         -78.914         -54.8804        -78.9214       -0.0143642         146.441
0.57                   -0.963877        -157.238         -54.7375        -80.6619         -54.7378        -80.6699        -0.014503         146.369
0.571                  -0.987325        -157.902         -54.5955        -82.4374         -54.5958        -82.4459       -0.0146433         146.297
0.572                   -1.01163        -158.574         -54.4541        -84.2406         -54.4544        -84.2497       -0.0147852         146.224
0.573                   -1.03686        -159.252         -54.3134         -86.072         -54.3137        -86.0815       -0.0149287         146.152
0.574                   -1.06306        -159.938         -54.1733        -87.9318         -54.1736        -87.9416       -0.0150739         146.079
0.575                    -1.0903        -160.632         -54.0338        -89.8201         -54.0342        -89.8303       -0.0152207         146.006
0.576                   -1.11865        -161.332         -53.8949        -91.7371         -53.8953        -91.7476       -0.0153692         145.933
0.577                   -1.14819        -162.041         -53.7567        -93.6829         -53.7571        -93.6937       -0.0155194          145.86
0.578                   -1.17899        -162.757         -53.6192        -95.6577         -53.6196        -95.6687       -0.0156714         145.787
0.579                   -1.21114         -163.48         -53.4823        -97.6615         -53.4828        -97.6726       -0.0158251         145.713
0.58                    -1.24474        -164.211         -53.3462        -99.6942         -53.3466        -99.7054       -0.0159807         145.639
0.581                   -1.27988         -164.95         -53.2108        -101.756         -53.2112        -101.767       -0.0161381         145.566
0.582                   -1.31667        -165.697         -53.0762        -103.846         -53.0767        -103.858       -0.0162973         145.492
0.583                   -1.35523        -166.451         -52.9425        -105.965         -52.9429        -105.977       -0.0164584         145.417
0.584                   -1.39567        -167.212         -52.8096        -108.113         -52.8101        -108.124       -0.0166215         145.343
0.585                   -1.43814         -167.98         -52.6778        -110.289         -52.6783          -110.3       -0.0167865         145.269
0.586                   -1.48275        -168.756          -52.547        -112.492         -52.5475        -112.503       -0.0169534         145.194
0.587                   -1.52967        -169.538         -52.4172        -114.723         -52.4178        -114.734       -0.0171224         145.119
0.588                   -1.57905        -170.326         -52.2887        -116.981         -52.2892        -116.992       -0.0172935         145.044
0.589                   -1.63105        -171.119         -52.1614        -119.265         -52.1619        -119.276       -0.0174667         144.969
0.59                    -1.68585        -171.918         -52.0355        -121.575          -52.036        -121.585       -0.0176419         144.894
0.591                   -1.74362        -172.721         -51.9109         -123.91         -51.9114         -123.92       -0.0178194         144.819
0.592                   -1.80456        -173.526         -51.7879         -126.27         -51.7884        -126.279        -0.017999         144.743
0.593                   -1.86884        -174.334         -51.6664        -128.653         -51.6669        -128.662       -0.0181809         144.667
0.594                   -1.93667        -175.143         -51.5466        -131.059         -51.5471        -131.068        -0.018365         144.591
0.595                   -2.00824         -175.95         -51.4285        -133.486          -51.429        -133.495       -0.0185515         144.515
0.596                   -2.08373        -176.755         -51.3122        -135.934         -51.3127        -135.942       -0.0187403         144.439
0.597                   -2.16332        -177.555         -51.1978        -138.402         -51.1982        -138.409       -0.0189315         144.362
0.598                   -2.24718        -178.348         -51.0853        -140.888         -51.0857        -140.895       -0.0191251         144.285
0.599                   -2.33544        -179.131         -50.9749        -143.391         -50.9753        -143.398       -0.0193212         144.209
0.6                     -2.42821          -179.9         -50.8665         -145.91         -50.8668        -145.916       -0.0195199         144.131
0.601                   -2.52555         179.347         -50.7602        -148.444         -50.7605         -148.45       -0.0197211         144.054
0.602                   -2.62747         178.615          -50.656        -150.991         -50.6564        -150.996       -0.0199249         143.977
0.603                   -2.73391         177.908         -50.5541        -153.549         -50.5544        -153.554       -0.0201313         143.899
0.604                    -2.8447          177.23         -50.4543        -156.119         -50.4546        -156.123       -0.0203405         143.821
0.605                   -2.95959         176.586         -50.3568        -158.697          -50.357        -158.701       -0.0205524         143.743
0.606                   -3.07819         175.982         -50.2614        -161.282         -50.2616        -161.286       -0.0207671         143.665
0.607                   -3.19998         175.422         -50.1683        -163.874         -50.1685        -163.877       -0.0209847         143.586
0.608                   -3.32425          174.91         -50.0774         -166.47         -50.0775        -166.473       -0.0212051         143.508
0.609                   -3.45017         174.453         -49.9886        -169.069         -49.9887        -169.072       -0.0214286         143.429
0.61                    -3.57667         174.053          -49.902         -171.67          -49.902        -171.672        -0.021655          143.35
0.611                   -3.70256         173.715         -49.8174        -174.271         -49.8174        -174.273       -0.0218845          143.27
0.612                   -3.82647         173.439         -49.7348        -176.872         -49.7348        -176.873       -0.0221171         143.191
0.613                   -3.94687         173.227         -49.6542        -179.469         -49.6541         -179.47       -0.0223529         143.111
0.614                   -4.06219         173.077         -49.5754         177.936         -49.5753         177.936       -0.0225919         143.031
0.615                    -4.1708         172.985         -49.4984         175.347         -49.4982         175.347       -0.0228342         142.951
0.616                   -4.27111         172.946          -49.423         172.764         -49.4228         172.764       -0.0230799          142.87
0.617                   -4.36166         172.953         -49.3492         170.188          -49.349         170.188        -0.023329          142.79
0.618                   -4.44119         172.996         -49.2769         167.619         -49.2767          167.62       -0.0235816         142.709
0.619                   -4.50872         173.063         -49.2059          165.06         -49.2057         165.061       -0.0238377         142.628
0.62                     -4.5636         173.142         -49.1362         162.511         -49.1359         162.511       -0.0240974         142.546
0.621                   -4.60557         173.219         -49.0675         159.972         -49.0672         159.973       -0.0243608         142.465
0.622                   -4.63473         173.282         -48.9999         157.444         -48.9995         157.445       -0.0246279         142.383
0.623                   -4.65159         173.317          -48.933         154.928         -48.9327         154.929       -0.0248989         142.301
0.624                   -4.65696         173.312         -48.8669         152.424         -48.8666         152.426       -0.0251737         142.218
0.625                   -4.65194         173.258         -48.8015         149.933          -48.801         149.935       -0.0254525         142.136
0.626                   -4.63782         173.147         -48.7364         147.455          -48.736         147.457       -0.0257354         142.053
0.627                   -4.61603         172.971         -48.6717         144.991         -48.6713         144.992       -0.0260223         141.969
0.628                   -4.58804         172.727         -48.6073         142.539         -48.6068         142.541       -0.0263135         141.886
0.629                   -4.55533          172.41         -48.5429         140.102         -48.5424         140.103       -0.0266089         141.802
