! TOUCHSTONE file generated by CST MICROWAVE STUDIO
! Date and time: Sat Nov 14 20:33:08 2020
! Project name: Scenario_1_Planar_Body_Tissue_Out_of_Line_v2.cst
! Parameters = {dy1=242.2; L_HA=400; Ltissue=700; MT=2.54; Rad_Dielectric=30; Rad_Lower=7.3; Rad_Upper=30; Wtissue=700; a_HA=580; a_WG=246; b_HA=500; b_WG=121; c_HA=0; c_WG=187; d_feed=85; dx1=173; h_feed=15; h_lower=18; h_upper=40; hfat=3; hgap=25; hmuscle=50; hskin=1.5}
! Header version: 2018
! Port assignment regex: !\s*Touchstone port\s*([0-9]+)\s*=\s*(CST MWS port|CST DS port)\s*([0-9]+|Zmin|Zmax)\s*\(\"(.*)\"\)(\s*mode\s*([0-9]+))?.*
! Touchstone port assignment:
! Touchstone port 1 = CST MWS port 1 ("")
! Touchstone port 2 = CST MWS port 2 ("")
# GHz S DB R 50
0.5                   -0.0561277        -121.798         -64.0439         121.298         -64.0431         121.301      -0.00694058         151.143
0.501                  -0.056334        -122.242         -63.8671         120.709         -63.8663         120.713      -0.00699505         151.078
0.502                 -0.0566512         -122.69         -63.6874         120.119         -63.6867         120.123       -0.0070493         151.013
0.503                  -0.057085        -123.142          -63.505         119.526         -63.5042          119.53      -0.00710337         150.948
0.504                 -0.0576419        -123.597         -63.3196         118.931         -63.3189         118.935      -0.00715728         150.882
0.505                 -0.0583283        -124.057         -63.1313         118.334         -63.1306         118.338      -0.00721106         150.817
0.506                 -0.0591516         -124.52         -62.9401         117.733         -62.9394         117.738      -0.00726476         150.751
0.507                 -0.0601192        -124.988         -62.7458          117.13         -62.7452         117.134      -0.00731841         150.686
0.508                 -0.0612394        -125.459         -62.5486         116.523         -62.5479         116.527      -0.00737204          150.62
0.509                 -0.0625209        -125.935         -62.3482         115.912         -62.3475         115.916       -0.0074257         150.554
0.51                   -0.063973        -126.415         -62.1446         115.297          -62.144         115.301      -0.00747944         150.488
0.511                 -0.0656057          -126.9         -61.9379         114.677         -61.9373         114.682      -0.00753328         150.422
0.512                 -0.0674299         -127.39          -61.728         114.053         -61.7273         114.058      -0.00758729         150.356
0.513                 -0.0694572        -127.884         -61.5148         113.423         -61.5141         113.428      -0.00764151          150.29
0.514                    -0.0717        -128.383         -61.2982         112.788         -61.2976         112.793      -0.00769599         150.224
0.515                 -0.0741717        -128.887         -61.0783         112.147         -61.0776         112.152      -0.00775078         150.158
0.516                 -0.0768868        -129.396         -60.8549         111.499         -60.8543         111.504      -0.00780595         150.091
0.517                 -0.0798609        -129.911         -60.6281         110.844         -60.6274         110.849      -0.00786155         150.025
0.518                 -0.0831109         -130.43         -60.3977         110.182         -60.3971         110.187      -0.00791765         149.958
0.519                 -0.0866551        -130.956         -60.1637         109.512         -60.1631         109.516      -0.00797431         149.891
0.52                   -0.090513        -131.487         -59.9261         108.832         -59.9255         108.837       -0.0080316         149.825
0.521                 -0.0947062        -132.024         -59.6847         108.144         -59.6841         108.149      -0.00808959         149.758
0.522                 -0.0992579        -132.567         -59.4396         107.446          -59.439          107.45      -0.00814836         149.691
0.523                  -0.104193        -133.116         -59.1907         106.737         -59.1901         106.742      -0.00820799         149.624
0.524                  -0.109539        -133.672         -58.9379         106.017         -58.9373         106.021      -0.00826857         149.556
0.525                  -0.115326        -134.234         -58.6811         105.284         -58.6806         105.289      -0.00833018         149.489
0.526                  -0.121587        -134.803         -58.4204         104.539         -58.4198         104.544      -0.00839292         149.422
0.527                  -0.128356        -135.379         -58.1556         103.781          -58.155         103.785      -0.00845688         149.354
0.528                  -0.135672        -135.962         -57.8866         103.007         -57.8861         103.012      -0.00852216         149.287
0.529                  -0.143578        -136.553         -57.6135         102.218         -57.6129         102.223      -0.00858888         149.219
0.53                   -0.152119        -137.152          -57.336         101.413         -57.3355         101.417      -0.00865713         149.151
0.531                  -0.161347        -137.758         -57.0543          100.59         -57.0538         100.594      -0.00872703         149.083
0.532                  -0.171317        -138.373         -56.7682         99.7479         -56.7677         99.7518      -0.00879871         149.015
0.533                   -0.18209        -138.997         -56.4776         98.8861         -56.4771         98.8898      -0.00887229         148.947
0.534                  -0.193734        -139.629         -56.1826          98.003         -56.1821         98.0066      -0.00894789         148.879
0.535                  -0.206321         -140.27         -55.8829         97.0973         -55.8824         97.1008      -0.00902565          148.81
0.536                  -0.219934        -140.921         -55.5786         96.1676         -55.5782         96.1709      -0.00910571         148.742
0.537                  -0.234662        -141.582         -55.2697         95.2122         -55.2692         95.2154      -0.00918819         148.673
0.538                  -0.250605        -142.252          -54.956         94.2295         -54.9555         94.2326      -0.00927326         148.604
0.539                  -0.267871        -142.933         -54.6375         93.2178          -54.637         93.2208      -0.00936105         148.535
0.54                   -0.286583        -143.625         -54.3141         92.1752         -54.3137          92.178      -0.00945172         148.466
0.541                  -0.306875        -144.327         -53.9859         91.0997         -53.9855         91.1023      -0.00954541         148.397
0.542                  -0.328895        -145.041         -53.6529         89.9891         -53.6525         89.9916      -0.00964228         148.328
0.543                   -0.35281        -145.767         -53.3149         88.8411         -53.3145         88.8434      -0.00974248         148.259
0.544                  -0.378801        -146.504         -52.9719         87.6533         -52.9716         87.6555      -0.00984617         148.189
0.545                  -0.407074        -147.253         -52.6241          86.423         -52.6238         86.4251      -0.00995349          148.12
0.546                  -0.437853        -148.015         -52.2714         85.1475         -52.2711         85.1494       -0.0100646          148.05
0.547                  -0.471391        -148.789         -51.9139         83.8238         -51.9135         83.8256       -0.0101796          147.98
0.548                  -0.507965        -149.575         -51.5515         82.4486         -51.5513         82.4503       -0.0102987         147.911
0.549                  -0.547887        -150.373         -51.1846         81.0187         -51.1843         81.0202        -0.010422         147.841
0.55                   -0.591499        -151.184         -50.8131         79.5304         -50.8128         79.5318       -0.0105496          147.77
0.551                  -0.639182        -152.006         -50.4373         77.9798          -50.437         77.9811       -0.0106817           147.7
0.552                  -0.691355         -152.84         -50.0573          76.363         -50.0571         76.3642       -0.0108183          147.63
0.553                   -0.74848        -153.683         -49.6735         74.6757         -49.6734         74.6768       -0.0109595         147.559
0.554                  -0.811066        -154.536         -49.2863         72.9135         -49.2861         72.9144       -0.0111054         147.489
0.555                  -0.879666        -155.396         -48.8959         71.0716         -48.8958         71.0725        -0.011256         147.418
0.556                  -0.954879        -156.261         -48.5031         69.1454          -48.503         69.1462       -0.0114114         147.347
0.557                   -1.03735        -157.128         -48.1083         67.1299         -48.1082         67.1306       -0.0115717         147.276
0.558                   -1.12776        -157.994         -47.7123         65.0202         -47.7122         65.0208       -0.0117367         147.205
0.559                   -1.22682        -158.853         -47.3159         62.8114         -47.3158          62.812       -0.0119064         147.134
0.56                    -1.33526          -159.7         -46.9201         60.4988         -46.9201         60.4993       -0.0120809         147.063
0.561                   -1.45379        -160.529         -46.5261         58.0778         -46.5261         58.0784       -0.0122599         146.991
0.562                   -1.58308        -161.329          -46.135         55.5446         -46.1351         55.5451       -0.0124434          146.92
0.563                    -1.7237        -162.091         -45.7485         52.8958         -45.7485         52.8963       -0.0126312         146.848
0.564                   -1.87605        -162.802          -45.368         50.1288         -45.3681         50.1293       -0.0128232         146.777
0.565                   -2.04031        -163.447         -44.9954         47.2425         -44.9954          47.243       -0.0130192         146.705
0.566                   -2.21628        -164.009         -44.6325          44.237         -44.6326         44.2375       -0.0132188         146.633
0.567                   -2.40327         -164.47         -44.2813          41.114         -44.2814         41.1146       -0.0134219         146.561
0.568                   -2.59997         -164.81          -43.944         37.8775         -43.9441         37.8781       -0.0136282         146.489
0.569                   -2.80426        -165.007         -43.6226         34.5335         -43.6227         34.5341       -0.0138373         146.416
0.57                    -3.01308        -165.041         -43.3192         31.0903         -43.3193         31.0909        -0.014049         146.344
0.571                   -3.22237        -164.895         -43.0357         27.5587         -43.0358         27.5593       -0.0142628         146.272
0.572                   -3.42697        -164.555         -42.7738         23.9518         -42.7739         23.9524       -0.0144785         146.199
0.573                   -3.62086        -164.017          -42.535         20.2848         -42.5351         20.2854       -0.0146956         146.126
0.574                   -3.79738        -163.286         -42.3202         16.5744         -42.3203          16.575       -0.0149138         146.054
0.575                   -3.94979        -162.379         -42.1301         12.8388         -42.1302         12.8394       -0.0151328         145.981
0.576                   -4.07194        -161.327         -41.9649          9.0965          -41.965         9.09697       -0.0153521         145.908
0.577                   -4.15897        -160.173         -41.8243         5.36591         -41.8244         5.36629       -0.0155713         145.834
0.578                   -4.20793        -158.967         -41.7076         1.66472         -41.7077         1.66502       -0.0157903         145.761
0.579                   -4.21818        -157.764         -41.6137        -1.99074         -41.6137        -1.99055       -0.0160085         145.688
0.58                    -4.19141        -156.616          -41.541        -5.58599          -41.541         -5.5859       -0.0162256         145.614
0.581                   -4.13128         -155.57         -41.4878        -9.10871         -41.4878        -9.10874       -0.0164415          145.54
0.582                   -4.04286        -154.659         -41.4522        -12.5489         -41.4523        -12.5491       -0.0166558         145.467
0.583                   -3.93194        -153.907         -41.4322        -15.8991         -41.4323        -15.8994       -0.0168683         145.393
0.584                   -3.80443        -153.326         -41.4258        -19.1539         -41.4258        -19.1543       -0.0170788         145.319
0.585                   -3.66586        -152.917         -41.4309        -22.3102         -41.4309        -22.3107       -0.0172872         145.244
0.586                   -3.52106        -152.676         -41.4456        -25.3667         -41.4457        -25.3673       -0.0174932          145.17
0.587                   -3.37406        -152.592         -41.4681        -28.3238         -41.4682        -28.3245        -0.017697         145.095
0.588                   -3.22802        -152.651         -41.4968        -31.1832         -41.4969        -31.1839       -0.0178983         145.021
0.589                   -3.08534        -152.838         -41.5302        -33.9474         -41.5303        -33.9483       -0.0180974         144.946
0.59                    -2.94774        -153.138         -41.5669        -36.6202          -41.567         -36.621       -0.0182942         144.871
0.591                   -2.81638        -153.537         -41.6057        -39.2054         -41.6059        -39.2063       -0.0184888         144.795
0.592                   -2.69197        -154.022         -41.6458        -41.7077         -41.6459        -41.7086       -0.0186815          144.72
0.593                   -2.57489         -154.58          -41.686        -44.1316         -41.6862        -44.1326       -0.0188726         144.644
0.594                   -2.46526        -155.201         -41.7258        -46.4821          -41.726        -46.4831       -0.0190622         144.568
0.595                   -2.36302        -155.875         -41.7646        -48.7639         -41.7648        -48.7649       -0.0192508         144.492
0.596                   -2.26799        -156.595         -41.8017        -50.9817         -41.8019        -50.9827       -0.0194387         144.416
0.597                    -2.1799        -157.354         -41.8367        -53.1402         -41.8369        -53.1411       -0.0196264          144.34
0.598                   -2.09843        -158.147         -41.8694        -55.2436         -41.8696        -55.2445       -0.0198144         144.263
0.599                   -2.02323        -158.967         -41.8995        -57.2964         -41.8997        -57.2972       -0.0200033         144.186
0.6                     -1.95394        -159.813         -41.9267        -59.3023         -41.9269        -59.3031       -0.0201935         144.109
0.601                   -1.89021        -160.679         -41.9509        -61.2653         -41.9511        -61.2661       -0.0203858         144.032
0.602                   -1.83168        -161.564         -41.9719        -63.1889         -41.9722        -63.1896       -0.0205807         143.954
0.603                   -1.77803        -162.465         -41.9899        -65.0763         -41.9901         -65.077       -0.0207789         143.877
0.604                   -1.72894        -163.381         -42.0046        -66.9308         -42.0048        -66.9313       -0.0209811         143.799
0.605                   -1.68412        -164.309          -42.016         -68.755         -42.0163        -68.7555       -0.0211879         143.721
0.606                   -1.64329        -165.249         -42.0243        -70.5518         -42.0246        -70.5522          -0.0214         143.642
0.607                    -1.6062          -166.2         -42.0294        -72.3236         -42.0297        -72.3239       -0.0216178         143.563
0.608                   -1.57261         -167.16         -42.0314        -74.0726         -42.0316        -74.0729        -0.021842         143.485
0.609                   -1.54232         -168.13         -42.0303         -75.801         -42.0305        -75.8012        -0.022073         143.406
0.61                    -1.51512        -169.109         -42.0262        -77.5108         -42.0264        -77.5109       -0.0223112         143.326
0.611                   -1.49085        -170.096         -42.0192        -79.2036         -42.0194        -79.2037        -0.022557         143.247
0.612                   -1.46935        -171.092         -42.0094        -80.8812         -42.0096        -80.8812       -0.0228105         143.167
0.613                   -1.45046        -172.096         -41.9968        -82.5451          -41.997         -82.545       -0.0230718         143.087
0.614                   -1.43405        -173.109         -41.9816        -84.1965         -41.9818        -84.1964        -0.023341         143.007
0.615                   -1.42002         -174.13         -41.9639        -85.8369         -41.9641        -85.8367       -0.0236179         142.926
0.616                   -1.40826        -175.159         -41.9437        -87.4672         -41.9439         -87.467       -0.0239024         142.846
0.617                   -1.39867        -176.197         -41.9212        -89.0887         -41.9213        -89.0884       -0.0241942         142.765
0.618                   -1.39116        -177.244         -41.8964        -90.7021         -41.8965        -90.7018        -0.024493         142.684
0.619                   -1.38568        -178.299         -41.8695        -92.3084         -41.8696        -92.3081       -0.0247982         142.602
0.62                    -1.38214        -179.364         -41.8405        -93.9083         -41.8406         -93.908       -0.0251094         142.521
0.621                   -1.38051         179.562         -41.8096        -95.5025         -41.8096        -95.5023       -0.0254262         142.439
0.622                   -1.38072         178.478         -41.7767        -97.0918         -41.7768        -97.0915       -0.0257481         142.357
0.623                   -1.38275         177.385         -41.7421        -98.6765         -41.7421        -98.6763       -0.0260744         142.275
0.624                   -1.38655          176.28         -41.7058        -100.257         -41.7058        -100.257       -0.0264048         142.193
0.625                   -1.39211         175.165         -41.6678        -101.834         -41.6678        -101.834       -0.0267388          142.11
0.626                    -1.3994         174.039         -41.6283        -103.409         -41.6283        -103.408       -0.0270758         142.027
0.627                   -1.40841         172.902         -41.5873         -104.98         -41.5872         -104.98       -0.0274156         141.944
0.628                   -1.41912         171.753         -41.5448        -106.549         -41.5448        -106.549       -0.0277579         141.861
0.629                   -1.43155         170.591          -41.501        -108.116          -41.501        -108.116       -0.0281023         141.777
