! TOUCHSTONE file generated by CST MICROWAVE STUDIO
! Date and time: Fri Dec 11 13:54:07 2020
! Project name: Scenario_1_Planar_Body_Tissue_Out_of_Line_v2.cst
! Parameters = {dy1=-242.2; L_HA=400; Ltissue=700; MT=2.54; Rad_Dielectric=30; Rad_Lower=7.3; Rad_Upper=30; Wtissue=700; a_HA=580; a_WG=246; b_HA=500; b_WG=121; c_HA=0; c_WG=187; d_feed=85; dx1=520; h_feed=15; h_lower=18; h_upper=40; hfat=3; hgap=25; hmuscle=50; hskin=1.5}
! Header version: 2018
! Port assignment regex: !\s*Touchstone port\s*([0-9]+)\s*=\s*(CST MWS port|CST DS port)\s*([0-9]+|Zmin|Zmax)\s*\(\"(.*)\"\)(\s*mode\s*([0-9]+))?.*
! Touchstone port assignment:
! Touchstone port 1 = CST MWS port 1 ("")
! Touchstone port 2 = CST MWS port 2 ("")
# GHz S DB R 50
0.5                   -0.0917704        -121.953         -63.4829        -66.3467         -63.4826        -66.3447      -0.00733777         151.151
0.501                 -0.0953712         -122.41         -63.2698        -67.3289         -63.2695        -67.3267      -0.00740212         151.086
0.502                 -0.0991904         -122.87          -63.053        -68.3333         -63.0528        -68.3311      -0.00746731         151.021
0.503                  -0.103244        -123.334         -62.8325        -69.3607         -62.8323        -69.3583      -0.00753336         150.955
0.504                  -0.107548        -123.802         -62.6084        -70.4117         -62.6082        -70.4093      -0.00760029          150.89
0.505                  -0.112121        -124.273         -62.3806        -71.4871         -62.3804        -71.4846      -0.00766811         150.824
0.506                  -0.116983        -124.748          -62.149        -72.5878         -62.1489        -72.5853      -0.00773686         150.758
0.507                  -0.122156        -125.227         -61.9137        -73.7146         -61.9135         -73.712      -0.00780655         150.693
0.508                  -0.127664        -125.709         -61.6745        -74.8684         -61.6744        -74.8658      -0.00787722         150.627
0.509                  -0.133533        -126.196         -61.4317        -76.0502         -61.4316        -76.0475      -0.00794888         150.561
0.51                    -0.13979        -126.687          -61.185        -77.2611         -61.1849        -77.2584      -0.00802158         150.495
0.511                  -0.146468        -127.182         -60.9345         -78.502         -60.9344        -78.4993      -0.00809534         150.429
0.512                  -0.153598        -127.681         -60.6802        -79.7742         -60.6802        -79.7715      -0.00817021         150.363
0.513                  -0.161219        -128.184         -60.4222        -81.0789         -60.4221        -81.0762       -0.0082462         150.297
0.514                   -0.16937        -128.692         -60.1604        -82.4174         -60.1604        -82.4147      -0.00832338          150.23
0.515                  -0.178095        -129.204         -59.8949         -83.791         -59.8949        -83.7884      -0.00840177         150.164
0.516                  -0.187441        -129.721         -59.6257        -85.2012         -59.6257        -85.1987      -0.00848143         150.097
0.517                   -0.19746        -130.242         -59.3529        -86.6496         -59.3529        -86.6472      -0.00856241         150.031
0.518                  -0.208208        -130.767         -59.0766        -88.1377         -59.0765        -88.1354      -0.00864477         149.964
0.519                  -0.219746        -131.297         -58.7968        -89.6673         -58.7967         -89.665      -0.00872855         149.897
0.52                    -0.23214        -131.832         -58.5136          -91.24         -58.5136        -91.2379      -0.00881383         149.831
0.521                   -0.24546         -132.37         -58.2272        -92.8579         -58.2272        -92.8559      -0.00890068         149.764
0.522                  -0.259784        -132.913         -57.9378        -94.5228         -57.9377        -94.5209      -0.00898916         149.697
0.523                  -0.275193         -133.46         -57.6454        -96.2367         -57.6453         -96.235      -0.00907936          149.63
0.524                  -0.291774         -134.01         -57.3504        -98.0018         -57.3503        -98.0003      -0.00917136         149.562
0.525                  -0.309619        -134.564         -57.0529        -99.8202         -57.0527        -99.8188      -0.00926524         149.495
0.526                  -0.328825        -135.121         -56.7532        -101.694         -56.7531        -101.693       -0.0093611         149.428
0.527                  -0.349491        -135.681         -56.4516        -103.626         -56.4515        -103.625      -0.00945904          149.36
0.528                  -0.371721        -136.242         -56.1486        -105.617         -56.1485        -105.617      -0.00955916         149.293
0.529                  -0.395617        -136.805         -55.8445        -107.671         -55.8443        -107.671      -0.00966156         149.225
0.53                    -0.42128        -137.367         -55.5397        -109.789         -55.5396        -109.789      -0.00976635         149.157
0.531                  -0.448808         -137.93         -55.2349        -111.974         -55.2347        -111.974      -0.00987364          149.09
0.532                  -0.478286         -138.49         -54.9305        -114.227         -54.9303        -114.228      -0.00998351         149.022
0.533                  -0.509789        -139.047         -54.6272        -116.551          -54.627        -116.552       -0.0100961         148.954
0.534                  -0.543368        -139.599         -54.3257        -118.946         -54.3255        -118.947       -0.0102114         148.885
0.535                  -0.579049        -140.144         -54.0268        -121.415         -54.0266        -121.416       -0.0103296         148.817
0.536                  -0.616821        -140.681         -53.7312        -123.957         -53.7311        -123.959       -0.0104506         148.749
0.537                  -0.656628        -141.206           -53.44        -126.574         -53.4398        -126.575       -0.0105746         148.681
0.538                  -0.698359        -141.719          -53.154        -129.264         -53.1538        -129.266       -0.0107014         148.612
0.539                  -0.741837        -142.215         -52.8741        -132.028          -52.874         -132.03        -0.010831         148.544
0.54                   -0.786813        -142.694         -52.6015        -134.863         -52.6013        -134.866       -0.0109633         148.475
0.541                  -0.832956        -143.153         -52.3371        -137.768         -52.3369        -137.771       -0.0110982         148.406
0.542                  -0.879853         -143.59         -52.0819        -140.738         -52.0818        -140.741       -0.0112353         148.337
0.543                  -0.927008        -144.002         -51.8371         -143.77          -51.837        -143.773       -0.0113745         148.268
0.544                  -0.973849         -144.39         -51.6035        -146.859         -51.6034        -146.862       -0.0115153         148.199
0.545                   -1.01975        -144.752          -51.382        -149.998          -51.382        -150.001       -0.0116573          148.13
0.546                   -1.06403        -145.089         -51.1734         -153.18         -51.1735        -153.184          -0.0118         148.061
0.547                   -1.10601        -145.402         -50.9785        -156.399         -50.9786        -156.403        -0.011943         147.992
0.548                   -1.14504        -145.693         -50.7978        -159.645         -50.7979         -159.65       -0.0120858         147.922
0.549                   -1.18051        -145.966         -50.6315        -162.911         -50.6317        -162.915       -0.0122278         147.853
0.55                    -1.21192        -146.223           -50.48        -166.186         -50.4802         -166.19       -0.0123686         147.783
0.551                   -1.23888        -146.469         -50.3433        -169.461         -50.3435        -169.465       -0.0125078         147.714
0.552                   -1.26113         -146.71         -50.2212        -172.727         -50.2214        -172.732        -0.012645         147.644
0.553                   -1.27859        -146.951         -50.1133        -175.977         -50.1136         -175.98         -0.01278         147.574
0.554                    -1.2913        -147.195         -50.0192          -179.2         -50.0195        -179.203       -0.0129126         147.504
0.555                   -1.29945        -147.449         -49.9383         177.611         -49.9386         177.607       -0.0130429         147.434
0.556                   -1.30335        -147.716         -49.8697         174.462         -49.8701         174.459       -0.0131709         147.364
0.557                   -1.30339        -147.999         -49.8127          171.36          -49.813         171.357       -0.0132967         147.294
0.558                   -1.30004        -148.303         -49.7662          168.31         -49.7666         168.307       -0.0134205         147.223
0.559                   -1.29379        -148.628         -49.7293         165.316         -49.7297         165.313       -0.0135427         147.153
0.56                    -1.28515        -148.977          -49.701         162.382         -49.7014         162.379       -0.0136635         147.082
0.561                   -1.27462        -149.349         -49.6803         159.509         -49.6807         159.507       -0.0137832         147.011
0.562                   -1.26266        -149.747         -49.6661         156.701         -49.6665         156.699       -0.0139023          146.94
0.563                   -1.24972        -150.169         -49.6576         153.956         -49.6579         153.954       -0.0140211         146.869
0.564                   -1.23618        -150.615         -49.6537         151.277          -49.654         151.275       -0.0141399         146.798
0.565                   -1.22239        -151.085         -49.6536         148.661         -49.6539          148.66        -0.014259         146.727
0.566                   -1.20865        -151.577         -49.6565         146.109         -49.6568         146.108       -0.0143787         146.655
0.567                   -1.19521        -152.091         -49.6616         143.619         -49.6619         143.618       -0.0144993         146.583
0.568                   -1.18228        -152.626         -49.6683         141.189         -49.6685         141.188        -0.014621         146.512
0.569                   -1.17004         -153.18         -49.6758         138.817         -49.6761         138.817        -0.014744          146.44
0.57                    -1.15863        -153.752         -49.6837         136.502         -49.6839         136.502       -0.0148686         146.367
0.571                   -1.14816        -154.342         -49.6914         134.241         -49.6916         134.241       -0.0149947         146.295
0.572                   -1.13873        -154.948         -49.6985         132.031         -49.6987         132.031       -0.0151227         146.223
0.573                    -1.1304        -155.571         -49.7045         129.871         -49.7047         129.871       -0.0152526          146.15
0.574                   -1.12323        -156.208         -49.7092         127.758         -49.7094         127.758       -0.0153844         146.077
0.575                   -1.11725        -156.859         -49.7122         125.688         -49.7123         125.689       -0.0155184         146.005
0.576                   -1.11251        -157.523         -49.7132         123.661         -49.7132         123.661       -0.0156545         145.932
0.577                   -1.10902        -158.201         -49.7119         121.673          -49.712         121.673       -0.0157929         145.858
0.578                    -1.1068        -158.891         -49.7083         119.722         -49.7084         119.723       -0.0159335         145.785
0.579                   -1.10586        -159.593         -49.7021         117.806         -49.7022         117.807       -0.0160764         145.711
0.58                    -1.10622        -160.307         -49.6932         115.922         -49.6932         115.923       -0.0162217         145.638
0.581                   -1.10788        -161.032         -49.6815         114.069         -49.6815          114.07       -0.0163694         145.564
0.582                   -1.11086        -161.769         -49.6668         112.245         -49.6668         112.245       -0.0165195          145.49
0.583                   -1.11515        -162.516         -49.6491         110.446         -49.6491         110.447       -0.0166721         145.416
0.584                   -1.12078        -163.274         -49.6284         108.672         -49.6283         108.673       -0.0168271         145.342
0.585                   -1.12775        -164.043         -49.6045         106.921         -49.6044         106.922       -0.0169846         145.267
0.586                   -1.13608        -164.822         -49.5774         105.191         -49.5773         105.192       -0.0171447         145.192
0.587                   -1.14579        -165.612         -49.5472          103.48         -49.5471         103.481       -0.0173073         145.118
0.588                   -1.15689        -166.412         -49.5138         101.786         -49.5136         101.787       -0.0174724         145.043
0.589                   -1.16941        -167.222         -49.4771         100.109         -49.4769          100.11       -0.0176401         144.968
0.59                    -1.18338        -168.044         -49.4373         98.4454         -49.4371         98.4463       -0.0178105         144.892
0.591                   -1.19882        -168.875         -49.3943         96.7953          -49.394         96.7962       -0.0179834         144.817
0.592                   -1.21577        -169.718          -49.348         95.1568         -49.3478         95.1577       -0.0181591         144.741
0.593                   -1.23427        -170.571         -49.2987         93.5287         -49.2985         93.5296       -0.0183374         144.665
0.594                   -1.25437        -171.435         -49.2462         91.9095          -49.246         91.9105       -0.0185184         144.589
0.595                    -1.2761        -172.309         -49.1906         90.2982         -49.1904         90.2991       -0.0187021         144.513
0.596                   -1.29953        -173.195          -49.132         88.6935         -49.1317         88.6943       -0.0188886         144.437
0.597                    -1.3247        -174.092         -49.0703         87.0942           -49.07          87.095       -0.0190779          144.36
0.598                   -1.35169            -175         -49.0057         85.4992         -49.0054            85.5       -0.0192699         144.283
0.599                   -1.38055        -175.919         -48.9381         83.9075         -48.9378         83.9082       -0.0194649         144.206
0.6                     -1.41137         -176.85         -48.8676         82.3179         -48.8674         82.3186       -0.0196627         144.129
0.601                   -1.44423        -177.792         -48.7943         80.7294         -48.7941         80.7301       -0.0198634         144.052
0.602                    -1.4792        -178.747         -48.7183         79.1411          -48.718         79.1418        -0.020067         143.975
0.603                   -1.51639        -179.712         -48.6395          77.552         -48.6392         77.5526       -0.0202737         143.897
0.604                   -1.55589          179.31          -48.558         75.9611         -48.5578         75.9617       -0.0204833         143.819
0.605                   -1.59781          178.32          -48.474         74.3675         -48.4737          74.368        -0.020696         143.741
0.606                   -1.64226         177.318         -48.3874         72.7703         -48.3872         72.7708       -0.0209118         143.662
0.607                   -1.68937         176.304         -48.2984         71.1686         -48.2982          71.169       -0.0211308         143.584
0.608                   -1.73927         175.278          -48.207         69.5615         -48.2068          69.562       -0.0213529         143.505
0.609                   -1.79208          174.24         -48.1133         67.9483         -48.1131         67.9487       -0.0215782         143.426
0.61                    -1.84798         173.189         -48.0174          66.328         -48.0172         66.3284       -0.0218068         143.347
0.611                    -1.9071         172.127         -47.9193         64.6999         -47.9191         64.7002       -0.0220387         143.268
0.612                   -1.96961         171.052         -47.8192         63.0632          -47.819         63.0635        -0.022274         143.188
0.613                    -2.0357         169.966         -47.7171         61.4171         -47.7169         61.4174       -0.0225127         143.108
0.614                   -2.10554         168.868         -47.6131         59.7609          -47.613         59.7611       -0.0227549         143.028
0.615                   -2.17934         167.759         -47.5074         58.0938         -47.5073          58.094       -0.0230006         142.948
0.616                   -2.25729         166.639         -47.4001         56.4152            -47.4         56.4153       -0.0232498         142.868
0.617                   -2.33963         165.509         -47.2912         54.7242         -47.2911         54.7244       -0.0235027         142.787
0.618                   -2.42658         164.368         -47.1809         53.0204         -47.1808         53.0206       -0.0237592         142.706
0.619                   -2.51838         163.218         -47.0692         51.3031         -47.0692         51.3032       -0.0240195         142.625
0.62                    -2.61528          162.06         -46.9564         49.5716         -46.9564         49.5718       -0.0242836         142.543
0.621                   -2.71755         160.893         -46.8426         47.8254         -46.8425         47.8256       -0.0245515         142.462
0.622                   -2.82547          159.72         -46.7278          46.064         -46.7278         46.0642       -0.0248234          142.38
0.623                   -2.93931         158.541         -46.6123         44.2869         -46.6123         44.2871       -0.0250992         142.298
0.624                   -3.05938         157.358         -46.4962         42.4937         -46.4962         42.4939       -0.0253791         142.215
0.625                   -3.18598         156.172         -46.3796         40.6839         -46.3796         40.6841        -0.025663         142.133
0.626                   -3.31943         154.984         -46.2628         38.8572         -46.2628         38.8574       -0.0259512          142.05
0.627                   -3.46005         153.797         -46.1458         37.0133         -46.1458         37.0135       -0.0262436         141.966
0.628                   -3.60818         152.614         -46.0288          35.152         -46.0289         35.1522       -0.0265403         141.883
0.629                   -3.76414         151.435         -45.9121         33.2731         -45.9122         33.2734       -0.0268414         141.799
