! TOUCHSTONE file generated by CST MICROWAVE STUDIO
! Date and time: Thu Feb 11 19:31:56 2021
! Project name: Scenario_1_Planar_Body_Tissue_Out_of_Line.cst
! Parameters = {L_HA=400; Ltissue=1000; MT=2.54; Rad_Dielectric=30; Rad_Lower=7.3; Rad_Upper=30; Wtissue=1000; a_HA=580; a_WG=246; b_HA=500; b_WG=121; c_HA=0; c_WG=187; d_feed=85; dx1=346; dy1=-207.6; h_feed=15; h_lower=18; h_upper=40; hfat=3; hgap=25; hmuscle=50; hskin=1.5}
! Header version: 2018
! Port assignment regex: !\s*Touchstone port\s*([0-9]+)\s*=\s*(CST MWS port|CST DS port)\s*([0-9]+|Zmin|Zmax)\s*\(\"(.*)\"\)(\s*mode\s*([0-9]+))?.*
! Touchstone port assignment:
! Touchstone port 1 = CST MWS port 1 ("")
! Touchstone port 2 = CST MWS port 2 ("")
# GHz S DB R 50
0.5                    -0.273116        -121.621         -57.0399         16.7176         -57.0401         16.7171      -0.00825282         151.143
0.501                  -0.274261        -122.009         -57.0068         15.3288         -57.0072         15.3269      -0.00830768         151.078
0.502                   -0.27541          -122.4         -56.9721         13.9259         -56.9728         13.9227      -0.00836322         151.013
0.503                  -0.276563        -122.794         -56.9359          12.509         -56.9369         12.5046      -0.00841943         150.948
0.504                  -0.277722         -123.19         -56.8982         11.0783         -56.8995         11.0725      -0.00847632         150.882
0.505                   -0.27889        -123.589         -56.8589         9.63362         -56.8605         9.62662      -0.00853391         150.817
0.506                  -0.280069        -123.991         -56.8181         8.17524           -56.82         8.16703       -0.0085922         150.752
0.507                   -0.28126        -124.396         -56.7758         6.70321         -56.7779         6.69383       -0.0086512         150.686
0.508                  -0.282467        -124.805         -56.7319         5.21766         -56.7343         5.20716      -0.00871091          150.62
0.509                  -0.283691        -125.216         -56.6864         3.71873         -56.6891         3.70716      -0.00877135         150.555
0.51                   -0.284936         -125.63         -56.6394         2.20659         -56.6424           2.194      -0.00883252         150.489
0.511                  -0.286203        -126.047         -56.5909        0.681418         -56.5941        0.667855      -0.00889443         150.423
0.512                  -0.287495        -126.468         -56.5408       -0.856599         -56.5443       -0.871068      -0.00895708         150.357
0.513                  -0.288816        -126.892         -56.4892        -2.40724         -56.4929        -2.42255       -0.0090205         150.291
0.514                  -0.290168        -127.319         -56.4361        -3.97027         -56.4401        -3.98635      -0.00908468         150.225
0.515                  -0.291554        -127.749         -56.3815        -5.54542         -56.3857        -5.56221      -0.00914964         150.158
0.516                  -0.292977        -128.183         -56.3255        -7.13242         -56.3299        -7.14984      -0.00921538         150.092
0.517                  -0.294441         -128.62          -56.268        -8.73097         -56.2727        -8.74893      -0.00928191         150.026
0.518                  -0.295949        -129.061         -56.2091        -10.3407         -56.2141        -10.3591      -0.00934924         149.959
0.519                  -0.297505        -129.505         -56.1489        -11.9613         -56.1541        -11.9801      -0.00941738         149.893
0.52                   -0.299112        -129.953         -56.0874        -13.5924         -56.0928        -13.6115      -0.00948635         149.826
0.521                  -0.300774        -130.405         -56.0246        -15.2336         -56.0302        -15.2528      -0.00955614         149.759
0.522                  -0.302496         -130.86         -55.9606        -16.8843         -55.9664        -16.9037      -0.00962677         149.692
0.523                  -0.304282        -131.319         -55.8954        -18.5442         -55.9014        -18.5636      -0.00969825         149.625
0.524                  -0.306137        -131.782         -55.8291        -20.2127         -55.8353         -20.232      -0.00977059         149.558
0.525                  -0.308064        -132.249         -55.7618        -21.8894         -55.7681        -21.9084       -0.0098438         149.491
0.526                  -0.310069         -132.72         -55.6935        -23.5735         -55.6999        -23.5922      -0.00991789         149.424
0.527                  -0.312157        -133.195         -55.6242        -25.2645         -55.6309        -25.2828      -0.00999286         149.357
0.528                  -0.314334        -133.674         -55.5542        -26.9617         -55.5609        -26.9796       -0.0100687         149.289
0.529                  -0.316604        -134.157         -55.4833        -28.6645         -55.4902        -28.6817       -0.0101455         149.222
0.53                   -0.318975        -134.644         -55.4117         -30.372         -55.4187        -30.3885       -0.0102232         149.154
0.531                  -0.321452        -135.136         -55.3395        -32.0835         -55.3466        -32.0993       -0.0103019         149.087
0.532                  -0.324042        -135.633         -55.2668        -33.7982         -55.2739         -33.813       -0.0103814         149.019
0.533                  -0.326752        -136.133         -55.1935        -35.5151         -55.2006         -35.529        -0.010462         148.951
0.534                  -0.329588        -136.639         -55.1198        -37.2334         -55.1269        -37.2463       -0.0105435         148.883
0.535                  -0.332559        -137.149         -55.0458        -38.9521         -55.0529        -38.9638       -0.0106259         148.815
0.536                  -0.335672        -137.664         -54.9714        -40.6701         -54.9785        -40.6807       -0.0107094         148.747
0.537                  -0.338935        -138.184         -54.8968        -42.3864         -54.9038        -42.3957       -0.0107938         148.678
0.538                  -0.342359        -138.708         -54.8219        -44.0999         -54.8289         -44.108       -0.0108793          148.61
0.539                  -0.345951        -139.238          -54.747        -45.8095         -54.7538        -45.8162       -0.0109658         148.542
0.54                   -0.349722        -139.773         -54.6718        -47.5139         -54.6786        -47.5193       -0.0110533         148.473
0.541                  -0.353681        -140.313         -54.5966         -49.212         -54.6032        -49.2161       -0.0111419         148.404
0.542                  -0.357841        -140.859         -54.5212        -50.9026         -54.5277        -50.9053       -0.0112315         148.335
0.543                  -0.362212         -141.41         -54.4457        -52.5843          -54.452        -52.5858       -0.0113222         148.267
0.544                  -0.366806        -141.967         -54.3701        -54.2559         -54.3762        -54.2562        -0.011414         148.197
0.545                  -0.371636        -142.529         -54.2944        -55.9163         -54.3002        -55.9153       -0.0115069         148.128
0.546                  -0.376716        -143.098         -54.2184         -57.564         -54.2239         -57.562       -0.0116009         148.059
0.547                   -0.38206        -143.672         -54.1421         -59.198         -54.1474        -59.1949       -0.0116961          147.99
0.548                  -0.387683        -144.252         -54.0655         -60.817         -54.0705         -60.813       -0.0117923          147.92
0.549                  -0.393602        -144.839         -53.9884        -62.4199         -53.9931         -62.415       -0.0118898         147.851
0.55                   -0.399833        -145.432         -53.9107        -64.0055         -53.9151        -63.9999       -0.0119884         147.781
0.551                  -0.406394        -146.032         -53.8323         -65.573         -53.8363        -65.5668       -0.0120881         147.711
0.552                  -0.413305        -146.638          -53.753        -67.1213         -53.7567        -67.1147       -0.0121891         147.641
0.553                  -0.420586        -147.251         -53.6726        -68.6496          -53.676        -68.6427       -0.0122913         147.571
0.554                  -0.428258        -147.871          -53.591        -70.1574         -53.5941        -70.1503       -0.0123947         147.501
0.555                  -0.436344        -148.499          -53.508        -71.6439         -53.5107        -71.6368       -0.0124994         147.431
0.556                  -0.444869        -149.133         -53.4233        -73.1087         -53.4257        -73.1018       -0.0126053          147.36
0.557                  -0.453858        -149.775         -53.3367        -74.5517         -53.3388        -74.5451       -0.0127126          147.29
0.558                   -0.46334        -150.425          -53.248        -75.9727         -53.2498        -75.9665       -0.0128211         147.219
0.559                  -0.473344        -151.083          -53.157        -77.3718         -53.1584        -77.3661       -0.0129309         147.148
0.56                   -0.483901        -151.749         -53.0633        -78.7493         -53.0644        -78.7443       -0.0130421         147.077
0.561                  -0.495044        -152.423         -52.9668        -80.1055         -52.9676        -80.1013       -0.0131546         147.006
0.562                   -0.50681        -153.105         -52.8671        -81.4412         -52.8677        -81.4379       -0.0132685         146.935
0.563                  -0.519237        -153.796         -52.7641        -82.7572         -52.7645        -82.7548       -0.0133838         146.864
0.564                  -0.532365        -154.496         -52.6575        -84.0545         -52.6577        -84.0531       -0.0135005         146.792
0.565                  -0.546237        -155.206         -52.5471        -85.3342         -52.5471        -85.3339       -0.0136186         146.721
0.566                  -0.560902        -155.924         -52.4327        -86.5978         -52.4326        -86.5986       -0.0137382         146.649
0.567                  -0.576409        -156.652         -52.3141        -87.8468         -52.3138        -87.8486       -0.0138593         146.577
0.568                  -0.592811         -157.39          -52.191        -89.0828         -52.1907        -89.0857        -0.013982         146.505
0.569                  -0.610166        -158.138         -52.0634        -90.3076          -52.063        -90.3116       -0.0141061         146.433
0.57                   -0.628536        -158.896         -51.9311        -91.5233         -51.9306        -91.5282       -0.0142319         146.361
0.571                  -0.647986        -159.665          -51.794        -92.7317         -51.7935        -92.7375       -0.0143592         146.288
0.572                  -0.668588        -160.445          -51.652        -93.9351         -51.6515        -93.9417       -0.0144883         146.216
0.573                  -0.690419        -161.236          -51.505        -95.1355         -51.5045        -95.1429       -0.0146189         146.143
0.574                   -0.71356        -162.038         -51.3531        -96.3353         -51.3525        -96.3434       -0.0147514          146.07
0.575                    -0.7381        -162.851          -51.196        -97.5367         -51.1955        -97.5454       -0.0148855         145.997
0.576                  -0.764134        -163.677          -51.034        -98.7421         -51.0336        -98.7511       -0.0150216         145.924
0.577                  -0.791764        -164.515          -50.867        -99.9536         -50.8666        -99.9629       -0.0151594         145.851
0.578                  -0.821101        -165.365          -50.695        -101.174         -50.6947        -101.183       -0.0152992         145.777
0.579                  -0.852265        -166.228         -50.5183        -102.404          -50.518        -102.414        -0.015441         145.704
0.58                   -0.885382        -167.104         -50.3367        -103.648         -50.3365        -103.658       -0.0155849          145.63
0.581                  -0.920592        -167.993         -50.1506        -104.907         -50.1504        -104.916       -0.0157308         145.556
0.582                  -0.958044        -168.895         -49.9599        -106.182         -49.9598        -106.192        -0.015879         145.482
0.583                    -0.9979        -169.811          -49.765        -107.478         -49.7649        -107.487       -0.0160295         145.408
0.584                   -1.04033        -170.741         -49.5658        -108.794         -49.5659        -108.803       -0.0161823         145.333
0.585                   -1.08553        -171.685         -49.3628        -110.134         -49.3629        -110.142       -0.0163376         145.259
0.586                    -1.1337        -172.643          -49.156        -111.499         -49.1561        -111.506       -0.0164956         145.184
0.587                   -1.18505        -173.614         -48.9456         -112.89         -48.9458        -112.898       -0.0166562         145.109
0.588                   -1.23982        -174.601         -48.7319        -114.311         -48.7321        -114.317       -0.0168196         145.034
0.589                   -1.29828        -175.601         -48.5152        -115.761         -48.5155        -115.767        -0.016986         144.958
0.59                    -1.36068        -176.615         -48.2958        -117.244          -48.296        -117.249       -0.0171555         144.883
0.591                   -1.42734        -177.643         -48.0737        -118.759          -48.074        -118.764       -0.0173282         144.807
0.592                   -1.49856        -178.684         -47.8495         -120.31         -47.8497        -120.314       -0.0175042         144.732
0.593                   -1.57469        -179.739         -47.6233        -121.897         -47.6235          -121.9       -0.0176837         144.656
0.594                   -1.65611         179.195         -47.3954        -123.521         -47.3956        -123.523       -0.0178669         144.579
0.595                   -1.74319         178.117         -47.1663        -125.183         -47.1665        -125.186       -0.0180537         144.503
0.596                   -1.83638         177.028         -46.9362        -126.886         -46.9363        -126.887       -0.0182443         144.426
0.597                   -1.93611         175.931         -46.7054        -128.629         -46.7055         -128.63       -0.0184389          144.35
0.598                   -2.04286         174.826         -46.4744        -130.414         -46.4744        -130.414       -0.0186374         144.273
0.599                   -2.15716         173.715         -46.2434        -132.241         -46.2434        -132.241         -0.01884         144.196
0.6                     -2.27952         172.601          -46.013        -134.112         -46.0129        -134.112       -0.0190465         144.119
0.601                   -2.41052         171.487         -45.7834        -136.026         -45.7833        -136.026       -0.0192571         144.041
0.602                   -2.55075         170.375         -45.5551        -137.985          -45.555        -137.984       -0.0194716         143.963
0.603                    -2.7008         169.271         -45.3286        -139.987         -45.3284        -139.986         -0.01969         143.886
0.604                    -2.8613         168.178         -45.1043        -142.035          -45.104        -142.034       -0.0199121         143.808
0.605                   -3.03289         167.102         -44.8826        -144.127         -44.8823        -144.125       -0.0201378         143.729
0.606                   -3.21616          166.05          -44.664        -146.262         -44.6636        -146.261        -0.020367         143.651
0.607                   -3.41173         165.029          -44.449        -148.442         -44.4486         -148.44       -0.0205994         143.572
0.608                   -3.62014         164.048         -44.2381        -150.663         -44.2376        -150.662       -0.0208349         143.493
0.609                   -3.84189         163.116         -44.0316        -152.927         -44.0311        -152.926       -0.0210733         143.414
0.61                    -4.07736         162.245         -43.8302        -155.231         -43.8297        -155.229       -0.0213145         143.335
0.611                   -4.32679         161.447         -43.6342        -157.573         -43.6337        -157.572       -0.0215582         143.256
0.612                   -4.59022         160.739         -43.4442        -159.952         -43.4437        -159.951       -0.0218043         143.176
0.613                   -4.86744         160.134         -43.2606        -162.366           -43.26        -162.365       -0.0220528         143.096
0.614                   -5.15787         159.652         -43.0837        -164.811         -43.0832         -164.81       -0.0223035         143.016
0.615                   -5.46052         159.313          -42.914        -167.285         -42.9135        -167.285       -0.0225563         142.936
0.616                   -5.77383         159.136         -42.7518        -169.786         -42.7513        -169.785       -0.0228113         142.855
0.617                   -6.09556         159.143         -42.5974        -172.309          -42.597        -172.309       -0.0230685         142.775
0.618                   -6.42269         159.356         -42.4512        -174.851         -42.4507        -174.851       -0.0233278         142.694
0.619                   -6.75124         159.796         -42.3132        -177.409         -42.3128        -177.409       -0.0235892         142.613
0.62                    -7.07623          160.48         -42.1837        -179.978         -42.1834        -179.978       -0.0238529         142.531
0.621                   -7.39163          161.42         -42.0628         177.445         -42.0625         177.445        -0.024119         142.449
0.622                   -7.69043         162.623         -41.9505         174.865         -41.9503         174.865       -0.0243874         142.368
0.623                   -7.96488         164.081         -41.8468         172.285         -41.8467         172.285       -0.0246584         142.285
0.624                   -8.20694         165.778         -41.7517          169.71         -41.7516          169.71        -0.024932         142.203
0.625                   -8.40884          167.68         -41.6649         167.143         -41.6649         167.143       -0.0252083          142.12
0.626                   -8.56389         169.742         -41.5864         164.589         -41.5864         164.589       -0.0254874         142.037
0.627                    -8.6672         171.904         -41.5158          162.05         -41.5158         162.051       -0.0257696         141.954
0.628                   -8.71632           174.1         -41.4529         159.531          -41.453         159.531       -0.0260547         141.871
0.629                   -8.71154          176.26         -41.3974         157.034         -41.3975         157.034       -0.0263431         141.787
