! TOUCHSTONE file generated by CST MICROWAVE STUDIO
! Date and time: Mon Nov 30 08:39:15 2020
! Project name: Scenario_1_Planar_Body_Tissue_Out_of_Line.cst
! Parameters = {dy1=-207.6; L_HA=400; Ltissue=700; MT=2.54; Rad_Dielectric=30; Rad_Lower=7.3; Rad_Upper=30; Wtissue=700; a_HA=580; a_WG=246; b_HA=500; b_WG=121; c_HA=0; c_WG=187; d_feed=85; dx1=866; h_feed=15; h_lower=18; h_upper=40; hfat=3; hgap=25; hmuscle=50; hskin=1.5}
! Header version: 2018
! Port assignment regex: !\s*Touchstone port\s*([0-9]+)\s*=\s*(CST MWS port|CST DS port)\s*([0-9]+|Zmin|Zmax)\s*\(\"(.*)\"\)(\s*mode\s*([0-9]+))?.*
! Touchstone port assignment:
! Touchstone port 1 = CST MWS port 1 ("")
! Touchstone port 2 = CST MWS port 2 ("")
# GHz S DB R 50
0.5                    -0.114605        -122.099         -64.3803         97.3254         -64.3804         97.3254      -0.00750535         151.155
0.501                  -0.118806        -122.512          -64.441         95.8641          -64.441         95.8662      -0.00757194          151.09
0.502                   -0.12309        -122.926         -64.5013         94.3693         -64.5013         94.3734       -0.0076392         151.025
0.503                  -0.127457        -123.343         -64.5613         92.8398         -64.5611          92.846      -0.00770714          150.96
0.504                   -0.13191        -123.761         -64.6207         91.2747         -64.6204          91.283      -0.00777577         150.894
0.505                   -0.13645        -124.182         -64.6793         89.6727          -64.679         89.6832      -0.00784509         150.829
0.506                   -0.14108        -124.605         -64.7371         88.0329         -64.7367         88.0456      -0.00791512         150.763
0.507                  -0.145802         -125.03         -64.7938         86.3542         -64.7934          86.369      -0.00798585         150.698
0.508                  -0.150617        -125.458         -64.8493         84.6354         -64.8488         84.6525       -0.0080573         150.632
0.509                  -0.155527        -125.888         -64.9032         82.8755         -64.9027         82.8949      -0.00812947         150.566
0.51                   -0.160536         -126.32         -64.9554         81.0736         -64.9549         81.0953      -0.00820238           150.5
0.511                  -0.165644        -126.754         -65.0057         79.2286         -65.0052         79.2526      -0.00827603         150.435
0.512                  -0.170855        -127.191         -65.0537         77.3397         -65.0532          77.366      -0.00835042         150.369
0.513                  -0.176171        -127.631         -65.0992          75.406         -65.0987         75.4346      -0.00842558         150.302
0.514                  -0.181595        -128.072         -65.1418         73.4268         -65.1414         73.4577       -0.0085015         150.236
0.515                  -0.187129        -128.517         -65.1813         71.4015         -65.1809         71.4346      -0.00857819          150.17
0.516                  -0.192776        -128.963         -65.2173         69.3294          -65.217         69.3649      -0.00865567         150.104
0.517                   -0.19854        -129.413         -65.2493         67.2104         -65.2491          67.248      -0.00873394         150.037
0.518                  -0.204422        -129.864         -65.2771          65.044          -65.277         65.0839      -0.00881302         149.971
0.519                  -0.210426        -130.319         -65.3002         62.8304         -65.3003         62.8724       -0.0088929         149.904
0.52                   -0.216556        -130.776         -65.3183         60.5697         -65.3185         60.6138      -0.00897361         149.838
0.521                  -0.222815        -131.236         -65.3308         58.2624         -65.3312         58.3085      -0.00905514         149.771
0.522                  -0.229206        -131.699         -65.3374         55.9089          -65.338          55.957      -0.00913752         149.704
0.523                  -0.235733        -132.164         -65.3377         53.5104         -65.3385         53.5602      -0.00922075         149.637
0.524                  -0.242401        -132.633         -65.3311         51.0678         -65.3321         51.1194      -0.00930483          149.57
0.525                  -0.249212        -133.104         -65.3174         48.5828         -65.3186         48.6359      -0.00938979         149.503
0.526                  -0.256172        -133.578          -65.296          46.057         -65.2975         46.1115      -0.00947563         149.436
0.527                  -0.263285        -134.055         -65.2666         43.4923         -65.2683         43.5481      -0.00956236         149.368
0.528                  -0.270555        -134.535         -65.2288         40.8913         -65.2308         40.9481      -0.00964999         149.301
0.529                  -0.277987        -135.018         -65.1822         38.2563         -65.1845         38.3141      -0.00973854         149.234
0.53                   -0.285586        -135.504         -65.1266         35.5902         -65.1292         35.6487      -0.00982802         149.166
0.531                  -0.293358        -135.994         -65.0617         32.8961         -65.0646         32.9551      -0.00991843         149.098
0.532                  -0.301307        -136.486         -64.9873         30.1771         -64.9905         30.2365       -0.0100098         149.031
0.533                   -0.30944        -136.982         -64.9032         27.4366         -64.9067         27.4962       -0.0101021         148.963
0.534                  -0.317763        -137.482         -64.8092         24.6782          -64.813         24.7377       -0.0101954         148.895
0.535                  -0.326282        -137.984         -64.7054         21.9054         -64.7095         21.9647       -0.0102897         148.827
0.536                  -0.335003         -138.49         -64.5917         19.1217         -64.5961         19.1806        -0.010385         148.759
0.537                  -0.343934            -139         -64.4682         16.3308         -64.4728          16.389       -0.0104813          148.69
0.538                  -0.353082        -139.513          -64.335          13.536         -64.3398         13.5935       -0.0105786         148.622
0.539                  -0.362454        -140.029         -64.1922         10.7408         -64.1973         10.7973       -0.0106769         148.554
0.54                   -0.372058         -140.55         -64.0401         7.94837         -64.0454         8.00379       -0.0107763         148.485
0.541                  -0.381903        -141.074         -63.8789         5.16167         -63.8844         5.21586       -0.0108768         148.416
0.542                  -0.391998        -141.601          -63.709         2.38347         -63.7146         2.43631       -0.0109783         148.348
0.543                  -0.402351        -142.133         -63.5306       -0.383726         -63.5364       -0.332343        -0.011081         148.279
0.544                  -0.412973        -142.669         -63.3442        -3.13769         -63.3501        -3.08785       -0.0111847          148.21
0.545                  -0.423874        -143.208         -63.1501        -5.87649         -63.1561        -5.82826       -0.0112896         148.141
0.546                  -0.435064        -143.752         -62.9489        -8.59848         -62.9549        -8.55193       -0.0113956         148.071
0.547                  -0.446554        -144.299         -62.7408        -11.3023         -62.7468        -11.2575       -0.0115028         148.002
0.548                  -0.458358        -144.851         -62.5264         -13.987         -62.5324        -13.9439       -0.0116111         147.933
0.549                  -0.470486        -145.408          -62.306        -16.6517         -62.3121        -16.6104       -0.0117206         147.863
0.55                   -0.482953        -145.968         -62.0803        -19.2959         -62.0863        -19.2564       -0.0118314         147.793
0.551                  -0.495773        -146.533         -61.8495        -21.9195         -61.8554        -21.8817       -0.0119433         147.724
0.552                   -0.50896        -147.103         -61.6141        -24.5224           -61.62        -24.4864       -0.0120565         147.654
0.553                  -0.522529        -147.677         -61.3746        -27.1049         -61.3804        -27.0706       -0.0121709         147.584
0.554                  -0.536497        -148.255         -61.1313        -29.6673          -61.137        -29.6346       -0.0122866         147.514
0.555                  -0.550881        -148.839         -60.8847        -32.2102         -60.8903        -32.1793       -0.0124036         147.444
0.556                    -0.5657        -149.427         -60.6351        -34.7344         -60.6406        -34.7051       -0.0125219         147.373
0.557                  -0.580973         -150.02          -60.383        -37.2408         -60.3883        -37.2131       -0.0126415         147.303
0.558                  -0.596721        -150.619         -60.1286        -39.7304         -60.1338        -39.7042       -0.0127625         147.232
0.559                  -0.612964        -151.222         -59.8724        -42.2042         -59.8773        -42.1795       -0.0128848         147.161
0.56                   -0.629726         -151.83         -59.6145        -44.6634         -59.6193        -44.6402       -0.0130085         147.091
0.561                  -0.647031        -152.444         -59.3554        -47.1093           -59.36        -47.0875       -0.0131336          147.02
0.562                  -0.664905        -153.063         -59.0953        -49.5431         -59.0997        -49.5227       -0.0132602         146.949
0.563                  -0.683374        -153.688         -58.8346        -51.9661         -58.8388        -51.9471       -0.0133882         146.877
0.564                  -0.702469        -154.318         -58.5734        -54.3798         -58.5774         -54.362       -0.0135176         146.806
0.565                  -0.722219        -154.953          -58.312        -56.7853         -58.3158        -56.7687       -0.0136486         146.735
0.566                  -0.742657        -155.595         -58.0507         -59.184         -58.0543        -59.1687        -0.013781         146.663
0.567                  -0.763816        -156.242         -57.7898        -61.5774         -57.7931        -61.5632        -0.013915         146.591
0.568                  -0.785735        -156.895         -57.5293        -63.9665         -57.5324        -63.9535       -0.0140505         146.519
0.569                  -0.808452        -157.553         -57.2696        -66.3529         -57.2725         -66.341       -0.0141877         146.447
0.57                   -0.832007        -158.218         -57.0109        -68.7376         -57.0135        -68.7268       -0.0143264         146.375
0.571                  -0.856445        -158.889         -56.7534        -71.1219         -56.7558        -71.1122       -0.0144667         146.303
0.572                  -0.881812        -159.566         -56.4972        -73.5069         -56.4993        -73.4982       -0.0146087          146.23
0.573                  -0.908157         -160.25         -56.2426        -75.8938         -56.2445        -75.8861       -0.0147524         146.158
0.574                  -0.935534        -160.939         -55.9897        -78.2835         -55.9914        -78.2767       -0.0148978         146.085
0.575                  -0.963998        -161.635         -55.7388         -80.677         -55.7403        -80.6712       -0.0150449         146.012
0.576                  -0.993608        -162.337           -55.49        -83.0751         -55.4913        -83.0703       -0.0151937         145.939
0.577                   -1.02443        -163.045         -55.2436        -85.4788         -55.2447         -85.475       -0.0153444         145.866
0.578                   -1.05652         -163.76         -54.9996        -87.8887         -55.0005        -87.8858       -0.0154968         145.793
0.579                   -1.08997        -164.481         -54.7583        -90.3055          -54.759        -90.3035       -0.0156511         145.719
0.58                    -1.12483        -165.208         -54.5199        -92.7298         -54.5204        -92.7287       -0.0158073         145.646
0.581                    -1.1612        -165.941         -54.2845        -95.1619         -54.2849        -95.1617       -0.0159654         145.572
0.582                   -1.19916        -166.681         -54.0523        -97.6023         -54.0525         -97.603       -0.0161253         145.498
0.583                    -1.2388        -167.426         -53.8235        -100.051         -53.8235        -100.053       -0.0162873         145.424
0.584                    -1.2802        -168.178         -53.5982        -102.509          -53.598        -102.511       -0.0164512          145.35
0.585                   -1.32348        -168.935         -53.3766        -104.975         -53.3763        -104.979       -0.0166172         145.275
0.586                   -1.36874        -169.697         -53.1588        -107.451         -53.1583        -107.455       -0.0167852         145.201
0.587                   -1.41609        -170.464          -52.945        -109.934         -52.9444        -109.939       -0.0169553         145.126
0.588                   -1.46565        -171.236         -52.7353        -112.427         -52.7346        -112.432       -0.0171275         145.051
0.589                   -1.51753        -172.012         -52.5299        -114.927         -52.5291        -114.933       -0.0173019         144.976
0.59                    -1.57187        -172.792         -52.3289        -117.435         -52.3279        -117.442       -0.0174784         144.901
0.591                   -1.62879        -173.575         -52.1324         -119.95         -52.1313        -119.958       -0.0176572         144.826
0.592                   -1.68844         -174.36         -51.9404        -122.471         -51.9393         -122.48       -0.0178383          144.75
0.593                   -1.75095        -175.147         -51.7531        -124.999         -51.7519        -125.008       -0.0180216         144.674
0.594                   -1.81646        -175.934         -51.5706        -127.531         -51.5693        -127.541       -0.0182073         144.598
0.595                   -1.88512        -176.721         -51.3929        -130.067         -51.3916        -130.078       -0.0183954         144.522
0.596                   -1.95706        -177.506         -51.2201        -132.607         -51.2187        -132.618       -0.0185858         144.446
0.597                   -2.03243        -178.287         -51.0521        -135.149         -51.0507        -135.161       -0.0187788         144.369
0.598                   -2.11136        -179.064         -50.8891        -137.692         -50.8877        -137.705       -0.0189742         144.293
0.599                   -2.19396        -179.833          -50.731        -140.236         -50.7295        -140.249       -0.0191722         144.216
0.6                     -2.28034         179.406         -50.5778        -142.779         -50.5763        -142.792       -0.0193727         144.139
0.601                   -2.37059         178.657         -50.4294        -145.319          -50.428        -145.333       -0.0195759         144.062
0.602                   -2.46477         177.922         -50.2859        -147.857         -50.2845        -147.872       -0.0197817         143.984
0.603                    -2.5629         177.203         -50.1472        -150.391         -50.1457        -150.406       -0.0199903         143.907
0.604                   -2.66497         176.505         -50.0131         -152.92         -50.0117        -152.935       -0.0202016         143.829
0.605                   -2.77091          175.83         -49.8836        -155.443         -49.8822        -155.458       -0.0204158         143.751
0.606                   -2.88057         175.182         -49.7585        -157.959         -49.7572        -157.974       -0.0206328         143.673
0.607                   -2.99376         174.565         -49.6379        -160.466         -49.6366        -160.481       -0.0208527         143.594
0.608                   -3.11016         173.984         -49.5214        -162.965         -49.5201         -162.98       -0.0210755         143.516
0.609                   -3.22937         173.441          -49.409        -165.454         -49.4078        -165.469       -0.0213014         143.437
0.61                    -3.35086         172.942         -49.3005        -167.932         -49.2994        -167.947       -0.0215304         143.358
0.611                   -3.47399          172.49         -49.1958        -170.399         -49.1947        -170.414       -0.0217624         143.279
0.612                   -3.59796         172.089         -49.0947        -172.854         -49.0936        -172.869       -0.0219976         143.199
0.613                   -3.72184         171.743         -48.9969        -175.297         -48.9959        -175.312       -0.0222361         143.119
0.614                   -3.84454         171.454         -48.9024        -177.727         -48.9014        -177.742       -0.0224778         143.039
0.615                   -3.96485         171.223         -48.8109         179.857           -48.81         179.842       -0.0227229         142.959
0.616                   -4.08144         171.051         -48.7222         177.454         -48.7213          177.44       -0.0229714         142.879
0.617                   -4.19289         170.936         -48.6361         175.065         -48.6354         175.051       -0.0232233         142.798
0.618                   -4.29772         170.877         -48.5525          172.69         -48.5518         172.677       -0.0234788         142.718
0.619                   -4.39447         170.869         -48.4712         170.329         -48.4705         170.317       -0.0237378         142.636
0.62                    -4.48174         170.904         -48.3919         167.983         -48.3913         167.971       -0.0240005         142.555
0.621                   -4.55828         170.976         -48.3145         165.651         -48.3139         165.639       -0.0242669         142.474
0.622                     -4.623         171.073         -48.2387         163.333         -48.2383         163.321        -0.024537         142.392
0.623                   -4.67512         171.185         -48.1645         161.028         -48.1641         161.017       -0.0248111          142.31
0.624                   -4.71415         171.298         -48.0916         158.737         -48.0912         158.727        -0.025089         142.227
0.625                   -4.73995         171.401         -48.0198          156.46         -48.0195          156.45       -0.0253709         142.145
0.626                   -4.75274         171.479          -47.949         154.195         -47.9487         154.186       -0.0256568         142.062
0.627                   -4.75308          171.52         -47.8791         151.943         -47.8788         151.935       -0.0259469         141.979
0.628                   -4.74185         171.514         -47.8097         149.704         -47.8096         149.696       -0.0262411         141.896
0.629                   -4.72018         171.449          -47.741         147.475         -47.7408         147.468       -0.0265396         141.812
