! TOUCHSTONE file generated by CST MICROWAVE STUDIO
! Date and time: Tue Nov 17 07:11:02 2020
! Project name: Scenario_1_Planar_Body_Tissue_Out_of_Line.cst
! Header version: 2018
! Port assignment regex: !\s*Touchstone port\s*([0-9]+)\s*=\s*(CST MWS port|CST DS port)\s*([0-9]+|Zmin|Zmax)\s*\(\"(.*)\"\)(\s*mode\s*([0-9]+))?.*
! Touchstone port assignment:
! Touchstone port 1 = CST MWS port 1 ("")
! Touchstone port 2 = CST MWS port 2 ("")
# GHz S DB R 50
0.5                    -0.150196         -121.66         -64.9052        -23.0065         -64.9048        -23.0056       -0.0076282         151.154
0.501                  -0.152417        -122.089         -64.8177        -25.2838         -64.8171        -25.2901      -0.00769164         151.089
0.502                  -0.154722        -122.521          -64.734        -27.5175         -64.7334        -27.5282      -0.00775571         151.024
0.503                   -0.15712        -122.956          -64.653        -29.7071         -64.6525        -29.7194      -0.00782042         150.958
0.504                  -0.159617        -123.394         -64.5738        -31.8527         -64.5734        -31.8642      -0.00788578         150.893
0.505                  -0.162221        -123.836         -64.4954         -33.955          -64.495        -33.9637       -0.0079518         150.828
0.506                  -0.164939        -124.281         -64.4168        -36.0153         -64.4165        -36.0197      -0.00801849         150.762
0.507                   -0.16778         -124.73         -64.3374        -38.0354          -64.337        -38.0341      -0.00808585         150.696
0.508                  -0.170753        -125.182         -64.2562        -40.0174         -64.2557        -40.0096      -0.00815391         150.631
0.509                  -0.173869        -125.638         -64.1727        -41.9638          -64.172        -41.9488      -0.00822266         150.565
0.51                   -0.177137        -126.097         -64.0863        -43.8771         -64.0852        -43.8547      -0.00829212         150.499
0.511                   -0.18057         -126.56         -63.9963        -45.7603         -63.9948        -45.7304       -0.0083623         150.433
0.512                  -0.184179        -127.027         -63.9024        -47.6161         -63.9003        -47.5788      -0.00843322         150.367
0.513                   -0.18798        -127.499          -63.804        -49.4477         -63.8013        -49.4032      -0.00850488         150.301
0.514                  -0.191985        -127.974         -63.7009        -51.2579         -63.6974        -51.2068       -0.0085773         150.234
0.515                   -0.19621        -128.453         -63.5926        -53.0499         -63.5884        -52.9926       -0.0086505         150.168
0.516                  -0.200674        -128.936          -63.479        -54.8266          -63.474        -54.7638      -0.00872448         150.102
0.517                  -0.205395        -129.424         -63.3597        -56.5911         -63.3539        -56.5233      -0.00879927         150.035
0.518                  -0.210392        -129.916         -63.2346        -58.3462          -63.228        -58.2742      -0.00887488         149.969
0.519                  -0.215688        -130.413         -63.1035        -60.0949          -63.096        -60.0195      -0.00895133         149.902
0.52                   -0.221307        -130.914         -62.9662        -61.8401         -62.9579         -61.762      -0.00902864         149.835
0.521                  -0.227275         -131.42         -62.8227        -63.5846         -62.8136        -63.5045      -0.00910683         149.768
0.522                  -0.233619        -131.931         -62.6727        -65.3312         -62.6629        -65.2499      -0.00918592         149.702
0.523                  -0.240372        -132.446         -62.5163        -67.0828         -62.5057        -67.0009      -0.00926593         149.635
0.524                  -0.247567        -132.967         -62.3534        -68.8421         -62.3421        -68.7602       -0.0093469         149.567
0.525                   -0.25524        -133.493          -62.184        -70.6118          -62.172        -70.5306      -0.00942884           149.5
0.526                  -0.263432        -134.023         -62.0079        -72.3947         -61.9955        -72.3148      -0.00951179         149.433
0.527                  -0.272186        -134.559         -61.8253        -74.1936         -61.8124        -74.1154      -0.00959578         149.366
0.528                  -0.281551        -135.101         -61.6362        -76.0112         -61.6228        -75.9353      -0.00968085         149.298
0.529                  -0.291577        -135.647         -61.4405        -77.8503         -61.4268        -77.7771      -0.00976702         149.231
0.53                   -0.302323        -136.199         -61.2384        -79.7138         -61.2243        -79.6437      -0.00985436         149.163
0.531                  -0.313849        -136.757         -61.0299        -81.6046         -61.0156        -81.5378      -0.00994289         149.095
0.532                  -0.326222         -137.32         -60.8151        -83.5254         -60.8007        -83.4624       -0.0100327         149.027
0.533                  -0.339516        -137.888         -60.5941        -85.4795         -60.5796        -85.4204       -0.0101237         148.959
0.534                   -0.35381        -138.461         -60.3671        -87.4697         -60.3526        -87.4147       -0.0102162         148.891
0.535                  -0.369188         -139.04         -60.1342        -89.4992         -60.1198        -89.4486         -0.01031         148.823
0.536                  -0.385742        -139.624         -59.8957        -91.5713         -59.8814         -91.525       -0.0104054         148.755
0.537                   -0.40357        -140.212         -59.6517        -93.6891         -59.6376        -93.6473       -0.0105023         148.686
0.538                  -0.422777        -140.805         -59.4026         -95.856         -59.3888        -95.8186       -0.0106008         148.618
0.539                  -0.443473        -141.402         -59.1487        -98.0755         -59.1352        -98.0425       -0.0107011         148.549
0.54                   -0.465772        -142.003         -58.8903        -100.351         -58.8772        -100.322       -0.0108031         148.481
0.541                  -0.489795        -142.606          -58.628        -102.686         -58.6153        -102.661        -0.010907         148.412
0.542                  -0.515662        -143.212         -58.3621        -105.083         -58.3499        -105.063       -0.0110129         148.343
0.543                  -0.543494        -143.819         -58.0932        -107.547         -58.0816        -107.531       -0.0111208         148.274
0.544                  -0.573408        -144.426          -57.822         -110.08          -57.811        -110.068       -0.0112308         148.205
0.545                  -0.605511        -145.031         -57.5492        -112.687         -57.5388        -112.677       -0.0113431         148.136
0.546                  -0.639896        -145.634         -57.2755        -115.369         -57.2657        -115.363       -0.0114576         148.066
0.547                  -0.676636        -146.232         -57.0018        -118.129         -56.9928        -118.126       -0.0115744         147.997
0.548                  -0.715769        -146.824         -56.7292         -120.97         -56.7209         -120.97       -0.0116935         147.927
0.549                  -0.757297        -147.406         -56.4587        -123.894          -56.451        -123.895       -0.0118149         147.858
0.55                   -0.801163        -147.977         -56.1913        -126.901         -56.1844        -126.904       -0.0119387         147.788
0.551                  -0.847247        -148.534         -55.9285        -129.992         -55.9222        -129.997       -0.0120646         147.718
0.552                   -0.89535        -149.074         -55.6713        -133.166         -55.6658        -133.172       -0.0121927         147.648
0.553                  -0.945179        -149.594         -55.4212        -136.422         -55.4164        -136.429       -0.0123228         147.578
0.554                  -0.996341        -150.092         -55.1795        -139.757         -55.1754        -139.765       -0.0124547         147.508
0.555                   -1.04834        -150.564         -54.9477        -143.168         -54.9441        -143.175       -0.0125882         147.438
0.556                   -1.10055        -151.009          -54.727        -146.647          -54.724        -146.654       -0.0127231         147.367
0.557                    -1.1523        -151.427         -54.5187         -150.19         -54.5163        -150.197       -0.0128591         147.297
0.558                   -1.20278        -151.815         -54.3239        -153.788          -54.322        -153.794        -0.012996         147.226
0.559                   -1.25117        -152.176         -54.1438        -157.432         -54.1423        -157.437       -0.0131335         147.156
0.56                    -1.29665         -152.51          -53.979        -161.112         -53.9779        -161.115       -0.0132714         147.085
0.561                   -1.33841        -152.821         -53.8302        -164.816         -53.8295        -164.818       -0.0134096         147.014
0.562                   -1.37576        -153.114         -53.6978        -168.533         -53.6973        -168.534       -0.0135478         146.943
0.563                   -1.40813        -153.392         -53.5819        -172.251         -53.5816        -172.251        -0.013686         146.871
0.564                   -1.43511        -153.663         -53.4822        -175.958         -53.4821        -175.957       -0.0138241           146.8
0.565                   -1.45652        -153.933         -53.3985        -179.643         -53.3984        -179.641       -0.0139621         146.729
0.566                   -1.47237        -154.207           -53.33         176.705           -53.33         176.708          -0.0141         146.657
0.567                   -1.48286        -154.493         -53.2758         173.096         -53.2759           173.1       -0.0142379         146.585
0.568                   -1.48835        -154.795          -53.235         169.539         -53.2351         169.543       -0.0143759         146.514
0.569                   -1.48936        -155.119         -53.2064          166.04         -53.2065         166.045       -0.0145141         146.442
0.57                     -1.4865        -155.469         -53.1887         162.608         -53.1888         162.612       -0.0146526         146.369
0.571                   -1.48042        -155.846         -53.1807         159.245         -53.1807         159.249       -0.0147917         146.297
0.572                   -1.47181        -156.254         -53.1809         155.955         -53.1809          155.96       -0.0149313         146.225
0.573                   -1.46132        -156.693         -53.1881         152.741          -53.188         152.746       -0.0150718         146.152
0.574                   -1.44958        -157.163         -53.2009         149.604         -53.2008         149.608       -0.0152132         146.079
0.575                   -1.43717        -157.665         -53.2182         146.544         -53.2181         146.548       -0.0153556         146.007
0.576                    -1.4246        -158.197         -53.2388         143.561         -53.2387         143.564       -0.0154992         145.934
0.577                   -1.41231        -158.759         -53.2616         140.652         -53.2615         140.654       -0.0156442          145.86
0.578                    -1.4007        -159.349         -53.2857         137.816         -53.2855         137.817       -0.0157906         145.787
0.579                   -1.39008        -159.965         -53.3101          135.05         -53.3099         135.051       -0.0159385         145.714
0.58                    -1.38073        -160.608          -53.334         132.351         -53.3339         132.352       -0.0160881          145.64
0.581                   -1.37287        -161.274         -53.3568         129.717         -53.3567         129.717       -0.0162393         145.566
0.582                   -1.36667        -161.963         -53.3778         127.144         -53.3776         127.144       -0.0163924         145.492
0.583                   -1.36228        -162.673         -53.3964         124.629         -53.3963         124.628       -0.0165474         145.418
0.584                   -1.35983        -163.403         -53.4121         122.167         -53.4121         122.166       -0.0167043         145.344
0.585                   -1.35942        -164.152         -53.4246         119.756         -53.4246         119.754       -0.0168632         145.269
0.586                   -1.36113        -164.919         -53.4335         117.392         -53.4335          117.39       -0.0170242         145.195
0.587                   -1.36502        -165.703         -53.4384         115.072         -53.4384          115.07       -0.0171874          145.12
0.588                   -1.37118        -166.504         -53.4391         112.792         -53.4392          112.79       -0.0173527         145.045
0.589                   -1.37964         -167.32         -53.4355         110.549         -53.4356         110.547       -0.0175202          144.97
0.59                    -1.39048        -168.151         -53.4273          108.34         -53.4274         108.337       -0.0176901         144.895
0.591                   -1.40375        -168.997         -53.4143         106.162         -53.4145         106.159       -0.0178623         144.819
0.592                    -1.4195        -169.856         -53.3965         104.011         -53.3968         104.008       -0.0180368         144.744
0.593                   -1.43781        -170.729         -53.3739         101.885         -53.3741         101.882       -0.0182138         144.668
0.594                   -1.45875        -171.615         -53.3463         99.7809         -53.3465          99.778       -0.0183933         144.592
0.595                   -1.48238        -172.514         -53.3136         97.6961         -53.3139         97.6934       -0.0185754         144.515
0.596                   -1.50879        -173.425          -53.276         95.6281         -53.2763         95.6254       -0.0187599         144.439
0.597                   -1.53807        -174.348         -53.2334         93.5741         -53.2337         93.5717       -0.0189472         144.363
0.598                   -1.57032        -175.282         -53.1858         91.5319         -53.1861         91.5296       -0.0191371         144.286
0.599                   -1.60564        -176.229         -53.1332         89.4991         -53.1336         89.4969       -0.0193297         144.209
0.6                     -1.64416        -177.186         -53.0758         87.4733         -53.0761         87.4713       -0.0195251         144.132
0.601                     -1.686        -178.153         -53.0135         85.4524         -53.0138         85.4506       -0.0197233         144.054
0.602                   -1.73129        -179.131         -52.9465         83.4342         -52.9468         83.4326       -0.0199243         143.977
0.603                   -1.78019         179.882         -52.8748         81.4167         -52.8751         81.4153       -0.0201283         143.899
0.604                   -1.83284         178.885         -52.7986         79.3978         -52.7988         79.3967       -0.0203353         143.821
0.605                   -1.88943         177.881         -52.7179         77.3757         -52.7181         77.3747       -0.0205454         143.743
0.606                   -1.95011         176.868         -52.6328         75.3484         -52.6331         75.3477       -0.0207585         143.665
0.607                   -2.01509         175.849         -52.5436         73.3142         -52.5439         73.3136       -0.0209747         143.586
0.608                   -2.08455         174.824         -52.4504         71.2712         -52.4506         71.2708       -0.0211942         143.507
0.609                   -2.15869         173.794         -52.3533         69.2178         -52.3535         69.2175        -0.021417         143.429
0.61                    -2.23773         172.761         -52.2524         67.1524         -52.2526         67.1522       -0.0216431         143.349
0.611                   -2.32187         171.726         -52.1481         65.0734         -52.1483         65.0733       -0.0218726          143.27
0.612                   -2.41133         170.691         -52.0405         62.9792         -52.0406         62.9793       -0.0221055          143.19
0.613                   -2.50633         169.657         -51.9297         60.8685         -51.9298         60.8687        -0.022342         143.111
0.614                   -2.60708         168.628         -51.8161         58.7401         -51.8162         58.7403       -0.0225821          143.03
0.615                   -2.71377         167.604         -51.6999         56.5925         -51.6999         56.5928       -0.0228259          142.95
0.616                   -2.82661          166.59         -51.5812         54.4247         -51.5813         54.4251       -0.0230734          142.87
0.617                   -2.94576         165.588         -51.4605         52.2358         -51.4605         52.2362       -0.0233247         142.789
0.618                   -3.07137         164.601         -51.3379         50.0246         -51.3379         50.0251       -0.0235798         142.708
0.619                   -3.20357         163.633         -51.2137         47.7906         -51.2138          47.791       -0.0238389         142.627
0.62                    -3.34242         162.688         -51.0883          45.533         -51.0884         45.5334        -0.024102         142.545
0.621                   -3.48794         161.771          -50.962         43.2513          -50.962         43.2518       -0.0243692         142.464
0.622                    -3.6401         160.886          -50.835         40.9452          -50.835         40.9457       -0.0246405         142.382
0.623                   -3.79877         160.038         -50.7077         38.6146         -50.7077         38.6151        -0.024916         142.299
0.624                   -3.96375         159.234         -50.5804         36.2594         -50.5804         36.2599       -0.0251957         142.217
0.625                   -4.13472         158.477         -50.4534         33.8798         -50.4535         33.8803       -0.0254798         142.134
0.626                   -4.31123         157.776         -50.3272         31.4763         -50.3272         31.4768       -0.0257682         142.051
0.627                   -4.49273         157.135         -50.2019         29.0494         -50.2019         29.0499       -0.0260611         141.968
0.628                   -4.67846          156.56         -50.0779         26.5999         -50.0779         26.6004       -0.0263584         141.884
0.629                   -4.86755         156.057         -49.9555         24.1288         -49.9556         24.1293       -0.0266602         141.801
0.63                    -5.05891         155.631         -49.8351         21.6373         -49.8351         21.6379       -0.0269666         141.717
0.631                   -5.25129         155.288         -49.7168         19.1268         -49.7168         19.1274       -0.0272777         141.632
