! TOUCHSTONE file generated by CST MICROWAVE STUDIO
! Date and time: Sat Oct 24 11:12:19 2020
! Project name: Scenario_1_Circular_Tissue_in_Line.cst
! Parameters = {L_HA=400; MT=2.54; Rad_Dielectric=30; Rad_Lower=7.3; Rad_Upper=30; a_HA=580; a_WG=246; b_HA=500; b_WG=121; c_HA=0; c_WG=187; d_feed=85; dx1=328.88; h_feed=15; h_lower=18; h_upper=40}
! Header version: 2018
! Port assignment regex: !\s*Touchstone port\s*([0-9]+)\s*=\s*(CST MWS port|CST DS port)\s*([0-9]+|Zmin|Zmax)\s*\(\"(.*)\"\)(\s*mode\s*([0-9]+))?.*
! Touchstone port assignment:
! Touchstone port 1 = CST MWS port 1 ("")
! Touchstone port 2 = CST MWS port 2 ("")
# GHz S DB R 50
0.5                    -0.182625         -122.34         -57.7993         44.5266         -57.7993         44.5266       -0.0077256         151.142
0.501                  -0.193995        -122.765         -57.7147         43.3964         -57.7148         43.3965      -0.00779771         151.077
0.502                  -0.205328        -123.191         -57.6289         42.2583          -57.629         42.2584      -0.00786997         151.012
0.503                  -0.216624        -123.618         -57.5419         41.1121          -57.542         41.1123      -0.00794239         150.946
0.504                  -0.227879        -124.046         -57.4536         39.9578         -57.4538         39.9581      -0.00801498         150.881
0.505                  -0.239092        -124.475          -57.364         38.7955         -57.3642         38.7958      -0.00808775         150.816
0.506                  -0.250262        -124.906         -57.2731         37.6251         -57.2734         37.6254       -0.0081607          150.75
0.507                  -0.261386        -125.337         -57.1809         36.4466         -57.1812          36.447      -0.00823386         150.685
0.508                  -0.272463        -125.769         -57.0874         35.2601         -57.0877         35.2605      -0.00830721         150.619
0.509                  -0.283491        -126.203         -56.9925         34.0655         -56.9929         34.0659      -0.00838078         150.554
0.51                   -0.294469        -126.638         -56.8963         32.8627         -56.8967         32.8631      -0.00845457         150.488
0.511                  -0.305397        -127.075         -56.7987         31.6519         -56.7992         31.6523       -0.0085286         150.422
0.512                  -0.316273        -127.512         -56.6998         30.4329         -56.7003         30.4334      -0.00860287         150.356
0.513                  -0.327096        -127.952         -56.5994         29.2059            -56.6         29.2063      -0.00867739          150.29
0.514                  -0.337865        -128.393         -56.4977         27.9707         -56.4983         27.9711      -0.00875217         150.224
0.515                   -0.34858        -128.835         -56.3946         26.7274         -56.3952         26.7278      -0.00882722         150.158
0.516                  -0.359241         -129.28           -56.29          25.476         -56.2907         25.4764      -0.00890256         150.091
0.517                  -0.369848        -129.726         -56.1841         24.2165         -56.1848         24.2169      -0.00897819         150.025
0.518                    -0.3804        -130.174         -56.0767         22.9489         -56.0774         22.9492      -0.00905412         149.959
0.519                  -0.390899        -130.624         -55.9678         21.6731         -55.9687         21.6734      -0.00913037         149.892
0.52                   -0.401344        -131.075         -55.8576         20.3892         -55.8584         20.3894      -0.00920694         149.826
0.521                  -0.411737        -131.529         -55.7458         19.0972         -55.7467         19.0973      -0.00928385         149.759
0.522                  -0.422078        -131.985         -55.6326          17.797         -55.6335         17.7971      -0.00936111         149.692
0.523                   -0.43237        -132.444          -55.518         16.4887         -55.5189         16.4887      -0.00943874         149.625
0.524                  -0.442613        -132.904         -55.4018         15.1722         -55.4028         15.1722      -0.00951673         149.558
0.525                   -0.45281        -133.367         -55.2842         13.8476         -55.2853         13.8475      -0.00959511         149.491
0.526                  -0.462964        -133.833         -55.1652         12.5148         -55.1662         12.5146      -0.00967389         149.424
0.527                  -0.473077        -134.301         -55.0446         11.1738         -55.0457         11.1735      -0.00975308         149.357
0.528                  -0.483153        -134.772         -54.9226          9.8246         -54.9237         9.82429      -0.00983269          149.29
0.529                  -0.493195        -135.245         -54.7991         8.46723         -54.8003         8.46683      -0.00991274         149.222
0.53                   -0.503207        -135.722         -54.6742         7.10164         -54.6753         7.10114      -0.00999324         149.155
0.531                  -0.513194        -136.201         -54.5477         5.72782         -54.5489         5.72722       -0.0100742         149.087
0.532                  -0.523161        -136.684         -54.4198         4.34574         -54.4211         4.34504       -0.0101557         149.019
0.533                  -0.533114        -137.169         -54.2904         2.95539         -54.2917         2.95459       -0.0102376         148.951
0.534                  -0.543059        -137.658         -54.1596         1.55675         -54.1609         1.55583       -0.0103201         148.884
0.535                  -0.553004         -138.15         -54.0273        0.149788         -54.0286        0.148756        -0.010403         148.816
0.536                  -0.562955        -138.646         -53.8936        -1.26552         -53.8949        -1.26667       -0.0104866         148.747
0.537                   -0.57292        -139.146         -53.7584        -2.68921         -53.7598        -2.69047       -0.0105706         148.679
0.538                   -0.58291        -139.649         -53.6218         -4.1213         -53.6232        -4.12268       -0.0106553         148.611
0.539                  -0.592934        -140.156         -53.4838        -5.56183         -53.4852        -5.56334       -0.0107405         148.543
0.54                   -0.603002        -140.667         -53.3444        -7.01083         -53.3458        -7.01247       -0.0108264         148.474
0.541                  -0.613126        -141.182         -53.2035        -8.46836         -53.2049        -8.47011       -0.0109128         148.405
0.542                  -0.623319        -141.701         -53.0613        -9.93443         -53.0627        -9.93631           -0.011         148.337
0.543                  -0.633594        -142.225         -52.9177        -11.4091         -52.9192        -11.4111       -0.0110877         148.268
0.544                  -0.643966        -142.753         -52.7728        -12.8924         -52.7742        -12.8946       -0.0111762         148.199
0.545                  -0.654451        -143.286         -52.6265        -14.3844          -52.628        -14.3867       -0.0112654          148.13
0.546                  -0.665065        -143.823          -52.479        -15.8852         -52.4804        -15.8875       -0.0113553         148.061
0.547                  -0.675826        -144.366         -52.3301        -17.3947         -52.3315        -17.3972       -0.0114459         147.991
0.548                  -0.686755        -144.913         -52.1799        -18.9131         -52.1814        -18.9157       -0.0115373         147.922
0.549                  -0.697871        -145.465         -52.0285        -20.4403         -52.0299        -20.4431       -0.0116295         147.852
0.55                   -0.709198        -146.023         -51.8759        -21.9765         -51.8773        -21.9794       -0.0117225         147.783
0.551                  -0.720759        -146.586          -51.722        -23.5217         -51.7234        -23.5247       -0.0118163         147.713
0.552                  -0.732579        -147.155          -51.567         -25.076         -51.5684        -25.0791       -0.0119109         147.643
0.553                  -0.744686        -147.729         -51.4108        -26.6394         -51.4122        -26.6425       -0.0120065         147.573
0.554                  -0.757109        -148.309         -51.2535        -28.2119         -51.2549        -28.2152        -0.012103         147.503
0.555                  -0.769877        -148.895         -51.0951        -29.7936         -51.0964         -29.797       -0.0122003         147.433
0.556                  -0.783025        -149.486         -50.9356        -31.3847         -50.9369        -31.3881       -0.0122987         147.363
0.557                  -0.796586        -150.084         -50.7751         -32.985         -50.7764        -32.9885        -0.012398         147.292
0.558                  -0.810597        -150.689         -50.6136        -34.5947         -50.6149        -34.5983       -0.0124984         147.222
0.559                  -0.825096        -151.299         -50.4512        -36.2138         -50.4524        -36.2174       -0.0125997         147.151
0.56                   -0.840125        -151.916         -50.2878        -37.8423          -50.289         -37.846       -0.0127022          147.08
0.561                  -0.855726         -152.54         -50.1235        -39.4803         -50.1247        -39.4841       -0.0128058         147.009
0.562                  -0.871944         -153.17         -49.9584        -41.1279         -49.9595        -41.1316       -0.0129104         146.938
0.563                  -0.888827        -153.807         -49.7925        -42.7849         -49.7936        -42.7887       -0.0130163         146.867
0.564                  -0.906425         -154.45         -49.6258        -44.4515         -49.6269        -44.4552       -0.0131234         146.795
0.565                  -0.924789          -155.1         -49.4584        -46.1276         -49.4594        -46.1314       -0.0132317         146.724
0.566                  -0.943973        -155.757         -49.2903        -47.8132         -49.2913         -47.817       -0.0133412         146.652
0.567                  -0.964035        -156.421         -49.1216        -49.5084         -49.1226        -49.5121       -0.0134521          146.58
0.568                  -0.985031        -157.092         -48.9523         -51.213         -48.9533        -51.2167       -0.0135643         146.508
0.569                   -1.00702        -157.769         -48.7825        -52.9271         -48.7834        -52.9307       -0.0136779         146.436
0.57                    -1.03007        -158.453         -48.6123        -54.6506         -48.6131        -54.6541        -0.013793         146.364
0.571                   -1.05425        -159.143         -48.4416        -56.3834         -48.4423        -56.3867       -0.0139095         146.292
0.572                   -1.07961         -159.84         -48.2705        -58.1253         -48.2712        -58.1286       -0.0140275         146.219
0.573                   -1.10622        -160.544         -48.0992        -59.8764         -48.0998        -59.8795       -0.0141471         146.147
0.574                   -1.13416        -161.253         -47.9276        -61.6365         -47.9281        -61.6394       -0.0142683         146.074
0.575                   -1.16349        -161.969         -47.7557        -63.4053         -47.7563        -63.4081       -0.0143912         146.001
0.576                   -1.19428         -162.69         -47.5838        -65.1828         -47.5843        -65.1854       -0.0145157         145.928
0.577                   -1.22661        -163.416         -47.4118        -66.9688         -47.4122        -66.9711        -0.014642         145.855
0.578                   -1.26053        -164.148         -47.2398        -68.7629         -47.2402        -68.7649       -0.0147701         145.781
0.579                   -1.29612        -164.884         -47.0679         -70.565         -47.0682        -70.5668       -0.0149001         145.708
0.58                    -1.33344        -165.625         -46.8961        -72.3748         -46.8963        -72.3762        -0.015032         145.634
0.581                   -1.37256        -166.369         -46.7245        -74.1919         -46.7247        -74.1931       -0.0151659          145.56
0.582                   -1.41353        -167.117         -46.5532        -76.0161         -46.5533        -76.0169       -0.0153019         145.486
0.583                   -1.45643        -167.868         -46.3823         -77.847         -46.3823        -77.8474       -0.0154399         145.412
0.584                   -1.50129        -168.621         -46.2118        -79.6841         -46.2118        -79.6841       -0.0155801         145.338
0.585                   -1.54816        -169.376         -46.0418         -81.527         -46.0417        -81.5266       -0.0157226         145.263
0.586                    -1.5971        -170.131         -45.8724        -83.3754         -45.8723        -83.3745       -0.0158673         145.189
0.587                   -1.64813        -170.887         -45.7037        -85.2287         -45.7035        -85.2273       -0.0160145         145.114
0.588                   -1.70128        -171.642         -45.5358        -87.0863         -45.5356        -87.0845       -0.0161641         145.039
0.589                   -1.75657        -172.396         -45.3687        -88.9479         -45.3685        -88.9456       -0.0163162         144.963
0.59                    -1.81402        -173.148         -45.2026        -90.8128         -45.2023          -90.81       -0.0164709         144.888
0.591                   -1.87362        -173.897         -45.0375        -92.6804         -45.0372        -92.6771       -0.0166283         144.813
0.592                   -1.93536        -174.643         -44.8736        -94.5502         -44.8733        -94.5464       -0.0167885         144.737
0.593                   -1.99923        -175.383         -44.7109        -96.4217         -44.7106        -96.4173       -0.0169515         144.661
0.594                   -2.06518        -176.119         -44.5496        -98.2941         -44.5493        -98.2892       -0.0171174         144.585
0.595                   -2.13318        -176.847         -44.3898        -100.167         -44.3894        -100.162       -0.0172864         144.509
0.596                   -2.20317        -177.569         -44.2315        -102.039         -44.2311        -102.034       -0.0174585         144.432
0.597                   -2.27507        -178.282         -44.0749        -103.911         -44.0745        -103.905       -0.0176338         144.355
0.598                   -2.34882        -178.987         -43.9201        -105.782         -43.9197        -105.775       -0.0178124         144.279
0.599                    -2.4243        -179.682         -43.7672         -107.65         -43.7668        -107.643       -0.0179944         144.202
0.6                     -2.50143         179.633         -43.6163        -109.516          -43.616        -109.509       -0.0181799         144.124
0.601                   -2.58008          178.96         -43.4675         -111.38         -43.4672        -111.372       -0.0183689         144.047
0.602                   -2.66012         178.298          -43.321         -113.24         -43.3207        -113.231       -0.0185617         143.969
0.603                   -2.74142         177.648         -43.1768        -115.096         -43.1766        -115.087       -0.0187583         143.891
0.604                   -2.82383         177.011          -43.035        -116.948         -43.0348        -116.939       -0.0189587         143.813
0.605                    -2.9072         176.388         -42.8957        -118.796         -42.8956        -118.787       -0.0191631         143.735
0.606                   -2.99138         175.777         -42.7591        -120.639         -42.7591         -120.63       -0.0193716         143.657
0.607                   -3.07619          175.18         -42.6252        -122.478         -42.6252        -122.469       -0.0195843         143.578
0.608                   -3.16147         174.597          -42.494        -124.312         -42.4941        -124.303       -0.0198013         143.499
0.609                   -3.24705         174.027         -42.3656        -126.141         -42.3657        -126.132       -0.0200226          143.42
0.61                    -3.33276          173.47         -42.2401        -127.965         -42.2403        -127.956       -0.0202484         143.341
0.611                   -3.41845         172.927         -42.1175        -129.784         -42.1178        -129.776       -0.0204788         143.262
0.612                   -3.50393         172.397         -41.9979        -131.599         -41.9981         -131.59       -0.0207138         143.182
0.613                   -3.58906          171.88         -41.8811        -133.409         -41.8814          -133.4       -0.0209536         143.102
0.614                   -3.67368         171.375         -41.7673        -135.214         -41.7676        -135.206       -0.0211982         143.022
0.615                   -3.75765         170.881         -41.6564        -137.015         -41.6567        -137.007       -0.0214476         142.941
0.616                   -3.84083         170.398         -41.5483        -138.811         -41.5487        -138.804        -0.021702         142.861
0.617                   -3.92309         169.925          -41.443        -140.604         -41.4434        -140.597       -0.0219614          142.78
0.618                   -4.00432         169.461         -41.3405        -142.393         -41.3409        -142.386       -0.0222259         142.699
0.619                    -4.0844         169.006         -41.2407        -144.178         -41.2411        -144.171       -0.0224955         142.618
0.62                    -4.16326         168.558         -41.1434        -145.959         -41.1438        -145.953       -0.0227703         142.536
0.621                   -4.24081         168.116         -41.0487        -147.737         -41.0491        -147.731       -0.0230503         142.454
0.622                   -4.31698          167.68         -40.9563        -149.511         -40.9568        -149.506       -0.0233355         142.372
0.623                   -4.39173         167.249         -40.8663        -151.282         -40.8667        -151.278       -0.0236259          142.29
0.624                     -4.465         166.821         -40.7784         -153.05         -40.7788        -153.046       -0.0239216         142.208
0.625                   -4.53677         166.395         -40.6926        -154.814          -40.693         -154.81       -0.0242225         142.125
0.626                   -4.60703         165.971         -40.6088        -156.575         -40.6091        -156.572       -0.0245286         142.042
0.627                   -4.67577         165.547         -40.5267        -158.333         -40.5271         -158.33         -0.02484         141.959
0.628                   -4.74301         165.122         -40.4464        -160.087         -40.4468        -160.085       -0.0251565         141.875
0.629                   -4.80876         164.696         -40.3677        -161.838          -40.368        -161.836       -0.0254782         141.792
