! TOUCHSTONE file generated by CST MICROWAVE STUDIO
! Date and time: Sat Oct 24 11:12:26 2020
! Project name: Scenario_1_Circular_Tissue_in_Line.cst
! Parameters = {L_HA=400; MT=2.54; Rad_Dielectric=30; Rad_Lower=7.3; Rad_Upper=30; a_HA=580; a_WG=246; b_HA=500; b_WG=121; c_HA=0; c_WG=187; d_feed=85; dx1=346.2; h_feed=15; h_lower=18; h_upper=40}
! Header version: 2018
! Port assignment regex: !\s*Touchstone port\s*([0-9]+)\s*=\s*(CST MWS port|CST DS port)\s*([0-9]+|Zmin|Zmax)\s*\(\"(.*)\"\)(\s*mode\s*([0-9]+))?.*
! Touchstone port assignment:
! Touchstone port 1 = CST MWS port 1 ("")
! Touchstone port 2 = CST MWS port 2 ("")
# GHz S DB R 50
0.5                    -0.176215        -122.187         -58.2651         33.7333         -58.2651         33.7333      -0.00773622         151.139
0.501                  -0.181462         -122.61         -58.1122         32.1608         -58.1122         32.1608      -0.00780679         151.074
0.502                  -0.186761        -123.034         -57.9617         30.5946         -57.9617         30.5946      -0.00787758         151.009
0.503                  -0.192115        -123.461         -57.8133         29.0352         -57.8133         29.0352      -0.00794861         150.943
0.504                  -0.197526         -123.89         -57.6671         27.4827         -57.6671         27.4827      -0.00801987         150.878
0.505                  -0.202998        -124.322         -57.5227         25.9373         -57.5227         25.9373      -0.00809136         150.813
0.506                  -0.208534        -124.755         -57.3801         24.3992         -57.3801         24.3992      -0.00816309         150.747
0.507                  -0.214138        -125.191         -57.2391         22.8684         -57.2391         22.8684      -0.00823506         150.682
0.508                  -0.219811         -125.63         -57.0996          21.345         -57.0996          21.345      -0.00830727         150.616
0.509                   -0.22556         -126.07         -56.9615          19.829         -56.9615          19.829      -0.00837973         150.551
0.51                   -0.231386        -126.514         -56.8246         18.3204         -56.8246         18.3205      -0.00845244         150.485
0.511                  -0.237295        -126.959         -56.6889         16.8192         -56.6889         16.8192      -0.00852541         150.419
0.512                   -0.24329        -127.407         -56.5541         15.3252         -56.5541         15.3252      -0.00859862         150.353
0.513                  -0.249375        -127.858         -56.4203         13.8384         -56.4202         13.8384       -0.0086721         150.287
0.514                  -0.255557        -128.312         -56.2872         12.3586         -56.2872         12.3586      -0.00874585         150.221
0.515                  -0.261838        -128.768         -56.1548         10.8857         -56.1548         10.8857      -0.00881986         150.155
0.516                  -0.268225        -129.226          -56.023         9.41952          -56.023         9.41955      -0.00889414         150.089
0.517                  -0.274722        -129.688         -55.8917         7.95987         -55.8917         7.95989       -0.0089687         150.022
0.518                  -0.281336        -130.152         -55.7608         6.50653         -55.7608         6.50656      -0.00904354         149.956
0.519                  -0.288071        -130.619         -55.6302          5.0593         -55.6302         5.05932      -0.00911867          149.89
0.52                   -0.294934        -131.089         -55.4998         3.61793         -55.4998         3.61796      -0.00919409         149.823
0.521                  -0.301931        -131.562         -55.3696          2.1822         -55.3696         2.18222      -0.00926981         149.756
0.522                  -0.309069        -132.038         -55.2395        0.751831         -55.2395         0.75185      -0.00934583          149.69
0.523                  -0.316354        -132.517         -55.1094       -0.673428         -55.1094        -0.67341      -0.00942215         149.623
0.524                  -0.323794        -132.999         -54.9792        -2.09385         -54.9792        -2.09384      -0.00949879         149.556
0.525                  -0.331396        -133.484          -54.849        -3.50972          -54.849        -3.50971      -0.00957575         149.489
0.526                  -0.339168        -133.972         -54.7185        -4.92133         -54.7185        -4.92131      -0.00965304         149.422
0.527                  -0.347118        -134.464         -54.5879        -6.32895         -54.5879        -6.32894      -0.00973066         149.355
0.528                  -0.355254        -134.959         -54.4569        -7.73291         -54.4569         -7.7329      -0.00980862         149.287
0.529                  -0.363586        -135.457         -54.3256        -9.13349         -54.3256        -9.13348      -0.00988693          149.22
0.53                   -0.372123        -135.958          -54.194         -10.531          -54.194         -10.531       -0.0099656         149.153
0.531                  -0.380874        -136.463         -54.0619        -11.9258         -54.0619        -11.9258       -0.0100446         149.085
0.532                  -0.389849        -136.972         -53.9293        -13.3181         -53.9293        -13.3181       -0.0101241         149.017
0.533                   -0.39906        -137.483         -53.7963        -14.7083         -53.7963        -14.7083       -0.0102038          148.95
0.534                  -0.408516        -137.999         -53.6627        -16.0967         -53.6627        -16.0967        -0.010284         148.882
0.535                  -0.418229        -138.518         -53.5285        -17.4836         -53.5285        -17.4836       -0.0103646         148.814
0.536                  -0.428212        -139.041         -53.3937        -18.8693         -53.3937        -18.8693       -0.0104456         148.746
0.537                  -0.438476        -139.567         -53.2583        -20.2542         -53.2583        -20.2542       -0.0105271         148.678
0.538                  -0.449035        -140.097         -53.1222        -21.6386         -53.1222        -21.6386        -0.010609          148.61
0.539                  -0.459902        -140.631         -52.9855        -23.0228         -52.9855        -23.0228       -0.0106913         148.541
0.54                    -0.47109        -141.169          -52.848        -24.4072          -52.848        -24.4072       -0.0107741         148.473
0.541                  -0.482615        -141.711         -52.7098         -25.792         -52.7098         -25.792       -0.0108574         148.404
0.542                  -0.494492        -142.257         -52.5709        -27.1776         -52.5709        -27.1776       -0.0109412         148.336
0.543                  -0.506737        -142.807         -52.4312        -28.5644         -52.4312        -28.5644       -0.0110255         148.267
0.544                  -0.519365         -143.36         -52.2908        -29.9527         -52.2908        -29.9527       -0.0111103         148.198
0.545                  -0.532395        -143.918         -52.1496        -31.3428         -52.1496        -31.3428       -0.0111957         148.129
0.546                  -0.545843         -144.48         -52.0075         -32.735         -52.0075         -32.735       -0.0112817          148.06
0.547                  -0.559728        -145.046         -51.8647        -34.1297         -51.8647        -34.1297       -0.0113682         147.991
0.548                  -0.574069        -145.616         -51.7211        -35.5272         -51.7211        -35.5272       -0.0114554         147.922
0.549                  -0.588887        -146.191         -51.5767        -36.9279         -51.5767        -36.9279       -0.0115432         147.852
0.55                   -0.604201        -146.769         -51.4314        -38.3321         -51.4314        -38.3321       -0.0116317         147.783
0.551                  -0.620033        -147.352         -51.2854        -39.7401         -51.2854        -39.7401       -0.0117208         147.713
0.552                  -0.636405        -147.939         -51.1385        -41.1522         -51.1385        -41.1522       -0.0118107         147.643
0.553                  -0.653341        -148.531         -50.9909        -42.5689         -50.9909        -42.5689       -0.0119013         147.573
0.554                  -0.670862        -149.126         -50.8424        -43.9905         -50.8424        -43.9905       -0.0119926         147.503
0.555                  -0.688994        -149.726         -50.6932        -45.4172         -50.6932        -45.4172       -0.0120848         147.433
0.556                  -0.707763        -150.331         -50.5432        -46.8494         -50.5432        -46.8494       -0.0121778         147.363
0.557                  -0.727193        -150.939         -50.3925        -48.2876         -50.3925        -48.2876       -0.0122717         147.293
0.558                  -0.747312        -151.552          -50.241        -49.7319          -50.241        -49.7319       -0.0123665         147.222
0.559                  -0.768147        -152.169         -50.0888        -51.1828         -50.0888        -51.1828       -0.0124623         147.152
0.56                   -0.789727         -152.79         -49.9359        -52.6405         -49.9359        -52.6405        -0.012559         147.081
0.561                   -0.81208        -153.416         -49.7823        -54.1054         -49.7823        -54.1054       -0.0126568          147.01
0.562                  -0.835236        -154.045         -49.6281        -55.5779         -49.6281        -55.5779       -0.0127557         146.939
0.563                  -0.859225        -154.679         -49.4733        -57.0583         -49.4733        -57.0583       -0.0128557         146.868
0.564                  -0.884078        -155.317         -49.3178        -58.5468         -49.3178        -58.5468       -0.0129569         146.797
0.565                  -0.909827        -155.958         -49.1618        -60.0438         -49.1618        -60.0438       -0.0130594         146.725
0.566                  -0.936503        -156.604         -49.0053        -61.5497         -49.0053        -61.5497       -0.0131631         146.654
0.567                   -0.96414        -157.253         -48.8483        -63.0647         -48.8483        -63.0647       -0.0132682         146.582
0.568                  -0.992769        -157.906         -48.6909        -64.5891         -48.6909        -64.5891       -0.0133748          146.51
0.569                   -1.02242        -158.562         -48.5331        -66.1233         -48.5331        -66.1233       -0.0134828         146.438
0.57                    -1.05314        -159.222         -48.3749        -67.6675         -48.3749        -67.6675       -0.0135924         146.366
0.571                   -1.08494        -159.885         -48.2164         -69.222         -48.2164         -69.222       -0.0137036         146.294
0.572                   -1.11787         -160.55         -48.0576         -70.787         -48.0576         -70.787       -0.0138165         146.222
0.573                   -1.15196        -161.219         -47.8987        -72.3629         -47.8987        -72.3629       -0.0139312         146.149
0.574                   -1.18724        -161.891         -47.7396        -73.9499         -47.7396        -73.9499       -0.0140478         146.076
0.575                   -1.22374        -162.564         -47.5805        -75.5481         -47.5805        -75.5481       -0.0141663         146.004
0.576                   -1.26149         -163.24         -47.4214        -77.1579         -47.4214        -77.1579       -0.0142869         145.931
0.577                   -1.30052        -163.918         -47.2623        -78.7794         -47.2623        -78.7794       -0.0144096         145.858
0.578                   -1.34086        -164.598         -47.1033        -80.4128         -47.1033        -80.4128       -0.0145345         145.784
0.579                   -1.38254        -165.278         -46.9446        -82.0583         -46.9446        -82.0583       -0.0146617         145.711
0.58                    -1.42558         -165.96         -46.7861        -83.7159         -46.7861        -83.7159       -0.0147913         145.637
0.581                   -1.46999        -166.642         -46.6279        -85.3859         -46.6279        -85.3859       -0.0149235         145.564
0.582                   -1.51581        -167.325         -46.4703        -87.0684         -46.4703        -87.0684       -0.0150582          145.49
0.583                   -1.56305        -168.007         -46.3131        -88.7633         -46.3131        -88.7633       -0.0151957         145.416
0.584                   -1.61172        -168.689         -46.1565        -90.4707         -46.1565        -90.4707        -0.015336         145.341
0.585                   -1.66183         -169.37         -46.0006        -92.1907         -46.0006        -92.1907       -0.0154792         145.267
0.586                   -1.71339         -170.05         -45.8455        -93.9232         -45.8455        -93.9232       -0.0156255         145.192
0.587                   -1.76639        -170.727         -45.6912        -95.6681         -45.6912        -95.6681       -0.0157749         145.118
0.588                   -1.82083        -171.403         -45.5379        -97.4254         -45.5379        -97.4254       -0.0159275         145.043
0.589                   -1.87671        -172.075         -45.3857         -99.195         -45.3857         -99.195       -0.0160835         144.968
0.59                      -1.934        -172.744         -45.2346        -100.977         -45.2346        -100.977        -0.016243         144.893
0.591                   -1.99269        -173.409         -45.0847         -102.77         -45.0847         -102.77        -0.016406         144.817
0.592                   -2.05275         -174.07         -44.9361        -104.576         -44.9361        -104.576       -0.0165726         144.742
0.593                   -2.11414        -174.726         -44.7889        -106.392         -44.7889        -106.392        -0.016743         144.666
0.594                   -2.17683        -175.377         -44.6433         -108.22         -44.6433         -108.22       -0.0169173          144.59
0.595                   -2.24075        -176.022         -44.4992        -110.059         -44.4992        -110.059       -0.0170954         144.514
0.596                   -2.30587        -176.661         -44.3568        -111.908         -44.3568        -111.908       -0.0172776         144.437
0.597                    -2.3721        -177.292         -44.2161        -113.766         -44.2161        -113.766       -0.0174639         144.361
0.598                   -2.43938        -177.917         -44.0773        -115.635         -44.0773        -115.635       -0.0176543         144.284
0.599                   -2.50764        -178.534         -43.9404        -117.512         -43.9404        -117.512       -0.0178489         144.207
0.6                     -2.57677        -179.143         -43.8055        -119.397         -43.8055        -119.397       -0.0180478          144.13
0.601                    -2.6467        -179.743         -43.6726        -121.291         -43.6726        -121.291        -0.018251         144.053
0.602                   -2.71731         179.665         -43.5418        -123.192         -43.5418        -123.192       -0.0184586         143.976
0.603                    -2.7885         179.083         -43.4132        -125.099         -43.4132        -125.099       -0.0186706         143.898
0.604                   -2.86017         178.509         -43.2868        -127.012         -43.2868        -127.012        -0.018887         143.821
0.605                   -2.93218         177.944         -43.1627        -128.931         -43.1627        -128.931       -0.0191078         143.743
0.606                   -3.00441         177.389         -43.0408        -130.854         -43.0408        -130.854        -0.019333         143.664
0.607                   -3.07675         176.843         -42.9213        -132.781         -42.9213        -132.781       -0.0195627         143.586
0.608                   -3.14906         176.307         -42.8042         -134.71         -42.8042         -134.71       -0.0197968         143.508
0.609                   -3.22121         175.779         -42.6894        -136.643         -42.6894        -136.643       -0.0200353         143.429
0.61                    -3.29308          175.26          -42.577        -138.576          -42.577        -138.576       -0.0202781          143.35
0.611                   -3.36454         174.749         -42.4669        -140.511         -42.4669        -140.511       -0.0205254         143.271
0.612                   -3.43546         174.247         -42.3593        -142.445         -42.3593        -142.445       -0.0207769         143.191
0.613                   -3.50572         173.752         -42.2539        -144.379         -42.2539        -144.379       -0.0210326         143.112
0.614                   -3.57521         173.263          -42.151        -146.312          -42.151        -146.312       -0.0212925         143.032
0.615                   -3.64382         172.781         -42.0503        -148.242         -42.0503        -148.242       -0.0215566         142.952
0.616                   -3.71144         172.305         -41.9519        -150.169         -41.9519        -150.169       -0.0218248         142.872
0.617                     -3.778         171.833         -41.8557        -152.093         -41.8557        -152.093        -0.022097         142.792
0.618                    -3.8434         171.365         -41.7617        -154.012         -41.7617        -154.012       -0.0223731         142.711
0.619                   -3.90757           170.9         -41.6698        -155.927         -41.6698        -155.927       -0.0226532          142.63
0.62                    -3.97047         170.436         -41.5799        -157.836         -41.5799        -157.836       -0.0229371         142.549
0.621                   -4.03204         169.974         -41.4921        -159.738         -41.4921        -159.738       -0.0232247         142.468
0.622                   -4.09225         169.511         -41.4061        -161.635         -41.4061        -161.635        -0.023516         142.386
0.623                    -4.1511         169.047          -41.322        -163.524          -41.322        -163.524        -0.023811         142.305
0.624                   -4.20856         168.581         -41.2397        -165.405         -41.2397        -165.405       -0.0241096         142.223
0.625                   -4.26466         168.112          -41.159        -167.278          -41.159        -167.278       -0.0244117         142.141
0.626                   -4.31942         167.638           -41.08        -169.143           -41.08        -169.143       -0.0247173         142.058
0.627                   -4.37288         167.158         -41.0024            -171         -41.0024            -171       -0.0250263         141.976
0.628                   -4.42508         166.672         -40.9262        -172.847         -40.9262        -172.847       -0.0253388         141.893
0.629                   -4.47609         166.178         -40.8514        -174.685         -40.8514        -174.685       -0.0256546         141.809
