! TOUCHSTONE file generated by CST MICROWAVE STUDIO
! Date and time: Sat Oct 24 11:12:43 2020
! Project name: Scenario_1_Circular_Tissue_in_Line.cst
! Parameters = {L_HA=400; MT=2.54; Rad_Dielectric=30; Rad_Lower=7.3; Rad_Upper=30; a_HA=580; a_WG=246; b_HA=500; b_WG=121; c_HA=0; c_WG=187; d_feed=85; dx1=380.84; h_feed=15; h_lower=18; h_upper=40}
! Header version: 2018
! Port assignment regex: !\s*Touchstone port\s*([0-9]+)\s*=\s*(CST MWS port|CST DS port)\s*([0-9]+|Zmin|Zmax)\s*\(\"(.*)\"\)(\s*mode\s*([0-9]+))?.*
! Touchstone port assignment:
! Touchstone port 1 = CST MWS port 1 ("")
! Touchstone port 2 = CST MWS port 2 ("")
# GHz S DB R 50
0.5                     -0.15824        -122.236         -59.1506         13.5501         -59.1506         13.5501       -0.0077293         151.124
0.501                  -0.137528        -122.782         -59.0306         12.2978         -59.0306         12.2979      -0.00778045         151.059
0.502                  -0.118053        -123.328         -58.9091          11.042         -58.9091          11.042      -0.00783199         150.994
0.503                  -0.099817        -123.875         -58.7862         9.78266         -58.7862         9.78269      -0.00788394         150.929
0.504                 -0.0828199        -124.423         -58.6618         8.51973         -58.6618         8.51977       -0.0079363         150.863
0.505                 -0.0670608        -124.971          -58.536          7.2532          -58.536         7.25325      -0.00798912         150.798
0.506                  -0.052538        -125.519         -58.4087         5.98303         -58.4087         5.98309      -0.00804239         150.732
0.507                 -0.0392493        -126.068           -58.28         4.70918           -58.28         4.70925      -0.00809615         150.667
0.508                 -0.0271913        -126.617         -58.1499          3.4316         -58.1499         3.43168       -0.0081504         150.601
0.509                 -0.0163601        -127.166         -58.0184         2.15024         -58.0184         2.15032      -0.00820518         150.535
0.51                 -0.00675082        -127.716         -57.8854        0.865039         -57.8855        0.865127       -0.0082605          150.47
0.511               -1.15496e-07        -128.266         -57.7511       -0.424084         -57.7512       -0.423991      -0.00831637         150.404
0.512               -1.13479e-07        -128.817         -57.6155        -1.71723         -57.6155        -1.71713      -0.00837283         150.338
0.513               -1.11081e-07        -129.367         -57.4784        -3.01442         -57.4785        -3.01432      -0.00842989         150.272
0.514               -1.08275e-07        -129.918         -57.3401        -4.31575         -57.3401        -4.31564      -0.00848757         150.206
0.515                -1.0503e-07        -130.469         -57.2003        -5.62131         -57.2004         -5.6212      -0.00854589         150.139
0.516               -1.01318e-07         -131.02         -57.0593        -6.93119         -57.0594        -6.93108      -0.00860487         150.073
0.517               -9.71063e-08        -131.571          -56.917         -8.2455          -56.917        -8.24538      -0.00866455         150.006
0.518               -9.23612e-08        -132.122         -56.7734        -9.56435         -56.7734        -9.56423      -0.00872492          149.94
0.519               -8.70478e-08        -132.673         -56.6285        -10.8878         -56.6285        -10.8877      -0.00878603         149.873
0.52                -8.11292e-08        -133.225         -56.4823        -12.2161         -56.4824         -12.216      -0.00884789         149.807
0.521               -7.45667e-08        -133.776         -56.3349        -13.5493          -56.335        -13.5492      -0.00891053          149.74
0.522               -6.73202e-08        -134.326         -56.1863        -14.8875         -56.1864        -14.8874      -0.00897396         149.673
0.523               -5.93475e-08        -134.877         -56.0365        -16.2309         -56.0365        -16.2308      -0.00903821         149.606
0.524               -5.06049e-08        -135.428         -55.8855        -17.5796         -55.8855        -17.5795      -0.00910331         149.539
0.525                -0.00392434        -135.978         -55.7333        -18.9338         -55.7333        -18.9337      -0.00916928         149.472
0.526                 -0.0126775        -136.528         -55.5799        -20.2937           -55.58        -20.2936      -0.00923614         149.405
0.527                 -0.0224752        -137.078         -55.4255        -21.6594         -55.4255        -21.6593      -0.00930392         149.337
0.528                 -0.0333024        -137.627         -55.2699         -23.031           -55.27        -23.0309      -0.00937264          149.27
0.529                 -0.0451439        -138.177         -55.1133        -24.4088         -55.1133        -24.4087      -0.00944233         149.202
0.53                  -0.0579843        -138.725         -54.9555        -25.7929         -54.9556        -25.7928      -0.00951301         149.135
0.531                 -0.0718075        -139.273         -54.7968        -27.1836         -54.7968        -27.1834      -0.00958471         149.067
0.532                 -0.0865975        -139.821          -54.637        -28.5809          -54.637        -28.5808      -0.00965746         148.999
0.533                  -0.102338        -140.368         -54.4762        -29.9851         -54.4762         -29.985      -0.00973129         148.931
0.534                  -0.119012        -140.915         -54.3144        -31.3964         -54.3145        -31.3963      -0.00980621         148.863
0.535                  -0.136603        -141.461         -54.1517        -32.8151         -54.1518        -32.8149      -0.00988226         148.795
0.536                  -0.155094        -142.007         -53.9881        -34.2412         -53.9882        -34.2411      -0.00995947         148.727
0.537                  -0.174468        -142.551         -53.8236         -35.675         -53.8237        -35.6749       -0.0100379         148.658
0.538                  -0.194707        -143.096         -53.6583        -37.1168         -53.6583        -37.1167       -0.0101175          148.59
0.539                  -0.215794        -143.639         -53.4921        -38.5668         -53.4922        -38.5667       -0.0101983         148.521
0.54                   -0.237712        -144.182         -53.3252        -40.0251         -53.3252         -40.025       -0.0102804         148.452
0.541                  -0.260442        -144.724         -53.1574        -41.4921         -53.1575         -41.492       -0.0103639         148.384
0.542                  -0.283968        -145.266          -52.989        -42.9679          -52.989        -42.9677       -0.0104486         148.315
0.543                   -0.30827        -145.806         -52.8199        -44.4527         -52.8199        -44.4526       -0.0105348         148.246
0.544                  -0.333333        -146.346         -52.6501        -45.9468         -52.6502        -45.9467       -0.0106223         148.177
0.545                  -0.359137        -146.885         -52.4798        -47.4505         -52.4798        -47.4504       -0.0107112         148.107
0.546                  -0.385665        -147.424         -52.3088        -48.9639         -52.3089        -48.9638       -0.0108016         148.038
0.547                  -0.412899        -147.961         -52.1374        -50.4873         -52.1374        -50.4872       -0.0108936         147.969
0.548                  -0.440823        -148.498         -51.9655        -52.0209         -51.9655        -52.0208        -0.010987         147.899
0.549                  -0.469417        -149.034         -51.7931         -53.565         -51.7932        -53.5649        -0.011082         147.829
0.55                   -0.498664         -149.57         -51.6204        -55.1197         -51.6204        -55.1196       -0.0111786         147.759
0.551                  -0.528548        -150.104         -51.4474        -56.6853         -51.4474        -56.6852       -0.0112768          147.69
0.552                  -0.559051        -150.638         -51.2741         -58.262         -51.2741        -58.2619       -0.0113767         147.619
0.553                  -0.590154        -151.171         -51.1006          -59.85         -51.1006          -59.85       -0.0114783         147.549
0.554                  -0.621843        -151.703         -50.9269        -61.4496         -50.9269        -61.4495       -0.0115816         147.479
0.555                  -0.654098        -152.234         -50.7531        -63.0608         -50.7532        -63.0607       -0.0116867         147.409
0.556                  -0.686905        -152.765         -50.5793        -64.6839         -50.5794        -64.6838       -0.0117936         147.338
0.557                  -0.720245        -153.295         -50.4056         -66.319         -50.4056         -66.319       -0.0119024         147.267
0.558                  -0.754103        -153.824         -50.2319        -67.9664          -50.232        -67.9664       -0.0120131         147.197
0.559                  -0.788463        -154.353         -50.0585        -69.6262         -50.0585        -69.6261       -0.0121256         147.126
0.56                   -0.823308        -154.881         -49.8852        -71.2984         -49.8852        -71.2984       -0.0122402         147.055
0.561                  -0.858622        -155.409         -49.7123        -72.9833         -49.7123        -72.9833       -0.0123567         146.984
0.562                  -0.894391        -155.935         -49.5398        -74.6809         -49.5398        -74.6809       -0.0124753         146.912
0.563                  -0.930598        -156.462         -49.3677        -76.3914         -49.3677        -76.3913        -0.012596         146.841
0.564                  -0.967228        -156.987         -49.1962        -78.1146         -49.1962        -78.1146       -0.0127188         146.769
0.565                   -1.00427        -157.512         -49.0253        -79.8508         -49.0254        -79.8508       -0.0128438         146.698
0.566                    -1.0417        -158.037         -48.8552        -81.5999         -48.8552        -81.5999        -0.012971         146.626
0.567                   -1.07951        -158.562         -48.6858         -83.362         -48.6858        -83.3619       -0.0131004         146.554
0.568                   -1.11769        -159.086         -48.5174        -85.1369         -48.5174        -85.1369       -0.0132321         146.482
0.569                   -1.15622        -159.609         -48.3499        -86.9246         -48.3499        -86.9246       -0.0133661         146.409
0.57                    -1.19509        -160.133         -48.1834        -88.7251         -48.1835         -88.725       -0.0135026         146.337
0.571                   -1.23429        -160.656         -48.0182        -90.5381         -48.0182        -90.5381       -0.0136414         146.265
0.572                   -1.27379        -161.179         -47.8541        -92.3636         -47.8541        -92.3636       -0.0137827         146.192
0.573                    -1.3136        -161.702         -47.6914        -94.2013         -47.6914        -94.2013       -0.0139264         146.119
0.574                   -1.35369        -162.225         -47.5302        -96.0511         -47.5302        -96.0511       -0.0140727         146.046
0.575                   -1.39406        -162.748         -47.3704        -97.9126         -47.3704        -97.9126       -0.0142216         145.973
0.576                    -1.4347        -163.271         -47.2122        -99.7856         -47.2122        -99.7856       -0.0143731           145.9
0.577                   -1.47558        -163.794         -47.0557         -101.67         -47.0557         -101.67       -0.0145273         145.826
0.578                   -1.51671        -164.318          -46.901        -103.565          -46.901        -103.565       -0.0146842         145.753
0.579                   -1.55807        -164.842         -46.7481         -105.47         -46.7481         -105.47       -0.0148438         145.679
0.58                    -1.59965        -165.366         -46.5972        -107.385         -46.5971        -107.385       -0.0150062         145.605
0.581                   -1.64144         -165.89         -46.4482         -109.31         -46.4482         -109.31       -0.0151714         145.531
0.582                   -1.68344        -166.416         -46.3013        -111.244         -46.3013        -111.244       -0.0153394         145.457
0.583                   -1.72562        -166.941         -46.1566        -113.186         -46.1566        -113.186       -0.0155104         145.383
0.584                   -1.76799        -167.468         -46.0141        -115.135         -46.0141        -115.136       -0.0156843         145.309
0.585                   -1.81054        -167.995         -45.8738        -117.093         -45.8738        -117.093       -0.0158611         145.234
0.586                   -1.85325        -168.523         -45.7359        -119.056         -45.7359        -119.056       -0.0160409         145.159
0.587                   -1.89613        -169.052         -45.6003        -121.026         -45.6003        -121.026       -0.0162238         145.084
0.588                   -1.93916        -169.583         -45.4672        -123.001         -45.4672        -123.001       -0.0164097         145.009
0.589                   -1.98233        -170.114         -45.3365         -124.98         -45.3365        -124.981       -0.0165987         144.934
0.59                    -2.02565        -170.647         -45.2083        -126.964         -45.2083        -126.964       -0.0167908         144.858
0.591                    -2.0691        -171.181         -45.0825         -128.95         -45.0825         -128.95        -0.016986         144.783
0.592                   -2.11268        -171.716         -44.9593        -130.939         -44.9593        -130.939       -0.0171844         144.707
0.593                   -2.15639        -172.254         -44.8386         -132.93         -44.8386         -132.93        -0.017386         144.631
0.594                   -2.20021        -172.793         -44.7204        -134.921         -44.7204        -134.921       -0.0175908         144.555
0.595                   -2.24416        -173.334         -44.6048        -136.913         -44.6048        -136.913       -0.0177987         144.479
0.596                   -2.28822        -173.877         -44.4916        -138.904         -44.4916        -138.904         -0.01801         144.402
0.597                   -2.33239        -174.422          -44.381        -140.893         -44.3809        -140.893       -0.0182244         144.326
0.598                   -2.37667        -174.969         -44.2727        -142.881         -44.2727        -142.881       -0.0184421         144.249
0.599                   -2.42107        -175.519         -44.1669        -144.866         -44.1669        -144.866       -0.0186631         144.172
0.6                     -2.46557        -176.071         -44.0635        -146.847         -44.0635        -146.847       -0.0188873         144.095
0.601                   -2.51017        -176.626         -43.9624        -148.824         -43.9624        -148.824       -0.0191148         144.017
0.602                   -2.55489        -177.183         -43.8636        -150.797         -43.8636        -150.797       -0.0193455          143.94
0.603                   -2.59972        -177.744          -43.767        -152.764          -43.767        -152.764       -0.0195795         143.862
0.604                   -2.64466        -178.308         -43.6726        -154.725         -43.6726        -154.725       -0.0198167         143.784
0.605                   -2.68972        -178.875         -43.5802        -156.679         -43.5802        -156.679       -0.0200572         143.706
0.606                   -2.73489        -179.446         -43.4899        -158.627         -43.4899        -158.627       -0.0203008         143.628
0.607                   -2.78019          179.98         -43.4014        -160.566         -43.4014        -160.567       -0.0205477         143.549
0.608                   -2.82562         179.402         -43.3149        -162.498         -43.3149        -162.498       -0.0207978          143.47
0.609                   -2.87119          178.82         -43.2301        -164.422         -43.2301        -164.422        -0.021051         143.391
0.61                     -2.9169         178.233          -43.147        -166.337          -43.147        -166.337       -0.0213074         143.312
0.611                   -2.96277         177.643         -43.0654        -168.242         -43.0654        -168.242       -0.0215669         143.233
0.612                    -3.0088         177.047         -42.9854        -170.138         -42.9854        -170.138       -0.0218295         143.153
0.613                     -3.055         176.447         -42.9068        -172.025         -42.9068        -172.025       -0.0220951         143.074
0.614                   -3.10139         175.842         -42.8295        -173.901         -42.8295        -173.901       -0.0223638         142.994
0.615                   -3.14797         175.232         -42.7534        -175.768         -42.7534        -175.768       -0.0226355         142.914
0.616                   -3.19478         174.617         -42.6785        -177.624         -42.6785        -177.624       -0.0229101         142.833
0.617                   -3.24181         173.995         -42.6046         -179.47         -42.6046         -179.47       -0.0231877         142.753
0.618                    -3.2891         173.368         -42.5316         178.694         -42.5316         178.694       -0.0234683         142.672
0.619                   -3.33665         172.735         -42.4595         176.869         -42.4595         176.869       -0.0237517         142.591
0.62                    -3.38449         172.095         -42.3882         175.054         -42.3882         175.054        -0.024038         142.509
0.621                   -3.43265         171.449         -42.3176          173.25         -42.3176          173.25       -0.0243272         142.428
0.622                   -3.48115         170.796         -42.2475         171.456         -42.2475         171.456       -0.0246192         142.346
0.623                   -3.53002         170.136         -42.1779         169.672         -42.1779         169.672        -0.024914         142.264
0.624                   -3.57928         169.469         -42.1088         167.898         -42.1088         167.898       -0.0252116         142.182
0.625                   -3.62897         168.794         -42.0401         166.134         -42.0401         166.134        -0.025512         142.099
0.626                   -3.67913          168.11         -41.9716          164.38         -41.9716          164.38       -0.0258152         142.017
0.627                   -3.72979         167.419         -41.9033         162.636         -41.9033         162.636       -0.0261212         141.934
0.628                   -3.78098         166.719         -41.8351         160.901         -41.8351         160.901       -0.0264301         141.851
0.629                   -3.83277         166.011          -41.767         159.175          -41.767         159.175       -0.0267417         141.767
