! TOUCHSTONE file generated by CST MICROWAVE STUDIO
! Date and time: Sat Oct 24 11:12:50 2020
! Project name: Scenario_1_Circular_Tissue_in_Line.cst
! Parameters = {L_HA=400; MT=2.54; Rad_Dielectric=30; Rad_Lower=7.3; Rad_Upper=30; a_HA=580; a_WG=246; b_HA=500; b_WG=121; c_HA=0; c_WG=187; d_feed=85; dx1=398.16; h_feed=15; h_lower=18; h_upper=40}
! Header version: 2018
! Port assignment regex: !\s*Touchstone port\s*([0-9]+)\s*=\s*(CST MWS port|CST DS port)\s*([0-9]+|Zmin|Zmax)\s*\(\"(.*)\"\)(\s*mode\s*([0-9]+))?.*
! Touchstone port assignment:
! Touchstone port 1 = CST MWS port 1 ("")
! Touchstone port 2 = CST MWS port 2 ("")
# GHz S DB R 50
0.5                    -0.148537        -122.204         -59.5708         3.98302         -59.5708         3.98302      -0.00766452         151.131
0.501                  -0.153707        -122.635         -59.4426         2.68057         -59.4426         2.68054       -0.0077251         151.066
0.502                  -0.158878        -123.068         -59.3126         1.37708         -59.3126         1.37703      -0.00778609         151.001
0.503                  -0.164057        -123.503         -59.1809       0.0725048         -59.1809       0.0724359      -0.00784751         150.935
0.504                  -0.169249        -123.941         -59.0475        -1.23324         -59.0475        -1.23332      -0.00790934          150.87
0.505                  -0.174463        -124.381         -58.9124        -2.54022         -58.9124        -2.54033      -0.00797158         150.804
0.506                  -0.179706        -124.824         -58.7758        -3.84856         -58.7758        -3.84867      -0.00803422         150.739
0.507                  -0.184986         -125.27         -58.6375        -5.15834         -58.6375        -5.15847      -0.00809728         150.673
0.508                  -0.190312        -125.718         -58.4976        -6.46971         -58.4976        -6.46985      -0.00816073         150.607
0.509                  -0.195694         -126.17         -58.3562        -7.78278         -58.3562        -7.78293      -0.00822459         150.542
0.51                   -0.201139        -126.624         -58.2133        -9.09771         -58.2133        -9.09786      -0.00828884         150.476
0.511                  -0.206659        -127.081         -58.0689        -10.4146         -58.0689        -10.4148       -0.0083535          150.41
0.512                  -0.212265        -127.542          -57.923        -11.7338          -57.923        -11.7339      -0.00841855         150.344
0.513                  -0.217967        -128.005         -57.7757        -13.0552         -57.7757        -13.0554      -0.00848401         150.278
0.514                  -0.223778        -128.472          -57.627        -14.3792          -57.627        -14.3794      -0.00854986         150.211
0.515                  -0.229708        -128.942          -57.477         -15.706          -57.477        -15.7061      -0.00861612         150.145
0.516                  -0.235772        -129.415         -57.3255        -17.0357         -57.3255        -17.0358      -0.00868279         150.079
0.517                  -0.241983        -129.891         -57.1728        -18.3685         -57.1728        -18.3687      -0.00874987         150.012
0.518                  -0.248354        -130.371         -57.0187        -19.7048         -57.0187        -19.7049      -0.00881737         149.946
0.519                  -0.254901        -130.854         -56.8634        -21.0446         -56.8634        -21.0448       -0.0088853         149.879
0.52                   -0.261638        -131.341         -56.7069        -22.3884         -56.7069        -22.3885      -0.00895365         149.812
0.521                  -0.268581        -131.831         -56.5491        -23.7362         -56.5491        -23.7364      -0.00902244         149.746
0.522                  -0.275746        -132.325         -56.3902        -25.0884         -56.3902        -25.0886      -0.00909168         149.679
0.523                  -0.283151        -132.822         -56.2301        -26.4453         -56.2301        -26.4454      -0.00916137         149.612
0.524                  -0.290812        -133.323         -56.0688        -27.8071         -56.0688        -27.8072      -0.00923154         149.545
0.525                  -0.298748        -133.828         -55.9065        -29.1741         -55.9065        -29.1742       -0.0093022         149.478
0.526                  -0.306977        -134.336         -55.7431        -30.5465         -55.7431        -30.5466      -0.00937335          149.41
0.527                  -0.315518        -134.849         -55.5786        -31.9247         -55.5786        -31.9248      -0.00944502         149.343
0.528                  -0.324392        -135.365         -55.4131         -33.309         -55.4131        -33.3091      -0.00951722         149.276
0.529                  -0.333618        -135.884         -55.2466        -34.6997         -55.2466        -34.6998      -0.00958997         149.208
0.53                   -0.343217        -136.408         -55.0792        -36.0971         -55.0792        -36.0971       -0.0096633          149.14
0.531                  -0.353211        -136.935         -54.9108        -37.5014         -54.9108        -37.5015      -0.00973723         149.073
0.532                   -0.36362        -137.466         -54.7416        -38.9131         -54.7416        -38.9132      -0.00981178         149.005
0.533                  -0.374467            -138         -54.5714        -40.3324         -54.5714        -40.3325      -0.00988698         148.937
0.534                  -0.385774        -138.539         -54.4004        -41.7597         -54.4004        -41.7597      -0.00996286         148.869
0.535                  -0.397563        -139.081         -54.2287        -43.1953         -54.2287        -43.1953       -0.0100395         148.801
0.536                  -0.409858        -139.627         -54.0561        -44.6395         -54.0561        -44.6395       -0.0101168         148.733
0.537                  -0.422682        -140.176         -53.8829        -46.0927         -53.8829        -46.0927       -0.0101949         148.664
0.538                  -0.436058        -140.729         -53.7089        -47.5551         -53.7089        -47.5551       -0.0102739         148.596
0.539                  -0.450009        -141.286         -53.5343        -49.0272         -53.5343        -49.0272       -0.0103537         148.527
0.54                   -0.464558        -141.846         -53.3591        -50.5092         -53.3591        -50.5092       -0.0104344         148.459
0.541                  -0.479729        -142.409         -53.1833        -52.0016         -53.1833        -52.0016        -0.010516          148.39
0.542                  -0.495544        -142.976         -53.0071        -53.5046         -53.0071        -53.5045       -0.0105987         148.321
0.543                  -0.512027        -143.546         -52.8303        -55.0185         -52.8303        -55.0185       -0.0106824         148.252
0.544                    -0.5292        -144.119         -52.6531        -56.5437         -52.6531        -56.5437       -0.0107672         148.183
0.545                  -0.547084        -144.695         -52.4756        -58.0805         -52.4756        -58.0805       -0.0108532         148.114
0.546                  -0.565701        -145.274         -52.2978        -59.6293         -52.2978        -59.6292       -0.0109404         148.044
0.547                  -0.585071        -145.855         -52.1196        -61.1902         -52.1196        -61.1902       -0.0110289         147.975
0.548                  -0.605215        -146.439         -51.9413        -62.7637         -51.9413        -62.7637       -0.0111187         147.905
0.549                  -0.626151        -147.026         -51.7629        -64.3501         -51.7629          -64.35       -0.0112099         147.836
0.55                   -0.647897        -147.615         -51.5844        -65.9495         -51.5844        -65.9495       -0.0113026         147.766
0.551                  -0.670468        -148.206         -51.4059        -67.5623         -51.4059        -67.5623       -0.0113969         147.696
0.552                  -0.693881        -148.799         -51.2275        -69.1888         -51.2275        -69.1887       -0.0114928         147.626
0.553                   -0.71815        -149.393         -51.0492        -70.8291         -51.0492         -70.829       -0.0115905         147.556
0.554                  -0.743285        -149.989         -50.8711        -72.4835         -50.8711        -72.4834       -0.0116899         147.485
0.555                  -0.769297        -150.587         -50.6934        -74.1521         -50.6934        -74.1521       -0.0117912         147.415
0.556                  -0.796195        -151.185          -50.516        -75.8353          -50.516        -75.8353       -0.0118944         147.344
0.557                  -0.823984        -151.784         -50.3391        -77.5331         -50.3391        -77.5331       -0.0119996         147.274
0.558                  -0.852669        -152.384         -50.1627        -79.2457         -50.1627        -79.2456        -0.012107         147.203
0.559                  -0.882251        -152.985          -49.987        -80.9731          -49.987        -80.9731       -0.0122166         147.132
0.56                    -0.91273        -153.585          -49.812        -82.7155          -49.812        -82.7155       -0.0123285         147.061
0.561                  -0.944102        -154.185         -49.6379        -84.4729         -49.6379        -84.4728       -0.0124427          146.99
0.562                  -0.976362        -154.785         -49.4647        -86.2452         -49.4647        -86.2452       -0.0125594         146.919
0.563                    -1.0095        -155.385         -49.2925        -88.0326         -49.2925        -88.0326       -0.0126786         146.847
0.564                    -1.0435        -155.983         -49.1214        -89.8349         -49.1214        -89.8349       -0.0128005         146.776
0.565                   -1.07836        -156.581         -48.9516         -91.652         -48.9516         -91.652       -0.0129251         146.704
0.566                   -1.11405        -157.177         -48.7831        -93.4837         -48.7831        -93.4837       -0.0130524         146.632
0.567                   -1.15056        -157.771         -48.6161          -95.33         -48.6161          -95.33       -0.0131826          146.56
0.568                   -1.18786        -158.364         -48.4506        -97.1905         -48.4506        -97.1905       -0.0133158         146.488
0.569                   -1.22592        -158.955         -48.2867         -99.065         -48.2867         -99.065        -0.013452         146.416
0.57                    -1.26472        -159.543         -48.1246        -100.953         -48.1246        -100.953       -0.0135912         146.343
0.571                   -1.30422        -160.129         -47.9644        -102.855         -47.9644        -102.855       -0.0137336         146.271
0.572                   -1.34438        -160.713         -47.8061        -104.769         -47.8061        -104.769       -0.0138791         146.198
0.573                   -1.38518        -161.293         -47.6498        -106.696         -47.6498        -106.696       -0.0140279         146.125
0.574                   -1.42656        -161.871         -47.4957        -108.634         -47.4957        -108.634         -0.01418         146.052
0.575                   -1.46849        -162.445         -47.3438        -110.584         -47.3438        -110.584       -0.0143354         145.979
0.576                   -1.51091        -163.017         -47.1943        -112.545         -47.1943        -112.545       -0.0144941         145.906
0.577                   -1.55379        -163.585         -47.0471        -114.516         -47.0471        -114.516       -0.0146562         145.833
0.578                   -1.59707        -164.149         -46.9025        -116.496         -46.9025        -116.496       -0.0148218         145.759
0.579                    -1.6407         -164.71         -46.7603        -118.484         -46.7603        -118.484       -0.0149907         145.685
0.58                    -1.68462        -165.268         -46.6208        -120.481         -46.6208        -120.481        -0.015163         145.611
0.581                   -1.72879        -165.822         -46.4839        -122.484         -46.4839        -122.485       -0.0153387         145.537
0.582                   -1.77314        -166.373         -46.3497        -124.494         -46.3497        -124.494       -0.0155178         145.463
0.583                   -1.81762        -166.921         -46.2183        -126.509         -46.2183         -126.51       -0.0157003         145.389
0.584                   -1.86218        -167.465         -46.0897        -128.529         -46.0897        -128.529       -0.0158861         145.315
0.585                   -1.90676        -168.006         -45.9639        -130.552         -45.9639        -130.552       -0.0160752          145.24
0.586                   -1.95129        -168.544         -45.8409        -132.578         -45.8409        -132.578       -0.0162675         145.165
0.587                   -1.99574        -169.079         -45.7207        -134.606         -45.7207        -134.606       -0.0164631          145.09
0.588                   -2.04004        -169.612         -45.6033        -136.634         -45.6033        -136.634       -0.0166619         145.015
0.589                   -2.08414        -170.143         -45.4887        -138.663         -45.4887        -138.663       -0.0168638          144.94
0.59                    -2.12799        -170.671         -45.3769         -140.69         -45.3769         -140.69       -0.0170687         144.865
0.591                   -2.17154        -171.198         -45.2678        -142.715         -45.2678        -142.715       -0.0172766         144.789
0.592                   -2.21475        -171.723         -45.1614        -144.738         -45.1614        -144.738       -0.0174874         144.714
0.593                   -2.25757        -172.247         -45.0577        -146.757         -45.0577        -146.757       -0.0177011         144.638
0.594                   -2.29996         -172.77         -44.9566        -148.771         -44.9566        -148.771       -0.0179176         144.562
0.595                   -2.34189        -173.294          -44.858         -150.78          -44.858         -150.78       -0.0181367         144.486
0.596                   -2.38333        -173.817         -44.7618        -152.783         -44.7618        -152.783       -0.0183585         144.409
0.597                   -2.42424        -174.342         -44.6681        -154.779         -44.6681        -154.779       -0.0185829         144.333
0.598                   -2.46461        -174.867         -44.5766        -156.768         -44.5766        -156.768       -0.0188097         144.256
0.599                   -2.50442        -175.394         -44.4873        -158.749         -44.4873        -158.749        -0.019039         144.179
0.6                     -2.54364        -175.924         -44.4001        -160.721         -44.4001        -160.721       -0.0192706         144.102
0.601                   -2.58229        -176.456         -44.3149        -162.684         -44.3149        -162.684       -0.0195045         144.025
0.602                   -2.62034        -176.992         -44.2315        -164.637         -44.2315        -164.637       -0.0197407         143.947
0.603                   -2.65781        -177.531           -44.15        -166.579           -44.15        -166.579        -0.019979          143.87
0.604                   -2.69471        -178.076         -44.0701        -168.512         -44.0701        -168.512       -0.0202194         143.792
0.605                   -2.73105        -178.625         -43.9918        -170.433         -43.9918        -170.433        -0.020462         143.714
0.606                   -2.76685         -179.18          -43.915        -172.343          -43.915        -172.343       -0.0207065         143.636
0.607                   -2.80214        -179.741         -43.8395        -174.242         -43.8395        -174.242       -0.0209531         143.558
0.608                   -2.83695          179.69         -43.7652         -176.13         -43.7652         -176.13       -0.0212016         143.479
0.609                   -2.87133         179.114          -43.692        -178.005          -43.692        -178.005       -0.0214521           143.4
0.61                    -2.90531          178.53         -43.6198        -179.869         -43.6198        -179.869       -0.0217046         143.321
0.611                   -2.93896         177.938         -43.5485         178.279         -43.5485         178.279        -0.021959         143.242
0.612                   -2.97234         177.336          -43.478         176.439          -43.478         176.439       -0.0222153         143.163
0.613                    -3.0055         176.724         -43.4081         174.611         -43.4081         174.611       -0.0224735         143.083
0.614                   -3.03853         176.102         -43.3389         172.795         -43.3389         172.795       -0.0227337         143.003
0.615                   -3.07149         175.469         -43.2701          170.99         -43.2701          170.99       -0.0229959         142.923
0.616                   -3.10448         174.824         -43.2016         169.197         -43.2016         169.197         -0.02326         142.843
0.617                   -3.13757         174.168         -43.1335         167.415         -43.1335         167.415       -0.0235262         142.763
0.618                   -3.17088         173.499         -43.0655         165.644         -43.0655         165.644       -0.0237944         142.682
0.619                   -3.20449         172.818         -42.9977         163.884         -42.9977         163.884       -0.0240648         142.601
0.62                    -3.23851         172.123         -42.9299         162.135         -42.9299         162.135       -0.0243373          142.52
0.621                   -3.27306         171.415          -42.862         160.395          -42.862         160.395        -0.024612         142.438
0.622                   -3.30824         170.694          -42.794         158.666          -42.794         158.666       -0.0248889         142.357
0.623                   -3.34419         169.958         -42.7258         156.947         -42.7258         156.947       -0.0251682         142.275
0.624                   -3.38101         169.208         -42.6574         155.236         -42.6574         155.236         -0.02545         142.193
0.625                   -3.41885         168.443         -42.5886         153.535         -42.5886         153.535       -0.0257342          142.11
0.626                   -3.45782         167.664         -42.5195         151.842         -42.5195         151.842        -0.026021         142.027
0.627                   -3.49807         166.869         -42.4499         150.157         -42.4499         150.157       -0.0263105         141.945
0.628                   -3.53973          166.06         -42.3799          148.48         -42.3799          148.48       -0.0266027         141.861
0.629                   -3.58294         165.236         -42.3093          146.81         -42.3093          146.81       -0.0268978         141.778
