! TOUCHSTONE file generated by CST MICROWAVE STUDIO
! Date and time: Sat Oct 24 11:12:58 2020
! Project name: Scenario_1_Circular_Tissue_in_Line.cst
! Parameters = {L_HA=400; MT=2.54; Rad_Dielectric=30; Rad_Lower=7.3; Rad_Upper=30; a_HA=580; a_WG=246; b_HA=500; b_WG=121; c_HA=0; c_WG=187; d_feed=85; dx1=415.48; h_feed=15; h_lower=18; h_upper=40}
! Header version: 2018
! Port assignment regex: !\s*Touchstone port\s*([0-9]+)\s*=\s*(CST MWS port|CST DS port)\s*([0-9]+|Zmin|Zmax)\s*\(\"(.*)\"\)(\s*mode\s*([0-9]+))?.*
! Touchstone port assignment:
! Touchstone port 1 = CST MWS port 1 ("")
! Touchstone port 2 = CST MWS port 2 ("")
# GHz S DB R 50
0.5                     -0.14019        -122.228         -59.9344        -5.29237         -59.9344        -5.29237      -0.00765204         151.108
0.501                  -0.143935        -122.665          -59.794         -6.5616          -59.794         -6.5616      -0.00771088         151.043
0.502                  -0.147814        -123.104         -59.6521        -7.83328         -59.6521        -7.83328      -0.00777012         150.978
0.503                  -0.151833        -123.546         -59.5089        -9.10757         -59.5089        -9.10757      -0.00782976         150.912
0.504                  -0.155996         -123.99         -59.3642        -10.3846         -59.3642        -10.3846      -0.00788981         150.847
0.505                  -0.160309        -124.437         -59.2182        -11.6647         -59.2182        -11.6647      -0.00795026         150.781
0.506                   -0.16478        -124.887         -59.0708        -12.9479         -59.0708        -12.9479      -0.00801114         150.716
0.507                  -0.169414         -125.34          -58.922        -14.2344          -58.922        -14.2344      -0.00807243          150.65
0.508                  -0.174219        -125.795         -58.7719        -15.5245         -58.7719        -15.5245      -0.00813414         150.584
0.509                  -0.179202        -126.254         -58.6205        -16.8184         -58.6204        -16.8184      -0.00819629         150.518
0.51                   -0.184369        -126.715         -58.4677        -18.1162         -58.4677        -18.1162      -0.00825887         150.452
0.511                   -0.18973        -127.179         -58.3136        -19.4183         -58.3136        -19.4183      -0.00832189         150.386
0.512                  -0.195293        -127.646         -58.1581        -20.7248         -58.1581        -20.7248      -0.00838537          150.32
0.513                  -0.201065        -128.116         -58.0014         -22.036         -58.0014         -22.036      -0.00844931         150.254
0.514                  -0.207057        -128.589         -57.8435        -23.3521         -57.8435        -23.3521      -0.00851372         150.188
0.515                  -0.213277        -129.065         -57.6842        -24.6735         -57.6842        -24.6735      -0.00857861         150.121
0.516                  -0.219736        -129.544         -57.5237        -26.0003         -57.5237        -26.0003        -0.008644         150.055
0.517                  -0.226444        -130.027          -57.362        -27.3328          -57.362        -27.3328      -0.00870988         149.988
0.518                  -0.233412        -130.512          -57.199        -28.6713          -57.199        -28.6713      -0.00877628         149.922
0.519                  -0.240651        -131.001         -57.0349        -30.0161         -57.0349        -30.0161      -0.00884322         149.855
0.52                   -0.248173        -131.493         -56.8696        -31.3676         -56.8696        -31.3676       -0.0089107         149.788
0.521                   -0.25599        -131.988         -56.7031        -32.7259         -56.7031        -32.7259      -0.00897875         149.721
0.522                  -0.264116        -132.486         -56.5354        -34.0914         -56.5354        -34.0914      -0.00904737         149.654
0.523                  -0.272563        -132.987         -56.3667        -35.4644         -56.3667        -35.4644       -0.0091166         149.587
0.524                  -0.281346        -133.492         -56.1968        -36.8452         -56.1968        -36.8452      -0.00918644          149.52
0.525                  -0.290479            -134         -56.0259        -38.2342         -56.0259        -38.2342      -0.00925693         149.453
0.526                  -0.299977        -134.512         -55.8539        -39.6317         -55.8539        -39.6317      -0.00932809         149.386
0.527                  -0.309856        -135.027         -55.6809         -41.038         -55.6809         -41.038      -0.00939994         149.318
0.528                  -0.320132        -135.545         -55.5069        -42.4535         -55.5069        -42.4535      -0.00947251         149.251
0.529                  -0.330822        -136.067          -55.332        -43.8785          -55.332        -43.8785      -0.00954582         149.183
0.53                   -0.341944        -136.592         -55.1561        -45.3133         -55.1561        -45.3133      -0.00961991         149.115
0.531                  -0.353514         -137.12         -54.9794        -46.7584         -54.9794        -46.7583      -0.00969482         149.047
0.532                  -0.365553        -137.651         -54.8017         -48.214         -54.8018         -48.214      -0.00977057         148.979
0.533                  -0.378078        -138.186         -54.6233        -49.6805         -54.6233        -49.6805       -0.0098472         148.911
0.534                  -0.391109        -138.725         -54.4442        -51.1584         -54.4442        -51.1583      -0.00992476         148.843
0.535                  -0.404666        -139.266         -54.2643        -52.6478         -54.2643        -52.6478       -0.0100033         148.775
0.536                   -0.41877        -139.811         -54.0837        -54.1493         -54.0837        -54.1493       -0.0100828         148.707
0.537                  -0.433442        -140.359         -53.9025        -55.6632         -53.9025        -55.6632       -0.0101634         148.638
0.538                  -0.448702         -140.91         -53.7207        -57.1898         -53.7207        -57.1898       -0.0102451          148.57
0.539                  -0.464572        -141.464         -53.5385        -58.7294         -53.5385        -58.7294       -0.0103279         148.501
0.54                   -0.481073        -142.021         -53.3558        -60.2825         -53.3558        -60.2825       -0.0104119         148.432
0.541                  -0.498227        -142.581         -53.1727        -61.8493         -53.1727        -61.8493       -0.0104973         148.363
0.542                  -0.516056        -143.143         -52.9893        -63.4302         -52.9893        -63.4302       -0.0105839         148.294
0.543                   -0.53458        -143.709         -52.8057        -65.0256         -52.8057        -65.0256       -0.0106719         148.225
0.544                  -0.553821        -144.277         -52.6219        -66.6356         -52.6219        -66.6356       -0.0107614         148.156
0.545                  -0.573799        -144.847          -52.438        -68.2607          -52.438        -68.2607       -0.0108523         148.087
0.546                  -0.594534         -145.42         -52.2541         -69.901         -52.2541         -69.901       -0.0109449         148.017
0.547                  -0.616045        -145.995         -52.0704        -71.5569         -52.0704        -71.5569       -0.0110391         147.948
0.548                  -0.638351        -146.571         -51.8868        -73.2285         -51.8868        -73.2285        -0.011135         147.878
0.549                  -0.661468         -147.15         -51.7035        -74.9162         -51.7035        -74.9162       -0.0112328         147.808
0.55                    -0.68541         -147.73         -51.5205          -76.62         -51.5205          -76.62       -0.0113324         147.738
0.551                  -0.710193        -148.311         -51.3381        -78.3401         -51.3381        -78.3401        -0.011434         147.668
0.552                  -0.735826        -148.894         -51.1562        -80.0768         -51.1562        -80.0767       -0.0115376         147.598
0.553                   -0.76232        -149.477         -50.9751        -81.8299         -50.9751        -81.8299       -0.0116433         147.528
0.554                   -0.78968        -150.061         -50.7947        -83.5997         -50.7947        -83.5997       -0.0117512         147.458
0.555                  -0.817911        -150.646         -50.6153         -85.386         -50.6153         -85.386       -0.0118614         147.387
0.556                  -0.847012         -151.23         -50.4369         -87.189         -50.4369         -87.189        -0.011974         147.316
0.557                   -0.87698        -151.814         -50.2597        -89.0085         -50.2597        -89.0085        -0.012089         147.246
0.558                  -0.907809        -152.398         -50.0838        -90.8443         -50.0838        -90.8443       -0.0122065         147.175
0.559                  -0.939487        -152.981         -49.9093        -92.6964         -49.9093        -92.6964       -0.0123266         147.104
0.56                   -0.971999        -153.563         -49.7363        -94.5644         -49.7363        -94.5644       -0.0124493         147.033
0.561                   -1.00533        -154.143          -49.565        -96.4481          -49.565        -96.4482       -0.0125749         146.961
0.562                   -1.03944        -154.722         -49.3955        -98.3473         -49.3955        -98.3473       -0.0127032          146.89
0.563                   -1.07432        -155.298         -49.2279        -100.261         -49.2279        -100.261       -0.0128344         146.818
0.564                   -1.10992        -155.873         -49.0623         -102.19         -49.0623         -102.19       -0.0129685         146.747
0.565                   -1.14621        -156.445         -48.8988        -104.132         -48.8988        -104.133       -0.0131056         146.675
0.566                   -1.18314        -157.014         -48.7377        -106.089         -48.7377        -106.089       -0.0132457         146.603
0.567                   -1.22067         -157.58         -48.5788        -108.057         -48.5788        -108.057       -0.0133889         146.531
0.568                   -1.25874        -158.143         -48.4225        -110.038         -48.4225        -110.038       -0.0135352         146.459
0.569                   -1.29728        -158.702         -48.2687        -112.031         -48.2687        -112.031       -0.0136847         146.386
0.57                    -1.33625        -159.258         -48.1176        -114.034         -48.1176        -114.034       -0.0138373         146.314
0.571                   -1.37558         -159.81         -47.9693        -116.046         -47.9693        -116.046       -0.0139931         146.241
0.572                   -1.41519        -160.359         -47.8237        -118.068         -47.8237        -118.068        -0.014152         146.169
0.573                   -1.45502        -160.904         -47.6811        -120.097         -47.6811        -120.097       -0.0143142         146.096
0.574                     -1.495        -161.445         -47.5414        -122.134         -47.5414        -122.134       -0.0144794         146.023
0.575                   -1.53504        -161.983         -47.4047        -124.176         -47.4047        -124.176       -0.0146478          145.95
0.576                   -1.57509        -162.517          -47.271        -126.224          -47.271        -126.224       -0.0148193         145.876
0.577                   -1.61507        -163.048         -47.1405        -128.275         -47.1405        -128.275       -0.0149939         145.803
0.578                    -1.6549        -163.576         -47.0129        -130.329         -47.0129        -130.329       -0.0151715         145.729
0.579                   -1.69453        -164.101         -46.8885        -132.385         -46.8885        -132.385       -0.0153521         145.656
0.58                    -1.73388        -164.624         -46.7671        -134.442         -46.7671        -134.442       -0.0155355         145.582
0.581                   -1.77289        -165.144         -46.6488        -136.499         -46.6488        -136.499       -0.0157219         145.508
0.582                   -1.81152        -165.663         -46.5336        -138.554         -46.5336        -138.554        -0.015911         145.434
0.583                   -1.84971        -166.181         -46.4213        -140.607         -46.4213        -140.607       -0.0161027         145.359
0.584                   -1.88741        -166.698         -46.3119        -142.656         -46.3119        -142.656       -0.0162971         145.285
0.585                   -1.92459        -167.215         -46.2054        -144.702         -46.2054        -144.702       -0.0164941          145.21
0.586                   -1.96122        -167.732         -46.1018        -146.742         -46.1018        -146.742       -0.0166935         145.136
0.587                   -1.99727         -168.25         -46.0008        -148.776         -46.0008        -148.776       -0.0168953         145.061
0.588                   -2.03274        -168.769         -45.9025        -150.803         -45.9025        -150.803       -0.0170993         144.986
0.589                    -2.0676        -169.291         -45.8067        -152.823         -45.8067        -152.823       -0.0173056         144.911
0.59                    -2.10188        -169.815         -45.7133        -154.834         -45.7133        -154.834        -0.017514         144.835
0.591                   -2.13556        -170.343         -45.6223        -156.836         -45.6223        -156.836       -0.0177244          144.76
0.592                   -2.16867        -170.874         -45.5335        -158.829         -45.5335        -158.829       -0.0179368         144.684
0.593                   -2.20122         -171.41         -45.4468        -160.811         -45.4468        -160.811       -0.0181511         144.608
0.594                   -2.23325        -171.951          -45.362        -162.782          -45.362        -162.782       -0.0183673         144.532
0.595                   -2.26479        -172.497         -45.2791        -164.743         -45.2791        -164.743       -0.0185852         144.456
0.596                   -2.29589        -173.049          -45.198        -166.692          -45.198        -166.692       -0.0188048          144.38
0.597                   -2.32658        -173.608         -45.1184        -168.629         -45.1184        -168.629        -0.019026         144.303
0.598                   -2.35692        -174.173         -45.0404        -170.554         -45.0404        -170.554       -0.0192489         144.226
0.599                   -2.38697        -174.747         -44.9636        -172.467         -44.9636        -172.467       -0.0194733          144.15
0.6                     -2.41678        -175.328         -44.8881        -174.367         -44.8881        -174.367       -0.0196993         144.073
0.601                   -2.44641        -175.917         -44.8138        -176.255         -44.8138        -176.255       -0.0199269         143.995
0.602                   -2.47594        -176.515         -44.7403         -178.13         -44.7403         -178.13       -0.0201559         143.918
0.603                   -2.50543        -177.122         -44.6678        -179.993         -44.6678        -179.993       -0.0203864          143.84
0.604                   -2.53495        -177.738          -44.596         178.156          -44.596         178.156       -0.0206185         143.762
0.605                   -2.56457        -178.364         -44.5248         176.318         -44.5248         176.318        -0.020852         143.685
0.606                   -2.59438        -178.999         -44.4542         174.492         -44.4542         174.492       -0.0210871         143.606
0.607                   -2.62443        -179.645          -44.384         172.678          -44.384         172.678       -0.0213237         143.528
0.608                   -2.65481           179.7         -44.3141         170.876         -44.3141         170.876       -0.0215618         143.449
0.609                    -2.6856         179.033         -44.2445         169.085         -44.2445         169.085       -0.0218016         143.371
0.61                    -2.71688         178.357          -44.175         167.305          -44.175         167.305        -0.022043         143.291
0.611                   -2.74871         177.669         -44.1055         165.537         -44.1055         165.537       -0.0222861         143.212
0.612                   -2.78118         176.971          -44.036         163.779          -44.036         163.779       -0.0225309         143.133
0.613                   -2.81437         176.261         -43.9664         162.031         -43.9664         162.031       -0.0227775         143.053
0.614                   -2.84836         175.541         -43.8967         160.293         -43.8967         160.293       -0.0230259         142.973
0.615                   -2.88322          174.81         -43.8267         158.565         -43.8267         158.565       -0.0232763         142.893
0.616                   -2.91904         174.067         -43.7564         156.845         -43.7564         156.846       -0.0235286         142.813
0.617                   -2.95589         173.313         -43.6857         155.135         -43.6857         155.135        -0.023783         142.732
0.618                   -2.99386         172.548         -43.6146         153.433         -43.6146         153.433       -0.0240396         142.651
0.619                   -3.03302         171.772          -43.543         151.738          -43.543         151.738       -0.0242984          142.57
0.62                    -3.07345         170.985          -43.471         150.052          -43.471         150.052       -0.0245595         142.489
0.621                   -3.11525         170.186         -43.3984         148.372         -43.3984         148.372        -0.024823         142.408
0.622                   -3.15848         169.377         -43.3252         146.698         -43.3252         146.698       -0.0250889         142.326
0.623                   -3.20324         168.556         -43.2514         145.031         -43.2514         145.031       -0.0253575         142.244
0.624                   -3.24961         167.724          -43.177          143.37          -43.177          143.37       -0.0256288         142.162
0.625                   -3.29767         166.881         -43.1019         141.714         -43.1019         141.714       -0.0259029         142.079
0.626                   -3.34751         166.027         -43.0262         140.062         -43.0262         140.062       -0.0261799         141.996
0.627                   -3.39922         165.162         -42.9498         138.415         -42.9498         138.415       -0.0264599         141.913
0.628                   -3.45288         164.286         -42.8726         136.772         -42.8726         136.772       -0.0267431          141.83
0.629                    -3.5086           163.4         -42.7948         135.133         -42.7948         135.133       -0.0270295         141.746
