! TOUCHSTONE file generated by CST MICROWAVE STUDIO
! Date and time: Sat Oct 24 11:13:04 2020
! Project name: Scenario_1_Circular_Tissue_in_Line.cst
! Parameters = {L_HA=400; MT=2.54; Rad_Dielectric=30; Rad_Lower=7.3; Rad_Upper=30; a_HA=580; a_WG=246; b_HA=500; b_WG=121; c_HA=0; c_WG=187; d_feed=85; dx1=432.8; h_feed=15; h_lower=18; h_upper=40}
! Header version: 2018
! Port assignment regex: !\s*Touchstone port\s*([0-9]+)\s*=\s*(CST MWS port|CST DS port)\s*([0-9]+|Zmin|Zmax)\s*\(\"(.*)\"\)(\s*mode\s*([0-9]+))?.*
! Touchstone port assignment:
! Touchstone port 1 = CST MWS port 1 ("")
! Touchstone port 2 = CST MWS port 2 ("")
# GHz S DB R 50
0.5                    -0.133407        -122.279         -60.2639        -14.1111         -60.2639        -14.1111      -0.00757267         151.121
0.501                  -0.135364        -122.741         -60.0941        -15.2958         -60.0941        -15.2962      -0.00762532         151.056
0.502                   -0.13767        -123.204         -59.9243          -16.49         -59.9244        -16.4909      -0.00767876          150.99
0.503                  -0.140326         -123.67         -59.7545         -17.694         -59.7546        -17.6952      -0.00773299         150.925
0.504                  -0.143336        -124.137         -59.5848        -18.9078         -59.5848        -18.9093      -0.00778802         150.859
0.505                    -0.1467        -124.606          -59.415        -20.1316          -59.415        -20.1335      -0.00784385         150.794
0.506                  -0.150422        -125.077         -59.2451        -21.3657         -59.2452        -21.3678       -0.0079005         150.728
0.507                  -0.154504        -125.549         -59.0752        -22.6101         -59.0753        -22.6125      -0.00795797         150.663
0.508                  -0.158946        -126.023         -58.9053        -23.8651         -58.9054        -23.8677      -0.00801627         150.597
0.509                  -0.163751        -126.499         -58.7352        -25.1308         -58.7353        -25.1336      -0.00807541         150.531
0.51                   -0.168921        -126.976         -58.5651        -26.4074         -58.5652        -26.4103      -0.00813541         150.465
0.511                  -0.174457        -127.455         -58.3948        -27.6951         -58.3949        -27.6981      -0.00819626         150.399
0.512                   -0.18036        -127.936         -58.2245         -28.994         -58.2246        -28.9971      -0.00825799         150.333
0.513                  -0.186633        -128.418          -58.054        -30.3043         -58.0541        -30.3075      -0.00832059         150.266
0.514                  -0.193275        -128.902         -57.8834        -31.6262         -57.8835        -31.6294      -0.00838408           150.2
0.515                   -0.20029        -129.388         -57.7126        -32.9598         -57.7127        -32.9631      -0.00844848         150.134
0.516                  -0.207676        -129.874         -57.5418        -34.3053         -57.5419        -34.3085      -0.00851378         150.067
0.517                  -0.215436        -130.363         -57.3707        -35.6629         -57.3709        -35.6661      -0.00858001         150.001
0.518                  -0.223571        -130.853         -57.1996        -37.0326         -57.1997        -37.0358      -0.00864717         149.934
0.519                  -0.232081        -131.344         -57.0283        -38.4147         -57.0284        -38.4178      -0.00871528         149.867
0.52                   -0.240966        -131.837         -56.8569        -39.8094          -56.857        -39.8123      -0.00878435         149.801
0.521                  -0.250228        -132.331         -56.6854        -41.2167         -56.6855        -41.2195      -0.00885439         149.734
0.522                  -0.259867        -132.827         -56.5137        -42.6368         -56.5138        -42.6395      -0.00892541         149.667
0.523                  -0.269883        -133.324          -56.342        -44.0698         -56.3421        -44.0724      -0.00899744           149.6
0.524                  -0.280276        -133.823         -56.1701         -45.516         -56.1702        -45.5184      -0.00907047         149.532
0.525                  -0.291047        -134.323         -55.9982        -46.9754         -55.9982        -46.9776      -0.00914453         149.465
0.526                  -0.302195        -134.824         -55.8261        -48.4482         -55.8262        -48.4502      -0.00921963         149.398
0.527                  -0.313722        -135.327         -55.6541        -49.9344         -55.6541        -49.9362      -0.00929579          149.33
0.528                  -0.325625        -135.831          -55.482        -51.4343          -55.482        -51.4358      -0.00937302         149.263
0.529                  -0.337905        -136.337         -55.3099        -52.9479         -55.3099        -52.9492      -0.00945134         149.195
0.53                   -0.350562        -136.843         -55.1378        -54.4753         -55.1378        -54.4764      -0.00953077         149.128
0.531                  -0.363596        -137.352         -54.9657        -56.0166         -54.9657        -56.0175      -0.00961132          149.06
0.532                  -0.377005        -137.861         -54.7937         -57.572         -54.7937        -57.5726      -0.00969301         148.992
0.533                  -0.390789        -138.371         -54.6218        -59.1415         -54.6218        -59.1418      -0.00977586         148.924
0.534                  -0.404947        -138.883           -54.45        -60.7251           -54.45        -60.7251       -0.0098599         148.856
0.535                  -0.419479        -139.397         -54.2784        -62.3231         -54.2784        -62.3228      -0.00994513         148.787
0.536                  -0.434383        -139.911          -54.107        -63.9353         -54.1069        -63.9347       -0.0100316         148.719
0.537                  -0.449658        -140.427         -53.9358        -65.5618         -53.9358        -65.5609       -0.0101193         148.651
0.538                  -0.465303        -140.944         -53.7649        -67.2028         -53.7648        -67.2016       -0.0102082         148.582
0.539                  -0.481318        -141.462         -53.5943        -68.8581         -53.5942        -68.8566       -0.0102985         148.513
0.54                     -0.4977        -141.981         -53.4241        -70.5278          -53.424         -70.526       -0.0103901         148.445
0.541                  -0.514448        -142.502         -53.2543        -72.2119         -53.2542        -72.2098        -0.010483         148.376
0.542                  -0.531562        -143.024          -53.085        -73.9103         -53.0848        -73.9079       -0.0105772         148.307
0.543                  -0.549038        -143.547         -52.9162        -75.6231          -52.916        -75.6203       -0.0106729         148.238
0.544                  -0.566877        -144.071         -52.7479        -77.3501         -52.7477         -77.347       -0.0107699         148.169
0.545                  -0.585075        -144.596         -52.5803        -79.0912         -52.5801        -79.0878       -0.0108685         148.099
0.546                  -0.603632        -145.123         -52.4133        -80.8463         -52.4132        -80.8427       -0.0109685          148.03
0.547                  -0.622545        -145.651         -52.2472        -82.6154         -52.2469        -82.6115         -0.01107          147.96
0.548                  -0.641813         -146.18         -52.0818        -84.3983         -52.0815        -84.3941        -0.011173         147.891
0.549                  -0.661434        -146.711         -51.9172        -86.1948          -51.917        -86.1902       -0.0112776         147.821
0.55                   -0.681406        -147.242         -51.7536        -88.0047         -51.7533        -87.9998       -0.0113838         147.751
0.551                  -0.701727        -147.775          -51.591        -89.8277         -51.5907        -89.8227       -0.0114917         147.681
0.552                  -0.722395        -148.309         -51.4294        -91.6638         -51.4291        -91.6584       -0.0116012         147.611
0.553                  -0.743407        -148.845         -51.2689        -93.5125         -51.2686        -93.5069       -0.0117125         147.541
0.554                  -0.764763        -149.382         -51.1097        -95.3736         -51.1093        -95.3678       -0.0118255         147.471
0.555                  -0.786459         -149.92         -50.9516        -97.2468         -50.9512        -97.2408       -0.0119403           147.4
0.556                  -0.808494        -150.459         -50.7949        -99.1318         -50.7944        -99.1255        -0.012057          147.33
0.557                  -0.830866            -151         -50.6395        -101.028          -50.639        -101.022       -0.0121755         147.259
0.558                  -0.853573        -151.542         -50.4855        -102.935          -50.485        -102.929        -0.012296         147.188
0.559                  -0.876612        -152.085          -50.333        -104.853         -50.3325        -104.846       -0.0124184         147.117
0.56                   -0.899981         -152.63         -50.1821        -106.781         -50.1816        -106.774       -0.0125429         147.046
0.561                  -0.923679        -153.176         -50.0327        -108.719         -50.0322        -108.712       -0.0126694         146.975
0.562                  -0.947704        -153.724          -49.885        -110.665         -49.8845        -110.658       -0.0127981         146.904
0.563                  -0.972053        -154.273          -49.739        -112.621         -49.7384        -112.613       -0.0129289         146.832
0.564                  -0.996726        -154.824         -49.5948        -114.584         -49.5942        -114.577        -0.013062         146.761
0.565                   -1.02172        -155.376         -49.4523        -116.555         -49.4517        -116.547       -0.0131973         146.689
0.566                   -1.04703         -155.93         -49.3117        -118.533          -49.311        -118.525        -0.013335         146.617
0.567                   -1.07266        -156.485          -49.173        -120.517         -49.1723        -120.509        -0.013475         146.545
0.568                   -1.09861        -157.042         -49.0361        -122.507         -49.0354        -122.499       -0.0136175         146.473
0.569                   -1.12487        -157.601         -48.9012        -124.502         -48.9005        -124.494       -0.0137625         146.401
0.57                    -1.15144        -158.162         -48.7682        -126.501         -48.7675        -126.493       -0.0139101         146.328
0.571                   -1.17833        -158.724         -48.6372        -128.504         -48.6365        -128.497       -0.0140603         146.256
0.572                   -1.20553        -159.288         -48.5082        -130.511         -48.5074        -130.503       -0.0142131         146.183
0.573                   -1.23303        -159.854         -48.3812        -132.519         -48.3804        -132.512       -0.0143686          146.11
0.574                   -1.26085        -160.422         -48.2562         -134.53         -48.2554        -134.523       -0.0145269         146.037
0.575                   -1.28898        -160.992         -48.1332        -136.542         -48.1324        -136.535       -0.0146881         145.964
0.576                   -1.31742        -161.564         -48.0122        -138.554         -48.0114        -138.547       -0.0148521         145.891
0.577                   -1.34616        -162.139         -47.8932        -140.567         -47.8924         -140.56        -0.015019         145.818
0.578                   -1.37522        -162.715         -47.7762        -142.578         -47.7753        -142.571       -0.0151888         145.744
0.579                   -1.40458        -163.294         -47.6611        -144.588         -47.6602        -144.582       -0.0153617          145.67
0.58                    -1.43425        -163.875         -47.5479        -146.596         -47.5471         -146.59       -0.0155376         145.597
0.581                   -1.46424        -164.458         -47.4367        -148.602         -47.4358        -148.595       -0.0157165         145.523
0.582                   -1.49454        -165.044         -47.3273        -150.604         -47.3264        -150.598       -0.0158985         145.448
0.583                   -1.52515        -165.633         -47.2197        -152.603         -47.2188        -152.597       -0.0160835         145.374
0.584                   -1.55608        -166.224         -47.1139        -154.597         -47.1131        -154.591       -0.0162717           145.3
0.585                   -1.58733        -166.818         -47.0099        -156.586          -47.009        -156.581       -0.0164629         145.225
0.586                   -1.61891        -167.415         -46.9075         -158.57         -46.9067        -158.565       -0.0166572          145.15
0.587                   -1.65081        -168.015         -46.8068        -160.549          -46.806        -160.543       -0.0168545         145.076
0.588                   -1.68304        -168.618         -46.7077        -162.521         -46.7068        -162.516       -0.0170548             145
0.589                    -1.7156        -169.224           -46.61        -164.486         -46.6092        -164.481       -0.0172581         144.925
0.59                    -1.74851        -169.834         -46.5139        -166.445         -46.5131         -166.44       -0.0174642          144.85
0.591                   -1.78176        -170.446         -46.4191        -168.396         -46.4183        -168.391       -0.0176733         144.774
0.592                   -1.81536        -171.063         -46.3257        -170.339         -46.3249        -170.335        -0.017885         144.699
0.593                   -1.84932        -171.683         -46.2335        -172.274         -46.2327         -172.27       -0.0180995         144.623
0.594                   -1.88366        -172.306         -46.1425        -174.201         -46.1418        -174.197       -0.0183165         144.547
0.595                   -1.91836        -172.934         -46.0527         -176.12          -46.052        -176.116        -0.018536         144.471
0.596                   -1.95346        -173.566         -45.9639         -178.03         -45.9632        -178.026       -0.0187579         144.394
0.597                   -1.98895        -174.201         -45.8761        -179.931         -45.8754        -179.928       -0.0189819         144.318
0.598                   -2.02485        -174.842         -45.7893         178.177         -45.7886          178.18       -0.0192081         144.241
0.599                   -2.06117        -175.486         -45.7032         176.294         -45.7026         176.297       -0.0194363         144.164
0.6                     -2.09793        -176.135          -45.618         174.421         -45.6174         174.423       -0.0196663         144.087
0.601                   -2.13513        -176.789         -45.5335         172.556         -45.5329         172.559       -0.0198981          144.01
0.602                   -2.17281        -177.448         -45.4496         170.701         -45.4491         170.703       -0.0201314         143.932
0.603                   -2.21097        -178.112         -45.3664         168.855         -45.3658         168.857       -0.0203663         143.855
0.604                   -2.24963        -178.782         -45.2836         167.019         -45.2831         167.021       -0.0206025         143.777
0.605                   -2.28881        -179.456         -45.2013         165.191         -45.2008         165.193         -0.02084         143.699
0.606                   -2.32854         179.863         -45.1194         163.373         -45.1189         163.375       -0.0210788         143.621
0.607                   -2.36885         179.177         -45.0378         161.564         -45.0374         161.565       -0.0213186         143.543
0.608                   -2.40974         178.485         -44.9565         159.764         -44.9561         159.765       -0.0215595         143.464
0.609                   -2.45127         177.786         -44.8754         157.973          -44.875         157.974       -0.0218014         143.385
0.61                    -2.49345         177.082         -44.7944          156.19         -44.7941         156.191       -0.0220444         143.306
0.611                   -2.53631          176.37         -44.7136         154.416         -44.7133         154.417       -0.0222883         143.227
0.612                    -2.5799         175.652         -44.6328          152.65         -44.6326         152.651       -0.0225333         143.148
0.613                   -2.62425         174.927         -44.5521         150.893         -44.5518         150.893       -0.0227793         143.068
0.614                    -2.6694         174.194         -44.4713         149.143         -44.4711         149.144       -0.0230264         142.988
0.615                   -2.71539         173.454         -44.3904         147.401         -44.3902         147.401       -0.0232747         142.908
0.616                   -2.76227         172.706         -44.3094         145.666         -44.3092         145.667       -0.0235243         142.828
0.617                   -2.81008         171.951         -44.2282         143.939         -44.2281          143.94       -0.0237752         142.747
0.618                   -2.85889         171.187         -44.1469         142.219         -44.1467         142.219       -0.0240276         142.667
0.619                   -2.90875         170.415         -44.0653         140.505         -44.0652         140.506       -0.0242816         142.586
0.62                    -2.95971         169.635         -43.9834         138.798         -43.9833         138.798       -0.0245373         142.504
0.621                   -3.01185         168.846         -43.9012         137.097         -43.9012         137.097       -0.0247949         142.423
0.622                   -3.06522         168.047         -43.8187         135.402         -43.8187         135.402       -0.0250546         142.341
0.623                   -3.11992          167.24         -43.7359         133.712         -43.7359         133.712       -0.0253165         142.259
0.624                     -3.176         166.423         -43.6527         132.028         -43.6527         132.028       -0.0255807         142.177
0.625                   -3.23356         165.597         -43.5691         130.348         -43.5691         130.348       -0.0258475         142.094
0.626                   -3.29268         164.761         -43.4851         128.674         -43.4851         128.673       -0.0261171         142.011
0.627                   -3.35346         163.915         -43.4006         127.003         -43.4007         127.003       -0.0263895         141.928
0.628                     -3.416         163.059         -43.3158         125.336         -43.3158         125.336        -0.026665         141.845
0.629                    -3.4804         162.193         -43.2305         123.673         -43.2305         123.673       -0.0269439         141.761
