! TOUCHSTONE file generated by CST MICROWAVE STUDIO
! Date and time: Sat Oct 24 11:13:11 2020
! Project name: Scenario_1_Circular_Tissue_in_Line.cst
! Parameters = {L_HA=400; MT=2.54; Rad_Dielectric=30; Rad_Lower=7.3; Rad_Upper=30; a_HA=580; a_WG=246; b_HA=500; b_WG=121; c_HA=0; c_WG=187; d_feed=85; dx1=450.12; h_feed=15; h_lower=18; h_upper=40}
! Header version: 2018
! Port assignment regex: !\s*Touchstone port\s*([0-9]+)\s*=\s*(CST MWS port|CST DS port)\s*([0-9]+|Zmin|Zmax)\s*\(\"(.*)\"\)(\s*mode\s*([0-9]+))?.*
! Touchstone port assignment:
! Touchstone port 1 = CST MWS port 1 ("")
! Touchstone port 2 = CST MWS port 2 ("")
# GHz S DB R 50
0.5                    -0.128375        -122.322         -60.5265        -23.0042         -60.5265        -23.0028      -0.00751321         151.135
0.501                  -0.132305        -122.764         -60.3685        -24.2384         -60.3686        -24.2374      -0.00757056         151.069
0.502                  -0.136403        -123.208          -60.209        -25.4806         -60.2091          -25.48      -0.00762839         151.004
0.503                  -0.140677        -123.655         -60.0478        -26.7311          -60.048        -26.7307       -0.0076867         150.939
0.504                  -0.145135        -124.105          -59.885          -27.99         -59.8854        -27.9899      -0.00774552         150.873
0.505                  -0.149787        -124.558         -59.7207        -29.2576         -59.7211        -29.2577      -0.00780484         150.808
0.506                  -0.154643        -125.013         -59.5548        -30.5342         -59.5553        -30.5345      -0.00786469         150.742
0.507                  -0.159712        -125.472         -59.3874          -31.82         -59.3879        -31.8204      -0.00792507         150.676
0.508                  -0.165005        -125.933         -59.2185        -33.1154          -59.219        -33.1159        -0.007986         150.611
0.509                  -0.170533        -126.398         -59.0481        -34.4205         -59.0487        -34.4211      -0.00804749         150.545
0.51                   -0.176307        -126.865         -58.8762        -35.7358         -58.8768        -35.7364      -0.00810956         150.479
0.511                  -0.182338        -127.336         -58.7029        -37.0614         -58.7036         -37.062      -0.00817223         150.413
0.512                  -0.188639        -127.809         -58.5283        -38.3977         -58.5289        -38.3983      -0.00823551         150.347
0.513                  -0.195222        -128.286         -58.3522         -39.745         -58.3529        -39.7455      -0.00829942          150.28
0.514                    -0.2021        -128.766         -58.1749        -41.1037         -58.1755        -41.1041      -0.00836399         150.214
0.515                  -0.209288        -129.248         -57.9962         -42.474         -57.9969        -42.4743      -0.00842924         150.148
0.516                  -0.216798        -129.734         -57.8163        -43.8564          -57.817        -43.8565      -0.00849519         150.081
0.517                  -0.224644        -130.223         -57.6352         -45.251         -57.6359         -45.251      -0.00856187         150.015
0.518                  -0.232843        -130.715         -57.4529        -46.6583         -57.4536        -46.6582       -0.0086293         149.948
0.519                  -0.241409         -131.21         -57.2695        -48.0786         -57.2701        -48.0783      -0.00869752         149.882
0.52                   -0.250357        -131.708         -57.0851        -49.5123         -57.0856        -49.5118      -0.00876656         149.815
0.521                  -0.259704        -132.209         -56.8996        -50.9598         -56.9001        -50.9591      -0.00883645         149.748
0.522                  -0.269465        -132.713         -56.7131        -52.4213         -56.7136        -52.4204      -0.00890723         149.681
0.523                  -0.279659         -133.22         -56.5258        -53.8972         -56.5263        -53.8961      -0.00897894         149.614
0.524                    -0.2903         -133.73         -56.3376        -55.3879          -56.338        -55.3866       -0.0090516         149.547
0.525                  -0.301408        -134.243         -56.1486        -56.8937          -56.149        -56.8923      -0.00912528         149.479
0.526                  -0.312998        -134.759         -55.9589         -58.415         -55.9593        -58.4134      -0.00920001         149.412
0.527                  -0.325088        -135.277         -55.7686        -59.9522         -55.7689        -59.9503      -0.00927584         149.345
0.528                  -0.337696        -135.799         -55.5777        -61.5055          -55.578        -61.5035      -0.00935282         149.277
0.529                  -0.350838        -136.323         -55.3864        -63.0752         -55.3866        -63.0731        -0.009431         149.209
0.53                   -0.364533        -136.849         -55.1947        -64.6618         -55.1949        -64.6595      -0.00951043         149.142
0.531                  -0.378796        -137.378         -55.0026        -66.2654         -55.0028         -66.263      -0.00959118         149.074
0.532                  -0.393645        -137.909         -54.8104        -67.8865         -54.8106        -67.8839       -0.0096733         149.006
0.533                  -0.409094        -138.443         -54.6181        -69.5251         -54.6182        -69.5224      -0.00975686         148.938
0.534                   -0.42516        -138.979         -54.4258        -71.1817         -54.4258        -71.1788      -0.00984191          148.87
0.535                  -0.441857        -139.517         -54.2336        -72.8563         -54.2336        -72.8534      -0.00992852         148.801
0.536                  -0.459197        -140.056         -54.0416        -74.5493         -54.0416        -74.5463       -0.0100168         148.733
0.537                  -0.477192        -140.597           -53.85        -76.2607         -53.8499        -76.2576       -0.0101067         148.665
0.538                  -0.495854         -141.14         -53.6588        -77.9907         -53.6586        -77.9876       -0.0101984         148.596
0.539                   -0.51519        -141.684         -53.4682        -79.7394          -53.468        -79.7363       -0.0102919         148.527
0.54                   -0.535209         -142.23         -53.2783        -81.5068         -53.2781        -81.5037       -0.0103874         148.459
0.541                  -0.555915        -142.776         -53.0892         -83.293          -53.089        -83.2899       -0.0104848          148.39
0.542                   -0.57731        -143.323         -52.9011         -85.098         -52.9009        -85.0948       -0.0105842         148.321
0.543                  -0.599396        -143.871         -52.7142        -86.9215         -52.7139        -86.9184       -0.0106858         148.252
0.544                  -0.622168        -144.419         -52.5284        -88.7636         -52.5281        -88.7605       -0.0107896         148.183
0.545                  -0.645621        -144.967         -52.3441        -90.6239         -52.3438        -90.6209       -0.0108956         148.113
0.546                  -0.669747        -145.514         -52.1613        -92.5024          -52.161        -92.4994       -0.0110039         148.044
0.547                  -0.694533        -146.062         -51.9802        -94.3986         -51.9798        -94.3957       -0.0111146         147.974
0.548                  -0.719964        -146.609         -51.8009        -96.3121         -51.8005        -96.3093       -0.0112277         147.905
0.549                   -0.74602        -147.155         -51.6235        -98.2427         -51.6232          -98.24       -0.0113432         147.835
0.55                   -0.772678          -147.7         -51.4483         -100.19         -51.4479        -100.187       -0.0114613         147.765
0.551                  -0.799911        -148.244         -51.2753        -102.153         -51.2749         -102.15        -0.011582         147.695
0.552                  -0.827689        -148.787         -51.1046        -104.131         -51.1042        -104.128       -0.0117052         147.625
0.553                  -0.855977        -149.328         -50.9364        -106.123          -50.936        -106.121       -0.0118311         147.555
0.554                  -0.884738        -149.867         -50.7708         -108.13         -50.7705        -108.128       -0.0119595         147.484
0.555                  -0.913929        -150.404          -50.608        -110.149         -50.6076        -110.147       -0.0120907         147.414
0.556                  -0.943506        -150.939         -50.4479        -112.181         -50.4476        -112.179       -0.0122244         147.343
0.557                  -0.973422        -151.472         -50.2908        -114.224         -50.2905        -114.222       -0.0123609         147.273
0.558                   -1.00363        -152.003         -50.1368        -116.277         -50.1365        -116.275       -0.0124999         147.202
0.559                   -1.03407        -152.532         -49.9858        -118.339         -49.9855        -118.338       -0.0126415         147.131
0.56                    -1.06469        -153.058          -49.838        -120.409         -49.8377        -120.408       -0.0127857          147.06
0.561                   -1.09545        -153.582         -49.6934        -122.487         -49.6932        -122.485       -0.0129324         146.989
0.562                   -1.12627        -154.104         -49.5521         -124.57         -49.5519        -124.568       -0.0130816         146.918
0.563                   -1.15711        -154.625         -49.4141        -126.658         -49.4139        -126.656       -0.0132333         146.846
0.564                   -1.18792        -155.143         -49.2794        -128.749         -49.2792        -128.748       -0.0133873         146.775
0.565                   -1.21863        -155.659          -49.148        -130.842         -49.1479        -130.841       -0.0135435         146.703
0.566                   -1.24921        -156.175           -49.02        -132.937         -49.0199        -132.936        -0.013702         146.631
0.567                    -1.2796        -156.689         -48.8953        -135.032         -48.8952        -135.031       -0.0138627         146.559
0.568                   -1.30975        -157.202         -48.7738        -137.125         -48.7738        -137.124       -0.0140254         146.488
0.569                   -1.33963        -157.715         -48.6556        -139.216         -48.6556        -139.215       -0.0141901         146.415
0.57                    -1.36919        -158.227         -48.5406        -141.304         -48.5406        -141.303       -0.0143566         146.343
0.571                   -1.39842         -158.74         -48.4286        -143.387         -48.4288        -143.386        -0.014525         146.271
0.572                   -1.42727        -159.253         -48.3198        -145.465         -48.3199        -145.464       -0.0146951         146.198
0.573                   -1.45574        -159.768         -48.2138        -147.536          -48.214        -147.535       -0.0148669         146.126
0.574                   -1.48379        -160.284         -48.1107          -149.6         -48.1109        -149.599       -0.0150402         146.053
0.575                   -1.51144        -160.802         -48.0104        -151.655         -48.0106        -151.654        -0.015215          145.98
0.576                   -1.53866        -161.322         -47.9126        -153.702         -47.9129          -153.7       -0.0153912         145.907
0.577                   -1.56547        -161.846         -47.8174        -155.738         -47.8177        -155.737       -0.0155687         145.834
0.578                   -1.59187        -162.372         -47.7246        -157.764         -47.7249        -157.762       -0.0157475          145.76
0.579                   -1.61788        -162.903          -47.634        -159.779         -47.6343        -159.777       -0.0159275         145.687
0.58                    -1.64351        -163.437         -47.5456        -161.782         -47.5459         -161.78       -0.0161087         145.613
0.581                   -1.66879        -163.977         -47.4591        -163.773         -47.4595        -163.771        -0.016291          145.54
0.582                   -1.69375        -164.521         -47.3745        -165.752         -47.3749         -165.75       -0.0164744         145.466
0.583                   -1.71843        -165.071         -47.2916        -167.718          -47.292        -167.715       -0.0166589         145.392
0.584                   -1.74286        -165.627         -47.2102         -169.67         -47.2106        -169.668       -0.0168443         145.318
0.585                   -1.76708         -166.19         -47.1303        -171.609         -47.1307        -171.607       -0.0170307         145.243
0.586                   -1.79115        -166.759         -47.0517        -173.535         -47.0521        -173.533       -0.0172182         145.169
0.587                    -1.8151        -167.334         -46.9742        -175.448         -46.9746        -175.445       -0.0174066         145.094
0.588                     -1.839        -167.918         -46.8978        -177.346         -46.8982        -177.344        -0.017596         145.019
0.589                   -1.86289        -168.508         -46.8223        -179.231         -46.8227        -179.229       -0.0177863         144.944
0.59                    -1.88683        -169.107         -46.7475         178.897         -46.7479           178.9       -0.0179777         144.869
0.591                   -1.91088        -169.714         -46.6734         177.039         -46.6737         177.041         -0.01817         144.794
0.592                    -1.9351        -170.329         -46.5998         175.193         -46.6001         175.196       -0.0183634         144.718
0.593                   -1.95954        -170.952         -46.5266         173.361         -46.5269         173.364       -0.0185579         144.643
0.594                   -1.98427        -171.584         -46.4537         171.542          -46.454         171.544       -0.0187535         144.567
0.595                   -2.00935        -172.225          -46.381         169.735         -46.3813         169.737       -0.0189502         144.491
0.596                   -2.03485        -172.875         -46.3084          167.94         -46.3087         167.942        -0.019148         144.415
0.597                   -2.06082        -173.534         -46.2358         166.156         -46.2361         166.159       -0.0193471         144.338
0.598                   -2.08733        -174.202         -46.1631         164.385         -46.1634         164.387       -0.0195474         144.262
0.599                   -2.11444        -174.879         -46.0903         162.624         -46.0906         162.627       -0.0197491         144.185
0.6                     -2.14222        -175.565         -46.0172         160.874         -46.0175         160.876       -0.0199521         144.108
0.601                   -2.17073        -176.261         -45.9438         159.134          -45.944         159.136       -0.0201565         144.031
0.602                   -2.20004        -176.967           -45.87         157.404         -45.8702         157.406       -0.0203625         143.954
0.603                    -2.2302        -177.682         -45.7957         155.683          -45.796         155.685         -0.02057         143.876
0.604                   -2.26129        -178.406         -45.7209         153.971         -45.7212         153.973       -0.0207791         143.798
0.605                   -2.29336         -179.14         -45.6456         152.267         -45.6458         152.269       -0.0209898          143.72
0.606                   -2.32649        -179.883         -45.5697         150.571         -45.5699         150.573       -0.0212024         143.642
0.607                   -2.36073         179.364         -45.4931         148.883         -45.4933         148.885       -0.0214167         143.564
0.608                   -2.39616         178.602         -45.4158         147.202          -45.416         147.204        -0.021633         143.486
0.609                   -2.43284         177.831         -45.3378         145.527         -45.3379         145.528       -0.0218512         143.407
0.61                    -2.47084          177.05          -45.259         143.858         -45.2591         143.859       -0.0220715         143.328
0.611                   -2.51022          176.26         -45.1794         142.194         -45.1796         142.196       -0.0222939         143.249
0.612                   -2.55105          175.46         -45.0991         140.536         -45.0992         140.537       -0.0225185         143.169
0.613                    -2.5934         174.652         -45.0179         138.882          -45.018         138.883       -0.0227453          143.09
0.614                   -2.63734         173.835         -44.9359         137.232          -44.936         137.233       -0.0229746          143.01
0.615                   -2.68295         173.008          -44.853         135.585         -44.8531         135.586       -0.0232063          142.93
0.616                   -2.73029         172.173         -44.7693         133.942         -44.7694         133.943       -0.0234405         142.849
0.617                   -2.77943         171.329         -44.6848         132.302         -44.6849         132.302       -0.0236774         142.769
0.618                   -2.83045         170.476         -44.5994         130.663         -44.5995         130.664        -0.023917         142.688
0.619                   -2.88343         169.615         -44.5131         129.027         -44.5132         129.027       -0.0241593         142.607
0.62                    -2.93844         168.746         -44.4261         127.391         -44.4262         127.392       -0.0244046         142.526
0.621                   -2.99556         167.869         -44.3382         125.757         -44.3383         125.757       -0.0246529         142.444
0.622                   -3.05487         166.984         -44.2495         124.123         -44.2496         124.123       -0.0249042         142.363
0.623                   -3.11645         166.091         -44.1601         122.489         -44.1602         122.489       -0.0251588         142.281
0.624                   -3.18038         165.191         -44.0699         120.855         -44.0699         120.855       -0.0254166         142.198
0.625                   -3.24675         164.284         -43.9789          119.22          -43.979          119.22       -0.0256778         142.116
0.626                   -3.31565          163.37         -43.8873         117.585         -43.8873         117.584       -0.0259425         142.033
0.627                   -3.38715         162.449         -43.7949         115.948          -43.795         115.947       -0.0262108          141.95
0.628                   -3.46136         161.522          -43.702         114.309          -43.702         114.309       -0.0264828         141.867
0.629                   -3.53835          160.59         -43.6084         112.668         -43.6085         112.668       -0.0267586         141.783
