! TOUCHSTONE file generated by CST MICROWAVE STUDIO
! Date and time: Sat Oct 24 11:13:28 2020
! Project name: Scenario_1_Circular_Tissue_in_Line.cst
! Parameters = {L_HA=400; MT=2.54; Rad_Dielectric=30; Rad_Lower=7.3; Rad_Upper=30; a_HA=580; a_WG=246; b_HA=500; b_WG=121; c_HA=0; c_WG=187; d_feed=85; dx1=467.44; h_feed=15; h_lower=18; h_upper=40}
! Header version: 2018
! Port assignment regex: !\s*Touchstone port\s*([0-9]+)\s*=\s*(CST MWS port|CST DS port)\s*([0-9]+|Zmin|Zmax)\s*\(\"(.*)\"\)(\s*mode\s*([0-9]+))?.*
! Touchstone port assignment:
! Touchstone port 1 = CST MWS port 1 ("")
! Touchstone port 2 = CST MWS port 2 ("")
# GHz S DB R 50
0.5                     -0.12561        -122.355         -60.7128        -31.8548         -60.7127        -31.8531       -0.0074862         151.128
0.501                  -0.129776          -122.8         -60.5422        -33.0993         -60.5404        -33.1041      -0.00754421         151.063
0.502                  -0.134141        -123.247         -60.3702        -34.3555          -60.367        -34.3668      -0.00760275         150.998
0.503                  -0.138712        -123.697          -60.197        -35.6234         -60.1925        -35.6412      -0.00766181         150.932
0.504                    -0.1435         -124.15         -60.0226        -36.9034         -60.0169        -36.9276      -0.00772142         150.867
0.505                  -0.148512        -124.606         -59.8469        -38.1957         -59.8402        -38.2262       -0.0077816         150.801
0.506                   -0.15376        -125.065         -59.6701        -39.5006         -59.6625        -39.5371      -0.00784236         150.736
0.507                  -0.159254        -125.526         -59.4921        -40.8182         -59.4838        -40.8605      -0.00790372          150.67
0.508                  -0.165004         -125.99         -59.3129        -42.1489         -59.3042        -42.1966      -0.00796569         150.604
0.509                  -0.171021        -126.457         -59.1326        -43.4929         -59.1236        -43.5456       -0.0080283         150.538
0.51                   -0.177318        -126.927         -58.9512        -44.8505         -58.9421        -44.9076      -0.00809158         150.472
0.511                  -0.183906          -127.4         -58.7688        -46.2219         -58.7598        -46.2828      -0.00815555         150.406
0.512                  -0.190798        -127.875         -58.5855        -47.6075         -58.5766        -47.6713      -0.00822023          150.34
0.513                  -0.198006        -128.354         -58.4011        -49.0074         -58.3926        -49.0732      -0.00828566         150.274
0.514                  -0.205544        -128.835         -58.2158        -50.4221         -58.2079        -50.4886      -0.00835186         150.207
0.515                  -0.213426        -129.319         -58.0297        -51.8516         -58.0224        -51.9178      -0.00841887         150.141
0.516                  -0.221667        -129.806         -57.8427        -53.2963         -57.8363        -53.3607      -0.00848673         150.074
0.517                   -0.23028        -130.296          -57.655        -54.7565         -57.6495        -54.8174      -0.00855547         150.008
0.518                   -0.23928        -130.789         -57.4666        -56.2324          -57.462         -56.288      -0.00862513         149.941
0.519                  -0.248683        -131.284         -57.2775        -57.7243          -57.274        -57.7727      -0.00869576         149.874
0.52                   -0.258505        -131.782         -57.0879        -59.2324         -57.0854        -59.2715       -0.0087674         149.807
0.521                  -0.268761        -132.283         -56.8977        -60.7569         -56.8963        -60.7845       -0.0088401         149.741
0.522                  -0.279466        -132.787         -56.7071        -62.2981         -56.7065        -62.3118       -0.0089139         149.674
0.523                  -0.290638        -133.293         -56.5162        -63.8561         -56.5163        -63.8537      -0.00898887         149.606
0.524                  -0.302291        -133.802         -56.3249        -65.4312         -56.3255        -65.4103      -0.00906505         149.539
0.525                  -0.314442        -134.313         -56.1334        -67.0235         -56.1342         -66.982      -0.00914251         149.472
0.526                  -0.327107        -134.827         -55.9418        -68.6332         -55.9423        -68.5691       -0.0092213         149.404
0.527                    -0.3403        -135.343         -55.7501        -70.2604         -55.7499        -70.1722      -0.00930147         149.337
0.528                  -0.354038        -135.861         -55.5585        -71.9053          -55.557        -71.7919      -0.00938311         149.269
0.529                  -0.368333        -136.381          -55.367        -73.5679         -55.3636        -73.4288      -0.00946626         149.202
0.53                     -0.3832        -136.903         -55.1757        -75.2482         -55.1697        -75.0839        -0.009551         149.134
0.531                  -0.398651        -137.427         -54.9848        -76.9463         -54.9754        -76.7581      -0.00963739         149.066
0.532                  -0.414697        -137.953         -54.7942        -78.6622         -54.7808        -78.4523      -0.00972549         148.998
0.533                  -0.431349         -138.48         -54.6042        -80.3959         -54.5859        -80.1676      -0.00981538          148.93
0.534                  -0.448615        -139.009         -54.4147        -82.1472         -54.3911        -81.9051      -0.00990711         148.862
0.535                  -0.466502        -139.539          -54.226        -83.9161         -54.1964        -83.6656       -0.0100008         148.793
0.536                  -0.485014         -140.07          -54.038        -85.7024         -54.0021        -85.4499       -0.0100964         148.725
0.537                  -0.504154        -140.602         -53.8509        -87.5059         -53.8085        -87.2586       -0.0101941         148.656
0.538                  -0.523922        -141.134         -53.6647        -89.3266         -53.6158         -89.092       -0.0102938         148.588
0.539                  -0.544314        -141.667         -53.4795        -91.1642         -53.4243        -90.9501       -0.0103957         148.519
0.54                   -0.565326          -142.2         -53.2954        -93.0185         -53.2344        -92.8328       -0.0104999          148.45
0.541                  -0.586947        -142.734         -53.1125        -94.8895         -53.0463        -94.7395       -0.0106062         148.381
0.542                  -0.609165        -143.267         -52.9307         -96.777         -52.8602        -96.6694       -0.0107149         148.312
0.543                  -0.631965        -143.799         -52.7501         -98.681         -52.6766        -98.6216       -0.0108259         148.243
0.544                  -0.655327        -144.331         -52.5708        -100.602         -52.4955        -100.595       -0.0109392         148.174
0.545                  -0.679227        -144.862         -52.3929        -102.539         -52.3172        -102.588       -0.0110549         148.105
0.546                  -0.703639        -145.392         -52.2163        -104.495          -52.142        -104.599       -0.0111731         148.035
0.547                  -0.728531        -145.921         -52.0411        -106.468         -51.9698        -106.628       -0.0112936         147.966
0.548                   -0.75387        -146.449         -51.8676        -108.461         -51.8009        -108.671       -0.0114165         147.896
0.549                  -0.779617        -146.975         -51.6958        -110.474         -51.6354        -110.729       -0.0115418         147.826
0.55                   -0.805731        -147.499         -51.5261        -112.508         -51.4733        -112.799       -0.0116695         147.756
0.551                  -0.832167        -148.022         -51.3589        -114.564         -51.3147         -114.88       -0.0117995         147.686
0.552                   -0.85888        -148.543         -51.1946        -116.643         -51.1597        -116.971       -0.0119319         147.616
0.553                   -0.88582        -149.063         -51.0339        -118.743         -51.0083        -119.069       -0.0120665         147.546
0.554                  -0.912937         -149.58         -50.8773        -120.863         -50.8605        -121.174       -0.0122034         147.476
0.555                  -0.940179        -150.096         -50.7253            -123         -50.7162        -123.284       -0.0123424         147.405
0.556                  -0.967494         -150.61         -50.5784         -125.15         -50.5756        -125.398       -0.0124836         147.335
0.557                  -0.994831        -151.122         -50.4367        -127.308         -50.4385        -127.514       -0.0126268         147.264
0.558                   -1.02214        -151.633         -50.3003        -129.469          -50.305        -129.632        -0.012772         147.193
0.559                   -1.04937        -152.143          -50.169        -131.629         -50.1749        -131.749       -0.0129191         147.123
0.56                    -1.07647        -152.652         -50.0426        -133.784         -50.0483        -133.866       -0.0130681         147.052
0.561                    -1.1034         -153.16         -49.9206        -135.931         -49.9251         -135.98       -0.0132188          146.98
0.562                   -1.13012        -153.668         -49.8026        -138.069         -49.8052         -138.09       -0.0133712         146.909
0.563                   -1.15659        -154.175         -49.6883        -140.197         -49.6884        -140.196       -0.0135253         146.838
0.564                   -1.18278        -154.683         -49.5773        -142.313         -49.5748        -142.296       -0.0136808         146.766
0.565                   -1.20866        -155.191         -49.4693        -144.417         -49.4643         -144.39       -0.0138378         146.695
0.566                   -1.23422          -155.7         -49.3641        -146.509         -49.3566        -146.476       -0.0139962         146.623
0.567                   -1.25942        -156.211         -49.2615        -148.589         -49.2518        -148.554       -0.0141559         146.551
0.568                   -1.28427        -156.723         -49.1614        -150.657         -49.1496        -150.623       -0.0143168         146.479
0.569                   -1.30876        -157.238         -49.0634        -152.714           -49.05        -152.682       -0.0144789         146.407
0.57                    -1.33289        -157.755         -48.9676        -154.758         -48.9529         -154.73       -0.0146421         146.335
0.571                   -1.35666        -158.276         -48.8738         -156.79         -48.8581        -156.768       -0.0148064         146.263
0.572                   -1.38009          -158.8         -48.7819         -158.81         -48.7654        -158.794       -0.0149718          146.19
0.573                   -1.40319        -159.328         -48.6918        -160.817         -48.6748        -160.807       -0.0151381         146.118
0.574                   -1.42599         -159.86         -48.6033        -162.812          -48.586        -162.809       -0.0153053         146.045
0.575                   -1.44851        -160.397         -48.5164        -164.794         -48.4991        -164.797       -0.0154735         145.972
0.576                   -1.47079        -160.939         -48.4309        -166.763         -48.4137        -166.772       -0.0156425         145.899
0.577                   -1.49285        -161.486         -48.3468         -168.72         -48.3299        -168.735       -0.0158124         145.826
0.578                   -1.51475         -162.04         -48.2639        -170.663         -48.2474        -170.683       -0.0159832         145.752
0.579                   -1.53651        -162.599         -48.1821        -172.593         -48.1661        -172.618       -0.0161548         145.679
0.58                    -1.55819        -163.165         -48.1013        -174.511         -48.0859         -174.54       -0.0163272         145.605
0.581                   -1.57982        -163.737         -48.0214        -176.415         -48.0066        -176.448       -0.0165005         145.532
0.582                   -1.60147        -164.317         -47.9422        -178.307         -47.9282        -178.342       -0.0166747         145.458
0.583                   -1.62318        -164.903         -47.8638         179.815         -47.8505         179.777       -0.0168497         145.384
0.584                   -1.64499        -165.497         -47.7859         177.949         -47.7733         177.909       -0.0170255         145.309
0.585                   -1.66698        -166.099         -47.7085         176.096         -47.6967         176.055       -0.0172023         145.235
0.586                   -1.68918        -166.708         -47.6314         174.255         -47.6204         174.213         -0.01738          145.16
0.587                   -1.71165        -167.325         -47.5546         172.427         -47.5443         172.384       -0.0175587         145.086
0.588                   -1.73445         -167.95          -47.478          170.61         -47.4685         170.567       -0.0177383         145.011
0.589                   -1.75763        -168.584         -47.4014         168.805         -47.3926         168.763        -0.017919         144.936
0.59                    -1.78125        -169.225         -47.3249         167.012         -47.3168          166.97       -0.0181008         144.861
0.591                   -1.80537        -169.875         -47.2483          165.23         -47.2408         165.188       -0.0182836         144.785
0.592                   -1.83003        -170.533         -47.1715         163.458         -47.1647         163.417       -0.0184676          144.71
0.593                    -1.8553          -171.2         -47.0944         161.696         -47.0882         161.657       -0.0186528         144.634
0.594                   -1.88123        -171.875         -47.0171         159.945         -47.0115         159.907       -0.0188392         144.558
0.595                   -1.90787        -172.559         -46.9394         158.203         -46.9343         158.166       -0.0190269         144.482
0.596                   -1.93529        -173.251         -46.8612          156.47         -46.8566         156.435        -0.019216         144.406
0.597                   -1.96353        -173.952         -46.7825         154.746         -46.7785         154.713       -0.0194065         144.329
0.598                   -1.99266        -174.661         -46.7033          153.03         -46.6997         152.998       -0.0195984         144.253
0.599                   -2.02273        -175.379         -46.6236         151.322         -46.6203         151.292       -0.0197919         144.176
0.6                     -2.05379        -176.105         -46.5431         149.622         -46.5403         149.593       -0.0199869         144.099
0.601                    -2.0859         -176.84          -46.462         147.928         -46.4595         147.901       -0.0201836         144.022
0.602                   -2.11912        -177.584         -46.3802         146.241          -46.378         146.216       -0.0203821         143.944
0.603                   -2.15351        -178.336         -46.2977         144.559         -46.2958         144.536       -0.0205823         143.867
0.604                   -2.18912        -179.096         -46.2143         142.883         -46.2127         142.862       -0.0207843         143.789
0.605                   -2.22602        -179.865         -46.1302         141.212         -46.1288         141.193       -0.0209883         143.711
0.606                   -2.26426         179.358         -46.0453         139.546         -46.0441         139.528       -0.0211942         143.632
0.607                    -2.3039         178.573         -45.9595         137.884         -45.9585         137.868       -0.0214022         143.554
0.608                     -2.345          177.78          -45.873         136.225         -45.8721         136.211       -0.0216124         143.475
0.609                   -2.38763         176.979         -45.7855          134.57         -45.7848         134.557       -0.0218247         143.397
0.61                    -2.43184         176.169         -45.6972         132.917         -45.6966         132.906       -0.0220394         143.317
0.611                   -2.47771         175.352         -45.6081         131.267         -45.6076         131.257       -0.0222564         143.238
0.612                   -2.52529         174.527         -45.5181         129.619         -45.5177         129.609       -0.0224758         143.159
0.613                   -2.57466         173.695         -45.4273         127.971          -45.427         127.963       -0.0226978         143.079
0.614                   -2.62588         172.855         -45.3356         126.325         -45.3354         126.318       -0.0229224         142.999
0.615                   -2.67901         172.008         -45.2432          124.68          -45.243         124.674       -0.0231497         142.919
0.616                   -2.73414         171.154         -45.1499         123.034         -45.1497         123.029       -0.0233798         142.838
0.617                   -2.79132         170.294         -45.0558         121.388         -45.0557         121.384       -0.0236128         142.758
0.618                   -2.85064         169.426          -44.961         119.742         -44.9609         119.739       -0.0238487         142.677
0.619                   -2.91216         168.552         -44.8655         118.095         -44.8654         118.092       -0.0240877         142.596
0.62                    -2.97596         167.673         -44.7692         116.446         -44.7691         116.444       -0.0243299         142.514
0.621                   -3.04213         166.787         -44.6722         114.796         -44.6722         114.794       -0.0245753         142.432
0.622                   -3.11072         165.896         -44.5747         113.143         -44.5746         113.142        -0.024824         142.351
0.623                   -3.18183             165         -44.4765         111.488         -44.4764         111.488       -0.0250762         142.268
0.624                   -3.25553         164.099         -44.3777         109.831         -44.3776         109.831        -0.025332         142.186
0.625                    -3.3319         163.193         -44.2784         108.171         -44.2783         108.171       -0.0255914         142.103
0.626                   -3.41102         162.284         -44.1786         106.507         -44.1785         106.508       -0.0258546          142.02
0.627                   -3.49298         161.371         -44.0783          104.84         -44.0783         104.841       -0.0261217         141.937
0.628                   -3.57785         160.456         -43.9777         103.169         -43.9776          103.17       -0.0263927         141.854
0.629                   -3.66572         159.538         -43.8767         101.495         -43.8766         101.496       -0.0266679          141.77
