! TOUCHSTONE file generated by CST MICROWAVE STUDIO
! Date and time: Sat Oct 24 11:13:38 2020
! Project name: Scenario_1_Circular_Tissue_in_Line.cst
! Parameters = {L_HA=400; MT=2.54; Rad_Dielectric=30; Rad_Lower=7.3; Rad_Upper=30; a_HA=580; a_WG=246; b_HA=500; b_WG=121; c_HA=0; c_WG=187; d_feed=85; dx1=484.76; h_feed=15; h_lower=18; h_upper=40}
! Header version: 2018
! Port assignment regex: !\s*Touchstone port\s*([0-9]+)\s*=\s*(CST MWS port|CST DS port)\s*([0-9]+|Zmin|Zmax)\s*\(\"(.*)\"\)(\s*mode\s*([0-9]+))?.*
! Touchstone port assignment:
! Touchstone port 1 = CST MWS port 1 ("")
! Touchstone port 2 = CST MWS port 2 ("")
# GHz S DB R 50
0.5                    -0.124967        -122.439          -60.857        -40.8475          -60.857        -40.8475      -0.00743463         151.122
0.501                  -0.140786        -122.904         -60.6742        -42.0957         -60.6742        -42.0954      -0.00748307         151.057
0.502                  -0.156668        -123.369         -60.4902        -43.3591         -60.4901        -43.3586      -0.00753346         150.991
0.503                  -0.172608        -123.834         -60.3049        -44.6381         -60.3047        -44.6373      -0.00758581         150.926
0.504                  -0.188603          -124.3         -60.1184        -45.9329         -60.1181        -45.9319       -0.0076401          150.86
0.505                  -0.204649        -124.765         -59.9307        -47.2439         -59.9304        -47.2428      -0.00769631         150.795
0.506                  -0.220743        -125.231         -59.7419        -48.5715         -59.7415        -48.5701      -0.00775444         150.729
0.507                  -0.236883        -125.697         -59.5519        -49.9159         -59.5515        -49.9144      -0.00781448         150.663
0.508                  -0.253064        -126.163          -59.361        -51.2775         -59.3605        -51.2759      -0.00787641         150.597
0.509                  -0.269283        -126.629          -59.169        -52.6567         -59.1684        -52.6549      -0.00794022         150.531
0.51                   -0.285537        -127.096         -58.9761        -54.0537         -58.9755        -54.0518      -0.00800589         150.465
0.511                  -0.301824        -127.563         -58.7823        -55.4689         -58.7817        -55.4669      -0.00807343         150.399
0.512                  -0.318139         -128.03         -58.5878        -56.9026          -58.587        -56.9006       -0.0081428         150.332
0.513                  -0.334481        -128.497         -58.3924        -58.3552         -58.3917        -58.3531      -0.00821401         150.266
0.514                  -0.350847        -128.966         -58.1964         -59.827         -58.1956        -59.8248      -0.00828703           150.2
0.515                  -0.367233        -129.434         -57.9998        -61.3183          -57.999        -61.3161      -0.00836186         150.133
0.516                  -0.383637        -129.903         -57.8027        -62.8294         -57.8018        -62.8271      -0.00843847         150.067
0.517                  -0.400057        -130.372         -57.6052        -64.3605         -57.6043        -64.3582      -0.00851685             150
0.518                  -0.416489        -130.843         -57.4073         -65.912         -57.4064        -65.9097      -0.00859699         149.933
0.519                  -0.432933        -131.313         -57.2092         -67.484         -57.2082        -67.4818      -0.00867888         149.866
0.52                   -0.449384        -131.785          -57.011         -69.077           -57.01        -69.0748      -0.00876249           149.8
0.521                  -0.465842        -132.257         -56.8127        -70.6909         -56.8117        -70.6888      -0.00884781         149.733
0.522                  -0.482305        -132.729         -56.6145        -72.3261         -56.6135        -72.3241      -0.00893483         149.666
0.523                  -0.498769        -133.203         -56.4166        -73.9828         -56.4155        -73.9807      -0.00902353         149.598
0.524                  -0.515234        -133.677         -56.2189        -75.6609         -56.2178        -75.6589       -0.0091139         149.531
0.525                  -0.531697        -134.152         -56.0217        -77.3606         -56.0206        -77.3588      -0.00920591         149.464
0.526                  -0.548158        -134.628         -55.8251         -79.082          -55.824        -79.0802      -0.00929955         149.397
0.527                  -0.564614        -135.105         -55.6292         -80.825         -55.6281        -80.8234       -0.0093948         149.329
0.528                  -0.581065        -135.583         -55.4342        -82.5897          -55.433        -82.5881      -0.00949166         149.261
0.529                  -0.597508        -136.062         -55.2401        -84.3758         -55.2389        -84.3744      -0.00959009         149.194
0.53                   -0.613944        -136.542         -55.0472        -86.1834          -55.046        -86.1821      -0.00969008         149.126
0.531                  -0.630371        -137.024         -54.8556        -88.0121         -54.8544         -88.011      -0.00979162         149.058
0.532                  -0.646789        -137.506         -54.6654        -89.8617         -54.6642        -89.8607      -0.00989468          148.99
0.533                  -0.663197         -137.99         -54.4768        -91.7319         -54.4756        -91.7311      -0.00999926         148.922
0.534                  -0.679594        -138.475         -54.2899        -93.6223         -54.2888        -93.6216       -0.0101053         148.854
0.535                  -0.695981        -138.961          -54.105        -95.5324         -54.1038        -95.5319       -0.0102129         148.786
0.536                  -0.712358        -139.449          -53.922        -97.4617         -53.9209        -97.4613       -0.0103219         148.718
0.537                  -0.728724        -139.938         -53.7413        -99.4096         -53.7402        -99.4094       -0.0104323         148.649
0.538                   -0.74508        -140.428         -53.5629        -101.375         -53.5618        -101.375       -0.0105442         148.581
0.539                  -0.761427         -140.92         -53.3869        -103.358         -53.3858        -103.359       -0.0106574         148.512
0.54                   -0.777766        -141.414         -53.2135        -105.358         -53.2125        -105.358       -0.0107721         148.444
0.541                  -0.794097         -141.91         -53.0429        -107.373         -53.0419        -107.373       -0.0108881         148.375
0.542                  -0.810423        -142.407         -52.8751        -109.402         -52.8741        -109.403       -0.0110055         148.306
0.543                  -0.826744        -142.906         -52.7103        -111.445         -52.7093        -111.446       -0.0111242         148.237
0.544                  -0.843062        -143.407         -52.5485        -113.501         -52.5475        -113.501       -0.0112442         148.168
0.545                   -0.85938         -143.91         -52.3898        -115.567         -52.3889        -115.568       -0.0113655         148.099
0.546                  -0.875701        -144.414         -52.2344        -117.644         -52.2336        -117.645       -0.0114881         148.029
0.547                  -0.892026        -144.921         -52.0823         -119.73         -52.0815        -119.731       -0.0116119          147.96
0.548                  -0.908359         -145.43         -51.9336        -121.824         -51.9328        -121.825       -0.0117371         147.891
0.549                  -0.924703        -145.941         -51.7882        -123.924         -51.7874        -123.925       -0.0118634         147.821
0.55                   -0.941062        -146.455         -51.6463        -126.029         -51.6456         -126.03        -0.011991         147.751
0.551                   -0.95744         -146.97         -51.5078        -128.138         -51.5071         -128.14       -0.0121197         147.681
0.552                  -0.973842        -147.488         -51.3727         -130.25         -51.3721        -130.251       -0.0122497         147.612
0.553                  -0.990272        -148.009         -51.2411        -132.363         -51.2405        -132.365       -0.0123808         147.541
0.554                   -1.00674        -148.532         -51.1129        -134.476         -51.1123        -134.478       -0.0125131         147.471
0.555                   -1.02324        -149.058          -50.988        -136.588         -50.9874        -136.589       -0.0126465         147.401
0.556                   -1.03979        -149.586         -50.8664        -138.697         -50.8659        -138.699       -0.0127811         147.331
0.557                   -1.05639        -150.118         -50.7481        -140.803         -50.7476        -140.804       -0.0129167          147.26
0.558                   -1.07305        -150.652         -50.6329        -142.904         -50.6325        -142.905       -0.0130535          147.19
0.559                   -1.08977        -151.189         -50.5208        -144.999         -50.5204            -145       -0.0131914         147.119
0.56                    -1.10658        -151.729         -50.4116        -147.087         -50.4113        -147.088       -0.0133304         147.048
0.561                   -1.12346        -152.272         -50.3053        -149.167          -50.305        -149.168       -0.0134704         146.977
0.562                   -1.14044        -152.818         -50.2018        -151.238         -50.2015        -151.239       -0.0136115         146.906
0.563                   -1.15752        -153.368         -50.1008          -153.3         -50.1006        -153.301       -0.0137537         146.835
0.564                   -1.17471        -153.921         -50.0024        -155.351         -50.0021        -155.352       -0.0138969         146.763
0.565                   -1.19202        -154.478         -49.9063        -157.391          -49.906        -157.392       -0.0140412         146.692
0.566                   -1.20947        -155.038         -49.8123         -159.42         -49.8121        -159.421       -0.0141865          146.62
0.567                   -1.22707        -155.601         -49.7205        -161.437         -49.7203        -161.437       -0.0143328         146.549
0.568                   -1.24483        -156.169         -49.6306         -163.44         -49.6304        -163.441       -0.0144802         146.477
0.569                   -1.26276         -156.74         -49.5424        -165.431         -49.5423        -165.432       -0.0146286         146.405
0.57                    -1.28088        -157.316         -49.4558        -167.409         -49.4557        -167.409       -0.0147781         146.333
0.571                    -1.2992        -157.895         -49.3707        -169.372         -49.3707        -169.373       -0.0149285         146.261
0.572                   -1.31774        -158.479          -49.287        -171.323         -49.2869        -171.323         -0.01508         146.188
0.573                   -1.33652        -159.066         -49.2044        -173.259         -49.2044        -173.259       -0.0152325         146.116
0.574                   -1.35556        -159.658         -49.1229        -175.181         -49.1229        -175.181       -0.0153861         146.043
0.575                   -1.37486        -160.255         -49.0423         -177.09         -49.0423         -177.09       -0.0155407          145.97
0.576                   -1.39446        -160.856         -48.9624        -178.984         -48.9624        -178.984       -0.0156963         145.897
0.577                   -1.41437        -161.462         -48.8832         179.135         -48.8832         179.135        -0.015853         145.824
0.578                   -1.43461        -162.073         -48.8045         177.267         -48.8045         177.267       -0.0160108         145.751
0.579                   -1.45521        -162.689         -48.7262         175.413         -48.7263         175.413       -0.0161696         145.678
0.58                    -1.47619        -163.309         -48.6482         173.572         -48.6483         173.572       -0.0163296         145.604
0.581                   -1.49757        -163.935         -48.5704         171.744         -48.5704         171.744       -0.0164906          145.53
0.582                   -1.51939        -164.566         -48.4926         169.928         -48.4927         169.929       -0.0166528         145.456
0.583                   -1.54166        -165.203         -48.4148         168.125         -48.4149         168.125       -0.0168161         145.382
0.584                   -1.56441        -165.845         -48.3369         166.333         -48.3369         166.333       -0.0169805         145.308
0.585                   -1.58768        -166.493         -48.2587         164.552         -48.2588         164.553       -0.0171462         145.234
0.586                   -1.61149        -167.146         -48.1803         162.783         -48.1803         162.783        -0.017313          145.16
0.587                   -1.63587        -167.805         -48.1014         161.024         -48.1015         161.024       -0.0174811         145.085
0.588                   -1.66087         -168.47         -48.0222         159.274         -48.0222         159.275       -0.0176504          145.01
0.589                   -1.68651        -169.141         -47.9424         157.535         -47.9425         157.536       -0.0178211         144.935
0.59                    -1.71283        -169.818          -47.862         155.805         -47.8621         155.805        -0.017993          144.86
0.591                   -1.73986        -170.502          -47.781         154.083         -47.7811         154.083       -0.0181663         144.785
0.592                   -1.76765        -171.192         -47.6994         152.369         -47.6995          152.37        -0.018341         144.709
0.593                   -1.79624        -171.888          -47.617         150.663         -47.6171         150.664       -0.0185171         144.634
0.594                   -1.82566        -172.591         -47.5338         148.964         -47.5339         148.965       -0.0186947         144.558
0.595                   -1.85596          -173.3         -47.4499         147.271         -47.4499         147.272       -0.0188738         144.482
0.596                   -1.88719        -174.017         -47.3651         145.585         -47.3651         145.586       -0.0190545         144.405
0.597                   -1.91939         -174.74         -47.2794         143.904         -47.2795         143.905       -0.0192367         144.329
0.598                   -1.95262        -175.469         -47.1928         142.228         -47.1929         142.229       -0.0194206         144.253
0.599                   -1.98691        -176.206         -47.1054         140.557         -47.1055         140.558       -0.0196063         144.176
0.6                     -2.02233         -176.95          -47.017          138.89         -47.0171         138.891       -0.0197937         144.099
0.601                   -2.05893          -177.7         -46.9277         137.227         -46.9278         137.227       -0.0199829         144.022
0.602                   -2.09676        -178.458         -46.8375         135.566         -46.8376         135.567        -0.020174         143.944
0.603                   -2.13589        -179.223         -46.7463         133.908         -46.7464         133.909        -0.020367         143.867
0.604                   -2.17636        -179.994         -46.6542         132.252         -46.6543         132.253        -0.020562         143.789
0.605                   -2.21824         179.227         -46.5612         130.598         -46.5612         130.599       -0.0207591         143.711
0.606                    -2.2616         178.441         -46.4672         128.945         -46.4673         128.946       -0.0209584         143.633
0.607                   -2.30649         177.649         -46.3723         127.293         -46.3724         127.294       -0.0211599         143.555
0.608                   -2.35299         176.849         -46.2766         125.641         -46.2766         125.642       -0.0213636         143.476
0.609                   -2.40117         176.043         -46.1799         123.989           -46.18          123.99       -0.0215697         143.397
0.61                    -2.45108          175.23         -46.0824         122.336         -46.0825         122.337       -0.0217783         143.318
0.611                   -2.50281         174.411          -45.984         120.683         -45.9841         120.684       -0.0219894         143.239
0.612                   -2.55642         173.585         -45.8849         119.028          -45.885         119.029       -0.0222031          143.16
0.613                     -2.612         172.753          -45.785         117.371          -45.785         117.372       -0.0224195          143.08
0.614                    -2.6696         171.915         -45.6843         115.713         -45.6843         115.713       -0.0226386             143
0.615                   -2.72932         171.071         -45.5829         114.052          -45.583         114.052       -0.0228607          142.92
0.616                   -2.79122         170.222         -45.4808         112.388         -45.4809         112.389       -0.0230857         142.839
0.617                   -2.85539         169.368         -45.3781         110.721         -45.3782         110.722       -0.0233137         142.759
0.618                    -2.9219         168.509         -45.2749         109.051         -45.2749         109.051       -0.0235449         142.678
0.619                   -2.99083         167.645          -45.171         107.377         -45.1711         107.378       -0.0237794         142.597
0.62                    -3.06225         166.777         -45.0667         105.699         -45.0667           105.7       -0.0240172         142.516
0.621                   -3.13626         165.906         -44.9619         104.017         -44.9619         104.018       -0.0242585         142.434
0.622                   -3.21291         165.031         -44.8567         102.331         -44.8568         102.332       -0.0245033         142.352
0.623                   -3.29228         164.154         -44.7512         100.641         -44.7512         100.641       -0.0247517          142.27
0.624                   -3.37446         163.275         -44.6453         98.9452         -44.6454         98.9457        -0.025004         142.188
0.625                   -3.45951         162.395         -44.5393          97.245         -44.5393         97.2454       -0.0252601         142.105
0.626                    -3.5475         161.514          -44.433         95.5397          -44.433         95.5402       -0.0255202         142.022
0.627                    -3.6385         160.632         -44.3266         93.8294         -44.3266         93.8298       -0.0257844         141.939
0.628                   -3.73257         159.752         -44.2201         92.1139         -44.2202         92.1143       -0.0260528         141.856
0.629                   -3.82977         158.873         -44.1136         90.3932         -44.1137         90.3936       -0.0263256         141.772
