! TOUCHSTONE file generated by CST MICROWAVE STUDIO
! Date and time: Sat Oct 24 11:10:29 2020
! Project name: Scenario_1_Circular_Tissue_in_Line.cst
! Parameters = {L_HA=400; MT=2.54; Rad_Dielectric=30; Rad_Lower=7.3; Rad_Upper=30; a_HA=580; a_WG=246; b_HA=500; b_WG=121; c_HA=0; c_WG=187; d_feed=85; dx1=190.32; h_feed=15; h_lower=18; h_upper=40}
! Header version: 2018
! Port assignment regex: !\s*Touchstone port\s*([0-9]+)\s*=\s*(CST MWS port|CST DS port)\s*([0-9]+|Zmin|Zmax)\s*\(\"(.*)\"\)(\s*mode\s*([0-9]+))?.*
! Touchstone port assignment:
! Touchstone port 1 = CST MWS port 1 ("")
! Touchstone port 2 = CST MWS port 2 ("")
# GHz S DB R 50
0.5                    -0.108451        -122.581         -56.6731         123.469         -56.6731         123.469      -0.00724695          151.12
0.501                  -0.113805        -123.039         -56.4647         122.495         -56.4647         122.495      -0.00727638         151.055
0.502                  -0.119417        -123.499         -56.2553         121.506         -56.2553         121.506      -0.00730692         150.989
0.503                  -0.125298        -123.962         -56.0447         120.503         -56.0447         120.503      -0.00733872         150.924
0.504                   -0.13146        -124.427          -55.833         119.485          -55.833         119.485      -0.00737193         150.858
0.505                  -0.137915        -124.896         -55.6203          118.45         -55.6203          118.45      -0.00740671         150.793
0.506                  -0.144676        -125.366         -55.4065           117.4         -55.4065           117.4      -0.00744321         150.727
0.507                  -0.151756         -125.84         -55.1917         116.334         -55.1917         116.334      -0.00748157         150.661
0.508                  -0.159169        -126.316          -54.976          115.25          -54.976          115.25      -0.00752197         150.595
0.509                  -0.166929        -126.795         -54.7594         114.149         -54.7594         114.149      -0.00756454         150.529
0.51                   -0.175052        -127.277         -54.5419          113.03         -54.5419          113.03      -0.00760945         150.463
0.511                  -0.183553        -127.761         -54.3236         111.893         -54.3236         111.893      -0.00765683         150.397
0.512                  -0.192449        -128.248         -54.1045         110.736         -54.1045         110.736      -0.00770683         150.331
0.513                  -0.201757        -128.738         -53.8847         109.561         -53.8847         109.561      -0.00775959         150.265
0.514                  -0.211494         -129.23         -53.6643         108.365         -53.6643         108.365      -0.00781525         150.198
0.515                  -0.221677        -129.725         -53.4434         107.149         -53.4434         107.149      -0.00787393         150.132
0.516                  -0.232327        -130.223         -53.2219         105.913         -53.2219         105.913      -0.00793576         150.065
0.517                  -0.243461        -130.723         -53.0001         104.655         -53.0001         104.655      -0.00800085         149.998
0.518                  -0.255099        -131.225          -52.778         103.375          -52.778         103.375      -0.00806931         149.931
0.519                  -0.267262         -131.73         -52.5556         102.073         -52.5556         102.073      -0.00814122         149.865
0.52                   -0.279968        -132.237         -52.3332         100.748         -52.3332         100.748      -0.00821667         149.798
0.521                  -0.293238        -132.747         -52.1107         99.3996         -52.1107         99.3995      -0.00829573          149.73
0.522                  -0.307093        -133.259         -51.8884         98.0279         -51.8884         98.0279      -0.00837847         149.663
0.523                  -0.321552        -133.772         -51.6663         96.6322         -51.6663         96.6322      -0.00846493         149.596
0.524                  -0.336634        -134.288         -51.4446         95.2121         -51.4446         95.2121      -0.00855514         149.529
0.525                   -0.35236        -134.805         -51.2234         93.7673         -51.2234         93.7673      -0.00864914         149.461
0.526                  -0.368748        -135.324         -51.0029         92.2974         -51.0029         92.2974      -0.00874692         149.394
0.527                  -0.385814        -135.844         -50.7832         90.8023         -50.7832         90.8023      -0.00884848         149.326
0.528                  -0.403576        -136.365         -50.5645         89.2817         -50.5645         89.2817       -0.0089538         149.258
0.529                  -0.422047        -136.888         -50.3469         87.7354         -50.3469         87.7354      -0.00906286          149.19
0.53                   -0.441241        -137.411         -50.1307         86.1634         -50.1307         86.1634       -0.0091756         149.122
0.531                  -0.461168        -137.935          -49.916         84.5656          -49.916         84.5656      -0.00929197         149.054
0.532                  -0.481836        -138.459          -49.703         82.9421          -49.703         82.9421      -0.00941189         148.986
0.533                   -0.50325        -138.982         -49.4919         81.2929         -49.4919         81.2929      -0.00953529         148.918
0.534                  -0.525411        -139.506         -49.2829         79.6184         -49.2829         79.6184      -0.00966207          148.85
0.535                  -0.548315        -140.029         -49.0761         77.9188         -49.0761         77.9187      -0.00979214         148.782
0.536                  -0.571957        -140.551         -48.8719         76.1944         -48.8719         76.1944      -0.00992537         148.713
0.537                  -0.596324        -141.072         -48.6704         74.4458         -48.6704         74.4458       -0.0100616         148.645
0.538                    -0.6214        -141.591         -48.4718         72.6736         -48.4718         72.6736       -0.0102008         148.576
0.539                  -0.647161        -142.108         -48.2763         70.8785         -48.2763         70.8785       -0.0103428         148.507
0.54                   -0.673579        -142.623         -48.0841         69.0612         -48.0841         69.0612       -0.0104875         148.439
0.541                   -0.70062        -143.135         -47.8954         67.2228         -47.8954         67.2228       -0.0106346          148.37
0.542                  -0.728242        -143.644         -47.7105         65.3643         -47.7105         65.3643       -0.0107841         148.301
0.543                  -0.756397        -144.151         -47.5294         63.4867         -47.5294         63.4867       -0.0109358         148.232
0.544                  -0.785033        -144.653         -47.3523         61.5914         -47.3523         61.5914       -0.0110896         148.163
0.545                  -0.814088        -145.152         -47.1795         59.6798         -47.1795         59.6798       -0.0112453         148.093
0.546                  -0.843496        -145.647          -47.011         57.7531          -47.011         57.7532       -0.0114028         148.024
0.547                  -0.873186        -146.137          -46.847         55.8131          -46.847         55.8131       -0.0115619         147.955
0.548                   -0.90308        -146.623         -46.6876         53.8613         -46.6876         53.8613       -0.0117224         147.885
0.549                  -0.933097        -147.105         -46.5329         51.8995         -46.5329         51.8995       -0.0118844         147.815
0.55                   -0.963153        -147.583         -46.3829         49.9292         -46.3829         49.9292       -0.0120475         147.746
0.551                   -0.99316        -148.056         -46.2378         47.9524         -46.2378         47.9524       -0.0122117         147.676
0.552                   -1.02303        -148.524         -46.0975         45.9708         -46.0975         45.9708       -0.0123768         147.606
0.553                   -1.05268        -148.989         -45.9621         43.9863         -45.9621         43.9863       -0.0125428         147.536
0.554                   -1.08201        -149.449         -45.8315         42.0008         -45.8315         42.0008       -0.0127095         147.466
0.555                   -1.11095        -149.906         -45.7058         40.0159         -45.7058         40.0159       -0.0128769         147.396
0.556                   -1.13941         -150.36         -45.5848         38.0336         -45.5848         38.0336       -0.0130447         147.325
0.557                   -1.16731        -150.811         -45.4686         36.0556         -45.4686         36.0556        -0.013213         147.255
0.558                    -1.1946        -151.259         -45.3569         34.0835         -45.3569         34.0835       -0.0133816         147.185
0.559                    -1.2212        -151.706         -45.2497          32.119         -45.2497          32.119       -0.0135505         147.114
0.56                    -1.24706        -152.151         -45.1469         30.1637         -45.1469         30.1637       -0.0137196         147.043
0.561                   -1.27214        -152.595         -45.0484          28.219         -45.0484          28.219       -0.0138888         146.972
0.562                   -1.29641         -153.04         -44.9538         26.2863         -44.9538         26.2863       -0.0140581         146.901
0.563                   -1.31983        -153.485         -44.8632         24.3669         -44.8632         24.3669       -0.0142274          146.83
0.564                   -1.34239        -153.931         -44.7763         22.4618         -44.7763         22.4619       -0.0143968         146.759
0.565                   -1.36409        -154.379         -44.6929         20.5723         -44.6929         20.5723       -0.0145661         146.688
0.566                   -1.38493         -154.83         -44.6128         18.6991         -44.6128         18.6991       -0.0147353         146.616
0.567                   -1.40492        -155.284         -44.5358         16.8432         -44.5358         16.8432       -0.0149044         146.545
0.568                   -1.42408        -155.741         -44.4617         15.0052         -44.4617         15.0052       -0.0150734         146.473
0.569                   -1.44246        -156.203         -44.3904         13.1857         -44.3904         13.1857       -0.0152423         146.401
0.57                    -1.46007         -156.67         -44.3215         11.3853         -44.3215         11.3853       -0.0154111         146.329
0.571                   -1.47697        -157.143         -44.2549         9.60422         -44.2549         9.60423       -0.0155797         146.257
0.572                   -1.49321        -157.621         -44.1904         7.84288         -44.1903          7.8429       -0.0157483         146.185
0.573                   -1.50883        -158.106         -44.1277         6.10144         -44.1277         6.10145       -0.0159167         146.113
0.574                    -1.5239        -158.598         -44.0667         4.37999         -44.0667            4.38       -0.0160851          146.04
0.575                   -1.53847        -159.097         -44.0072         2.67855         -44.0072         2.67857       -0.0162534         145.968
0.576                   -1.55262        -159.604          -43.949        0.997071          -43.949        0.997086       -0.0164216         145.895
0.577                    -1.5664        -160.119         -43.8918       -0.664579         -43.8918       -0.664565       -0.0165899         145.822
0.578                   -1.57987        -160.642         -43.8356        -2.30659         -43.8356        -2.30658       -0.0167582         145.749
0.579                   -1.59311        -161.173         -43.7802        -3.92923         -43.7802        -3.92921       -0.0169265         145.676
0.58                    -1.60618        -161.713         -43.7254        -5.53278         -43.7254        -5.53277        -0.017095         145.602
0.581                   -1.61914        -162.262          -43.671        -7.11761          -43.671         -7.1176       -0.0172635         145.529
0.582                   -1.63205         -162.82         -43.6169        -8.68411         -43.6169         -8.6841       -0.0174323         145.455
0.583                   -1.64499        -163.387          -43.563        -10.2327          -43.563        -10.2327       -0.0176013         145.381
0.584                     -1.658        -163.963         -43.5092        -11.7639         -43.5092        -11.7639       -0.0177706         145.307
0.585                   -1.67115        -164.548         -43.4552        -13.2781         -43.4552        -13.2781       -0.0179402         145.233
0.586                    -1.6845        -165.143          -43.401        -14.7759          -43.401        -14.7759       -0.0181102         145.159
0.587                   -1.69809        -165.747         -43.3466        -16.2578         -43.3466        -16.2578       -0.0182807         145.084
0.588                   -1.71199         -166.36         -43.2917        -17.7243         -43.2917        -17.7243       -0.0184516          145.01
0.589                   -1.72625        -166.983         -43.2363        -19.1761         -43.2363        -19.1761       -0.0186231         144.935
0.59                    -1.74092        -167.615         -43.1804        -20.6136         -43.1804        -20.6136       -0.0187953          144.86
0.591                   -1.75604        -168.257         -43.1238        -22.0375         -43.1238        -22.0375       -0.0189681         144.785
0.592                   -1.77167        -168.908         -43.0664        -23.4484         -43.0664        -23.4484       -0.0191417          144.71
0.593                   -1.78784        -169.568         -43.0083        -24.8468         -43.0083        -24.8468       -0.0193162         144.634
0.594                   -1.80462        -170.238         -42.9492        -26.2333         -42.9492        -26.2333       -0.0194915         144.558
0.595                   -1.82203        -170.917         -42.8893        -27.6086         -42.8893        -27.6086       -0.0196677         144.483
0.596                   -1.84012        -171.606         -42.8284        -28.9731         -42.8284        -28.9731        -0.019845         144.406
0.597                   -1.85894        -172.304         -42.7665        -30.3276         -42.7665        -30.3276       -0.0200234          144.33
0.598                   -1.87853        -173.012         -42.7035        -31.6725         -42.7035        -31.6725        -0.020203         144.254
0.599                   -1.89893        -173.729         -42.6394        -33.0084         -42.6394        -33.0084       -0.0203838         144.177
0.6                     -1.92017        -174.455         -42.5742        -34.3359         -42.5742        -34.3359       -0.0205659           144.1
0.601                    -1.9423        -175.191         -42.5078        -35.6556         -42.5078        -35.6556       -0.0207494         144.023
0.602                   -1.96537        -175.936         -42.4403         -36.968         -42.4403         -36.968       -0.0209344         143.946
0.603                   -1.98941        -176.691         -42.3715        -38.2737         -42.3715        -38.2737       -0.0211209         143.869
0.604                   -2.01446        -177.455         -42.3015        -39.5732         -42.3015        -39.5732       -0.0213091         143.791
0.605                   -2.04057        -178.228         -42.2303         -40.867         -42.2303         -40.867        -0.021499         143.713
0.606                   -2.06778        -179.011         -42.1579        -42.1557         -42.1579        -42.1557       -0.0216906         143.635
0.607                   -2.09614        -179.804         -42.0842        -43.4397         -42.0842        -43.4397       -0.0218842         143.557
0.608                   -2.12567         179.394         -42.0093        -44.7196         -42.0093        -44.7196       -0.0220796         143.479
0.609                   -2.15645         178.582         -41.9331        -45.9958         -41.9331        -45.9958       -0.0222772           143.4
0.61                     -2.1885         177.761         -41.8556        -47.2689         -41.8556        -47.2689       -0.0224768         143.321
0.611                   -2.22188          176.93         -41.7769        -48.5394         -41.7769        -48.5394       -0.0226786         143.242
0.612                   -2.25663          176.09          -41.697        -49.8076          -41.697        -49.8076       -0.0228828         143.163
0.613                   -2.29282          175.24         -41.6158         -51.074         -41.6158         -51.074       -0.0230893         143.083
0.614                   -2.33048          174.38         -41.5334        -52.3392         -41.5334        -52.3392       -0.0232983         143.004
0.615                   -2.36968         173.511         -41.4498        -53.6035         -41.4498        -53.6035       -0.0235098         142.924
0.616                   -2.41048         172.631          -41.365        -54.8673          -41.365        -54.8673        -0.023724         142.844
0.617                   -2.45292         171.743          -41.279        -56.1311          -41.279        -56.1311        -0.023941         142.763
0.618                   -2.49707         170.844         -41.1919        -57.3953         -41.1919        -57.3953       -0.0241608         142.682
0.619                     -2.543         169.935         -41.1036        -58.6603         -41.1036        -58.6603       -0.0243835         142.601
0.62                    -2.59077         169.017         -41.0142        -59.9265         -41.0142        -59.9265       -0.0246093          142.52
0.621                   -2.64045         168.089         -40.9237        -61.1942         -40.9237        -61.1942       -0.0248382         142.439
0.622                   -2.69211         167.151         -40.8322        -62.4639         -40.8322        -62.4639       -0.0250704         142.357
0.623                   -2.74583         166.203         -40.7396        -63.7359         -40.7396        -63.7359       -0.0253058         142.275
0.624                   -2.80167         165.245          -40.646        -65.0105          -40.646        -65.0105       -0.0255448         142.193
0.625                   -2.85972         164.278         -40.5515        -66.2881         -40.5515        -66.2881       -0.0257873         142.111
0.626                   -2.92007         163.301          -40.456         -67.569          -40.456         -67.569       -0.0260334         142.028
0.627                    -2.9828         162.314         -40.3596        -68.8535         -40.3596        -68.8535       -0.0262833         141.945
0.628                     -3.048         161.317         -40.2624         -70.142         -40.2624         -70.142       -0.0265371         141.862
0.629                   -3.11576         160.311         -40.1644        -71.4347         -40.1644        -71.4347       -0.0267949         141.778
