! TOUCHSTONE file generated by CST MICROWAVE STUDIO
! Date and time: Sat Oct 24 11:13:49 2020
! Project name: Scenario_1_Circular_Tissue_in_Line.cst
! Parameters = {L_HA=400; MT=2.54; Rad_Dielectric=30; Rad_Lower=7.3; Rad_Upper=30; a_HA=580; a_WG=246; b_HA=500; b_WG=121; c_HA=0; c_WG=187; d_feed=85; dx1=502.08; h_feed=15; h_lower=18; h_upper=40}
! Header version: 2018
! Port assignment regex: !\s*Touchstone port\s*([0-9]+)\s*=\s*(CST MWS port|CST DS port)\s*([0-9]+|Zmin|Zmax)\s*\(\"(.*)\"\)(\s*mode\s*([0-9]+))?.*
! Touchstone port assignment:
! Touchstone port 1 = CST MWS port 1 ("")
! Touchstone port 2 = CST MWS port 2 ("")
# GHz S DB R 50
0.5                    -0.126594        -122.423         -60.9072        -50.1128         -60.9072        -50.1128      -0.00743246         151.117
0.501                  -0.131521         -122.87          -60.725         -51.459          -60.725         -51.459      -0.00749237         151.051
0.502                  -0.136685        -123.319         -60.5411        -52.8202         -60.5411        -52.8201      -0.00755307         150.986
0.503                  -0.142098        -123.772         -60.3558        -54.1967         -60.3558        -54.1967      -0.00761459          150.92
0.504                  -0.147773        -124.227          -60.169         -55.589          -60.169        -55.5889      -0.00767696         150.855
0.505                   -0.15372        -124.684         -59.9809        -56.9974         -59.9809        -56.9973       -0.0077402         150.789
0.506                  -0.159953        -125.145         -59.7914        -58.4223         -59.7914        -58.4223      -0.00780434         150.723
0.507                  -0.166485        -125.608         -59.6007        -59.8642         -59.6007        -59.8642      -0.00786942         150.658
0.508                  -0.173329        -126.073         -59.4089        -61.3234         -59.4089        -61.3234      -0.00793547         150.592
0.509                  -0.180497        -126.541          -59.216        -62.8004          -59.216        -62.8003      -0.00800253         150.526
0.51                   -0.188004        -127.012         -59.0221        -64.2954         -59.0221        -64.2954      -0.00807063          150.46
0.511                  -0.195863        -127.485         -58.8273         -65.809         -58.8273         -65.809      -0.00813981         150.393
0.512                  -0.204087        -127.961         -58.6317        -67.3414         -58.6317        -67.3414       -0.0082101         150.327
0.513                  -0.212691        -128.439         -58.4355         -68.893         -58.4355         -68.893      -0.00828156         150.261
0.514                  -0.221687         -128.92         -58.2387        -70.4642         -58.2387        -70.4642      -0.00835422         150.195
0.515                  -0.231089        -129.403         -58.0414        -72.0552         -58.0414        -72.0552      -0.00842813         150.128
0.516                  -0.240911        -129.888         -57.8437        -73.6664         -57.8437        -73.6664      -0.00850334         150.062
0.517                  -0.251164        -130.376         -57.6459         -75.298         -57.6459         -75.298      -0.00857988         149.995
0.518                   -0.26186        -130.865         -57.4479        -76.9503         -57.4479        -76.9503       -0.0086578         149.928
0.519                  -0.273011        -131.357           -57.25        -78.6234           -57.25        -78.6234      -0.00873716         149.861
0.52                   -0.284626         -131.85         -57.0523        -80.3175         -57.0523        -80.3176      -0.00881799         149.794
0.521                  -0.296716        -132.345          -56.855        -82.0329          -56.855        -82.0329      -0.00890035         149.727
0.522                  -0.309288        -132.842         -56.6581        -83.7694         -56.6581        -83.7695      -0.00898428          149.66
0.523                  -0.322348        -133.341         -56.4618        -85.5272         -56.4618        -85.5273      -0.00906983         149.593
0.524                  -0.335902        -133.841         -56.2664        -87.3063         -56.2664        -87.3063      -0.00915704         149.526
0.525                  -0.349952        -134.342         -56.0719        -89.1064         -56.0719        -89.1065      -0.00924596         149.459
0.526                  -0.364501        -134.844         -55.8785        -90.9276         -55.8785        -90.9277      -0.00933663         149.391
0.527                  -0.379547        -135.347         -55.6864        -92.7696         -55.6864        -92.7697      -0.00942908         149.324
0.528                  -0.395087        -135.851         -55.4957        -94.6322         -55.4957        -94.6322      -0.00952335         149.256
0.529                  -0.411115        -136.356         -55.3067        -96.5148         -55.3067        -96.5149      -0.00961947         149.188
0.53                   -0.427623        -136.861         -55.1194        -98.4173         -55.1194        -98.4173      -0.00971747          149.12
0.531                  -0.444601        -137.366         -54.9341        -100.339         -54.9341        -100.339      -0.00981738         149.052
0.532                  -0.462034        -137.872         -54.7509        -102.279         -54.7509        -102.279       -0.0099192         148.984
0.533                  -0.479906        -138.378         -54.5699        -104.238         -54.5699        -104.238        -0.010023         148.916
0.534                  -0.498198        -138.883         -54.3914        -106.213         -54.3914        -106.213       -0.0101286         148.848
0.535                  -0.516888        -139.389         -54.2154        -108.205         -54.2154        -108.205       -0.0102363          148.78
0.536                  -0.535951        -139.893         -54.0422        -110.213         -54.0422        -110.213       -0.0103458         148.711
0.537                   -0.55536        -140.398         -53.8717        -112.235         -53.8717        -112.235       -0.0104573         148.643
0.538                  -0.575085        -140.902         -53.7043        -114.271         -53.7043        -114.271       -0.0105707         148.574
0.539                  -0.595095        -141.405         -53.5399         -116.32         -53.5399         -116.32       -0.0106859         148.506
0.54                   -0.615357        -141.908         -53.3786         -118.38         -53.3786        -118.379        -0.010803         148.437
0.541                  -0.635836         -142.41         -53.2207        -120.449         -53.2207        -120.449       -0.0109219         148.368
0.542                  -0.656496        -142.911          -53.066        -122.528          -53.066        -122.528       -0.0110425         148.299
0.543                    -0.6773        -143.412         -52.9148        -124.615         -52.9148        -124.615       -0.0111649          148.23
0.544                  -0.698213        -143.912          -52.767        -126.708          -52.767        -126.708       -0.0112888         148.161
0.545                  -0.719197        -144.412         -52.6226        -128.806         -52.6226        -128.806       -0.0114144         148.092
0.546                  -0.740218        -144.911         -52.4818        -130.907         -52.4818        -130.907       -0.0115414         148.022
0.547                   -0.76124         -145.41         -52.3444        -133.011         -52.3444        -133.011       -0.0116699         147.953
0.548                  -0.782232        -145.909         -52.2105        -135.116         -52.2105        -135.116       -0.0117998         147.883
0.549                  -0.803162        -146.408           -52.08        -137.221           -52.08        -137.221       -0.0119309         147.813
0.55                   -0.824003        -146.908         -51.9529        -139.324         -51.9529        -139.324       -0.0120633         147.744
0.551                   -0.84473        -147.408         -51.8292        -141.424         -51.8292        -141.424       -0.0121968         147.674
0.552                  -0.865321        -147.908         -51.7087         -143.52         -51.7087         -143.52       -0.0123314         147.604
0.553                  -0.885757         -148.41         -51.5914        -145.611         -51.5914        -145.611       -0.0124671         147.534
0.554                  -0.906024        -148.913         -51.4771        -147.696         -51.4772        -147.696       -0.0126036         147.463
0.555                   -0.92611        -149.418         -51.3659        -149.773         -51.3659        -149.773       -0.0127411         147.393
0.556                   -0.94601        -149.925         -51.2574        -151.842         -51.2574        -151.842       -0.0128794         147.323
0.557                  -0.965719        -150.434         -51.1517        -153.902         -51.1517        -153.902       -0.0130184         147.252
0.558                   -0.98524        -150.945         -51.0486        -155.952         -51.0486        -155.952       -0.0131582         147.181
0.559                   -1.00458         -151.46         -50.9479        -157.992         -50.9479        -157.991       -0.0132986         147.111
0.56                    -1.02374        -151.977         -50.8496         -160.02         -50.8496        -160.019       -0.0134397          147.04
0.561                   -1.04273        -152.498         -50.7533        -162.036         -50.7533        -162.036       -0.0135814         146.969
0.562                   -1.06158        -153.023         -50.6591         -164.04         -50.6591        -164.039       -0.0137236         146.898
0.563                    -1.0803        -153.552         -50.5667         -166.03         -50.5668         -166.03       -0.0138665         146.826
0.564                   -1.09891        -154.085         -50.4761        -168.008         -50.4761        -168.008       -0.0140098         146.755
0.565                   -1.11744        -154.622         -50.3869        -169.972         -50.3869        -169.972       -0.0141537         146.683
0.566                   -1.13592        -155.165         -50.2992        -171.923         -50.2992        -171.923       -0.0142982         146.612
0.567                   -1.15437        -155.712         -50.2126         -173.86         -50.2126         -173.86       -0.0144431          146.54
0.568                   -1.17282        -156.265         -50.1272        -175.784         -50.1272        -175.783       -0.0145887         146.468
0.569                   -1.19131        -156.823         -50.0427        -177.693         -50.0427        -177.693       -0.0147347         146.396
0.57                    -1.20988        -157.387          -49.959        -179.589          -49.959        -179.589       -0.0148814         146.324
0.571                   -1.22856        -157.957          -49.876         178.529          -49.876         178.529       -0.0150286         146.251
0.572                   -1.24738        -158.532         -49.7935          176.66         -49.7935          176.66       -0.0151765         146.179
0.573                   -1.26639        -159.114         -49.7114         174.804         -49.7114         174.804        -0.015325         146.106
0.574                   -1.28563        -159.702         -49.6296         172.961         -49.6296         172.961       -0.0154742         146.034
0.575                   -1.30513        -160.297          -49.548          171.13          -49.548          171.13       -0.0156241         145.961
0.576                   -1.32494        -160.898         -49.4665         169.312         -49.4665         169.312       -0.0157747         145.888
0.577                   -1.34509        -161.506         -49.3849         167.506         -49.3849         167.506       -0.0159262         145.814
0.578                   -1.36564         -162.12         -49.3031         165.711         -49.3031         165.711       -0.0160784         145.741
0.579                   -1.38661        -162.741         -49.2212         163.927         -49.2212         163.927       -0.0162316         145.668
0.58                    -1.40807         -163.37         -49.1389         162.153         -49.1389         162.153       -0.0163857         145.594
0.581                   -1.43003        -164.005         -49.0562          160.39         -49.0562          160.39       -0.0165407          145.52
0.582                   -1.45256        -164.647          -48.973         158.637          -48.973         158.637       -0.0166968         145.446
0.583                    -1.4757        -165.296         -48.8893         156.892         -48.8893         156.892       -0.0168539         145.372
0.584                   -1.49948        -165.952          -48.805         155.157          -48.805         155.157       -0.0170122         145.298
0.585                   -1.52395        -166.615         -48.7201         153.429         -48.7201         153.429       -0.0171716         145.223
0.586                   -1.54916        -167.286         -48.6344         151.709         -48.6344         151.709       -0.0173322         145.149
0.587                   -1.57515        -167.963          -48.548         149.996          -48.548         149.996       -0.0174941         145.074
0.588                   -1.60196        -168.648         -48.4608          148.29         -48.4608          148.29       -0.0176574         144.999
0.589                   -1.62965         -169.34         -48.3727          146.59         -48.3727          146.59        -0.017822         144.924
0.59                    -1.65826        -170.038         -48.2838         144.895         -48.2838         144.895       -0.0179881         144.849
0.591                   -1.68784        -170.744          -48.194         143.206          -48.194         143.206       -0.0181557         144.773
0.592                   -1.71842        -171.457         -48.1033         141.521         -48.1033         141.521       -0.0183248         144.698
0.593                   -1.75007        -172.177         -48.0116          139.84         -48.0116          139.84       -0.0184955         144.622
0.594                   -1.78282        -172.904          -47.919         138.162          -47.919         138.162        -0.018668         144.546
0.595                   -1.81673        -173.637         -47.8255         136.487         -47.8255         136.487       -0.0188421          144.47
0.596                   -1.85185        -174.378          -47.731         134.815         -47.7309         134.815        -0.019018         144.393
0.597                   -1.88823        -175.125         -47.6355         133.145         -47.6355         133.145       -0.0191958         144.317
0.598                   -1.92591        -175.878          -47.539         131.477          -47.539         131.477       -0.0193755          144.24
0.599                   -1.96496        -176.639         -47.4417         129.809         -47.4416         129.809       -0.0195572         144.163
0.6                     -2.00541        -177.405         -47.3433         128.142         -47.3433         128.142        -0.019741         144.086
0.601                   -2.04734        -178.178         -47.2441         126.475          -47.244         126.476       -0.0199268         144.008
0.602                   -2.09078        -178.957         -47.1439         124.808         -47.1439         124.809       -0.0201148         143.931
0.603                   -2.13579        -179.742         -47.0428          123.14         -47.0428         123.141       -0.0203051         143.853
0.604                   -2.18243         179.467         -46.9409         121.472         -46.9408         121.472       -0.0204976         143.775
0.605                   -2.23076         178.671         -46.8381         119.801         -46.8381         119.802       -0.0206926         143.697
0.606                   -2.28083         177.869         -46.7345         118.129         -46.7344          118.13         -0.02089         143.619
0.607                   -2.33269         177.062         -46.6301         116.454           -46.63         116.455       -0.0210899          143.54
0.608                    -2.3864          176.25         -46.5249         114.777         -46.5249         114.778       -0.0212925         143.461
0.609                   -2.44203         175.434         -46.4191         113.097          -46.419         113.098       -0.0214977         143.382
0.61                    -2.49962         174.613         -46.3125         111.414         -46.3125         111.415       -0.0217056         143.303
0.611                   -2.55924         173.788         -46.2054         109.727         -46.2053         109.728       -0.0219164         143.224
0.612                   -2.62094          172.96         -46.0976         108.036         -46.0975         108.037       -0.0221302         143.144
0.613                   -2.68478         172.128         -45.9893         106.342         -45.9892         106.342       -0.0223469         143.064
0.614                   -2.75082         171.293         -45.8804         104.642         -45.8804         104.643       -0.0225667         142.984
0.615                    -2.8191         170.456         -45.7712         102.939         -45.7711          102.94       -0.0227897         142.904
0.616                   -2.88969         169.616         -45.6615          101.23         -45.6614         101.231        -0.023016         142.823
0.617                   -2.96264         168.775         -45.5515         99.5164         -45.5514         99.5175       -0.0232456         142.742
0.618                     -3.038         167.932         -45.4412         97.7977         -45.4411         97.7988       -0.0234786         142.661
0.619                   -3.11581          167.09         -45.3306         96.0738         -45.3305         96.0749       -0.0237152          142.58
0.62                    -3.19614         166.247         -45.2199         94.3444         -45.2197         94.3455       -0.0239555         142.498
0.621                   -3.27901         165.404          -45.109         92.6095         -45.1089         92.6106       -0.0241994         142.416
0.622                   -3.36448         164.563         -44.9981          90.869         -44.9979         90.8702       -0.0244472         142.334
0.623                   -3.45258         163.724         -44.8871          89.123          -44.887         89.1241        -0.024699         142.252
0.624                   -3.54335         162.887         -44.7762         87.3712         -44.7761         87.3724       -0.0249548         142.169
0.625                   -3.63681         162.053         -44.6654         85.6139         -44.6653          85.615       -0.0252148         142.087
0.626                     -3.733         161.223         -44.5548         83.8508         -44.5547          83.852        -0.025479         142.003
0.627                   -3.83192         160.399         -44.4444         82.0823         -44.4443         82.0834       -0.0257476          141.92
0.628                   -3.93361         159.579         -44.3343         80.3082         -44.3342         80.3093       -0.0260206         141.836
0.629                   -4.03805         158.767         -44.2246         78.5286         -44.2244         78.5298       -0.0262983         141.753
