! TOUCHSTONE file generated by CST MICROWAVE STUDIO
! Date and time: Sat Oct 24 11:13:59 2020
! Project name: Scenario_1_Circular_Tissue_in_Line.cst
! Parameters = {L_HA=400; MT=2.54; Rad_Dielectric=30; Rad_Lower=7.3; Rad_Upper=30; a_HA=580; a_WG=246; b_HA=500; b_WG=121; c_HA=0; c_WG=187; d_feed=85; dx1=519.4; h_feed=15; h_lower=18; h_upper=40}
! Header version: 2018
! Port assignment regex: !\s*Touchstone port\s*([0-9]+)\s*=\s*(CST MWS port|CST DS port)\s*([0-9]+|Zmin|Zmax)\s*\(\"(.*)\"\)(\s*mode\s*([0-9]+))?.*
! Touchstone port assignment:
! Touchstone port 1 = CST MWS port 1 ("")
! Touchstone port 2 = CST MWS port 2 ("")
# GHz S DB R 50
0.5                    -0.130295        -122.454          -60.962        -59.4403          -60.962        -59.4403      -0.00738103          151.14
0.501                  -0.134286        -122.914         -60.7711        -60.8634         -60.7711        -60.8634       -0.0074402         151.075
0.502                  -0.138754        -123.375         -60.5792        -62.3037         -60.5792        -62.3037      -0.00750042          151.01
0.503                  -0.143701        -123.839         -60.3863        -63.7614         -60.3863        -63.7614      -0.00756174         150.944
0.504                  -0.149132        -124.304         -60.1927         -65.237         -60.1927         -65.237      -0.00762422         150.879
0.505                  -0.155046        -124.772         -59.9982        -66.7308         -59.9982        -66.7308      -0.00768788         150.813
0.506                  -0.161445         -125.24         -59.8031        -68.2432         -59.8031        -68.2432      -0.00775279         150.747
0.507                   -0.16833        -125.711         -59.6074        -69.7744         -59.6074        -69.7744      -0.00781898         150.682
0.508                    -0.1757        -126.183         -59.4112        -71.3249         -59.4112        -71.3249       -0.0078865         150.616
0.509                  -0.183552        -126.656         -59.2146        -72.8949         -59.2146        -72.8949       -0.0079554          150.55
0.51                   -0.191885         -127.13         -59.0177        -74.4847         -59.0177        -74.4847      -0.00802572         150.484
0.511                  -0.200695        -127.606         -58.8207        -76.0946         -58.8207        -76.0946       -0.0080975         150.418
0.512                  -0.209977        -128.083         -58.6236        -77.7248         -58.6236        -77.7248      -0.00817077         150.352
0.513                  -0.219726        -128.561         -58.4265        -79.3755         -58.4265        -79.3755      -0.00824559         150.285
0.514                  -0.229936         -129.04         -58.2297        -81.0469         -58.2297        -81.0469      -0.00832198         150.219
0.515                  -0.240598        -129.519         -58.0331        -82.7391         -58.0331        -82.7391      -0.00839997         150.153
0.516                  -0.251705            -130          -57.837        -84.4521          -57.837        -84.4521      -0.00847961         150.086
0.517                  -0.263248        -130.481         -57.6415        -86.1861         -57.6415        -86.1861       -0.0085609          150.02
0.518                  -0.275215        -130.963         -57.4467         -87.941         -57.4467        -87.9411      -0.00864388         149.953
0.519                  -0.287596        -131.445         -57.2528        -89.7168         -57.2528        -89.7168      -0.00872856         149.886
0.52                   -0.300378        -131.928           -57.06        -91.5134           -57.06        -91.5134      -0.00881496          149.82
0.521                  -0.313549        -132.411         -56.8683        -93.3305         -56.8683        -93.3305       -0.0089031         149.753
0.522                  -0.327093        -132.894         -56.6779        -95.1679         -56.6779        -95.1679      -0.00899296         149.686
0.523                  -0.340998        -133.378         -56.4891        -97.0254         -56.4891        -97.0254      -0.00908457         149.619
0.524                  -0.355247        -133.862         -56.3019        -98.9025         -56.3019        -98.9025      -0.00917791         149.551
0.525                  -0.369824        -134.347         -56.1164        -100.799         -56.1164        -100.799      -0.00927297         149.484
0.526                  -0.384713        -134.831          -55.933        -102.714          -55.933        -102.714      -0.00936975         149.417
0.527                  -0.399896        -135.316         -55.7516        -104.647         -55.7516        -104.647      -0.00946823         149.349
0.528                  -0.415357        -135.801         -55.5724        -106.597         -55.5724        -106.597      -0.00956838         149.282
0.529                  -0.431076        -136.286         -55.3957        -108.565         -55.3957        -108.565      -0.00967019         149.214
0.53                   -0.447036        -136.772         -55.2215        -110.548         -55.2215        -110.548      -0.00977361         149.147
0.531                  -0.463219        -137.257         -55.0499        -112.546         -55.0499        -112.546      -0.00987861         149.079
0.532                  -0.479606        -137.743         -54.8811        -114.558         -54.8811        -114.558      -0.00998516         149.011
0.533                  -0.496179        -138.229         -54.7151        -116.583         -54.7151        -116.583       -0.0100932         148.943
0.534                   -0.51292        -138.716         -54.5521         -118.62         -54.5521         -118.62       -0.0102027         148.875
0.535                  -0.529811        -139.203         -54.3922        -120.668         -54.3922        -120.668       -0.0103137         148.807
0.536                  -0.546833         -139.69         -54.2355        -122.725         -54.2355        -122.725        -0.010426         148.739
0.537                  -0.563971        -140.178          -54.082        -124.791          -54.082        -124.791       -0.0105396          148.67
0.538                  -0.581206        -140.666         -53.9317        -126.864         -53.9317        -126.864       -0.0106544         148.602
0.539                  -0.598525        -141.155         -53.7847        -128.943         -53.7847        -128.943       -0.0107705         148.533
0.54                   -0.615911        -141.645          -53.641        -131.027          -53.641        -131.027       -0.0108878         148.465
0.541                   -0.63335        -142.136         -53.5007        -133.114         -53.5007        -133.114       -0.0110061         148.396
0.542                  -0.650828        -142.628         -53.3637        -135.203         -53.3637        -135.203       -0.0111255         148.327
0.543                  -0.668335        -143.121           -53.23        -137.293           -53.23        -137.293       -0.0112459         148.258
0.544                  -0.685857        -143.615         -53.0996        -139.382         -53.0996        -139.382       -0.0113672         148.189
0.545                  -0.703387         -144.11         -52.9724        -141.469         -52.9724        -141.469       -0.0114894          148.12
0.546                  -0.720914        -144.608         -52.8483        -143.554         -52.8483        -143.554       -0.0116125         148.051
0.547                  -0.738432        -145.107         -52.7273        -145.634         -52.7273        -145.634       -0.0117364         147.982
0.548                  -0.755935        -145.608         -52.6093        -147.709         -52.6093        -147.709        -0.011861         147.912
0.549                  -0.773419        -146.111         -52.4943        -149.778         -52.4943        -149.778       -0.0119864         147.843
0.55                    -0.79088        -146.616          -52.382         -151.84          -52.382         -151.84       -0.0121124         147.773
0.551                  -0.808318        -147.123         -52.2723        -153.893         -52.2723        -153.893       -0.0122391         147.703
0.552                  -0.825734        -147.634         -52.1653        -155.937         -52.1653        -155.937       -0.0123665         147.634
0.553                  -0.843129        -148.147         -52.0606        -157.972         -52.0606        -157.972       -0.0124944         147.564
0.554                  -0.860507        -148.662         -51.9582        -159.996         -51.9582        -159.996        -0.012623         147.494
0.555                  -0.877873        -149.182          -51.858        -162.009         -51.8579        -162.009        -0.012752         147.423
0.556                  -0.895235        -149.704         -51.7597        -164.011         -51.7597        -164.011       -0.0128817         147.353
0.557                  -0.912602         -150.23         -51.6633            -166         -51.6633            -166       -0.0130119         147.283
0.558                  -0.929984        -150.759         -51.5685        -167.977         -51.5685        -167.977       -0.0131426         147.212
0.559                  -0.947393        -151.293         -51.4753        -169.941         -51.4753        -169.941       -0.0132738         147.142
0.56                   -0.964844         -151.83         -51.3835        -171.892         -51.3835        -171.892       -0.0134056         147.071
0.561                  -0.982351        -152.372         -51.2929        -173.829         -51.2929        -173.829       -0.0135378             147
0.562                  -0.999934        -152.918         -51.2034        -175.754         -51.2034        -175.754       -0.0136707         146.929
0.563                   -1.01761        -153.469         -51.1149        -177.665         -51.1149        -177.665        -0.013804         146.858
0.564                    -1.0354        -154.024         -51.0272        -179.563         -51.0272        -179.563        -0.013938         146.786
0.565                   -1.05332        -154.584         -50.9401         178.553         -50.9401         178.553       -0.0140724         146.715
0.566                   -1.07141         -155.15         -50.8536         176.681         -50.8536         176.681       -0.0142075         146.644
0.567                   -1.08968         -155.72         -50.7675         174.822         -50.7675         174.822       -0.0143432         146.572
0.568                   -1.10816        -156.296         -50.6817         172.976         -50.6817         172.976       -0.0144796           146.5
0.569                   -1.12688        -156.877         -50.5961         171.143         -50.5961         171.143       -0.0146166         146.428
0.57                    -1.14587        -157.464         -50.5105         169.321         -50.5105         169.321       -0.0147542         146.356
0.571                   -1.16516        -158.057         -50.4248         167.511         -50.4248         167.511       -0.0148926         146.284
0.572                   -1.18478        -158.656         -50.3391         165.713         -50.3391         165.713       -0.0150318         146.212
0.573                   -1.20476        -159.261          -50.253         163.925          -50.253         163.925       -0.0151717         146.139
0.574                   -1.22515        -159.871         -50.1667         162.148         -50.1667         162.148       -0.0153125         146.066
0.575                   -1.24597        -160.488         -50.0799         160.381         -50.0799         160.381       -0.0154541         145.994
0.576                   -1.26726        -161.111         -49.9927         158.623         -49.9927         158.623       -0.0155966         145.921
0.577                   -1.28906        -161.741         -49.9049         156.874         -49.9049         156.874       -0.0157401         145.848
0.578                   -1.31141        -162.377         -49.8164         155.134         -49.8164         155.134       -0.0158845         145.775
0.579                   -1.33435        -163.019         -49.7273         153.402         -49.7273         153.402         -0.01603         145.701
0.58                    -1.35792        -163.668         -49.6374         151.678         -49.6374         151.678       -0.0161765         145.628
0.581                   -1.38216        -164.324         -49.5468          149.96         -49.5468          149.96       -0.0163242         145.554
0.582                   -1.40712        -164.986         -49.4553         148.249         -49.4553         148.249        -0.016473          145.48
0.583                   -1.43283        -165.654         -49.3629         146.544         -49.3629         146.544        -0.016623         145.406
0.584                   -1.45935         -166.33         -49.2697         144.844         -49.2697         144.844       -0.0167743         145.332
0.585                   -1.48671        -167.011         -49.1755         143.148         -49.1755         143.148       -0.0169269         145.258
0.586                   -1.51496          -167.7         -49.0803         141.458         -49.0803         141.458       -0.0170809         145.183
0.587                   -1.54416        -168.395         -48.9842          139.77         -48.9842          139.77       -0.0172362         145.109
0.588                   -1.57434        -169.096         -48.8871         138.086         -48.8871         138.086       -0.0173931         145.034
0.589                   -1.60555        -169.804         -48.7891         136.405         -48.7891         136.405       -0.0175515         144.959
0.59                    -1.63785        -170.519           -48.69         134.726           -48.69         134.726       -0.0177114         144.884
0.591                   -1.67128        -171.239         -48.5899         133.048         -48.5899         133.048        -0.017873         144.808
0.592                   -1.70588        -171.966         -48.4888         131.372         -48.4888         131.372       -0.0180363         144.733
0.593                   -1.74172        -172.699         -48.3867         129.696         -48.3867         129.696       -0.0182013         144.657
0.594                   -1.77883        -173.438         -48.2837          128.02         -48.2837          128.02       -0.0183682         144.581
0.595                   -1.81727        -174.182         -48.1797         126.344         -48.1797         126.344       -0.0185369         144.505
0.596                   -1.85709        -174.933         -48.0747         124.668         -48.0747         124.668       -0.0187076         144.429
0.597                   -1.89833        -175.689         -47.9688         122.989         -47.9688         122.989       -0.0188803         144.352
0.598                   -1.94106         -176.45          -47.862          121.31          -47.862          121.31       -0.0190551         144.276
0.599                   -1.98531        -177.216         -47.7544         119.628         -47.7544         119.628       -0.0192319         144.199
0.6                     -2.03113        -177.988         -47.6459         117.943         -47.6459         117.943        -0.019411         144.122
0.601                   -2.07859        -178.764         -47.5366         116.256         -47.5366         116.256       -0.0195924         144.045
0.602                   -2.12772        -179.544         -47.4265         114.565         -47.4265         114.565       -0.0197761         143.967
0.603                   -2.17857         179.671         -47.3157         112.871         -47.3157         112.871       -0.0199622          143.89
0.604                    -2.2312         178.883         -47.2042         111.172         -47.2042         111.172       -0.0201507         143.812
0.605                   -2.28565         178.091         -47.0921         109.469         -47.0921         109.469       -0.0203419         143.734
0.606                   -2.34196         177.296         -46.9794         107.762         -46.9794         107.762       -0.0205356         143.656
0.607                   -2.40018         176.498         -46.8661          106.05         -46.8661          106.05       -0.0207321         143.577
0.608                   -2.46036         175.698         -46.7524         104.332         -46.7524         104.332       -0.0209313         143.499
0.609                   -2.52254         174.895         -46.6382         102.609         -46.6382         102.609       -0.0211334          143.42
0.61                    -2.58676         174.091         -46.5237          100.88         -46.5237          100.88       -0.0213385         143.341
0.611                   -2.65305         173.285         -46.4088         99.1456         -46.4088         99.1456       -0.0215466         143.262
0.612                   -2.72146         172.479         -46.2936          97.405         -46.2936          97.405       -0.0217577         143.182
0.613                   -2.79202         171.672         -46.1783         95.6582         -46.1783         95.6582       -0.0219721         143.102
0.614                   -2.86476         170.866         -46.0628          93.905         -46.0628          93.905       -0.0221897         143.022
0.615                   -2.93971          170.06         -45.9473         92.1454         -45.9473         92.1454       -0.0224107         142.942
0.616                    -3.0169         169.256         -45.8317         90.3794         -45.8317         90.3794       -0.0226352         142.862
0.617                   -3.09636         168.454         -45.7162         88.6068         -45.7162         88.6068       -0.0228631         142.781
0.618                   -3.17809         167.654         -45.6008         86.8276         -45.6008         86.8276       -0.0230948           142.7
0.619                   -3.26212         166.857         -45.4856         85.0419         -45.4856         85.0419       -0.0233301         142.619
0.62                    -3.34845         166.063         -45.3707         83.2497         -45.3707         83.2497       -0.0235693         142.538
0.621                   -3.43709         165.274          -45.256         81.4511          -45.256         81.4511       -0.0238124         142.456
0.622                   -3.52805         164.491         -45.1417          79.646         -45.1417          79.646       -0.0240594         142.374
0.623                   -3.62131         163.712         -45.0279         77.8348         -45.0279         77.8348       -0.0243107         142.292
0.624                   -3.71686         162.941         -44.9145         76.0174         -44.9145         76.0174       -0.0245661          142.21
0.625                   -3.81469         162.176         -44.8018         74.1941         -44.8018         74.1941       -0.0248258         142.127
0.626                   -3.91477          161.42         -44.6896         72.3651         -44.6896         72.3651         -0.02509         142.044
0.627                   -4.01706         160.672         -44.5781         70.5306         -44.5781         70.5306       -0.0253587         141.961
0.628                   -4.12152         159.934         -44.4673         68.6909         -44.4673         68.6909       -0.0256319         141.878
0.629                   -4.22811         159.205         -44.3572         66.8461         -44.3572         66.8461         -0.02591         141.794
