! TOUCHSTONE file generated by CST MICROWAVE STUDIO
! Date and time: Sat Oct 24 11:15:29 2020
! Project name: Scenario_1_Circular_Tissue_in_Line.cst
! Parameters = {L_HA=400; MT=2.54; Rad_Dielectric=30; Rad_Lower=7.3; Rad_Upper=30; a_HA=580; a_WG=246; b_HA=500; b_WG=121; c_HA=0; c_WG=187; d_feed=85; dx1=536.72; h_feed=15; h_lower=18; h_upper=40}
! Header version: 2018
! Port assignment regex: !\s*Touchstone port\s*([0-9]+)\s*=\s*(CST MWS port|CST DS port)\s*([0-9]+|Zmin|Zmax)\s*\(\"(.*)\"\)(\s*mode\s*([0-9]+))?.*
! Touchstone port assignment:
! Touchstone port 1 = CST MWS port 1 ("")
! Touchstone port 2 = CST MWS port 2 ("")
# GHz S DB R 50
0.5                    -0.136049        -122.548         -60.9383        -69.3859         -60.9383        -69.3859      -0.00743093         151.099
0.501                  -0.137102        -122.966         -60.8747         -70.866         -60.8752        -70.8648      -0.00750578         151.034
0.502                  -0.138376        -123.386         -60.8091        -72.3618         -60.8099        -72.3595      -0.00758127         150.969
0.503                  -0.139874        -123.809         -60.7412        -73.8732         -60.7426        -73.8698      -0.00765743         150.903
0.504                  -0.141603        -124.235         -60.6712        -75.4001          -60.673        -75.3957      -0.00773425         150.838
0.505                  -0.143567        -124.663          -60.599        -76.9423         -60.6012        -76.9369      -0.00781175         150.772
0.506                  -0.145772        -125.093         -60.5245        -78.4998         -60.5271        -78.4936      -0.00788992         150.706
0.507                  -0.148221        -125.527         -60.4476        -80.0724         -60.4506        -80.0654      -0.00796878         150.641
0.508                  -0.150921        -125.962         -60.3684        -81.6599         -60.3718        -81.6522      -0.00804833         150.575
0.509                  -0.153877        -126.401         -60.2867        -83.2623         -60.2906        -83.2539      -0.00812857         150.509
0.51                   -0.157093        -126.841         -60.2026        -84.8793         -60.2069        -84.8703      -0.00820952         150.443
0.511                  -0.160576        -127.285          -60.116        -86.5107         -60.1206        -86.5012      -0.00829117         150.377
0.512                  -0.164331        -127.731         -60.0268        -88.1563         -60.0319        -88.1464      -0.00837355         150.311
0.513                  -0.168363         -128.18         -59.9351        -89.8159         -59.9405        -89.8056      -0.00845664         150.245
0.514                  -0.172677        -128.631         -59.8408        -91.4893         -59.8466        -91.4787      -0.00854047         150.178
0.515                   -0.17728        -129.085         -59.7439        -93.1763           -59.75        -93.1654      -0.00862503         150.112
0.516                  -0.182177        -129.541         -59.6443        -94.8764         -59.6508        -94.8654      -0.00871033         150.045
0.517                  -0.187373            -130          -59.542        -96.5896         -59.5488        -96.5784      -0.00879639         149.979
0.518                  -0.192875        -130.462         -59.4371        -98.3155         -59.4442        -98.3042       -0.0088832         149.912
0.519                  -0.198688        -130.926         -59.3295        -100.054         -59.3369        -100.043      -0.00897078         149.845
0.52                   -0.204818        -131.393         -59.2191        -101.804         -59.2268        -101.793      -0.00905914         149.779
0.521                  -0.211271        -131.862         -59.1061        -103.567          -59.114        -103.556      -0.00914827         149.712
0.522                  -0.218053        -132.334         -58.9903        -105.341         -58.9985         -105.33       -0.0092382         149.645
0.523                   -0.22517        -132.809         -58.8718        -107.126         -58.8803        -107.115      -0.00932892         149.578
0.524                  -0.232628        -133.286         -58.7506        -108.922         -58.7593        -108.911      -0.00942045         149.511
0.525                  -0.240433        -133.766         -58.6268        -110.729         -58.6357        -110.719       -0.0095128         149.443
0.526                  -0.248591        -134.249         -58.5003        -112.546         -58.5094        -112.536      -0.00960596         149.376
0.527                  -0.257109        -134.734         -58.3711        -114.374         -58.3804        -114.364      -0.00969996         149.309
0.528                  -0.265992        -135.222         -58.2393        -116.211         -58.2487        -116.201       -0.0097948         149.241
0.529                  -0.275247        -135.712          -58.105        -118.058         -58.1145        -118.048      -0.00989049         149.173
0.53                   -0.284881        -136.205         -57.9681        -119.914         -57.9777        -119.905      -0.00998704         149.106
0.531                  -0.294899        -136.701         -57.8286        -121.779         -57.8384         -121.77       -0.0100845         149.038
0.532                  -0.305308        -137.199         -57.6868        -123.652         -57.6966        -123.644       -0.0101828          148.97
0.533                  -0.316114          -137.7         -57.5425        -125.534         -57.5524        -125.526       -0.0102819         148.902
0.534                  -0.327324        -138.203         -57.3959        -127.425         -57.4059        -127.417        -0.010382         148.834
0.535                  -0.338944        -138.709         -57.2469        -129.323          -57.257        -129.316        -0.010483         148.766
0.536                   -0.35098        -139.217         -57.0958        -131.229         -57.1058        -131.222       -0.0105849         148.698
0.537                   -0.36344        -139.728         -56.9425        -133.143         -56.9525        -133.136       -0.0106878         148.629
0.538                   -0.37633        -140.242         -56.7871        -135.064         -56.7971        -135.057       -0.0107916         148.561
0.539                  -0.389655        -140.758         -56.6297        -136.992         -56.6396        -136.986       -0.0108963         148.492
0.54                   -0.403423        -141.277         -56.4703        -138.927         -56.4802        -138.922        -0.011002         148.423
0.541                   -0.41764        -141.798         -56.3092         -140.87          -56.319        -140.864       -0.0111087         148.355
0.542                  -0.432313        -142.321         -56.1462        -142.818         -56.1559        -142.813       -0.0112163         148.286
0.543                  -0.447449        -142.848         -55.9816        -144.774         -55.9912        -144.769        -0.011325         148.217
0.544                  -0.463053        -143.376         -55.8154        -146.736         -55.8249        -146.731       -0.0114346         148.148
0.545                  -0.479132        -143.907         -55.6477        -148.704         -55.6571          -148.7       -0.0115453         148.078
0.546                  -0.495693        -144.441         -55.4787        -150.679         -55.4878        -150.675        -0.011657         148.009
0.547                  -0.512742        -144.976         -55.3083         -152.66         -55.3173        -152.656       -0.0117698          147.94
0.548                  -0.530286        -145.515         -55.1368        -154.647         -55.1456        -154.643       -0.0118836          147.87
0.549                  -0.548332        -146.055         -54.9642         -156.64         -54.9728        -156.636       -0.0119986         147.801
0.55                   -0.566885        -146.598         -54.7907        -158.639         -54.7991        -158.636       -0.0121146         147.731
0.551                  -0.585953        -147.144         -54.6163        -160.644         -54.6244        -160.641       -0.0122316         147.661
0.552                  -0.605541        -147.692         -54.4412        -162.655         -54.4491        -162.652       -0.0123499         147.591
0.553                  -0.625656        -148.242         -54.2654        -164.672         -54.2731        -164.668       -0.0124692         147.521
0.554                  -0.646304        -148.794         -54.0891        -166.694         -54.0965        -166.691       -0.0125897         147.451
0.555                  -0.667492        -149.348         -53.9125        -168.722         -53.9196        -168.719       -0.0127114          147.38
0.556                  -0.689226        -149.905         -53.7356        -170.755         -53.7424        -170.752       -0.0128342          147.31
0.557                  -0.711513        -150.464         -53.5585        -172.795          -53.565        -172.792       -0.0129582         147.239
0.558                  -0.734357        -151.026         -53.3814        -174.839         -53.3876        -174.836       -0.0130834         147.169
0.559                  -0.757766        -151.589         -53.2043        -176.889         -53.2102        -176.886       -0.0132099         147.098
0.56                   -0.781746        -152.154         -53.0275        -178.944          -53.033        -178.941       -0.0133376         147.027
0.561                  -0.806302        -152.722         -52.8509         178.995         -52.8562         178.998       -0.0134665         146.956
0.562                  -0.831441        -153.292         -52.6749          176.93         -52.6797         176.933       -0.0135968         146.885
0.563                  -0.857169        -153.864         -52.4993          174.86         -52.5038         174.863       -0.0137283         146.813
0.564                  -0.883491        -154.437         -52.3244         172.785         -52.3286         172.788       -0.0138611         146.742
0.565                  -0.910413        -155.013         -52.1503         170.705         -52.1541         170.708       -0.0139953          146.67
0.566                  -0.937941        -155.591         -51.9771         168.622         -51.9806         168.624       -0.0141308         146.598
0.567                   -0.96608        -156.171         -51.8049         166.534          -51.808         166.536       -0.0142677         146.527
0.568                  -0.994837        -156.753         -51.6338         164.442         -51.6365         164.444        -0.014406         146.455
0.569                   -1.02422        -157.336          -51.464         162.346         -51.4663         162.348       -0.0145456         146.383
0.57                    -1.05422        -157.921         -51.2954         160.247         -51.2974         160.249       -0.0146867          146.31
0.571                   -1.08486        -158.509         -51.1283         158.145         -51.1298         158.147       -0.0148293         146.238
0.572                   -1.11614        -159.098         -50.9626         156.041         -50.9638         156.042       -0.0149733         146.165
0.573                   -1.14807        -159.688         -50.7986         153.934         -50.7994         153.934       -0.0151188         146.093
0.574                   -1.18064        -160.281         -50.6362         151.824         -50.6367         151.825       -0.0152658          146.02
0.575                   -1.21386        -160.875         -50.4756         149.714         -50.4758         149.714       -0.0154144         145.947
0.576                   -1.24775        -161.471         -50.3169         147.602         -50.3167         147.601       -0.0155645         145.874
0.577                    -1.2823        -162.068         -50.1601         145.489         -50.1595         145.488       -0.0157162         145.801
0.578                   -1.31751        -162.667         -50.0053         143.375         -50.0043         143.374       -0.0158695         145.727
0.579                    -1.3534        -163.268         -49.8525         141.262         -49.8512          141.26       -0.0160244         145.654
0.58                    -1.38997         -163.87         -49.7018          139.15         -49.7001         139.147        -0.016181          145.58
0.581                   -1.42722        -164.474         -49.5532         137.038         -49.5513         137.035       -0.0163393         145.506
0.582                   -1.46515        -165.079         -49.4069         134.928         -49.4046         134.924       -0.0164993         145.432
0.583                   -1.50378        -165.685         -49.2627          132.82         -49.2602         132.815        -0.016661         145.358
0.584                    -1.5431        -166.293         -49.1209         130.714          -49.118         130.709       -0.0168245         145.284
0.585                   -1.58312        -166.902         -48.9813         128.612         -48.9781         128.606       -0.0169897         145.209
0.586                   -1.62385        -167.513         -48.8439         126.513         -48.8405         126.506       -0.0171568         145.134
0.587                   -1.66528        -168.125         -48.7089         124.418         -48.7052          124.41       -0.0173257          145.06
0.588                   -1.70742        -168.737         -48.5762         122.327         -48.5723         122.319       -0.0174965         144.985
0.589                   -1.75028        -169.352         -48.4459         120.242         -48.4417         120.233       -0.0176692         144.909
0.59                    -1.79385        -169.967         -48.3178         118.162         -48.3133         118.152       -0.0178439         144.834
0.591                   -1.83815        -170.584         -48.1919         116.089         -48.1873         116.077       -0.0180205         144.759
0.592                   -1.88317        -171.201         -48.0684         114.022         -48.0635         114.009       -0.0181991         144.683
0.593                   -1.92892         -171.82          -47.947         111.961          -47.942         111.948       -0.0183797         144.607
0.594                   -1.97541        -172.439         -47.8279         109.908         -47.8227         109.894       -0.0185624         144.531
0.595                   -2.02263         -173.06         -47.7109         107.863         -47.7056         107.848       -0.0187472         144.455
0.596                   -2.07059        -173.682         -47.5961         105.827         -47.5906         105.811       -0.0189341         144.378
0.597                   -2.11929        -174.304         -47.4833         103.798         -47.4777         103.781       -0.0191232         144.302
0.598                   -2.16874        -174.928         -47.3725         101.779         -47.3668         101.761       -0.0193145         144.225
0.599                   -2.21893        -175.552         -47.2637         99.7687         -47.2579         99.7499        -0.019508         144.148
0.6                     -2.26988        -176.177         -47.1568         97.7681         -47.1509         97.7484       -0.0197039         144.071
0.601                   -2.32159        -176.803         -47.0518         95.7772         -47.0458         95.7567        -0.019902         143.994
0.602                   -2.37405         -177.43         -46.9485         93.7964         -46.9424          93.775       -0.0201025         143.916
0.603                   -2.42727        -178.058         -46.8469         91.8258         -46.8408         91.8035       -0.0203054         143.839
0.604                   -2.48126        -178.686          -46.747         89.8656         -46.7409         89.8425       -0.0205107         143.761
0.605                   -2.53601        -179.315         -46.6487          87.916         -46.6425         87.8921       -0.0207185         143.683
0.606                   -2.59153        -179.944         -46.5519         85.9771         -46.5457         85.9525       -0.0209289         143.604
0.607                   -2.64783         179.426         -46.4564         84.0489         -46.4503         84.0236       -0.0211418         143.526
0.608                    -2.7049         178.795         -46.3624         82.1316         -46.3562         82.1057       -0.0213573         143.447
0.609                   -2.76275         178.163         -46.2696         80.2253         -46.2635         80.1987       -0.0215755         143.368
0.61                    -2.82139         177.532         -46.1781         78.3298         -46.1719         78.3026       -0.0217963         143.289
0.611                   -2.88081         176.899         -46.0877         76.4453         -46.0816         76.4176         -0.02202          143.21
0.612                   -2.94102         176.266         -45.9983         74.5717         -45.9922         74.5434       -0.0222464          143.13
0.613                   -3.00202         175.633         -45.9099         72.7089         -45.9039         72.6801       -0.0224757          143.05
0.614                   -3.06382         174.999         -45.8224         70.8568         -45.8165         70.8276       -0.0227079          142.97
0.615                   -3.12641         174.364         -45.7358         69.0154         -45.7299         68.9858       -0.0229431          142.89
0.616                   -3.18981          173.73           -45.65         67.1845         -45.6442         67.1546       -0.0231813         142.809
0.617                   -3.25401         173.094         -45.5648         65.3639         -45.5591         65.3337       -0.0234225         142.729
0.618                   -3.31902         172.459         -45.4803         63.5537         -45.4747         63.5232       -0.0236669         142.648
0.619                   -3.38485         171.823         -45.3963         61.7534         -45.3908         61.7228       -0.0239145         142.567
0.62                     -3.4515         171.187         -45.3129          59.963         -45.3075         59.9322       -0.0241653         142.485
0.621                   -3.51897          170.55         -45.2299         58.1823         -45.2246         58.1513       -0.0244194         142.403
0.622                   -3.58726         169.913         -45.1472          56.411          -45.142           56.38       -0.0246769         142.322
0.623                   -3.65639         169.276         -45.0649         54.6488         -45.0598         54.6178       -0.0249378         142.239
0.624                   -3.72635         168.638         -44.9829         52.8956         -44.9779         52.8646       -0.0252022         142.157
0.625                   -3.79715             168          -44.901         51.1511         -44.8962         51.1202       -0.0254701         142.074
0.626                    -3.8688         167.362         -44.8193          49.415         -44.8146         49.3842       -0.0257417         141.991
0.627                    -3.9413         166.723         -44.7378         47.6871         -44.7332         47.6563        -0.026017         141.908
0.628                   -4.01466         166.085         -44.6562          45.967         -44.6518         45.9364        -0.026296         141.825
0.629                   -4.08889         165.446         -44.5747         44.2545         -44.5704         44.2241       -0.0265789         141.741
