! TOUCHSTONE file generated by CST MICROWAVE STUDIO
! Date and time: Sat Oct 24 11:15:35 2020
! Project name: Scenario_1_Circular_Tissue_in_Line.cst
! Parameters = {L_HA=400; MT=2.54; Rad_Dielectric=30; Rad_Lower=7.3; Rad_Upper=30; a_HA=580; a_WG=246; b_HA=500; b_WG=121; c_HA=0; c_WG=187; d_feed=85; dx1=554.04; h_feed=15; h_lower=18; h_upper=40}
! Header version: 2018
! Port assignment regex: !\s*Touchstone port\s*([0-9]+)\s*=\s*(CST MWS port|CST DS port)\s*([0-9]+|Zmin|Zmax)\s*\(\"(.*)\"\)(\s*mode\s*([0-9]+))?.*
! Touchstone port assignment:
! Touchstone port 1 = CST MWS port 1 ("")
! Touchstone port 2 = CST MWS port 2 ("")
# GHz S DB R 50
0.5                    -0.142415        -122.478         -60.9446        -79.5054         -60.9446        -79.5054      -0.00743133         151.133
0.501                  -0.146951        -122.905         -60.8847        -79.3504         -60.8835        -79.3613      -0.00750886         151.068
0.502                   -0.15163        -123.333         -60.8207        -79.1914         -60.8184        -79.2138       -0.0075868         151.002
0.503                  -0.156456        -123.764         -60.7526        -79.0289         -60.7491        -79.0635      -0.00766519         150.937
0.504                  -0.161432        -124.196           -60.68        -78.8636         -60.6754        -78.9109      -0.00774401         150.872
0.505                  -0.166563        -124.631         -60.6027        -78.6961         -60.5971        -78.7568       -0.0078233         150.806
0.506                  -0.171853        -125.067         -60.5205        -78.5272         -60.5138         -78.602      -0.00790305         150.741
0.507                  -0.177304        -125.506         -60.4331        -78.3579         -60.4255        -78.4474      -0.00798329         150.675
0.508                  -0.182921        -125.947         -60.3404        -78.1891         -60.3318         -78.294      -0.00806401          150.61
0.509                  -0.188709         -126.39         -60.2419        -78.0218         -60.2325        -78.1428      -0.00814524         150.544
0.51                   -0.194671        -126.835         -60.1375        -77.8574         -60.1272        -77.9952      -0.00822698         150.478
0.511                  -0.200811        -127.283         -60.0269         -77.697         -60.0159        -77.8524      -0.00830924         150.412
0.512                  -0.207133        -127.732         -59.9098        -77.5422         -59.8981        -77.7158      -0.00839204         150.346
0.513                  -0.213643        -128.184         -59.7858        -77.3946         -59.7735        -77.5871      -0.00847539          150.28
0.514                  -0.220343        -128.638         -59.6548        -77.2559          -59.642        -77.4681      -0.00855929         150.214
0.515                   -0.22724        -129.094         -59.5163         -77.128         -59.5031        -77.3606      -0.00864377         150.147
0.516                  -0.234337        -129.553         -59.3701         -77.013         -59.3567        -77.2666      -0.00872883         150.081
0.517                  -0.241639        -130.014         -59.2159        -76.9131         -59.2023        -77.1884      -0.00881449         150.015
0.518                   -0.24915        -130.477         -59.0532        -76.8308         -59.0397        -77.1285      -0.00890075         149.948
0.519                  -0.256877        -130.942         -58.8819        -76.7686         -58.8685        -77.0894      -0.00898763         149.881
0.52                   -0.264822         -131.41         -58.7016        -76.7295         -58.6885         -77.074      -0.00907515         149.815
0.521                  -0.272992         -131.88         -58.5119        -76.7166         -58.4993        -77.0853      -0.00916331         149.748
0.522                  -0.281391        -132.353         -58.3125        -76.7332         -58.3005        -77.1266      -0.00925212         149.681
0.523                  -0.290025        -132.827          -58.103        -76.7828         -58.0919        -77.2016      -0.00934161         149.614
0.524                  -0.298899        -133.304         -57.8831        -76.8694         -57.8731         -77.314      -0.00943178         149.547
0.525                  -0.308017        -133.784         -57.6524        -76.9973         -57.6437        -77.4681      -0.00952264          149.48
0.526                  -0.317386        -134.266         -57.4107         -77.171         -57.4034        -77.6684      -0.00961422         149.413
0.527                   -0.32701         -134.75         -57.1574        -77.3954         -57.1519        -77.9198      -0.00970651         149.345
0.528                  -0.336896        -135.237         -56.8923        -77.6761         -56.8888        -78.2276      -0.00979955         149.278
0.529                  -0.347049        -135.726          -56.615        -78.0189         -56.6138        -78.5978      -0.00989333          149.21
0.53                   -0.357475        -136.217         -56.3251        -78.4304         -56.3265        -79.0367      -0.00998787         149.143
0.531                  -0.368178        -136.711         -56.0224        -78.9175         -56.0267        -79.5512       -0.0100832         149.075
0.532                  -0.379166        -137.207         -55.7064        -79.4882          -55.714        -80.1492       -0.0101793         149.007
0.533                  -0.390444        -137.706         -55.3769         -80.151         -55.3882         -80.839       -0.0102762         148.939
0.534                  -0.402018        -138.207         -55.0336        -80.9155         -55.0489        -81.6302       -0.0103739         148.871
0.535                  -0.413894        -138.711         -54.6763        -81.7924         -54.6961         -82.533       -0.0104725         148.803
0.536                  -0.426078        -139.217         -54.3048        -82.7935         -54.3296        -83.5591       -0.0105719         148.735
0.537                  -0.438577        -139.726         -53.9191        -83.9321         -53.9493        -84.7214       -0.0106722         148.667
0.538                  -0.451396        -140.237         -53.5192        -85.2228         -53.5555        -86.0343       -0.0107734         148.598
0.539                  -0.464543        -140.751         -53.1055        -86.6823         -53.1483        -87.5138       -0.0108754          148.53
0.54                   -0.478023        -141.267         -52.6784        -88.3289         -52.7284        -89.1778       -0.0109784         148.461
0.541                  -0.491843        -141.786         -52.2389        -90.1831         -52.2967        -91.0459       -0.0110822         148.393
0.542                  -0.506009        -142.307         -51.7881        -92.2675         -51.8546        -93.1397       -0.0111871         148.324
0.543                  -0.520529        -142.831         -51.3281        -94.6067         -51.4038        -95.4828       -0.0112928         148.255
0.544                  -0.535409        -143.357         -50.8616        -97.2268         -50.9472        -98.0998       -0.0113996         148.186
0.545                  -0.550655        -143.885         -50.3921        -100.155         -50.4882        -101.016       -0.0115073         148.117
0.546                  -0.566275        -144.417         -49.9245        -103.418         -50.0316        -104.258        -0.011616         148.047
0.547                  -0.582275         -144.95         -49.4652        -107.041         -49.5833        -107.846       -0.0117258         147.978
0.548                  -0.598663        -145.487         -49.0218        -111.043         -49.1509        -111.799       -0.0118366         147.908
0.549                  -0.615445        -146.025         -48.6037        -115.433         -48.7432        -116.126       -0.0119484         147.839
0.55                   -0.632628        -146.566         -48.2218        -120.208         -48.3702        -120.821       -0.0120613         147.769
0.551                   -0.65022         -147.11         -47.8874        -125.346         -48.0429        -125.865       -0.0121753         147.699
0.552                  -0.668228        -147.656         -47.6121        -130.802         -47.7719        -131.214       -0.0122904         147.629
0.553                  -0.686658        -148.205         -47.4058        -136.506         -47.5665        -136.805       -0.0124066         147.559
0.554                  -0.705518        -148.756         -47.2755        -142.372         -47.4335        -142.556       -0.0125239         147.489
0.555                  -0.724816         -149.31         -47.2244        -148.296         -47.3762        -148.372       -0.0126424         147.419
0.556                  -0.744558        -149.866         -47.2511        -154.176         -47.3934        -154.155       -0.0127621         147.348
0.557                  -0.764752        -150.425         -47.3498        -159.917         -47.4802        -159.817       -0.0128829         147.278
0.558                  -0.785406        -150.986         -47.5114        -165.443         -47.6285        -165.282        -0.013005         147.207
0.559                  -0.806526         -151.55          -47.725          -170.7         -47.8281        -170.498       -0.0131283         147.136
0.56                    -0.82812        -152.116         -47.9791        -175.656         -48.0682        -175.431       -0.0132529         147.066
0.561                  -0.850197        -152.684         -48.2624         179.698         -48.3383         179.931       -0.0133788         146.994
0.562                  -0.872762        -153.255         -48.5652         175.358         -48.6287         175.587        -0.013506         146.923
0.563                  -0.895825        -153.829          -48.879         171.308         -48.9314         171.523       -0.0136345         146.852
0.564                  -0.919392        -154.404         -49.1972         167.527         -49.2396         167.721       -0.0137643         146.781
0.565                  -0.943471        -154.982         -49.5144         163.988          -49.548         164.158       -0.0138955         146.709
0.566                   -0.96807        -155.563         -49.8265         160.667         -49.8524         160.809       -0.0140281         146.637
0.567                  -0.993196        -156.146         -50.1306         157.537         -50.1498         157.651       -0.0141621         146.566
0.568                   -1.01886        -156.731         -50.4244         154.575         -50.4378          154.66       -0.0142975         146.494
0.569                   -1.04506        -157.319         -50.7064          151.76         -50.7147         151.815       -0.0144344         146.421
0.57                    -1.07181        -157.909         -50.9757         149.071         -50.9796         149.098       -0.0145727         146.349
0.571                   -1.09913        -158.501         -51.2315         146.491         -51.2315         146.491       -0.0147125         146.277
0.572                     -1.127        -159.095         -51.4735         144.006         -51.4701         143.981       -0.0148539         146.204
0.573                   -1.15545        -159.692         -51.7014         141.602         -51.6951         141.552       -0.0149968         146.132
0.574                   -1.18448        -160.291         -51.9153         139.267         -51.9064         139.194       -0.0151412         146.059
0.575                    -1.2141        -160.892         -52.1153         136.992         -52.1039         136.898       -0.0152873         145.986
0.576                   -1.24431        -161.495         -52.3013         134.767         -52.2879         134.654       -0.0154349         145.913
0.577                   -1.27513        -162.101         -52.4737         132.586         -52.4584         132.454       -0.0155842          145.84
0.578                   -1.30656        -162.708         -52.6327         130.442         -52.6157         130.294       -0.0157352         145.766
0.579                    -1.3386        -163.318         -52.7785          128.33           -52.76         128.166       -0.0158878         145.693
0.58                    -1.37127         -163.93         -52.9113         126.244         -52.8914         126.067       -0.0160422         145.619
0.581                   -1.40457        -164.544         -53.0315         124.182         -53.0103         123.993       -0.0161984         145.545
0.582                   -1.43852         -165.16         -53.1392          122.14          -53.117         121.939       -0.0163563         145.471
0.583                   -1.47311        -165.778         -53.2348         120.115         -53.2115         119.905        -0.016516         145.397
0.584                   -1.50835        -166.398         -53.3186         118.106         -53.2943         117.887       -0.0166776         145.323
0.585                   -1.54426         -167.02         -53.3908          116.11         -53.3656         115.883        -0.016841         145.248
0.586                   -1.58084        -167.644         -53.4516         114.125         -53.4256         113.892       -0.0170063         145.173
0.587                   -1.61809         -168.27         -53.5014         112.152         -53.4746         111.914       -0.0171735         145.099
0.588                   -1.65603        -168.897         -53.5403         110.189         -53.5129         109.946       -0.0173427         145.024
0.589                   -1.69466        -169.527         -53.5687         108.235         -53.5407         107.988       -0.0175139         144.949
0.59                    -1.73398        -170.158         -53.5869          106.29         -53.5583         106.041       -0.0176871         144.873
0.591                   -1.77401        -170.791          -53.595         104.354          -53.566         104.102       -0.0178624         144.798
0.592                   -1.81476        -171.426         -53.5935         102.426          -53.564         102.174       -0.0180397         144.722
0.593                   -1.85622        -172.063         -53.5824         100.507         -53.5525         100.254       -0.0182192         144.646
0.594                    -1.8984        -172.701         -53.5621         98.5965         -53.5319         98.3439       -0.0184008          144.57
0.595                   -1.94132        -173.341         -53.5329         96.6949         -53.5025          96.443       -0.0185846         144.494
0.596                   -1.98498        -173.982         -53.4951         94.8023         -53.4644         94.5516       -0.0187707         144.418
0.597                   -2.02938        -174.625         -53.4489         92.9188          -53.418         92.6699        -0.018959         144.341
0.598                   -2.07453         -175.27         -53.3945         91.0447         -53.3636          90.798       -0.0191496         144.264
0.599                   -2.12045        -175.916         -53.3323         89.1802         -53.3013         88.9361       -0.0193425         144.187
0.6                     -2.16713        -176.564         -53.2626         87.3255         -53.2316         87.0843       -0.0195379          144.11
0.601                   -2.21458        -177.213         -53.1856         85.4808         -53.1546         85.2429       -0.0197356         144.033
0.602                   -2.26281        -177.863         -53.1015         83.6462         -53.0707         83.4119       -0.0199358         143.955
0.603                   -2.31182        -178.515         -53.0107          81.822           -52.98         81.5914       -0.0201385         143.878
0.604                   -2.36162        -179.168         -52.9134         80.0081         -52.8829         79.7815       -0.0203438           143.8
0.605                   -2.41222        -179.822         -52.8099         78.2046         -52.7796         77.9822       -0.0205516         143.722
0.606                   -2.46363         179.522         -52.7005         76.4116         -52.6704         76.1936       -0.0207621         143.643
0.607                   -2.51585         178.865         -52.5853          74.629         -52.5556         74.4154       -0.0209753         143.565
0.608                   -2.56888         178.207         -52.4647         72.8567         -52.4353         72.6477       -0.0211911         143.486
0.609                   -2.62273         177.548         -52.3389         71.0947         -52.3098         70.8902       -0.0214098         143.407
0.61                    -2.67742         176.887         -52.2081         69.3426         -52.1795         69.1429       -0.0216312         143.328
0.611                   -2.73294         176.226         -52.0726         67.6004         -52.0444         67.4053       -0.0218556         143.249
0.612                    -2.7893         175.563         -51.9326         65.8677         -51.9048         65.6774       -0.0220828         143.169
0.613                   -2.84651         174.899         -51.7883         64.1443          -51.761         63.9587        -0.022313         143.089
0.614                   -2.90458         174.235           -51.64         62.4298         -51.6132         62.2489       -0.0225462         143.009
0.615                    -2.9635         173.569         -51.4878         60.7238         -51.4616         60.5476       -0.0227826         142.929
0.616                    -3.0233         172.903          -51.332          59.026         -51.3063         58.8545        -0.023022         142.849
0.617                   -3.08397         172.235         -51.1727         57.3359         -51.1475          57.169       -0.0232646         142.768
0.618                   -3.14552         171.567         -51.0101          55.653         -50.9856         55.4907       -0.0235105         142.687
0.619                   -3.20795         170.898         -50.8445         53.9769         -50.8205         53.8191       -0.0237596         142.606
0.62                    -3.27129         170.228          -50.676          52.307         -50.6526         52.1536       -0.0240121         142.524
0.621                   -3.33552         169.557         -50.5048         50.6428          -50.482         50.4938        -0.024268         142.443
0.622                   -3.40066         168.886          -50.331         48.9838         -50.3088         48.8391       -0.0245275         142.361
0.623                   -3.46673         168.213         -50.1548         47.3293         -50.1332         47.1888       -0.0247904         142.279
0.624                   -3.53371          167.54         -49.9764         45.6789         -49.9554         45.5425        -0.025057         142.196
0.625                   -3.60163         166.867         -49.7958         44.0318         -49.7755         43.8995       -0.0253272         142.113
0.626                   -3.67048         166.193         -49.6134         42.3875         -49.5937         42.2592       -0.0256012         142.031
0.627                   -3.74029         165.518         -49.4291         40.7455         -49.4101         40.6211        -0.025879         141.947
0.628                   -3.81105         164.842         -49.2431          39.105         -49.2247         38.9844       -0.0261607         141.864
0.629                   -3.88277         164.166         -49.0557         37.4654         -49.0379         37.3487       -0.0264464          141.78
