! TOUCHSTONE file generated by CST MICROWAVE STUDIO
! Date and time: Sat Oct 24 11:15:41 2020
! Project name: Scenario_1_Circular_Tissue_in_Line.cst
! Parameters = {L_HA=400; MT=2.54; Rad_Dielectric=30; Rad_Lower=7.3; Rad_Upper=30; a_HA=580; a_WG=246; b_HA=500; b_WG=121; c_HA=0; c_WG=187; d_feed=85; dx1=571.36; h_feed=15; h_lower=18; h_upper=40}
! Header version: 2018
! Port assignment regex: !\s*Touchstone port\s*([0-9]+)\s*=\s*(CST MWS port|CST DS port)\s*([0-9]+|Zmin|Zmax)\s*\(\"(.*)\"\)(\s*mode\s*([0-9]+))?.*
! Touchstone port assignment:
! Touchstone port 1 = CST MWS port 1 ("")
! Touchstone port 2 = CST MWS port 2 ("")
# GHz S DB R 50
0.5                    -0.149928        -122.551         -60.9244        -90.1958         -60.9241        -90.1941      -0.00750193          151.12
0.501                  -0.157487        -122.998         -60.7347         -91.898         -60.7344        -91.8962      -0.00757187         151.054
0.502                  -0.165247        -123.446         -60.5455         -93.618         -60.5453         -93.616      -0.00764344         150.989
0.503                  -0.173205        -123.894         -60.3569        -95.3558         -60.3568        -95.3536      -0.00771661         150.924
0.504                  -0.181356        -124.344         -60.1691        -97.1112         -60.1691        -97.1088      -0.00779132         150.858
0.505                  -0.189695        -124.794         -59.9822        -98.8843         -59.9823        -98.8818      -0.00786751         150.792
0.506                  -0.198219        -125.246         -59.7964        -100.675         -59.7964        -100.672      -0.00794513         150.727
0.507                  -0.206922        -125.698         -59.6116        -102.483         -59.6118         -102.48      -0.00802413         150.661
0.508                  -0.215801        -126.151         -59.4282        -104.307         -59.4283        -104.305      -0.00810444         150.595
0.509                   -0.22485        -126.605         -59.2462        -106.149         -59.2463        -106.146      -0.00818603         150.529
0.51                   -0.234066         -127.06         -59.0657        -108.007         -59.0658        -108.004      -0.00826882         150.463
0.511                  -0.243444        -127.516         -58.8868        -109.881          -58.887        -109.878      -0.00835278         150.397
0.512                   -0.25298        -127.973         -58.7098         -111.77           -58.71        -111.767      -0.00843785         150.331
0.513                  -0.262668        -128.431         -58.5346        -113.674         -58.5348        -113.671      -0.00852397         150.265
0.514                  -0.272505         -128.89         -58.3615        -115.592         -58.3617        -115.589      -0.00861111         150.198
0.515                  -0.282487         -129.35         -58.1905        -117.524         -58.1907        -117.521      -0.00869921         150.132
0.516                  -0.292609        -129.811         -58.0218        -119.468         -58.0219        -119.465      -0.00878824         150.066
0.517                  -0.302868        -130.273         -57.8554        -121.424         -57.8555        -121.422      -0.00887814         149.999
0.518                  -0.313259        -130.737         -57.6914        -123.392         -57.6915        -123.389      -0.00896888         149.932
0.519                  -0.323778        -131.202         -57.5299        -125.369         -57.5299        -125.367      -0.00906041         149.866
0.52                   -0.334422        -131.668         -57.3709        -127.356          -57.371        -127.354      -0.00915271         149.799
0.521                  -0.345188        -132.135         -57.2146        -129.351         -57.2146        -129.349      -0.00924574         149.732
0.522                  -0.356072        -132.604          -57.061        -131.353          -57.061        -131.351      -0.00933945         149.665
0.523                   -0.36707        -133.074         -56.9101        -133.361           -56.91         -133.36      -0.00943384         149.598
0.524                  -0.378181        -133.546         -56.7619        -135.375         -56.7618        -135.373      -0.00952885         149.531
0.525                  -0.389401         -134.02         -56.6165        -137.392         -56.6164        -137.391      -0.00962448         149.464
0.526                  -0.400728        -134.495         -56.4739        -139.412         -56.4737        -139.411      -0.00972069         149.397
0.527                  -0.412161        -134.971          -56.334        -141.434         -56.3338        -141.433      -0.00981747         149.329
0.528                  -0.423696         -135.45         -56.1968        -143.457         -56.1965        -143.456      -0.00991478         149.262
0.529                  -0.435334         -135.93         -56.0623        -145.479          -56.062        -145.479       -0.0100126         149.194
0.53                   -0.447073        -136.412         -55.9304          -147.5         -55.9301          -147.5        -0.010111         149.127
0.531                  -0.458912        -136.896         -55.8011        -149.519         -55.8007        -149.518       -0.0102098         149.059
0.532                  -0.470852        -137.382         -55.6743        -151.534         -55.6739        -151.534       -0.0103091         148.991
0.533                  -0.482892         -137.87         -55.5499        -153.545         -55.5495        -153.545       -0.0104089         148.923
0.534                  -0.495034        -138.361         -55.4279        -155.551         -55.4274        -155.551       -0.0105092         148.855
0.535                  -0.507278        -138.853         -55.3081        -157.551         -55.3075        -157.551       -0.0106099         148.787
0.536                  -0.519627        -139.349         -55.1904        -159.544         -55.1898        -159.544       -0.0107111         148.719
0.537                  -0.532082        -139.846         -55.0747        -161.529         -55.0741         -161.53       -0.0108127         148.651
0.538                  -0.544648        -140.346         -54.9609        -163.507         -54.9603        -163.508       -0.0109148         148.582
0.539                  -0.557327        -140.849         -54.8489        -165.476         -54.8483        -165.477       -0.0110173         148.514
0.54                   -0.570125        -141.354         -54.7386        -167.436         -54.7379        -167.438       -0.0111203         148.445
0.541                  -0.583046        -141.863         -54.6297        -169.386          -54.629        -169.388       -0.0112237         148.377
0.542                  -0.596095        -142.374         -54.5223        -171.327         -54.5215        -171.329       -0.0113275         148.308
0.543                  -0.609281        -142.888          -54.416        -173.257         -54.4153         -173.26       -0.0114319         148.239
0.544                  -0.622609        -143.406         -54.3109        -175.177         -54.3102         -175.18       -0.0115367          148.17
0.545                  -0.636089        -143.926         -54.2068        -177.087          -54.206        -177.089       -0.0116419         148.101
0.546                   -0.64973         -144.45         -54.1035        -178.985         -54.1027        -178.988       -0.0117477         148.032
0.547                  -0.663541        -144.978         -54.0009         179.126         -54.0001         179.124        -0.011854         147.962
0.548                  -0.677535        -145.509         -53.8989         177.249         -53.8981         177.246       -0.0119608         147.893
0.549                  -0.691722        -146.043         -53.7974         175.382         -53.7966         175.379       -0.0120681         147.823
0.55                   -0.706116        -146.582         -53.6962         173.526         -53.6954         173.522       -0.0121759         147.754
0.551                  -0.720731        -147.124         -53.5952         171.679         -53.5944         171.676       -0.0122843         147.684
0.552                  -0.735583         -147.67         -53.4944         169.843         -53.4935          169.84       -0.0123933         147.614
0.553                  -0.750688        -148.221         -53.3935         168.017         -53.3926         168.013       -0.0125029         147.544
0.554                  -0.766063        -148.775         -53.2925           166.2         -53.2917         166.196       -0.0126131         147.474
0.555                  -0.781727        -149.334         -53.1913         164.392         -53.1905         164.388       -0.0127239         147.404
0.556                  -0.797701        -149.897         -53.0899         162.593          -53.089         162.589       -0.0128354         147.333
0.557                  -0.814004        -150.465          -52.988         160.802         -52.9872         160.798       -0.0129476         147.263
0.558                   -0.83066        -151.037         -52.8857         159.018         -52.8849         159.014       -0.0130605         147.192
0.559                  -0.847693        -151.614         -52.7829         157.243          -52.782         157.239       -0.0131742         147.121
0.56                   -0.865126        -152.196         -52.6794         155.474         -52.6786          155.47       -0.0132886          147.05
0.561                  -0.882986        -152.782         -52.5753         153.712         -52.5745         153.707       -0.0134038         146.979
0.562                  -0.901301        -153.373         -52.4704         151.955         -52.4696         151.951       -0.0135199         146.908
0.563                  -0.920098        -153.969         -52.3648         150.204          -52.364           150.2       -0.0136368         146.837
0.564                  -0.939409         -154.57         -52.2583         148.458         -52.2576         148.454       -0.0137546         146.766
0.565                  -0.959263        -155.176          -52.151         146.716         -52.1503         146.712       -0.0138733         146.694
0.566                  -0.979693        -155.788         -52.0428         144.978         -52.0421         144.973       -0.0139931         146.623
0.567                   -1.00073        -156.404         -51.9336         143.242         -51.9329         143.238       -0.0141138         146.551
0.568                   -1.02241        -157.025         -51.8235          141.51         -51.8228         141.506       -0.0142356         146.479
0.569                   -1.04478        -157.652         -51.7124          139.78         -51.7118         139.776       -0.0143584         146.407
0.57                    -1.06785        -158.284         -51.6004         138.051         -51.5997         138.047       -0.0144824         146.335
0.571                   -1.09168         -158.92         -51.4873         136.323         -51.4867         136.319       -0.0146076         146.262
0.572                    -1.1163        -159.562         -51.3732         134.596         -51.3726         134.592        -0.014734          146.19
0.573                   -1.14175        -160.209         -51.2582         132.868         -51.2576         132.864       -0.0148616         146.117
0.574                   -1.16806        -160.861         -51.1421          131.14         -51.1416         131.136       -0.0149906         146.044
0.575                   -1.19528        -161.518         -51.0251         129.411         -51.0246         129.407       -0.0151209         145.971
0.576                   -1.22345        -162.179         -50.9071         127.679         -50.9066         127.676       -0.0152526         145.898
0.577                    -1.2526        -162.845         -50.7881         125.946         -50.7877         125.943       -0.0153858         145.825
0.578                   -1.28278        -163.516         -50.6683          124.21         -50.6678         124.207       -0.0155205         145.752
0.579                   -1.31403        -164.191         -50.5475         122.471         -50.5471         122.468       -0.0156568         145.678
0.58                    -1.34638        -164.871         -50.4259         120.728         -50.4255         120.725       -0.0157947         145.604
0.581                   -1.37987        -165.555         -50.3034         118.981         -50.3031         118.978       -0.0159343          145.53
0.582                   -1.41454        -166.242         -50.1802          117.23         -50.1799         117.227       -0.0160756         145.456
0.583                   -1.45043        -166.933         -50.0562         115.473         -50.0559          115.47       -0.0162187         145.382
0.584                   -1.48757        -167.628         -49.9315         113.712         -49.9313         113.709       -0.0163638         145.308
0.585                     -1.526        -168.326         -49.8062         111.944          -49.806         111.942       -0.0165107         145.233
0.586                   -1.56574        -169.027         -49.6803         110.171         -49.6801         110.168       -0.0166596         145.159
0.587                   -1.60684        -169.731         -49.5538         108.391         -49.5536         108.388       -0.0168106         145.084
0.588                    -1.6493        -170.437         -49.4269         106.604         -49.4267         106.602       -0.0169637         145.009
0.589                   -1.69317        -171.145         -49.2995          104.81         -49.2994         104.808        -0.017119         144.934
0.59                    -1.73846        -171.854         -49.1718         103.009         -49.1717         103.008       -0.0172765         144.858
0.591                   -1.78519        -172.565         -49.0438         101.201         -49.0437         101.199       -0.0174364         144.783
0.592                   -1.83338        -173.277         -48.9155         99.3849         -48.9155         99.3833       -0.0175987         144.707
0.593                   -1.88304         -173.99         -48.7872         97.5609         -48.7871         97.5594       -0.0177634         144.631
0.594                   -1.93418        -174.703         -48.6587         95.7288         -48.6587         95.7275       -0.0179307         144.555
0.595                   -1.98681        -175.416         -48.5303         93.8885         -48.5303         93.8874       -0.0181006         144.479
0.596                   -2.04092        -176.129         -48.4019           92.04         -48.4019          92.039       -0.0182732         144.402
0.597                   -2.09651         -176.84         -48.2736         90.1832         -48.2736         90.1823       -0.0184485         144.326
0.598                   -2.15358         -177.55         -48.1456          88.318         -48.1456         88.3173       -0.0186267         144.249
0.599                   -2.21212        -178.259         -48.0178         86.4445         -48.0179         86.4439       -0.0188078         144.172
0.6                      -2.2721        -178.965         -47.8905         84.5627         -47.8905         84.5622       -0.0189918         144.095
0.601                   -2.33351        -179.669         -47.7635         82.6725         -47.7636         82.6722       -0.0191789         144.017
0.602                   -2.39632          179.63         -47.6371         80.7743         -47.6372         80.7741       -0.0193692         143.939
0.603                    -2.4605         178.933         -47.5113          78.868         -47.5114         78.8679       -0.0195626         143.862
0.604                   -2.52603         178.239         -47.3861         76.9538         -47.3862         76.9539       -0.0197593         143.784
0.605                   -2.59285         177.549         -47.2617          75.032         -47.2618         75.0322       -0.0199593         143.705
0.606                   -2.66093         176.863         -47.1381         73.1027         -47.1382          73.103       -0.0201627         143.627
0.607                   -2.73023         176.182         -47.0154         71.1662         -47.0155         71.1666       -0.0203696         143.548
0.608                   -2.80068         175.506         -46.8936         69.2227         -46.8937         69.2232       -0.0205801         143.469
0.609                   -2.87224         174.836         -46.7728         67.2727         -46.7729         67.2733       -0.0207941          143.39
0.61                    -2.94484          174.17          -46.653         65.3164         -46.6531          65.317       -0.0210119         143.311
0.611                   -3.01843         173.511         -46.5343         63.3541         -46.5345         63.3548       -0.0212334         143.232
0.612                   -3.09294         172.857         -46.4168         61.3864          -46.417         61.3871       -0.0214587         143.152
0.613                   -3.16831         172.209         -46.3006         59.4135         -46.3007         59.4143       -0.0216879         143.072
0.614                   -3.24446         171.568         -46.1855         57.4358         -46.1856         57.4367        -0.021921         142.992
0.615                   -3.32132         170.933         -46.0717          55.454         -46.0718         55.4549       -0.0221581         142.911
0.616                   -3.39883         170.304         -45.9593         53.4683         -45.9594         53.4692       -0.0223992         142.831
0.617                    -3.4769         169.681         -45.8482         51.4793         -45.8482         51.4802       -0.0226444          142.75
0.618                   -3.55546         169.064         -45.7384         49.4874         -45.7385         49.4883       -0.0228938         142.669
0.619                   -3.63445         168.454           -45.63         47.4931         -45.6301          47.494       -0.0231474         142.588
0.62                    -3.71377          167.85         -45.5231          45.497         -45.5231         45.4979       -0.0234053         142.506
0.621                   -3.79337         167.252         -45.4175         43.4995         -45.4175         43.5003       -0.0236675         142.424
0.622                   -3.87316         166.659         -45.3133          41.501         -45.3133         41.5019        -0.023934         142.342
0.623                   -3.95307         166.072         -45.2105         39.5022         -45.2105          39.503       -0.0242049          142.26
0.624                   -4.03304          165.49         -45.1091         37.5035         -45.1091         37.5042       -0.0244803         142.177
0.625                     -4.113         164.913         -45.0091         35.5052         -45.0091         35.5059       -0.0247601         142.095
0.626                   -4.19289         164.341         -44.9104         33.5081         -44.9104         33.5087       -0.0250445         142.011
0.627                   -4.27263         163.772         -44.8131         31.5123         -44.8131         31.5129       -0.0253335         141.928
0.628                   -4.35219         163.208          -44.717         29.5185         -44.7171          29.519        -0.025627         141.845
0.629                    -4.4315         162.646         -44.6223          27.527         -44.6223         27.5275       -0.0259252         141.761
