! TOUCHSTONE file generated by CST MICROWAVE STUDIO
! Date and time: Sat Oct 24 11:15:48 2020
! Project name: Scenario_1_Circular_Tissue_in_Line.cst
! Parameters = {L_HA=400; MT=2.54; Rad_Dielectric=30; Rad_Lower=7.3; Rad_Upper=30; a_HA=580; a_WG=246; b_HA=500; b_WG=121; c_HA=0; c_WG=187; d_feed=85; dx1=588.68; h_feed=15; h_lower=18; h_upper=40}
! Header version: 2018
! Port assignment regex: !\s*Touchstone port\s*([0-9]+)\s*=\s*(CST MWS port|CST DS port)\s*([0-9]+|Zmin|Zmax)\s*\(\"(.*)\"\)(\s*mode\s*([0-9]+))?.*
! Touchstone port assignment:
! Touchstone port 1 = CST MWS port 1 ("")
! Touchstone port 2 = CST MWS port 2 ("")
# GHz S DB R 50
0.5                    -0.156844        -122.532         -60.9494        -101.047         -60.9488        -101.045      -0.00755353         151.102
0.501                  -0.162969        -122.969         -60.9631        -102.857          -60.963        -102.854      -0.00763033         151.037
0.502                  -0.169239        -123.408         -60.9723        -104.699         -60.9728        -104.694      -0.00770765         150.972
0.503                  -0.175656        -123.848         -60.9767         -106.57         -60.9778        -106.564      -0.00778549         150.906
0.504                   -0.18222         -124.29         -60.9761        -108.471         -60.9778        -108.463      -0.00786385         150.841
0.505                  -0.188933        -124.734         -60.9701        -110.398         -60.9725         -110.39      -0.00794274         150.775
0.506                  -0.195796         -125.18         -60.9587        -112.352         -60.9616        -112.344      -0.00802214         150.709
0.507                   -0.20281        -125.627         -60.9415         -114.33          -60.945        -114.322      -0.00810207         150.644
0.508                  -0.209975        -126.076         -60.9183        -116.331         -60.9224        -116.323      -0.00818253         150.578
0.509                  -0.217295        -126.527         -60.8889        -118.352         -60.8936        -118.345      -0.00826351         150.512
0.51                   -0.224768        -126.979         -60.8533        -120.393         -60.8585        -120.387      -0.00834501         150.446
0.511                  -0.232398        -127.434         -60.8111        -122.449         -60.8169        -122.445      -0.00842704          150.38
0.512                  -0.240184         -127.89         -60.7624        -124.521         -60.7687        -124.518      -0.00850961         150.314
0.513                   -0.24813        -128.348         -60.7071        -126.604         -60.7138        -126.603       -0.0085927         150.248
0.514                  -0.256235        -128.808         -60.6451        -128.697         -60.6522        -128.698      -0.00867632         150.181
0.515                  -0.264502         -129.27         -60.5764        -130.797         -60.5839        -130.801      -0.00876047         150.115
0.516                  -0.272932        -129.734          -60.501        -132.903         -60.5088        -132.908      -0.00884515         150.049
0.517                  -0.281527        -130.199          -60.419        -135.011         -60.4271        -135.019      -0.00893037         149.982
0.518                  -0.290289        -130.667         -60.3305         -137.12         -60.3388        -137.131      -0.00901613         149.916
0.519                  -0.299219        -131.137         -60.2355        -139.226          -60.244         -139.24      -0.00910242         149.849
0.52                   -0.308319        -131.608         -60.1343         -141.33         -60.1429        -141.346      -0.00918925         149.782
0.521                  -0.317591        -132.082         -60.0269        -143.427         -60.0356        -143.446      -0.00927662         149.715
0.522                  -0.327038        -132.558         -59.9137        -145.517         -59.9224        -145.539      -0.00936454         149.648
0.523                  -0.336662        -133.036         -59.7947        -147.597         -59.8034        -147.622      -0.00945299         149.581
0.524                  -0.346464        -133.516         -59.6702        -149.667         -59.6788        -149.694        -0.009542         149.514
0.525                  -0.356448        -133.998         -59.5405        -151.724         -59.5491        -151.754      -0.00963155         149.447
0.526                  -0.366615        -134.483         -59.4059        -153.767         -59.4143          -153.8      -0.00972165          149.38
0.527                  -0.376969        -134.969         -59.2665        -155.797         -59.2748        -155.831       -0.0098123         149.312
0.528                  -0.387512        -135.458         -59.1228         -157.81         -59.1308        -157.847      -0.00990351         149.245
0.529                  -0.398247         -135.95         -58.9749        -159.808         -58.9827        -159.847      -0.00999528         149.177
0.53                   -0.409178        -136.443         -58.8231        -161.789         -58.8307        -161.829       -0.0100876          149.11
0.531                  -0.420306        -136.939         -58.6678        -163.752         -58.6751        -163.795       -0.0101805         149.042
0.532                  -0.431637        -137.438         -58.5092        -165.699         -58.5161        -165.742       -0.0102739         148.974
0.533                  -0.443173        -137.939         -58.3476        -167.628         -58.3542        -167.673        -0.010368         148.906
0.534                  -0.454919        -138.442         -58.1832         -169.54         -58.1895        -169.585       -0.0104626         148.838
0.535                  -0.466877        -138.948         -58.0163        -171.434         -58.0223         -171.48       -0.0105577          148.77
0.536                  -0.479054        -139.456         -57.8472        -173.312         -57.8528        -173.358       -0.0106535         148.702
0.537                  -0.491452        -139.967         -57.6761        -175.173         -57.6813        -175.219       -0.0107498         148.633
0.538                  -0.504077        -140.481         -57.5032        -177.017         -57.5081        -177.064       -0.0108468         148.565
0.539                  -0.516933        -140.997         -57.3287        -178.847         -57.3333        -178.893       -0.0109443         148.496
0.54                   -0.530026        -141.517         -57.1529         179.339         -57.1572         179.293       -0.0110424         148.428
0.541                  -0.543362        -142.038          -56.976         177.539         -56.9799         177.493       -0.0111411         148.359
0.542                  -0.556946        -142.563         -56.7981         175.753         -56.8017         175.707       -0.0112405          148.29
0.543                  -0.570784        -143.091         -56.6194         173.979         -56.6227         173.935       -0.0113404         148.221
0.544                  -0.584883        -143.622         -56.4401         172.218         -56.4431         172.174        -0.011441         148.152
0.545                   -0.59925        -144.155         -56.2603         170.468          -56.263         170.425       -0.0115423         148.083
0.546                  -0.613892        -144.692         -56.0802         168.728         -56.0826         168.686       -0.0116441         148.014
0.547                  -0.628817        -145.232         -55.8998         166.997          -55.902         166.957       -0.0117466         147.945
0.548                  -0.644033        -145.775         -55.7194         165.276         -55.7214         165.237       -0.0118498         147.875
0.549                  -0.659549        -146.321         -55.5391         163.562         -55.5407         163.524       -0.0119537         147.805
0.55                   -0.675373         -146.87         -55.3588         161.855         -55.3603         161.819       -0.0120582         147.736
0.551                  -0.691516        -147.423         -55.1788         160.154         -55.1801         160.119       -0.0121635         147.666
0.552                  -0.707988        -147.979         -54.9992         158.458         -55.0002         158.425       -0.0122694         147.596
0.553                  -0.724799        -148.538         -54.8199         156.766         -54.8208         156.735       -0.0123761         147.526
0.554                  -0.741962        -149.101         -54.6411         155.078         -54.6418         155.049       -0.0124835         147.456
0.555                  -0.759487        -149.668         -54.4629         153.393         -54.4634         153.365       -0.0125917         147.385
0.556                  -0.777389        -150.238         -54.2852         151.709         -54.2857         151.683       -0.0127006         147.315
0.557                   -0.79568        -150.812         -54.1083         150.027         -54.1086         150.002       -0.0128103         147.245
0.558                  -0.814375        -151.389         -53.9321         148.344         -53.9323         148.322       -0.0129209         147.174
0.559                  -0.833489         -151.97         -53.7566         146.662         -53.7568         146.641       -0.0130323         147.103
0.56                   -0.853038        -152.555          -53.582         144.978         -53.5821         144.959       -0.0131445         147.032
0.561                  -0.873039        -153.144         -53.4082         143.292         -53.4082         143.275       -0.0132577         146.961
0.562                   -0.89351        -153.737         -53.2354         141.604         -53.2353         141.588       -0.0133717          146.89
0.563                   -0.91447        -154.334         -53.0635         139.912         -53.0634         139.898       -0.0134867         146.819
0.564                  -0.935938        -154.935         -52.8925         138.217         -52.8924         138.204       -0.0136027         146.747
0.565                  -0.957936         -155.54         -52.7226         136.517         -52.7225         136.506       -0.0137196         146.676
0.566                  -0.980486         -156.15         -52.5537         134.812         -52.5536         134.803       -0.0138377         146.604
0.567                   -1.00361        -156.763         -52.3859         133.102         -52.3857         133.094       -0.0139567         146.532
0.568                   -1.02734        -157.381         -52.2192         131.386          -52.219          131.38        -0.014077          146.46
0.569                   -1.05169        -158.002         -52.0536         129.664         -52.0535         129.659       -0.0141983         146.388
0.57                    -1.07669        -158.629         -51.8892         127.934          -51.889         127.931       -0.0143209         146.316
0.571                   -1.10237        -159.259         -51.7259         126.198         -51.7258         126.195       -0.0144447         146.243
0.572                   -1.12877        -159.894         -51.5639         124.453         -51.5638         124.452       -0.0145698         146.171
0.573                   -1.15591        -160.533          -51.403         122.701          -51.403         122.701       -0.0146963         146.098
0.574                   -1.18382        -161.177         -51.2435          120.94         -51.2434         120.941       -0.0148242         146.025
0.575                   -1.21254        -161.824         -51.0851         119.171         -51.0851         119.173       -0.0149535         145.952
0.576                    -1.2421        -162.476         -50.9281         117.393         -50.9281         117.396       -0.0150844         145.879
0.577                   -1.27254        -163.133         -50.7724         115.605         -50.7725         115.609       -0.0152168         145.806
0.578                   -1.30391        -163.793         -50.6181         113.809         -50.6181         113.814       -0.0153509         145.733
0.579                   -1.33622        -164.458         -50.4651         112.003         -50.4652         112.009       -0.0154867         145.659
0.58                    -1.36954        -165.127         -50.3134         110.187         -50.3136         110.194       -0.0156243         145.585
0.581                   -1.40389        -165.799         -50.1632         108.362         -50.1634         108.369       -0.0157637         145.511
0.582                   -1.43933        -166.476         -50.0145         106.527         -50.0147         106.535       -0.0159051         145.437
0.583                   -1.47588        -167.156         -49.8671         104.682         -49.8674         104.691       -0.0160484         145.363
0.584                    -1.5136         -167.84         -49.7213         102.828         -49.7216         102.837       -0.0161938         145.289
0.585                   -1.55253        -168.527         -49.5769         100.964         -49.5773         100.973       -0.0163414         145.214
0.586                   -1.59272        -169.217          -49.434           99.09         -49.4344         99.0997       -0.0164912         145.139
0.587                   -1.63419         -169.91         -49.2927         97.2066         -49.2932         97.2167       -0.0166433         145.064
0.588                     -1.677        -170.606          -49.153         95.3137         -49.1534         95.3241       -0.0167978         144.989
0.589                   -1.72119        -171.303         -49.0148         93.4115         -49.0153         93.4222       -0.0169548         144.914
0.59                    -1.76679        -172.003         -48.8782         91.5001         -48.8787          91.511       -0.0171143         144.839
0.591                   -1.81384        -172.704         -48.7432         89.5799         -48.7437         89.5909       -0.0172765         144.763
0.592                   -1.86237        -173.407         -48.6098         87.6509         -48.6103         87.6621       -0.0174414         144.687
0.593                   -1.91241        -174.109          -48.478         85.7135         -48.4786         85.7247       -0.0176091         144.611
0.594                   -1.96398        -174.813         -48.3479         83.7679         -48.3485         83.7792       -0.0177796         144.535
0.595                   -2.01711        -175.515         -48.2194         81.8144         -48.2201         81.8257       -0.0179531         144.459
0.596                   -2.07179        -176.217         -48.0926         79.8534         -48.0933         79.8647       -0.0181296         144.382
0.597                   -2.12805        -176.918         -47.9675         77.8852         -47.9682         77.8964       -0.0183092         144.306
0.598                   -2.18587        -177.616         -47.8441         75.9101         -47.8447         75.9212        -0.018492         144.229
0.599                   -2.24524        -178.312         -47.7223         73.9286          -47.723         73.9395       -0.0186781         144.152
0.6                     -2.30615        -179.005         -47.6022         71.9409         -47.6029         71.9518       -0.0188674         144.074
0.601                   -2.36856        -179.693         -47.4838         69.9477         -47.4844         69.9583       -0.0190601         143.997
0.602                   -2.43242         179.622          -47.367         67.9492         -47.3677         67.9596       -0.0192562         143.919
0.603                   -2.49769         178.943         -47.2519         65.9459         -47.2526          65.956       -0.0194559         143.841
0.604                    -2.5643          178.27         -47.1385         63.9382         -47.1391         63.9481        -0.019659         143.763
0.605                   -2.63217         177.603         -47.0267         61.9266         -47.0273         61.9362       -0.0198658         143.685
0.606                   -2.70121         176.943         -46.9165         59.9116         -46.9172         59.9209       -0.0200762         143.607
0.607                   -2.77133          176.29          -46.808         57.8935         -46.8086         57.9025       -0.0202903         143.528
0.608                   -2.84242         175.645          -46.701         55.8729         -46.7016         55.8816       -0.0205081         143.449
0.609                   -2.91435         175.008         -46.5956         53.8501         -46.5962         53.8585       -0.0207296          143.37
0.61                    -2.98699          174.38         -46.4917         51.8258         -46.4923         51.8338        -0.020955         143.291
0.611                   -3.06022         173.759         -46.3893         49.8002         -46.3899         49.8079       -0.0211841         143.211
0.612                   -3.13389         173.148         -46.2884         47.7739          -46.289         47.7812       -0.0214172         143.132
0.613                   -3.20785         172.544          -46.189         45.7472         -46.1895         45.7542       -0.0216541         143.052
0.614                   -3.28197         171.949         -46.0909         43.7207         -46.0914         43.7273       -0.0218949         142.971
0.615                    -3.3561         171.362         -45.9942         41.6947         -45.9947         41.7009       -0.0221396         142.891
0.616                   -3.43009         170.783         -45.8989         39.6696         -45.8994         39.6754       -0.0223883          142.81
0.617                   -3.50383         170.211         -45.8048         37.6458         -45.8053         37.6512        -0.022641          142.73
0.618                   -3.57717         169.645          -45.712         35.6237         -45.7124         35.6288       -0.0228976         142.649
0.619                      -3.65         169.085         -45.6204         33.6036         -45.6208         33.6083       -0.0231582         142.567
0.62                    -3.72223          168.53         -45.5299         31.5859         -45.5303         31.5903       -0.0234229         142.486
0.621                   -3.79375         167.979         -45.4406         29.5709         -45.4409         29.5749       -0.0236916         142.404
0.622                   -3.86451         167.431         -45.3522         27.5589         -45.3526         27.5626       -0.0239644         142.322
0.623                   -3.93443         166.885         -45.2649         25.5502         -45.2652         25.5536       -0.0242412          142.24
0.624                   -4.00349          166.34         -45.1786         23.5451         -45.1789         23.5481       -0.0245222         142.157
0.625                   -4.07166         165.795         -45.0931         21.5438         -45.0934         21.5465       -0.0248072         142.074
0.626                   -4.13894         165.248         -45.0085         19.5465         -45.0087         19.5488       -0.0250964         141.991
0.627                   -4.20533         164.699         -44.9246         17.5534         -44.9249         17.5555       -0.0253898         141.908
0.628                   -4.27088         164.147         -44.8416         15.5647         -44.8418         15.5665       -0.0256874         141.825
0.629                   -4.33563         163.591         -44.7592         13.5806         -44.7594         13.5821       -0.0259892         141.741
