! TOUCHSTONE file generated by CST MICROWAVE STUDIO
! Date and time: Sat Oct 24 11:15:57 2020
! Project name: Scenario_1_Circular_Tissue_in_Line.cst
! Parameters = {L_HA=400; MT=2.54; Rad_Dielectric=30; Rad_Lower=7.3; Rad_Upper=30; a_HA=580; a_WG=246; b_HA=500; b_WG=121; c_HA=0; c_WG=187; d_feed=85; dx1=606; h_feed=15; h_lower=18; h_upper=40}
! Header version: 2018
! Port assignment regex: !\s*Touchstone port\s*([0-9]+)\s*=\s*(CST MWS port|CST DS port)\s*([0-9]+|Zmin|Zmax)\s*\(\"(.*)\"\)(\s*mode\s*([0-9]+))?.*
! Touchstone port assignment:
! Touchstone port 1 = CST MWS port 1 ("")
! Touchstone port 2 = CST MWS port 2 ("")
# GHz S DB R 50
0.5                    -0.162239        -122.459         -61.0108        -112.109         -61.0099        -112.107       -0.0076063         151.121
0.501                  -0.167611        -122.888         -60.9563        -113.809         -60.9523        -113.769      -0.00768631         151.056
0.502                  -0.173103        -123.318          -60.899        -115.521         -60.8921        -115.443       -0.0077666         150.991
0.503                  -0.178717         -123.75         -60.8389        -117.243         -60.8294        -117.127      -0.00784719         150.925
0.504                  -0.184456        -124.185          -60.776        -118.976         -60.7641        -118.822      -0.00792805          150.86
0.505                  -0.190322        -124.621         -60.7102        -120.719         -60.6962        -120.527      -0.00800919         150.794
0.506                  -0.196317         -125.06         -60.6416        -122.471         -60.6257        -122.243      -0.00809061         150.729
0.507                  -0.202445        -125.501         -60.5701        -124.232         -60.5524        -123.968       -0.0081723         150.663
0.508                  -0.208707        -125.944         -60.4957        -126.003         -60.4766        -125.703      -0.00825426         150.597
0.509                  -0.215107        -126.389         -60.4183        -127.781          -60.398        -127.447      -0.00833649         150.531
0.51                   -0.221647        -126.836         -60.3381        -129.567         -60.3167        -129.199      -0.00841899         150.466
0.511                   -0.22833        -127.285         -60.2549        -131.361         -60.2328         -130.96      -0.00850175           150.4
0.512                   -0.23516        -127.737         -60.1688        -133.162         -60.1461        -132.729      -0.00858477         150.334
0.513                  -0.242139        -128.191         -60.0799        -134.969         -60.0568        -134.505      -0.00866806         150.267
0.514                  -0.249271        -128.647          -59.988        -136.782         -59.9647        -136.288      -0.00875162         150.201
0.515                  -0.256559        -129.105         -59.8933        -138.601           -59.87        -138.079      -0.00883544         150.135
0.516                  -0.264007        -129.566         -59.7957        -140.425         -59.7725        -139.876      -0.00891953         150.069
0.517                  -0.271618         -130.03         -59.6953        -142.254         -59.6725        -141.679      -0.00900388         150.002
0.518                  -0.279396        -130.495         -59.5921        -144.088         -59.5698        -143.488      -0.00908851         149.935
0.519                  -0.287345        -130.963         -59.4862        -145.925         -59.4645        -145.302      -0.00917341         149.869
0.52                    -0.29547        -131.434         -59.3775        -147.767         -59.3566        -147.122      -0.00925859         149.802
0.521                  -0.303773        -131.907         -59.2662        -149.611         -59.2461        -148.946      -0.00934405         149.735
0.522                  -0.312261        -132.382         -59.1522        -151.459         -59.1331        -150.776      -0.00942979         149.668
0.523                  -0.320937         -132.86         -59.0357        -153.309         -59.0177        -152.609      -0.00951583         149.601
0.524                  -0.329805        -133.341         -58.9166        -155.162         -58.8998        -154.447      -0.00960216         149.534
0.525                  -0.338872        -133.824          -58.795        -157.017         -58.7795        -156.288       -0.0096888         149.467
0.526                  -0.348142         -134.31         -58.6711        -158.874         -58.6569        -158.133      -0.00977574           149.4
0.527                  -0.357621        -134.799         -58.5448        -160.733          -58.532        -159.981      -0.00986301         149.333
0.528                  -0.367313         -135.29         -58.4162        -162.593         -58.4048        -161.832       -0.0099506         149.265
0.529                  -0.377225        -135.784         -58.2853        -164.454         -58.2754        -163.687       -0.0100385         149.198
0.53                   -0.387363        -136.281         -58.1524        -166.317         -58.1439        -165.544       -0.0101268          149.13
0.531                  -0.397733        -136.781         -58.0173         -168.18         -58.0103        -167.404       -0.0102155         149.062
0.532                  -0.408341        -137.283         -57.8802        -170.045         -57.8747        -169.266       -0.0103045         148.995
0.533                  -0.419195        -137.789         -57.7411         -171.91         -57.7371         -171.13       -0.0103939         148.927
0.534                  -0.430301        -138.297         -57.6002        -173.776         -57.5977        -172.997       -0.0104836         148.859
0.535                  -0.441666        -138.808         -57.4575        -175.643         -57.4564        -174.867       -0.0105739         148.791
0.536                  -0.453299        -139.323          -57.313         -177.51         -57.3133        -176.738       -0.0106645         148.723
0.537                  -0.465206         -139.84         -57.1669        -179.378         -57.1686        -178.611       -0.0107556         148.654
0.538                  -0.477397         -140.36         -57.0193         178.754         -57.0222         179.513       -0.0108471         148.586
0.539                   -0.48988        -140.884         -56.8701         176.884         -56.8743         177.636       -0.0109391         148.517
0.54                   -0.502664         -141.41         -56.7195         175.015         -56.7249         175.756       -0.0110317         148.449
0.541                  -0.515758         -141.94         -56.5675         173.144          -56.574         173.875       -0.0111247          148.38
0.542                  -0.529172        -142.473         -56.4143         171.273         -56.4219         171.991       -0.0112183         148.311
0.543                  -0.542915        -143.009         -56.2599           169.4         -56.2684         170.105       -0.0113124         148.242
0.544                  -0.556999        -143.549         -56.1043         167.527         -56.1138         168.217       -0.0114072         148.173
0.545                  -0.571435        -144.091         -55.9478         165.653          -55.958         166.327       -0.0115025         148.104
0.546                  -0.586233        -144.637         -55.7902         163.777         -55.8012         164.434       -0.0115985         148.035
0.547                  -0.601406        -145.187         -55.6318           161.9         -55.6434         162.539       -0.0116952         147.966
0.548                  -0.616965         -145.74         -55.4726         160.021         -55.4847         160.642       -0.0117926         147.896
0.549                  -0.632924        -146.296         -55.3126         158.141         -55.3252         158.742       -0.0118907         147.826
0.55                   -0.649297        -146.855          -55.152         156.259         -55.1649         156.839       -0.0119895         147.757
0.551                  -0.666096        -147.419         -54.9907         154.375         -55.0039         154.933       -0.0120892         147.687
0.552                  -0.683336        -147.985          -54.829          152.49         -54.8424         153.025       -0.0121896         147.617
0.553                  -0.701033        -148.555         -54.6668         150.601         -54.6803         151.113       -0.0122909         147.547
0.554                  -0.719201        -149.129         -54.5043         148.711         -54.5177         149.199       -0.0123931         147.477
0.555                  -0.737857        -149.706         -54.3414         146.817         -54.3548         147.281       -0.0124963         147.406
0.556                  -0.757018        -150.287         -54.1784         144.921         -54.1916          145.36       -0.0126004         147.336
0.557                  -0.776701        -150.872         -54.0152         143.022         -54.0281         143.435       -0.0127055         147.265
0.558                  -0.796923         -151.46         -53.8519          141.12         -53.8644         141.507       -0.0128116         147.195
0.559                  -0.817704        -152.051         -53.6886         139.215         -53.7007         139.575       -0.0129189         147.124
0.56                   -0.839063        -152.647         -53.5254         137.306          -53.537         137.639       -0.0130273         147.053
0.561                  -0.861018        -153.246         -53.3623         135.394         -53.3733           135.7       -0.0131368         146.982
0.562                  -0.883592        -153.848         -53.1994         133.478         -53.2097         133.756       -0.0132476         146.911
0.563                  -0.906805        -154.454         -53.0368         131.558         -53.0463         131.809       -0.0133596          146.84
0.564                  -0.930678        -155.064         -52.8746         129.634         -52.8832         129.857        -0.013473         146.768
0.565                  -0.955234        -155.677         -52.7127         127.707         -52.7205         127.901       -0.0135877         146.696
0.566                  -0.980496        -156.293         -52.5513         125.775         -52.5582         125.941       -0.0137038         146.625
0.567                   -1.00649        -156.913         -52.3905         123.839         -52.3963         123.977       -0.0138214         146.553
0.568                   -1.03323        -157.537         -52.2302         121.898          -52.235         122.009       -0.0139405         146.481
0.569                   -1.06075        -158.164         -52.0707         119.953         -52.0743         120.036       -0.0140612         146.409
0.57                    -1.08908        -158.794         -51.9118         118.004         -51.9143         118.059       -0.0141834         146.336
0.571                   -1.11823        -159.427         -51.7538          116.05          -51.755         116.077       -0.0143074         146.264
0.572                   -1.14823        -160.063         -51.5966         114.092         -51.5966         114.092       -0.0144331         146.192
0.573                   -1.17911        -160.703         -51.4404          112.13          -51.439         112.102       -0.0145606         146.119
0.574                   -1.21089        -161.345         -51.2851         110.163         -51.2824         110.108       -0.0146899         146.046
0.575                    -1.2436         -161.99         -51.1308         108.191         -51.1268          108.11       -0.0148211         145.973
0.576                   -1.27727        -162.638         -50.9777         106.215         -50.9722         106.108       -0.0149543           145.9
0.577                   -1.31191        -163.288         -50.8257         104.235         -50.8188         104.102       -0.0150894         145.826
0.578                   -1.34756        -163.941         -50.6749          102.25         -50.6665         102.093       -0.0152267         145.753
0.579                   -1.38423        -164.595         -50.5253         100.261         -50.5155          100.08       -0.0153661         145.679
0.58                    -1.42195        -165.252         -50.3771         98.2684         -50.3657         98.0637       -0.0155076         145.606
0.581                   -1.46073         -165.91         -50.2301         96.2715         -50.2173         96.0442       -0.0156514         145.532
0.582                   -1.50061         -166.57         -50.0846         94.2708         -50.0703         94.0216       -0.0157976         145.457
0.583                   -1.54159        -167.231         -49.9405         92.2665         -49.9247         91.9963        -0.015946         145.383
0.584                   -1.58369        -167.893         -49.7979         90.2586         -49.7805         89.9684       -0.0160969         145.309
0.585                   -1.62693        -168.556         -49.6568         88.2474         -49.6379         87.9381       -0.0162503         145.234
0.586                   -1.67131        -169.218         -49.5173         86.2331         -49.4968         85.9058       -0.0164062         145.159
0.587                   -1.71684        -169.882         -49.3793         84.2159         -49.3573         83.8717       -0.0165648         145.085
0.588                   -1.76353        -170.544          -49.243          82.196         -49.2194          81.836       -0.0167259         145.009
0.589                   -1.81137        -171.206         -49.1083         80.1737         -49.0832         79.7991       -0.0168898         144.934
0.59                    -1.86036        -171.868         -48.9752         78.1491         -48.9486         77.7613       -0.0170564         144.859
0.591                   -1.91049        -172.528         -48.8439         76.1225         -48.8158         75.7228       -0.0172259         144.783
0.592                   -1.96174        -173.186         -48.7142         74.0943         -48.6846          73.684       -0.0173982         144.707
0.593                    -2.0141        -173.842         -48.5863         72.0646         -48.5552         71.6452       -0.0175734         144.631
0.594                   -2.06753        -174.496         -48.4601         70.0338         -48.4276         69.6067       -0.0177516         144.555
0.595                   -2.12202        -175.147         -48.3356         68.0021         -48.3018         67.5689       -0.0179328         144.479
0.596                   -2.17751        -175.795         -48.2129         65.9697         -48.1777          65.532       -0.0181171         144.402
0.597                   -2.23397        -176.439         -48.0919         63.9371         -48.0554         63.4965       -0.0183045         144.326
0.598                   -2.29134         -177.08         -47.9727         61.9044         -47.9349         61.4625        -0.018495         144.249
0.599                   -2.34957        -177.717         -47.8552          59.872         -47.8163         59.4304       -0.0186888         144.172
0.6                     -2.40859        -178.349         -47.7394         57.8401         -47.6994         57.4006       -0.0188858         144.095
0.601                   -2.46834        -178.977         -47.6254          55.809         -47.5843         55.3732       -0.0190861         144.017
0.602                   -2.52873          -179.6         -47.5131          53.779         -47.4711         53.3487       -0.0192897          143.94
0.603                    -2.5897         179.782         -47.4024         51.7503         -47.3596         51.3271       -0.0194966         143.862
0.604                   -2.65116         179.168         -47.2935         49.7232         -47.2499         49.3089        -0.019707         143.784
0.605                   -2.71302          178.56         -47.1862          47.698          -47.142         47.2942       -0.0199207         143.705
0.606                   -2.77518         177.956         -47.0805         45.6748         -47.0359         45.2832        -0.020138         143.627
0.607                   -2.83757         177.358         -46.9764          43.654         -46.9315         43.2761       -0.0203587         143.548
0.608                   -2.90008         176.764         -46.8739         41.6356         -46.8289          41.273       -0.0205829          143.47
0.609                   -2.96263         176.174         -46.7729           39.62          -46.728         39.2741       -0.0208107         143.391
0.61                    -3.02512         175.588         -46.6735         37.6073         -46.6288         37.2795       -0.0210421         143.311
0.611                   -3.08748         175.007         -46.5755         35.5976         -46.5312         35.2891        -0.021277         143.232
0.612                   -3.14961         174.428         -46.4789         33.5912         -46.4354         33.3029       -0.0215155         143.152
0.613                   -3.21146         173.852         -46.3837         31.5881         -46.3412         31.3211       -0.0217577         143.072
0.614                   -3.27294         173.278         -46.2899         29.5886         -46.2486         29.3435       -0.0220036         142.992
0.615                     -3.334         172.706         -46.1974         27.5926         -46.1575         27.3699       -0.0222531         142.912
0.616                   -3.39459         172.134         -46.1061         25.6003          -46.068         25.4003       -0.0225064         142.831
0.617                   -3.45467         171.562         -46.0161         23.6117           -45.98         23.4344       -0.0227633          142.75
0.618                   -3.51422          170.99         -45.9272         21.6269         -45.8934         21.4721        -0.023024         142.669
0.619                   -3.57322         170.416         -45.8394         19.6459         -45.8082         19.5131       -0.0232885         142.588
0.62                    -3.63167         169.839         -45.7527         17.6687         -45.7244         17.5571       -0.0235567         142.507
0.621                   -3.68958         169.259         -45.6671         15.6954         -45.6417         15.6039       -0.0238287         142.425
0.622                   -3.74696         168.676         -45.5824         13.7258         -45.5603         13.6532       -0.0241046         142.343
0.623                   -3.80386         168.087         -45.4986           11.76           -45.48         11.7046       -0.0243842         142.261
0.624                   -3.86032         167.492         -45.4156         9.79788         -45.4007          9.7579       -0.0246678         142.178
0.625                   -3.91641         166.891         -45.3335         7.83938         -45.3223         7.81283       -0.0249552         142.096
0.626                   -3.97218         166.282         -45.2522         5.88442         -45.2447         5.86912       -0.0252465         142.013
0.627                   -4.02772         165.666         -45.1715         3.93289         -45.1678         3.92659       -0.0255418         141.929
0.628                   -4.08313         165.041         -45.0915          1.9847         -45.0915         1.98505       -0.0258411         141.846
0.629                   -4.13849         164.406         -45.0121       0.0397158         -45.0158       0.0443861       -0.0261443         141.762
