! TOUCHSTONE file generated by CST MICROWAVE STUDIO
! Date and time: Sat Oct 24 11:10:44 2020
! Project name: Scenario_1_Circular_Tissue_in_Line.cst
! Parameters = {L_HA=400; MT=2.54; Rad_Dielectric=30; Rad_Lower=7.3; Rad_Upper=30; a_HA=580; a_WG=246; b_HA=500; b_WG=121; c_HA=0; c_WG=187; d_feed=85; dx1=207.64; h_feed=15; h_lower=18; h_upper=40}
! Header version: 2018
! Port assignment regex: !\s*Touchstone port\s*([0-9]+)\s*=\s*(CST MWS port|CST DS port)\s*([0-9]+|Zmin|Zmax)\s*\(\"(.*)\"\)(\s*mode\s*([0-9]+))?.*
! Touchstone port assignment:
! Touchstone port 1 = CST MWS port 1 ("")
! Touchstone port 2 = CST MWS port 2 ("")
# GHz S DB R 50
0.5                    -0.118226        -122.624         -56.7487         115.686         -56.7487         115.687      -0.00723152         151.146
0.501                  -0.123763        -123.079         -56.5338         114.654         -56.5338         114.655      -0.00728835          151.08
0.502                  -0.129586        -123.535         -56.3178         113.603         -56.3179         113.605      -0.00734606         151.015
0.503                  -0.135709        -123.995         -56.1008         112.534         -56.1008         112.536       -0.0074047         150.949
0.504                  -0.142148        -124.458         -55.8828         111.445         -55.8828         111.447      -0.00746431         150.884
0.505                  -0.148918        -124.923         -55.6638         110.337         -55.6639         110.339      -0.00752494         150.818
0.506                  -0.156036        -125.391          -55.444         109.208         -55.4441          109.21      -0.00758666         150.753
0.507                  -0.163517        -125.862         -55.2234         108.059         -55.2235         108.061      -0.00764951         150.687
0.508                   -0.17138        -126.335         -55.0021         106.888         -55.0021          106.89      -0.00771356         150.621
0.509                  -0.179642        -126.811         -54.7801         105.696         -54.7802         105.698      -0.00777888         150.555
0.51                   -0.188322         -127.29         -54.5576         104.481         -54.5577         104.483      -0.00784553         150.489
0.511                  -0.197437        -127.771         -54.3346         103.244         -54.3347         103.246       -0.0079136         150.423
0.512                  -0.207008        -128.255         -54.1113         101.984         -54.1114         101.986      -0.00798315         150.357
0.513                  -0.217053        -128.741         -53.8877           100.7         -53.8878         100.703      -0.00805427          150.29
0.514                   -0.22759        -129.229          -53.664         99.3926          -53.664          99.395      -0.00812704         150.224
0.515                   -0.23864         -129.72         -53.4403         98.0608         -53.4403         98.0631      -0.00820156         150.157
0.516                  -0.250222        -130.213         -53.2167         96.7043         -53.2167         96.7066      -0.00827791         150.091
0.517                  -0.262353        -130.708         -52.9933         95.3228         -52.9933         95.3251      -0.00835619         150.024
0.518                  -0.275052        -131.205         -52.7703          93.916         -52.7703         93.9182       -0.0084365         149.958
0.519                  -0.288335        -131.704         -52.5478         92.4836         -52.5478         92.4857      -0.00851893         149.891
0.52                    -0.30222        -132.205         -52.3261         91.0254          -52.326         91.0274       -0.0086036         149.824
0.521                  -0.316721        -132.707         -52.1051         89.5411         -52.1051         89.5431      -0.00869059         149.757
0.522                   -0.33185         -133.21         -51.8852         88.0308         -51.8852         88.0326         -0.00878          149.69
0.523                   -0.34762        -133.714         -51.6665         86.4942         -51.6665          86.496      -0.00887195         149.623
0.524                  -0.364038        -134.219         -51.4492         84.9314         -51.4492          84.933      -0.00896652         149.555
0.525                  -0.381112        -134.724         -51.2335         83.3424         -51.2334          83.344      -0.00906381         149.488
0.526                  -0.398844         -135.23         -51.0195         81.7274         -51.0194         81.7289       -0.0091639          149.42
0.527                  -0.417234        -135.736         -50.8075         80.0866         -50.8074          80.088      -0.00926687         149.353
0.528                  -0.436279        -136.242         -50.5976         78.4204         -50.5976         78.4216       -0.0093728         149.285
0.529                  -0.455971        -136.747         -50.3901         76.7291           -50.39         76.7301      -0.00948174         149.218
0.53                   -0.476296        -137.252         -50.1852         75.0132         -50.1851         75.0141      -0.00959376          149.15
0.531                  -0.497238        -137.755          -49.983         73.2733         -49.9829         73.2741      -0.00970888         149.082
0.532                  -0.518775        -138.257         -49.7838         71.5102         -49.7837         71.5108      -0.00982712         149.014
0.533                   -0.54088        -138.758         -49.5878         69.7246         -49.5877         69.7251       -0.0099485         148.946
0.534                  -0.563519        -139.256         -49.3951         67.9174          -49.395         67.9179        -0.010073         148.878
0.535                  -0.586655        -139.753         -49.2059         66.0898         -49.2059         66.0901       -0.0102006         148.809
0.536                  -0.610245        -140.247         -49.0205         64.2428         -49.0205          64.243       -0.0103312         148.741
0.537                   -0.63424        -140.738          -48.839         62.3776          -48.839         62.3777       -0.0104648         148.672
0.538                  -0.658588        -141.227         -48.6615         60.4956         -48.6615         60.4956       -0.0106013         148.604
0.539                   -0.68323        -141.713         -48.4882         58.5983         -48.4882         58.5982       -0.0107406         148.535
0.54                   -0.708106        -142.195         -48.3193          56.687         -48.3192         56.6868       -0.0108825         148.467
0.541                  -0.733151        -142.675         -48.1547         54.7634         -48.1547         54.7632       -0.0110268         148.398
0.542                  -0.758297        -143.151         -47.9947         52.8292         -47.9947         52.8289       -0.0111736         148.329
0.543                  -0.783475        -143.624         -47.8393          50.886         -47.8393         50.8856       -0.0113225          148.26
0.544                  -0.808617        -144.095         -47.6886         48.9356         -47.6886         48.9352       -0.0114733         148.191
0.545                  -0.833651        -144.562         -47.5425         46.9797         -47.5425         46.9793        -0.011626         148.122
0.546                  -0.858511        -145.026         -47.4011         45.0202         -47.4012         45.0198       -0.0117802         148.053
0.547                  -0.883129        -145.488         -47.2645         43.0589         -47.2646         43.0584       -0.0119357         147.983
0.548                  -0.907442        -145.948         -47.1325         41.0974         -47.1326          41.097       -0.0120924         147.914
0.549                  -0.931391        -146.405         -47.0052         39.1377         -47.0053         39.1372         -0.01225         147.844
0.55                   -0.954921        -146.861         -46.8824         37.1813         -46.8825         37.1808       -0.0124084         147.775
0.551                  -0.977985        -147.316         -46.7641           35.23         -46.7642         35.2295       -0.0125673         147.705
0.552                   -1.00054         -147.77         -46.6502         33.2853         -46.6503         33.2849       -0.0127265         147.635
0.553                   -1.02255        -148.224         -46.5405         31.3488         -46.5406         31.3484       -0.0128859         147.565
0.554                   -1.04398        -148.678         -46.4349         29.4219         -46.4351         29.4216       -0.0130453         147.495
0.555                   -1.06482        -149.132         -46.3333          27.506         -46.3335         27.5057       -0.0132046         147.425
0.556                   -1.08504        -149.588         -46.2355         25.6024         -46.2356         25.6021       -0.0133636         147.355
0.557                   -1.10465        -150.045         -46.1413          23.712         -46.1415         23.7119       -0.0135222         147.285
0.558                   -1.12364        -150.504         -46.0506         21.8362         -46.0507          21.836       -0.0136803         147.214
0.559                   -1.14202        -150.966         -45.9631         19.9756         -45.9633         19.9756       -0.0138379         147.144
0.56                     -1.1598        -151.431         -45.8787         18.1313         -45.8788         18.1313       -0.0139948         147.073
0.561                   -1.17701          -151.9         -45.7971         16.3038         -45.7973         16.3039       -0.0141512         147.002
0.562                   -1.19365        -152.372         -45.7182         14.4939         -45.7183          14.494       -0.0143068         146.932
0.563                   -1.20978         -152.85         -45.6418          12.702         -45.6419         12.7022       -0.0144617         146.861
0.564                   -1.22541        -153.331         -45.5676         10.9285         -45.5677         10.9288       -0.0146159          146.79
0.565                   -1.24058        -153.819         -45.4954         9.17373         -45.4955         9.17406       -0.0147695         146.718
0.566                   -1.25535        -154.311         -45.4251         7.43792         -45.4252         7.43831       -0.0149224         146.647
0.567                   -1.26973         -154.81         -45.3565         5.72119         -45.3566         5.72163       -0.0150747         146.575
0.568                   -1.28379        -155.315         -45.2893         4.02358         -45.2895         4.02407       -0.0152264         146.504
0.569                   -1.29757        -155.826         -45.2235         2.34506         -45.2236         2.34561       -0.0153776         146.432
0.57                    -1.31111        -156.343         -45.1588        0.685546         -45.1588        0.686135       -0.0155284          146.36
0.571                   -1.32447        -156.868          -45.095       -0.955139          -45.095        -0.95451       -0.0156787         146.288
0.572                   -1.33768          -157.4         -45.0319        -2.57721          -45.032        -2.57655       -0.0158288         146.216
0.573                    -1.3508        -157.939         -44.9695        -4.18095         -44.9696        -4.18026       -0.0159786         146.144
0.574                   -1.36388        -158.485         -44.9076        -5.76668         -44.9077        -5.76596       -0.0161283         146.071
0.575                   -1.37696        -159.039          -44.846        -7.33476         -44.8461        -7.33402       -0.0162779         145.999
0.576                   -1.39009        -159.601         -44.7846        -8.88559         -44.7847        -8.88483       -0.0164275         145.926
0.577                   -1.40331         -160.17         -44.7233        -10.4196         -44.7233        -10.4188       -0.0165772         145.853
0.578                   -1.41668        -160.747         -44.6619        -11.9373         -44.6619        -11.9365       -0.0167271          145.78
0.579                   -1.43023        -161.333         -44.6003        -13.4391         -44.6003        -13.4383       -0.0168772         145.707
0.58                      -1.444        -161.926         -44.5385        -14.9255         -44.5385        -14.9248       -0.0170277         145.633
0.581                   -1.45805        -162.527         -44.4763        -16.3972         -44.4763        -16.3964       -0.0171786          145.56
0.582                    -1.4724        -163.136         -44.4136        -17.8545         -44.4136        -17.8537         -0.01733         145.486
0.583                   -1.48711        -163.754         -44.3504        -19.2981         -44.3504        -19.2973       -0.0174821         145.412
0.584                   -1.50221        -164.379         -44.2866        -20.7285         -44.2866        -20.7277       -0.0176348         145.338
0.585                   -1.51774        -165.013          -44.222        -22.1462          -44.222        -22.1455       -0.0177882         145.264
0.586                   -1.53374        -165.655         -44.1567        -23.5519         -44.1567        -23.5512       -0.0179425          145.19
0.587                   -1.55025        -166.305         -44.0906        -24.9462         -44.0905        -24.9455       -0.0180977         145.115
0.588                    -1.5673        -166.964         -44.0236        -26.3295         -44.0235        -26.3288       -0.0182539         145.041
0.589                   -1.58493        -167.631         -43.9556        -27.7024         -43.9555        -27.7018       -0.0184112         144.966
0.59                    -1.60319        -168.307         -43.8866        -29.0656         -43.8866         -29.065       -0.0185696         144.891
0.591                    -1.6221         -168.99         -43.8166        -30.4195         -43.8166         -30.419       -0.0187292         144.816
0.592                    -1.6417        -169.683         -43.7456        -31.7648         -43.7455        -31.7643         -0.01889          144.74
0.593                   -1.66203        -170.383         -43.6734         -33.102         -43.6733        -33.1015       -0.0190522         144.665
0.594                   -1.68313        -171.093         -43.6001        -34.4316            -43.6        -34.4312       -0.0192159         144.589
0.595                   -1.70503        -171.811         -43.5257        -35.7542         -43.5256        -35.7538        -0.019381         144.513
0.596                   -1.72777        -172.537         -43.4501        -37.0704           -43.45          -37.07       -0.0195476         144.437
0.597                    -1.7514        -173.272         -43.3732        -38.3805         -43.3732        -38.3802       -0.0197158         144.361
0.598                   -1.77595        -174.016         -43.2952        -39.6853         -43.2951         -39.685       -0.0198858         144.284
0.599                   -1.80145        -174.768          -43.216        -40.9851         -43.2159        -40.9849       -0.0200574         144.208
0.6                     -1.82796        -175.529         -43.1355        -42.2806         -43.1354        -42.2803       -0.0202309         144.131
0.601                   -1.85551        -176.299         -43.0538        -43.5721         -43.0537        -43.5719       -0.0204062         144.054
0.602                   -1.88414        -177.077         -42.9708        -44.8602         -42.9707          -44.86       -0.0205835         143.977
0.603                   -1.91391        -177.865         -42.8866        -46.1454         -42.8865        -46.1453       -0.0207627         143.899
0.604                   -1.94484        -178.661         -42.8011        -47.4281          -42.801         -47.428       -0.0209441         143.822
0.605                     -1.977        -179.466         -42.7144        -48.7089         -42.7144        -48.7088       -0.0211275         143.744
0.606                   -2.01043          179.72         -42.6265        -49.9881         -42.6264         -49.988       -0.0213131         143.666
0.607                   -2.04518         178.897         -42.5374        -51.2662         -42.5373        -51.2662        -0.021501         143.587
0.608                   -2.08129         178.065          -42.447        -52.5437          -42.447        -52.5437       -0.0216912         143.509
0.609                   -2.11883         177.224         -42.3555         -53.821         -42.3554         -53.821       -0.0218838          143.43
0.61                    -2.15785         176.374         -42.2627        -55.0985         -42.2627        -55.0985       -0.0220789         143.351
0.611                   -2.19841         175.514         -42.1688        -56.3766         -42.1688        -56.3767       -0.0222765         143.272
0.612                   -2.24055         174.646         -42.0738        -57.6558         -42.0737        -57.6559       -0.0224767         143.193
0.613                   -2.28436         173.769         -41.9776        -58.9365         -41.9776        -58.9366       -0.0226795         143.113
0.614                   -2.32989         172.882         -41.8804        -60.2189         -41.8803         -60.219       -0.0228851         143.033
0.615                    -2.3772         171.987          -41.782        -61.5036          -41.782        -61.5037       -0.0230935         142.953
0.616                   -2.42636         171.082         -41.6826        -62.7909         -41.6826         -62.791       -0.0233048         142.873
0.617                   -2.47746         170.168         -41.5822        -64.0811         -41.5822        -64.0812       -0.0235191         142.792
0.618                   -2.53055         169.245         -41.4808        -65.3746         -41.4808        -65.3748       -0.0237364         142.712
0.619                   -2.58572         168.313         -41.3785        -66.6718         -41.3785        -66.6719       -0.0239569         142.631
0.62                    -2.64305         167.372         -41.2753         -67.973         -41.2752        -67.9731       -0.0241805         142.549
0.621                   -2.70262         166.422         -41.1711        -69.2784         -41.1711        -69.2786       -0.0244075         142.468
0.622                   -2.76451         165.463         -41.0662        -70.5885         -41.0661        -70.5886       -0.0246379         142.386
0.623                   -2.82882         164.496         -40.9604        -71.9035         -40.9604        -71.9036       -0.0248718         142.304
0.624                   -2.89564          163.52         -40.8539        -73.2237         -40.8539        -73.2239       -0.0251092         142.222
0.625                   -2.96507         162.535         -40.7466        -74.5494         -40.7466        -74.5495       -0.0253503         142.139
0.626                   -3.03719         161.542         -40.6387        -75.8809         -40.6387         -75.881       -0.0255953         142.057
0.627                   -3.11213         160.541         -40.5302        -77.2183         -40.5302        -77.2184       -0.0258441         141.974
0.628                   -3.18998         159.532         -40.4211         -78.562         -40.4211        -78.5621       -0.0260969          141.89
0.629                   -3.27085         158.515         -40.3115        -79.9122         -40.3115        -79.9122       -0.0263538         141.807
