! TOUCHSTONE file generated by CST MICROWAVE STUDIO
! Date and time: Sat Oct 24 11:16:23 2020
! Project name: Scenario_1_Circular_Tissue_in_Line.cst
! Parameters = {L_HA=400; MT=2.54; Rad_Dielectric=30; Rad_Lower=7.3; Rad_Upper=30; a_HA=580; a_WG=246; b_HA=500; b_WG=121; c_HA=0; c_WG=187; d_feed=85; dx1=675.28; h_feed=15; h_lower=18; h_upper=40}
! Header version: 2018
! Port assignment regex: !\s*Touchstone port\s*([0-9]+)\s*=\s*(CST MWS port|CST DS port)\s*([0-9]+|Zmin|Zmax)\s*\(\"(.*)\"\)(\s*mode\s*([0-9]+))?.*
! Touchstone port assignment:
! Touchstone port 1 = CST MWS port 1 ("")
! Touchstone port 2 = CST MWS port 2 ("")
# GHz S DB R 50
0.5                    -0.160618        -122.292         -61.7044        -155.915         -61.7049        -155.914      -0.00772954         151.104
0.501                  -0.165241        -122.721         -61.5862        -157.723         -61.5835        -157.727      -0.00779462         151.039
0.502                   -0.16996        -123.152         -61.4667        -159.532         -61.4612         -159.54      -0.00786002         150.973
0.503                  -0.174778        -123.586          -61.346        -161.341         -61.3379        -161.353      -0.00792575         150.908
0.504                    -0.1797        -124.022         -61.2241         -163.15         -61.2138        -163.166      -0.00799182         150.842
0.505                  -0.184732        -124.461          -61.101        -164.959         -61.0889        -164.979      -0.00805822         150.777
0.506                  -0.189879        -124.902         -60.9767        -166.768         -60.9631        -166.792      -0.00812497         150.711
0.507                  -0.195146        -125.346         -60.8514        -168.577         -60.8364        -168.605      -0.00819208         150.646
0.508                  -0.200539        -125.793         -60.7251        -170.386          -60.709        -170.417      -0.00825953          150.58
0.509                  -0.206065        -126.242         -60.5976        -172.194         -60.5808        -172.228      -0.00832736         150.514
0.51                   -0.211729        -126.694         -60.4692        -174.002         -60.4519         -174.04      -0.00839555         150.448
0.511                  -0.217538        -127.149         -60.3399         -175.81         -60.3222         -175.85      -0.00846412         150.382
0.512                  -0.223499        -127.606         -60.2096        -177.618         -60.1918         -177.66      -0.00853308         150.316
0.513                   -0.22962        -128.067         -60.0783        -179.426         -60.0606        -179.469      -0.00860244          150.25
0.514                  -0.235908         -128.53         -59.9462         178.767         -59.9288         178.722       -0.0086722         150.183
0.515                  -0.242371        -128.996         -59.8132          176.96         -59.7962         176.914      -0.00874237         150.117
0.516                  -0.249017        -129.465         -59.6794         175.154         -59.6629         175.107      -0.00881297         150.051
0.517                  -0.255856        -129.937         -59.5447         173.347          -59.529           173.3        -0.008884         149.984
0.518                  -0.262896        -130.412         -59.4093         171.541         -59.3943         171.494      -0.00895548         149.918
0.519                  -0.270146         -130.89          -59.273         169.734         -59.2589         169.688      -0.00902743         149.851
0.52                   -0.277618        -131.372          -59.136         167.928         -59.1229         167.883      -0.00909984         149.784
0.521                  -0.285321        -131.856         -58.9982         166.121         -58.9861         166.078      -0.00917274         149.717
0.522                  -0.293266        -132.343         -58.8596         164.314         -58.8487         164.273      -0.00924615          149.65
0.523                  -0.301464        -132.834         -58.7203         162.507         -58.7105         162.468      -0.00932008         149.583
0.524                  -0.309928        -133.328         -58.5803         160.699         -58.5717         160.664      -0.00939454         149.516
0.525                  -0.318669        -133.825         -58.4395         158.891         -58.4321         158.859      -0.00946956         149.449
0.526                    -0.3277        -134.325          -58.298         157.082         -58.2918         157.053      -0.00954515         149.382
0.527                  -0.337035        -134.829         -58.1558         155.271         -58.1507         155.247      -0.00962133         149.314
0.528                  -0.346687        -135.336         -58.0129          153.46          -58.009         153.441      -0.00969814         149.247
0.529                  -0.356671        -135.846         -57.8692         151.647         -57.8664         151.633      -0.00977558         149.179
0.53                   -0.367001         -136.36         -57.7249         149.833         -57.7232         149.823      -0.00985368         149.111
0.531                  -0.377693        -136.877         -57.5799         148.017         -57.5792         148.013      -0.00993248         149.044
0.532                  -0.388762        -137.397         -57.4341         146.199         -57.4344           146.2        -0.010012         148.976
0.533                  -0.400225        -137.921         -57.2877         144.378         -57.2888         144.385       -0.0100922         148.908
0.534                  -0.412099        -138.448         -57.1406         142.555         -57.1425         142.567       -0.0101733          148.84
0.535                  -0.424401        -138.978         -56.9927         140.728         -56.9955         140.747       -0.0102551         148.772
0.536                  -0.437149        -139.512         -56.8442         138.899         -56.8476         138.923       -0.0103378         148.703
0.537                  -0.450362        -140.049         -56.6951         137.066          -56.699         137.095       -0.0104214         148.635
0.538                  -0.464057        -140.589         -56.5452         135.229         -56.5497         135.264       -0.0105058         148.566
0.539                  -0.478254        -141.133         -56.3947         133.387         -56.3995         133.428       -0.0105913         148.498
0.54                   -0.492972        -141.679         -56.2436         131.541         -56.2487         131.587       -0.0106777         148.429
0.541                  -0.508231        -142.229         -56.0918         129.689         -56.0971          129.74       -0.0107651          148.36
0.542                   -0.52405        -142.783         -55.9394         127.832         -55.9449         127.888       -0.0108536         148.291
0.543                  -0.540449        -143.339         -55.7863         125.969         -55.7919         126.029       -0.0109433         148.222
0.544                  -0.557449        -143.898         -55.6328           124.1         -55.6383         124.163       -0.0110341         148.153
0.545                  -0.575068         -144.46         -55.4786         122.224         -55.4841          122.29       -0.0111262         148.084
0.546                  -0.593326        -145.025          -55.324          120.34         -55.3293          120.41       -0.0112195         148.014
0.547                  -0.612244        -145.593         -55.1688         118.449         -55.1739         118.521       -0.0113141         147.945
0.548                  -0.631838        -146.163         -55.0133         116.549          -55.018         116.623       -0.0114101         147.875
0.549                  -0.652128        -146.736         -54.8573         114.641         -54.8617         114.716       -0.0115076         147.806
0.55                   -0.673131        -147.311         -54.7009         112.724          -54.705         112.799       -0.0116065         147.736
0.551                  -0.694862        -147.888         -54.5443         110.797          -54.548         110.873        -0.011707         147.666
0.552                  -0.717338        -148.467         -54.3874         108.859         -54.3907         108.935       -0.0118091         147.596
0.553                  -0.740571        -149.048         -54.2303         106.912         -54.2332         106.987       -0.0119128         147.526
0.554                  -0.764573        -149.631         -54.0732         104.953         -54.0756         105.026       -0.0120183         147.455
0.555                  -0.789355        -150.215          -53.916         102.983         -53.9179         103.055       -0.0121256         147.385
0.556                  -0.814925        -150.801         -53.7589         101.002         -53.7604          101.07       -0.0122347         147.314
0.557                  -0.841288        -151.387         -53.6019         99.0081          -53.603         99.0738       -0.0123458         147.244
0.558                  -0.868447        -151.975         -53.4452          97.002         -53.4459         97.0643       -0.0124588         147.173
0.559                  -0.896403        -152.563         -53.2887         94.9834         -53.2891         95.0417       -0.0125738         147.102
0.56                   -0.925151        -153.151         -53.1328         92.9518         -53.1328         93.0059       -0.0126909         147.031
0.561                  -0.954686        -153.739         -52.9774         90.9071         -52.9771         90.9567       -0.0128102         146.959
0.562                  -0.984997        -154.327         -52.8226         88.8492         -52.8222         88.8939       -0.0129316         146.888
0.563                   -1.01607        -154.915         -52.6687          86.778          -52.668         86.8177       -0.0130553         146.817
0.564                   -1.04789        -155.502         -52.5156         84.6934         -52.5149         84.7279       -0.0131814         146.745
0.565                   -1.08043        -156.089         -52.3636         82.5954         -52.3628         82.6247       -0.0133097         146.673
0.566                   -1.11367        -156.674         -52.2127         80.4842         -52.2119         80.5082       -0.0134405         146.602
0.567                   -1.14757        -157.258         -52.0631         78.3599         -52.0624         78.3786       -0.0135737          146.53
0.568                   -1.18211         -157.84          -51.915         76.2228         -51.9144         76.2362       -0.0137094         146.457
0.569                   -1.21724         -158.42         -51.7683         74.0731         -51.7679         74.0814       -0.0138475         146.385
0.57                    -1.25292        -158.999         -51.6233         71.9111         -51.6231         71.9147       -0.0139883         146.313
0.571                   -1.28911        -159.576         -51.4801         69.7375         -51.4802         69.7364       -0.0141315          146.24
0.572                   -1.32575         -160.15         -51.3388         67.5526         -51.3392         67.5471       -0.0142774         146.168
0.573                   -1.36279        -160.722         -51.1995          65.357         -51.2003         65.3476       -0.0144258         146.095
0.574                   -1.40018        -161.292         -51.0623         63.1515         -51.0635         63.1384       -0.0145769         146.022
0.575                   -1.43787         -161.86         -50.9274         60.9366          -50.929         60.9203       -0.0147306         145.949
0.576                   -1.47578        -162.425         -50.7947         58.7133         -50.7968         58.6941       -0.0148869         145.875
0.577                   -1.51387        -162.988         -50.6644         56.4823         -50.6669         56.4607       -0.0150458         145.802
0.578                   -1.55207         -163.55         -50.5366         54.2445         -50.5396         54.2209       -0.0152073         145.729
0.579                   -1.59033        -164.109         -50.4112         52.0008         -50.4147         51.9757       -0.0153714         145.655
0.58                    -1.62858        -164.666         -50.2885         49.7523         -50.2924          49.726       -0.0155381         145.581
0.581                   -1.66678        -165.223         -50.1683         47.4998         -50.1727         47.4728       -0.0157073         145.507
0.582                   -1.70487        -165.778         -50.0508         45.2444         -50.0556         45.2171       -0.0158791         145.433
0.583                    -1.7428        -166.332         -49.9359         42.9871         -49.9411         42.9599       -0.0160534         145.359
0.584                   -1.78054        -166.886         -49.8236          40.729         -49.8291         40.7021       -0.0162301         145.284
0.585                   -1.81803        -167.439         -49.7139          38.471         -49.7198         38.4448       -0.0164093          145.21
0.586                   -1.85525        -167.993         -49.6068         36.2141          -49.613          36.189       -0.0165909         145.135
0.587                   -1.89217        -168.548         -49.5023         33.9593         -49.5087         33.9355        -0.016775          145.06
0.588                   -1.92877        -169.105         -49.4002         31.7077         -49.4069         31.6853       -0.0169613         144.985
0.589                   -1.96503        -169.663         -49.3006           29.46         -49.3074         29.4392         -0.01715          144.91
0.59                    -2.00096        -170.224         -49.2034         27.2171         -49.2103         27.1981       -0.0173409         144.834
0.591                   -2.03655        -170.787         -49.1084         24.9799         -49.1154         24.9628       -0.0175342         144.759
0.592                    -2.0718        -171.354         -49.0156         22.7491         -49.0226          22.734       -0.0177296         144.683
0.593                   -2.10675        -171.925         -48.9249         20.5255         -48.9319         20.5123       -0.0179272         144.607
0.594                   -2.14139        -172.501         -48.8362         18.3096         -48.8431         18.2985        -0.018127         144.531
0.595                   -2.17578        -173.082         -48.7494         16.1021         -48.7562         16.0929        -0.018329         144.455
0.596                   -2.20993        -173.668         -48.6643         13.9035          -48.671         13.8961        -0.018533         144.379
0.597                    -2.2439         -174.26         -48.5809         11.7142         -48.5874         11.7086       -0.0187392         144.302
0.598                   -2.27773        -174.859          -48.499         9.53453         -48.5053         9.53066       -0.0189474         144.225
0.599                   -2.31148        -175.464         -48.4185          7.3649         -48.4245          7.3626       -0.0191578         144.148
0.6                      -2.3452        -176.077         -48.3393         5.20551         -48.3451         5.20466       -0.0193702         144.071
0.601                   -2.37896        -176.698         -48.2612         3.05654         -48.2667         3.05701       -0.0195846         143.994
0.602                   -2.41282        -177.327         -48.1842        0.918133         -48.1894        0.919757       -0.0198012         143.916
0.603                   -2.44685        -177.964         -48.1081        -1.20967          -48.113        -1.20703       -0.0200198         143.839
0.604                   -2.48114         -178.61         -48.0329        -3.32685         -48.0375        -3.32335       -0.0202406         143.761
0.605                   -2.51575        -179.266         -47.9583        -5.43347         -47.9626        -5.42926       -0.0204634         143.683
0.606                   -2.55077         -179.93         -47.8842        -7.52961         -47.8882        -7.52483       -0.0206883         143.604
0.607                   -2.58628         179.396         -47.8107        -9.61542         -47.8144        -9.61022       -0.0209154         143.526
0.608                   -2.62236         178.713         -47.7376        -11.6911         -47.7409        -11.6856       -0.0211447         143.447
0.609                    -2.6591         178.019         -47.6647        -13.7568         -47.6678        -13.7512       -0.0213762         143.368
0.61                    -2.69658         177.316          -47.592        -15.8129         -47.5948        -15.8072         -0.02161         143.289
0.611                   -2.73489         176.603         -47.5195        -17.8596          -47.522        -17.8539        -0.021846          143.21
0.612                   -2.77412         175.879          -47.447        -19.8972         -47.4492        -19.8917       -0.0220844          143.13
0.613                   -2.81437         175.145         -47.3744        -21.9261         -47.3764        -21.9209       -0.0223251         143.051
0.614                   -2.85571         174.402         -47.3017        -23.9467         -47.3035        -23.9417       -0.0225683         142.971
0.615                   -2.89824         173.648         -47.2289        -25.9592         -47.2304        -25.9547        -0.022814          142.89
0.616                   -2.94205         172.884         -47.1559        -27.9642         -47.1572          -27.96       -0.0230622          142.81
0.617                   -2.98724          172.11         -47.0825         -29.962         -47.0837        -29.9583       -0.0233131         142.729
0.618                   -3.03389         171.326         -47.0089         -31.953         -47.0098        -31.9497       -0.0235667         142.649
0.619                   -3.08209         170.532         -46.9349        -33.9376         -46.9357        -33.9349        -0.023823         142.567
0.62                    -3.13195         169.728         -46.8605        -35.9163         -46.8611         -35.914       -0.0240822         142.486
0.621                   -3.18354         168.915         -46.7857        -37.8894         -46.7862        -37.8877       -0.0243443         142.404
0.622                   -3.23698         168.092         -46.7104        -39.8574         -46.7108        -39.8562       -0.0246093         142.323
0.623                   -3.29234         167.261         -46.6347        -41.8208          -46.635        -41.8201       -0.0248775          142.24
0.624                   -3.34972          166.42         -46.5585        -43.7798         -46.5588        -43.7796       -0.0251488         142.158
0.625                   -3.40922         165.571         -46.4819         -45.735          -46.482        -45.7352       -0.0254234         142.075
0.626                   -3.47093         164.713         -46.4047        -47.6867         -46.4048        -47.6873       -0.0257014         141.992
0.627                   -3.53494         163.847         -46.3271        -49.6352         -46.3271        -49.6363       -0.0259828         141.909
0.628                   -3.60136         162.974          -46.249        -51.5811          -46.249        -51.5825       -0.0262678         141.826
0.629                   -3.67027         162.093         -46.1704        -53.5245         -46.1703        -53.5263       -0.0265564         141.742
