! TOUCHSTONE file generated by CST MICROWAVE STUDIO
! Date and time: Sat Oct 24 11:16:29 2020
! Project name: Scenario_1_Circular_Tissue_in_Line.cst
! Parameters = {L_HA=400; MT=2.54; Rad_Dielectric=30; Rad_Lower=7.3; Rad_Upper=30; a_HA=580; a_WG=246; b_HA=500; b_WG=121; c_HA=0; c_WG=187; d_feed=85; dx1=692.6; h_feed=15; h_lower=18; h_upper=40}
! Header version: 2018
! Port assignment regex: !\s*Touchstone port\s*([0-9]+)\s*=\s*(CST MWS port|CST DS port)\s*([0-9]+|Zmin|Zmax)\s*\(\"(.*)\"\)(\s*mode\s*([0-9]+))?.*
! Touchstone port assignment:
! Touchstone port 1 = CST MWS port 1 ("")
! Touchstone port 2 = CST MWS port 2 ("")
# GHz S DB R 50
0.5                    -0.155486        -122.238         -61.9496        -166.107         -61.9503        -166.103       -0.0077118         151.113
0.501                  -0.160201        -122.728         -61.8219        -167.474         -61.8195        -167.482      -0.00779937         151.048
0.502                  -0.165263        -123.219         -61.6929        -168.856         -61.6874        -168.875      -0.00788735         150.983
0.503                  -0.170672        -123.712         -61.5625        -170.253         -61.5541        -170.283      -0.00797573         150.917
0.504                  -0.176428        -124.205         -61.4307        -171.665         -61.4196        -171.706      -0.00806449         150.852
0.505                  -0.182532          -124.7         -61.2976        -173.092         -61.2838        -173.143       -0.0081536         150.786
0.506                  -0.188984        -125.196         -61.1632        -174.534         -61.1467        -174.595      -0.00824302          150.72
0.507                  -0.195784        -125.692         -61.0274        -175.991         -61.0085        -176.062      -0.00833274         150.655
0.508                  -0.202933         -126.19         -60.8903        -177.465         -60.8689        -177.545      -0.00842272         150.589
0.509                  -0.210429        -126.688         -60.7518        -178.954         -60.7282        -179.043      -0.00851291         150.523
0.51                   -0.218274        -127.188          -60.612         179.541         -60.5862         179.443      -0.00860329         150.457
0.511                  -0.226467        -127.688         -60.4709          178.02          -60.443         177.914       -0.0086938         150.391
0.512                  -0.235008         -128.19         -60.3285         176.483         -60.2986         176.369      -0.00878441         150.325
0.513                  -0.243896        -128.692         -60.1848         174.929          -60.153         174.807      -0.00887507         150.259
0.514                  -0.253131        -129.195         -60.0398         173.358         -60.0063          173.23      -0.00896572         150.193
0.515                  -0.262713        -129.699         -59.8936         171.771         -59.8584         171.636       -0.0090563         150.126
0.516                  -0.272642        -130.204         -59.7461         170.168         -59.7095         170.026      -0.00914675          150.06
0.517                  -0.282916         -130.71         -59.5974         168.547         -59.5594         168.399      -0.00923701         149.993
0.518                  -0.293535        -131.216         -59.4475         166.909         -59.4082         166.755      -0.00932701         149.927
0.519                  -0.304498        -131.724         -59.2965         165.254          -59.256         165.094      -0.00941666          149.86
0.52                   -0.315805        -132.232         -59.1444         163.581         -59.1028         163.417      -0.00950589         149.794
0.521                  -0.327454        -132.741         -58.9911         161.891         -58.9486         161.722       -0.0095946         149.727
0.522                  -0.339445        -133.251         -58.8368         160.184         -58.7935          160.01      -0.00968271          149.66
0.523                  -0.351777        -133.762         -58.6815         158.458         -58.6375          158.28      -0.00977011         149.593
0.524                  -0.364448        -134.274         -58.5252         156.715         -58.4806         156.533      -0.00985671         149.526
0.525                  -0.377458        -134.786          -58.368         154.954          -58.323         154.768      -0.00994239         149.459
0.526                  -0.390806        -135.299         -58.2099         153.174         -58.1645         152.986        -0.010027         149.392
0.527                  -0.404489        -135.813          -58.051         151.377         -58.0054         151.185       -0.0101106         149.325
0.528                  -0.418508        -136.328         -57.8914         149.561         -57.8456         149.367       -0.0101928         149.257
0.529                   -0.43286        -136.843          -57.731         147.728         -57.6852         147.531       -0.0102737          149.19
0.53                   -0.447544         -137.36           -57.57         145.875         -57.5243         145.677       -0.0103532         149.122
0.531                  -0.462559        -137.877         -57.4084         144.005         -57.3629         143.805        -0.010431         149.055
0.532                  -0.477903        -138.395         -57.2463         142.116         -57.2012         141.915       -0.0105072         148.987
0.533                  -0.493574        -138.913         -57.0838         140.209         -57.0391         140.007       -0.0105816         148.919
0.534                  -0.509572        -139.433         -56.9209         138.283         -56.8767         138.081       -0.0106542         148.851
0.535                  -0.525894        -139.953         -56.7578         136.339         -56.7142         136.137        -0.010725         148.783
0.536                  -0.542539        -140.474         -56.5944         134.377         -56.5515         134.175       -0.0107938         148.715
0.537                  -0.559504        -140.995          -56.431         132.396         -56.3889         132.195       -0.0108609         148.647
0.538                  -0.576789        -141.518         -56.2675         130.398         -56.2263         130.198       -0.0109262         148.579
0.539                  -0.594391        -142.041         -56.1041         128.381         -56.0638         128.183       -0.0109899          148.51
0.54                   -0.612309        -142.565         -55.9408         126.347         -55.9016          126.15       -0.0110521         148.442
0.541                  -0.630541         -143.09         -55.7779         124.295         -55.7397         124.101        -0.011113         148.373
0.542                  -0.649085        -143.615         -55.6152         122.225         -55.5783         122.034        -0.011173         148.304
0.543                  -0.667938        -144.142          -55.453         120.139         -55.4174          119.95       -0.0112325         148.235
0.544                    -0.6871        -144.669         -55.2914         118.036          -55.257          117.85       -0.0112918         148.166
0.545                  -0.706567        -145.197         -55.1304         115.916         -55.0974         115.734       -0.0113513         148.097
0.546                  -0.726339        -145.726         -54.9702          113.78         -54.9386         113.602       -0.0114118         148.027
0.547                  -0.746413        -146.256         -54.8109         111.628         -54.7807         111.455       -0.0114736         147.958
0.548                  -0.766787        -146.787         -54.6525          109.46         -54.6238         109.293       -0.0115374         147.888
0.549                   -0.78746        -147.318         -54.4951         107.278         -54.4679         107.115       -0.0116037         147.818
0.55                   -0.808429        -147.851         -54.3389         105.081         -54.3133         104.924       -0.0116732         147.749
0.551                  -0.829692        -148.384          -54.184          102.87         -54.1599          102.72       -0.0117464         147.678
0.552                  -0.851248        -148.918         -54.0304         100.646         -54.0078         100.502       -0.0118238         147.608
0.553                  -0.873094        -149.454         -53.8783         98.4096         -53.8572         98.2718       -0.0119057         147.538
0.554                  -0.895229         -149.99         -53.7277         96.1607         -53.7082         96.0298       -0.0119927         147.467
0.555                  -0.917651        -150.527         -53.5787         93.9003         -53.5607         93.7766       -0.0120848         147.397
0.556                  -0.940358        -151.066         -53.4314         91.6291         -53.4149          91.513       -0.0121824         147.326
0.557                  -0.963348        -151.605         -53.2859          89.348         -53.2709         89.2395       -0.0122855         147.255
0.558                   -0.98662        -152.146         -53.1422         87.0576         -53.1287          86.957       -0.0123941         147.184
0.559                   -1.01017        -152.687         -53.0004         84.7586         -52.9883         84.6662       -0.0125082         147.113
0.56                      -1.034         -153.23         -52.8606          82.452         -52.8499         82.3679       -0.0126276         147.042
0.561                   -1.05811        -153.774         -52.7228         80.1386         -52.7134         80.0628       -0.0127521         146.971
0.562                   -1.08249        -154.319         -52.5871         77.8191          -52.579         77.7518       -0.0128815         146.899
0.563                   -1.10714        -154.866         -52.4535         75.4944         -52.4466         75.4357       -0.0130155         146.828
0.564                   -1.13207        -155.414          -52.322         73.1655         -52.3163         73.1152       -0.0131538         146.756
0.565                   -1.15727        -155.963         -52.1926          70.833          -52.188         70.7913       -0.0132962         146.684
0.566                   -1.18274        -156.514         -52.0655          68.498         -52.0619         68.4647       -0.0134422         146.612
0.567                   -1.20848        -157.066         -51.9405         66.1611         -51.9379         66.1363       -0.0135916          146.54
0.568                   -1.23449         -157.62         -51.8177         63.8234          -51.816         63.8069       -0.0137442         146.468
0.569                   -1.26076        -158.175         -51.6971         61.4856         -51.6963         61.4772       -0.0138997         146.396
0.57                     -1.2873        -158.732         -51.5786         59.1485         -51.5786         59.1481       -0.0140577         146.323
0.571                   -1.31411         -159.29         -51.4623         56.8129          -51.463         56.8203       -0.0142182         146.251
0.572                   -1.34119         -159.85         -51.3481         54.4797         -51.3494         54.4945       -0.0143808         146.178
0.573                   -1.36853        -160.413          -51.236         52.1494         -51.2379         52.1714       -0.0145454         146.106
0.574                   -1.39614        -160.976         -51.1259         49.8229         -51.1283         49.8519       -0.0147119         146.033
0.575                   -1.42402        -161.542         -51.0178         47.5009         -51.0206         47.5364       -0.0148801          145.96
0.576                   -1.45216         -162.11         -50.9117         45.1839         -50.9148         45.2256       -0.0150498         145.886
0.577                   -1.48058         -162.68         -50.8074         42.8726         -50.8109         42.9202       -0.0152211         145.813
0.578                   -1.50926        -163.252          -50.705         40.5675         -50.7087         40.6206       -0.0153938          145.74
0.579                   -1.53822        -163.826         -50.6043         38.2692         -50.6082         38.3273       -0.0155678         145.666
0.58                    -1.56745        -164.403         -50.5053         35.9782         -50.5093         36.0409       -0.0157431         145.592
0.581                   -1.59696        -164.982         -50.4079         33.6949         -50.4121         33.7618       -0.0159197         145.519
0.582                   -1.62675        -165.563         -50.3121         31.4196         -50.3163         31.4903       -0.0160975         145.445
0.583                   -1.65682        -166.147         -50.2177         29.1528         -50.2219         29.2269       -0.0162765          145.37
0.584                   -1.68718        -166.734         -50.1247         26.8948         -50.1289         26.9717       -0.0164568         145.296
0.585                   -1.71783        -167.324         -50.0331         24.6458         -50.0372         24.7251       -0.0166382         145.222
0.586                   -1.74877        -167.916         -49.9426         22.4061         -49.9466         22.4874       -0.0168209         145.147
0.587                   -1.78001        -168.511         -49.8534         20.1758         -49.8572         20.2586       -0.0170049         145.072
0.588                   -1.81156         -169.11         -49.7652         17.9551         -49.7689          18.039       -0.0171901         144.997
0.589                   -1.84342        -169.712          -49.678         15.7441         -49.6815         15.8286       -0.0173766         144.922
0.59                    -1.87561        -170.317         -49.5917         13.5429          -49.595         13.6276       -0.0175644         144.847
0.591                   -1.90812        -170.925         -49.5062         11.3515         -49.5093          11.436       -0.0177535         144.772
0.592                   -1.94096        -171.537         -49.4215         9.16988         -49.4245         9.25386       -0.0179441         144.696
0.593                   -1.97415        -172.153         -49.3376         6.99803         -49.3403         7.08105       -0.0181361          144.62
0.594                    -2.0077        -172.773         -49.2542         4.83589         -49.2567         4.91759       -0.0183296         144.544
0.595                   -2.04162        -173.396         -49.1714         2.68336         -49.1737          2.7634       -0.0185246         144.468
0.596                   -2.07591        -174.024         -49.0891        0.540332         -49.0911        0.618377       -0.0187212         144.392
0.597                    -2.1106        -174.656         -49.0073        -1.59334          -49.009         -1.5176       -0.0189194         144.315
0.598                    -2.1457        -175.293         -48.9258        -3.71783         -48.9273        -3.64468       -0.0191193         144.239
0.599                   -2.18123        -175.934         -48.8446        -5.83331         -48.8459        -5.76302       -0.0193209         144.162
0.6                      -2.2172         -176.58         -48.7636        -7.93999         -48.7648        -7.87282       -0.0195242         144.085
0.601                   -2.25363        -177.231         -48.6829        -10.0381         -48.6839        -9.97427       -0.0197295         144.008
0.602                   -2.29055        -177.887         -48.6024        -12.1279         -48.6031        -12.0676       -0.0199366          143.93
0.603                   -2.32797        -178.549         -48.5219        -14.2096         -48.5225         -14.153       -0.0201457         143.853
0.604                   -2.36593        -179.216         -48.4416        -16.2834          -48.442        -16.2307       -0.0203568         143.775
0.605                   -2.40444        -179.888         -48.3612        -18.3497         -48.3615        -18.3011       -0.0205699         143.697
0.606                   -2.44353         179.433         -48.2809        -20.4088         -48.2811        -20.3643       -0.0207852         143.619
0.607                   -2.48325         178.749         -48.2005        -22.4608         -48.2006        -22.4206       -0.0210027          143.54
0.608                   -2.52362         178.058         -48.1201        -24.5062         -48.1201        -24.4703       -0.0212225         143.462
0.609                   -2.56467          177.36         -48.0396        -26.5452         -48.0395        -26.5137       -0.0214446         143.383
0.61                    -2.60645         176.656          -47.959        -28.5781         -47.9589         -28.551       -0.0216692         143.304
0.611                     -2.649         175.946         -47.8782        -30.6052         -47.8781        -30.5825       -0.0218961         143.224
0.612                   -2.69236         175.228         -47.7973        -32.6268         -47.7972        -32.6086       -0.0221257         143.145
0.613                   -2.73658         174.502         -47.7163        -34.6432         -47.7162        -34.6295       -0.0223578         143.065
0.614                   -2.78172          173.77         -47.6351        -36.6548          -47.635        -36.6454       -0.0225926         142.985
0.615                   -2.82782         173.029         -47.5537        -38.6618         -47.5536        -38.6567       -0.0228302         142.905
0.616                   -2.87496         172.281         -47.4721        -40.6645         -47.4721        -40.6637       -0.0230706         142.825
0.617                   -2.92319         171.525         -47.3903        -42.6632         -47.3904        -42.6666       -0.0233139         142.744
0.618                   -2.97259          170.76         -47.3083        -44.6582         -47.3085        -44.6656       -0.0235602         142.663
0.619                   -3.02322         169.987         -47.2262        -46.6497         -47.2265        -46.6611       -0.0238095         142.582
0.62                    -3.07517         169.205         -47.1438        -48.6381         -47.1443        -48.6533        -0.024062         142.501
0.621                   -3.12852         168.414         -47.0613        -50.6235         -47.0619        -50.6424       -0.0243177         142.419
0.622                   -3.18336         167.615         -46.9786        -52.6063         -46.9794        -52.6287       -0.0245767         142.337
0.623                   -3.23979         166.807         -46.8957        -54.5866         -46.8967        -54.6125       -0.0248391         142.255
0.624                    -3.2979         165.989         -46.8127        -56.5648         -46.8138        -56.5938        -0.025105         142.173
0.625                   -3.35781         165.162         -46.7296         -58.541         -46.7309         -58.573       -0.0253745         142.091
0.626                   -3.41963         164.326         -46.6463        -60.5154         -46.6478        -60.5502       -0.0256476         142.008
0.627                   -3.48347         163.481         -46.5629        -62.4882         -46.5646        -62.5257       -0.0259244         141.925
0.628                   -3.54947         162.627         -46.4794        -64.4597         -46.4813        -64.4996       -0.0262051         141.841
0.629                   -3.61776         161.764         -46.3958        -66.4299          -46.398         -66.472       -0.0264897         141.758
