! TOUCHSTONE file generated by CST MICROWAVE STUDIO
! Date and time: Sat Oct 24 11:16:41 2020
! Project name: Scenario_1_Circular_Tissue_in_Line.cst
! Parameters = {L_HA=400; MT=2.54; Rad_Dielectric=30; Rad_Lower=7.3; Rad_Upper=30; a_HA=580; a_WG=246; b_HA=500; b_WG=121; c_HA=0; c_WG=187; d_feed=85; dx1=727.24; h_feed=15; h_lower=18; h_upper=40}
! Header version: 2018
! Port assignment regex: !\s*Touchstone port\s*([0-9]+)\s*=\s*(CST MWS port|CST DS port)\s*([0-9]+|Zmin|Zmax)\s*\(\"(.*)\"\)(\s*mode\s*([0-9]+))?.*
! Touchstone port assignment:
! Touchstone port 1 = CST MWS port 1 ("")
! Touchstone port 2 = CST MWS port 2 ("")
# GHz S DB R 50
0.5                    -0.144407         -122.22         -62.3756         174.329         -62.3756         174.329      -0.00762745         151.125
0.501                  -0.148558        -122.657         -62.2311         172.314         -62.2478         172.482      -0.00768606          151.06
0.502                  -0.152841        -123.096         -62.0917         170.347         -62.1188         170.655      -0.00774513         150.994
0.503                  -0.157264        -123.538         -61.9558         168.423         -61.9884         168.844      -0.00780468         150.929
0.504                  -0.161834        -123.982         -61.8217         166.539         -61.8565         167.049      -0.00786473         150.863
0.505                  -0.166559        -124.429         -61.6885         164.691          -61.723         165.266      -0.00792527         150.798
0.506                  -0.171449         -124.88         -61.5552         162.873         -61.5878         163.494      -0.00798633         150.732
0.507                  -0.176512        -125.332         -61.4212          161.08         -61.4509         161.732      -0.00804791         150.667
0.508                  -0.181758        -125.788          -61.286          159.31         -61.3121         159.977      -0.00811004         150.601
0.509                  -0.187197        -126.247         -61.1492         157.556         -61.1715         158.227      -0.00817272         150.535
0.51                   -0.192839        -126.709         -61.0106         155.817          -61.029         156.482      -0.00823597         150.469
0.511                  -0.198695        -127.173         -60.8701         154.088         -60.8846         154.739      -0.00829982         150.403
0.512                  -0.204777        -127.641         -60.7275         152.366         -60.7383         152.998      -0.00836427         150.337
0.513                  -0.211097        -128.111         -60.5827          150.65         -60.5902         151.257      -0.00842935         150.271
0.514                  -0.217667        -128.585         -60.4357         148.935         -60.4402         149.515      -0.00849508         150.205
0.515                  -0.224499        -129.062         -60.2866         147.221         -60.2884         147.771      -0.00856147         150.138
0.516                  -0.231609        -129.541         -60.1353         145.505         -60.1348         146.023      -0.00862856         150.072
0.517                  -0.239009        -130.024         -59.9819         143.786         -59.9794         144.271      -0.00869636         150.005
0.518                  -0.246714         -130.51         -59.8264         142.061         -59.8223         142.514       -0.0087649         149.939
0.519                   -0.25474        -130.999          -59.669          140.33         -59.6634          140.75      -0.00883421         149.872
0.52                   -0.263101        -131.491         -59.5096         138.591          -59.503         138.979      -0.00890431         149.805
0.521                  -0.271813        -131.987         -59.3484         136.843         -59.3409         137.199      -0.00897524         149.738
0.522                  -0.280894        -132.485         -59.1855         135.086         -59.1774         135.411      -0.00904702         149.671
0.523                   -0.29036        -132.986         -59.0208         133.316         -59.0123         133.612       -0.0091197         149.604
0.524                  -0.300228        -133.491         -58.8546         131.535         -58.8459         131.803      -0.00919329         149.537
0.525                  -0.310516        -133.999         -58.6869         129.741         -58.6782         129.982      -0.00926785          149.47
0.526                  -0.321241        -134.509         -58.5179         127.934         -58.5093          128.15      -0.00934341         149.403
0.527                  -0.332422        -135.023         -58.3475         126.112         -58.3392         126.304         -0.00942         149.335
0.528                  -0.344076        -135.539         -58.1761         124.275          -58.168         124.445      -0.00949767         149.268
0.529                  -0.356222        -136.058         -58.0035         122.422         -57.9959         122.572      -0.00957647           149.2
0.53                   -0.368878         -136.58         -57.8301         120.553         -57.8229         120.684      -0.00965644         149.132
0.531                   -0.38206        -137.105         -57.6558         118.667         -57.6491         118.781      -0.00973762         149.065
0.532                  -0.395787        -137.632         -57.4808         116.763         -57.4748         116.862      -0.00982007         148.997
0.533                  -0.410075        -138.162         -57.3053         114.843         -57.2998         114.927      -0.00990383         148.929
0.534                   -0.42494        -138.694         -57.1294         112.904         -57.1245         112.975      -0.00998896         148.861
0.535                  -0.440397        -139.228         -56.9531         110.946         -56.9488         111.006       -0.0100755         148.792
0.536                   -0.45646        -139.764         -56.7767          108.97          -56.773         109.019       -0.0101635         148.724
0.537                  -0.473142        -140.302         -56.6003         106.975         -56.5972         107.015       -0.0102531         148.656
0.538                  -0.490453        -140.842          -56.424          104.96         -56.4215         104.993       -0.0103442         148.587
0.539                  -0.508404        -141.384          -56.248         102.927          -56.246         102.952        -0.010437         148.519
0.54                      -0.527        -141.927         -56.0724         100.874          -56.071         100.893       -0.0105315          148.45
0.541                  -0.546247        -142.471         -55.8974         98.8014         -55.8964         98.8159       -0.0106277         148.381
0.542                  -0.566147        -143.017         -55.7232         96.7096         -55.7226         96.7199       -0.0107257         148.312
0.543                    -0.5867        -143.563         -55.5498         94.5986         -55.5496         94.6054       -0.0108256         148.243
0.544                  -0.607901        -144.109         -55.3775         92.4685         -55.3776         92.4725       -0.0109274         148.174
0.545                  -0.629743        -144.657         -55.2064         90.3196         -55.2068         90.3213       -0.0110312         148.105
0.546                  -0.652217        -145.204         -55.0367         88.1521         -55.0374         88.1522       -0.0111369         148.035
0.547                  -0.675308        -145.751         -54.8684         85.9665         -54.8693         85.9653       -0.0112447         147.966
0.548                  -0.698999        -146.298         -54.7019         83.7632          -54.703         83.7612       -0.0113546         147.896
0.549                  -0.723266        -146.845         -54.5372         81.5427         -54.5384         81.5402       -0.0114667         147.826
0.55                   -0.748085         -147.39         -54.3745         79.3056         -54.3757         79.3029       -0.0115808         147.757
0.551                  -0.773427        -147.935         -54.2139         77.0526         -54.2152         77.0499       -0.0116972         147.687
0.552                  -0.799257        -148.479         -54.0555         74.7845         -54.0568          74.782       -0.0118158         147.617
0.553                   -0.82554        -149.022         -53.8996          72.502         -53.9008         72.4998       -0.0119365         147.546
0.554                  -0.852235        -149.564         -53.7462          70.206         -53.7473         70.2043       -0.0120595         147.476
0.555                  -0.879299        -150.104         -53.5954         67.8975         -53.5964         67.8963       -0.0121847         147.406
0.556                  -0.906685        -150.643         -53.4473         65.5774         -53.4482         65.5767       -0.0123122         147.335
0.557                  -0.934348         -151.18          -53.302         63.2469         -53.3029         63.2467       -0.0124418         147.265
0.558                  -0.962236        -151.716         -53.1597         60.9069         -53.1604         60.9073       -0.0125736         147.194
0.559                  -0.990299        -152.251         -53.0203         58.5588         -53.0209         58.5596       -0.0127076         147.123
0.56                    -1.01849        -152.784          -52.884         56.2035         -52.8844         56.2047       -0.0128437         147.052
0.561                   -1.04675        -153.316         -52.7508         53.8424          -52.751         53.8439       -0.0129819         146.981
0.562                   -1.07504        -153.847         -52.6206         51.4766         -52.6207         51.4784       -0.0131222          146.91
0.563                    -1.1033        -154.377         -52.4936         49.1074         -52.4935         49.1094       -0.0132644         146.838
0.564                    -1.1315        -154.906         -52.3698          46.736         -52.3695         46.7381       -0.0134086         146.767
0.565                   -1.15959        -155.436          -52.249         44.3636         -52.2486         44.3658       -0.0135547         146.695
0.566                   -1.18753        -155.965         -52.1313         41.9914         -52.1308         41.9936       -0.0137026         146.624
0.567                    -1.2153        -156.494         -52.0167         39.6207          -52.016         39.6227       -0.0138523         146.552
0.568                   -1.24285        -157.024         -51.9051         37.2525         -51.9043         37.2544       -0.0140037          146.48
0.569                   -1.27016        -157.555         -51.7965          34.888         -51.7956         34.8897       -0.0141568         146.408
0.57                    -1.29723        -158.087         -51.6906         32.5282         -51.6897         32.5297       -0.0143115         146.336
0.571                   -1.32403        -158.622         -51.5876         30.1742         -51.5866         30.1754       -0.0144677         146.263
0.572                   -1.35056        -159.158         -51.4873         27.8268         -51.4862         27.8278       -0.0146255         146.191
0.573                   -1.37682        -159.698         -51.3895         25.4871         -51.3884         25.4878       -0.0147846         146.118
0.574                   -1.40282         -160.24         -51.2941         23.1557         -51.2931         23.1562       -0.0149451         146.045
0.575                   -1.42856        -160.786         -51.2011         20.8335         -51.2001         20.8338        -0.015107         145.972
0.576                   -1.45407        -161.336         -51.1104         18.5211         -51.1094         18.5212       -0.0152702         145.899
0.577                   -1.47937        -161.891         -51.0217         16.2192         -51.0207         16.2191       -0.0154346         145.826
0.578                   -1.50449         -162.45         -50.9349         13.9282          -50.934          13.928       -0.0156003         145.753
0.579                   -1.52946        -163.014         -50.8499         11.6486         -50.8491         11.6484       -0.0157672         145.679
0.58                    -1.55433        -163.584         -50.7666         9.38086         -50.7659         9.38064       -0.0159353         145.606
0.581                   -1.57912        -164.161         -50.6848         7.12518         -50.6842         7.12501       -0.0161045         145.532
0.582                   -1.60389        -164.743         -50.6045         4.88184         -50.6039         4.88176        -0.016275         145.458
0.583                    -1.6287        -165.332         -50.5253         2.65098         -50.5249         2.65105       -0.0164466         145.384
0.584                   -1.65358        -165.928         -50.4473        0.432698         -50.4469         0.43298       -0.0166193          145.31
0.585                   -1.67861         -166.53         -50.3702        -1.77296           -50.37        -1.77242       -0.0167933         145.236
0.586                   -1.70383        -167.141          -50.294        -3.96604         -50.2938         -3.9652       -0.0169684         145.161
0.587                    -1.7293        -167.759         -50.2184        -6.14662         -50.2184        -6.14543       -0.0171448         145.086
0.588                    -1.7551        -168.384         -50.1435        -8.31485         -50.1436        -8.31327       -0.0173224         145.011
0.589                   -1.78127        -169.018          -50.069        -10.4709         -50.0692        -10.4689       -0.0175013         144.936
0.59                    -1.80789        -169.659         -49.9949         -12.615         -49.9951        -12.6126       -0.0176814         144.861
0.591                   -1.83502        -170.309          -49.921        -14.7475         -49.9213        -14.7446       -0.0178629         144.786
0.592                   -1.86273        -170.967         -49.8473        -16.8687         -49.8477        -16.8653       -0.0180458          144.71
0.593                   -1.89108        -171.633         -49.7736        -18.9788         -49.7741         -18.975       -0.0182301         144.635
0.594                   -1.92014        -172.308         -49.6999        -21.0784         -49.7004         -21.074       -0.0184159         144.559
0.595                   -1.94998        -172.991         -49.6261        -23.1677         -49.6266        -23.1629       -0.0186032         144.483
0.596                   -1.98066        -173.683          -49.552        -25.2474         -49.5526        -25.2421        -0.018792         144.406
0.597                   -2.01226        -174.382         -49.4777        -27.3177         -49.4783         -27.312       -0.0189825          144.33
0.598                   -2.04484        -175.091          -49.403        -29.3792         -49.4036         -29.373       -0.0191746         144.253
0.599                   -2.07847        -175.807         -49.3279        -31.4323         -49.3285        -31.4258       -0.0193685         144.177
0.6                     -2.11321        -176.532         -49.2524        -33.4776          -49.253        -33.4707       -0.0195642           144.1
0.601                   -2.14915        -177.265         -49.1763        -35.5155         -49.1769        -35.5084       -0.0197617         144.022
0.602                   -2.18633        -178.006         -49.0998        -37.5466         -49.1003        -37.5392       -0.0199612         143.945
0.603                   -2.22484        -178.755         -49.0226        -39.5714         -49.0231        -39.5638       -0.0201626         143.868
0.604                   -2.26475        -179.512         -48.9448        -41.5904         -48.9453        -41.5826       -0.0203661          143.79
0.605                   -2.30611         179.724         -48.8664         -43.604         -48.8669        -43.5962       -0.0205718         143.712
0.606                   -2.34899         178.952         -48.7874        -45.6129         -48.7878        -45.6051       -0.0207796         143.634
0.607                   -2.39348         178.173         -48.7077        -47.6175         -48.7081        -47.6097       -0.0209898         143.555
0.608                   -2.43962         177.387         -48.6273        -49.6184         -48.6276        -49.6106       -0.0212022         143.477
0.609                    -2.4875         176.595         -48.5462        -51.6159         -48.5465        -51.6082       -0.0214171         143.398
0.61                    -2.53718         175.795         -48.4645        -53.6106         -48.4648        -53.6031       -0.0216345         143.319
0.611                   -2.58872          174.99         -48.3821        -55.6029         -48.3823        -55.5956       -0.0218545          143.24
0.612                   -2.64219         174.179         -48.2991        -57.5934         -48.2993        -57.5863       -0.0220771          143.16
0.613                   -2.69765         173.362         -48.2154        -59.5823         -48.2155        -59.5756       -0.0223024          143.08
0.614                   -2.75518          172.54         -48.1311        -61.5702         -48.1312        -61.5638       -0.0225306         143.001
0.615                   -2.81483         171.713         -48.0462        -63.5574         -48.0463        -63.5514       -0.0227617          142.92
0.616                   -2.87667         170.882         -47.9608        -65.5443         -47.9608        -65.5387       -0.0229958          142.84
0.617                   -2.94076         170.047         -47.8748        -67.5312         -47.8748        -67.5261       -0.0232329         142.759
0.618                   -3.00716         169.208         -47.7883        -69.5186         -47.7883         -69.514       -0.0234732         142.679
0.619                   -3.07593         168.366         -47.7014        -71.5066         -47.7014        -71.5025       -0.0237168         142.598
0.62                    -3.14711         167.522         -47.6141        -73.4956          -47.614         -73.492       -0.0239637         142.516
0.621                   -3.22078         166.676         -47.5263        -75.4859         -47.5263        -75.4828        -0.024214         142.435
0.622                   -3.29697         165.829         -47.4383        -77.4776         -47.4382         -77.475       -0.0244679         142.353
0.623                   -3.37573         164.981         -47.3499        -79.4709         -47.3498        -79.4689       -0.0247254         142.271
0.624                    -3.4571         164.133         -47.2613        -81.4662         -47.2612        -81.4647       -0.0249866         142.188
0.625                   -3.54113         163.285         -47.1725        -83.4634         -47.1724        -83.4624       -0.0252516         142.106
0.626                   -3.62785         162.439         -47.0835        -85.4627         -47.0835        -85.4622       -0.0255205         142.023
0.627                    -3.7173         161.595         -46.9945        -87.4643         -46.9945        -87.4643       -0.0257935          141.94
0.628                   -3.80948         160.753         -46.9054        -89.4681         -46.9054        -89.4685       -0.0260705         141.857
0.629                   -3.90443         159.916         -46.8163        -91.4743         -46.8163        -91.4751       -0.0263518         141.773
