! TOUCHSTONE file generated by CST MICROWAVE STUDIO
! Date and time: Sat Oct 24 11:16:48 2020
! Project name: Scenario_1_Circular_Tissue_in_Line.cst
! Parameters = {L_HA=400; MT=2.54; Rad_Dielectric=30; Rad_Lower=7.3; Rad_Upper=30; a_HA=580; a_WG=246; b_HA=500; b_WG=121; c_HA=0; c_WG=187; d_feed=85; dx1=744.56; h_feed=15; h_lower=18; h_upper=40}
! Header version: 2018
! Port assignment regex: !\s*Touchstone port\s*([0-9]+)\s*=\s*(CST MWS port|CST DS port)\s*([0-9]+|Zmin|Zmax)\s*\(\"(.*)\"\)(\s*mode\s*([0-9]+))?.*
! Touchstone port assignment:
! Touchstone port 1 = CST MWS port 1 ("")
! Touchstone port 2 = CST MWS port 2 ("")
# GHz S DB R 50
0.5                    -0.139643        -122.258         -62.5427         165.008         -62.5423         165.006      -0.00758926         151.114
0.501                  -0.144673        -122.697         -62.4083         163.355         -62.4075         163.355      -0.00764654         151.049
0.502                  -0.149807        -123.138         -62.2715         161.695         -62.2705         161.695       -0.0077044         150.983
0.503                  -0.155052        -123.582         -62.1325         160.026         -62.1312         160.028      -0.00776286         150.918
0.504                  -0.160414        -124.029         -61.9912         158.349         -61.9896         158.352      -0.00782193         150.853
0.505                  -0.165902        -124.478         -61.8477         156.664         -61.8459         156.667      -0.00788162         150.787
0.506                  -0.171523        -124.929          -61.702         154.969         -61.7001         154.973      -0.00794196         150.721
0.507                  -0.177287        -125.383         -61.5542         153.266         -61.5522         153.271      -0.00800295         150.656
0.508                  -0.183203         -125.84         -61.4043         151.553         -61.4022         151.558      -0.00806462          150.59
0.509                  -0.189281          -126.3         -61.2524          149.83         -61.2502         149.836      -0.00812698         150.524
0.51                   -0.195532        -126.762         -61.0985         148.098         -61.0962         148.104      -0.00819005         150.458
0.511                  -0.201968        -127.227         -60.9426         146.355         -60.9403         146.362      -0.00825386         150.392
0.512                  -0.208602        -127.695         -60.7849         144.602         -60.7826         144.609      -0.00831842         150.326
0.513                  -0.215447        -128.167         -60.6254         142.838         -60.6231         142.845      -0.00838376         150.259
0.514                  -0.222517        -128.641          -60.464         141.062         -60.4618          141.07       -0.0084499         150.193
0.515                  -0.229827        -129.118          -60.301         139.275         -60.2988         139.283      -0.00851686         150.127
0.516                  -0.237394        -129.598         -60.1364         137.476         -60.1342         137.484      -0.00858468          150.06
0.517                  -0.245234        -130.081         -59.9702         135.665         -59.9681         135.672      -0.00865337         149.994
0.518                  -0.253365        -130.567         -59.8024          133.84         -59.8004         133.848      -0.00872298         149.927
0.519                  -0.261805        -131.056         -59.6333         132.003         -59.6314          132.01      -0.00879352          149.86
0.52                   -0.270574        -131.549         -59.4628         130.152          -59.461         130.159      -0.00886504         149.793
0.521                  -0.279691        -132.044         -59.2911         128.287         -59.2894         128.294      -0.00893755         149.727
0.522                  -0.289179        -132.543         -59.1182         126.408         -59.1167         126.414      -0.00901111          149.66
0.523                  -0.299057        -133.045         -58.9443         124.514         -58.9428          124.52      -0.00908574         149.592
0.524                  -0.309348        -133.549         -58.7693         122.605          -58.768         122.611      -0.00916149         149.525
0.525                  -0.320074        -134.057         -58.5935          120.68         -58.5924         120.686      -0.00923839         149.458
0.526                  -0.331258        -134.568          -58.417          118.74         -58.4159         118.745      -0.00931649         149.391
0.527                  -0.342922        -135.082         -58.2397         116.783         -58.2388         116.788      -0.00939583         149.323
0.528                  -0.355088        -135.598         -58.0619          114.81         -58.0612         114.815      -0.00947645         149.256
0.529                  -0.367779        -136.117         -57.8837          112.82         -57.8831         112.825      -0.00955839         149.188
0.53                   -0.381016        -136.639         -57.7052         110.813         -57.7048         110.817      -0.00964172          149.12
0.531                  -0.394819        -137.163         -57.5266         108.788         -57.5262         108.792      -0.00972647         149.052
0.532                  -0.409208        -137.689         -57.3479         106.746         -57.3477          106.75       -0.0098127         148.984
0.533                  -0.424199        -138.218         -57.1693         104.686         -57.1692          104.69      -0.00990046         148.916
0.534                  -0.439809        -138.748         -56.9909         102.608          -56.991         102.612      -0.00998979         148.848
0.535                   -0.45605         -139.28          -56.813         100.512         -56.8132         100.516       -0.0100807          148.78
0.536                  -0.472932        -139.814         -56.6356         98.3982         -56.6359         98.4014       -0.0101734         148.711
0.537                  -0.490463        -140.349         -56.4589         96.2659         -56.4593          96.269       -0.0102678         148.643
0.538                  -0.508646        -140.885          -56.283         94.1155         -56.2835         94.1185       -0.0103639         148.574
0.539                  -0.527481        -141.422         -56.1082         91.9471         -56.1088           91.95       -0.0104619         148.506
0.54                   -0.546964         -141.96         -55.9346         89.7608         -55.9352         89.7637       -0.0105617         148.437
0.541                  -0.567084        -142.498         -55.7622          87.557         -55.7629         87.5598       -0.0106635         148.368
0.542                  -0.587828        -143.035         -55.5914         85.3359         -55.5922         85.3387       -0.0107672         148.299
0.543                  -0.609178        -143.573         -55.4222         83.0979         -55.4231         83.1007        -0.010873          148.23
0.544                   -0.63111         -144.11         -55.2549         80.8434         -55.2558         80.8462       -0.0109807         148.161
0.545                  -0.653594        -144.647         -55.0895          78.573         -55.0904         78.5758       -0.0110906         148.091
0.546                  -0.676599        -145.183         -54.9262         76.2872         -54.9272         76.2901       -0.0112025         148.022
0.547                  -0.700085        -145.717         -54.7652         73.9868         -54.7662         73.9898       -0.0113165         147.953
0.548                  -0.724011        -146.251         -54.6067         71.6726         -54.6076         71.6755       -0.0114326         147.883
0.549                  -0.748331        -146.783         -54.4506         69.3452         -54.4515         69.3482       -0.0115508         147.813
0.55                   -0.772996        -147.314         -54.2972         67.0057         -54.2981         67.0087       -0.0116712         147.743
0.551                  -0.797955        -147.843         -54.1466         64.6549         -54.1475         64.6579       -0.0117936         147.673
0.552                  -0.823156        -148.371         -53.9989          62.294         -53.9997          62.297       -0.0119182         147.603
0.553                  -0.848545        -148.897         -53.8541         59.9239         -53.8549          59.927       -0.0120448         147.533
0.554                  -0.874069        -149.422         -53.7124         57.5459         -53.7132         57.5489       -0.0121734         147.463
0.555                  -0.899674        -149.946         -53.5738          55.161         -53.5746          55.164        -0.012304         147.392
0.556                   -0.92531        -150.468         -53.4384         52.7706         -53.4391         52.7735       -0.0124365         147.322
0.557                  -0.950928         -150.99         -53.3062         50.3758         -53.3068         50.3786       -0.0125709         147.251
0.558                  -0.976483        -151.511         -53.1773         47.9778         -53.1778         47.9806       -0.0127072         147.181
0.559                   -1.00193        -152.032         -53.0516          45.578          -53.052         45.5807       -0.0128452          147.11
0.56                    -1.02725        -152.553         -52.9291         43.1776         -52.9295         43.1801       -0.0129849         147.039
0.561                   -1.05239        -153.074         -52.8098         40.7778         -52.8102         40.7801       -0.0131262         146.968
0.562                   -1.07733        -153.596         -52.6937         38.3799          -52.694          38.382       -0.0132691         146.896
0.563                   -1.10205        -154.119         -52.5807          35.985          -52.581         35.9869       -0.0134135         146.825
0.564                   -1.12654        -154.643         -52.4708         33.5943          -52.471          33.596       -0.0135593         146.754
0.565                    -1.1508        -155.169         -52.3639         31.2089          -52.364         31.2104       -0.0137064         146.682
0.566                    -1.1748        -155.697         -52.2599         28.8299         -52.2599         28.8311       -0.0138549          146.61
0.567                   -1.19857        -156.228         -52.1586         26.4582         -52.1586         26.4591       -0.0140045         146.538
0.568                   -1.22211        -156.762           -52.06         24.0948           -52.06         24.0954       -0.0141554         146.466
0.569                   -1.24543        -157.299          -51.964         21.7405         -51.9639         21.7409       -0.0143074         146.394
0.57                    -1.26855         -157.84         -51.8704         19.3961         -51.8702         19.3963       -0.0144604         146.322
0.571                    -1.2915        -158.385          -51.779         17.0624         -51.7789         17.0623       -0.0146145          146.25
0.572                    -1.3143        -158.935         -51.6899         14.7399         -51.6896         14.7395       -0.0147695         146.177
0.573                   -1.33699         -159.49         -51.6027         12.4292         -51.6024         12.4285       -0.0149256         146.105
0.574                    -1.3596        -160.049         -51.5173         10.1307         -51.5171         10.1298       -0.0150826         146.032
0.575                   -1.38217        -160.615         -51.4337         7.84478         -51.4334         7.84365       -0.0152406         145.959
0.576                   -1.40474        -161.186         -51.3516          5.5718         -51.3513         5.57046       -0.0153995         145.886
0.577                   -1.42735        -161.763         -51.2709         3.31195         -51.2706         3.31042       -0.0155593         145.813
0.578                   -1.45005        -162.346         -51.1914         1.06537         -51.1911         1.06367       -0.0157201         145.739
0.579                   -1.47289        -162.936          -51.113        -1.16788         -51.1127        -1.16972       -0.0158819         145.666
0.58                    -1.49592        -163.532         -51.0356        -3.38779         -51.0353        -3.38975       -0.0160447         145.592
0.581                   -1.51918        -164.135          -50.959        -5.59444         -50.9587        -5.59649       -0.0162084         145.519
0.582                   -1.54274        -164.745          -50.883        -7.78794         -50.8827        -7.79006       -0.0163732         145.445
0.583                   -1.56664        -165.363         -50.8076        -9.96849         -50.8073        -9.97065       -0.0165391         145.371
0.584                   -1.59094        -165.987         -50.7326        -12.1363         -50.7323        -12.1385       -0.0167061         145.296
0.585                   -1.61569         -166.62         -50.6578        -14.2918         -50.6576        -14.2939       -0.0168742         145.222
0.586                   -1.64095        -167.259         -50.5833        -16.4351          -50.583        -16.4372       -0.0170436         145.147
0.587                   -1.66677        -167.906         -50.5087        -18.5667         -50.5085        -18.5687       -0.0172141         145.073
0.588                   -1.69322        -168.561         -50.4342         -20.687          -50.434         -20.689        -0.017386         144.998
0.589                   -1.72034        -169.223         -50.3595        -22.7965         -50.3593        -22.7983       -0.0175592         144.923
0.59                     -1.7482        -169.893         -50.2846        -24.8956         -50.2844        -24.8973       -0.0177337         144.847
0.591                   -1.77686        -170.571         -50.2093        -26.9848         -50.2092        -26.9863       -0.0179097         144.772
0.592                   -1.80638        -171.257         -50.1337        -29.0647         -50.1336         -29.066       -0.0180873         144.696
0.593                   -1.83681         -171.95         -50.0576        -31.1357         -50.0575        -31.1368       -0.0182663         144.621
0.594                   -1.86822        -172.651          -49.981        -33.1984         -49.9809        -33.1993        -0.018447         144.545
0.595                   -1.90067        -173.359         -49.9039        -35.2534         -49.9038        -35.2541       -0.0186294         144.468
0.596                   -1.93421        -174.075         -49.8261        -37.3013          -49.826        -37.3017       -0.0188134         144.392
0.597                   -1.96892        -174.798         -49.7476        -39.3425         -49.7476        -39.3428       -0.0189993         144.316
0.598                   -2.00485        -175.529         -49.6685        -41.3777         -49.6685        -41.3777        -0.019187         144.239
0.599                   -2.04206        -176.267         -49.5887        -43.4075         -49.5887        -43.4073       -0.0193767         144.162
0.6                     -2.08063        -177.012         -49.5081        -45.4324         -49.5081        -45.4319       -0.0195683         144.085
0.601                    -2.1206        -177.764         -49.4268        -47.4529         -49.4268        -47.4522       -0.0197619         144.008
0.602                   -2.16205        -178.522         -49.3448        -49.4697         -49.3447        -49.4687       -0.0199577          143.93
0.603                   -2.20504        -179.287         -49.2619        -51.4832         -49.2619         -51.482       -0.0201556         143.853
0.604                   -2.24963         179.941         -49.1783         -53.494         -49.1783        -53.4926       -0.0203558         143.775
0.605                   -2.29589         179.164          -49.094        -55.5026         -49.0939         -55.501       -0.0205583         143.697
0.606                   -2.34387          178.38         -49.0089        -57.5095         -49.0089        -57.5077       -0.0207632         143.618
0.607                   -2.39364         177.592         -48.9231        -59.5151         -48.9231        -59.5131       -0.0209705          143.54
0.608                   -2.44527         176.798         -48.8366          -61.52         -48.8365        -61.5178       -0.0211804         143.461
0.609                    -2.4988         175.999         -48.7494        -63.5245         -48.7494        -63.5222       -0.0213929         143.382
0.61                    -2.55431         175.196         -48.6616        -65.5291         -48.6615        -65.5267        -0.021608         143.303
0.611                   -2.61184         174.388         -48.5732        -67.5342         -48.5731        -67.5316       -0.0218259         143.224
0.612                   -2.67146         173.577         -48.4842          -69.54         -48.4841        -69.5374       -0.0220467         143.144
0.613                   -2.73321         172.763         -48.3947        -71.5471         -48.3946        -71.5444       -0.0222704         143.065
0.614                   -2.79715         171.947         -48.3047        -73.5556         -48.3046        -73.5529       -0.0224971         142.985
0.615                   -2.86333         171.128         -48.2143         -75.566         -48.2141        -75.5632       -0.0227268         142.904
0.616                   -2.93179         170.307         -48.1234        -77.5783         -48.1233        -77.5755       -0.0229598         142.824
0.617                   -3.00257         169.486         -48.0323        -79.5929         -48.0321        -79.5901       -0.0231961         142.743
0.618                   -3.07571         168.664         -47.9408        -81.6099         -47.9406        -81.6071       -0.0234357         142.662
0.619                   -3.15124         167.842         -47.8491        -83.6296         -47.8489        -83.6268       -0.0236788         142.581
0.62                    -3.22919         167.021         -47.7572         -85.652          -47.757        -85.6493       -0.0239254           142.5
0.621                   -3.30957         166.202         -47.6653        -87.6772          -47.665        -87.6746       -0.0241757         142.418
0.622                   -3.39242         165.385         -47.5732        -89.7054          -47.573        -89.7029       -0.0244297         142.336
0.623                   -3.47773         164.571         -47.4811        -91.7366         -47.4809        -91.7342       -0.0246876         142.254
0.624                   -3.56551         163.761         -47.3891        -93.7707         -47.3889        -93.7684       -0.0249494         142.171
0.625                   -3.65575         162.955         -47.2972        -95.8079         -47.2969        -95.8057       -0.0252153         142.089
0.626                   -3.74845         162.154         -47.2054        -97.8479         -47.2052        -97.8459       -0.0254853         142.006
0.627                   -3.84358         161.359         -47.1138        -99.8908         -47.1136        -99.8889       -0.0257595         141.922
0.628                   -3.94111         160.571         -47.0225        -101.936         -47.0223        -101.935       -0.0260381         141.839
0.629                   -4.04102         159.791         -46.9315        -103.985         -46.9313        -103.983       -0.0263211         141.755
