! TOUCHSTONE file generated by CST MICROWAVE STUDIO
! Date and time: Sat Oct 24 11:17:04 2020
! Project name: Scenario_1_Circular_Tissue_in_Line.cst
! Parameters = {L_HA=400; MT=2.54; Rad_Dielectric=30; Rad_Lower=7.3; Rad_Upper=30; a_HA=580; a_WG=246; b_HA=500; b_WG=121; c_HA=0; c_WG=187; d_feed=85; dx1=779.2; h_feed=15; h_lower=18; h_upper=40}
! Header version: 2018
! Port assignment regex: !\s*Touchstone port\s*([0-9]+)\s*=\s*(CST MWS port|CST DS port)\s*([0-9]+|Zmin|Zmax)\s*\(\"(.*)\"\)(\s*mode\s*([0-9]+))?.*
! Touchstone port assignment:
! Touchstone port 1 = CST MWS port 1 ("")
! Touchstone port 2 = CST MWS port 2 ("")
# GHz S DB R 50
0.5                    -0.133211        -122.309         -62.7526         146.712         -62.7534         146.711      -0.00749617         151.129
0.501                  -0.134773        -122.738         -62.7119         145.992         -62.7127         145.981      -0.00756486         151.063
0.502                  -0.136607         -123.17         -62.6701         145.253          -62.671         145.231      -0.00763434         150.998
0.503                  -0.138719        -123.604         -62.6273         144.493         -62.6282          144.46      -0.00770461         150.932
0.504                  -0.141113         -124.04         -62.5832         143.712         -62.5842         143.668      -0.00777568         150.867
0.505                  -0.143793        -124.479          -62.538         142.909         -62.5391         142.855      -0.00784755         150.801
0.506                  -0.146765         -124.92         -62.4916         142.084         -62.4927         142.019      -0.00792022         150.736
0.507                  -0.150032        -125.363         -62.4438         141.236          -62.445          141.16      -0.00799371          150.67
0.508                  -0.153599        -125.809         -62.3947         140.364          -62.396         140.276      -0.00806801         150.604
0.509                  -0.157471        -126.257         -62.3441         139.467         -62.3456         139.369      -0.00814314         150.538
0.51                   -0.161653        -126.707         -62.2921         138.545         -62.2937         138.435      -0.00821909         150.472
0.511                  -0.166149         -127.16         -62.2386         137.597         -62.2402         137.475      -0.00829587         150.406
0.512                  -0.170963        -127.615         -62.1834         136.621         -62.1851         136.488      -0.00837349          150.34
0.513                  -0.176102        -128.072         -62.1265         135.617         -62.1284         135.473      -0.00845196         150.274
0.514                  -0.181568        -128.532         -62.0678         134.585         -62.0698         134.429      -0.00853127         150.207
0.515                  -0.187367        -128.994         -62.0073         133.522         -62.0094         133.355      -0.00861144         150.141
0.516                  -0.193504        -129.458         -61.9448         132.429         -61.9471          132.25      -0.00869248         150.075
0.517                  -0.199983        -129.925         -61.8803         131.304         -61.8827         131.113      -0.00877438         150.008
0.518                  -0.206809        -130.394         -61.8136         130.146         -61.8161         129.943      -0.00885715         149.941
0.519                  -0.213987        -130.865         -61.7447         128.955         -61.7473          128.74      -0.00894081         149.875
0.52                   -0.221521        -131.338         -61.6734         127.728         -61.6761         127.502      -0.00902535         149.808
0.521                  -0.229417        -131.814         -61.5996         126.466         -61.6025         126.228      -0.00911079         149.741
0.522                  -0.237678        -132.292         -61.5232         125.166         -61.5261         124.917      -0.00919713         149.674
0.523                   -0.24631        -132.773          -61.444         123.828         -61.4471         123.567      -0.00928437         149.607
0.524                  -0.255317        -133.255         -61.3619         122.452         -61.3651         122.179      -0.00937254          149.54
0.525                  -0.264704         -133.74         -61.2768         121.034         -61.2801          120.75      -0.00946162         149.472
0.526                  -0.274476        -134.227         -61.1885         119.575         -61.1919         119.279      -0.00955164         149.405
0.527                  -0.284637        -134.717         -61.0969         118.073         -61.1003         117.766      -0.00964259         149.338
0.528                  -0.295192        -135.208         -61.0017         116.527         -61.0052         116.209      -0.00973449          149.27
0.529                  -0.306146        -135.702         -60.9028         114.936         -60.9064         114.606      -0.00982734         149.203
0.53                   -0.317503        -136.198         -60.8001         113.298         -60.8037         112.958      -0.00992116         149.135
0.531                  -0.329267        -136.696         -60.6933         111.612         -60.6969         111.262       -0.0100159         149.067
0.532                  -0.341444        -137.197         -60.5823         109.878         -60.5859         109.517       -0.0101117         148.999
0.533                  -0.354038        -137.699         -60.4668         108.093         -60.4705         107.722       -0.0102085         148.931
0.534                  -0.367053        -138.204         -60.3467         106.257         -60.3504         105.877       -0.0103062         148.863
0.535                  -0.380495        -138.711         -60.2217         104.369         -60.2254         103.979        -0.010405         148.795
0.536                  -0.394366         -139.22         -60.0917         102.426         -60.0954         102.028       -0.0105047         148.727
0.537                  -0.408673        -139.731         -59.9565         100.429         -59.9602         100.023       -0.0106055         148.658
0.538                  -0.423418        -140.244         -59.8159         98.3756         -59.8195         97.9615       -0.0107074          148.59
0.539                  -0.438607         -140.76         -59.6696         96.2651         -59.6733         95.8439       -0.0108103         148.521
0.54                   -0.454244        -141.277         -59.5175         94.0964         -59.5212         93.6687       -0.0109142         148.453
0.541                  -0.470333        -141.796         -59.3595         91.8683         -59.3631          91.435       -0.0110192         148.384
0.542                  -0.486878        -142.318         -59.1954           89.58          -59.199         89.1418       -0.0111253         148.315
0.543                  -0.503884        -142.842         -59.0249         87.2305         -59.0286         86.7881       -0.0112324         148.246
0.544                  -0.521354        -143.367         -58.8481         84.8188         -58.8518         84.3732       -0.0113407         148.177
0.545                  -0.539294        -143.895         -58.6649         82.3441         -58.6685         81.8963       -0.0114501         148.108
0.546                  -0.557706        -144.424          -58.475         79.8056         -58.4787         79.3565       -0.0115605         148.038
0.547                  -0.576595        -144.956         -58.2786         77.2025         -58.2824         76.7532       -0.0116722         147.969
0.548                  -0.595965        -145.489         -58.0756          74.534         -58.0795         74.0858       -0.0117849           147.9
0.549                  -0.615819        -146.025         -57.8662         71.7997         -57.8701         71.3536       -0.0118989          147.83
0.55                   -0.636162        -146.562         -57.6503         68.9988         -57.6544         68.5562        -0.012014          147.76
0.551                  -0.656997        -147.101         -57.4281         66.1309         -57.4324         65.6931       -0.0121302          147.69
0.552                  -0.678329        -147.642         -57.1999         63.1955         -57.2045         62.7639       -0.0122477          147.62
0.553                   -0.70016        -148.185          -56.966         60.1923         -56.9708         59.7683       -0.0123664          147.55
0.554                  -0.722495         -148.73         -56.7267         57.1211         -56.7317         56.7062       -0.0124863          147.48
0.555                  -0.745336        -149.277         -56.4824         53.9818         -56.4877         53.5775       -0.0126074          147.41
0.556                  -0.768688        -149.825         -56.2336         50.7744         -56.2393         50.3822       -0.0127298         147.339
0.557                  -0.792555        -150.376          -55.981         47.4992          -55.987         47.1208       -0.0128535         147.269
0.558                  -0.816938        -150.928         -55.7252         44.1567         -55.7315         43.7936       -0.0129784         147.198
0.559                  -0.841842        -151.481         -55.4669         40.7477         -55.4735         40.4014       -0.0131046         147.127
0.56                   -0.867271        -152.037         -55.2069         37.2733         -55.2138         36.9453       -0.0132322         147.056
0.561                  -0.893227        -152.594         -54.9463         33.7349         -54.9534         33.4269        -0.013361         146.985
0.562                  -0.919713        -153.153         -54.6859         30.1346         -54.6932         29.8478       -0.0134912         146.914
0.563                  -0.946732        -153.714         -54.4267         26.4747         -54.4342         26.2107       -0.0136228         146.843
0.564                  -0.974289        -154.276           -54.17         22.7584         -54.1774         22.5183       -0.0137557         146.771
0.565                   -1.00239         -154.84         -53.9167         18.9893         -53.9241         18.7742       -0.0138901           146.7
0.566                   -1.03102        -155.406         -53.6681         15.1719         -53.6752         14.9828       -0.0140258         146.628
0.567                   -1.06021        -155.973         -53.4252         11.3112         -53.4319         11.1489        -0.014163         146.556
0.568                   -1.08994        -156.542         -53.1892         7.41311         -53.1953         7.27805       -0.0143016         146.484
0.569                   -1.12023        -157.113         -52.9611         3.48422         -52.9664         3.37672       -0.0144417         146.412
0.57                    -1.15106        -157.685         -52.7419       -0.468238         -52.7461       -0.548145       -0.0145833          146.34
0.571                   -1.18246        -158.259         -52.5324        -4.43638         -52.5355        -4.48894       -0.0147264         146.268
0.572                   -1.21441        -158.834         -52.3335        -8.41184         -52.3351        -8.43757        -0.014871         146.195
0.573                   -1.24693         -159.41         -52.1456        -12.3859         -52.1456        -12.3856       -0.0150172         146.123
0.574                   -1.28001        -159.989         -51.9693        -16.3495         -51.9674        -16.3242       -0.0151649          146.05
0.575                   -1.31366        -160.568         -51.8048        -20.2937          -51.801        -20.2447       -0.0153142         145.977
0.576                   -1.34788         -161.15         -51.6523        -24.2095         -51.6463        -24.1384       -0.0154652         145.904
0.577                   -1.38267        -161.732         -51.5116        -28.0885         -51.5033        -27.9969       -0.0156177          145.83
0.578                   -1.41804        -162.317         -51.3826        -31.9225          -51.372        -31.8122        -0.015772         145.757
0.579                   -1.45398        -162.902         -51.2649        -35.7041         -51.2519         -35.577       -0.0159279         145.684
0.58                    -1.49051        -163.489          -51.158        -39.4264         -51.1425        -39.2845       -0.0160855          145.61
0.581                   -1.52761        -164.078         -51.0614        -43.0837         -51.0434        -42.9289       -0.0162448         145.536
0.582                    -1.5653        -164.668         -50.9743        -46.6708         -50.9539        -46.5051       -0.0164059         145.462
0.583                   -1.60358        -165.259         -50.8959        -50.1838         -50.8732         -50.009       -0.0165688         145.388
0.584                   -1.64245        -165.852         -50.8256        -53.6193         -50.8006        -53.4373       -0.0167335         145.314
0.585                   -1.68191        -166.446         -50.7624        -56.9751         -50.7352        -56.7875          -0.0169         145.239
0.586                   -1.72197        -167.042         -50.7057        -60.2497         -50.6764        -60.0581       -0.0170684         145.165
0.587                   -1.76262        -167.639         -50.6545        -63.4424         -50.6233        -63.2481       -0.0172387          145.09
0.588                   -1.80388        -168.237         -50.6081         -66.553         -50.5752        -66.3575       -0.0174108         145.015
0.589                   -1.84573        -168.837         -50.5659        -69.5822         -50.5312        -69.3866        -0.017585          144.94
0.59                    -1.88819        -169.438          -50.527        -72.5311         -50.4909        -72.3363       -0.0177611         144.864
0.591                   -1.93126         -170.04         -50.4908         -75.401         -50.4534        -75.2081       -0.0179392         144.789
0.592                   -1.97494        -170.644         -50.4569         -78.194         -50.4182        -78.0037       -0.0181193         144.713
0.593                   -2.01923         -171.25         -50.4245        -80.9122         -50.3848        -80.7251       -0.0183015         144.637
0.594                   -2.06414        -171.856         -50.3932         -83.558         -50.3526        -83.3746       -0.0184858         144.562
0.595                   -2.10967        -172.464         -50.3626        -86.1338         -50.3212        -85.9548       -0.0186723         144.485
0.596                   -2.15583        -173.074         -50.3322        -88.6425         -50.2903        -88.4681       -0.0188609         144.409
0.597                    -2.2026        -173.684         -50.3018        -91.0867         -50.2593        -90.9173       -0.0190517         144.332
0.598                   -2.25001        -174.297          -50.271        -93.4692         -50.2281        -93.3051       -0.0192447         144.256
0.599                   -2.29805         -174.91         -50.2395        -95.7929         -50.1963        -95.6342       -0.0194401         144.179
0.6                     -2.34672        -175.525         -50.2071        -98.0605         -50.1638        -97.9073       -0.0196377         144.102
0.601                   -2.39604        -176.142         -50.1735        -100.275         -50.1302        -100.127       -0.0198377         144.024
0.602                     -2.446         -176.76         -50.1387        -102.438         -50.0954        -102.296       -0.0200401         143.947
0.603                    -2.4966        -177.379         -50.1025        -104.554         -50.0592        -104.418       -0.0202449         143.869
0.604                   -2.54786            -178         -50.0647        -106.624         -50.0216        -106.494       -0.0204522         143.791
0.605                   -2.59978        -178.622         -50.0252        -108.651         -49.9823        -108.527       -0.0206619         143.713
0.606                   -2.65236        -179.246         -49.9839        -110.638         -49.9414        -110.519       -0.0208743         143.635
0.607                    -2.7056        -179.871         -49.9409        -112.586         -49.8986        -112.473       -0.0210892         143.557
0.608                   -2.75951         179.502         -49.8959        -114.498         -49.8541         -114.39       -0.0213068         143.478
0.609                   -2.81411         178.874          -49.849        -116.377         -49.8077        -116.274       -0.0215271         143.399
0.61                    -2.86938         178.244         -49.8001        -118.224         -49.7593        -118.126       -0.0217501          143.32
0.611                   -2.92534         177.612         -49.7493         -120.04          -49.709        -119.948        -0.021976         143.241
0.612                     -2.982         176.979         -49.6964        -121.829         -49.6567        -121.742       -0.0222046         143.161
0.613                   -3.03936         176.345         -49.6416        -123.592         -49.6025        -123.509       -0.0224361         143.081
0.614                   -3.09743         175.708         -49.5847         -125.33         -49.5462        -125.252       -0.0226706         143.001
0.615                   -3.15622          175.07         -49.5258        -127.045          -49.488        -126.972       -0.0229081         142.921
0.616                   -3.21573          174.43         -49.4649        -128.739         -49.4278        -128.671       -0.0231486         142.841
0.617                   -3.27598         173.788          -49.402        -130.414         -49.3656         -130.35       -0.0233922          142.76
0.618                   -3.33697         173.145         -49.3371         -132.07         -49.3015        -132.011       -0.0236389         142.679
0.619                   -3.39871           172.5         -49.2702         -133.71         -49.2354        -133.655       -0.0238889         142.598
0.62                    -3.46121         171.853         -49.2015        -135.334         -49.1673        -135.283       -0.0241422         142.517
0.621                   -3.52448         171.204         -49.1308        -136.944         -49.0974        -136.897       -0.0243988         142.435
0.622                   -3.58853         170.553         -49.0582        -138.541         -49.0256        -138.497       -0.0246588         142.353
0.623                   -3.65338         169.899         -48.9837        -140.127          -48.952        -140.086       -0.0249223         142.271
0.624                   -3.71904         169.244         -48.9075        -141.701         -48.8765        -141.665       -0.0251893         142.189
0.625                   -3.78552         168.587         -48.8294        -143.267         -48.7992        -143.233       -0.0254599         142.106
0.626                   -3.85283         167.928         -48.7495        -144.823         -48.7201        -144.793       -0.0257341         142.023
0.627                   -3.92099         167.267         -48.6679        -146.373         -48.6393        -146.345       -0.0260121          141.94
0.628                   -3.99001         166.603         -48.5845        -147.916         -48.5568        -147.891       -0.0262939         141.856
0.629                   -4.05991         165.937         -48.4995        -149.453         -48.4726        -149.431       -0.0265796         141.773
