! TOUCHSTONE file generated by CST MICROWAVE STUDIO
! Date and time: Sat Oct 24 11:17:10 2020
! Project name: Scenario_1_Circular_Tissue_in_Line.cst
! Parameters = {L_HA=400; MT=2.54; Rad_Dielectric=30; Rad_Lower=7.3; Rad_Upper=30; a_HA=580; a_WG=246; b_HA=500; b_WG=121; c_HA=0; c_WG=187; d_feed=85; dx1=796.52; h_feed=15; h_lower=18; h_upper=40}
! Header version: 2018
! Port assignment regex: !\s*Touchstone port\s*([0-9]+)\s*=\s*(CST MWS port|CST DS port)\s*([0-9]+|Zmin|Zmax)\s*\(\"(.*)\"\)(\s*mode\s*([0-9]+))?.*
! Touchstone port assignment:
! Touchstone port 1 = CST MWS port 1 ("")
! Touchstone port 2 = CST MWS port 2 ("")
# GHz S DB R 50
0.5                    -0.132008        -122.306         -62.7941         137.589         -62.7941         137.589       -0.0074795         151.111
0.501                  -0.122882        -122.726         -62.7833         136.453         -62.7832         136.453      -0.00754907         151.046
0.502                  -0.114087        -123.151          -62.772         135.298         -62.7717         135.298      -0.00761936         150.981
0.503                  -0.105633         -123.58           -62.76         134.124         -62.7596         134.124      -0.00769037         150.915
0.504                 -0.0975272        -124.013         -62.7473          132.93         -62.7468          132.93       -0.0077621          150.85
0.505                 -0.0897808         -124.45         -62.7339         131.716         -62.7333         131.716      -0.00783456         150.784
0.506                 -0.0824032        -124.891         -62.7197         130.482         -62.7189         130.482      -0.00790775         150.718
0.507                  -0.075404        -125.337         -62.7047         129.227         -62.7038         129.227      -0.00798167         150.653
0.508                 -0.0687929        -125.787         -62.6887         127.951         -62.6877         127.951      -0.00805634         150.587
0.509                   -0.06258        -126.241         -62.6718         126.654         -62.6706         126.654      -0.00813174         150.521
0.51                   -0.056775        -126.699         -62.6539         125.334         -62.6525         125.334      -0.00820789         150.455
0.511                 -0.0513878        -127.161         -62.6348         123.992         -62.6333         123.992      -0.00828479         150.389
0.512                 -0.0464286        -127.627         -62.6145         122.626         -62.6129         122.627      -0.00836244         150.323
0.513                 -0.0419073        -128.098          -62.593         121.238         -62.5913         121.238      -0.00844086         150.256
0.514                  -0.037834        -128.572         -62.5702         119.826         -62.5683         119.826      -0.00852004          150.19
0.515                 -0.0342186        -129.051         -62.5459         118.389         -62.5439          118.39      -0.00859999         150.124
0.516                 -0.0310714        -129.533         -62.5201         116.928          -62.518         116.929      -0.00868071         150.057
0.517                 -0.0284024         -130.02         -62.4927         115.442         -62.4904         115.443      -0.00876221         149.991
0.518                 -0.0262216        -130.511         -62.4637         113.931         -62.4612         113.932      -0.00884449         149.924
0.519                 -0.0245391        -131.005         -62.4328         112.394         -62.4302         112.395      -0.00892757         149.857
0.52                  -0.0233651        -131.503            -62.4         110.832         -62.3972         110.833      -0.00901144          149.79
0.521                 -0.0227094        -132.006         -62.3652         109.243         -62.3623         109.244      -0.00909611         149.724
0.522                  -0.022582        -132.512         -62.3282         107.627         -62.3252         107.629      -0.00918159         149.657
0.523                  -0.022993        -133.022         -62.2891         105.985         -62.2859         105.987      -0.00926788          149.59
0.524                 -0.0239521        -133.536         -62.2476         104.315         -62.2443         104.317      -0.00935499         149.522
0.525                 -0.0254692        -134.053         -62.2036         102.619         -62.2001         102.621      -0.00944293         149.455
0.526                  -0.027554        -134.574          -62.157         100.895         -62.1534         100.897       -0.0095317         149.388
0.527                 -0.0302162        -135.099         -62.1076         99.1432         -62.1039         99.1462      -0.00962131          149.32
0.528                 -0.0334652        -135.628         -62.0555          97.364         -62.0516         97.3674      -0.00971177         149.253
0.529                 -0.0373106         -136.16         -62.0003         95.5572         -61.9963          95.561      -0.00980308         149.185
0.53                  -0.0417617        -136.695          -61.942         93.7227         -61.9379         93.7269      -0.00989525         149.118
0.531                 -0.0468277        -137.235         -61.8805         91.8606         -61.8763         91.8651      -0.00998829          149.05
0.532                 -0.0525177        -137.777         -61.8156          89.971         -61.8113         89.9759       -0.0100822         148.982
0.533                 -0.0588406        -138.323         -61.7472          88.054         -61.7428         88.0593        -0.010177         148.914
0.534                 -0.0658051        -138.872         -61.6752         86.1098         -61.6706         86.1156       -0.0102727         148.846
0.535                 -0.0734199        -139.425         -61.5994         84.1387         -61.5947         84.1448       -0.0103693         148.778
0.536                 -0.0816935        -139.981         -61.5198         82.1409          -61.515         82.1475       -0.0104668          148.71
0.537                 -0.0906341        -140.539         -61.4361         80.1168         -61.4312         80.1239       -0.0105652         148.641
0.538                   -0.10025        -141.102         -61.3483         78.0668         -61.3434         78.0744       -0.0106646         148.573
0.539                  -0.110548        -141.667         -61.2564         75.9914         -61.2513         75.9995       -0.0107649         148.504
0.54                   -0.121537        -142.235         -61.1601         73.8911          -61.155         73.8996       -0.0108661         148.435
0.541                  -0.133225        -142.806         -61.0594         71.7664         -61.0542         71.7754       -0.0109683         148.367
0.542                  -0.145617         -143.38         -60.9542          69.618          -60.949         69.6275       -0.0110714         148.298
0.543                  -0.158722        -143.956         -60.8445         67.4464         -60.8392         67.4564       -0.0111756         148.229
0.544                  -0.172545        -144.536         -60.7302         65.2524         -60.7248         65.2628       -0.0112807          148.16
0.545                  -0.187094        -145.118         -60.6111         63.0367         -60.6057         63.0475       -0.0113868         148.091
0.546                  -0.202374        -145.703         -60.4874            60.8         -60.4819         60.8113        -0.011494         148.021
0.547                  -0.218393         -146.29         -60.3589          58.543         -60.3534         58.5548       -0.0116021         147.952
0.548                  -0.235154        -146.879         -60.2257         56.2667         -60.2201         56.2788       -0.0117113         147.882
0.549                  -0.252664        -147.472         -60.0877         53.9717         -60.0821         53.9842       -0.0118215         147.813
0.55                   -0.270928        -148.066          -59.945         51.6588         -59.9394         51.6718       -0.0119328         147.743
0.551                   -0.28995        -148.663         -59.7975          49.329         -59.7919         49.3423       -0.0120452         147.673
0.552                  -0.309735        -149.262         -59.6454         46.9829         -59.6398         46.9965       -0.0121587         147.603
0.553                  -0.330288        -149.863         -59.4887         44.6214         -59.4831         44.6352       -0.0122732         147.533
0.554                  -0.351612        -150.466         -59.3275         42.2451         -59.3219         42.2593       -0.0123889         147.463
0.555                  -0.373711        -151.071         -59.1617          39.855         -59.1562         39.8694       -0.0125057         147.393
0.556                  -0.396588        -151.677         -58.9917         37.4516         -58.9862         37.4662       -0.0126236         147.322
0.557                  -0.420247        -152.286         -58.8174         35.0356         -58.8119         35.0504       -0.0127427         147.252
0.558                  -0.444689        -152.897          -58.639         32.6077         -58.6335         32.6226        -0.012863         147.181
0.559                  -0.469918        -153.509         -58.4566         30.1686         -58.4512         30.1835       -0.0129844          147.11
0.56                   -0.495935        -154.123         -58.2705         27.7186         -58.2651         27.7336       -0.0131071         147.039
0.561                  -0.522742        -154.738         -58.0807         25.2584         -58.0753         25.2734       -0.0132309         146.968
0.562                  -0.550341        -155.355         -57.8874         22.7884         -57.8821         22.8034        -0.013356         146.897
0.563                  -0.578733        -155.973         -57.6908          20.309         -57.6856         20.3239       -0.0134824         146.826
0.564                  -0.607918        -156.592         -57.4912         17.8206         -57.4861         17.8354         -0.01361         146.754
0.565                  -0.637898        -157.213         -57.2887         15.3235         -57.2836         15.3381        -0.013739         146.683
0.566                  -0.668672        -157.835         -57.0836          12.818         -57.0786         12.8324       -0.0138692         146.611
0.567                   -0.70024        -158.458          -56.876         10.3043          -56.871         10.3185       -0.0140008         146.539
0.568                  -0.732602        -159.082         -56.6662         7.78261         -56.6613         7.79652       -0.0141337         146.467
0.569                  -0.765758        -159.707         -56.4544         5.25307         -56.4497         5.26668        -0.014268         146.395
0.57                   -0.799706        -160.333          -56.241         2.71584         -56.2363          2.7291       -0.0144037         146.323
0.571                  -0.834446         -160.96          -56.026        0.171006         -56.0214        0.183894       -0.0145408         146.251
0.572                  -0.869976        -161.587         -55.8098        -2.38133         -55.8054        -2.36885       -0.0146794         146.178
0.573                  -0.906293        -162.216         -55.5927        -4.94111         -55.5883        -4.92906       -0.0148194         146.105
0.574                  -0.943397        -162.845         -55.3749        -7.50825         -55.3706        -7.49666       -0.0149609         146.033
0.575                  -0.981286        -163.474         -55.1566        -10.0827         -55.1524        -10.0716       -0.0151039          145.96
0.576                   -1.01996        -164.104         -54.9381        -12.6644          -54.934        -12.6538       -0.0152484         145.887
0.577                    -1.0594        -164.735         -54.7197        -15.2532         -54.7157        -15.2431       -0.0153945         145.813
0.578                   -1.09963        -165.366         -54.5016         -17.849         -54.4978        -17.8395       -0.0155422          145.74
0.579                   -1.14063        -165.997         -54.2841        -20.4518         -54.2804        -20.4428       -0.0156915         145.667
0.58                     -1.1824        -166.629         -54.0674        -23.0613         -54.0639        -23.0529       -0.0158424         145.593
0.581                   -1.22493        -167.261         -53.8519        -25.6774         -53.8484        -25.6695        -0.015995         145.519
0.582                   -1.26823        -167.893         -53.6377        -28.2998         -53.6344        -28.2925       -0.0161493         145.445
0.583                   -1.31229        -168.526         -53.4251        -30.9282         -53.4219        -30.9215       -0.0163053         145.371
0.584                    -1.3571        -169.158         -53.2144        -33.5623         -53.2113        -33.5561       -0.0164631         145.297
0.585                   -1.40267        -169.791         -53.0057        -36.2017         -53.0028        -36.1961       -0.0166227         145.222
0.586                   -1.44898        -170.424         -52.7994         -38.846         -52.7966        -38.8409       -0.0167841         145.147
0.587                   -1.49604        -171.056         -52.5956        -41.4945         -52.5929        -41.4899       -0.0169474         145.073
0.588                   -1.54383        -171.689         -52.3944        -44.1468         -52.3919        -44.1428       -0.0171126         144.998
0.589                   -1.59236        -172.322         -52.1963        -46.8023         -52.1938        -46.7987       -0.0172796         144.923
0.59                    -1.64162        -172.955         -52.0012        -49.4601         -51.9989        -49.4571       -0.0174487         144.847
0.591                   -1.69161        -173.587         -51.8094        -52.1197         -51.8072        -52.1171       -0.0176198         144.772
0.592                   -1.74232         -174.22          -51.621        -54.7801          -51.619        -54.7779       -0.0177929         144.696
0.593                   -1.79375        -174.852         -51.4363        -57.4405         -51.4344        -57.4387        -0.017968          144.62
0.594                   -1.84588        -175.484         -51.2552        -60.1001         -51.2534        -60.0987       -0.0181453         144.544
0.595                   -1.89873        -176.116         -51.0779        -62.7578         -51.0763        -62.7567       -0.0183248         144.468
0.596                   -1.95229        -176.748         -50.9046        -65.4127         -50.9031         -65.412       -0.0185065         144.392
0.597                   -2.00654        -177.379         -50.7353        -68.0638         -50.7339        -68.0634       -0.0186904         144.315
0.598                   -2.06149         -178.01           -50.57        -70.7101         -50.5688          -70.71       -0.0188767         144.239
0.599                   -2.11713        -178.641         -50.4088        -73.3506         -50.4077        -73.3506       -0.0190652         144.162
0.6                     -2.17346        -179.272         -50.2518        -75.9842         -50.2508        -75.9844       -0.0192562         144.084
0.601                   -2.23047        -179.903         -50.0989        -78.6098          -50.098        -78.6102       -0.0194496         144.007
0.602                   -2.28816         179.467         -49.9501        -81.2266         -49.9493        -81.2271       -0.0196455          143.93
0.603                   -2.34653         178.837         -49.8054        -83.8334         -49.8047        -83.8341       -0.0198439         143.852
0.604                   -2.40558         178.207         -49.6647        -86.4294         -49.6642        -86.4301        -0.020045         143.774
0.605                   -2.46529         177.577         -49.5281        -89.0137         -49.5276        -89.0144       -0.0202487         143.696
0.606                   -2.52567         176.948         -49.3954        -91.5853          -49.395         -91.586       -0.0204551         143.618
0.607                   -2.58672         176.318         -49.2665        -94.1434         -49.2663        -94.1441       -0.0206643         143.539
0.608                   -2.64843         175.689         -49.1414        -96.6873         -49.1412         -96.688       -0.0208763          143.46
0.609                    -2.7108          175.06         -49.0199        -99.2162         -49.0199        -99.2169       -0.0210911         143.382
0.61                    -2.77383         174.431          -48.902         -101.73          -48.902         -101.73        -0.021309         143.302
0.611                   -2.83751         173.803         -48.7874        -104.227         -48.7875        -104.227       -0.0215298         143.223
0.612                   -2.90185         173.174         -48.6762        -106.707         -48.6764        -106.708       -0.0217537         143.143
0.613                   -2.96685         172.545         -48.5681        -109.171         -48.5683        -109.171       -0.0219808         143.064
0.614                    -3.0325         171.917         -48.4629        -111.617         -48.4632        -111.617       -0.0222111         142.984
0.615                   -3.09881         171.288         -48.3606        -114.046          -48.361        -114.046       -0.0224446         142.903
0.616                   -3.16577          170.66          -48.261        -116.456         -48.2614        -116.456       -0.0226816         142.823
0.617                   -3.23339         170.031          -48.164        -118.849         -48.1644        -118.848       -0.0229219         142.742
0.618                   -3.30167         169.402         -48.0693        -121.223         -48.0698        -121.223       -0.0231657         142.661
0.619                   -3.37061         168.773         -47.9769        -123.579         -47.9774        -123.579       -0.0234131          142.58
0.62                    -3.44021         168.144         -47.8866        -125.917         -47.8871        -125.917       -0.0236642         142.498
0.621                   -3.51047         167.514         -47.7982        -128.238         -47.7987        -128.237        -0.023919         142.417
0.622                   -3.58141         166.884         -47.7115         -130.54         -47.7121        -130.539       -0.0241776         142.335
0.623                   -3.65302         166.254         -47.6266        -132.825         -47.6271        -132.824       -0.0244401         142.253
0.624                    -3.7253         165.623         -47.5431        -135.092         -47.5437        -135.091       -0.0247065          142.17
0.625                   -3.79828         164.992          -47.461        -137.343         -47.4616        -137.342       -0.0249771         142.088
0.626                   -3.87194          164.36         -47.3802        -139.577         -47.3808        -139.575       -0.0252517         142.005
0.627                    -3.9463         163.727         -47.3004        -141.794          -47.301        -141.793       -0.0255306         141.921
0.628                   -4.02137         163.094         -47.2217        -143.996         -47.2222        -143.995       -0.0258138         141.838
0.629                   -4.09715          162.46         -47.1438        -146.183         -47.1443        -146.181       -0.0261014         141.754
