! TOUCHSTONE file generated by CST MICROWAVE STUDIO
! Date and time: Sat Oct 24 11:17:17 2020
! Project name: Scenario_1_Circular_Tissue_in_Line.cst
! Parameters = {L_HA=400; MT=2.54; Rad_Dielectric=30; Rad_Lower=7.3; Rad_Upper=30; a_HA=580; a_WG=246; b_HA=500; b_WG=121; c_HA=0; c_WG=187; d_feed=85; dx1=813.84; h_feed=15; h_lower=18; h_upper=40}
! Header version: 2018
! Port assignment regex: !\s*Touchstone port\s*([0-9]+)\s*=\s*(CST MWS port|CST DS port)\s*([0-9]+|Zmin|Zmax)\s*\(\"(.*)\"\)(\s*mode\s*([0-9]+))?.*
! Touchstone port assignment:
! Touchstone port 1 = CST MWS port 1 ("")
! Touchstone port 2 = CST MWS port 2 ("")
# GHz S DB R 50
0.5                    -0.132528        -122.383         -62.7804          128.35         -62.7804          128.35      -0.00744865          151.12
0.501                   -0.13316        -122.824         -62.7714         125.994         -62.7714         125.994      -0.00752334         151.055
0.502                  -0.134039        -123.268         -62.7564         123.616         -62.7566         123.616      -0.00759875          150.99
0.503                   -0.13517        -123.715         -62.7354         121.217         -62.7357         121.217      -0.00767489         150.924
0.504                  -0.136558        -124.163         -62.7083           118.8         -62.7086           118.8      -0.00775175         150.859
0.505                  -0.138207        -124.614         -62.6748         116.366         -62.6752         116.365      -0.00782933         150.793
0.506                  -0.140122        -125.068         -62.6349         113.918         -62.6354         113.917      -0.00790763         150.727
0.507                  -0.142309        -125.524         -62.5886         111.456         -62.5891         111.455      -0.00798666         150.661
0.508                  -0.144772        -125.982         -62.5359         108.984         -62.5364         108.983      -0.00806641         150.596
0.509                  -0.147515        -126.442         -62.4766         106.504         -62.4772         106.503      -0.00814689          150.53
0.51                   -0.150545        -126.905         -62.4109         104.018         -62.4115         104.016       -0.0082281         150.464
0.511                  -0.153866         -127.37         -62.3388         101.527         -62.3395         101.525      -0.00831003         150.398
0.512                  -0.157483        -127.838         -62.2603         99.0344          -62.261         99.0318      -0.00839269         150.331
0.513                  -0.161401        -128.308         -62.1757         96.5415         -62.1764         96.5385      -0.00847607         150.265
0.514                  -0.165626         -128.78         -62.0849         94.0504         -62.0856         94.0471      -0.00856019         150.199
0.515                  -0.170162        -129.254         -61.9881         91.5628         -61.9889         91.5593      -0.00864503         150.133
0.516                  -0.175014        -129.731         -61.8856         89.0806         -61.8864         89.0768      -0.00873061         150.066
0.517                  -0.180189         -130.21         -61.7775         86.6053         -61.7783         86.6012      -0.00881692             150
0.518                   -0.18569        -130.692          -61.664         84.1384         -61.6648         84.1339      -0.00890396         149.933
0.519                  -0.191524        -131.176         -61.5453         81.6812         -61.5461         81.6765      -0.00899174         149.866
0.52                   -0.197695        -131.662         -61.4217         79.2349         -61.4225           79.23      -0.00908025         149.799
0.521                  -0.204209         -132.15         -61.2934         76.8006         -61.2941         76.7954       -0.0091695         149.733
0.522                  -0.211071        -132.641         -61.1606         74.3793         -61.1613         74.3739      -0.00925949         149.666
0.523                  -0.218286        -133.134         -61.0237         71.9716         -61.0244          71.966      -0.00935022         149.599
0.524                   -0.22586        -133.629         -60.8828         69.5783         -60.8834         69.5725      -0.00944169         149.531
0.525                  -0.233797        -134.127         -60.7381         67.1998         -60.7388         67.1939      -0.00953391         149.464
0.526                  -0.242104        -134.627         -60.5901         64.8366         -60.5907         64.8306      -0.00962687         149.397
0.527                  -0.250785        -135.128         -60.4389          62.489         -60.4394         62.4828      -0.00972058          149.33
0.528                  -0.259846        -135.633         -60.2847          60.157         -60.2852         60.1507      -0.00981504         149.262
0.529                  -0.269292        -136.139         -60.1278         57.8407         -60.1283         57.8343      -0.00991026         149.195
0.53                   -0.279128        -136.648         -59.9685         55.5401          -59.969         55.5337       -0.0100062         149.127
0.531                   -0.28936        -137.159          -59.807          53.255         -59.8074         53.2486        -0.010103         149.059
0.532                  -0.299992        -137.671         -59.6434         50.9853         -59.6438         50.9788       -0.0102004         148.991
0.533                  -0.311031        -138.187         -59.4781         48.7305         -59.4784         48.7241       -0.0102987         148.923
0.534                   -0.32248        -138.704         -59.3111         46.4905         -59.3114          46.484       -0.0103977         148.855
0.535                  -0.334346        -139.223         -59.1428         44.2646          -59.143         44.2582       -0.0104975         148.787
0.536                  -0.346633        -139.745         -58.9733         42.0526         -58.9735         42.0462       -0.0105981         148.719
0.537                  -0.359347        -140.268         -58.8027         39.8538         -58.8029         39.8475       -0.0106994         148.651
0.538                  -0.372493        -140.794         -58.6313         37.6678         -58.6314         37.6616       -0.0108015         148.582
0.539                  -0.386075        -141.321         -58.4592          35.494         -58.4592         35.4879       -0.0109044         148.514
0.54                     -0.4001        -141.851         -58.2865         33.3317         -58.2865         33.3257       -0.0110081         148.445
0.541                  -0.414571        -142.382         -58.1135         31.1804         -58.1134         31.1745       -0.0111126         148.376
0.542                  -0.429494        -142.916         -57.9401         29.0394         -57.9401         29.0336       -0.0112179         148.307
0.543                  -0.444873        -143.451         -57.7667         26.9081         -57.7666         26.9025        -0.011324         148.239
0.544                  -0.460714        -143.988         -57.5932         24.7859          -57.593         24.7804       -0.0114309         148.169
0.545                  -0.477021        -144.528         -57.4198         22.6721         -57.4196         22.6667       -0.0115386           148.1
0.546                  -0.493799        -145.069         -57.2466          20.566         -57.2464         20.5609       -0.0116471         148.031
0.547                  -0.511053        -145.611         -57.0737         18.4671         -57.0734         18.4621       -0.0117565         147.962
0.548                  -0.528787        -146.156         -56.9012         16.3747         -56.9009         16.3699       -0.0118667         147.892
0.549                  -0.547006        -146.702         -56.7292         14.2882         -56.7289         14.2835       -0.0119777         147.823
0.55                   -0.565714         -147.25         -56.5577         12.2069         -56.5574         12.2024       -0.0120896         147.753
0.551                  -0.584916          -147.8         -56.3869         10.1303         -56.3866          10.126       -0.0122024         147.683
0.552                  -0.604617        -148.351         -56.2168         8.05785         -56.2164         8.05369        -0.012316         147.613
0.553                  -0.624819        -148.904         -56.0475         5.98888         -56.0471          5.9849       -0.0124305         147.543
0.554                  -0.645529        -149.459         -55.8791         3.92289         -55.8786         3.91908       -0.0125458         147.473
0.555                   -0.66675        -150.015         -55.7116         1.85934         -55.7111         1.85571       -0.0126621         147.403
0.556                  -0.688485        -150.573          -55.545       -0.202287         -55.5445       -0.205734       -0.0127793         147.332
0.557                   -0.71074        -151.131         -55.3794        -2.26247         -55.3789        -2.26574       -0.0128974         147.262
0.558                  -0.733518        -151.692          -55.215         -4.3217         -55.2144        -4.32479       -0.0130164         147.191
0.559                  -0.756823        -152.253         -55.0516        -6.38042          -55.051        -6.38334       -0.0131363         147.121
0.56                   -0.780659        -152.816         -54.8894        -8.43906         -54.8888        -8.44181       -0.0132573          147.05
0.561                  -0.805029        -153.381         -54.7284         -10.498         -54.7278        -10.5006       -0.0133792         146.979
0.562                  -0.829939        -153.946         -54.5687        -12.5577         -54.5681        -12.5602        -0.013502         146.908
0.563                   -0.85539        -154.513         -54.4102        -14.6185         -54.4096        -14.6208       -0.0136259         146.836
0.564                  -0.881388         -155.08         -54.2531        -16.6808         -54.2525        -16.6829       -0.0137509         146.765
0.565                  -0.907935        -155.649         -54.0974        -18.7448         -54.0967        -18.7467       -0.0138768         146.694
0.566                  -0.935036        -156.218          -53.943        -20.8109         -53.9423        -20.8127       -0.0140038         146.622
0.567                  -0.962694        -156.789           -53.79        -22.8793         -53.7893        -22.8809       -0.0141319          146.55
0.568                  -0.990912         -157.36         -53.6385        -24.9504         -53.6378        -24.9518       -0.0142611         146.478
0.569                    -1.0197        -157.932         -53.4884        -27.0242         -53.4877        -27.0256       -0.0143915         146.406
0.57                    -1.04905        -158.504         -53.3399        -29.1012         -53.3392        -29.1024        -0.014523         146.334
0.571                   -1.07897        -159.077         -53.1928        -31.1814         -53.1921        -31.1826       -0.0146557         146.262
0.572                   -1.10947        -159.651         -53.0473        -33.2651         -53.0466        -33.2661       -0.0147895         146.189
0.573                   -1.14056        -160.225         -52.9033        -35.3524         -52.9026        -35.3533       -0.0149247         146.117
0.574                   -1.17223        -160.799         -52.7609        -37.4434         -52.7603        -37.4442       -0.0150611         146.044
0.575                   -1.20449        -161.373         -52.6201        -39.5383         -52.6195         -39.539       -0.0151988         145.971
0.576                   -1.23735        -161.948          -52.481        -41.6371         -52.4803        -41.6377       -0.0153378         145.898
0.577                   -1.27081        -162.522         -52.3434          -43.74         -52.3427        -43.7404       -0.0154783         145.825
0.578                   -1.30488        -163.096         -52.2074        -45.8469         -52.2067        -45.8473       -0.0156201         145.751
0.579                   -1.33957        -163.669         -52.0731         -47.958         -52.0724        -47.9583       -0.0157634         145.678
0.58                    -1.37488        -164.242         -51.9404        -50.0732         -51.9397        -50.0734       -0.0159082         145.604
0.581                   -1.41083        -164.815         -51.8093        -52.1926         -51.8087        -52.1928       -0.0160545         145.531
0.582                   -1.44743        -165.386         -51.6799        -54.3162         -51.6793        -54.3163       -0.0162025         145.457
0.583                    -1.4847        -165.956         -51.5522        -56.4439         -51.5515        -56.4439        -0.016352         145.382
0.584                   -1.52264        -166.525         -51.4261        -58.5757         -51.4255        -58.5756       -0.0165033         145.308
0.585                   -1.56129        -167.092         -51.3016        -60.7115          -51.301        -60.7114       -0.0166563         145.234
0.586                   -1.60065        -167.657         -51.1788        -62.8514         -51.1782        -62.8512       -0.0168111         145.159
0.587                   -1.64077        -168.219         -51.0577        -64.9951         -51.0571        -64.9949       -0.0169677         145.084
0.588                   -1.68168        -168.779         -50.9381        -67.1426         -50.9376        -67.1424       -0.0171263         145.009
0.589                   -1.72341        -169.336         -50.8202        -69.2939         -50.8197        -69.2936       -0.0172868         144.934
0.59                    -1.76603         -169.89         -50.7039        -71.4488         -50.7034        -71.4485       -0.0174493         144.859
0.591                    -1.8096        -170.439         -50.5892        -73.6071         -50.5887        -73.6068        -0.017614         144.784
0.592                   -1.85419        -170.984         -50.4761        -75.7688         -50.4756        -75.7685       -0.0177808         144.708
0.593                    -1.8999        -171.524         -50.3646        -77.9337         -50.3641        -77.9334       -0.0179498         144.632
0.594                   -1.94686        -172.057         -50.2546        -80.1017         -50.2541        -80.1013       -0.0181211         144.556
0.595                   -1.99523        -172.585         -50.1461        -82.2726         -50.1456        -82.2722       -0.0182948          144.48
0.596                   -2.04519        -173.104         -50.0392        -84.4463         -50.0387        -84.4459       -0.0184709         144.404
0.597                   -2.09699        -173.616         -49.9337        -86.6225         -49.9333        -86.6221       -0.0186495         144.327
0.598                   -2.15095        -174.119         -49.8297        -88.8012         -49.8293        -88.8008       -0.0188306          144.25
0.599                   -2.20745        -174.612         -49.7271        -90.9822         -49.7267        -90.9818       -0.0190145         144.173
0.6                     -2.26698        -175.096          -49.626        -93.1652         -49.6256        -93.1648        -0.019201         144.096
0.601                   -2.33016        -175.569         -49.5262        -95.3502         -49.5258        -95.3498       -0.0193903         144.019
0.602                   -2.39776        -176.033         -49.4278        -97.5369         -49.4274        -97.5365       -0.0195825         143.941
0.603                   -2.47069         -176.49         -49.3307        -99.7251         -49.3304        -99.7247       -0.0197775         143.864
0.604                   -2.55004        -176.943         -49.2349        -101.915         -49.2346        -101.914       -0.0199756         143.786
0.605                   -2.63702        -177.399         -49.1403        -104.106           -49.14        -104.105       -0.0201768         143.708
0.606                   -2.73284        -177.868          -49.047        -106.298         -49.0467        -106.297       -0.0203811         143.629
0.607                   -2.83847        -178.366         -48.9548        -108.491         -48.9546         -108.49       -0.0205886         143.551
0.608                   -2.95421        -178.914         -48.8638        -110.684         -48.8636        -110.684       -0.0207993         143.472
0.609                   -3.07914        -179.538         -48.7739        -112.878         -48.7737        -112.878       -0.0210134         143.393
0.61                    -3.21043         179.735         -48.6851        -115.073         -48.6849        -115.073       -0.0212309         143.314
0.611                   -3.34302         178.884         -48.5973        -117.268         -48.5971        -117.268       -0.0214519         143.235
0.612                   -3.47012         177.903         -48.5104        -119.463         -48.5103        -119.463       -0.0216764         143.155
0.613                   -3.58458          176.81         -48.4246        -121.658         -48.4244        -121.658       -0.0219045         143.075
0.614                   -3.68106         175.642         -48.3396        -123.853         -48.3394        -123.853       -0.0221362         142.995
0.615                   -3.75756         174.449         -48.2554        -126.048         -48.2553        -126.048       -0.0223715         142.915
0.616                    -3.8156         173.277         -48.1721        -128.242          -48.172        -128.242       -0.0226107         142.834
0.617                   -3.85911          172.16         -48.0895        -130.436         -48.0895        -130.435       -0.0228536         142.754
0.618                   -3.89288         171.113         -48.0077        -132.628         -48.0077        -132.628       -0.0231004         142.673
0.619                   -3.92135         170.141         -47.9266         -134.82         -47.9266         -134.82       -0.0233511         142.592
0.62                    -3.94797         169.237         -47.8462         -137.01         -47.8461         -137.01       -0.0236057          142.51
0.621                   -3.97512          168.39         -47.7663          -139.2         -47.7663          -139.2       -0.0238643         142.428
0.622                   -4.00431         167.592         -47.6871        -141.388         -47.6871        -141.388       -0.0241269         142.347
0.623                   -4.03635          166.83         -47.6084        -143.575         -47.6084        -143.575       -0.0243936         142.264
0.624                   -4.07164         166.097         -47.5302         -145.76         -47.5303         -145.76       -0.0246645         142.182
0.625                   -4.11026         165.386         -47.4526        -147.944         -47.4526        -147.944       -0.0249395         142.099
0.626                   -4.15218         164.691         -47.3753        -150.127         -47.3754        -150.127       -0.0252187         142.016
0.627                   -4.19724         164.008         -47.2985        -152.307         -47.2985        -152.307       -0.0255022         141.933
0.628                   -4.24525         163.333          -47.222        -154.486         -47.2221        -154.486         -0.02579          141.85
0.629                   -4.29604         162.663         -47.1459        -156.663          -47.146        -156.663       -0.0260821         141.766
