! TOUCHSTONE file generated by CST MICROWAVE STUDIO
! Date and time: Sat Oct 24 11:17:23 2020
! Project name: Scenario_1_Circular_Tissue_in_Line.cst
! Parameters = {L_HA=400; MT=2.54; Rad_Dielectric=30; Rad_Lower=7.3; Rad_Upper=30; a_HA=580; a_WG=246; b_HA=500; b_WG=121; c_HA=0; c_WG=187; d_feed=85; dx1=831.16; h_feed=15; h_lower=18; h_upper=40}
! Header version: 2018
! Port assignment regex: !\s*Touchstone port\s*([0-9]+)\s*=\s*(CST MWS port|CST DS port)\s*([0-9]+|Zmin|Zmax)\s*\(\"(.*)\"\)(\s*mode\s*([0-9]+))?.*
! Touchstone port assignment:
! Touchstone port 1 = CST MWS port 1 ("")
! Touchstone port 2 = CST MWS port 2 ("")
# GHz S DB R 50
0.5                    -0.134715        -122.406         -62.7411         119.027         -62.7411         119.032      -0.00742596         151.115
0.501                  -0.143533        -122.838         -62.5274         117.754         -62.5283         117.764      -0.00749972         151.049
0.502                  -0.152432        -123.272         -62.3102          116.44         -62.3119         116.456      -0.00757418         150.984
0.503                  -0.161414        -123.707         -62.0897         115.084         -62.0922         115.106      -0.00764934         150.919
0.504                  -0.170479        -124.144         -61.8659         113.684         -61.8693         113.712      -0.00772519         150.853
0.505                  -0.179627        -124.582         -61.6392         112.238         -61.6432         112.273      -0.00780174         150.787
0.506                  -0.188859        -125.022         -61.4097         110.745         -61.4143         110.786        -0.007879         150.722
0.507                  -0.198175        -125.463         -61.1775         109.202         -61.1828         109.249      -0.00795696         150.656
0.508                  -0.207576        -125.905          -60.943         107.608         -60.9488         107.662      -0.00803563          150.59
0.509                  -0.217063        -126.349         -60.7064         105.961         -60.7126         106.022      -0.00811501         150.524
0.51                   -0.226635        -126.795         -60.4681         104.259         -60.4747         104.327      -0.00819511         150.458
0.511                  -0.236295        -127.242         -60.2283         102.502         -60.2352         102.577      -0.00827592         150.392
0.512                  -0.246043        -127.692         -59.9876         100.686         -59.9947         100.769      -0.00835746         150.326
0.513                   -0.25588        -128.142         -59.7463         98.8125         -59.7534         98.9023      -0.00843971          150.26
0.514                  -0.265807        -128.595         -59.5048         96.8785          -59.512         96.9755      -0.00852269         150.194
0.515                  -0.275825        -129.049         -59.2637         94.8837         -59.2708         94.9877       -0.0086064         150.127
0.516                  -0.285937        -129.505         -59.0234         92.8273         -59.0304         92.9381      -0.00869084         150.061
0.517                  -0.296142        -129.963         -58.7847         90.7089         -58.7913         90.8264      -0.00877601         149.994
0.518                  -0.306443        -130.422         -58.5479         88.5286         -58.5542         88.6525      -0.00886192         149.928
0.519                  -0.316842        -130.884         -58.3138         86.2867         -58.3197         86.4165      -0.00894858         149.861
0.52                    -0.32734        -131.348          -58.083         83.9838         -58.0883         84.1192      -0.00903597         149.794
0.521                  -0.337939        -131.813         -57.8561         81.6212         -57.8608         81.7616      -0.00912411         149.727
0.522                  -0.348641        -132.281         -57.6338         79.2006         -57.6377         79.3454        -0.009213          149.66
0.523                  -0.359449         -132.75         -57.4167         76.7241         -57.4198         76.8727      -0.00930264         149.593
0.524                  -0.370365        -133.222         -57.2055         74.1943         -57.2077          74.346      -0.00939304         149.526
0.525                  -0.381392        -133.696         -57.0006         71.6144         -57.0019         71.7685      -0.00948419         149.459
0.526                  -0.392532        -134.172         -56.8028         68.9882         -56.8031         69.1439      -0.00957611         149.392
0.527                  -0.403788        -134.651         -56.6124         66.3196         -56.6117         66.4761      -0.00966879         149.324
0.528                  -0.415163        -135.131         -56.4299         63.6133         -56.4283         63.7697      -0.00976224         149.257
0.529                  -0.426662        -135.614         -56.2557         60.8743         -56.2531         61.0297      -0.00985646         149.189
0.53                   -0.438286          -136.1         -56.0901         58.1076         -56.0865         58.2613      -0.00995145         149.122
0.531                  -0.450041        -136.587         -55.9333         55.3188         -55.9287           55.47       -0.0100472         149.054
0.532                   -0.46193        -137.078         -55.7852         52.5133         -55.7797         52.6612       -0.0101438         148.986
0.533                  -0.473958         -137.57         -55.6461         49.6969         -55.6397         49.8408       -0.0102411         148.918
0.534                  -0.486129        -138.066         -55.5157          46.875         -55.5086         47.0142       -0.0103392          148.85
0.535                  -0.498448        -138.564         -55.3939         44.0529          -55.386          44.187       -0.0104381         148.782
0.536                   -0.51092        -139.065         -55.2804         41.2359         -55.2719         41.3643       -0.0105378         148.714
0.537                  -0.523551        -139.568         -55.1748         38.4287         -55.1658          38.551       -0.0106383         148.645
0.538                  -0.536346        -140.074         -55.0768         35.6357         -55.0674         35.7517       -0.0107396         148.577
0.539                  -0.549312        -140.584         -54.9859          32.861         -54.9761         32.9704       -0.0108417         148.508
0.54                   -0.562455        -141.096         -54.9014          30.108         -54.8914         30.2107       -0.0109446          148.44
0.541                  -0.575783        -141.611          -54.823         27.3798         -54.8128         27.4758       -0.0110483         148.371
0.542                  -0.589302        -142.129           -54.75          24.679         -54.7397         24.7682       -0.0111529         148.302
0.543                   -0.60302         -142.65         -54.6817         22.0075         -54.6715         22.0901       -0.0112582         148.233
0.544                  -0.616945        -143.174         -54.6176         19.3669         -54.6075          19.443       -0.0113644         148.164
0.545                  -0.631086        -143.702         -54.5572         16.7584         -54.5472         16.8283       -0.0114714         148.095
0.546                  -0.645453        -144.232         -54.4997         14.1827           -54.49         14.2465       -0.0115792         148.026
0.547                  -0.660055        -144.767         -54.4448           11.64         -54.4353          11.698       -0.0116878         147.957
0.548                  -0.674902        -145.304         -54.3917         9.13034         -54.3825         9.18289       -0.0117973         147.887
0.549                  -0.690005        -145.845         -54.3401         6.65336         -54.3313         6.70074       -0.0119076         147.818
0.55                   -0.705376         -146.39         -54.2894         4.20845          -54.281           4.251       -0.0120188         147.748
0.551                  -0.721026        -146.938         -54.2393         1.79479         -54.2313         1.83283       -0.0121308         147.678
0.552                  -0.736968         -147.49         -54.1892       -0.588659         -54.1817       -0.554803       -0.0122437         147.608
0.553                  -0.753216        -148.045         -54.1389        -2.94308         -54.1318        -2.91308       -0.0123574         147.538
0.554                  -0.769784        -148.604          -54.088        -5.26977         -54.0814        -5.24331        -0.012472         147.468
0.555                  -0.786686        -149.167         -54.0362        -7.57015         -54.0301        -7.54692       -0.0125875         147.398
0.556                  -0.803938        -149.734         -53.9833        -9.84569         -53.9776        -9.82539       -0.0127038         147.327
0.557                  -0.821557        -150.305          -53.929        -12.0979         -53.9237        -12.0803        -0.012821         147.257
0.558                  -0.839559         -150.88         -53.8731        -14.3284         -53.8683        -14.3131       -0.0129392         147.186
0.559                  -0.857964        -151.459         -53.8154        -16.5387          -53.811        -16.5255       -0.0130582         147.115
0.56                    -0.87679        -152.043         -53.7558        -18.7304         -53.7519        -18.7191       -0.0131781         147.045
0.561                  -0.896057         -152.63         -53.6941         -20.905         -53.6906        -20.8955        -0.013299         146.974
0.562                  -0.915785        -153.222         -53.6303        -23.0642         -53.6272        -23.0561       -0.0134208         146.902
0.563                  -0.935998        -153.817         -53.5643        -25.2094         -53.5616        -25.2026       -0.0135435         146.831
0.564                  -0.956717        -154.418          -53.496        -27.3421         -53.4937        -27.3364       -0.0136672          146.76
0.565                  -0.977967        -155.022         -53.4254        -29.4637         -53.4234        -29.4589       -0.0137919         146.688
0.566                  -0.999773        -155.631         -53.3524        -31.5757         -53.3508        -31.5717       -0.0139176         146.617
0.567                   -1.02216        -156.244         -53.2771        -33.6794         -53.2757        -33.6761       -0.0140443         146.545
0.568                   -1.04516        -156.862         -53.1994         -35.776         -53.1983        -35.7733        -0.014172         146.473
0.569                   -1.06879        -157.484         -53.1193         -37.867         -53.1186        -37.8647       -0.0143008         146.401
0.57                    -1.09309        -158.111          -53.037        -39.9533         -53.0365        -39.9514       -0.0144306         146.329
0.571                   -1.11808        -158.742         -52.9523        -42.0363          -52.952        -42.0346       -0.0145616         146.257
0.572                    -1.1438        -159.377         -52.8655        -44.1169         -52.8654        -44.1155       -0.0146937         146.184
0.573                   -1.17029        -160.017         -52.7764        -46.1963         -52.7765         -46.195        -0.014827         146.111
0.574                   -1.19756        -160.661         -52.6853        -48.2754         -52.6856        -48.2742       -0.0149615         146.039
0.575                   -1.22566         -161.31         -52.5921        -50.3551         -52.5925        -50.3539       -0.0150973         145.966
0.576                   -1.25462        -161.962         -52.4969        -52.4363         -52.4976        -52.4351       -0.0152343         145.893
0.577                   -1.28448        -162.619         -52.3999        -54.5199         -52.4007        -54.5187       -0.0153727          145.82
0.578                   -1.31527         -163.28         -52.3011        -56.6066          -52.302        -56.6053       -0.0155125         145.746
0.579                   -1.34703        -163.945         -52.2007        -58.6971         -52.2016        -58.6957       -0.0156537         145.673
0.58                    -1.37979        -164.614         -52.0986        -60.7921         -52.0997        -60.7906       -0.0157964         145.599
0.581                    -1.4136        -165.287         -51.9951        -62.8922         -51.9962        -62.8906       -0.0159406         145.525
0.582                   -1.44848        -165.963         -51.8902        -64.9979         -51.8914        -64.9962       -0.0160865         145.451
0.583                   -1.48448        -166.642         -51.7841        -67.1099         -51.7853         -67.108        -0.016234         145.377
0.584                   -1.52163        -167.325         -51.6768        -69.2284          -51.678        -69.2264       -0.0163834         145.303
0.585                   -1.55996         -168.01         -51.5685         -71.354         -51.5697        -71.3519       -0.0165345         145.228
0.586                    -1.5995        -168.698         -51.4593        -73.4869         -51.4605        -73.4847       -0.0166876         145.154
0.587                   -1.64029        -169.389         -51.3492        -75.6275         -51.3505        -75.6251       -0.0168426         145.079
0.588                   -1.68236        -170.082         -51.2386         -77.776         -51.2398        -77.7735       -0.0169997         145.004
0.589                   -1.72573        -170.776         -51.1273        -79.9326         -51.1286        -79.9301       -0.0171589         144.929
0.59                    -1.77043        -171.472         -51.0157        -82.0974         -51.0169        -82.0948       -0.0173204         144.854
0.591                   -1.81647        -172.169         -50.9037        -84.2706         -50.9049        -84.2679       -0.0174843         144.778
0.592                   -1.86388        -172.867         -50.7915        -86.4521         -50.7927        -86.4495       -0.0176505         144.702
0.593                   -1.91265        -173.565         -50.6793        -88.6421         -50.6804        -88.6393       -0.0178192         144.627
0.594                   -1.96281        -174.263         -50.5671        -90.8403         -50.5682        -90.8375       -0.0179905         144.551
0.595                   -2.01435         -174.96          -50.455        -93.0467         -50.4561         -93.044       -0.0181645         144.474
0.596                   -2.06726        -175.656         -50.3432        -95.2612         -50.3443        -95.2585       -0.0183412         144.398
0.597                   -2.12154        -176.351         -50.2318        -97.4835         -50.2328        -97.4808       -0.0185208         144.321
0.598                   -2.17717        -177.044         -50.1209        -99.7135         -50.1218        -99.7108       -0.0187033         144.245
0.599                   -2.23412        -177.734         -50.0105        -101.951         -50.0114        -101.948       -0.0188888         144.168
0.6                     -2.29236        -178.422         -49.9008        -104.195         -49.9016        -104.193       -0.0190773         144.091
0.601                   -2.35184        -179.106         -49.7918        -106.446         -49.7926        -106.444       -0.0192689         144.013
0.602                   -2.41253        -179.787         -49.6837        -108.703         -49.6844        -108.701       -0.0194638         143.936
0.603                   -2.47437         179.537         -49.5765        -110.966         -49.5771        -110.964       -0.0196619         143.858
0.604                   -2.53728         178.865         -49.4702        -113.235         -49.4709        -113.233       -0.0198633          143.78
0.605                   -2.60121         178.198          -49.365        -115.508         -49.3656        -115.506       -0.0200681         143.702
0.606                   -2.66608         177.536          -49.261        -117.786         -49.2615        -117.784       -0.0202763         143.624
0.607                    -2.7318         176.879          -49.158        -120.068         -49.1585        -120.066       -0.0204879         143.545
0.608                   -2.79829         176.227         -49.0563        -122.353         -49.0568        -122.351        -0.020703         143.466
0.609                   -2.86545         175.582         -48.9558         -124.64         -48.9562        -124.639       -0.0209216         143.387
0.61                    -2.93318         174.942         -48.8566        -126.931          -48.857        -126.929       -0.0211438         143.308
0.611                   -3.00139         174.307         -48.7587        -129.222          -48.759        -129.221       -0.0213695         143.229
0.612                   -3.06998         173.679         -48.6621        -131.516         -48.6624        -131.514       -0.0215988         143.149
0.613                   -3.13885         173.055         -48.5668        -133.809         -48.5671        -133.808       -0.0218318         143.069
0.614                    -3.2079         172.437         -48.4729        -136.103         -48.4731        -136.102       -0.0220683         142.989
0.615                   -3.27704         171.823         -48.3802        -138.396         -48.3804        -138.395       -0.0223086         142.909
0.616                   -3.34617         171.214         -48.2889        -140.688          -48.289        -140.688       -0.0225525         142.829
0.617                   -3.41522         170.608         -48.1988        -142.979          -48.199        -142.979          -0.0228         142.748
0.618                    -3.4841         170.006           -48.11        -145.268         -48.1102        -145.268       -0.0230513         142.667
0.619                   -3.55275         169.407         -48.0225        -147.554         -48.0226        -147.554       -0.0233063         142.586
0.62                    -3.62111          168.81         -47.9362        -149.838         -47.9363        -149.838       -0.0235651         142.504
0.621                   -3.68913         168.214          -47.851        -152.118         -47.8511        -152.118       -0.0238276         142.423
0.622                   -3.75677         167.618          -47.767        -154.395         -47.7671        -154.395       -0.0240939         142.341
0.623                   -3.82402         167.022         -47.6841        -156.667         -47.6841        -156.667       -0.0243641         142.259
0.624                   -3.89086         166.425         -47.6022        -158.935         -47.6022        -158.935        -0.024638         142.176
0.625                   -3.95728         165.827         -47.5213        -161.199         -47.5213        -161.199       -0.0249159         142.094
0.626                   -4.02332         165.225         -47.4413        -163.458         -47.4413        -163.458       -0.0251976         142.011
0.627                   -4.08899          164.62         -47.3622        -165.711         -47.3622        -165.711       -0.0254833         141.928
0.628                   -4.15433          164.01         -47.2839        -167.959         -47.2839         -167.96        -0.025773         141.844
0.629                    -4.2194         163.395         -47.2064        -170.202         -47.2064        -170.202       -0.0260668         141.761
