! TOUCHSTONE file generated by CST MICROWAVE STUDIO
! Date and time: Sat Oct 24 11:10:51 2020
! Project name: Scenario_1_Circular_Tissue_in_Line.cst
! Parameters = {L_HA=400; MT=2.54; Rad_Dielectric=30; Rad_Lower=7.3; Rad_Upper=30; a_HA=580; a_WG=246; b_HA=500; b_WG=121; c_HA=0; c_WG=187; d_feed=85; dx1=224.96; h_feed=15; h_lower=18; h_upper=40}
! Header version: 2018
! Port assignment regex: !\s*Touchstone port\s*([0-9]+)\s*=\s*(CST MWS port|CST DS port)\s*([0-9]+|Zmin|Zmax)\s*\(\"(.*)\"\)(\s*mode\s*([0-9]+))?.*
! Touchstone port assignment:
! Touchstone port 1 = CST MWS port 1 ("")
! Touchstone port 2 = CST MWS port 2 ("")
# GHz S DB R 50
0.5                    -0.130573        -122.699         -56.7896         107.202         -56.7896         107.202      -0.00723535         151.147
0.501                  -0.136852        -123.152         -56.5703         106.071         -56.5703         106.071       -0.0072969         151.082
0.502                  -0.143453        -123.608         -56.3502         104.919         -56.3502         104.919       -0.0073596         151.016
0.503                  -0.150391        -124.066         -56.1295         103.745         -56.1295         103.746       -0.0074235         150.951
0.504                   -0.15768        -124.527         -55.9081          102.55         -55.9081          102.55      -0.00748866         150.885
0.505                  -0.165334         -124.99         -55.6863         101.332         -55.6863         101.333      -0.00755514          150.82
0.506                   -0.17337        -125.455         -55.4641         100.092         -55.4641         100.093        -0.007623         150.754
0.507                  -0.181802        -125.922         -55.2415         98.8292         -55.2415         98.8302      -0.00769231         150.688
0.508                  -0.190646        -126.392         -55.0188         97.5426         -55.0188         97.5437      -0.00776314         150.622
0.509                  -0.199915        -126.864         -54.7961         96.2323         -54.7961         96.2333      -0.00783556         150.556
0.51                   -0.209626        -127.338         -54.5734         94.8977         -54.5734         94.8988      -0.00790965          150.49
0.511                  -0.219793        -127.814         -54.3509         93.5386         -54.3509         93.5397      -0.00798548         150.424
0.512                  -0.230429        -128.292         -54.1288         92.1547         -54.1287         92.1559      -0.00806312         150.358
0.513                  -0.241548        -128.772         -53.9071         90.7458         -53.9071         90.7469      -0.00814266         150.292
0.514                  -0.253161        -129.253         -53.6861         89.3116         -53.6861         89.3127      -0.00822417         150.225
0.515                  -0.265281        -129.735         -53.4659          87.852         -53.4659         87.8531      -0.00830773         150.159
0.516                  -0.277915        -130.219         -53.2467         86.3668         -53.2467         86.3679      -0.00839342         150.092
0.517                  -0.291074        -130.705         -53.0286         84.8561         -53.0286         84.8571      -0.00848131         150.026
0.518                  -0.304763        -131.191         -52.8119         83.3198         -52.8118         83.3208      -0.00857147         149.959
0.519                  -0.318985        -131.678         -52.5966         81.7581         -52.5966          81.759      -0.00866398         149.892
0.52                   -0.333743        -132.166         -52.3831          80.171          -52.383         80.1719      -0.00875889         149.825
0.521                  -0.349036        -132.654         -52.1714         78.5589         -52.1713         78.5597      -0.00885626         149.758
0.522                   -0.36486        -133.142         -51.9618          76.922         -51.9618         76.9227      -0.00895614         149.691
0.523                  -0.381208         -133.63         -51.7545         75.2608         -51.7544         75.2615      -0.00905857         149.624
0.524                   -0.39807        -134.118         -51.5496         73.5758         -51.5496         73.5764      -0.00916359         149.557
0.525                   -0.41543        -134.606         -51.3474         71.8677         -51.3474         71.8682      -0.00927121          149.49
0.526                  -0.433273        -135.093         -51.1481          70.137          -51.148         70.1374      -0.00938144         149.422
0.527                  -0.451575        -135.579         -50.9518         68.3847         -50.9517          68.385      -0.00949428         149.355
0.528                  -0.470311        -136.064         -50.7587         66.6116         -50.7587         66.6118       -0.0096097         149.287
0.529                  -0.489453        -136.548          -50.569         64.8187          -50.569         64.8189      -0.00972768          149.22
0.53                   -0.508965        -137.031         -50.3829         63.0071         -50.3829         63.0072      -0.00984816         149.152
0.531                  -0.528812        -137.512         -50.2005         61.1781         -50.2005         61.1782      -0.00997107         149.084
0.532                  -0.548952        -137.991          -50.022          59.333         -50.0219          59.333       -0.0100963         149.016
0.533                  -0.569342        -138.469         -49.8474         57.4731         -49.8474         57.4729       -0.0102239         148.948
0.534                  -0.589936        -138.944          -49.677         55.5998          -49.677         55.5996       -0.0103536          148.88
0.535                  -0.610684        -139.418         -49.5108         53.7147         -49.5108         53.7145       -0.0104853         148.812
0.536                  -0.631536         -139.89          -49.349         51.8194          -49.349         51.8191       -0.0106189         148.744
0.537                  -0.652441         -140.36         -49.1915         49.9154         -49.1915         49.9151       -0.0107542         148.676
0.538                  -0.673346        -140.828         -49.0384         48.0046         -49.0384         48.0042       -0.0108911         148.607
0.539                    -0.6942        -141.295         -48.8898         46.0884         -48.8898          46.088       -0.0110295         148.539
0.54                   -0.714951         -141.76         -48.7456         44.1687         -48.7456         44.1683       -0.0111691          148.47
0.541                   -0.73555        -142.223         -48.6059         42.2472         -48.6059         42.2467       -0.0113098         148.401
0.542                  -0.755951        -142.685         -48.4707         40.3255         -48.4707         40.3249       -0.0114513         148.333
0.543                  -0.776109        -143.147         -48.3398         38.4053         -48.3398         38.4047       -0.0115937         148.264
0.544                  -0.795984        -143.608         -48.2132         36.4882         -48.2132         36.4875       -0.0117366         148.195
0.545                  -0.815539        -144.068         -48.0909         34.5757         -48.0909          34.575       -0.0118799         148.126
0.546                  -0.834743        -144.528         -47.9726         32.6694         -47.9727         32.6688       -0.0120235         148.057
0.547                  -0.853568        -144.989         -47.8584         30.7708         -47.8585         30.7701       -0.0121672         147.988
0.548                  -0.871995         -145.45         -47.7481         28.8811         -47.7481         28.8804       -0.0123108         147.918
0.549                  -0.890004        -145.912         -47.6415         27.0017         -47.6415         27.0009       -0.0124544         147.849
0.55                   -0.907587        -146.376         -47.5385         25.1337         -47.5385         25.1329       -0.0125978         147.779
0.551                  -0.924738        -146.841         -47.4389         23.2782         -47.4389         23.2774       -0.0127408          147.71
0.552                  -0.941455        -147.309         -47.3425         21.4362         -47.3426         21.4354       -0.0128835          147.64
0.553                  -0.957743         -147.78         -47.2492         19.6086         -47.2493         19.6077       -0.0130257          147.57
0.554                  -0.973613        -148.253         -47.1588         17.7961         -47.1588         17.7952       -0.0131674           147.5
0.555                  -0.989078        -148.729         -47.0711         15.9994         -47.0711         15.9985       -0.0133086          147.43
0.556                   -1.00416         -149.21         -46.9858         14.2191         -46.9858         14.2182       -0.0134492          147.36
0.557                   -1.01887        -149.694         -46.9029         12.4557         -46.9029         12.4548       -0.0135893          147.29
0.558                   -1.03324        -150.183          -46.822         10.7096         -46.8221         10.7087       -0.0137289          147.22
0.559                    -1.0473        -150.676         -46.7431         8.98095         -46.7431         8.98004       -0.0138679         147.149
0.56                    -1.06108        -151.174         -46.6659         7.27009          -46.666         7.26916       -0.0140064         147.078
0.561                   -1.07461        -151.678         -46.5903         5.57708         -46.5903         5.57614       -0.0141445         147.008
0.562                   -1.08792        -152.186         -46.5161         3.90199         -46.5161         3.90104       -0.0142821         146.937
0.563                   -1.10106        -152.701          -46.443         2.24478          -46.443         2.24381       -0.0144194         146.866
0.564                   -1.11405        -153.221          -46.371        0.605348          -46.371         0.60437       -0.0145564         146.795
0.565                   -1.12694        -153.748         -46.2998        -1.01645         -46.2998        -1.01744        -0.014693         146.724
0.566                   -1.13975         -154.28         -46.2293        -2.62084         -46.2293        -2.62184       -0.0148295         146.652
0.567                   -1.15254        -154.819         -46.1594        -4.20807         -46.1594        -4.20908       -0.0149659         146.581
0.568                   -1.16534        -155.364         -46.0899        -5.77846         -46.0899        -5.77948       -0.0151022         146.509
0.569                   -1.17819        -155.916         -46.0207        -7.33235         -46.0207        -7.33337       -0.0152384         146.437
0.57                    -1.19112        -156.475         -45.9516        -8.87012         -45.9516        -8.87116       -0.0153748         146.365
0.571                   -1.20417        -157.041         -45.8826        -10.3922         -45.8826        -10.3932       -0.0155113         146.293
0.572                   -1.21738        -157.614         -45.8134         -11.899         -45.8134        -11.9001       -0.0156481         146.221
0.573                   -1.23079        -158.193         -45.7441        -13.3911         -45.7441        -13.3921       -0.0157851         146.149
0.574                   -1.24443         -158.78         -45.6745        -14.8688         -45.6745        -14.8699       -0.0159225         146.076
0.575                   -1.25834        -159.374         -45.6044        -16.3328         -45.6044        -16.3338       -0.0160603         146.004
0.576                   -1.27255        -159.975         -45.5339        -17.7834         -45.5339        -17.7845       -0.0161986         145.931
0.577                   -1.28711        -160.583         -45.4628        -19.2214         -45.4628        -19.2224       -0.0163375         145.858
0.578                   -1.30203        -161.199         -45.3911        -20.6471         -45.3911        -20.6481       -0.0164771         145.785
0.579                   -1.31736        -161.822         -45.3187        -22.0611         -45.3187        -22.0622       -0.0166174         145.712
0.58                    -1.33314        -162.453         -45.2455        -23.4641         -45.2455        -23.4651       -0.0167584         145.638
0.581                   -1.34939        -163.091         -45.1714        -24.8564         -45.1714        -24.8574       -0.0169003         145.565
0.582                   -1.36614        -163.736         -45.0964        -26.2388         -45.0965        -26.2398       -0.0170431         145.491
0.583                   -1.38344        -164.389         -45.0206        -27.6117         -45.0206        -27.6127       -0.0171868         145.417
0.584                   -1.40131         -165.05         -44.9437        -28.9757         -44.9437        -28.9766       -0.0173316         145.343
0.585                    -1.4198        -165.718         -44.8658        -30.3313         -44.8658        -30.3322       -0.0174775         145.269
0.586                   -1.43892        -166.394         -44.7868        -31.6791         -44.7868          -31.68       -0.0176245         145.194
0.587                   -1.45872        -167.078         -44.7067        -33.0197         -44.7067        -33.0205       -0.0177727          145.12
0.588                   -1.47923         -167.77         -44.6255        -34.3535         -44.6255        -34.3543       -0.0179222         145.045
0.589                   -1.50048        -168.469         -44.5432         -35.681         -44.5432        -35.6818        -0.018073          144.97
0.59                    -1.52252        -169.176         -44.4596        -37.0029         -44.4597        -37.0037       -0.0182252         144.895
0.591                   -1.54537        -169.891         -44.3749        -38.3197          -44.375        -38.3204       -0.0183788          144.82
0.592                   -1.56907        -170.614          -44.289        -39.6318          -44.289        -39.6325       -0.0185339         144.745
0.593                   -1.59366        -171.345         -44.2019        -40.9397         -44.2019        -40.9404       -0.0186905         144.669
0.594                   -1.61918        -172.084         -44.1135         -42.244         -44.1135        -42.2447       -0.0188488         144.593
0.595                   -1.64566         -172.83         -44.0239        -43.5452          -44.024        -43.5458       -0.0190086         144.517
0.596                   -1.67315        -173.585         -43.9331        -44.8437         -43.9331        -44.8442       -0.0191702         144.441
0.597                   -1.70169        -174.348          -43.841        -46.1399         -43.8411        -46.1404       -0.0193335         144.365
0.598                   -1.73132         -175.12         -43.7478        -47.4345         -43.7478         -47.435       -0.0194987         144.288
0.599                   -1.76208        -175.899         -43.6532        -48.7278         -43.6533        -48.7282       -0.0196657         144.212
0.6                     -1.79403        -176.687         -43.5575        -50.0203         -43.5575        -50.0206       -0.0198346         144.135
0.601                    -1.8272        -177.482         -43.4606        -51.3124         -43.4606        -51.3127       -0.0200055         144.058
0.602                   -1.86164        -178.286         -43.3624        -52.6046         -43.3625        -52.6049       -0.0201784          143.98
0.603                   -1.89741        -179.099         -43.2631        -53.8973         -43.2631        -53.8975       -0.0203535         143.903
0.604                   -1.93456        -179.919         -43.1626        -55.1909         -43.1626        -55.1911       -0.0205306         143.825
0.605                   -1.97314         179.252          -43.061        -56.4858          -43.061         -56.486         -0.02071         143.747
0.606                    -2.0132         178.414         -42.9582        -57.7826         -42.9582        -57.7827       -0.0208917         143.669
0.607                   -2.05481         177.569         -42.8543        -59.0814         -42.8543        -59.0815       -0.0210757         143.591
0.608                   -2.09802         176.715         -42.7493        -60.3828         -42.7494        -60.3829       -0.0212621         143.512
0.609                   -2.14291         175.853         -42.6433        -61.6871         -42.6434        -61.6871       -0.0214509         143.434
0.61                    -2.18952         174.982         -42.5363        -62.9947         -42.5363        -62.9947       -0.0216423         143.355
0.611                   -2.23793         174.103         -42.4283         -64.306         -42.4283        -64.3059       -0.0218363         143.275
0.612                   -2.28821         173.216         -42.3192        -65.6213         -42.3193        -65.6212        -0.022033         143.196
0.613                   -2.34043         172.321         -42.2093        -66.9409         -42.2093        -66.9408       -0.0222324         143.116
0.614                   -2.39466         171.418         -42.0985        -68.2652         -42.0985        -68.2651       -0.0224346         143.037
0.615                   -2.45099         170.506         -41.9868        -69.5945         -41.9868        -69.5944       -0.0226398         142.956
0.616                   -2.50948         169.587         -41.8743        -70.9292         -41.8743         -70.929       -0.0228479         142.876
0.617                   -2.57024          168.66         -41.7611        -72.2695          -41.761        -72.2693       -0.0230591         142.796
0.618                   -2.63333         167.725         -41.6471        -73.6157          -41.647        -73.6155       -0.0232735         142.715
0.619                   -2.69886         166.783         -41.5324        -74.9681         -41.5324        -74.9679       -0.0234911         142.634
0.62                    -2.76691         165.834         -41.4171         -76.327         -41.4171        -76.3267        -0.023712         142.552
0.621                   -2.83757         164.877         -41.3012        -77.6926         -41.3012        -77.6923       -0.0239364         142.471
0.622                   -2.91095         163.913         -41.1848        -79.0651         -41.1847        -79.0649       -0.0241643         142.389
0.623                   -2.98715         162.943         -41.0679        -80.4449         -41.0678        -80.4446       -0.0243959         142.307
0.624                   -3.06627         161.966         -40.9505         -81.832         -40.9505        -81.8318       -0.0246312         142.225
0.625                   -3.14842         160.984         -40.8328        -83.2267         -40.8328        -83.2265       -0.0248703         142.142
0.626                   -3.23371         159.995         -40.7148        -84.6292         -40.7148         -84.629       -0.0251135         142.059
0.627                   -3.32225         159.002         -40.5966        -86.0396         -40.5965        -86.0394       -0.0253607         141.976
0.628                   -3.41416         158.004         -40.4782        -87.4581         -40.4781        -87.4579       -0.0256121         141.893
0.629                   -3.50956         157.001         -40.3596        -88.8848         -40.3595        -88.8846       -0.0258678         141.809
