! TOUCHSTONE file generated by CST MICROWAVE STUDIO
! Date and time: Sat Oct 24 11:17:29 2020
! Project name: Scenario_1_Circular_Tissue_in_Line.cst
! Parameters = {L_HA=400; MT=2.54; Rad_Dielectric=30; Rad_Lower=7.3; Rad_Upper=30; a_HA=580; a_WG=246; b_HA=500; b_WG=121; c_HA=0; c_WG=187; d_feed=85; dx1=848.48; h_feed=15; h_lower=18; h_upper=40}
! Header version: 2018
! Port assignment regex: !\s*Touchstone port\s*([0-9]+)\s*=\s*(CST MWS port|CST DS port)\s*([0-9]+|Zmin|Zmax)\s*\(\"(.*)\"\)(\s*mode\s*([0-9]+))?.*
! Touchstone port assignment:
! Touchstone port 1 = CST MWS port 1 ("")
! Touchstone port 2 = CST MWS port 2 ("")
# GHz S DB R 50
0.5                    -0.138203        -122.458         -62.7151         109.472         -62.6666         109.458      -0.00741744         151.122
0.501                  -0.145688        -122.907         -62.5094         107.078         -62.4603         107.104      -0.00748536         151.056
0.502                  -0.153307        -123.357         -62.3044          104.72         -62.2553         104.781      -0.00755434         150.991
0.503                  -0.161061        -123.809         -62.1003         102.395         -62.0519         102.487      -0.00762439         150.925
0.504                  -0.168951        -124.263         -61.8975         100.101         -61.8503         100.218      -0.00769551          150.86
0.505                  -0.176978        -124.717         -61.6962         97.8356         -61.6506         97.9737      -0.00776768         150.794
0.506                  -0.185144        -125.174         -61.4965         95.5961         -61.4529         95.7505      -0.00784091         150.728
0.507                  -0.193449        -125.631         -61.2988         93.3803         -61.2575         93.5467      -0.00791519         150.663
0.508                  -0.201896         -126.09         -61.1031         91.1861         -61.0643         91.3604      -0.00799052         150.597
0.509                  -0.210484        -126.551         -60.9095         89.0113         -60.8735         89.1896      -0.00806689         150.531
0.51                   -0.219217        -127.013         -60.7183         86.8538         -60.6851         87.0324       -0.0081443         150.465
0.511                  -0.228094        -127.477         -60.5294         84.7117         -60.4992          84.887      -0.00822275         150.399
0.512                  -0.237119        -127.942         -60.3429          82.583         -60.3159          82.752      -0.00830223         150.333
0.513                  -0.246291        -128.409          -60.159         80.4661          -60.135         80.6256      -0.00838274         150.267
0.514                  -0.255614        -128.878         -59.9776         78.3591         -59.9568         78.5063      -0.00846426           150.2
0.515                  -0.265088        -129.348         -59.7988         76.2604         -59.7811         76.3928       -0.0085468         150.134
0.516                  -0.274716         -129.82         -59.6226         74.1686         -59.6081         74.2837      -0.00863035         150.067
0.517                  -0.284499        -130.293         -59.4491          72.082         -59.4376         72.1777       -0.0087149         150.001
0.518                   -0.29444        -130.768         -59.2783         69.9992         -59.2697         70.0737      -0.00880044         149.934
0.519                   -0.30454        -131.245         -59.1101          67.919         -59.1044         67.9705      -0.00888697         149.868
0.52                   -0.314801        -131.724         -58.9446         65.8401         -58.9417          65.867      -0.00897448         149.801
0.521                  -0.325225        -132.204         -58.7817         63.7613         -58.7815         63.7623      -0.00906297         149.734
0.522                  -0.335816        -132.687         -58.6215         61.6814         -58.6238         61.6553      -0.00915242         149.667
0.523                  -0.346574        -133.171         -58.4639         59.5993         -58.4686         59.5454      -0.00924283           149.6
0.524                  -0.357503        -133.657          -58.309         57.5141         -58.3159         57.4315      -0.00933418         149.533
0.525                  -0.368604        -134.145         -58.1566         55.4248         -58.1657         55.3129      -0.00942647         149.466
0.526                  -0.379882        -134.634         -58.0068         53.3305         -58.0178          53.189       -0.0095197         149.398
0.527                  -0.391337        -135.126         -57.8595         51.2304         -57.8724          51.059      -0.00961384         149.331
0.528                  -0.402973         -135.62         -57.7147         49.1236         -57.7292         48.9223      -0.00970889         149.263
0.529                  -0.414793        -136.115         -57.5724         47.0095         -57.5884         46.7784      -0.00980483         149.196
0.53                     -0.4268        -136.613         -57.4325         44.8874         -57.4498         44.6268      -0.00990167         149.128
0.531                  -0.438996        -137.113          -57.295         42.7565         -57.3134         42.4669      -0.00999938          149.06
0.532                  -0.451386        -137.615         -57.1598         40.6164         -57.1793         40.2983        -0.010098         148.993
0.533                  -0.463971        -138.118         -57.0269         38.4665         -57.0472         38.1207       -0.0101974         148.925
0.534                  -0.476756        -138.624         -56.8963         36.3063         -56.9172         35.9337       -0.0102976         148.857
0.535                  -0.489744        -139.133         -56.7678         34.1354         -56.7892          33.737       -0.0103987         148.789
0.536                  -0.502938        -139.643         -56.6415         31.9534         -56.6633         31.5303       -0.0105006          148.72
0.537                  -0.516342        -140.155         -56.5173         29.7599         -56.5392         29.3134       -0.0106033         148.652
0.538                  -0.529961         -140.67         -56.3951         27.5547          -56.417         27.0862       -0.0107068         148.584
0.539                  -0.543797        -141.187         -56.2749         25.3374         -56.2967         24.8485       -0.0108111         148.515
0.54                   -0.557856        -141.707         -56.1565         23.1079         -56.1781         22.6001       -0.0109161         148.447
0.541                   -0.57214        -142.228           -56.04         20.8661         -56.0612         20.3411       -0.0110219         148.378
0.542                  -0.586655        -142.753         -55.9253         18.6117         -55.9459         18.0714       -0.0111284         148.309
0.543                  -0.601405        -143.279         -55.8122         16.3447         -55.8322          15.791       -0.0112356          148.24
0.544                  -0.616395        -143.808         -55.7009         14.0651         -55.7201         13.4999       -0.0113435         148.171
0.545                  -0.631628         -144.34          -55.591         11.7729         -55.6094         11.1983        -0.011452         148.102
0.546                  -0.647111        -144.874         -55.4827         9.46814         -55.5001         8.88621       -0.0115613         148.033
0.547                  -0.662849         -145.41         -55.3757         7.15096         -55.3922         6.56383       -0.0116712         147.964
0.548                  -0.678845        -145.949         -55.2701         4.82147         -55.2855         4.23133       -0.0117817         147.894
0.549                  -0.695107        -146.491         -55.1658         2.47987           -55.18         1.88892       -0.0118929         147.825
0.55                   -0.711638        -147.035         -55.0627        0.126394         -55.0757        -0.46315       -0.0120047         147.755
0.551                  -0.728446        -147.582         -54.9606         -2.2387         -54.9724        -2.82461        -0.012117         147.685
0.552                  -0.745536        -148.132         -54.8596         -4.6151         -54.8701        -5.19515         -0.01223         147.615
0.553                  -0.762914        -148.685         -54.7595        -7.00245         -54.7688        -7.57443       -0.0123435         147.545
0.554                  -0.780586         -149.24         -54.6603        -9.40037         -54.6683        -9.96211       -0.0124576         147.475
0.555                  -0.798559        -149.798         -54.5619        -11.8084         -54.5686        -12.3578       -0.0125723         147.405
0.556                  -0.816839        -150.359         -54.4642        -14.2262         -54.4697        -14.7611       -0.0126875         147.335
0.557                  -0.835434        -150.923         -54.3671        -16.6531         -54.3714        -17.1715       -0.0128033         147.264
0.558                   -0.85435         -151.49         -54.2705        -19.0887         -54.2738        -19.5887       -0.0129196         147.194
0.559                  -0.873595         -152.06         -54.1745        -21.5324         -54.1766        -22.0121       -0.0130364         147.123
0.56                   -0.893177        -152.633         -54.0789        -23.9837           -54.08        -24.4412       -0.0131538         147.052
0.561                  -0.913103        -153.209         -53.9835        -26.4418         -53.9838        -26.8756       -0.0132717         146.981
0.562                  -0.933381        -153.789         -53.8885        -28.9063         -53.8879        -29.3148       -0.0133902          146.91
0.563                  -0.954021        -154.371         -53.7937        -31.3764         -53.7924        -31.7581       -0.0135093         146.839
0.564                   -0.97503        -154.957          -53.699        -33.8515         -53.6971        -34.2051        -0.013629         146.768
0.565                  -0.996417        -155.546         -53.6043        -36.3309          -53.602        -36.6553       -0.0137493         146.696
0.566                   -1.01819        -156.138         -53.5097        -38.8139          -53.507         -39.108       -0.0138702         146.624
0.567                   -1.04037        -156.734         -53.4151        -41.2998         -53.4121        -41.5627       -0.0139918         146.553
0.568                   -1.06295        -157.333         -53.3204        -43.7879         -53.3173        -44.0189       -0.0141142         146.481
0.569                   -1.08595        -157.936         -53.2256        -46.2775         -53.2225         -46.476       -0.0142373         146.409
0.57                    -1.10938        -158.542         -53.1306        -48.7679         -53.1277        -48.9335       -0.0143612         146.337
0.571                   -1.13325        -159.152         -53.0354        -51.2584         -53.0328        -51.3908        -0.014486         146.264
0.572                   -1.15757        -159.766         -52.9399        -53.7483         -52.9378        -53.8474       -0.0146117         146.192
0.573                   -1.18236        -160.383         -52.8442        -56.2369         -52.8427        -56.3028       -0.0147385         146.119
0.574                   -1.20762        -161.004         -52.7483        -58.7236         -52.7474        -58.7563       -0.0148663         146.047
0.575                   -1.23337        -161.629          -52.652        -61.2077          -52.652        -61.2077       -0.0149954         145.974
0.576                   -1.25963        -162.257         -52.5554        -63.6885         -52.5564        -63.6563       -0.0151257         145.901
0.577                   -1.28641         -162.89         -52.4585        -66.1655         -52.4605        -66.1016       -0.0152574         145.828
0.578                   -1.31373        -163.527         -52.3612        -68.6381         -52.3644        -68.5434       -0.0153906         145.754
0.579                   -1.34159        -164.168         -52.2636        -71.1058         -52.2681         -70.981       -0.0155255         145.681
0.58                    -1.37003        -164.813         -52.1657        -73.5679         -52.1716        -73.4141        -0.015662         145.607
0.581                   -1.39905        -165.463         -52.0674         -76.024         -52.0748        -75.8423       -0.0158004         145.533
0.582                   -1.42868        -166.116         -51.9689        -78.4736         -51.9777        -78.2652       -0.0159408         145.459
0.583                   -1.45893        -166.775           -51.87        -80.9164         -51.8804        -80.6826       -0.0160833         145.385
0.584                   -1.48983        -167.437         -51.7708        -83.3519         -51.7829         -83.094       -0.0162281         145.311
0.585                    -1.5214        -168.105         -51.6713        -85.7797         -51.6851        -85.4992       -0.0163752         145.236
0.586                   -1.55367        -168.777         -51.5716        -88.1995          -51.587         -87.898       -0.0165248         145.162
0.587                   -1.58666        -169.454         -51.4717        -90.6111         -51.4888          -90.29       -0.0166771         145.087
0.588                    -1.6204        -170.136         -51.3715        -93.0141         -51.3903        -92.6751       -0.0168321         145.012
0.589                   -1.65491        -170.823         -51.2712        -95.4084         -51.2917        -95.0531         -0.01699         144.937
0.59                    -1.69025        -171.516         -51.1707        -97.7938         -51.1928        -97.4239       -0.0171508         144.861
0.591                   -1.72643        -172.213           -51.07         -100.17         -51.0938        -99.7872       -0.0173148         144.786
0.592                    -1.7635        -172.916         -50.9693        -102.537         -50.9947        -102.143        -0.017482          144.71
0.593                    -1.8015        -173.625         -50.8685        -104.895         -50.8954        -104.491       -0.0176524         144.634
0.594                   -1.84048        -174.339         -50.7676        -107.244          -50.796        -106.832       -0.0178262         144.558
0.595                    -1.8805         -175.06         -50.6668        -109.583         -50.6965        -109.165       -0.0180034         144.482
0.596                   -1.92159        -175.786          -50.566        -111.913          -50.597         -111.49        -0.018184         144.405
0.597                   -1.96384        -176.519         -50.4652        -114.234         -50.4974        -113.808       -0.0183682         144.329
0.598                   -2.00732        -177.257         -50.3645        -116.546         -50.3979        -116.118       -0.0185559         144.252
0.599                   -2.05209        -178.003          -50.264        -118.849         -50.2983         -118.42       -0.0187472         144.175
0.6                     -2.09825        -178.755         -50.1635        -121.142         -50.1988        -120.715       -0.0189421         144.098
0.601                   -2.14591        -179.514         -50.0633        -123.427         -50.0993        -123.002       -0.0191406          144.02
0.602                   -2.19517          179.72         -49.9632        -125.704         -49.9999        -125.283       -0.0193427         143.943
0.603                   -2.24616         178.947         -49.8634        -127.972         -49.9007        -127.556       -0.0195484         143.865
0.604                   -2.29903         178.167         -49.7639        -130.232         -49.8016        -129.822       -0.0197577         143.787
0.605                   -2.35396          177.38         -49.6646        -132.484         -49.7026        -132.081       -0.0199705         143.709
0.606                   -2.41112         176.585         -49.5657        -134.728         -49.6038        -134.333       -0.0201869         143.631
0.607                   -2.47075         175.783         -49.4671        -136.965         -49.5052        -136.579       -0.0204068         143.552
0.608                   -2.53309         174.975         -49.3688        -139.195         -49.4069        -138.819       -0.0206302         143.473
0.609                   -2.59843          174.16         -49.2709        -141.417         -49.3088        -141.052        -0.020857         143.394
0.61                    -2.66711          173.34         -49.1734        -143.634          -49.211         -143.28       -0.0210873         143.315
0.611                   -2.73948         172.516         -49.0764        -145.844         -49.1135        -145.502        -0.021321         143.236
0.612                   -2.81598         171.689         -48.9798        -148.048         -49.0163        -147.719       -0.0215581         143.156
0.613                   -2.89705         170.861         -48.8836        -150.246         -48.9195         -149.93       -0.0217986         143.077
0.614                   -2.98318         170.036         -48.7879        -152.439         -48.8231        -152.137       -0.0220424         142.997
0.615                   -3.07487         169.218         -48.6927        -154.628          -48.727        -154.338       -0.0222896         142.916
0.616                    -3.1726         168.414          -48.598        -156.811         -48.6313        -156.536       -0.0225401         142.836
0.617                   -3.27674          167.63         -48.5037         -158.99         -48.5361        -158.729        -0.022794         142.755
0.618                   -3.38748         166.876         -48.4101        -161.165         -48.4413        -160.918       -0.0230512         142.674
0.619                   -3.50468         166.165         -48.3169        -163.336         -48.3469        -163.103       -0.0233118         142.593
0.62                    -3.62764         165.509         -48.2243        -165.503         -48.2531        -165.285       -0.0235757         142.512
0.621                   -3.75494         164.925         -48.1322        -167.668         -48.1597        -167.463        -0.023843          142.43
0.622                   -3.88416         164.425         -48.0407        -169.829         -48.0668        -169.638       -0.0241137         142.348
0.623                   -4.01184         164.019         -47.9497        -171.988         -47.9744        -171.811       -0.0243878         142.266
0.624                   -4.13355         163.711         -47.8593        -174.145         -47.8826        -173.981       -0.0246654         142.184
0.625                   -4.24445         163.491         -47.7694        -176.299         -47.7913        -176.149       -0.0249464         142.101
0.626                   -4.34011         163.337         -47.6801        -178.452         -47.7005        -178.314       -0.0252311         142.018
0.627                    -4.4175         163.215         -47.5914         179.397         -47.6103         179.522       -0.0255193         141.935
0.628                   -4.47581         163.084         -47.5032         177.246         -47.5206         177.359       -0.0258111         141.852
0.629                   -4.51667         162.907         -47.4156         175.097         -47.4315         175.199       -0.0261067         141.768
