! TOUCHSTONE file generated by CST MICROWAVE STUDIO
! Date and time: Sat Oct 24 11:17:36 2020
! Project name: Scenario_1_Circular_Tissue_in_Line.cst
! Parameters = {L_HA=400; MT=2.54; Rad_Dielectric=30; Rad_Lower=7.3; Rad_Upper=30; a_HA=580; a_WG=246; b_HA=500; b_WG=121; c_HA=0; c_WG=187; d_feed=85; dx1=865.8; h_feed=15; h_lower=18; h_upper=40}
! Header version: 2018
! Port assignment regex: !\s*Touchstone port\s*([0-9]+)\s*=\s*(CST MWS port|CST DS port)\s*([0-9]+|Zmin|Zmax)\s*\(\"(.*)\"\)(\s*mode\s*([0-9]+))?.*
! Touchstone port assignment:
! Touchstone port 1 = CST MWS port 1 ("")
! Touchstone port 2 = CST MWS port 2 ("")
# GHz S DB R 50
0.5                    -0.142106        -122.327         -62.6159         99.5504         -62.6159         99.5504      -0.00737572         151.161
0.501                  -0.149987        -122.755          -62.495         97.2523         -62.4946         97.2734      -0.00745088         151.096
0.502                  -0.157933        -123.184         -62.3722         94.9492         -62.3713         94.9905      -0.00752654          151.03
0.503                  -0.165944        -123.615         -62.2475         92.6415         -62.2463         92.7023       -0.0076027         150.965
0.504                  -0.174023        -124.047         -62.1211         90.3298         -62.1194          90.409      -0.00767936           150.9
0.505                  -0.182171        -124.481          -61.993         88.0143         -61.9909          88.111      -0.00775653         150.834
0.506                  -0.190388        -124.917         -61.8633         85.6954         -61.8609         85.8088      -0.00783421         150.769
0.507                  -0.198676        -125.355         -61.7321         83.3735         -61.7293         83.5026       -0.0079124         150.703
0.508                  -0.207036        -125.794         -61.5995          81.049         -61.5963         81.1928       -0.0079911         150.638
0.509                  -0.215471        -126.236         -61.4655         78.7221         -61.4621         78.8798      -0.00807032         150.572
0.51                   -0.223981        -126.679         -61.3304         76.3932         -61.3266         76.5637      -0.00815006         150.506
0.511                  -0.232569        -127.124         -61.1942         74.0625           -61.19          74.245      -0.00823033         150.441
0.512                  -0.241237        -127.571         -61.0569         71.7304         -61.0524         71.9239      -0.00831111         150.375
0.513                  -0.249987         -128.02         -60.9187         69.3971         -60.9139         69.6007      -0.00839243         150.309
0.514                  -0.258822        -128.471         -60.7796         67.0629         -60.7745         67.2756      -0.00847428         150.243
0.515                  -0.267743        -128.925         -60.6399          64.728         -60.6344         64.9489      -0.00855666         150.176
0.516                  -0.276753         -129.38         -60.4994         62.3927         -60.4936         62.6209      -0.00863958          150.11
0.517                  -0.285856        -129.837         -60.3584         60.0572         -60.3522         60.2917      -0.00872304         150.044
0.518                  -0.295054        -130.297         -60.2169         57.7217         -60.2104         57.9617      -0.00880704         149.977
0.519                  -0.304351        -130.759         -60.0751         55.3863         -60.0682          55.631       -0.0088916         149.911
0.52                    -0.31375        -131.223         -59.9329         53.0514         -59.9256         53.2999       -0.0089767         149.844
0.521                  -0.323254         -131.69         -59.7905         50.7171         -59.7829         50.9685      -0.00906236         149.778
0.522                  -0.332868        -132.159         -59.6479         48.3835         -59.6399         48.6371      -0.00914858         149.711
0.523                  -0.342596         -132.63         -59.5052         46.0509         -59.4969         46.3058      -0.00923536         149.644
0.524                  -0.352441        -133.104         -59.3626         43.7194         -59.3539         43.9749      -0.00932271         149.577
0.525                   -0.36241         -133.58           -59.22         41.3892          -59.211         41.6445      -0.00941063          149.51
0.526                  -0.372506        -134.059         -59.0775         39.0604         -59.0682         39.3149      -0.00949912         149.443
0.527                  -0.382736         -134.54         -58.9353         36.7331         -58.9256         36.9861       -0.0095882         149.376
0.528                  -0.393103        -135.025         -58.7932         34.4076         -58.7833         34.6585      -0.00967786         149.309
0.529                  -0.403615        -135.512         -58.6515          32.084         -58.6412          32.332       -0.0097681         149.242
0.53                   -0.414278        -136.001         -58.5101         29.7623         -58.4995          30.007      -0.00985894         149.174
0.531                  -0.425098        -136.494         -58.3691         27.4428         -58.3583         27.6836      -0.00995038         149.107
0.532                  -0.436082        -136.989         -58.2285         25.1255         -58.2175         25.3618       -0.0100424         149.039
0.533                  -0.447237        -137.488         -58.0884         22.8106         -58.0771          23.042       -0.0101351         148.971
0.534                  -0.458572        -137.989         -57.9488         20.4981         -57.9374         20.7241       -0.0102283         148.904
0.535                  -0.470094        -138.493         -57.8098         18.1882         -57.7981         18.4085       -0.0103222         148.836
0.536                  -0.481813        -139.001         -57.6713          15.881         -57.6595         16.0951       -0.0104167         148.768
0.537                  -0.493736        -139.512         -57.5334         13.5766         -57.5215         13.7841       -0.0105119           148.7
0.538                  -0.505874        -140.025         -57.3961          11.275         -57.3842         11.4757       -0.0106077         148.631
0.539                  -0.518238        -140.543         -57.2595         8.97627         -57.2475          9.1699       -0.0107041         148.563
0.54                   -0.530837        -141.063         -57.1235         6.68057         -57.1114         6.86687       -0.0108012         148.495
0.541                  -0.543683        -141.587         -56.9881         4.38791         -56.9761         4.56669       -0.0108989         148.426
0.542                  -0.556788        -142.114         -56.8534         2.09835         -56.8414         2.26943       -0.0109973         148.358
0.543                  -0.570164        -142.645         -56.7194       -0.188083         -56.7074      -0.0248123       -0.0110964         148.289
0.544                  -0.583824        -143.179          -56.586        -2.47136         -56.5742        -2.31599       -0.0111962          148.22
0.545                  -0.597783        -143.717         -56.4532        -4.75145         -56.4416        -4.60405       -0.0112966         148.151
0.546                  -0.612054        -144.259         -56.3211        -7.02837         -56.3096        -6.88896       -0.0113978         148.082
0.547                  -0.626652        -144.804         -56.1897         -9.3021         -56.1784        -9.17068       -0.0114997         148.013
0.548                  -0.641595        -145.353         -56.0588        -11.5727         -56.0478        -11.4492       -0.0116023         147.944
0.549                  -0.656897        -145.906         -55.9286        -13.8401         -55.9179        -13.7245       -0.0117056         147.875
0.55                   -0.672577        -146.463          -55.799        -16.1045         -55.7886        -15.9967       -0.0118097         147.805
0.551                  -0.688653        -147.023           -55.67        -18.3659         -55.6599        -18.2657       -0.0119145         147.736
0.552                  -0.705143        -147.588         -55.5415        -20.6243         -55.5318        -20.5316       -0.0120202         147.666
0.553                  -0.722069        -148.156         -55.4136        -22.8798         -55.4043        -22.7944       -0.0121266         147.596
0.554                  -0.739449        -148.728         -55.2862        -25.1326         -55.2773        -25.0543       -0.0122338         147.526
0.555                  -0.757306        -149.305         -55.1593        -27.3827         -55.1509        -27.3113       -0.0123419         147.456
0.556                  -0.775663        -149.885         -55.0329        -29.6303          -55.025        -29.5656       -0.0124507         147.386
0.557                  -0.794542        -150.469          -54.907        -31.8755         -54.8995        -31.8172       -0.0125605         147.316
0.558                  -0.813967        -151.057         -54.7814        -34.1185         -54.7745        -34.0663       -0.0126711         147.245
0.559                  -0.833963         -151.65         -54.6563        -36.3594         -54.6498        -36.3131       -0.0127827         147.175
0.56                   -0.854556        -152.246         -54.5316        -38.5985         -54.5256        -38.5577       -0.0128952         147.104
0.561                  -0.875773        -152.847         -54.4072        -40.8359         -54.4018        -40.8003       -0.0130086         147.034
0.562                  -0.897639        -153.451         -54.2831        -43.0719         -54.2783        -43.0412       -0.0131231         146.963
0.563                  -0.920184        -154.059         -54.1594        -45.3066         -54.1551        -45.2805       -0.0132385         146.892
0.564                  -0.943436        -154.671          -54.036        -47.5404         -54.0322        -47.5185       -0.0133551         146.821
0.565                  -0.967423        -155.287         -53.9128        -49.7734         -53.9096        -49.7554       -0.0134727         146.749
0.566                  -0.992174        -155.907         -53.7899         -52.006         -53.7872        -51.9915       -0.0135914         146.678
0.567                   -1.01772        -156.531         -53.6672        -54.2384          -53.665        -54.2271       -0.0137113         146.606
0.568                   -1.04409        -157.158         -53.5448        -56.4709         -53.5431        -56.4625       -0.0138325         146.535
0.569                   -1.07131        -157.788         -53.4225        -58.7037         -53.4214         -58.698       -0.0139549         146.463
0.57                    -1.09942        -158.422         -53.3005        -60.9373         -53.2998        -60.9338       -0.0140786         146.391
0.571                   -1.12844        -159.059         -53.1787        -63.1719         -53.1784        -63.1703       -0.0142037         146.319
0.572                    -1.1584        -159.699          -53.057        -65.4078         -53.0572        -65.4078       -0.0143302         146.247
0.573                   -1.18933        -160.342         -52.9355        -67.6454         -52.9362        -67.6467       -0.0144582         146.174
0.574                   -1.22125        -160.987         -52.8143        -69.8849         -52.8153        -69.8873       -0.0145878         146.102
0.575                    -1.2542        -161.635         -52.6932        -72.1267         -52.6946        -72.1299        -0.014719         146.029
0.576                   -1.28819        -162.285         -52.5723        -74.3711          -52.574        -74.3749       -0.0148518         145.957
0.577                   -1.32324        -162.937         -52.4516        -76.6185         -52.4537        -76.6226       -0.0149865         145.884
0.578                   -1.35938        -163.591         -52.3312        -78.8691         -52.3335        -78.8734       -0.0151229         145.811
0.579                   -1.39662        -164.246          -52.211        -81.1233         -52.2136        -81.1275       -0.0152613         145.737
0.58                    -1.43497        -164.902         -52.0911        -83.3814         -52.0938        -83.3853       -0.0154016         145.664
0.581                   -1.47445        -165.558         -51.9715        -85.6436         -51.9744        -85.6472        -0.015544          145.59
0.582                   -1.51505        -166.215         -51.8523        -87.9103         -51.8553        -87.9134       -0.0156885         145.517
0.583                   -1.55677        -166.872         -51.7334        -90.1817         -51.7365        -90.1841       -0.0158353         145.443
0.584                   -1.59962        -167.529         -51.6149         -92.458          -51.618        -92.4598       -0.0159844         145.369
0.585                   -1.64358        -168.185         -51.4968        -94.7395            -51.5        -94.7406       -0.0161358         145.295
0.586                   -1.68864         -168.84         -51.3793        -97.0264         -51.3825        -97.0267       -0.0162897          145.22
0.587                   -1.73478        -169.493         -51.2623        -99.3189         -51.2655        -99.3184       -0.0164462         145.146
0.588                   -1.78196        -170.145         -51.1459        -101.617          -51.149        -101.616       -0.0166052         145.071
0.589                   -1.83016        -170.794         -51.0302        -103.921         -51.0332        -103.919        -0.016767         144.996
0.59                    -1.87932        -171.441         -50.9152        -106.231         -50.9181        -106.228       -0.0169314         144.921
0.591                   -1.92942        -172.085          -50.801        -108.547         -50.8038        -108.543       -0.0170987         144.846
0.592                   -1.98039        -172.726         -50.6877        -110.868         -50.6902        -110.864       -0.0172689         144.771
0.593                   -2.03217        -173.364         -50.5752        -113.196         -50.5776        -113.191        -0.017442         144.695
0.594                    -2.0847        -173.998         -50.4638        -115.529         -50.4659        -115.524        -0.017618          144.62
0.595                   -2.13791        -174.628         -50.3534        -117.868         -50.3553        -117.863        -0.017797         144.544
0.596                   -2.19172        -175.254         -50.2441        -120.213         -50.2458        -120.208        -0.017979         144.468
0.597                   -2.24605        -175.876         -50.1359        -122.563         -50.1375        -122.557       -0.0181641         144.392
0.598                   -2.30083        -176.494         -50.0291        -124.918         -50.0304        -124.912       -0.0183523         144.315
0.599                   -2.35596        -177.108         -49.9235        -127.277         -49.9246        -127.272       -0.0185436         144.239
0.6                     -2.41136        -177.718         -49.8193        -129.641         -49.8202        -129.636       -0.0187379         144.162
0.601                   -2.46694        -178.324         -49.7165        -132.009         -49.7172        -132.005       -0.0189353         144.085
0.602                   -2.52263        -178.927         -49.6152         -134.38         -49.6157        -134.376       -0.0191359         144.008
0.603                   -2.57834        -179.527         -49.5154        -136.754         -49.5157        -136.751       -0.0193395         143.931
0.604                   -2.63399         179.876         -49.4172        -139.131         -49.4173        -139.129       -0.0195462         143.853
0.605                   -2.68951         179.282         -49.3205         -141.51         -49.3205        -141.508        -0.019756         143.775
0.606                   -2.74483         178.689         -49.2255         -143.89         -49.2253        -143.889       -0.0199688         143.698
0.607                   -2.79989         178.098         -49.1321         -146.27         -49.1318         -146.27       -0.0201847         143.619
0.608                   -2.85465         177.507         -49.0403        -148.651         -49.0399        -148.652       -0.0204036         143.541
0.609                   -2.90907         176.916         -48.9501        -151.031         -48.9496        -151.033       -0.0206255         143.463
0.61                     -2.9631         176.325         -48.8616         -153.41          -48.861        -153.412       -0.0208505         143.384
0.611                   -3.01674         175.732         -48.7747        -155.787         -48.7741         -155.79       -0.0210784         143.305
0.612                   -3.06998         175.138         -48.6893        -158.162         -48.6887        -158.166       -0.0213094         143.226
0.613                   -3.12281          174.54         -48.6055        -160.533         -48.6049        -160.538       -0.0215433         143.147
0.614                   -3.17525         173.938         -48.5232        -162.901         -48.5226        -162.906       -0.0217802         143.067
0.615                   -3.22733         173.333         -48.4424        -165.265         -48.4418         -165.27       -0.0220201         142.988
0.616                   -3.27909         172.721         -48.3629        -167.624         -48.3624         -167.63        -0.022263         142.908
0.617                   -3.33057         172.104         -48.2847        -169.977         -48.2843        -169.984        -0.022509         142.828
0.618                   -3.38184         171.481         -48.2079        -172.325         -48.2074        -172.332       -0.0227579         142.747
0.619                   -3.43296          170.85         -48.1321        -174.667         -48.1318        -174.674         -0.02301         142.667
0.62                    -3.48402          170.21         -48.0575        -177.002         -48.0572        -177.009       -0.0232651         142.586
0.621                    -3.5351         169.562         -47.9839        -179.331         -47.9836        -179.337       -0.0235234         142.505
0.622                    -3.5863         168.905         -47.9112         178.348          -47.911         178.342       -0.0237848         142.423
0.623                   -3.63772         168.239         -47.8393         176.034         -47.8392         176.028       -0.0240494         142.342
0.624                   -3.68948         167.561         -47.7682         173.727         -47.7681         173.721       -0.0243172          142.26
0.625                   -3.74169         166.874         -47.6977         171.428         -47.6977         171.422       -0.0245884         142.178
0.626                   -3.79447         166.175         -47.6277         169.136         -47.6278         169.131       -0.0248629         142.096
0.627                   -3.84796         165.465         -47.5583         166.851         -47.5583         166.847       -0.0251408         142.013
0.628                   -3.90228         164.743         -47.4892         164.574         -47.4893         164.571       -0.0254222         141.931
0.629                   -3.95757         164.009         -47.4204         162.304         -47.4205         162.301       -0.0257071         141.847
