! TOUCHSTONE file generated by CST MICROWAVE STUDIO
! Date and time: Sat Oct 24 11:17:44 2020
! Project name: Scenario_1_Circular_Tissue_in_Line.cst
! Parameters = {L_HA=400; MT=2.54; Rad_Dielectric=30; Rad_Lower=7.3; Rad_Upper=30; a_HA=580; a_WG=246; b_HA=500; b_WG=121; c_HA=0; c_WG=187; d_feed=85; dx1=883.12; h_feed=15; h_lower=18; h_upper=40}
! Header version: 2018
! Port assignment regex: !\s*Touchstone port\s*([0-9]+)\s*=\s*(CST MWS port|CST DS port)\s*([0-9]+|Zmin|Zmax)\s*\(\"(.*)\"\)(\s*mode\s*([0-9]+))?.*
! Touchstone port assignment:
! Touchstone port 1 = CST MWS port 1 ("")
! Touchstone port 2 = CST MWS port 2 ("")
# GHz S DB R 50
0.5                    -0.147404        -122.457         -62.5104         89.5476         -62.5105         89.5498      -0.00748292         151.125
0.501                  -0.148009        -122.897          -62.471         87.7322         -62.4709         87.7346      -0.00755052         151.059
0.502                  -0.148898         -123.34         -62.4287         85.8924         -62.4284          85.895      -0.00761882         150.994
0.503                  -0.150075        -123.785         -62.3834         84.0283          -62.383         84.0311      -0.00768782         150.929
0.504                  -0.151545        -124.233         -62.3351         82.1401         -62.3345         82.1431      -0.00775752         150.863
0.505                  -0.153312        -124.683         -62.2836         80.2281         -62.2829         80.2313      -0.00782794         150.798
0.506                  -0.155382        -125.135         -62.2288         78.2924          -62.228         78.2959      -0.00789908         150.732
0.507                  -0.157759         -125.59         -62.1708         76.3334         -62.1698         76.3371      -0.00797094         150.666
0.508                  -0.160448        -126.047         -62.1093         74.3514         -62.1082         74.3554      -0.00804353         150.601
0.509                  -0.163454        -126.507         -62.0443         72.3469          -62.043         72.3511      -0.00811685         150.535
0.51                   -0.166781        -126.969         -61.9757         70.3202         -61.9743         70.3247      -0.00819092         150.469
0.511                  -0.170435        -127.433         -61.9035         68.2718          -61.902         68.2765      -0.00826572         150.403
0.512                   -0.17442          -127.9         -61.8276         66.2021          -61.826         66.2072      -0.00834128         150.337
0.513                   -0.17874        -128.369         -61.7479         64.1118         -61.7462         64.1171      -0.00841759         150.271
0.514                  -0.183402         -128.84         -61.6645         62.0013         -61.6627         62.0069      -0.00849467         150.205
0.515                  -0.188409        -129.314         -61.5771         59.8713         -61.5753         59.8772      -0.00857251         150.138
0.516                  -0.193766         -129.79          -61.486         57.7223          -61.484         57.7285      -0.00865113         150.072
0.517                  -0.199478        -130.268         -61.3909          55.555         -61.3888         55.5614      -0.00873052         150.005
0.518                   -0.20555        -130.749         -61.2919           53.37         -61.2897         53.3767      -0.00881071         149.939
0.519                  -0.211986        -131.232          -61.189         51.1679         -61.1868         51.1749      -0.00889168         149.872
0.52                   -0.218792        -131.717         -61.0822         48.9495         -61.0799         48.9568      -0.00897345         149.805
0.521                  -0.225972        -132.205         -60.9715         46.7155         -60.9692         46.7229      -0.00905603         149.739
0.522                   -0.23353        -132.695         -60.8569         44.4664         -60.8546          44.474      -0.00913942         149.672
0.523                  -0.241472        -133.187         -60.7385         42.2029         -60.7361         42.2108      -0.00922362         149.605
0.524                  -0.249801        -133.681         -60.6164         39.9258          -60.614         39.9339      -0.00930865         149.538
0.525                  -0.258523        -134.178         -60.4905         37.6357         -60.4881         37.6439       -0.0093945         149.471
0.526                  -0.267642        -134.677          -60.361         35.3332         -60.3585         35.3415       -0.0094812         149.403
0.527                  -0.277162        -135.178         -60.2279         33.0189         -60.2254         33.0274      -0.00956873         149.336
0.528                  -0.287088        -135.681         -60.0914         30.6934         -60.0889          30.702      -0.00965712         149.269
0.529                  -0.297425        -136.187         -59.9514         28.3574         -59.9489         28.3661      -0.00974636         149.201
0.53                   -0.308176        -136.694         -59.8082         26.0114         -59.8057         26.0201      -0.00983647         149.133
0.531                  -0.319347        -137.204         -59.6618         23.6558         -59.6593         23.6646      -0.00992744         149.066
0.532                   -0.33094        -137.716         -59.5124         21.2913         -59.5099            21.3       -0.0100193         148.998
0.533                  -0.342961         -138.23         -59.3601         18.9182         -59.3576         18.9269        -0.010112          148.93
0.534                  -0.355414        -138.747          -59.205          16.537         -59.2025         16.5457       -0.0102056         148.862
0.535                  -0.368302        -139.265         -59.0472         14.1482         -59.0448         14.1567       -0.0103002         148.794
0.536                   -0.38163        -139.786          -58.887          11.752         -58.8846         11.7604       -0.0103956         148.726
0.537                  -0.395402        -140.308         -58.7245         9.34881         -58.7221         9.35713       -0.0104919         148.657
0.538                  -0.409621        -140.833         -58.5598         6.93897         -58.5574         6.94713       -0.0105891         148.589
0.539                  -0.424291        -141.359         -58.3931         4.52274         -58.3908         4.53071       -0.0106873         148.521
0.54                   -0.439417        -141.888         -58.2245         2.10037         -58.2223         2.10815       -0.0107863         148.452
0.541                  -0.455001        -142.419         -58.0543       -0.327893         -58.0521       -0.320341       -0.0108863         148.383
0.542                  -0.471047        -142.951         -57.8826        -2.76185         -57.8805        -2.75454       -0.0109873         148.314
0.543                  -0.487559        -143.486         -57.7096        -5.20131         -57.7075        -5.19427       -0.0110891         148.246
0.544                  -0.504539        -144.022         -57.5355        -7.64611         -57.5335        -7.63935       -0.0111919         148.177
0.545                  -0.521993        -144.561         -57.3604        -10.0961         -57.3584        -10.0896       -0.0112957         148.107
0.546                  -0.539921        -145.101         -57.1845        -12.5511         -57.1826        -12.5449       -0.0114004         148.038
0.547                  -0.558328        -145.643          -57.008         -15.011         -57.0062        -15.0052        -0.011506         147.969
0.548                  -0.577217        -146.188         -56.8311        -17.4757         -56.8293        -17.4702       -0.0116126           147.9
0.549                   -0.59659        -146.734         -56.6539         -19.945         -56.6522        -19.9399       -0.0117201          147.83
0.55                   -0.616451        -147.281         -56.4767        -22.4188         -56.4751         -22.414       -0.0118286          147.76
0.551                  -0.636801        -147.831         -56.2995         -24.897          -56.298        -24.8926       -0.0119379         147.691
0.552                  -0.657644        -148.382         -56.1227        -27.3794         -56.1212        -27.3754       -0.0120483         147.621
0.553                  -0.678982        -148.936         -55.9462         -29.866         -55.9448        -29.8623       -0.0121595         147.551
0.554                  -0.700818         -149.49         -55.7703        -32.3564          -55.769        -32.3531       -0.0122717         147.481
0.555                  -0.723153        -150.047         -55.5952        -34.8506          -55.594        -34.8476       -0.0123847          147.41
0.556                   -0.74599        -150.606         -55.4211        -37.3483         -55.4199        -37.3457       -0.0124987          147.34
0.557                  -0.769331        -151.166         -55.2479        -39.8494         -55.2469        -39.8472       -0.0126135          147.27
0.558                  -0.793178        -151.727          -55.076        -42.3536          -55.075        -42.3517       -0.0127291         147.199
0.559                  -0.817532        -152.291         -54.9054        -44.8607         -54.9045        -44.8591       -0.0128456         147.128
0.56                   -0.842396        -152.856         -54.7363        -47.3704         -54.7355        -47.3691       -0.0129629         147.058
0.561                  -0.867771        -153.423         -54.5688        -49.8823         -54.5681        -49.8814       -0.0130809         146.987
0.562                  -0.893658        -153.991          -54.403        -52.3963         -54.4024        -52.3956       -0.0131995         146.916
0.563                  -0.920059        -154.561         -54.2391        -54.9119         -54.2385        -54.9115       -0.0133189         146.844
0.564                  -0.946976        -155.132         -54.0771        -57.4288         -54.0766        -57.4287       -0.0134388         146.773
0.565                  -0.974408        -155.706         -53.9171        -59.9466         -53.9167        -59.9468       -0.0135592         146.702
0.566                   -1.00236         -156.28         -53.7593        -62.4649         -53.7589        -62.4653       -0.0136801          146.63
0.567                   -1.03083        -156.856         -53.6036        -64.9834         -53.6034         -64.984       -0.0138013         146.558
0.568                   -1.05981        -157.434         -53.4503        -67.5015         -53.4501        -67.5023       -0.0139227         146.486
0.569                   -1.08932        -158.013         -53.2992        -70.0189         -53.2991        -70.0199       -0.0140443         146.414
0.57                    -1.11935        -158.594         -53.1506        -72.5351         -53.1506        -72.5362       -0.0141658         146.342
0.571                    -1.1499        -159.176         -53.0044        -75.0496         -53.0044        -75.0509       -0.0142872          146.27
0.572                   -1.18097         -159.76         -52.8607         -77.562         -52.8608        -77.5634       -0.0144083         146.198
0.573                   -1.21256        -160.346         -52.7194        -80.0718         -52.7196        -80.0733       -0.0145289         146.125
0.574                   -1.24468        -160.932         -52.5807        -82.5786          -52.581        -82.5801        -0.014649         146.052
0.575                   -1.27731        -161.521         -52.4445        -85.0819         -52.4448        -85.0835       -0.0147684          145.98
0.576                   -1.31047         -162.11         -52.3109        -87.5812         -52.3112        -87.5829        -0.014887         145.907
0.577                   -1.34416        -162.702         -52.1798        -90.0761         -52.1802        -90.0778       -0.0150048         145.833
0.578                   -1.37836        -163.294         -52.0511        -92.5663         -52.0516         -92.568        -0.015122          145.76
0.579                   -1.41309        -163.889          -51.925        -95.0512         -51.9255        -95.0529       -0.0152388         145.687
0.58                    -1.44834        -164.484         -51.8013        -97.5305         -51.8019        -97.5322       -0.0153558         145.613
0.581                   -1.48412        -165.082         -51.6801        -100.004         -51.6807        -100.005       -0.0154736         145.539
0.582                   -1.52041         -165.68         -51.5612        -102.471         -51.5618        -102.472       -0.0155935         145.465
0.583                   -1.55723        -166.281         -51.4446        -104.931         -51.4453        -104.933       -0.0157169         145.391
0.584                   -1.59457        -166.882         -51.3304        -107.385          -51.331        -107.386       -0.0158456         145.316
0.585                   -1.63244        -167.486         -51.2183        -109.831          -51.219        -109.832       -0.0159815         145.241
0.586                   -1.67082        -168.091         -51.1084         -112.27         -51.1091        -112.271       -0.0161266         145.166
0.587                   -1.70973        -168.697         -51.0006        -114.701         -51.0013        -114.702       -0.0162824         145.091
0.588                   -1.74916        -169.306         -50.8948        -117.124         -50.8956        -117.125       -0.0164499         145.016
0.589                   -1.78911        -169.915         -50.7909         -119.54         -50.7917        -119.541       -0.0166295         144.941
0.59                    -1.82958        -170.527          -50.689        -121.947         -50.6897        -121.948       -0.0168203         144.865
0.591                   -1.87057         -171.14         -50.5888        -124.346         -50.5896        -124.347       -0.0170212         144.789
0.592                   -1.91209        -171.755         -50.4903        -126.737         -50.4911        -126.738       -0.0172303         144.713
0.593                   -1.95412        -172.372         -50.3934         -129.12         -50.3942        -129.121       -0.0174457         144.637
0.594                   -1.99668         -172.99         -50.2981        -131.495         -50.2989        -131.495       -0.0176655         144.561
0.595                   -2.03977        -173.611         -50.2043        -133.861         -50.2051        -133.861       -0.0178881         144.485
0.596                   -2.08338        -174.233         -50.1119         -136.22         -50.1127         -136.22       -0.0181123         144.409
0.597                   -2.12752        -174.857         -50.0208         -138.57         -50.0215         -138.57       -0.0183372         144.332
0.598                   -2.17218        -175.484         -49.9309        -140.913         -49.9317        -140.913       -0.0185622         144.256
0.599                   -2.21737        -176.112         -49.8422        -143.247         -49.8429        -143.247       -0.0187871         144.179
0.6                      -2.2631        -176.742         -49.7546        -145.575         -49.7553        -145.575       -0.0190118         144.102
0.601                   -2.30936        -177.375         -49.6679        -147.895         -49.6686        -147.894       -0.0192363         144.025
0.602                   -2.35615         -178.01         -49.5823        -150.208         -49.5829        -150.207       -0.0194608         143.947
0.603                   -2.40349        -178.648         -49.4975        -152.514         -49.4981        -152.513       -0.0196854          143.87
0.604                   -2.45136        -179.288         -49.4135        -154.813         -49.4141        -154.812       -0.0199104         143.792
0.605                   -2.49979         -179.93         -49.3302        -157.106         -49.3308        -157.105        -0.020136         143.714
0.606                   -2.54877         179.425         -49.2476        -159.392         -49.2482        -159.392       -0.0203624         143.636
0.607                   -2.59831         178.777         -49.1657        -161.673         -49.1662        -161.673       -0.0205899         143.558
0.608                   -2.64842         178.126         -49.0843        -163.949         -49.0848        -163.948       -0.0208187         143.479
0.609                    -2.6991         177.473         -49.0035        -166.219          -49.004        -166.218       -0.0210489           143.4
0.61                    -2.75036         176.816         -48.9231        -168.484         -48.9236        -168.483       -0.0212808         143.321
0.611                   -2.80221         176.156         -48.8432        -170.744         -48.8436        -170.743       -0.0215146         143.242
0.612                   -2.85466         175.493         -48.7636            -173          -48.764        -172.999       -0.0217504         143.163
0.613                   -2.90772         174.826         -48.6844        -175.252         -48.6848        -175.251       -0.0219883         143.083
0.614                   -2.96141         174.155         -48.6055        -177.501         -48.6058          -177.5       -0.0222285         143.003
0.615                   -3.01574         173.481         -48.5269        -179.746         -48.5272        -179.745       -0.0224712         142.923
0.616                   -3.07072         172.803         -48.4485         178.012         -48.4488         178.013       -0.0227165         142.843
0.617                   -3.12638         172.121         -48.3704         175.773         -48.3707         175.774       -0.0229644         142.762
0.618                   -3.18273         171.435         -48.2925         173.537         -48.2927         173.538       -0.0232151         142.682
0.619                   -3.23978         170.744         -48.2148         171.302          -48.215         171.303       -0.0234687         142.601
0.62                    -3.29758         170.048         -48.1372          169.07         -48.1374         169.071       -0.0237254         142.519
0.621                   -3.35614         169.348         -48.0599         166.839           -48.06          166.84       -0.0239852         142.438
0.622                   -3.41549         168.642         -47.9826          164.61         -47.9828          164.61       -0.0242481         142.356
0.623                   -3.47565         167.932         -47.9056         162.381         -47.9057         162.382       -0.0245145         142.274
0.624                   -3.53668         167.215         -47.8286         160.154         -47.8287         160.155       -0.0247842         142.192
0.625                    -3.5986         166.494         -47.7519         157.927         -47.7519         157.928       -0.0250574         142.109
0.626                   -3.66145         165.766         -47.6752         155.701         -47.6753         155.701       -0.0253342         142.027
0.627                   -3.72528         165.032         -47.5988         153.475         -47.5988         153.475       -0.0256147         141.944
0.628                   -3.79014         164.292         -47.5224         151.249         -47.5224         151.249       -0.0258991          141.86
0.629                   -3.85607         163.545         -47.4463         149.023         -47.4462         149.023       -0.0261873         141.777
