! TOUCHSTONE file generated by CST MICROWAVE STUDIO
! Date and time: Sat Oct 24 11:17:54 2020
! Project name: Scenario_1_Circular_Tissue_in_Line.cst
! Parameters = {L_HA=400; MT=2.54; Rad_Dielectric=30; Rad_Lower=7.3; Rad_Upper=30; a_HA=580; a_WG=246; b_HA=500; b_WG=121; c_HA=0; c_WG=187; d_feed=85; dx1=900.44; h_feed=15; h_lower=18; h_upper=40}
! Header version: 2018
! Port assignment regex: !\s*Touchstone port\s*([0-9]+)\s*=\s*(CST MWS port|CST DS port)\s*([0-9]+|Zmin|Zmax)\s*\(\"(.*)\"\)(\s*mode\s*([0-9]+))?.*
! Touchstone port assignment:
! Touchstone port 1 = CST MWS port 1 ("")
! Touchstone port 2 = CST MWS port 2 ("")
# GHz S DB R 50
0.5                    -0.152453        -122.455         -62.4519          79.192         -62.4504         79.1936      -0.00752559         151.118
0.501                  -0.153175         -122.89         -62.3961         77.2153         -62.3949         77.2162      -0.00759436         151.053
0.502                  -0.154186        -123.328         -62.3372         75.2172         -62.3363         75.2174      -0.00766377         150.987
0.503                  -0.155494        -123.768          -62.275         73.1982         -62.2744         73.1977      -0.00773382         150.922
0.504                  -0.157101         -124.21         -62.2095         71.1587         -62.2091         71.1574      -0.00780451         150.856
0.505                  -0.159015        -124.655         -62.1406          69.099         -62.1405          69.097      -0.00787585         150.791
0.506                  -0.161239        -125.102         -62.0683         67.0198         -62.0685          67.017      -0.00794784         150.725
0.507                  -0.163779        -125.552         -61.9925         64.9215          -61.993         64.9179      -0.00802049          150.66
0.508                   -0.16664        -126.005         -61.9133         62.8046         -61.9139         62.8003      -0.00809381         150.594
0.509                  -0.169827         -126.46         -61.8304         60.6698         -61.8313         60.6647      -0.00816779         150.528
0.51                   -0.173345        -126.917          -61.744         58.5175         -61.7451         58.5117      -0.00824245         150.462
0.511                  -0.177199        -127.377          -61.654         56.3484         -61.6553         56.3419      -0.00831778         150.396
0.512                  -0.181395        -127.839         -61.5604         54.1632         -61.5619         54.1559       -0.0083938          150.33
0.513                  -0.185936        -128.304         -61.4632         51.9624         -61.4648         51.9544       -0.0084705         150.264
0.514                  -0.190829        -128.771         -61.3624         49.7467         -61.3642          49.738       -0.0085479         150.198
0.515                  -0.196078        -129.241          -61.258         47.5167         -61.2599         47.5074        -0.008626         150.131
0.516                  -0.201688        -129.713           -61.15          45.273         -61.1521         45.2631       -0.0087048         150.065
0.517                  -0.207664        -130.187         -61.0386         43.0164         -61.0407         43.0058      -0.00878431         149.998
0.518                   -0.21401        -130.664         -60.9236         40.7474         -60.9259         40.7362      -0.00886453         149.932
0.519                  -0.220733        -131.144         -60.8052         38.4666         -60.8076          38.455      -0.00894548         149.865
0.52                   -0.227837        -131.625         -60.6834         36.1747         -60.6859         36.1626      -0.00902715         149.798
0.521                  -0.235326        -132.109         -60.5583         33.8723         -60.5609         33.8597      -0.00910956         149.731
0.522                  -0.243205        -132.596           -60.43         31.5599         -60.4326         31.5469       -0.0091927         149.665
0.523                  -0.251479        -133.085         -60.2986         29.2381         -60.3012         29.2247      -0.00927658         149.598
0.524                  -0.260152        -133.576          -60.164         26.9074         -60.1667         26.8937      -0.00936121          149.53
0.525                  -0.269229        -134.069         -60.0266         24.5683         -60.0293         24.5544      -0.00944659         149.463
0.526                  -0.278715        -134.565         -59.8862         22.2214          -59.889         22.2073      -0.00953274         149.396
0.527                  -0.288614        -135.063         -59.7432          19.867         -59.7459         19.8528      -0.00961964         149.329
0.528                  -0.298929        -135.563         -59.5975         17.5056         -59.6002         17.4913      -0.00970732         149.261
0.529                  -0.309667        -136.066         -59.4493         15.1376          -59.452         15.1233      -0.00979576         149.194
0.53                    -0.32083         -136.57         -59.2987         12.7634         -59.3014         12.7491      -0.00988499         149.126
0.531                  -0.332423        -137.077         -59.1459         10.3832         -59.1486          10.369        -0.009975         149.058
0.532                   -0.34445        -137.586          -58.991         7.99746         -58.9937         7.98331       -0.0100658          148.99
0.533                  -0.356914        -138.097         -58.8342         5.60636         -58.8368         5.59239       -0.0101574         148.923
0.534                   -0.36982        -138.611         -58.6755         3.21019         -58.6781         3.19643       -0.0102498         148.855
0.535                  -0.383172        -139.126         -58.5151         0.80917         -58.5176        0.795677        -0.010343         148.786
0.536                  -0.396972        -139.644         -58.3533         -1.5965         -58.3557        -1.60968        -0.010437         148.718
0.537                  -0.411224        -140.164           -58.19        -4.00664         -58.1924        -4.01947       -0.0105318          148.65
0.538                  -0.425933        -140.685         -58.0255         -6.4211         -58.0278        -6.43353       -0.0106274         148.581
0.539                    -0.4411        -141.209           -57.86        -8.83972         -57.8622        -8.85173       -0.0107238         148.513
0.54                    -0.45673        -141.735         -57.6935        -11.2624         -57.6957        -11.2739       -0.0108211         148.444
0.541                  -0.472825        -142.263         -57.5263         -13.689         -57.5283           -13.7       -0.0109191         148.376
0.542                  -0.489388        -142.793         -57.3584        -16.1194         -57.3604        -16.1299        -0.011018         148.307
0.543                  -0.506421        -143.324         -57.1901        -18.5536          -57.192        -18.5636       -0.0111177         148.238
0.544                  -0.523929        -143.858         -57.0214        -20.9915         -57.0232        -21.0008       -0.0112183         148.169
0.545                  -0.541912        -144.394         -56.8526        -23.4329         -56.8543        -23.4417       -0.0113196           148.1
0.546                  -0.560373        -144.931         -56.6837        -25.8778         -56.6853         -25.886       -0.0114218          148.03
0.547                  -0.579316        -145.471          -56.515        -28.3261         -56.5165        -28.3337       -0.0115247         147.961
0.548                   -0.59874        -146.012         -56.3465        -30.7778         -56.3479        -30.7847       -0.0116285         147.892
0.549                   -0.61865        -146.555         -56.1784        -33.2327         -56.1797         -33.239       -0.0117331         147.822
0.55                   -0.639045        -147.099         -56.0109        -35.6907          -56.012        -35.6964       -0.0118385         147.752
0.551                  -0.659928        -147.646         -55.8439        -38.1518          -55.845        -38.1568       -0.0119447         147.683
0.552                  -0.681301        -148.194         -55.6778        -40.6158         -55.6788        -40.6202       -0.0120516         147.613
0.553                  -0.703164        -148.744         -55.5126        -43.0826         -55.5135        -43.0863       -0.0121594         147.543
0.554                  -0.725519        -149.296         -55.3485        -45.5521         -55.3492        -45.5552       -0.0122679         147.472
0.555                  -0.748366         -149.85         -55.1854        -48.0241         -55.1861        -48.0265       -0.0123771         147.402
0.556                  -0.771707        -150.405         -55.0236        -50.4984         -55.0242        -50.5002        -0.012487         147.332
0.557                  -0.795542        -150.962         -54.8632        -52.9748         -54.8636        -52.9761       -0.0125977         147.261
0.558                  -0.819872         -151.52         -54.7042        -55.4532         -54.7045        -55.4539        -0.012709         147.191
0.559                  -0.844696         -152.08         -54.5468        -57.9333          -54.547        -57.9335        -0.012821          147.12
0.56                   -0.870016        -152.642          -54.391         -60.415         -54.3911        -60.4147       -0.0129336         147.049
0.561                   -0.89583        -153.205         -54.2369        -62.8979         -54.2369         -62.897       -0.0130469         146.978
0.562                  -0.922139         -153.77         -54.0846        -65.3817         -54.0845        -65.3805       -0.0131607         146.907
0.563                  -0.948943        -154.336         -53.9342        -67.8664          -53.934        -67.8646        -0.013275         146.836
0.564                  -0.976241        -154.904         -53.7857        -70.3514         -53.7854        -70.3493       -0.0133898         146.764
0.565                   -1.00403        -155.473         -53.6392        -72.8366         -53.6388        -72.8341       -0.0135051         146.693
0.566                   -1.03231        -156.044         -53.4946        -75.3216         -53.4942        -75.3188       -0.0136209         146.621
0.567                   -1.06109        -156.617         -53.3522        -77.8062         -53.3516         -77.803        -0.013737         146.549
0.568                   -1.09036        -157.191         -53.2119        -80.2899         -53.2112        -80.2865       -0.0138536         146.477
0.569                   -1.12011        -157.766         -53.0737        -82.7726         -53.0729        -82.7689       -0.0139705         146.405
0.57                    -1.15035        -158.343         -52.9376        -85.2538         -52.9368        -85.2499       -0.0140878         146.333
0.571                   -1.18108        -158.922         -52.8037        -87.7333         -52.8028        -87.7291       -0.0142055         146.261
0.572                   -1.21229        -159.502          -52.672        -90.2106         -52.6711        -90.2063       -0.0143236         146.188
0.573                   -1.24399        -160.083         -52.5425        -92.6856         -52.5415        -92.6811       -0.0144423         146.115
0.574                   -1.27616        -160.666         -52.4152        -95.1578         -52.4141        -95.1533       -0.0145616         146.042
0.575                   -1.30882        -161.251           -52.29         -97.627         -52.2889        -97.6224       -0.0146819         145.969
0.576                   -1.34195        -161.837          -52.167        -100.093         -52.1658        -100.088       -0.0148033         145.896
0.577                   -1.37556        -162.425         -52.0461        -102.555         -52.0449         -102.55       -0.0149262         145.823
0.578                   -1.40964        -163.014         -51.9273        -105.013         -51.9261        -105.009       -0.0150511         145.749
0.579                   -1.44418        -163.605         -51.8107        -107.468         -51.8094        -107.463       -0.0151785         145.676
0.58                     -1.4792        -164.197          -51.696        -109.917         -51.6947        -109.913       -0.0153092         145.602
0.581                   -1.51468        -164.791         -51.5834        -112.363         -51.5821        -112.358       -0.0154439         145.528
0.582                   -1.55062        -165.386         -51.4728        -114.803         -51.4714        -114.799       -0.0155834         145.454
0.583                   -1.58703        -165.984          -51.364        -117.238         -51.3627        -117.234       -0.0157285         145.379
0.584                   -1.62389        -166.583         -51.2572        -119.669         -51.2558        -119.664       -0.0158802         145.305
0.585                    -1.6612        -167.183         -51.1521        -122.093         -51.1508        -122.089        -0.016039          145.23
0.586                   -1.69897        -167.786         -51.0489        -124.513         -51.0475        -124.509       -0.0162055         145.155
0.587                   -1.73719         -168.39         -50.9473        -126.926         -50.9459        -126.923       -0.0163799          145.08
0.588                   -1.77586        -168.996         -50.8474        -129.335          -50.846        -129.331       -0.0165621         145.005
0.589                   -1.81497        -169.605         -50.7491        -131.737         -50.7477        -131.733       -0.0167519         144.929
0.59                    -1.85452        -170.215         -50.6523        -134.134         -50.6509         -134.13       -0.0169486         144.854
0.591                   -1.89452        -170.827         -50.5569        -136.524         -50.5556        -136.521       -0.0171513         144.778
0.592                   -1.93496        -171.441          -50.463        -138.909         -50.4617        -138.906       -0.0173593         144.702
0.593                   -1.97584        -172.058         -50.3704        -141.289         -50.3692        -141.286       -0.0175714         144.626
0.594                   -2.01715        -172.677         -50.2791        -143.662         -50.2779         -143.66       -0.0177868          144.55
0.595                   -2.05891        -173.298          -50.189         -146.03         -50.1879        -146.028       -0.0180046         144.474
0.596                    -2.1011        -173.921         -50.1001        -148.392          -50.099         -148.39       -0.0182242         144.397
0.597                   -2.14373        -174.548         -50.0123        -150.749         -50.0112        -150.747       -0.0184451         144.321
0.598                   -2.18679        -175.177         -49.9255        -153.101         -49.9244        -153.098       -0.0186669         144.244
0.599                    -2.2303        -175.808         -49.8397        -155.447         -49.8387        -155.445       -0.0188892         144.167
0.6                     -2.27425        -176.443         -49.7548        -157.787         -49.7538        -157.786       -0.0191121          144.09
0.601                   -2.31864         -177.08         -49.6708        -160.123         -49.6699        -160.122       -0.0193354         144.013
0.602                   -2.36348        -177.721         -49.5876        -162.454         -49.5867        -162.453       -0.0195592         143.935
0.603                   -2.40877        -178.365         -49.5051        -164.781         -49.5043        -164.779       -0.0197835         143.858
0.604                   -2.45452        -179.013         -49.4234        -167.103         -49.4226        -167.101       -0.0200086          143.78
0.605                   -2.50074        -179.664         -49.3423         -169.42         -49.3416        -169.419       -0.0202345         143.702
0.606                   -2.54742         179.681         -49.2619        -171.734         -49.2612        -171.732       -0.0204614         143.624
0.607                   -2.59459         179.022          -49.182        -174.043         -49.1814        -174.042       -0.0206895         143.545
0.608                   -2.64225         178.359         -49.1027        -176.349         -49.1021        -176.348        -0.020919         143.467
0.609                   -2.69041         177.692         -49.0238        -178.651         -49.0233         -178.65       -0.0211499         143.388
0.61                    -2.73909          177.02         -48.9455          179.05          -48.945         179.051       -0.0213826         143.309
0.611                    -2.7883         176.343         -48.8675         176.754         -48.8671         176.755       -0.0216171          143.23
0.612                   -2.83807         175.662           -48.79         174.461         -48.7897         174.462       -0.0218536          143.15
0.613                   -2.88841         174.975         -48.7129         172.171         -48.7125         172.172       -0.0220923          143.07
0.614                   -2.93934         174.282         -48.6361         169.883         -48.6358         169.884       -0.0223332          142.99
0.615                    -2.9909         173.584         -48.5596         167.598         -48.5594         167.598       -0.0225766          142.91
0.616                   -3.04311          172.88         -48.4834         165.314         -48.4832         165.315       -0.0228226          142.83
0.617                   -3.09601          172.17         -48.4075         163.033         -48.4074         163.033       -0.0230712         142.749
0.618                   -3.14963         171.453         -48.3319         160.753         -48.3318         160.754       -0.0233226         142.668
0.619                   -3.20401          170.73         -48.2566         158.475         -48.2565         158.475       -0.0235769         142.587
0.62                     -3.2592         169.999         -48.1815         156.198         -48.1815         156.199       -0.0238343         142.506
0.621                   -3.31525         169.261         -48.1067         153.922         -48.1067         153.923       -0.0240948         142.424
0.622                   -3.37221         168.515          -48.032         151.648         -48.0321         151.648       -0.0243585         142.342
0.623                   -3.43016         167.761         -47.9577         149.374         -47.9577         149.375       -0.0246255          142.26
0.624                   -3.48914         166.999         -47.8835         147.101         -47.8836         147.102       -0.0248961         142.178
0.625                   -3.54925         166.228         -47.8096         144.829         -47.8097          144.83       -0.0251701         142.095
0.626                   -3.61055         165.448         -47.7359         142.557          -47.736         142.558       -0.0254478         142.013
0.627                   -3.67314         164.659         -47.6624         140.286         -47.6626         140.287       -0.0257293         141.929
0.628                   -3.73712         163.861         -47.5892         138.015         -47.5893         138.016       -0.0260146         141.846
0.629                   -3.80259         163.053         -47.5162         135.745         -47.5164         135.746       -0.0263038         141.762
