! TOUCHSTONE file generated by CST MICROWAVE STUDIO
! Date and time: Sat Oct 24 11:17:59 2020
! Project name: Scenario_1_Circular_Tissue_in_Line.cst
! Parameters = {L_HA=400; MT=2.54; Rad_Dielectric=30; Rad_Lower=7.3; Rad_Upper=30; a_HA=580; a_WG=246; b_HA=500; b_WG=121; c_HA=0; c_WG=187; d_feed=85; dx1=917.76; h_feed=15; h_lower=18; h_upper=40}
! Header version: 2018
! Port assignment regex: !\s*Touchstone port\s*([0-9]+)\s*=\s*(CST MWS port|CST DS port)\s*([0-9]+|Zmin|Zmax)\s*\(\"(.*)\"\)(\s*mode\s*([0-9]+))?.*
! Touchstone port assignment:
! Touchstone port 1 = CST MWS port 1 ("")
! Touchstone port 2 = CST MWS port 2 ("")
# GHz S DB R 50
0.5                    -0.156479        -122.396         -62.4196         68.6789         -62.4196         68.6789       -0.0075609         151.119
0.501                  -0.163313        -122.826         -62.2378         66.2779         -62.2397         66.2914      -0.00763615         151.054
0.502                  -0.170224        -123.257         -62.0591         63.8709         -62.0626         63.8967      -0.00771191         150.988
0.503                  -0.177212         -123.69         -61.8835         61.4587         -61.8883         61.4957      -0.00778816         150.923
0.504                  -0.184278        -124.125         -61.7111         59.0421          -61.717         59.0891       -0.0078649         150.857
0.505                  -0.191423        -124.562         -61.5418          56.622         -61.5485         56.6778      -0.00794211         150.792
0.506                  -0.198648            -125         -61.3756         54.1992          -61.383         54.2627       -0.0080198         150.726
0.507                  -0.205953         -125.44         -61.2124         51.7746         -61.2203         51.8447      -0.00809794         150.661
0.508                   -0.21334        -125.882         -61.0523          49.349         -61.0605         49.4247      -0.00817653         150.595
0.509                  -0.220811        -126.327         -60.8952         46.9234         -60.9035         47.0035      -0.00825557         150.529
0.51                   -0.228367        -126.773         -60.7409         44.4984         -60.7492         44.5819      -0.00833503         150.463
0.511                  -0.236009        -127.221         -60.5896          42.075         -60.5978         42.1609      -0.00841491         150.397
0.512                   -0.24374        -127.671          -60.441         39.6538          -60.449         39.7412      -0.00849519         150.331
0.513                  -0.251561        -128.124          -60.295         37.2357         -60.3027         37.3237      -0.00857588         150.265
0.514                  -0.259476        -128.578         -60.1517         34.8213         -60.1591          34.909      -0.00865694         150.199
0.515                  -0.267486        -129.035         -60.0109         32.4112         -60.0178         32.4979      -0.00873838         150.132
0.516                  -0.275595        -129.494         -59.8724         30.0062         -59.8789         30.0911      -0.00882018         150.066
0.517                  -0.283806        -129.956         -59.7362         27.6068         -59.7422         27.6893      -0.00890233         149.999
0.518                  -0.292123         -130.42         -59.6022         25.2134         -59.6077         25.2929      -0.00898481         149.933
0.519                   -0.30055        -130.886         -59.4701         22.8266         -59.4752         22.9026      -0.00906762         149.866
0.52                    -0.30909        -131.355           -59.34         20.4467         -59.3446         20.5187      -0.00915074           149.8
0.521                  -0.317749        -131.826         -59.2117         18.0742         -59.2157         18.1418      -0.00923417         149.733
0.522                  -0.326531          -132.3          -59.085         15.7093         -59.0885         15.7722      -0.00931788         149.666
0.523                  -0.335442        -132.777         -58.9598         13.3522         -58.9629         13.4102      -0.00940189         149.599
0.524                  -0.344489        -133.256          -58.836         11.0032         -58.8387          11.056      -0.00948617         149.532
0.525                  -0.353678        -133.739         -58.7134         8.66233         -58.7157          8.7099      -0.00957071         149.465
0.526                  -0.363016        -134.224          -58.592         6.32974         -58.5938         6.37194      -0.00965552         149.397
0.527                  -0.372511        -134.712         -58.4715         4.00543          -58.473         4.04225      -0.00974059          149.33
0.528                  -0.382171        -135.203         -58.3518         1.68935         -58.3531         1.72083      -0.00982591         149.263
0.529                  -0.392005        -135.697         -58.2329       -0.618566         -58.2339       -0.592347      -0.00991149         149.195
0.53                   -0.402024        -136.195         -58.1146        -2.91845         -58.1153        -2.89736      -0.00999733         149.128
0.531                  -0.412237        -136.695         -57.9967        -5.21049         -57.9972        -5.19435       -0.0100834          149.06
0.532                  -0.422656        -137.199         -57.8792         -7.4949         -57.8795         -7.4835       -0.0101698         148.992
0.533                  -0.433294        -137.706         -57.7619        -9.77194         -57.7621        -9.76505       -0.0102564         148.924
0.534                  -0.444162        -138.217         -57.6447        -12.0419         -57.6448        -12.0393       -0.0103434         148.856
0.535                  -0.455277        -138.731         -57.5275        -14.3052         -57.5276        -14.3065       -0.0104306         148.788
0.536                  -0.466652        -139.249         -57.4103        -16.5622         -57.4103         -16.567       -0.0105182          148.72
0.537                  -0.478303         -139.77         -57.2928        -18.8132         -57.2928        -18.8213       -0.0106061         148.652
0.538                  -0.490249        -140.295         -57.1751        -21.0588         -57.1751        -21.0698       -0.0106944         148.583
0.539                  -0.502507        -140.824          -57.057        -23.2995          -57.057         -23.313       -0.0107831         148.515
0.54                   -0.515096        -141.356         -56.9385        -25.5356         -56.9386        -25.5513       -0.0108723         148.446
0.541                  -0.528039        -141.893         -56.8194        -27.7678         -56.8196        -27.7852       -0.0109619         148.377
0.542                  -0.541355        -142.433         -56.6998        -29.9967            -56.7        -30.0155       -0.0110521         148.309
0.543                  -0.555069        -142.977         -56.5795        -32.2227         -56.5798        -32.2425       -0.0111429          148.24
0.544                  -0.569205        -143.525         -56.4585        -34.4465         -56.4589         -34.467       -0.0112344         148.171
0.545                  -0.583789        -144.077         -56.3368        -36.6688         -56.3372        -36.6895       -0.0113265         148.101
0.546                  -0.598848        -144.634         -56.2142          -38.89         -56.2147        -38.9107       -0.0114194         148.032
0.547                  -0.614409        -145.194         -56.0909         -41.111         -56.0914        -41.1312       -0.0115131         147.963
0.548                  -0.630503        -145.758         -55.9666        -43.3323         -55.9672        -43.3518       -0.0116077         147.893
0.549                  -0.647159        -146.326         -55.8415        -45.5546         -55.8421        -45.5731       -0.0117033         147.824
0.55                   -0.664409        -146.898         -55.7155        -47.7786         -55.7161        -47.7958       -0.0117999         147.754
0.551                  -0.682286        -147.474         -55.5886        -50.0049         -55.5892        -50.0205       -0.0118977         147.684
0.552                  -0.700822        -148.054         -55.4608        -52.2343         -55.4614        -52.2481       -0.0119966         147.614
0.553                   -0.72005        -148.637         -55.3321        -54.4673         -55.3326        -54.4792       -0.0120969         147.544
0.554                  -0.740006        -149.224         -55.2025        -56.7048          -55.203        -56.7145       -0.0121985         147.474
0.555                  -0.760721        -149.815          -55.072        -58.9473         -55.0724        -58.9547       -0.0123016         147.403
0.556                  -0.782231        -150.409         -54.9407        -61.1955          -54.941        -61.2005       -0.0124062         147.333
0.557                  -0.804567        -151.006         -54.8086        -63.4501         -54.8088        -63.4526       -0.0125124         147.262
0.558                  -0.827762        -151.606         -54.6758        -65.7117         -54.6758        -65.7116       -0.0126203         147.192
0.559                  -0.851845        -152.209         -54.5422        -67.9809          -54.542        -67.9783         -0.01273         147.121
0.56                   -0.876845        -152.815          -54.408        -70.2584         -54.4076        -70.2532       -0.0128416          147.05
0.561                  -0.902787        -153.423         -54.2733        -72.5447         -54.2727        -72.5369        -0.012955         146.979
0.562                  -0.929693        -154.032          -54.138        -74.8403         -54.1372        -74.8301       -0.0130704         146.907
0.563                  -0.957583        -154.644         -54.0024        -77.1458         -54.0012        -77.1333       -0.0131879         146.836
0.564                  -0.986471        -155.256         -53.8664        -79.4617         -53.8649         -79.447       -0.0133075         146.765
0.565                   -1.01636         -155.87         -53.7302        -81.7884         -53.7284        -81.7716       -0.0134293         146.693
0.566                   -1.04727        -156.484         -53.5938        -84.1263         -53.5918        -84.1076       -0.0135532         146.621
0.567                   -1.07918        -157.098         -53.4575        -86.4758         -53.4551        -86.4554       -0.0136795         146.549
0.568                   -1.11209        -157.712         -53.3213        -88.8372         -53.3185        -88.8153        -0.013808         146.477
0.569                   -1.14599        -158.325         -53.1853        -91.2106         -53.1822        -91.1875       -0.0139389         146.405
0.57                    -1.18084        -158.937         -53.0496        -93.5964         -53.0462        -93.5722       -0.0140722         146.333
0.571                   -1.21662        -159.548         -52.9144        -95.9946         -52.9107        -95.9697       -0.0142079          146.26
0.572                   -1.25328        -160.157         -52.7799        -98.4052         -52.7759        -98.3798       -0.0143461         146.188
0.573                   -1.29079        -160.763         -52.6461        -100.828         -52.6418        -100.803       -0.0144867         146.115
0.574                   -1.32908        -161.367         -52.5132        -103.264         -52.5086        -103.238       -0.0146297         146.042
0.575                   -1.36809        -161.968         -52.3813        -105.711         -52.3765        -105.686       -0.0147753         145.969
0.576                   -1.40775        -162.566         -52.2506        -108.171         -52.2456        -108.146       -0.0149234         145.896
0.577                   -1.44799        -163.161         -52.1212        -110.642          -52.116        -110.618        -0.015074         145.822
0.578                   -1.48873        -163.752         -51.9933        -113.124         -51.9879        -113.101       -0.0152271         145.749
0.579                   -1.52989        -164.339         -51.8669        -115.617         -51.8614        -115.596       -0.0153827         145.675
0.58                    -1.57137        -164.924         -51.7423         -118.12         -51.7367          -118.1       -0.0155408         145.602
0.581                   -1.61309        -165.504         -51.6194        -120.633         -51.6139        -120.614       -0.0157015         145.528
0.582                   -1.65496        -166.081         -51.4986        -123.154          -51.493        -123.137       -0.0158647         145.454
0.583                    -1.6969        -166.656         -51.3797        -125.684         -51.3742        -125.668       -0.0160304         145.379
0.584                   -1.73882        -167.227          -51.263         -128.22         -51.2576        -128.206       -0.0161986         145.305
0.585                   -1.78066        -167.796         -51.1485        -130.762         -51.1433         -130.75       -0.0163693         145.231
0.586                   -1.82232        -168.363         -51.0363         -133.31         -51.0313          -133.3       -0.0165425         145.156
0.587                   -1.86376        -168.928         -50.9265        -135.862         -50.9217        -135.853       -0.0167182         145.081
0.588                    -1.9049        -169.492          -50.819        -138.417         -50.8146         -138.41       -0.0168963         145.006
0.589                   -1.94571        -170.055          -50.714        -140.974         -50.7099        -140.968        -0.017077         144.931
0.59                    -1.98615        -170.619         -50.6114        -143.532         -50.6076        -143.528       -0.0172601         144.855
0.591                   -2.02618        -171.183         -50.5112         -146.09         -50.5079        -146.087       -0.0174456          144.78
0.592                   -2.06579        -171.749         -50.4135        -148.646         -50.4106        -148.645       -0.0176336         144.704
0.593                   -2.10496        -172.317         -50.3181        -151.201         -50.3157          -151.2        -0.017824         144.628
0.594                   -2.14371        -172.887         -50.2251        -153.752         -50.2232        -153.752       -0.0180168         144.552
0.595                   -2.18204        -173.461         -50.1344        -156.299         -50.1329          -156.3       -0.0182121         144.476
0.596                   -2.21998        -174.039         -50.0459        -158.841          -50.045        -158.842       -0.0184097           144.4
0.597                   -2.25755        -174.622         -49.9596        -161.377         -49.9591        -161.377       -0.0186098         144.323
0.598                    -2.2948        -175.209         -49.8753        -163.906         -49.8753        -163.906       -0.0188122         144.247
0.599                   -2.33177        -175.803         -49.7929        -166.427         -49.7934        -166.426       -0.0190171          144.17
0.6                     -2.36852        -176.403         -49.7124         -168.94         -49.7134        -168.938       -0.0192243         144.092
0.601                   -2.40511        -177.011         -49.6336        -171.444          -49.635        -171.441       -0.0194339         144.015
0.602                   -2.44161        -177.625         -49.5564        -173.938         -49.5582        -173.935       -0.0196458         143.938
0.603                   -2.47809        -178.248         -49.4807        -176.423         -49.4829        -176.418       -0.0198601          143.86
0.604                   -2.51462        -178.879         -49.4063        -178.897         -49.4088         -178.89       -0.0200768         143.782
0.605                    -2.5513        -179.519         -49.3331         178.639         -49.3359         178.648       -0.0202959         143.704
0.606                   -2.58821         179.833          -49.261         176.186         -49.2641         176.197       -0.0205173         143.626
0.607                   -2.62544         179.174         -49.1898         173.744         -49.1931         173.756       -0.0207411         143.547
0.608                   -2.66307         178.506         -49.1194         171.313         -49.1229         171.327       -0.0209674         143.469
0.609                   -2.70121         177.828         -49.0497         168.893         -49.0534         168.909        -0.021196          143.39
0.61                    -2.73995          177.14         -48.9805         166.483         -48.9843         166.501        -0.021427         143.311
0.611                   -2.77939         176.441         -48.9118         164.084         -48.9157         164.103       -0.0216604         143.232
0.612                   -2.81963         175.732         -48.8434         161.695         -48.8473         161.716       -0.0218963         143.152
0.613                   -2.86077         175.013         -48.7752         159.316         -48.7792         159.339       -0.0221348         143.072
0.614                   -2.90293         174.283         -48.7072         156.947         -48.7111         156.971       -0.0223757         142.992
0.615                    -2.9462         173.542         -48.6392         154.587          -48.643         154.612       -0.0226192         142.912
0.616                   -2.99069          172.79         -48.5711         152.235         -48.5748         152.262       -0.0228653         142.832
0.617                   -3.03651         172.028         -48.5029         149.892         -48.5065         149.919        -0.023114         142.751
0.618                   -3.08377         171.255         -48.4346         147.556          -48.438         147.585       -0.0233655          142.67
0.619                   -3.13258         170.472          -48.366         145.228         -48.3692         145.257       -0.0236198         142.589
0.62                    -3.18305         169.678         -48.2971         142.906         -48.3001         142.936       -0.0238769         142.508
0.621                    -3.2353         168.874         -48.2279          140.59         -48.2307          140.62        -0.024137         142.426
0.622                   -3.28943          168.06         -48.1583          138.28         -48.1609          138.31          -0.0244         142.344
0.623                   -3.34557         167.236         -48.0884         135.975         -48.0908         136.005       -0.0246662         142.262
0.624                   -3.40382         166.403         -48.0181         133.674         -48.0203         133.704       -0.0249356          142.18
0.625                   -3.46431         165.561         -47.9474         131.378         -47.9493         131.407       -0.0252083         142.097
0.626                   -3.52714          164.71         -47.8764         129.084         -47.8781         129.113       -0.0254845         142.015
0.627                   -3.59244         163.851          -47.805         126.793         -47.8064         126.821       -0.0257641         141.931
0.628                   -3.66032         162.984         -47.7332         124.505         -47.7344         124.532       -0.0260475         141.848
0.629                   -3.73089          162.11         -47.6611         122.219         -47.6621         122.245       -0.0263346         141.764
