! TOUCHSTONE file generated by CST MICROWAVE STUDIO
! Date and time: Sat Oct 24 11:18:09 2020
! Project name: Scenario_1_Circular_Tissue_in_Line.cst
! Parameters = {L_HA=400; MT=2.54; Rad_Dielectric=30; Rad_Lower=7.3; Rad_Upper=30; a_HA=580; a_WG=246; b_HA=500; b_WG=121; c_HA=0; c_WG=187; d_feed=85; dx1=935.08; h_feed=15; h_lower=18; h_upper=40}
! Header version: 2018
! Port assignment regex: !\s*Touchstone port\s*([0-9]+)\s*=\s*(CST MWS port|CST DS port)\s*([0-9]+|Zmin|Zmax)\s*\(\"(.*)\"\)(\s*mode\s*([0-9]+))?.*
! Touchstone port assignment:
! Touchstone port 1 = CST MWS port 1 ("")
! Touchstone port 2 = CST MWS port 2 ("")
# GHz S DB R 50
0.5                    -0.159746        -122.405         -62.4261         58.0656         -62.4261         58.0656      -0.00761735          151.12
0.501                   -0.16151        -122.852         -62.3519         56.0992         -62.3513         56.0977      -0.00767848         151.055
0.502                   -0.16356        -123.302          -62.275         54.1162         -62.2738         54.1134      -0.00774031          150.99
0.503                  -0.165902        -123.754         -62.1952         52.1169         -62.1934         52.1129      -0.00780286         150.925
0.504                  -0.168539        -124.208         -62.1126         50.1015         -62.1101         50.0964      -0.00786612         150.859
0.505                  -0.171475        -124.664          -62.027         48.0704          -62.024         48.0643       -0.0079301         150.794
0.506                  -0.174714        -125.123         -61.9386         46.0237          -61.935         46.0167      -0.00799481         150.728
0.507                  -0.178261        -125.584         -61.8473         43.9617         -61.8431         43.9539      -0.00806025         150.662
0.508                  -0.182119        -126.047          -61.753         41.8848         -61.7483         41.8763      -0.00812644         150.597
0.509                  -0.186292        -126.512         -61.6559         39.7931         -61.6506         39.7841      -0.00819338         150.531
0.51                   -0.190784         -126.98         -61.5558          37.687         -61.5501         37.6775      -0.00826107         150.465
0.511                  -0.195599        -127.449         -61.4528         35.5667         -61.4466         35.5568      -0.00832953         150.399
0.512                  -0.200741        -127.921          -61.347         33.4326         -61.3403         33.4223      -0.00839876         150.333
0.513                  -0.206214        -128.395         -61.2383         31.2848         -61.2312         31.2743      -0.00846877         150.267
0.514                  -0.212022        -128.871         -61.1267         29.1237         -61.1192          29.113      -0.00853956         150.201
0.515                  -0.218167        -129.349         -61.0124         26.9495         -61.0045         26.9388      -0.00861115         150.134
0.516                  -0.224655         -129.83         -60.8953         24.7625          -60.887         24.7518      -0.00868354         150.068
0.517                  -0.231489        -130.312         -60.7754          22.563         -60.7668         22.5523      -0.00875674         150.001
0.518                  -0.238672        -130.797         -60.6529         20.3512          -60.644         20.3405      -0.00883076         149.935
0.519                  -0.246207        -131.284         -60.5277         18.1273         -60.5186         18.1168       -0.0089056         149.868
0.52                     -0.2541        -131.772            -60.4         15.8915         -60.3906         15.8812      -0.00898128         149.801
0.521                  -0.262351        -132.263         -60.2697         13.6442         -60.2601         13.6341      -0.00905781         149.735
0.522                  -0.270966        -132.756          -60.137         11.3854         -60.1272         11.3756      -0.00913518         149.668
0.523                  -0.279948        -133.251          -60.002         9.11539          -59.992         9.10583      -0.00921342         149.601
0.524                  -0.289298        -133.748         -59.8646         6.83435         -59.8545         6.82508      -0.00929252         149.534
0.525                  -0.299022        -134.247          -59.725         4.54244         -59.7148         4.53348       -0.0093725         149.466
0.526                  -0.309122        -134.748         -59.5833         2.23982          -59.573         2.23118      -0.00945338         149.399
0.527                    -0.3196        -135.251         -59.4395      -0.0733741         -59.4292      -0.0816895      -0.00953515         149.332
0.528                   -0.33046        -135.756         -59.2938          -2.397         -59.2835        -2.40499      -0.00961782         149.264
0.529                  -0.341704        -136.263         -59.1462        -4.73094         -59.1359        -4.73859      -0.00970142         149.197
0.53                   -0.353336        -136.772         -58.9968        -7.07507         -58.9866         -7.0824      -0.00978594         149.129
0.531                  -0.365357        -137.283         -58.8458        -9.42929         -58.8357         -9.4363       -0.0098714         149.061
0.532                  -0.377771        -137.795         -58.6933        -11.7935         -58.6833        -11.8002       -0.0099578         148.994
0.533                   -0.39058         -138.31         -58.5393        -14.1676         -58.5295         -14.174       -0.0100452         148.926
0.534                  -0.403785        -138.826         -58.3841        -16.5516         -58.3744        -16.5577       -0.0101335         148.858
0.535                   -0.41739        -139.345         -58.2276        -18.9453         -58.2181        -18.9511       -0.0102228          148.79
0.536                  -0.431397        -139.865           -58.07        -21.3487         -58.0608        -21.3542       -0.0103131         148.721
0.537                  -0.445806        -140.387         -57.9115        -23.7616         -57.9025        -23.7669       -0.0104044         148.653
0.538                  -0.460621        -140.911         -57.7521        -26.1841         -57.7434        -26.1891       -0.0104967         148.585
0.539                  -0.475843        -141.436          -57.592         -28.616         -57.5836        -28.6208       -0.0105901         148.516
0.54                   -0.491474        -141.964         -57.4313        -31.0573         -57.4232        -31.0618       -0.0106844         148.447
0.541                  -0.507516        -142.493         -57.2702        -33.5079         -57.2624        -33.5121       -0.0107799         148.379
0.542                  -0.523968        -143.024         -57.1087        -35.9676         -57.1013        -35.9715       -0.0108764          148.31
0.543                  -0.540834        -143.556          -56.947        -38.4363         -56.9401          -38.44       -0.0109739         148.241
0.544                  -0.558114        -144.091         -56.7853         -40.914         -56.7787        -40.9175       -0.0110725         148.172
0.545                   -0.57581        -144.627         -56.6236        -43.4005         -56.6175        -43.4037       -0.0111723         148.103
0.546                  -0.593921        -145.165         -56.4621        -45.8957         -56.4564        -45.8986       -0.0112731         148.033
0.547                   -0.61245        -145.704         -56.3009        -48.3993         -56.2956        -48.4019       -0.0113751         147.964
0.548                  -0.631396        -146.245         -56.1401        -50.9113         -56.1354        -50.9135       -0.0114782         147.895
0.549                   -0.65076        -146.788         -55.9799        -53.4313         -55.9757        -53.4331       -0.0115824         147.825
0.55                   -0.670543        -147.332         -55.8204        -55.9591         -55.8167        -55.9606       -0.0116878         147.755
0.551                  -0.690745        -147.878         -55.6617        -58.4946         -55.6585        -58.4956       -0.0117944         147.685
0.552                  -0.711365        -148.426         -55.5039        -61.0374         -55.5012        -61.0379       -0.0119022         147.615
0.553                  -0.732405        -148.976         -55.3472        -63.5872          -55.345        -63.5872       -0.0120112         147.545
0.554                  -0.753864        -149.527         -55.1917        -66.1437           -55.19        -66.1431       -0.0121214         147.475
0.555                  -0.775742        -150.079         -55.0374        -68.7065         -55.0362        -68.7053       -0.0122328         147.405
0.556                  -0.798038        -150.633         -54.8844        -71.2752         -54.8838        -71.2734       -0.0123455         147.334
0.557                  -0.820752        -151.189          -54.733        -73.8496         -54.7329         -73.847       -0.0124594         147.264
0.558                  -0.843884        -151.747         -54.5831         -76.429         -54.5836        -76.4256       -0.0125746         147.193
0.559                  -0.867432        -152.306         -54.4349        -79.0131         -54.4358        -79.0089       -0.0126911         147.122
0.56                   -0.891397        -152.866         -54.2884        -81.6014         -54.2899        -81.5963       -0.0128089         147.052
0.561                  -0.915776        -153.429         -54.1437        -84.1934         -54.1457        -84.1873       -0.0129281         146.981
0.562                   -0.94057        -153.992         -54.0009        -86.7887         -54.0034        -86.7815       -0.0130485         146.909
0.563                  -0.965777        -154.558         -53.8601        -89.3865          -53.863        -89.3782       -0.0131703         146.838
0.564                  -0.991395        -155.125         -53.7212        -91.9865         -53.7247        -91.9771       -0.0132935         146.767
0.565                   -1.01742        -155.694         -53.5845         -94.588         -53.5884        -94.5774       -0.0134181         146.695
0.566                   -1.04386        -156.264         -53.4498        -97.1906         -53.4541        -97.1787        -0.013544         146.623
0.567                   -1.07071        -156.836         -53.3172        -99.7936          -53.322        -99.7803       -0.0136714         146.552
0.568                   -1.09796         -157.41         -53.1868        -102.396          -53.192        -102.382       -0.0138002          146.48
0.569                   -1.12562        -157.985         -53.0586        -104.998         -53.0642        -104.982       -0.0139304         146.407
0.57                    -1.15368        -158.563         -52.9326        -107.599         -52.9385        -107.582       -0.0140621         146.335
0.571                   -1.18215        -159.142         -52.8088        -110.198          -52.815        -110.179       -0.0141953         146.263
0.572                   -1.21101        -159.722         -52.6871        -112.795         -52.6937        -112.774       -0.0143299          146.19
0.573                   -1.24027        -160.305         -52.5676        -115.388         -52.5745        -115.366       -0.0144661         146.118
0.574                   -1.26993        -160.889         -52.4504        -117.978         -52.4575        -117.955       -0.0146037         146.045
0.575                   -1.29999        -161.475         -52.3352        -120.565         -52.3426         -120.54       -0.0147429         145.972
0.576                   -1.33044        -162.063         -52.2221        -123.146         -52.2297         -123.12       -0.0148837         145.899
0.577                   -1.36128        -162.654         -52.1112        -125.723          -52.119        -125.695        -0.015026         145.826
0.578                   -1.39252        -163.246         -52.0022        -128.294         -52.0102        -128.265       -0.0151698         145.752
0.579                   -1.42415         -163.84         -51.8953         -130.86         -51.9034        -130.829       -0.0153153         145.679
0.58                    -1.45617        -164.436         -51.7902        -133.419         -51.7984        -133.386       -0.0154624         145.605
0.581                   -1.48857        -165.035         -51.6871        -135.972         -51.6954        -135.938        -0.015611         145.531
0.582                   -1.52137        -165.635         -51.5858        -138.517         -51.5941        -138.482       -0.0157613         145.457
0.583                   -1.55456        -166.238         -51.4862        -141.056         -51.4946         -141.02       -0.0159133         145.383
0.584                   -1.58814        -166.844         -51.3883        -143.587         -51.3967         -143.55       -0.0160669         145.309
0.585                   -1.62211        -167.452          -51.292        -146.111         -51.3004        -146.072       -0.0162221         145.234
0.586                   -1.65647        -168.062         -51.1972        -148.627         -51.2056        -148.587       -0.0163791         145.159
0.587                   -1.69122        -168.675          -51.104        -151.134         -51.1123        -151.093       -0.0165377         145.085
0.588                   -1.72637        -169.291         -51.0121        -153.634         -51.0203        -153.592       -0.0166981         145.009
0.589                   -1.76191         -169.91         -50.9215        -156.125         -50.9296        -156.083       -0.0168602         144.934
0.59                    -1.79786        -170.532         -50.8322        -158.609         -50.8402        -158.565       -0.0170242         144.859
0.591                   -1.83422        -171.157         -50.7441        -161.084         -50.7519        -161.039       -0.0171899         144.783
0.592                   -1.87099        -171.785          -50.657         -163.55         -50.6647        -163.505       -0.0173576         144.708
0.593                   -1.90817        -172.416          -50.571        -166.009         -50.5785        -165.963       -0.0175274         144.632
0.594                   -1.94578        -173.051         -50.4859        -168.459         -50.4932        -168.413       -0.0176993         144.556
0.595                   -1.98382        -173.689         -50.4017        -170.901         -50.4088        -170.855       -0.0178736         144.479
0.596                    -2.0223        -174.331         -50.3183        -173.335         -50.3252        -173.289       -0.0180506         144.403
0.597                   -2.06124        -174.977         -50.2357        -175.762         -50.2423        -175.716       -0.0182306         144.326
0.598                   -2.10064        -175.628         -50.1537        -178.181         -50.1601        -178.135       -0.0184143         144.249
0.599                   -2.14052        -176.282         -50.0723         179.408         -50.0784         179.454       -0.0186024         144.172
0.6                      -2.1809        -176.941         -49.9915         177.003         -49.9973         177.049       -0.0187961         144.095
0.601                   -2.22179        -177.605         -49.9111         174.606         -49.9167         174.651       -0.0189967         144.017
0.602                   -2.26322        -178.273         -49.8312         172.215         -49.8366          172.26       -0.0192063         143.939
0.603                   -2.30521        -178.946         -49.7517         169.831         -49.7568         169.876        -0.019427         143.861
0.604                   -2.34778        -179.625         -49.6725         167.453         -49.6773         167.497       -0.0196614         143.783
0.605                   -2.39096         179.691         -49.5936         165.081         -49.5982         165.124       -0.0199121         143.705
0.606                   -2.43478         179.002          -49.515         162.715         -49.5193         162.757       -0.0201804         143.626
0.607                   -2.47928         178.306         -49.4366         160.354         -49.4406         160.395       -0.0204658         143.547
0.608                   -2.52449         177.605         -49.3584         157.997         -49.3621         158.038       -0.0207651         143.469
0.609                   -2.57046         176.897         -49.2803         155.646         -49.2837         155.685       -0.0210722          143.39
0.61                    -2.61724         176.183         -49.2023         153.299         -49.2055         153.337       -0.0213792         143.311
0.611                   -2.66487         175.462         -49.1245         150.956         -49.1273         150.993        -0.021679         143.232
0.612                   -2.71341         174.734         -49.0467         148.616         -49.0493         148.652        -0.021967         143.152
0.613                   -2.76291         173.998          -48.969          146.28         -48.9713         146.315       -0.0222418         143.073
0.614                   -2.81346         173.256         -48.8913         143.947         -48.8934          143.98       -0.0225044         142.993
0.615                    -2.8651         172.506         -48.8137         141.617         -48.8156         141.649       -0.0227575         142.914
0.616                   -2.91793         171.748         -48.7361          139.29         -48.7378          139.32       -0.0230041         142.833
0.617                   -2.97203         170.982         -48.6586         136.964           -48.66         136.993        -0.023247         142.753
0.618                   -3.02748         170.209         -48.5811         134.641         -48.5823         134.668       -0.0234886         142.672
0.619                   -3.08437         169.427         -48.5037         132.319         -48.5046         132.344       -0.0237308         142.592
0.62                    -3.14282         168.637         -48.4263         129.998          -48.427         130.022       -0.0239747          142.51
0.621                   -3.20293         167.839         -48.3489         127.679         -48.3495         127.701       -0.0242213         142.429
0.622                    -3.2648         167.032         -48.2716          125.36         -48.2721         125.381       -0.0244714         142.347
0.623                   -3.32858         166.218         -48.1945         123.042         -48.1947         123.061       -0.0247253         142.265
0.624                   -3.39437         165.395         -48.1174         120.725         -48.1175         120.742       -0.0249834         142.183
0.625                   -3.46231         164.565         -48.0405         118.408         -48.0405         118.424       -0.0252459           142.1
0.626                   -3.53254         163.726         -47.9637         116.091         -47.9636         116.105       -0.0255129         142.017
0.627                    -3.6052         162.881         -47.8871         113.774         -47.8869         113.786       -0.0257845         141.934
0.628                   -3.68043         162.029         -47.8107         111.457         -47.8104         111.468       -0.0260609         141.851
0.629                   -3.75838         161.171         -47.7346         109.139         -47.7342         109.149       -0.0263421         141.767
