! TOUCHSTONE file generated by CST MICROWAVE STUDIO
! Date and time: Sat Oct 24 11:18:16 2020
! Project name: Scenario_1_Circular_Tissue_in_Line.cst
! Parameters = {L_HA=400; MT=2.54; Rad_Dielectric=30; Rad_Lower=7.3; Rad_Upper=30; a_HA=580; a_WG=246; b_HA=500; b_WG=121; c_HA=0; c_WG=187; d_feed=85; dx1=952.4; h_feed=15; h_lower=18; h_upper=40}
! Header version: 2018
! Port assignment regex: !\s*Touchstone port\s*([0-9]+)\s*=\s*(CST MWS port|CST DS port)\s*([0-9]+|Zmin|Zmax)\s*\(\"(.*)\"\)(\s*mode\s*([0-9]+))?.*
! Touchstone port assignment:
! Touchstone port 1 = CST MWS port 1 ("")
! Touchstone port 2 = CST MWS port 2 ("")
# GHz S DB R 50
0.5                    -0.161202        -122.338          -62.477         47.4488         -62.4757         47.4444      -0.00764839         151.123
0.501                  -0.165191        -122.799         -62.4146         45.2507         -62.4032          45.248       -0.0077058         151.058
0.502                  -0.169465        -123.261         -62.3481         43.0372          -62.327          43.038      -0.00776402         150.993
0.503                  -0.174025        -123.726         -62.2776         40.8089          -62.247         40.8149      -0.00782307         150.927
0.504                  -0.178876        -124.192         -62.2031         38.5669         -62.1631         38.5798      -0.00788295         150.862
0.505                  -0.184021         -124.66         -62.1244         36.3119         -62.0755         36.3333      -0.00794367         150.796
0.506                  -0.189462         -125.13         -62.0417          34.045         -61.9841         34.0763      -0.00800524         150.731
0.507                  -0.195203        -125.602         -61.9549          31.767          -61.889         31.8095      -0.00806765         150.665
0.508                  -0.201247        -126.076         -61.8641         29.4787         -61.7901         29.5337      -0.00813093         150.599
0.509                  -0.207597        -126.551         -61.7692         27.1812         -61.6876         27.2497      -0.00819506         150.533
0.51                   -0.214256        -127.029         -61.6704         24.8752         -61.5815         24.9581      -0.00826007         150.467
0.511                  -0.221226        -127.508         -61.5676         22.5617         -61.4719         22.6598      -0.00832595         150.401
0.512                  -0.228512        -127.989          -61.461         20.2413         -61.3588         20.3553      -0.00839272         150.335
0.513                  -0.236116        -128.472         -61.3506          17.915         -61.2424         18.0453      -0.00846038         150.269
0.514                  -0.244041        -128.957         -61.2366         15.5834         -61.1226         15.7304      -0.00852893         150.203
0.515                  -0.252289        -129.443         -61.1189         13.2474         -60.9997         13.4112      -0.00859839         150.136
0.516                  -0.260864        -129.932         -60.9977         10.9074         -60.8737         11.0882      -0.00866877          150.07
0.517                  -0.269768        -130.422         -60.8731         8.56433         -60.7446         8.76188      -0.00874006         150.004
0.518                  -0.279005        -130.914         -60.7452         6.21858         -60.6127         6.43275      -0.00881228         149.937
0.519                  -0.288576        -131.408         -60.6142         3.87074         -60.4781         4.10119      -0.00888544          149.87
0.52                   -0.298485        -131.903         -60.4801         1.52128         -60.3408         1.76755      -0.00895954         149.804
0.521                  -0.308734        -132.401          -60.343       -0.829358         -60.2009       -0.567836      -0.00903459         149.737
0.522                  -0.319326          -132.9         -60.2033         -3.1808         -60.0587         -2.9047      -0.00911061          149.67
0.523                  -0.330263          -133.4         -60.0608        -5.53271         -59.9142        -5.24281      -0.00918759         149.603
0.524                  -0.341547        -133.903         -59.9159        -7.88481         -59.7676        -7.58197      -0.00926555         149.536
0.525                  -0.353182        -134.407         -59.7686        -10.2369          -59.619        -9.92202      -0.00934449         149.468
0.526                   -0.36517        -134.913          -59.619        -12.5887         -59.4685        -12.2629      -0.00942443         149.401
0.527                  -0.377512        -135.421         -59.4674        -14.9402         -59.3163        -14.6044      -0.00950537         149.334
0.528                  -0.390211         -135.93         -59.3139        -17.2913         -59.1624        -16.9466      -0.00958733         149.266
0.529                  -0.403269        -136.441         -59.1585        -19.6418         -59.0071        -19.2894      -0.00967031         149.199
0.53                   -0.416689        -136.953         -59.0015        -21.9919         -58.8504         -21.633      -0.00975432         149.131
0.531                  -0.430472        -137.468          -58.843        -24.3414         -58.6926        -23.9772      -0.00983937         149.063
0.532                  -0.444621        -137.984         -58.6832        -26.6906         -58.5336        -26.3222      -0.00992548         148.995
0.533                  -0.459137        -138.501         -58.5221        -29.0394         -58.3737        -28.6682       -0.0100126         148.927
0.534                  -0.474022         -139.02         -58.3599        -31.3881          -58.213        -31.0151       -0.0101009         148.859
0.535                  -0.489277        -139.541         -58.1967        -33.7366         -58.0515        -33.3631       -0.0101902         148.791
0.536                  -0.504906        -140.064         -58.0328        -36.0853         -57.8895        -35.7125       -0.0102806         148.723
0.537                  -0.520908        -140.588         -57.8682        -38.4343          -57.727        -38.0633       -0.0103721         148.655
0.538                  -0.537286        -141.113          -57.703        -40.7838         -57.5642        -40.4158       -0.0104648         148.586
0.539                  -0.554042        -141.641         -57.5373         -43.134         -57.4011        -42.7701       -0.0105585         148.518
0.54                   -0.571176        -142.169         -57.3714        -45.4852          -57.238        -45.1264       -0.0106534         148.449
0.541                  -0.588689          -142.7         -57.2053        -47.8376         -57.0748        -47.4849       -0.0107495          148.38
0.542                  -0.606584        -143.231         -57.0391        -50.1915         -56.9117        -49.8458       -0.0108467         148.312
0.543                  -0.624861        -143.765         -56.8729         -52.547         -56.7488        -52.2092       -0.0109451         148.243
0.544                  -0.643521          -144.3          -56.707        -54.9045         -56.5863        -54.5755       -0.0110447         148.174
0.545                  -0.662565        -144.836         -56.5412        -57.2642         -56.4241        -56.9448       -0.0111454         148.104
0.546                  -0.681994        -145.374         -56.3759        -59.6263         -56.2625        -59.3172       -0.0112474         148.035
0.547                  -0.701808        -145.914          -56.211        -61.9912         -56.1014         -61.693       -0.0113506         147.966
0.548                  -0.722009        -146.455         -56.0467         -64.359         -55.9411        -64.0723       -0.0114551         147.896
0.549                  -0.742597        -146.997         -55.8831        -66.7299         -55.7815        -66.4553       -0.0115608         147.827
0.55                   -0.763572        -147.541         -55.7202        -69.1042         -55.6228        -68.8421       -0.0116678         147.757
0.551                  -0.784935        -148.086         -55.5583         -71.482          -55.465        -71.2328        -0.011776         147.687
0.552                  -0.806686        -148.633         -55.3972        -73.8637         -55.3083        -73.6276       -0.0118856         147.617
0.553                  -0.828825        -149.182         -55.2372        -76.2493         -55.1526        -76.0266       -0.0119964         147.547
0.554                  -0.851352        -149.732         -55.0783        -78.6389         -54.9982        -78.4299       -0.0121086         147.477
0.555                  -0.874268        -150.283         -54.9206        -81.0329         -54.8449        -80.8376       -0.0122221         147.407
0.556                  -0.897571        -150.836         -54.7641        -83.4312          -54.693        -83.2497        -0.012337         147.336
0.557                  -0.921263         -151.39          -54.609         -85.834         -54.5425        -85.6662       -0.0124533         147.266
0.558                  -0.945343        -151.946         -54.4553        -88.2414         -54.3934        -88.0872       -0.0125709         147.195
0.559                  -0.969809        -152.503         -54.3031        -90.6534         -54.2458        -90.5128         -0.01269         147.124
0.56                   -0.994663        -153.062         -54.1524        -93.0702         -54.0997        -92.9428       -0.0128104         147.053
0.561                    -1.0199        -153.623         -54.0033        -95.4917         -53.9552        -95.3773       -0.0129323         146.982
0.562                   -1.04553        -154.184         -53.8558         -97.918         -53.8123        -97.8163       -0.0130557         146.911
0.563                   -1.07154        -154.748         -53.7101        -100.349         -53.6712         -100.26       -0.0131805          146.84
0.564                   -1.09793        -155.313         -53.5661        -102.785         -53.5317        -102.707       -0.0133068         146.768
0.565                   -1.12471        -155.879         -53.4239        -105.225         -53.3941        -105.159       -0.0134346         146.697
0.566                   -1.15187        -156.447         -53.2835         -107.67         -53.2582        -107.615        -0.013564         146.625
0.567                   -1.17941        -157.017          -53.145         -110.12         -53.1241        -110.075       -0.0136949         146.553
0.568                   -1.20733        -157.588         -53.0084        -112.574         -52.9918        -112.539       -0.0138273         146.481
0.569                   -1.23563         -158.16         -52.8737        -115.032         -52.8614        -115.007       -0.0139614         146.409
0.57                     -1.2643        -158.735          -52.741        -117.495         -52.7329        -117.479        -0.014097         146.337
0.571                   -1.29335        -159.311         -52.6103        -119.962         -52.6063        -119.954       -0.0142343         146.265
0.572                   -1.32278        -159.888         -52.4816        -122.433         -52.4816        -122.432       -0.0143732         146.192
0.573                   -1.35258        -160.468         -52.3548        -124.907         -52.3588        -124.913       -0.0145138          146.12
0.574                   -1.38275        -161.049         -52.2302        -127.385         -52.2378        -127.397        -0.014656         146.047
0.575                   -1.41329        -161.632         -52.1075        -129.867         -52.1189        -129.884          -0.0148         145.974
0.576                    -1.4442        -162.217         -51.9869        -132.351         -52.0018        -132.374       -0.0149457         145.901
0.577                   -1.47548        -162.803         -51.8683        -134.839         -51.8866        -134.866       -0.0150931         145.828
0.578                   -1.50713        -163.392         -51.7517        -137.329         -51.7732         -137.36       -0.0152423         145.754
0.579                   -1.53914        -163.982         -51.6372        -139.822         -51.6618        -139.855       -0.0153934         145.681
0.58                    -1.57151        -164.575         -51.5247        -142.318         -51.5522        -142.353       -0.0155462         145.607
0.581                   -1.60425         -165.17         -51.4141        -144.815         -51.4444        -144.852       -0.0157009         145.533
0.582                   -1.63734        -165.766         -51.3056        -147.315         -51.3385        -147.353       -0.0158574         145.459
0.583                    -1.6708        -166.365          -51.199        -149.816         -51.2343        -149.855       -0.0160158         145.385
0.584                   -1.70462        -166.967         -51.0943        -152.318         -51.1319        -152.357       -0.0161761         145.311
0.585                    -1.7388         -167.57         -50.9915        -154.822         -51.0313         -154.86       -0.0163384         145.237
0.586                   -1.77333        -168.177         -50.8906        -157.326         -50.9323        -157.364       -0.0165026         145.162
0.587                   -1.80823        -168.785         -50.7915        -159.832          -50.835        -159.868       -0.0166688         145.087
0.588                   -1.84349        -169.397         -50.6943        -162.337         -50.7393        -162.373        -0.016837         145.012
0.589                    -1.8791        -170.011         -50.5988        -164.844         -50.6452        -164.877       -0.0170073         144.937
0.59                    -1.91508        -170.628          -50.505         -167.35         -50.5527        -167.381       -0.0171795         144.862
0.591                   -1.95143        -171.248         -50.4129        -169.856         -50.4616        -169.885       -0.0173539         144.786
0.592                   -1.98814        -171.871         -50.3225        -172.362          -50.372        -172.388       -0.0175303         144.711
0.593                   -2.02522        -172.497         -50.2337        -174.867         -50.2839         -174.89       -0.0177089         144.635
0.594                   -2.06268        -173.127         -50.1464        -177.372         -50.1971        -177.392       -0.0178896         144.559
0.595                   -2.10052         -173.76         -50.0606        -179.876         -50.1117        -179.893       -0.0180724         144.483
0.596                   -2.13874        -174.397         -49.9763         177.621         -50.0276         177.608       -0.0182574         144.407
0.597                   -2.17736        -175.038         -49.8934          175.12         -49.9447          175.11       -0.0184446          144.33
0.598                   -2.21639        -175.683         -49.8118          172.62          -49.863         172.613        -0.018634         144.253
0.599                   -2.25583        -176.332         -49.7316         170.121         -49.7825         170.118       -0.0188256         144.176
0.6                     -2.29569        -176.986         -49.6526         167.624         -49.7031         167.624       -0.0190194         144.099
0.601                     -2.336        -177.645         -49.5748         165.128         -49.6248         165.132       -0.0192153         144.022
0.602                   -2.37677        -178.308         -49.4982         162.635         -49.5475         162.642       -0.0194135         143.945
0.603                   -2.41802        -178.977         -49.4227         160.144         -49.4712         160.153       -0.0196138         143.867
0.604                   -2.45977        -179.651         -49.3482         157.654         -49.3958         157.667       -0.0198162         143.789
0.605                   -2.50205         179.669         -49.2748         155.168         -49.3214         155.183       -0.0200207         143.711
0.606                   -2.54489         178.983         -49.2023         152.683         -49.2478         152.701       -0.0202272         143.633
0.607                   -2.58832         178.291         -49.1307         150.201          -49.175         150.221       -0.0204355         143.554
0.608                   -2.63238         177.592         -49.0601         147.721          -49.103         147.744       -0.0206455         143.476
0.609                   -2.67711         176.886         -48.9902         145.244         -49.0317         145.269       -0.0208571         143.397
0.61                    -2.72256         176.173         -48.9211          142.77         -48.9612         142.797       -0.0210699         143.318
0.611                    -2.7688         175.452         -48.8528         140.299         -48.8913         140.327       -0.0212834         143.238
0.612                   -2.81587         174.724         -48.7851          137.83          -48.822          137.86       -0.0214972         143.159
0.613                   -2.86385         173.987         -48.7181         135.365         -48.7534         135.395       -0.0217105         143.079
0.614                   -2.91282         173.242         -48.6517         132.902         -48.6853         132.933       -0.0219219         142.999
0.615                   -2.96286         172.487         -48.5859         130.443         -48.6178         130.474       -0.0221299         142.919
0.616                   -3.01407         171.724         -48.5206         127.986         -48.5508         128.018       -0.0223318         142.839
0.617                   -3.06656         170.951         -48.4558         125.533         -48.4842         125.565       -0.0225236         142.758
0.618                   -3.12045         170.168         -48.3915         123.083         -48.4181         123.115       -0.0226996         142.677
0.619                   -3.17585         169.375         -48.3277         120.637         -48.3525         120.668       -0.0228524         142.596
0.62                    -3.23293         168.572         -48.2642         118.194         -48.2872         118.224       -0.0229788         142.515
0.621                   -3.29182         167.758         -48.2011         115.754         -48.2223         115.784       -0.0231085         142.435
0.622                   -3.35271         166.934         -48.1383         113.318         -48.1578         113.347       -0.0233711         142.356
0.623                   -3.41576           166.1         -48.0759         110.885         -48.0936         110.913       -0.0239048         142.275
0.624                   -3.48117         165.255         -48.0137         108.456         -48.0297         108.482       -0.0245163         142.193
0.625                   -3.54915         164.401         -47.9518         106.031         -47.9662         106.055       -0.0249964          142.11
0.626                   -3.61991         163.536         -47.8902          103.61         -47.9029         103.632       -0.0253656         142.026
0.627                   -3.69368         162.663         -47.8288         101.192         -47.8398         101.212       -0.0256825         141.942
0.628                   -3.77068         161.782         -47.7675         98.7787          -47.777         98.7967       -0.0259792         141.858
0.629                   -3.85115         160.893         -47.7065         96.3691         -47.7145         96.3847       -0.0262697         141.774
