! TOUCHSTONE file generated by CST MICROWAVE STUDIO
! Date and time: Sat Oct 24 11:18:30 2020
! Project name: Scenario_1_Circular_Tissue_in_Line.cst
! Parameters = {L_HA=400; MT=2.54; Rad_Dielectric=30; Rad_Lower=7.3; Rad_Upper=30; a_HA=580; a_WG=246; b_HA=500; b_WG=121; c_HA=0; c_WG=187; d_feed=85; dx1=987.04; h_feed=15; h_lower=18; h_upper=40}
! Header version: 2018
! Port assignment regex: !\s*Touchstone port\s*([0-9]+)\s*=\s*(CST MWS port|CST DS port)\s*([0-9]+|Zmin|Zmax)\s*\(\"(.*)\"\)(\s*mode\s*([0-9]+))?.*
! Touchstone port assignment:
! Touchstone port 1 = CST MWS port 1 ("")
! Touchstone port 2 = CST MWS port 2 ("")
# GHz S DB R 50
0.5                    -0.158712         -122.29         -62.6903         26.6621         -62.6903         26.6621      -0.00769699         151.112
0.501                  -0.160673         -122.75         -62.5897         24.8717         -62.5897         24.8717      -0.00775497         151.047
0.502                  -0.162951        -123.211         -62.4867         23.0599         -62.4867         23.0599      -0.00781359         150.982
0.503                  -0.165551        -123.674         -62.3815         21.2266         -62.3815         21.2267      -0.00787287         150.917
0.504                   -0.16848         -124.14          -62.274         19.3719          -62.274         19.3719      -0.00793281         150.851
0.505                  -0.171741        -124.607         -62.1641         17.4956         -62.1641         17.4956      -0.00799343         150.786
0.506                   -0.17534        -125.077          -62.052         15.5979          -62.052         15.5979      -0.00805472          150.72
0.507                  -0.179282        -125.549         -61.9374         13.6786         -61.9374         13.6786      -0.00811671         150.654
0.508                  -0.183572        -126.023         -61.8205         11.7378         -61.8205         11.7378       -0.0081794         150.588
0.509                  -0.188214        -126.499         -61.7012         9.77554         -61.7012         9.77558      -0.00824281         150.523
0.51                   -0.193214        -126.977         -61.5795         7.79184         -61.5795         7.79188      -0.00830693         150.457
0.511                  -0.198576        -127.458         -61.4555         5.78675         -61.4555         5.78679       -0.0083718         150.391
0.512                  -0.204306         -127.94          -61.329          3.7603          -61.329         3.76035       -0.0084374         150.325
0.513                  -0.210409        -128.424         -61.2002         1.71258         -61.2002         1.71263      -0.00850377         150.258
0.514                  -0.216889         -128.91          -61.069       -0.356357          -61.069       -0.356302       -0.0085709         150.192
0.515                  -0.223751        -129.399         -60.9355        -2.44643         -60.9355        -2.44637      -0.00863882         150.126
0.516                  -0.230999        -129.889         -60.7997        -4.55754         -60.7997        -4.55748      -0.00870753         150.059
0.517                  -0.238639        -130.381         -60.6616         -6.6896         -60.6615        -6.68954      -0.00877704         149.993
0.518                  -0.246676        -130.875         -60.5212        -8.84249         -60.5212        -8.84243      -0.00884738         149.926
0.519                  -0.255112        -131.371         -60.3786        -11.0161         -60.3786        -11.0161      -0.00891854         149.859
0.52                   -0.263955        -131.869         -60.2338        -13.2104         -60.2338        -13.2103      -0.00899055         149.793
0.521                  -0.273206        -132.368         -60.0869        -15.4251         -60.0869         -15.425      -0.00906343         149.726
0.522                  -0.282872         -132.87          -59.938        -17.6601          -59.938          -17.66      -0.00913717         149.659
0.523                  -0.292956        -133.373         -59.7871        -19.9154         -59.7871        -19.9153      -0.00921181         149.592
0.524                  -0.303462        -133.878         -59.6343        -22.1906         -59.6343        -22.1906      -0.00928735         149.525
0.525                  -0.314394        -134.385         -59.4796        -24.4858         -59.4796        -24.4857      -0.00936382         149.457
0.526                  -0.325757        -134.893         -59.3232        -26.8007         -59.3232        -26.8006      -0.00944122          149.39
0.527                  -0.337554        -135.403         -59.1651        -29.1351         -59.1651         -29.135      -0.00951958         149.323
0.528                  -0.349789        -135.915         -59.0055        -31.4888         -59.0055        -31.4888      -0.00959891         149.255
0.529                  -0.362465        -136.428         -58.8444        -33.8617         -58.8444        -33.8617      -0.00967924         149.188
0.53                   -0.375586        -136.943          -58.682        -36.2535          -58.682        -36.2535      -0.00976057          149.12
0.531                  -0.389156        -137.459         -58.5183         -38.664         -58.5183        -38.6639      -0.00984294         149.052
0.532                  -0.403176        -137.977         -58.3535        -41.0929         -58.3535        -41.0929      -0.00992637         148.984
0.533                   -0.41765        -138.497         -58.1877        -43.5401         -58.1877          -43.54       -0.0100109         148.916
0.534                  -0.432581        -139.017         -58.0211        -46.0051         -58.0211        -46.0051       -0.0100965         148.848
0.535                  -0.447971         -139.54         -57.8537        -48.4878         -57.8537        -48.4877       -0.0101832          148.78
0.536                  -0.463823        -140.063         -57.6858        -50.9878         -57.6857        -50.9877       -0.0102711         148.712
0.537                  -0.480139        -140.588         -57.5174        -53.5047         -57.5174        -53.5046       -0.0103601         148.643
0.538                   -0.49692        -141.114         -57.3487        -56.0382         -57.3487        -56.0382       -0.0104504         148.575
0.539                  -0.514168        -141.641         -57.1798         -58.588         -57.1798         -58.588       -0.0105419         148.506
0.54                   -0.531884         -142.17          -57.011        -61.1536          -57.011        -61.1535       -0.0106346         148.437
0.541                   -0.55007        -142.699         -56.8423        -63.7345         -56.8423        -63.7345       -0.0107287         148.369
0.542                  -0.568727         -143.23          -56.674        -66.3303          -56.674        -66.3303       -0.0108241           148.3
0.543                  -0.587853        -143.762         -56.5061        -68.9405         -56.5061        -68.9405       -0.0109208         148.231
0.544                  -0.607451        -144.294         -56.3388        -71.5646         -56.3388        -71.5646        -0.011019         148.162
0.545                  -0.627519        -144.828         -56.1723         -74.202         -56.1723         -74.202       -0.0111186         148.092
0.546                  -0.648056        -145.362         -56.0067        -76.8521         -56.0067         -76.852       -0.0112198         148.023
0.547                  -0.669063        -145.898         -55.8422        -79.5142         -55.8422        -79.5142       -0.0113225         147.954
0.548                  -0.690536        -146.434         -55.6789        -82.1877         -55.6789        -82.1877       -0.0114267         147.884
0.549                  -0.712475         -146.97         -55.5169         -84.872         -55.5169         -84.872       -0.0115327         147.814
0.55                   -0.734877        -147.508         -55.3565        -87.5662         -55.3565        -87.5662       -0.0116403         147.744
0.551                  -0.757738        -148.046         -55.1976        -90.2696         -55.1976        -90.2696       -0.0117497         147.675
0.552                  -0.781055        -148.584         -55.0406        -92.9815         -55.0406        -92.9815       -0.0118609         147.604
0.553                  -0.804825        -149.124         -54.8853        -95.7011         -54.8853        -95.7011        -0.011974         147.534
0.554                  -0.829042        -149.663         -54.7321        -98.4274         -54.7321        -98.4274        -0.012089         147.464
0.555                    -0.8537        -150.203         -54.5809         -101.16         -54.5809         -101.16       -0.0122061         147.394
0.556                  -0.878795        -150.743         -54.4319        -103.897         -54.4319        -103.897       -0.0123252         147.323
0.557                  -0.904318        -151.284         -54.2851        -106.639         -54.2851        -106.639       -0.0124465         147.252
0.558                  -0.930262        -151.824         -54.1407        -109.384         -54.1406        -109.384         -0.01257         147.182
0.559                  -0.956618        -152.365         -53.9986        -112.131         -53.9986        -112.131       -0.0126958         147.111
0.56                   -0.983377        -152.906         -53.8589         -114.88         -53.8589         -114.88       -0.0128239          147.04
0.561                   -1.01053        -153.447         -53.7218        -117.629         -53.7218        -117.629       -0.0129545         146.969
0.562                   -1.03806        -153.988         -53.5871        -120.379         -53.5871        -120.379       -0.0130875         146.897
0.563                   -1.06596        -154.529          -53.455        -123.127          -53.455        -123.127        -0.013223         146.826
0.564                   -1.09421         -155.07         -53.3255        -125.873         -53.3255        -125.873       -0.0133611         146.755
0.565                    -1.1228         -155.61         -53.1984        -128.617         -53.1984        -128.617       -0.0135017         146.683
0.566                   -1.15171        -156.151          -53.074        -131.357          -53.074        -131.357       -0.0136449         146.611
0.567                   -1.18092        -156.691          -52.952        -134.093          -52.952        -134.093       -0.0137907         146.539
0.568                   -1.21041         -157.23         -52.8325        -136.824         -52.8325        -136.824       -0.0139389         146.467
0.569                   -1.24016         -157.77         -52.7155         -139.55         -52.7155         -139.55       -0.0140896         146.395
0.57                    -1.27014        -158.309          -52.601        -142.269          -52.601        -142.269       -0.0142427         146.323
0.571                   -1.30033        -158.847         -52.4888        -144.981         -52.4888        -144.981        -0.014398          146.25
0.572                    -1.3307        -159.385         -52.3789        -147.686         -52.3789        -147.686       -0.0145554         146.178
0.573                   -1.36122        -159.923         -52.2712        -150.382         -52.2712        -150.382       -0.0147148         146.105
0.574                   -1.39185         -160.46         -52.1658        -153.071         -52.1658        -153.071       -0.0148761         146.032
0.575                   -1.42256        -160.996         -52.0624        -155.751         -52.0624        -155.751       -0.0150389         145.959
0.576                   -1.45331        -161.532         -51.9611        -158.421         -51.9611        -158.421       -0.0152032         145.886
0.577                   -1.48405        -162.068         -51.8617        -161.083         -51.8617        -161.083       -0.0153688         145.813
0.578                   -1.51474        -162.604         -51.7643        -163.734         -51.7643        -163.734       -0.0155354          145.74
0.579                   -1.54532        -163.139         -51.6686        -166.376         -51.6686        -166.376       -0.0157029         145.666
0.58                    -1.57575        -163.674         -51.5746        -169.008         -51.5746        -169.008       -0.0158712         145.593
0.581                   -1.60597        -164.209         -51.4823         -171.63         -51.4823         -171.63         -0.01604         145.519
0.582                    -1.6359        -164.745         -51.3915        -174.241         -51.3915        -174.241       -0.0162094         145.445
0.583                    -1.6655        -165.281         -51.3021        -176.843         -51.3021        -176.843       -0.0163793         145.371
0.584                   -1.69469        -165.817         -51.2141        -179.434         -51.2141        -179.434       -0.0165496         145.297
0.585                   -1.72339        -166.355         -51.1274         177.984         -51.1274         177.984       -0.0167204         145.222
0.586                   -1.75154        -166.895         -51.0419         175.413         -51.0419         175.413       -0.0168917         145.148
0.587                   -1.77904        -167.436         -50.9575         172.851         -50.9575         172.851       -0.0170635         145.073
0.588                   -1.80583        -167.981         -50.8741         170.299         -50.8741         170.299       -0.0172359         144.998
0.589                   -1.83181        -168.528         -50.7918         167.756         -50.7918         167.756       -0.0174091         144.923
0.59                    -1.85692        -169.081         -50.7103         165.223         -50.7103         165.223       -0.0175832         144.848
0.591                   -1.88108        -169.638         -50.6296         162.698         -50.6296         162.698       -0.0177583         144.773
0.592                   -1.90422        -170.202         -50.5498         160.182         -50.5498         160.182       -0.0179345         144.697
0.593                   -1.92628        -170.774         -50.4706         157.674         -50.4706         157.674        -0.018112         144.621
0.594                   -1.94722        -171.355          -50.392         155.174          -50.392         155.174        -0.018291         144.545
0.595                   -1.96702        -171.947         -50.3141         152.682         -50.3141         152.682       -0.0184715         144.469
0.596                    -1.9857        -172.553         -50.2366         150.197         -50.2366         150.197       -0.0186538         144.393
0.597                   -2.00331        -173.173         -50.1597          147.72         -50.1597          147.72       -0.0188379         144.316
0.598                   -2.01993         -173.81         -50.0832         145.249         -50.0832         145.249       -0.0190241          144.24
0.599                   -2.03572        -174.468         -50.0071         142.784         -50.0071         142.784       -0.0192123         144.163
0.6                     -2.05092        -175.147         -49.9314         140.325         -49.9314         140.325       -0.0194027         144.086
0.601                   -2.06581        -175.852          -49.856         137.872          -49.856         137.872       -0.0195955         144.009
0.602                    -2.0808        -176.583         -49.7809         135.424         -49.7809         135.424       -0.0197908         143.931
0.603                   -2.09638        -177.344         -49.7061         132.981          -49.706         132.981       -0.0199886         143.853
0.604                   -2.11313        -178.136         -49.6315         130.543         -49.6315         130.543        -0.020189         143.776
0.605                   -2.13174        -178.961         -49.5571         128.109         -49.5571         128.109       -0.0203921         143.697
0.606                   -2.15297        -179.818          -49.483         125.678          -49.483         125.678        -0.020598         143.619
0.607                   -2.17765         179.292         -49.4091         123.251         -49.4091         123.251       -0.0208069         143.541
0.608                   -2.20662         178.371         -49.3353         120.828         -49.3353         120.828       -0.0210186         143.462
0.609                   -2.24071         177.423         -49.2618         118.408         -49.2618         118.408       -0.0212334         143.383
0.61                    -2.28069          176.45         -49.1884          115.99         -49.1884          115.99       -0.0214513         143.304
0.611                    -2.3272         175.459         -49.1152         113.574         -49.1152         113.574       -0.0216723         143.225
0.612                   -2.38072         174.455         -49.0422         111.161         -49.0422         111.161       -0.0218965         143.145
0.613                   -2.44155         173.446         -48.9693          108.75         -48.9693          108.75        -0.022124         143.065
0.614                   -2.50973         172.437         -48.8966          106.34         -48.8966          106.34       -0.0223549         142.985
0.615                    -2.5851         171.437         -48.8241         103.933         -48.8241         103.933       -0.0225892         142.905
0.616                   -2.66729         170.452         -48.7518         101.526         -48.7518         101.526       -0.0228269         142.825
0.617                   -2.75574         169.486         -48.6796         99.1206         -48.6796         99.1206       -0.0230681         142.744
0.618                   -2.84976         168.546         -48.6077         96.7163         -48.6077         96.7163        -0.023313         142.663
0.619                   -2.94858         167.633          -48.536         94.3129          -48.536         94.3129       -0.0235614         142.582
0.62                    -3.05138         166.751         -48.4644         91.9103         -48.4644         91.9103       -0.0238136         142.501
0.621                   -3.15736         165.901         -48.3931         89.5084         -48.3931         89.5084       -0.0240695         142.419
0.622                   -3.26575         165.082         -48.3221         87.1071         -48.3221         87.1071       -0.0243293         142.337
0.623                   -3.37586         164.293         -48.2513         84.7064         -48.2513         84.7064        -0.024593         142.255
0.624                   -3.48709         163.534         -48.1807         82.3063         -48.1807         82.3063       -0.0248606         142.172
0.625                    -3.5989         162.803         -48.1104         79.9066         -48.1104         79.9066       -0.0251322          142.09
0.626                   -3.71088         162.096         -48.0404         77.5074         -48.0404         77.5074       -0.0254079         142.007
0.627                   -3.82269         161.413         -47.9707         75.1088         -47.9707         75.1088       -0.0256877         141.924
0.628                   -3.93408          160.75         -47.9013         72.7106         -47.9013         72.7106       -0.0259718          141.84
0.629                   -4.04485         160.105         -47.8321         70.3131         -47.8321         70.3131       -0.0262601         141.757
