! TOUCHSTONE file generated by CST MICROWAVE STUDIO
! Date and time: Sat Oct 24 11:18:37 2020
! Project name: Scenario_1_Circular_Tissue_in_Line.cst
! Parameters = {L_HA=400; MT=2.54; Rad_Dielectric=30; Rad_Lower=7.3; Rad_Upper=30; a_HA=580; a_WG=246; b_HA=500; b_WG=121; c_HA=0; c_WG=187; d_feed=85; dx1=1004.36; h_feed=15; h_lower=18; h_upper=40}
! Header version: 2018
! Port assignment regex: !\s*Touchstone port\s*([0-9]+)\s*=\s*(CST MWS port|CST DS port)\s*([0-9]+|Zmin|Zmax)\s*\(\"(.*)\"\)(\s*mode\s*([0-9]+))?.*
! Touchstone port assignment:
! Touchstone port 1 = CST MWS port 1 ("")
! Touchstone port 2 = CST MWS port 2 ("")
# GHz S DB R 50
0.5                    -0.153886        -122.015         -62.9332         16.5702         -62.8862         16.7492      -0.00761437         151.149
0.501                  -0.158357        -122.448         -62.8342         14.6547         -62.7886         14.8239      -0.00767056         151.084
0.502                  -0.162936        -122.884         -62.7322         12.7196          -62.688         12.8793       -0.0077273         151.019
0.503                  -0.167628        -123.321         -62.6274         10.7651         -62.5845         10.9154       -0.0077846         150.954
0.504                  -0.172439        -123.762         -62.5197         8.79136         -62.4781         8.93241      -0.00784246         150.888
0.505                  -0.177375        -124.205          -62.409         6.79853         -62.3687         6.93056      -0.00790092         150.823
0.506                  -0.182442         -124.65         -62.2953         4.78676         -62.2563            4.91      -0.00795998         150.758
0.507                  -0.187647        -125.098         -62.1787         2.75624          -62.141         2.87091      -0.00801965         150.692
0.508                  -0.192996        -125.549         -62.0591        0.707132         -62.0226        0.813468      -0.00807996         150.626
0.509                  -0.198499        -126.003         -61.9366        -1.36038         -61.9013        -1.26213      -0.00814092         150.561
0.51                   -0.204162        -126.459         -61.8111        -3.44612          -61.777         -3.3557      -0.00820254         150.495
0.511                  -0.209994        -126.918         -61.6826         -5.5499         -61.6497        -5.46704      -0.00826484         150.429
0.512                  -0.216006         -127.38         -61.5513        -7.67155         -61.5195        -7.59597      -0.00832784         150.363
0.513                  -0.222207        -127.845         -61.4171        -9.81088         -61.3865         -9.7423      -0.00839155         150.297
0.514                  -0.228607        -128.313           -61.28        -11.9677         -61.2505        -11.9059        -0.008456         150.231
0.515                  -0.235218        -128.784         -61.1402        -14.1419         -61.1118        -14.0865       -0.0085212         150.165
0.516                  -0.242052        -129.257         -60.9976        -16.3333         -60.9703        -16.2839      -0.00858718         150.099
0.517                  -0.249121        -129.734         -60.8523        -18.5417         -60.8261        -18.4981      -0.00865394         150.032
0.518                  -0.256439        -130.214         -60.7043        -20.7669         -60.6792        -20.7289      -0.00872153         149.966
0.519                   -0.26402        -130.698         -60.5538        -23.0089         -60.5298         -22.976      -0.00878994         149.899
0.52                   -0.271879        -131.184         -60.4009        -25.2675         -60.3779        -25.2394      -0.00885921         149.833
0.521                  -0.280032        -131.674         -60.2455        -27.5426         -60.2236         -27.519      -0.00892937         149.766
0.522                  -0.288494        -132.167         -60.0879         -29.834          -60.067        -29.8147      -0.00900043         149.699
0.523                  -0.297285        -132.663          -59.928        -32.1417         -59.9082        -32.1262      -0.00907242         149.632
0.524                  -0.306421        -133.162         -59.7661        -34.4655         -59.7473        -34.4536      -0.00914536         149.565
0.525                  -0.315922        -133.664         -59.6022        -36.8054         -59.5844        -36.7967      -0.00921929         149.498
0.526                  -0.325808         -134.17         -59.4364        -39.1613         -59.4196        -39.1555      -0.00929422         149.431
0.527                  -0.336099        -134.679         -59.2689         -41.533         -59.2531        -41.5299       -0.0093702         149.364
0.528                  -0.346816        -135.192         -59.0998        -43.9206         -59.0849        -43.9197      -0.00944725         149.297
0.529                  -0.357982        -135.707         -58.9293        -46.3239         -58.9153        -46.3251       -0.0095254         149.229
0.53                   -0.369619        -136.226         -58.7574        -48.7429         -58.7444        -48.7458      -0.00960468         149.162
0.531                  -0.381748        -136.748         -58.5844        -51.1775         -58.5723        -51.1818      -0.00968513         149.094
0.532                  -0.394395        -137.273         -58.4103        -53.6275         -58.3992         -53.633      -0.00976679         149.026
0.533                  -0.407581          -137.8         -58.2354        -56.0931         -58.2252        -56.0994      -0.00984969         148.959
0.534                   -0.42133        -138.331         -58.0599        -58.5739         -58.0505        -58.5809      -0.00993387         148.891
0.535                  -0.435664        -138.864         -57.8838          -61.07         -57.8753        -61.0774       -0.0100194         148.823
0.536                  -0.450607          -139.4         -57.7073        -63.5811         -57.6997        -63.5887       -0.0101062         148.755
0.537                  -0.466178        -139.939         -57.5308        -66.1072         -57.5239        -66.1147       -0.0101945         148.686
0.538                  -0.482399         -140.48         -57.3542         -68.648         -57.3482        -68.6553       -0.0102842         148.618
0.539                  -0.499287        -141.023         -57.1778        -71.2035         -57.1726        -71.2103       -0.0103754          148.55
0.54                    -0.51686        -141.567         -57.0018        -73.7732         -56.9973        -73.7794       -0.0104682         148.481
0.541                  -0.535131        -142.114         -56.8264        -76.3571         -56.8226        -76.3625       -0.0105625         148.413
0.542                  -0.554111        -142.662         -56.6518        -78.9547         -56.6486        -78.9592       -0.0106585         148.344
0.543                  -0.573809        -143.211          -56.478        -81.5658         -56.4756        -81.5693       -0.0107561         148.275
0.544                  -0.594229        -143.761         -56.3054          -84.19         -56.3036        -84.1923       -0.0108555         148.206
0.545                  -0.615369        -144.312         -56.1341        -86.8268         -56.1329        -86.8279       -0.0109567         148.137
0.546                  -0.637225        -144.863         -55.9643        -89.4758         -55.9636        -89.4756       -0.0110598         148.068
0.547                  -0.659787        -145.414         -55.7961        -92.1366         -55.7959         -92.135       -0.0111647         147.999
0.548                  -0.683037        -145.965         -55.6297        -94.8084           -55.63        -94.8055       -0.0112715         147.929
0.549                  -0.706954        -146.516         -55.4654        -97.4908          -55.466        -97.4865       -0.0113804          147.86
0.55                    -0.73151        -147.065         -55.3031        -100.183         -55.3042        -100.177       -0.0114913          147.79
0.551                   -0.75667        -147.614         -55.1432        -102.885         -55.1446        -102.878       -0.0116042         147.721
0.552                  -0.782392        -148.161         -54.9857        -105.594         -54.9874        -105.586       -0.0117192         147.651
0.553                  -0.808631        -148.707         -54.8307        -108.312         -54.8327        -108.303       -0.0118364         147.581
0.554                  -0.835332         -149.25         -54.6784        -111.037         -54.6806        -111.026       -0.0119558         147.511
0.555                  -0.862438        -149.792         -54.5289        -113.767         -54.5313        -113.756       -0.0120773         147.441
0.556                  -0.889886        -150.332         -54.3823        -116.503         -54.3848         -116.49       -0.0122011          147.37
0.557                  -0.917609         -150.87         -54.2387        -119.242         -54.2413        -119.229       -0.0123271           147.3
0.558                  -0.945539        -151.405         -54.0981        -121.986         -54.1007        -121.972       -0.0124552         147.229
0.559                  -0.973604        -151.939         -53.9606        -124.731         -53.9633        -124.717       -0.0125856         147.159
0.56                    -1.00173        -152.471         -53.8263        -127.478         -53.8289        -127.464       -0.0127181         147.088
0.561                   -1.02985            -153         -53.6952        -130.225         -53.6978        -130.211       -0.0128527         147.017
0.562                    -1.0579        -153.529         -53.5672        -132.972         -53.5698        -132.958       -0.0129895         146.946
0.563                   -1.08581        -154.056         -53.4425        -135.718         -53.4449        -135.704       -0.0131282         146.875
0.564                   -1.11353        -154.582          -53.321        -138.461         -53.3233        -138.447       -0.0132689         146.804
0.565                   -1.14099        -155.108         -53.2026        -141.201         -53.2048        -141.188       -0.0134115         146.733
0.566                   -1.16815        -155.634         -53.0874        -143.937         -53.0894        -143.924       -0.0135559         146.661
0.567                   -1.19498        -156.161         -52.9753        -146.668         -52.9771        -146.656       -0.0137019          146.59
0.568                   -1.22145        -156.688         -52.8662        -149.393         -52.8678        -149.383       -0.0138495         146.518
0.569                   -1.24753        -157.217         -52.7601        -152.112         -52.7615        -152.103       -0.0139987         146.446
0.57                    -1.27322        -157.749         -52.6569        -154.824          -52.658        -154.816       -0.0141491         146.374
0.571                   -1.29851        -158.283         -52.5564        -157.528         -52.5574        -157.522       -0.0143009         146.302
0.572                   -1.32342        -158.821         -52.4587        -160.224         -52.4594        -160.219       -0.0144538          146.23
0.573                   -1.34796        -159.362         -52.3635        -162.911          -52.364        -162.908       -0.0146077         146.158
0.574                   -1.37217        -159.908         -52.2708        -165.589         -52.2711        -165.587       -0.0147626         146.085
0.575                   -1.39607        -160.459         -52.1805        -168.257         -52.1805        -168.257       -0.0149184         146.013
0.576                   -1.41971        -161.016         -52.0924        -170.915         -52.0922        -170.917        -0.015075          145.94
0.577                   -1.44315        -161.579         -52.0064        -173.564         -52.0059        -173.567       -0.0152323         145.867
0.578                   -1.46643        -162.148         -51.9223        -176.202         -51.9217        -176.206       -0.0153903         145.794
0.579                   -1.48962        -162.724         -51.8401        -178.829         -51.8392        -178.835        -0.015549         145.721
0.58                    -1.51279        -163.307         -51.7596         178.554         -51.7585         178.546       -0.0157083         145.648
0.581                   -1.53601        -163.898         -51.6806         175.948         -51.6794         175.939       -0.0158683         145.574
0.582                   -1.55935        -164.497          -51.603         173.352         -51.6017         173.342       -0.0160289         145.501
0.583                   -1.58289        -165.105         -51.5267         170.767         -51.5252         170.756       -0.0161903         145.427
0.584                   -1.60671         -165.72         -51.4516         168.192           -51.45          168.18       -0.0163523         145.353
0.585                    -1.6309        -166.344         -51.3774         165.627         -51.3757         165.614       -0.0165152         145.279
0.586                   -1.65552        -166.977         -51.3041         163.071         -51.3024         163.058       -0.0166788         145.205
0.587                   -1.68068        -167.619         -51.2316         160.526         -51.2298         160.513       -0.0168434         145.131
0.588                   -1.70644        -168.269         -51.1597          157.99         -51.1579         157.976        -0.017009         145.056
0.589                    -1.7329        -168.929         -51.0882         155.462         -51.0864         155.449       -0.0171757         144.981
0.59                    -1.76014        -169.597         -51.0171         152.943         -51.0154         152.931       -0.0173435         144.907
0.591                   -1.78824        -170.275         -50.9463         150.433         -50.9446         150.421       -0.0175126         144.832
0.592                    -1.8173        -170.961         -50.8756          147.93         -50.8741         147.919        -0.017683         144.756
0.593                   -1.84738        -171.656          -50.805         145.434         -50.8035         145.424       -0.0178549         144.681
0.594                   -1.87858        -172.359         -50.7343         142.945          -50.733         142.937       -0.0180283         144.605
0.595                   -1.91097        -173.071         -50.6634         140.463         -50.6623         140.456       -0.0182034          144.53
0.596                   -1.94465        -173.792         -50.5923         137.987         -50.5914         137.982       -0.0183802         144.454
0.597                   -1.97968         -174.52         -50.5208         135.516         -50.5201         135.513       -0.0185588         144.378
0.598                   -2.01616        -175.256         -50.4489          133.05         -50.4485         133.049       -0.0187394         144.302
0.599                   -2.05415            -176         -50.3765         130.589         -50.3764          130.59        -0.018922         144.225
0.6                     -2.09375        -176.751         -50.3036         128.133         -50.3038         128.136       -0.0191066         144.148
0.601                   -2.13502        -177.509         -50.2301          125.68         -50.2306         125.685       -0.0192935         144.072
0.602                   -2.17804        -178.274         -50.1558          123.23         -50.1567         123.238       -0.0194827         143.995
0.603                   -2.22288        -179.045         -50.0809         120.783         -50.0822         120.794       -0.0196742         143.917
0.604                   -2.26961        -179.821         -50.0052         118.339         -50.0069         118.352       -0.0198681          143.84
0.605                    -2.3183         179.397         -49.9288         115.898         -49.9308         115.913       -0.0200646         143.762
0.606                   -2.36902         178.611         -49.8515         113.458         -49.8539         113.475       -0.0202637         143.685
0.607                   -2.42183          177.82         -49.7734         111.019         -49.7762         111.039       -0.0204654         143.607
0.608                   -2.47678         177.026         -49.6945         108.582         -49.6977         108.604       -0.0206698         143.528
0.609                   -2.53393         176.229         -49.6148         106.146         -49.6183         106.169       -0.0208771          143.45
0.61                    -2.59333         175.429         -49.5342         103.711         -49.5381         103.735       -0.0210873         143.371
0.611                   -2.65501         174.628         -49.4529         101.276         -49.4571         101.302       -0.0213003         143.292
0.612                   -2.71902         173.826         -49.3708         98.8412         -49.3753         98.8678       -0.0215164         143.213
0.613                   -2.78538         173.024          -49.288         96.4066         -49.2928         96.4337       -0.0217356         143.134
0.614                   -2.85411         172.222         -49.2045         93.9717         -49.2095         93.9992       -0.0219579         143.055
0.615                   -2.92524         171.422         -49.1204         91.5366         -49.1255         91.5641       -0.0221835         142.975
0.616                   -2.99875         170.623         -49.0356          89.101         -49.0409         89.1283       -0.0224123         142.895
0.617                   -3.07465         169.828         -48.9504         86.6648         -48.9557         86.6915       -0.0226444         142.815
0.618                   -3.15291         169.037         -48.8648          84.228           -48.87         84.2538       -0.0228799         142.735
0.619                   -3.23352         168.251         -48.7788         81.7904         -48.7839          81.815       -0.0231189         142.654
0.62                    -3.31643          167.47         -48.6925         79.3519         -48.6975         79.3751       -0.0233614         142.573
0.621                   -3.40159         166.696         -48.6061         76.9126         -48.6108         76.9341       -0.0236076         142.492
0.622                   -3.48894         165.929         -48.5196         74.4723          -48.524          74.492       -0.0238573         142.411
0.623                   -3.57841         165.171         -48.4331         72.0311         -48.4371         72.0487       -0.0241108         142.329
0.624                    -3.6699         164.421         -48.3467         69.5889         -48.3503         69.6043       -0.0243681         142.247
0.625                   -3.76332         163.681         -48.2606         67.1458         -48.2637         67.1589       -0.0246293         142.165
0.626                   -3.85856         162.952         -48.1748         64.7018         -48.1773         64.7125       -0.0248944         142.083
0.627                   -3.95548         162.233         -48.0894          62.257         -48.0913         62.2651       -0.0251635             142
0.628                   -4.05396         161.526         -48.0046         59.8114         -48.0058          59.817       -0.0254366         141.918
0.629                   -4.15385         160.831         -47.9204         57.3652          -47.921         57.3683        -0.025714         141.834
