! TOUCHSTONE file generated by CST MICROWAVE STUDIO
! Date and time: Sat Oct 24 11:11:47 2020
! Project name: Scenario_1_Circular_Tissue_in_Line.cst
! Parameters = {L_HA=400; MT=2.54; Rad_Dielectric=30; Rad_Lower=7.3; Rad_Upper=30; a_HA=580; a_WG=246; b_HA=500; b_WG=121; c_HA=0; c_WG=187; d_feed=85; dx1=242.28; h_feed=15; h_lower=18; h_upper=40}
! Header version: 2018
! Port assignment regex: !\s*Touchstone port\s*([0-9]+)\s*=\s*(CST MWS port|CST DS port)\s*([0-9]+|Zmin|Zmax)\s*\(\"(.*)\"\)(\s*mode\s*([0-9]+))?.*
! Touchstone port assignment:
! Touchstone port 1 = CST MWS port 1 ("")
! Touchstone port 2 = CST MWS port 2 ("")
# GHz S DB R 50
0.5                    -0.144269        -122.713         -56.8178         97.9959         -56.8176         97.9962      -0.00728794         151.136
0.501                   -0.15401        -123.117         -56.9308         95.6894         -56.9306         95.6898      -0.00739092         151.071
0.502                  -0.163838        -123.524         -57.0346         93.3022         -57.0344         93.3026      -0.00749398         151.005
0.503                  -0.173755        -123.933         -57.1279         90.8362         -57.1277         90.8368      -0.00759715          150.94
0.504                  -0.183761        -124.343         -57.2094         88.2949         -57.2091         88.2955      -0.00770042         150.874
0.505                  -0.193857        -124.755         -57.2777         85.6826         -57.2774         85.6833      -0.00780381         150.809
0.506                  -0.204044        -125.169         -57.3317         83.0052         -57.3314          83.006      -0.00790732         150.743
0.507                  -0.214322        -125.585           -57.37         80.2699         -57.3697         80.2709      -0.00801097         150.677
0.508                  -0.224691        -126.003         -57.3917         77.4851         -57.3914         77.4862      -0.00811474         150.612
0.509                  -0.235154        -126.423         -57.3959         74.6604         -57.3955         74.6616      -0.00821867         150.546
0.51                    -0.24571        -126.845         -57.3817         71.8063         -57.3814         71.8077      -0.00832274          150.48
0.511                   -0.25636        -127.268         -57.3488         68.9342         -57.3485         68.9358      -0.00842697         150.414
0.512                  -0.267106        -127.694         -57.2968          66.056         -57.2965         66.0577      -0.00853137         150.348
0.513                  -0.277947        -128.122         -57.2258         63.1837         -57.2255         63.1856      -0.00863595         150.281
0.514                  -0.288886        -128.551          -57.136         60.3292         -57.1357         60.3313       -0.0087407         150.215
0.515                  -0.299921        -128.983         -57.0279          57.504         -57.0276         57.5062      -0.00884565         150.149
0.516                  -0.311055        -129.417         -56.9023         54.7188          -56.902         54.7212       -0.0089508         150.083
0.517                  -0.322289        -129.853         -56.7601         51.9834         -56.7598         51.9859      -0.00905616         150.016
0.518                  -0.333622        -130.291         -56.6024         49.3065         -56.6021         49.3091      -0.00916173         149.949
0.519                  -0.345057        -130.731         -56.4303         46.6954         -56.4301          46.698      -0.00926752         149.883
0.52                   -0.356594        -131.173         -56.2453         44.1561         -56.2451         44.1589      -0.00937355         149.816
0.521                  -0.368233        -131.617         -56.0487         41.6934         -56.0485         41.6962      -0.00947981         149.749
0.522                  -0.379977        -132.064         -55.8418         39.3107         -55.8417         39.3136      -0.00958633         149.682
0.523                  -0.391825        -132.512         -55.6261         37.0102         -55.6259         37.0132       -0.0096931         149.615
0.524                  -0.403779        -132.963         -55.4027         34.7932         -55.4026         34.7962      -0.00980014         149.548
0.525                  -0.415841        -133.417          -55.173         32.6598         -55.1729         32.6628      -0.00990746         149.481
0.526                   -0.42801        -133.872         -54.9382         30.6093         -54.9382         30.6123       -0.0100151         149.414
0.527                  -0.440288         -134.33         -54.6994         28.6406         -54.6993         28.6435        -0.010123         149.346
0.528                  -0.452677         -134.79         -54.4575         26.7515         -54.4575         26.7545       -0.0102312         149.279
0.529                  -0.465177        -135.253         -54.2135         24.9399         -54.2135         24.9428       -0.0103397         149.212
0.53                    -0.47779        -135.718         -53.9683         23.2031         -53.9683         23.2059       -0.0104485         149.144
0.531                  -0.490517        -136.185         -53.7226         21.5381         -53.7226         21.5408       -0.0105577         149.076
0.532                  -0.503359        -136.655         -53.4771         19.9417         -53.4771         19.9444       -0.0106672         149.008
0.533                  -0.516317        -137.127         -53.2323         18.4108         -53.2323         18.4135        -0.010777         148.941
0.534                  -0.529394        -137.602         -52.9888         16.9421         -52.9889         16.9447       -0.0108873         148.873
0.535                   -0.54259         -138.08         -52.7472         15.5323         -52.7472         15.5348       -0.0109978         148.804
0.536                  -0.555908         -138.56         -52.5077          14.178         -52.5078         14.1804       -0.0111088         148.736
0.537                  -0.569348        -139.042         -52.2707         12.8761         -52.2708         12.8784       -0.0112202         148.668
0.538                  -0.582912        -139.528         -52.0366         11.6233         -52.0368         11.6255       -0.0113319           148.6
0.539                  -0.596602        -140.016         -51.8057         10.4165         -51.8058         10.4186       -0.0114441         148.531
0.54                    -0.61042        -140.507         -51.5781         9.25265         -51.5783         9.25468       -0.0115567         148.463
0.541                  -0.624367            -141         -51.3541         8.12886         -51.3543         8.13079       -0.0116698         148.394
0.542                  -0.638446        -141.497         -51.1338         7.04223          -51.134         7.04406       -0.0117832         148.325
0.543                  -0.652659        -141.996         -50.9175         5.98999         -50.9176         5.99173       -0.0118972         148.256
0.544                  -0.667008        -142.498         -50.7051         4.96946         -50.7053         4.97109       -0.0120116         148.187
0.545                  -0.681494        -143.003         -50.4969         3.97802          -50.497         3.97956       -0.0121264         148.118
0.546                  -0.696121        -143.511         -50.2928         3.01316          -50.293         3.01461       -0.0122418         148.049
0.547                  -0.710891        -144.023          -50.093         2.07244         -50.0932         2.07379       -0.0123577          147.98
0.548                  -0.725807        -144.537         -49.8975         1.15349         -49.8977         1.15475       -0.0124741          147.91
0.549                   -0.74087        -145.054         -49.7064        0.254004         -49.7066        0.255175        -0.012591         147.841
0.55                   -0.756085        -145.575         -49.5197       -0.628243         -49.5198       -0.627159       -0.0127084         147.771
0.551                  -0.771453        -146.099         -49.3373        -1.49542         -49.3375        -1.49442       -0.0128264         147.701
0.552                  -0.786979        -146.626         -49.1594        -2.34965         -49.1595        -2.34873       -0.0129449         147.631
0.553                  -0.802666        -147.157         -48.9858        -3.19297         -48.9859        -3.19212        -0.013064         147.561
0.554                  -0.818516        -147.691         -48.8165        -4.02739         -48.8167        -4.02662       -0.0131837         147.491
0.555                  -0.834535        -148.229         -48.6516        -4.85485         -48.6517        -4.85415        -0.013304         147.421
0.556                  -0.850725         -148.77          -48.491        -5.67726         -48.4911        -5.67662        -0.013425         147.351
0.557                  -0.867091        -149.315         -48.3345        -6.49645         -48.3347        -6.49587       -0.0135465          147.28
0.558                  -0.883638        -149.863         -48.1823        -7.31423         -48.1824         -7.3137       -0.0136687          147.21
0.559                  -0.900369        -150.415         -48.0341        -8.13234         -48.0342        -8.13186       -0.0137915         147.139
0.56                   -0.917291        -150.971           -47.89        -8.95247         -47.8901        -8.95204       -0.0139149         147.068
0.561                  -0.934407        -151.531         -47.7498        -9.77628         -47.7499        -9.77589       -0.0140391         146.997
0.562                  -0.951724        -152.095         -47.6134        -10.6053         -47.6135         -10.605       -0.0141639         146.926
0.563                  -0.969248        -152.663         -47.4807        -11.4412         -47.4808        -11.4409       -0.0142895         146.855
0.564                  -0.986984        -153.235         -47.3516        -12.2854         -47.3517        -12.2851       -0.0144158         146.784
0.565                   -1.00494        -153.812          -47.226        -13.1392         -47.2261        -13.1389       -0.0145428         146.712
0.566                   -1.02312        -154.392         -47.1038        -14.0041         -47.1038        -14.0038       -0.0146705         146.641
0.567                   -1.04153        -154.977         -46.9847        -14.8813         -46.9848        -14.8811        -0.014799         146.569
0.568                   -1.06019        -155.567         -46.8687        -15.7722         -46.8688        -15.7719       -0.0149283         146.497
0.569                   -1.07909        -156.161         -46.7557        -16.6777         -46.7557        -16.6775       -0.0150584         146.425
0.57                    -1.09826        -156.759         -46.6453        -17.5991         -46.6454        -17.5989       -0.0151893         146.353
0.571                   -1.11769        -157.363         -46.5376        -18.5373         -46.5376        -18.5371        -0.015321         146.281
0.572                   -1.13739        -157.971         -46.4322        -19.4933         -46.4322        -19.4931       -0.0154535         146.209
0.573                   -1.15739        -158.585         -46.3291        -20.4679         -46.3291        -20.4676       -0.0155869         146.136
0.574                   -1.17768        -159.203          -46.228        -21.4618          -46.228        -21.4616       -0.0157212         146.063
0.575                   -1.19829        -159.827         -46.1288        -22.4759         -46.1288        -22.4756       -0.0158564         145.991
0.576                   -1.21921        -160.456         -46.0313        -23.5105         -46.0313        -23.5102       -0.0159925         145.918
0.577                   -1.24048         -161.09         -45.9353        -24.5663         -45.9353         -24.566       -0.0161295         145.844
0.578                   -1.26209         -161.73         -45.8406        -25.6437         -45.8406        -25.6434       -0.0162674         145.771
0.579                   -1.28407        -162.376          -45.747        -26.7431          -45.747        -26.7427       -0.0164064         145.698
0.58                    -1.30644        -163.027         -45.6544        -27.8645         -45.6543        -27.8642       -0.0165463         145.624
0.581                    -1.3292        -163.685         -45.5625        -29.0083         -45.5625        -29.0079       -0.0166872         145.551
0.582                   -1.35238        -164.348         -45.4711        -30.1745         -45.4711        -30.1741       -0.0168291         145.477
0.583                   -1.37599        -165.018         -45.3802         -31.363         -45.3802        -31.3626       -0.0169721         145.403
0.584                   -1.40007        -165.694         -45.2895        -32.5738         -45.2895        -32.5733       -0.0171161         145.328
0.585                   -1.42462        -166.376         -45.1989        -33.8067         -45.1989        -33.8062       -0.0172612         145.254
0.586                   -1.44968        -167.066         -45.1081        -35.0614         -45.1081        -35.0609       -0.0174074          145.18
0.587                   -1.47526        -167.762         -45.0172        -36.3377         -45.0171        -36.3371       -0.0175548         145.105
0.588                    -1.5014        -168.465         -44.9258         -37.635         -44.9258        -37.6345       -0.0177034          145.03
0.589                   -1.52812        -169.175         -44.8339         -38.953         -44.8338        -38.9525       -0.0178531         144.955
0.59                    -1.55545        -169.892         -44.7413        -40.2912         -44.7413        -40.2906        -0.018004          144.88
0.591                   -1.58342        -170.617         -44.6479        -41.6489         -44.6479        -41.6483       -0.0181562         144.804
0.592                   -1.61208        -171.349         -44.5537        -43.0256         -44.5537         -43.025       -0.0183096         144.729
0.593                   -1.64144         -172.09         -44.4585        -44.4205         -44.4585        -44.4199       -0.0184644         144.653
0.594                   -1.67156        -172.838         -44.3622        -45.8331         -44.3623        -45.8325       -0.0186204         144.577
0.595                   -1.70248        -173.594         -44.2649        -47.2624         -44.2649        -47.2618       -0.0187779         144.501
0.596                   -1.73423        -174.359         -44.1663        -48.7079         -44.1663        -48.7073       -0.0189367         144.425
0.597                   -1.76686        -175.132         -44.0664        -50.1687         -44.0665        -50.1681        -0.019097         144.349
0.598                   -1.80043        -175.913         -43.9653         -51.644         -43.9654        -51.6435       -0.0192588         144.272
0.599                   -1.83498        -176.704         -43.8629        -53.1331         -43.8629        -53.1325        -0.019422         144.195
0.6                     -1.87057        -177.503         -43.7591        -54.6351         -43.7592        -54.6345       -0.0195869         144.118
0.601                   -1.90727        -178.312          -43.654        -56.1493         -43.6541        -56.1487       -0.0197533         144.041
0.602                   -1.94513         -179.13         -43.5476        -57.6748         -43.5476        -57.6742       -0.0199214         143.963
0.603                   -1.98421        -179.957         -43.4398        -59.2108         -43.4399        -59.2103       -0.0200912         143.886
0.604                    -2.0246         179.206         -43.3307        -60.7567         -43.3308        -60.7562       -0.0202628         143.808
0.605                   -2.06636         178.359         -43.2204        -62.3116         -43.2204        -62.3111       -0.0204362          143.73
0.606                   -2.10958         177.502         -43.1088        -63.8749         -43.1088        -63.8744       -0.0206115         143.652
0.607                   -2.15434         176.635          -42.996        -65.4458          -42.996        -65.4454       -0.0207887         143.573
0.608                   -2.20073         175.759          -42.882        -67.0237         -42.8821        -67.0233        -0.020968         143.495
0.609                   -2.24884         174.872          -42.767        -68.6079          -42.767        -68.6075       -0.0211493         143.416
0.61                    -2.29877         173.975         -42.6509        -70.1979         -42.6509        -70.1975       -0.0213328         143.337
0.611                   -2.35063         173.067         -42.5339         -71.793         -42.5339        -71.7926       -0.0215185         143.257
0.612                   -2.40453         172.149         -42.4159        -73.3926          -42.416        -73.3923       -0.0217066         143.178
0.613                   -2.46059         171.221         -42.2972        -74.9963         -42.2972         -74.996       -0.0218971         143.098
0.614                   -2.51893         170.283         -42.1777        -76.6036         -42.1777        -76.6033       -0.0220902         143.018
0.615                   -2.57967         169.334         -42.0575         -78.214         -42.0576        -78.2137       -0.0222859         142.938
0.616                   -2.64295         168.376         -41.9368        -79.8272         -41.9368        -79.8269       -0.0224844         142.857
0.617                   -2.70891         167.407         -41.8155        -81.4426         -41.8156        -81.4423       -0.0226857         142.777
0.618                   -2.77771         166.429         -41.6939        -83.0599         -41.6939        -83.0597         -0.02289         142.696
0.619                   -2.84948         165.442         -41.5719        -84.6788         -41.5719        -84.6786       -0.0230975         142.615
0.62                     -2.9244         164.446         -41.4496         -86.299         -41.4497        -86.2988       -0.0233082         142.533
0.621                   -3.00262         163.441         -41.3272        -87.9202         -41.3273          -87.92       -0.0235224         142.451
0.622                   -3.08431         162.428         -41.2047        -89.5421         -41.2048         -89.542       -0.0237401         142.369
0.623                   -3.16965         161.407         -41.0822        -91.1645         -41.0822        -91.1644       -0.0239616         142.287
0.624                   -3.25881          160.38         -40.9598        -92.7871         -40.9598         -92.787        -0.024187         142.205
0.625                   -3.35198         159.347         -40.8375        -94.4098         -40.8375        -94.4097       -0.0244165         142.122
0.626                   -3.44934         158.308         -40.7154        -96.0323         -40.7155        -96.0322       -0.0246503         142.039
0.627                   -3.55107         157.266         -40.5937        -97.6545         -40.5937        -97.6544       -0.0248886         141.955
0.628                   -3.65736         156.221         -40.4723        -99.2762         -40.4724        -99.2761       -0.0251315         141.872
0.629                    -3.7684         155.174         -40.3514        -100.897         -40.3514        -100.897       -0.0253793         141.788
