! TOUCHSTONE file generated by CST MICROWAVE STUDIO
! Date and time: Sat Oct 24 11:18:43 2020
! Project name: Scenario_1_Circular_Tissue_in_Line.cst
! Parameters = {L_HA=400; MT=2.54; Rad_Dielectric=30; Rad_Lower=7.3; Rad_Upper=30; a_HA=580; a_WG=246; b_HA=500; b_WG=121; c_HA=0; c_WG=187; d_feed=85; dx1=1021.68; h_feed=15; h_lower=18; h_upper=40}
! Header version: 2018
! Port assignment regex: !\s*Touchstone port\s*([0-9]+)\s*=\s*(CST MWS port|CST DS port)\s*([0-9]+|Zmin|Zmax)\s*\(\"(.*)\"\)(\s*mode\s*([0-9]+))?.*
! Touchstone port assignment:
! Touchstone port 1 = CST MWS port 1 ("")
! Touchstone port 2 = CST MWS port 2 ("")
# GHz S DB R 50
0.5                     -0.15106        -122.231         -62.9954         6.82887         -62.9949         6.82892       -0.0076623         151.116
0.501                  -0.158781        -122.691         -62.8965         5.36689         -62.8963         5.36718      -0.00772605         151.051
0.502                   -0.16675        -123.153         -62.7951         3.88112          -62.795         3.88168      -0.00779058         150.986
0.503                  -0.174967        -123.616         -62.6909         2.37114         -62.6911           2.372      -0.00785591          150.92
0.504                  -0.183432         -124.08          -62.584         0.83652         -62.5844        0.837712      -0.00792204         150.855
0.505                  -0.192144        -124.545         -62.4744       -0.723177          -62.475       -0.721623      -0.00798898         150.789
0.506                  -0.201103        -125.011         -62.3619        -2.30839         -62.3627        -2.30644      -0.00805673         150.723
0.507                  -0.210309        -125.478         -62.2465        -3.91956         -62.2475        -3.91719       -0.0081253         150.657
0.508                  -0.219762        -125.947         -62.1282        -5.55716         -62.1294        -5.55433       -0.0081947         150.592
0.509                   -0.22946        -126.417         -62.0069        -7.22163         -62.0083        -7.21831      -0.00826492         150.526
0.51                   -0.239404        -126.888         -61.8826        -8.91345         -61.8842        -8.90961      -0.00833598          150.46
0.511                  -0.249592         -127.36         -61.7553        -10.6331         -61.7571        -10.6287      -0.00840788         150.394
0.512                  -0.260025        -127.833         -61.6248         -12.381         -61.6268        -12.3761      -0.00848063         150.328
0.513                    -0.2707        -128.307         -61.4913        -14.1578         -61.4934        -14.1522      -0.00855423         150.261
0.514                  -0.281619        -128.782         -61.3545        -15.9638         -61.3569        -15.9576       -0.0086287         150.195
0.515                  -0.292779        -129.259         -61.2147        -17.7997         -61.2172        -17.7927      -0.00870404         150.129
0.516                   -0.30418        -129.737         -61.0717        -19.6658         -61.0744        -19.6582      -0.00878025         150.062
0.517                  -0.315822        -130.215         -60.9254        -21.5629         -60.9283        -21.5544      -0.00885734         149.996
0.518                  -0.327702        -130.695         -60.7761        -23.4912         -60.7791         -23.482      -0.00893532         149.929
0.519                   -0.33982        -131.177         -60.6235        -25.4515         -60.6267        -25.4415       -0.0090142         149.862
0.52                   -0.352176        -131.659         -60.4678        -27.4443         -60.4712        -27.4333      -0.00909398         149.795
0.521                  -0.364767        -132.142          -60.309        -29.4701         -60.3125        -29.4582      -0.00917467         149.728
0.522                  -0.377593        -132.627         -60.1471        -31.5294         -60.1508        -31.5166      -0.00925629         149.662
0.523                  -0.390652        -133.113         -59.9822        -33.6228          -59.986         -33.609      -0.00933883         149.594
0.524                  -0.403943        -133.599         -59.8143        -35.7509         -59.8182        -35.7361       -0.0094223         149.527
0.525                  -0.417466        -134.088         -59.6435        -37.9142         -59.6475        -37.8984      -0.00950672          149.46
0.526                  -0.431217        -134.577         -59.4699        -40.1132         -59.4741        -40.0964      -0.00959209         149.393
0.527                  -0.445197        -135.067         -59.2936        -42.3486         -59.2979        -42.3307      -0.00967842         149.325
0.528                  -0.459404        -135.559         -59.1148        -44.6208         -59.1191        -44.6018      -0.00976572         149.258
0.529                  -0.473836        -136.052         -58.9335        -46.9303         -58.9378        -46.9101        -0.009854          149.19
0.53                   -0.488492        -136.546         -58.7499        -49.2776         -58.7543        -49.2563      -0.00994327         149.122
0.531                   -0.50337        -137.042         -58.5641        -51.6632         -58.5686        -51.6407       -0.0100335         149.055
0.532                  -0.518469        -137.539         -58.3765        -54.0873          -58.381        -54.0638       -0.0101248         148.987
0.533                  -0.533788        -138.037         -58.1871        -56.5505         -58.1916        -56.5258       -0.0102171         148.919
0.534                  -0.549324        -138.536         -57.9962         -59.053         -58.0007        -59.0272       -0.0103104         148.851
0.535                  -0.565076        -139.037         -57.8041         -61.595         -57.8085         -61.568       -0.0104047         148.783
0.536                  -0.581043        -139.539         -57.6109        -64.1766         -57.6153        -64.1486       -0.0105001         148.714
0.537                  -0.597222        -140.042         -57.4171        -66.7979         -57.4214        -66.7688       -0.0105966         148.646
0.538                  -0.613614        -140.547         -57.2228        -69.4589         -57.2271        -69.4287       -0.0106941         148.577
0.539                  -0.630215        -141.053         -57.0285        -72.1592         -57.0326        -72.1281       -0.0107927         148.509
0.54                   -0.647024        -141.561         -56.8344        -74.8986         -56.8384        -74.8666       -0.0108923          148.44
0.541                  -0.664041         -142.07         -56.6409        -77.6767         -56.6448        -77.6438       -0.0109931         148.371
0.542                  -0.681262        -142.581         -56.4483        -80.4926         -56.4521         -80.459        -0.011095         148.303
0.543                  -0.698688        -143.094         -56.2571        -83.3457         -56.2607        -83.3114        -0.011198         148.234
0.544                  -0.716316        -143.607         -56.0676        -86.2347          -56.071        -86.1999       -0.0113022         148.164
0.545                  -0.734146        -144.123         -55.8802        -89.1586         -55.8834        -89.1233       -0.0114075         148.095
0.546                  -0.752176         -144.64         -55.6953        -92.1158         -55.6983        -92.0802       -0.0115139         148.026
0.547                  -0.770404        -145.159         -55.5132        -95.1046          -55.516        -95.0689       -0.0116216         147.957
0.548                   -0.78883         -145.68         -55.3344        -98.1232          -55.337        -98.0874       -0.0117304         147.887
0.549                  -0.807453        -146.202         -55.1591        -101.169         -55.1615        -101.134       -0.0118404         147.817
0.55                   -0.826272        -146.727         -54.9878        -104.241         -54.9899        -104.205       -0.0119516         147.748
0.551                  -0.845286        -147.253         -54.8208        -107.335         -54.8226          -107.3       -0.0120641         147.678
0.552                  -0.864495        -147.781         -54.6582        -110.449         -54.6598        -110.415       -0.0121778         147.608
0.553                  -0.883898        -148.311         -54.5005         -113.58         -54.5018        -113.546       -0.0122927         147.538
0.554                  -0.903495        -148.843         -54.3477        -116.725         -54.3488        -116.692       -0.0124089         147.468
0.555                  -0.923286        -149.378         -54.2002        -119.881         -54.2011        -119.849       -0.0125264         147.397
0.556                  -0.943272        -149.914          -54.058        -123.044         -54.0586        -123.014       -0.0126452         147.327
0.557                  -0.963452        -150.453         -53.9212        -126.212         -53.9216        -126.182       -0.0127653         147.256
0.558                  -0.983828        -150.994         -53.7898         -129.38         -53.7901        -129.352       -0.0128868         147.186
0.559                    -1.0044        -151.538          -53.664        -132.546         -53.6641         -132.52       -0.0130096         147.115
0.56                    -1.02517        -152.084         -53.5435        -135.706         -53.5435        -135.682       -0.0131337         147.044
0.561                   -1.04614        -152.633         -53.4284        -138.858         -53.4282        -138.835       -0.0132593         146.973
0.562                   -1.06732        -153.184         -53.3185        -141.998         -53.3182        -141.977       -0.0133862         146.902
0.563                    -1.0887        -153.738         -53.2136        -145.123         -53.2132        -145.104       -0.0135146          146.83
0.564                   -1.11028        -154.295         -53.1135        -148.231         -53.1131        -148.214       -0.0136444         146.759
0.565                   -1.13208        -154.855          -53.018        -151.319         -53.0175        -151.304       -0.0137756         146.687
0.566                    -1.1541        -155.418         -52.9269        -154.386         -52.9263        -154.373       -0.0139083         146.616
0.567                   -1.17634        -155.984         -52.8397        -157.429         -52.8391        -157.418       -0.0140426         146.544
0.568                   -1.19881        -156.553         -52.7562        -160.447         -52.7557        -160.437       -0.0141783         146.472
0.569                    -1.2215        -157.125         -52.6761        -163.438         -52.6757         -163.43       -0.0143155           146.4
0.57                    -1.24445        -157.701         -52.5991        -166.402         -52.5987        -166.395       -0.0144544         146.328
0.571                   -1.26764        -158.281         -52.5248        -169.336         -52.5244        -169.331       -0.0145948         146.255
0.572                   -1.29109        -158.864         -52.4529        -172.242         -52.4526        -172.238       -0.0147367         146.183
0.573                   -1.31481        -159.452          -52.383        -175.117         -52.3828        -175.115       -0.0148803          146.11
0.574                   -1.33881        -160.043         -52.3148        -177.963         -52.3148        -177.963       -0.0150256         146.037
0.575                    -1.3631        -160.638         -52.2481         179.221         -52.2482          179.22       -0.0151725         145.964
0.576                   -1.38771        -161.238         -52.1824         176.434         -52.1826         176.432       -0.0153211         145.891
0.577                   -1.41264        -161.842         -52.1175         173.676         -52.1179         173.674       -0.0154714         145.818
0.578                    -1.4379         -162.45         -52.0532         170.947         -52.0537         170.944       -0.0156235         145.745
0.579                   -1.46354        -163.064         -51.9892         168.246         -51.9898         168.242       -0.0157773         145.671
0.58                    -1.48955        -163.682         -51.9251         165.572          -51.926         165.566       -0.0159329         145.598
0.581                   -1.51596        -164.305         -51.8609         162.923         -51.8619         162.917       -0.0160903         145.524
0.582                   -1.54281        -164.933         -51.7962         160.299         -51.7974         160.293       -0.0162496          145.45
0.583                   -1.57012        -165.567          -51.731         157.699         -51.7323         157.693       -0.0164107         145.376
0.584                   -1.59791        -166.206          -51.665         155.122         -51.6664         155.115       -0.0165738         145.301
0.585                   -1.62622        -166.851          -51.598         152.566         -51.5996         152.559       -0.0167387         145.227
0.586                    -1.6551        -167.501           -51.53         150.029         -51.5317         150.023       -0.0169056         145.152
0.587                   -1.68456        -168.158         -51.4609         147.511         -51.4627         147.505       -0.0170746         145.078
0.588                   -1.71466         -168.82         -51.3904         145.011         -51.3924         145.005       -0.0172455         145.003
0.589                   -1.74544        -169.489         -51.3186         142.526         -51.3207          142.52       -0.0174185         144.928
0.59                    -1.77696        -170.164         -51.2454         140.055         -51.2475          140.05       -0.0175935         144.852
0.591                   -1.80925        -170.846         -51.1707         137.598         -51.1729         137.593       -0.0177707         144.777
0.592                   -1.84238        -171.534         -51.0945         135.152         -51.0967         135.148       -0.0179501         144.701
0.593                   -1.87641        -172.229         -51.0167         132.717         -51.0191         132.713       -0.0181316         144.625
0.594                    -1.9114        -172.931         -50.9374          130.29         -50.9398         130.286       -0.0183154         144.549
0.595                   -1.94742         -173.64         -50.8566         127.871          -50.859         127.868       -0.0185014         144.473
0.596                   -1.98454        -174.355         -50.7742         125.458         -50.7767         125.456       -0.0186897         144.397
0.597                   -2.02284        -175.078         -50.6904         123.051         -50.6928         123.049       -0.0188804         144.321
0.598                   -2.06239        -175.807         -50.6051         120.647         -50.6076         120.646       -0.0190734         144.244
0.599                   -2.10328        -176.543         -50.5184         118.245         -50.5209         118.245       -0.0192689         144.167
0.6                     -2.14559        -177.285         -50.4304         115.846         -50.4328         115.846       -0.0194668          144.09
0.601                   -2.18942        -178.034         -50.3412         113.446         -50.3435         113.447       -0.0196672         144.013
0.602                   -2.23485        -178.789         -50.2507         111.047         -50.2531         111.048       -0.0198702         143.935
0.603                   -2.28197         -179.55         -50.1592         108.645         -50.1615         108.647       -0.0200757         143.858
0.604                   -2.33089         179.683         -50.0668         106.242          -50.069         106.244       -0.0202839          143.78
0.605                   -2.38169         178.912         -49.9734         103.835         -49.9755         103.838       -0.0204947         143.702
0.606                   -2.43447         178.135         -49.8793         101.424         -49.8814         101.427       -0.0207081         143.624
0.607                   -2.48932         177.355         -49.7846         99.0083         -49.7866         99.0121       -0.0209243         143.545
0.608                   -2.54631         176.571         -49.6894         96.5876         -49.6912         96.5918       -0.0211432         143.467
0.609                   -2.60554         175.784         -49.5938         94.1611         -49.5955         94.1656       -0.0213647         143.388
0.61                    -2.66707         174.996          -49.498         91.7285         -49.4996         91.7333       -0.0215889         143.309
0.611                   -2.73097         174.206          -49.402         89.2894         -49.4035         89.2944       -0.0218156          143.23
0.612                   -2.79729         173.416         -49.3062         86.8436         -49.3075         86.8487       -0.0220447          143.15
0.613                   -2.86606         172.627         -49.2104         84.3909         -49.2117          84.396       -0.0222759          143.07
0.614                    -2.9373          171.84          -49.115         81.9311         -49.1162         81.9363       -0.0225088         142.991
0.615                   -3.01103         171.057         -49.0201         79.4645         -49.0211         79.4695       -0.0227427         142.911
0.616                   -3.08722         170.277         -48.9257         76.9909         -48.9266         76.9958       -0.0229768          142.83
0.617                   -3.16585         169.504         -48.8321         74.5106         -48.8328         74.5154       -0.0232097          142.75
0.618                   -3.24684         168.737         -48.7393          72.024         -48.7399         72.0284       -0.0234399         142.669
0.619                   -3.33012         167.978         -48.6474         69.5312         -48.6479         69.5354       -0.0236658         142.588
0.62                    -3.41558         167.228         -48.5566         67.0328          -48.557         67.0366       -0.0238863         142.507
0.621                    -3.5031         166.488          -48.467         64.5293         -48.4673         64.5327       -0.0241028         142.425
0.622                   -3.59253         165.759         -48.3786         62.0211         -48.3788         62.0241       -0.0243195         142.343
0.623                   -3.68368         165.042         -48.2916          59.509         -48.2917         59.5114       -0.0245432         142.261
0.624                   -3.77638         164.338         -48.2059         56.9935          -48.206         56.9954       -0.0247806         142.179
0.625                   -3.87041         163.647         -48.1218         54.4753         -48.1218         54.4768       -0.0250348         142.096
0.626                   -3.96555          162.97         -48.0391         51.9553          -48.039         51.9562       -0.0253047         142.013
0.627                   -4.06158         162.307          -47.958         49.4342         -47.9579         49.4345       -0.0255873         141.929
0.628                   -4.15827         161.657         -47.8785         46.9127         -47.8783         46.9124        -0.025879         141.846
0.629                   -4.25538         161.021         -47.8005         44.3916         -47.8003         44.3908       -0.0261771         141.762
