! TOUCHSTONE file generated by CST MICROWAVE STUDIO
! Date and time: Sat Oct 24 11:18:52 2020
! Project name: Scenario_1_Circular_Tissue_in_Line.cst
! Parameters = {L_HA=400; MT=2.54; Rad_Dielectric=30; Rad_Lower=7.3; Rad_Upper=30; a_HA=580; a_WG=246; b_HA=500; b_WG=121; c_HA=0; c_WG=187; d_feed=85; dx1=1039; h_feed=15; h_lower=18; h_upper=40}
! Header version: 2018
! Port assignment regex: !\s*Touchstone port\s*([0-9]+)\s*=\s*(CST MWS port|CST DS port)\s*([0-9]+|Zmin|Zmax)\s*\(\"(.*)\"\)(\s*mode\s*([0-9]+))?.*
! Touchstone port assignment:
! Touchstone port 1 = CST MWS port 1 ("")
! Touchstone port 2 = CST MWS port 2 ("")
# GHz S DB R 50
0.5                    -0.146733        -122.244          -63.141        -2.64984         -63.1396        -2.65162      -0.00764404         151.129
0.501                  -0.157725        -122.654         -63.1241        -5.62877         -63.1227        -5.63044      -0.00771721         151.063
0.502                  -0.168746        -123.067         -63.0973        -8.63057         -63.0959        -8.63214      -0.00779092         150.998
0.503                  -0.179798        -123.481         -63.0605        -11.6508         -63.0592        -11.6523      -0.00786518         150.932
0.504                  -0.190884        -123.898         -63.0135        -14.6851         -63.0123        -14.6865      -0.00793998         150.867
0.505                  -0.202005        -124.317         -62.9565        -17.7288         -62.9553        -17.7302      -0.00801534         150.801
0.506                  -0.213165        -124.738         -62.8893        -20.7773         -62.8882        -20.7787      -0.00809126         150.735
0.507                  -0.224366        -125.161         -62.8123        -23.8264         -62.8112        -23.8277      -0.00816775         150.669
0.508                  -0.235611        -125.587         -62.7255        -26.8715         -62.7245        -26.8728      -0.00824482         150.604
0.509                  -0.246902        -126.015         -62.6293        -29.9086         -62.6284        -29.9099      -0.00832246         150.538
0.51                   -0.258242        -126.445          -62.524        -32.9339         -62.5231        -32.9353      -0.00840069         150.472
0.511                  -0.269635        -126.878         -62.4099        -35.9439         -62.4091        -35.9452      -0.00847952         150.406
0.512                  -0.281082        -127.313         -62.2875        -38.9351         -62.2867        -38.9366      -0.00855894         150.339
0.513                  -0.292588         -127.75         -62.1572        -41.9049         -62.1565        -41.9064      -0.00863898         150.273
0.514                  -0.304155         -128.19         -62.0196        -44.8508         -62.0189        -44.8523      -0.00871963         150.207
0.515                  -0.315787        -128.632         -61.8752        -47.7705         -61.8745         -47.772       -0.0088009          150.14
0.516                  -0.327486        -129.076         -61.7244        -50.6623         -61.7237        -50.6639       -0.0088828         150.074
0.517                  -0.339258        -129.524         -61.5678        -53.5249         -61.5672        -53.5266      -0.00896533         150.007
0.518                  -0.351104        -129.973         -61.4059        -56.3572         -61.4053         -56.359      -0.00904852         149.941
0.519                   -0.36303        -130.425         -61.2393        -59.1585         -61.2388        -59.1604      -0.00913235         149.874
0.52                   -0.375038         -130.88         -61.0684        -61.9284          -61.068        -61.9304      -0.00921685         149.807
0.521                  -0.387132        -131.338         -60.8938        -64.6668         -60.8934        -64.6688      -0.00930202          149.74
0.522                  -0.399317        -131.798          -60.716        -67.3738         -60.7156        -67.3759      -0.00938787         149.673
0.523                  -0.411597        -132.261         -60.5353        -70.0498         -60.5349         -70.052       -0.0094744         149.606
0.524                  -0.423976        -132.726         -60.3523        -72.6954         -60.3519        -72.6976      -0.00956164         149.539
0.525                  -0.436459        -133.195         -60.1672        -75.3111         -60.1669        -75.3134      -0.00964958         149.472
0.526                  -0.449049        -133.666         -59.9806         -77.898         -59.9803        -77.9004      -0.00973823         149.404
0.527                  -0.461752         -134.14         -59.7928        -80.4569         -59.7925        -80.4593      -0.00982761         149.337
0.528                  -0.474572        -134.616         -59.6041         -82.989         -59.6038        -82.9915      -0.00991773         149.269
0.529                  -0.487514        -135.096         -59.4147        -85.4954         -59.4145        -85.4979       -0.0100086         149.202
0.53                   -0.500584        -135.578         -59.2251        -87.9773         -59.2249        -87.9799       -0.0101002         149.134
0.531                  -0.513787        -136.064         -59.0354         -90.436         -59.0352        -90.4386       -0.0101926         149.066
0.532                  -0.527127        -136.552          -58.846        -92.8727         -58.8458        -92.8753       -0.0102858         148.998
0.533                  -0.540611        -137.044         -58.6569        -95.2887         -58.6567        -95.2914       -0.0103797          148.93
0.534                  -0.554243        -137.538         -58.4684        -97.6854         -58.4683        -97.6881       -0.0104745         148.862
0.535                   -0.56803        -138.035         -58.2808        -100.064         -58.2806        -100.067         -0.01057         148.794
0.536                  -0.581978        -138.536          -58.094        -102.426         -58.0939        -102.429       -0.0106664         148.726
0.537                  -0.596093         -139.04         -57.9084        -104.772         -57.9083        -104.775       -0.0107636         148.657
0.538                  -0.610381        -139.546         -57.7241        -107.104          -57.724        -107.107       -0.0108617         148.589
0.539                  -0.624848        -140.056         -57.5411        -109.424          -57.541        -109.426       -0.0109606          148.52
0.54                   -0.639502         -140.57         -57.3596        -111.731         -57.3595        -111.734       -0.0110604         148.452
0.541                  -0.654348        -141.086         -57.1796        -114.028         -57.1796         -114.03       -0.0111611         148.383
0.542                  -0.669394        -141.606         -57.0014        -116.315         -57.0013        -116.317       -0.0112627         148.314
0.543                  -0.684647        -142.129         -56.8248        -118.593         -56.8248        -118.596       -0.0113652         148.245
0.544                  -0.700114        -142.655         -56.6501        -120.864           -56.65        -120.867       -0.0114686         148.176
0.545                  -0.715802        -143.185         -56.4772        -123.129         -56.4772        -123.132        -0.011573         148.107
0.546                   -0.73172        -143.718         -56.3063        -125.389         -56.3062        -125.391       -0.0116783         148.037
0.547                  -0.747875        -144.254         -56.1373        -127.644         -56.1373        -127.646       -0.0117846         147.968
0.548                  -0.764275        -144.794         -55.9704        -129.895         -55.9704        -129.898       -0.0118919         147.898
0.549                  -0.780928        -145.338         -55.8055        -132.144         -55.8055        -132.146       -0.0120002         147.829
0.55                   -0.797843        -145.885         -55.6427        -134.391         -55.6427        -134.393       -0.0121095         147.759
0.551                  -0.815029        -146.435          -55.482        -136.637          -55.482        -136.639       -0.0122198         147.689
0.552                  -0.832494        -146.989         -55.3235        -138.882         -55.3235        -138.884       -0.0123312         147.619
0.553                  -0.850246        -147.546         -55.1671        -141.128         -55.1671         -141.13       -0.0124437         147.549
0.554                  -0.868297        -148.108         -55.0129        -143.375         -55.0129        -143.377       -0.0125572         147.479
0.555                  -0.886654        -148.672         -54.8609        -145.623         -54.8608        -145.625       -0.0126719         147.409
0.556                  -0.905328        -149.241          -54.711        -147.874          -54.711        -147.876       -0.0127876         147.338
0.557                  -0.924328        -149.813         -54.5634        -150.128         -54.5634         -150.13       -0.0129045         147.268
0.558                  -0.943664        -150.389          -54.418        -152.386          -54.418        -152.387       -0.0130226         147.197
0.559                  -0.963347        -150.968         -54.2748        -154.647         -54.2748        -154.649       -0.0131418         147.126
0.56                   -0.983387        -151.551         -54.1338        -156.913         -54.1338        -156.915       -0.0132623         147.055
0.561                    -1.0038        -152.138          -53.995        -159.184          -53.995        -159.186       -0.0133839         146.984
0.562                   -1.02458        -152.729         -53.8584         -161.46         -53.8584        -161.462       -0.0135068         146.913
0.563                   -1.04576        -153.323          -53.724        -163.743          -53.724        -163.744        -0.013631         146.842
0.564                   -1.06734        -153.922         -53.5918        -166.031         -53.5918        -166.033       -0.0137564          146.77
0.565                   -1.08933        -154.524         -53.4618        -168.326         -53.4617        -168.328       -0.0138831         146.699
0.566                   -1.11174         -155.13         -53.3339        -170.628         -53.3338         -170.63       -0.0140112         146.627
0.567                   -1.13459         -155.74         -53.2082        -172.938         -53.2081        -172.939       -0.0141406         146.555
0.568                    -1.1579        -156.353         -53.0846        -175.254         -53.0845        -175.255       -0.0142713         146.483
0.569                   -1.18166        -156.971         -52.9631        -177.579          -52.963         -177.58       -0.0144035         146.411
0.57                    -1.20589        -157.592         -52.8437        -179.912         -52.8436        -179.912       -0.0145371         146.339
0.571                   -1.23062        -158.217         -52.7264         177.748         -52.7263         177.747       -0.0146721         146.267
0.572                   -1.25584        -158.846         -52.6111         175.398          -52.611         175.398       -0.0148085         146.194
0.573                   -1.28158        -159.479         -52.4978          173.04         -52.4978          173.04       -0.0149465         146.121
0.574                   -1.30784        -160.116         -52.3866         170.674         -52.3865         170.673        -0.015086         146.049
0.575                   -1.33464        -160.757         -52.2773         168.298         -52.2772         168.297        -0.015227         145.976
0.576                     -1.362        -161.402         -52.1699         165.913         -52.1698         165.913       -0.0153696         145.903
0.577                   -1.38993         -162.05         -52.0645          163.52         -52.0644         163.519       -0.0155138         145.829
0.578                   -1.41843        -162.703         -51.9609         161.117         -51.9608         161.116       -0.0156596         145.756
0.579                   -1.44754        -163.359         -51.8591         158.705          -51.859         158.704       -0.0158071         145.682
0.58                    -1.47726        -164.019         -51.7592         156.284          -51.759         156.283       -0.0159563         145.609
0.581                    -1.5076        -164.684          -51.661         153.853         -51.6608         153.853       -0.0161072         145.535
0.582                   -1.53859        -165.351         -51.5645         151.413         -51.5643         151.413       -0.0162598         145.461
0.583                   -1.57023        -166.023         -51.4697         148.964         -51.4695         148.964       -0.0164142         145.387
0.584                   -1.60254        -166.699         -51.3765         146.506         -51.3763         146.506       -0.0165704         145.313
0.585                   -1.63554        -167.378         -51.2849         144.039         -51.2847         144.038       -0.0167285         145.238
0.586                   -1.66925        -168.061         -51.1949         141.562         -51.1947         141.562       -0.0168884         145.163
0.587                   -1.70367        -168.748         -51.1063         139.077         -51.1061         139.077       -0.0170502         145.089
0.588                   -1.73883        -169.438         -51.0192         136.583          -51.019         136.583        -0.017214         145.014
0.589                   -1.77474        -170.132         -50.9335          134.08         -50.9333          134.08       -0.0173798         144.938
0.59                    -1.81142         -170.83         -50.8491         131.569         -50.8489         131.569       -0.0175476         144.863
0.591                   -1.84887        -171.531          -50.766          129.05         -50.7658          129.05       -0.0177174         144.788
0.592                   -1.88713        -172.236         -50.6842         126.522         -50.6839         126.522       -0.0178893         144.712
0.593                   -1.92621        -172.945         -50.6035         123.986         -50.6033         123.986       -0.0180633         144.636
0.594                   -1.96611        -173.657          -50.524         121.443         -50.5237         121.443       -0.0182396          144.56
0.595                   -2.00687        -174.372         -50.4455         118.892         -50.4453         118.892        -0.018418         144.484
0.596                   -2.04848         -175.09         -50.3681         116.334         -50.3678         116.334       -0.0185986         144.408
0.597                   -2.09098        -175.812         -50.2916         113.769         -50.2914         113.769       -0.0187816         144.331
0.598                   -2.13438        -176.538         -50.2161         111.198         -50.2158         111.197       -0.0189669         144.254
0.599                   -2.17869        -177.266         -50.1414          108.62         -50.1411         108.619       -0.0191546         144.177
0.6                     -2.22393        -177.998         -50.0675         106.036         -50.0672         106.035       -0.0193447           144.1
0.601                   -2.27012        -178.732         -49.9943         103.446          -49.994         103.445       -0.0195372         144.023
0.602                   -2.31728         -179.47         -49.9218          100.85         -49.9215          100.85       -0.0197323         143.946
0.603                   -2.36541          179.79           -49.85         98.2501         -49.8497         98.2498       -0.0199299         143.868
0.604                   -2.41454         179.046         -49.7787         95.6451         -49.7784         95.6448       -0.0201302          143.79
0.605                   -2.46468           178.3          -49.708         93.0358         -49.7077         93.0354       -0.0203331         143.712
0.606                   -2.51584         177.552         -49.6377         90.4225         -49.6374         90.4221       -0.0205387         143.634
0.607                   -2.56806           176.8         -49.5679         87.8056         -49.5676         87.8052        -0.020747         143.555
0.608                   -2.62133         176.046         -49.4984         85.1857         -49.4981         85.1852       -0.0209582         143.476
0.609                   -2.67568          175.29         -49.4293         82.5629          -49.429         82.5624       -0.0211723         143.397
0.61                    -2.73111         174.532         -49.3604         79.9378         -49.3601         79.9373       -0.0213893         143.318
0.611                   -2.78766         173.771         -49.2918         77.3109         -49.2915         77.3103       -0.0216092         143.239
0.612                   -2.84532         173.008         -49.2234         74.6824         -49.2231         74.6818       -0.0218322         143.159
0.613                   -2.90412         172.243         -49.1551         72.0528         -49.1548         72.0522       -0.0220583         143.079
0.614                   -2.96408         171.477          -49.087         69.4227         -49.0867          69.422       -0.0222876         142.999
0.615                   -3.02519         170.708         -49.0189         66.7923         -49.0186         66.7916         -0.02252         142.919
0.616                   -3.08749         169.938         -48.9509         64.1621         -48.9506         64.1614       -0.0227558         142.839
0.617                   -3.15097         169.167         -48.8829         61.5327         -48.8826         61.5319       -0.0229949         142.758
0.618                   -3.21567         168.394         -48.8149         58.9043         -48.8146         58.9035       -0.0232374         142.677
0.619                   -3.28158         167.619         -48.7468         56.2774         -48.7465         56.2766       -0.0234834         142.596
0.62                    -3.34872         166.844         -48.6787         53.6525         -48.6784         53.6516       -0.0237329         142.514
0.621                   -3.41711         166.068         -48.6104           51.03         -48.6102         51.0291        -0.023986         142.433
0.622                   -3.48676          165.29         -48.5421         48.4103         -48.5418         48.4093       -0.0242429         142.351
0.623                   -3.55767         164.512         -48.4736         45.7937         -48.4734         45.7927       -0.0245035         142.268
0.624                   -3.62987         163.734          -48.405         43.1807         -48.4047         43.1797       -0.0247679         142.186
0.625                   -3.70336         162.955         -48.3362         40.5718          -48.336         40.5707       -0.0250363         142.103
0.626                   -3.77815         162.175         -48.2673         37.9672          -48.267         37.9661       -0.0253086          142.02
0.627                   -3.85425         161.396         -48.1982         35.3673         -48.1979         35.3662       -0.0255851         141.937
0.628                   -3.93167         160.616         -48.1289         32.7726         -48.1286         32.7714       -0.0258657         141.854
0.629                   -4.01043         159.837         -48.0594         30.1832         -48.0591         30.1821       -0.0261505          141.77
