! TOUCHSTONE file generated by CST MICROWAVE STUDIO
! Date and time: Sat Oct 24 11:11:54 2020
! Project name: Scenario_1_Circular_Tissue_in_Line.cst
! Parameters = {L_HA=400; MT=2.54; Rad_Dielectric=30; Rad_Lower=7.3; Rad_Upper=30; a_HA=580; a_WG=246; b_HA=500; b_WG=121; c_HA=0; c_WG=187; d_feed=85; dx1=259.6; h_feed=15; h_lower=18; h_upper=40}
! Header version: 2018
! Port assignment regex: !\s*Touchstone port\s*([0-9]+)\s*=\s*(CST MWS port|CST DS port)\s*([0-9]+|Zmin|Zmax)\s*\(\"(.*)\"\)(\s*mode\s*([0-9]+))?.*
! Touchstone port assignment:
! Touchstone port 1 = CST MWS port 1 ("")
! Touchstone port 2 = CST MWS port 2 ("")
# GHz S DB R 50
0.5                    -0.158172        -122.691         -56.9003         88.2331         -56.9003         88.2331       -0.0073605         151.133
0.501                  -0.168715        -123.106         -56.6604         86.8007         -56.6604         86.8005      -0.00745707         151.068
0.502                  -0.179266        -123.523         -56.4228         85.3425         -56.4228         85.3422      -0.00755389         151.003
0.503                  -0.189824         -123.94         -56.1877          83.859         -56.1878         83.8586      -0.00765098         150.937
0.504                   -0.20039        -124.359         -55.9553         82.3508         -55.9554         82.3502      -0.00774831         150.872
0.505                  -0.210965        -124.779         -55.7257         80.8182         -55.7258         80.8176       -0.0078459         150.806
0.506                  -0.221547        -125.201          -55.499         79.2621         -55.4991         79.2613      -0.00794374         150.741
0.507                  -0.232139        -125.624         -55.2753         77.6829         -55.2754         77.6821      -0.00804184         150.675
0.508                   -0.24274        -126.049         -55.0549         76.0816          -55.055         76.0807      -0.00814019         150.609
0.509                  -0.253351        -126.475         -54.8377         74.4588         -54.8378         74.4579       -0.0082388         150.543
0.51                   -0.263972        -126.902         -54.6239         72.8155         -54.6241         72.8146      -0.00833767         150.477
0.511                  -0.274605        -127.332         -54.4137         71.1527         -54.4139         71.1517      -0.00843679         150.411
0.512                   -0.28525        -127.762         -54.2071         69.4713         -54.2073         69.4702      -0.00853617         150.345
0.513                  -0.295908        -128.195         -54.0043         67.7723         -54.0045         67.7713      -0.00863581         150.279
0.514                   -0.30658        -128.629         -53.8053          66.057         -53.8055          66.056      -0.00873571         150.213
0.515                  -0.317267        -129.065         -53.6103         64.3265         -53.6105         64.3255      -0.00883587         150.147
0.516                   -0.32797        -129.502         -53.4193          62.582         -53.4195          62.581      -0.00893629          150.08
0.517                   -0.33869        -129.942         -53.2323         60.8248         -53.2325         60.8239      -0.00903698         150.014
0.518                  -0.349429        -130.383         -53.0494         59.0562         -53.0496         59.0553      -0.00913794         149.947
0.519                  -0.360188        -130.826         -52.8707         57.2776         -52.8709         57.2766      -0.00923917         149.881
0.52                   -0.370968        -131.271         -52.6961         55.4902         -52.6964         55.4893      -0.00934067         149.814
0.521                  -0.381772        -131.718         -52.5258         53.6954          -52.526         53.6946      -0.00944244         149.747
0.522                    -0.3926        -132.167         -52.3596         51.8947         -52.3599         51.8939      -0.00954449          149.68
0.523                  -0.403456        -132.618         -52.1976         50.0894         -52.1979         50.0886      -0.00964682         149.613
0.524                   -0.41434        -133.071         -52.0397         48.2809           -52.04         48.2801      -0.00974943         149.546
0.525                  -0.425254        -133.527          -51.886         46.4704         -51.8862         46.4697      -0.00985233         149.479
0.526                  -0.436202        -133.984         -51.7362         44.6594         -51.7365         44.6588      -0.00995552         149.412
0.527                  -0.447185        -134.444         -51.5905         42.8491         -51.5907         42.8485        -0.010059         149.345
0.528                  -0.458206        -134.906         -51.4486         41.0408         -51.4489         41.0402       -0.0101628         149.277
0.529                  -0.469267        -135.371         -51.3106         39.2356         -51.3108         39.2351       -0.0102669          149.21
0.53                   -0.480371        -135.837         -51.1762         37.4347         -51.1764         37.4343       -0.0103713         149.142
0.531                  -0.491522        -136.307         -51.0454         35.6392         -51.0457         35.6389       -0.0104759         149.075
0.532                  -0.502721        -136.779         -50.9181         33.8502         -50.9183         33.8499        -0.010581         149.007
0.533                  -0.513973        -137.253         -50.7941         32.0686         -50.7944         32.0683       -0.0106863         148.939
0.534                  -0.525282         -137.73         -50.6734         30.2952         -50.6736         30.2949       -0.0107919         148.871
0.535                  -0.536649         -138.21         -50.5556         28.5309         -50.5559         28.5307       -0.0108979         148.803
0.536                   -0.54808        -138.692         -50.4408         26.7765          -50.441         26.7764       -0.0110043         148.735
0.537                  -0.559578        -139.177         -50.3288         25.0326          -50.329         25.0325       -0.0111109         148.667
0.538                  -0.571147        -139.665         -50.2194         23.2999         -50.2196         23.2998       -0.0112179         148.599
0.539                  -0.582793        -140.156         -50.1124         21.5788         -50.1126         21.5788       -0.0113253          148.53
0.54                   -0.594519         -140.65         -50.0077         19.8699         -50.0079         19.8699        -0.011433         148.462
0.541                   -0.60633        -141.147         -49.9052         18.1735         -49.9054         18.1735       -0.0115411         148.393
0.542                  -0.618232        -141.647         -49.8046         16.4899         -49.8048         16.4899       -0.0116496         148.324
0.543                  -0.630229         -142.15         -49.7059         14.8194         -49.7061         14.8194       -0.0117585         148.256
0.544                  -0.642329        -142.656         -49.6089         13.1622          -49.609         13.1623       -0.0118677         148.187
0.545                  -0.654535        -143.166         -49.5134         11.5184         -49.5135         11.5185       -0.0119774         148.118
0.546                  -0.666855        -143.679         -49.4193          9.8882         -49.4194         9.88829       -0.0120874         148.048
0.547                  -0.679295        -144.195         -49.3264         8.27149         -49.3265         8.27159       -0.0121979         147.979
0.548                  -0.691862        -144.715         -49.2346         6.66831         -49.2347         6.66842       -0.0123088          147.91
0.549                  -0.704563        -145.239         -49.1438         5.07858         -49.1439          5.0787       -0.0124202          147.84
0.55                   -0.717405        -145.766         -49.0538         3.50219         -49.0539         3.50231        -0.012532         147.771
0.551                  -0.730397        -146.296         -48.9646           1.939         -48.9647         1.93913       -0.0126442         147.701
0.552                  -0.743545        -146.831         -48.8759        0.388814          -48.876        0.388947       -0.0127569         147.631
0.553                   -0.75686        -147.369         -48.7877        -1.14857         -48.7878        -1.14844       -0.0128701         147.561
0.554                   -0.77035        -147.912         -48.6998        -2.67341         -48.6999        -2.67328       -0.0129838         147.491
0.555                  -0.784024        -148.458         -48.6122        -4.18598         -48.6123        -4.18585        -0.013098         147.421
0.556                  -0.797892        -149.008         -48.5247        -5.68657         -48.5248        -5.68644       -0.0132127         147.351
0.557                  -0.811965        -149.563         -48.4373         -7.1755         -48.4374        -7.17537        -0.013328         147.281
0.558                  -0.826253        -150.121         -48.3499         -8.6531         -48.3499        -8.65298       -0.0134438          147.21
0.559                  -0.840767        -150.685         -48.2623        -10.1197         -48.2623        -10.1196       -0.0135601          147.14
0.56                    -0.85552        -151.252         -48.1745        -11.5758         -48.1745        -11.5757        -0.013677         147.069
0.561                  -0.870523        -151.824         -48.0864        -13.0216         -48.0864        -13.0215       -0.0137946         146.998
0.562                   -0.88579        -152.401         -47.9979        -14.4576          -47.998        -14.4575       -0.0139127         146.927
0.563                  -0.901333        -152.982          -47.909        -15.8841         -47.9091         -15.884       -0.0140314         146.856
0.564                  -0.917168        -153.568         -47.8196        -17.3017         -47.8197        -17.3016       -0.0141508         146.785
0.565                  -0.933309        -154.159         -47.7297        -18.7106         -47.7297        -18.7105       -0.0142708         146.713
0.566                  -0.949772        -154.754         -47.6391        -20.1113         -47.6392        -20.1113       -0.0143915         146.642
0.567                  -0.966572        -155.355         -47.5479        -21.5043         -47.5479        -21.5042       -0.0145129          146.57
0.568                  -0.983727        -155.961          -47.456        -22.8899          -47.456        -22.8899       -0.0146351         146.498
0.569                   -1.00125        -156.572         -47.3633        -24.2687         -47.3633        -24.2686       -0.0147579         146.426
0.57                    -1.01917        -157.188         -47.2698        -25.6409         -47.2698        -25.6408       -0.0148815         146.354
0.571                    -1.0375         -157.81         -47.1754        -27.0071         -47.1754         -27.007       -0.0150059         146.282
0.572                   -1.05626        -158.437         -47.0802        -28.3676         -47.0802        -28.3676       -0.0151311          146.21
0.573                   -1.07547         -159.07          -46.984         -29.723          -46.984         -29.723       -0.0152572         146.137
0.574                   -1.09515        -159.708          -46.887        -31.0736          -46.887        -31.0736        -0.015384         146.065
0.575                   -1.11533        -160.352         -46.7889        -32.4198         -46.7889        -32.4198       -0.0155118         145.992
0.576                   -1.13603        -161.002         -46.6899        -33.7622         -46.6899        -33.7622       -0.0156405         145.919
0.577                   -1.15728        -161.658         -46.5898         -35.101         -46.5898         -35.101       -0.0157701         145.846
0.578                    -1.1791         -162.32         -46.4888        -36.4368         -46.4888        -36.4368       -0.0159007         145.773
0.579                   -1.20152        -162.988         -46.3867          -37.77         -46.3867          -37.77       -0.0160323         145.699
0.58                    -1.22457        -163.662         -46.2835        -39.1009         -46.2835        -39.1009       -0.0161649         145.626
0.581                   -1.24828        -164.342         -46.1793        -40.4299         -46.1793        -40.4299       -0.0162986         145.552
0.582                   -1.27268        -165.029          -46.074        -41.7576          -46.074        -41.7576       -0.0164334         145.478
0.583                    -1.2978        -165.722         -45.9676        -43.0843         -45.9676        -43.0843       -0.0165693         145.404
0.584                   -1.32368        -166.422         -45.8601        -44.4103         -45.8601        -44.4103       -0.0167064          145.33
0.585                   -1.35036        -167.128         -45.7516        -45.7362         -45.7516        -45.7362       -0.0168447         145.256
0.586                   -1.37786        -167.841         -45.6419        -47.0623         -45.6419        -47.0623       -0.0169843         145.181
0.587                   -1.40624        -168.561         -45.5312        -48.3889         -45.5312         -48.389       -0.0171251         145.107
0.588                   -1.43552        -169.288         -45.4194        -49.7166         -45.4194        -49.7166       -0.0172673         145.032
0.589                   -1.46576        -170.021         -45.3066        -51.0456         -45.3066        -51.0456       -0.0174109         144.957
0.59                    -1.49699        -170.762         -45.1926        -52.3764         -45.1926        -52.3764        -0.017556         144.882
0.591                   -1.52926        -171.509         -45.0777        -53.7093         -45.0777        -53.7093       -0.0177025         144.806
0.592                   -1.56263        -172.263         -44.9617        -55.0448         -44.9617        -55.0448       -0.0178506         144.731
0.593                   -1.59713        -173.025         -44.8446        -56.3831         -44.8446        -56.3831       -0.0180003         144.655
0.594                   -1.63283        -173.794         -44.7266        -57.7247         -44.7266        -57.7247       -0.0181516         144.579
0.595                   -1.66977        -174.569         -44.6076        -59.0699         -44.6076        -59.0699       -0.0183047         144.503
0.596                   -1.70801        -175.352         -44.4876        -60.4191         -44.4876        -60.4191       -0.0184595         144.427
0.597                    -1.7476        -176.142         -44.3667        -61.7726         -44.3667        -61.7726       -0.0186161          144.35
0.598                   -1.78862        -176.939         -44.2449        -63.1308         -44.2449        -63.1308       -0.0187747         144.274
0.599                   -1.83112        -177.743         -44.1222         -64.494         -44.1222         -64.494       -0.0189352         144.197
0.6                     -1.87516        -178.554         -43.9987        -65.8626         -43.9986        -65.8626       -0.0190978          144.12
0.601                   -1.92081        -179.373         -43.8743        -67.2368         -43.8743        -67.2368       -0.0192625         144.042
0.602                   -1.96815         179.802         -43.7491        -68.6171         -43.7491        -68.6171       -0.0194294         143.965
0.603                   -2.01724         178.971         -43.6232        -70.0037         -43.6232        -70.0037       -0.0195986         143.887
0.604                   -2.06815         178.132         -43.4966        -71.3969         -43.4966        -71.3969       -0.0197701          143.81
0.605                   -2.12096         177.287         -43.3694        -72.7971         -43.3694        -72.7971       -0.0199441         143.732
0.606                   -2.17575         176.435         -43.2415        -74.2044         -43.2415        -74.2044       -0.0201206         143.653
0.607                    -2.2326         175.577          -43.113        -75.6193          -43.113        -75.6193       -0.0202997         143.575
0.608                   -2.29159         174.713          -42.984        -77.0419          -42.984        -77.0419       -0.0204816         143.496
0.609                    -2.3528         173.844         -42.8545        -78.4725         -42.8545        -78.4725       -0.0206663         143.417
0.61                    -2.41632         172.968         -42.7246        -79.9114         -42.7246        -79.9114       -0.0208538         143.338
0.611                   -2.48224         172.087         -42.5944        -81.3588         -42.5944        -81.3588       -0.0210444         143.259
0.612                   -2.55064         171.201         -42.4638        -82.8148         -42.4638        -82.8148       -0.0212381         143.179
0.613                   -2.62161         170.311         -42.3329        -84.2798         -42.3329        -84.2798       -0.0214351         143.099
0.614                   -2.69524         169.416         -42.2019        -85.7538         -42.2019        -85.7538       -0.0216354         143.019
0.615                   -2.77161         168.516         -42.0708         -87.237         -42.0708         -87.237       -0.0218392         142.939
0.616                   -2.85081         167.613         -41.9395        -88.7297         -41.9395        -88.7297       -0.0220465         142.859
0.617                   -2.93289         166.707         -41.8083        -90.2318         -41.8083        -90.2318       -0.0222575         142.778
0.618                   -3.01791         165.797         -41.6772        -91.7435         -41.6772        -91.7435       -0.0224723         142.697
0.619                    -3.1059         164.884         -41.5462        -93.2649         -41.5462        -93.2649       -0.0226911         142.616
0.62                    -3.19681         163.968         -41.4154        -94.7961         -41.4154        -94.7961        -0.022914         142.534
0.621                   -3.29051         163.049         -41.2849         -96.337         -41.2849         -96.337        -0.023141         142.452
0.622                   -3.38672          162.13         -41.1548        -97.8877         -41.1548        -97.8877       -0.0233724          142.37
0.623                   -3.48497         161.211         -41.0251        -99.4481         -41.0251        -99.4481       -0.0236083         142.288
0.624                    -3.5848         160.299         -40.8959        -101.018         -40.8959        -101.018       -0.0238487         142.206
0.625                   -3.68641         159.406         -40.7673        -102.598         -40.7673        -102.598       -0.0240939         142.123
0.626                   -3.79156         158.541         -40.6394        -104.187         -40.6394        -104.187       -0.0243439          142.04
0.627                   -3.90275         157.701         -40.5122        -105.786         -40.5122        -105.786       -0.0245989         141.957
0.628                   -4.02091         156.872         -40.3858        -107.394         -40.3858        -107.394       -0.0248591         141.873
0.629                    -4.1451         156.045         -40.2603        -109.011         -40.2603        -109.011       -0.0251245         141.789
