! TOUCHSTONE file generated by CST MICROWAVE STUDIO
! Date and time: Sat Oct 24 11:11:59 2020
! Project name: Scenario_1_Circular_Tissue_in_Line.cst
! Parameters = {L_HA=400; MT=2.54; Rad_Dielectric=30; Rad_Lower=7.3; Rad_Upper=30; a_HA=580; a_WG=246; b_HA=500; b_WG=121; c_HA=0; c_WG=187; d_feed=85; dx1=276.92; h_feed=15; h_lower=18; h_upper=40}
! Header version: 2018
! Port assignment regex: !\s*Touchstone port\s*([0-9]+)\s*=\s*(CST MWS port|CST DS port)\s*([0-9]+|Zmin|Zmax)\s*\(\"(.*)\"\)(\s*mode\s*([0-9]+))?.*
! Touchstone port assignment:
! Touchstone port 1 = CST MWS port 1 ("")
! Touchstone port 2 = CST MWS port 2 ("")
# GHz S DB R 50
0.5                    -0.170716        -122.612         -56.9977         77.6723         -56.9977         77.6723      -0.00743732         151.135
0.501                  -0.180535        -123.031         -56.7748         76.2786         -56.7748         76.2797       -0.0075258          151.07
0.502                  -0.190368        -123.452         -56.5537          74.854         -56.5537          74.856      -0.00761471         151.004
0.503                  -0.200214        -123.874         -56.3348         73.3991         -56.3347          73.402      -0.00770406         150.939
0.504                  -0.210072        -124.297         -56.1181         71.9148          -56.118         71.9185      -0.00779385         150.874
0.505                  -0.219944        -124.721          -55.904         70.4019         -55.9038         70.4064      -0.00788408         150.808
0.506                  -0.229829        -125.147         -55.6926         68.8616         -55.6924         68.8667      -0.00797475         150.743
0.507                  -0.239727        -125.575         -55.4841         67.2948         -55.4838         67.3005      -0.00806585         150.677
0.508                  -0.249638        -126.003         -55.2787         65.7027         -55.2784          65.709       -0.0081574         150.611
0.509                  -0.259563        -126.434         -55.0765         64.0868         -55.0761         64.0934      -0.00824938         150.545
0.51                   -0.269501        -126.865         -54.8778         62.4482         -54.8774         62.4552       -0.0083418          150.48
0.511                  -0.279454        -127.299         -54.6826         60.7884         -54.6822         60.7958      -0.00843466         150.414
0.512                  -0.289421        -127.733         -54.4912         59.1091         -54.4906         59.1167      -0.00852796         150.348
0.513                  -0.299404         -128.17         -54.3035         57.4116         -54.3029         57.4194       -0.0086217         150.282
0.514                  -0.309403        -128.608         -54.1198         55.6978         -54.1192         55.7056      -0.00871587         150.215
0.515                   -0.31942        -129.048         -53.9401         53.9691         -53.9394          53.977      -0.00881048         150.149
0.516                  -0.329454         -129.49         -53.7644         52.2274         -53.7637         52.2353      -0.00890552         150.083
0.517                  -0.339507        -129.934         -53.5928         50.4743         -53.5921         50.4822        -0.009001         150.016
0.518                   -0.34958        -130.379         -53.4254         48.7116         -53.4246         48.7194       -0.0090969          149.95
0.519                  -0.359675        -130.826         -53.2621          46.941         -53.2613         46.9486      -0.00919324         149.883
0.52                   -0.369793        -131.276         -53.1029         45.1642         -53.1021         45.1717         -0.00929         149.817
0.521                  -0.379936        -131.727         -52.9478         43.3828          -52.947         43.3901      -0.00938718          149.75
0.522                  -0.390105         -132.18         -52.7968         41.5987         -52.7959         41.6057      -0.00948478         149.683
0.523                  -0.400302        -132.636         -52.6497         39.8132         -52.6488           39.82       -0.0095828         149.616
0.524                  -0.410529        -133.094         -52.5066          38.028         -52.5056         38.0345      -0.00968123         149.549
0.525                  -0.420789        -133.553         -52.3672         36.2446         -52.3663         36.2508      -0.00978007         149.482
0.526                  -0.431083        -134.016         -52.2315         34.4643         -52.2306         34.4702      -0.00987932         149.415
0.527                  -0.441415         -134.48         -52.0994         32.6884         -52.0984          32.694      -0.00997897         149.347
0.528                  -0.451786        -134.947         -51.9707         30.9183         -51.9698         30.9236        -0.010079          149.28
0.529                  -0.462201        -135.416         -51.8453          29.155         -51.8444         29.1599       -0.0101795         149.213
0.53                   -0.472661        -135.888          -51.723         27.3995         -51.7221         27.4042       -0.0102803         149.145
0.531                  -0.483171        -136.362         -51.6037         25.6529         -51.6028         25.6573       -0.0103815         149.077
0.532                  -0.493734        -136.839         -51.4872         23.9161         -51.4864         23.9201       -0.0104831          149.01
0.533                  -0.504353        -137.319         -51.3734         22.1896         -51.3725         22.1933       -0.0105851         148.942
0.534                  -0.515032        -137.801          -51.262         20.4743         -51.2612         20.4777       -0.0106874         148.874
0.535                  -0.525776        -138.286         -51.1529         18.7707         -51.1522         18.7739       -0.0107901         148.806
0.536                   -0.53659        -138.774          -51.046         17.0794         -51.0452         17.0822       -0.0108932         148.738
0.537                  -0.547477        -139.265          -50.941         15.4006         -50.9403         15.4032       -0.0109966          148.67
0.538                  -0.558444        -139.759         -50.8378         13.7347         -50.8371         13.7371       -0.0111004         148.601
0.539                  -0.569494        -140.256         -50.7362          12.082         -50.7356         12.0841       -0.0112046         148.533
0.54                   -0.580634        -140.756         -50.6361         10.4426         -50.6355         10.4445       -0.0113091         148.464
0.541                   -0.59187         -141.26         -50.5372          8.8167         -50.5367          8.8184       -0.0114139         148.396
0.542                  -0.603208        -141.766         -50.4395         7.20423          -50.439         7.20573       -0.0115191         148.327
0.543                  -0.614655        -142.276         -50.3428         5.60519         -50.3423         5.60652       -0.0116247         148.258
0.544                  -0.626217         -142.79         -50.2469         4.01951         -50.2465         4.02067       -0.0117306         148.189
0.545                  -0.637902        -143.307         -50.1518         2.44706         -50.1513         2.44807       -0.0118368          148.12
0.546                  -0.649717        -143.827         -50.0572        0.887659         -50.0568        0.888533       -0.0119434         148.051
0.547                  -0.661672        -144.351          -49.963       -0.658909         -49.9626       -0.658159       -0.0120504         147.982
0.548                  -0.673773        -144.879         -49.8691         -2.1929         -49.8688        -2.19226       -0.0121577         147.912
0.549                   -0.68603         -145.41         -49.7755        -3.71459         -49.7752        -3.71406       -0.0122654         147.843
0.55                   -0.698453        -145.946         -49.6819        -5.22431         -49.6817        -5.22387       -0.0123735         147.773
0.551                  -0.711052        -146.485         -49.5884         -6.7224         -49.5882        -6.72204       -0.0124819         147.703
0.552                  -0.723837        -147.029         -49.4947        -8.20921         -49.4945        -8.20893       -0.0125908         147.633
0.553                  -0.736818        -147.576         -49.4008        -9.68514         -49.4007        -9.68492          -0.0127         147.563
0.554                  -0.750008        -148.128         -49.3066        -11.1506         -49.3065        -11.1504       -0.0128097         147.493
0.555                  -0.763419        -148.684         -49.2121         -12.606          -49.212        -12.6058       -0.0129198         147.423
0.556                  -0.777063        -149.244         -49.1171        -14.0517         -49.1171        -14.0516       -0.0130303         147.353
0.557                  -0.790954        -149.809         -49.0216        -15.4882         -49.0216        -15.4882       -0.0131414         147.283
0.558                  -0.805105        -150.379         -48.9256         -16.916         -48.9255        -16.9159       -0.0132528         147.212
0.559                  -0.819531        -150.953         -48.8288        -18.3354         -48.8288        -18.3354       -0.0133648         147.141
0.56                   -0.834248        -151.531         -48.7314         -19.747         -48.7314         -19.747       -0.0134773          147.07
0.561                  -0.849271        -152.115         -48.6333        -21.1511         -48.6333        -21.1512       -0.0135903             147
0.562                  -0.864618        -152.703         -48.5343        -22.5483         -48.5344        -22.5484       -0.0137039         146.929
0.563                  -0.880306        -153.297         -48.4345        -23.9391         -48.4346        -23.9391       -0.0138181         146.857
0.564                  -0.896354        -153.895         -48.3338        -25.3238         -48.3339        -25.3239       -0.0139328         146.786
0.565                   -0.91278        -154.499         -48.2322        -26.7029         -48.2323         -26.703       -0.0140482         146.715
0.566                  -0.929606        -155.108         -48.1297        -28.0769         -48.1298         -28.077       -0.0141642         146.643
0.567                  -0.946852        -155.722         -48.0262        -29.4463         -48.0263        -29.4464       -0.0142809         146.571
0.568                  -0.964541        -156.342         -47.9217        -30.8115         -47.9218        -30.8116       -0.0143983         146.499
0.569                  -0.982695        -156.967         -47.8162        -32.1729         -47.8163         -32.173       -0.0145164         146.428
0.57                    -1.00134        -157.598         -47.7096         -33.531         -47.7098        -33.5311       -0.0146353         146.355
0.571                    -1.0205        -158.234          -47.602        -34.8862         -47.6021        -34.8863       -0.0147549         146.283
0.572                    -1.0402        -158.876         -47.4933        -36.2391         -47.4934        -36.2392       -0.0148754         146.211
0.573                   -1.06047        -159.524         -47.3835        -37.5899         -47.3837          -37.59       -0.0149967         146.138
0.574                   -1.08134        -160.178         -47.2726        -38.9392         -47.2728        -38.9393       -0.0151188         146.066
0.575                   -1.10283        -160.838         -47.1607        -40.2874         -47.1609        -40.2875       -0.0152419         145.993
0.576                   -1.12499        -161.504         -47.0476        -41.6348         -47.0478         -41.635       -0.0153659          145.92
0.577                   -1.14783        -162.176         -46.9335         -42.982         -46.9337        -42.9822       -0.0154909         145.847
0.578                    -1.1714        -162.854         -46.8182        -44.3294         -46.8184        -44.3295       -0.0156168         145.773
0.579                   -1.19574        -163.539         -46.7019        -45.6773         -46.7021        -45.6774       -0.0157439           145.7
0.58                    -1.22087         -164.23         -46.5844        -47.0261         -46.5846        -47.0262        -0.015872         145.626
0.581                   -1.24683        -164.927         -46.4659        -48.3763         -46.4661        -48.3764       -0.0160012         145.553
0.582                   -1.27367         -165.63         -46.3463        -49.7283         -46.3465        -49.7284       -0.0161316         145.479
0.583                   -1.30143         -166.34         -46.2257        -51.0824         -46.2259        -51.0825       -0.0162631         145.405
0.584                   -1.33015        -167.057          -46.104         -52.439         -46.1042        -52.4392        -0.016396          145.33
0.585                   -1.35987        -167.779         -45.9813        -53.7986         -45.9814        -53.7988       -0.0165301         145.256
0.586                   -1.39064        -168.509         -45.8575        -55.1614         -45.8577        -55.1616       -0.0166656         145.181
0.587                   -1.42251        -169.245         -45.7328         -56.528          -45.733        -56.5282       -0.0168024         145.107
0.588                   -1.45552        -169.987         -45.6071        -57.8986         -45.6073        -57.8988       -0.0169408         145.032
0.589                   -1.48973        -170.736         -45.4805        -59.2736         -45.4806        -59.2738       -0.0170806         144.957
0.59                     -1.5252        -171.491         -45.3529        -60.6533         -45.3531        -60.6536        -0.017222         144.881
0.591                   -1.56196        -172.253         -45.2244        -62.0382         -45.2246        -62.0385        -0.017365         144.806
0.592                   -1.60009        -173.021         -45.0951        -63.4286         -45.0953        -63.4289       -0.0175097          144.73
0.593                   -1.63963        -173.795          -44.965        -64.8247         -44.9651         -64.825       -0.0176562         144.655
0.594                   -1.68064        -174.575          -44.834         -66.227         -44.8342        -66.2274       -0.0178045         144.579
0.595                    -1.7232        -175.362         -44.7024        -67.6358         -44.7025        -67.6361       -0.0179547         144.503
0.596                   -1.76735        -176.154           -44.57        -69.0513         -44.5701        -69.0517       -0.0181068         144.426
0.597                   -1.81316        -176.952         -44.4369         -70.474          -44.437        -70.4744       -0.0182611          144.35
0.598                    -1.8607        -177.756         -44.3032         -71.904         -44.3033        -71.9044       -0.0184174         144.273
0.599                   -1.91003        -178.565         -44.1688        -73.3417          -44.169        -73.3421        -0.018576         144.196
0.6                     -1.96122        -179.379          -44.034        -74.7874         -44.0341        -74.7878       -0.0187369         144.119
0.601                   -2.01433         179.801         -43.8987        -76.2413         -43.8988        -76.2417       -0.0189002         144.042
0.602                   -2.06944         178.977         -43.7629        -77.7037          -43.763        -77.7041        -0.019066         143.964
0.603                   -2.12661         178.149         -43.6267        -79.1748         -43.6269        -79.1753       -0.0192344         143.886
0.604                   -2.18592         177.317         -43.4903        -80.6549         -43.4904        -80.6554       -0.0194056         143.808
0.605                   -2.24743         176.481         -43.3535        -82.1441         -43.3536        -82.1446       -0.0195795          143.73
0.606                   -2.31121         175.642         -43.2166        -83.6428         -43.2167        -83.6433       -0.0197564         143.652
0.607                   -2.37733           174.8         -43.0795         -85.151         -43.0796        -85.1515       -0.0199363         143.573
0.608                   -2.44587         173.955         -42.9423        -86.6689         -42.9424        -86.6695       -0.0201193         143.495
0.609                   -2.51688         173.109         -42.8051        -88.1967         -42.8052        -88.1973       -0.0203056         143.416
0.61                    -2.59045         172.261         -42.6679        -89.7346          -42.668        -89.7351       -0.0204954         143.336
0.611                   -2.66662         171.413         -42.5309        -91.2825          -42.531        -91.2831       -0.0206886         143.257
0.612                   -2.74546         170.565         -42.3941        -92.8406         -42.3942        -92.8412       -0.0208855         143.177
0.613                   -2.82704         169.717         -42.2576         -94.409         -42.2576        -94.4096       -0.0210862         143.097
0.614                    -2.9114         168.871         -42.1214        -95.9877         -42.1214        -95.9883       -0.0212907         143.017
0.615                   -2.99861         168.027         -41.9856        -97.5767         -41.9857        -97.5773       -0.0214993         142.937
0.616                   -3.08871         167.186         -41.8503         -99.176         -41.8504        -99.1766       -0.0217121         142.856
0.617                   -3.18175         166.348         -41.7156        -100.786         -41.7157        -100.786       -0.0219292         142.775
0.618                   -3.27775         165.516         -41.5815        -102.405         -41.5816        -102.406       -0.0221507         142.694
0.619                   -3.37676         164.689         -41.4482        -104.035         -41.4483        -104.036       -0.0223768         142.613
0.62                     -3.4788         163.869         -41.3157        -105.675         -41.3158        -105.675       -0.0226076         142.531
0.621                   -3.58388         163.056         -41.1841        -107.324         -41.1842        -107.325       -0.0228432         142.449
0.622                   -3.69202         162.252         -41.0534        -108.983         -41.0535        -108.984       -0.0230838         142.367
0.623                   -3.80321         161.459         -40.9238        -110.652         -40.9239        -110.652       -0.0233295         142.285
0.624                   -3.91743         160.676         -40.7953        -112.329         -40.7954         -112.33       -0.0235804         142.202
0.625                   -4.03467         159.906          -40.668        -114.016         -40.6681        -114.016       -0.0238366          142.12
0.626                   -4.15488          159.15          -40.542        -115.711         -40.5421        -115.711       -0.0240983         142.036
0.627                   -4.27801         158.408         -40.4173        -117.414         -40.4173        -117.414       -0.0243655         141.953
0.628                   -4.40401         157.683          -40.294        -119.125          -40.294        -119.125       -0.0246385         141.869
0.629                   -4.53279         156.975         -40.1721        -120.843         -40.1722        -120.843       -0.0249172         141.785
