! TOUCHSTONE file generated by CST MICROWAVE STUDIO
! Date and time: Sat Oct 24 11:12:06 2020
! Project name: Scenario_1_Circular_Tissue_in_Line.cst
! Parameters = {L_HA=400; MT=2.54; Rad_Dielectric=30; Rad_Lower=7.3; Rad_Upper=30; a_HA=580; a_WG=246; b_HA=500; b_WG=121; c_HA=0; c_WG=187; d_feed=85; dx1=294.24; h_feed=15; h_lower=18; h_upper=40}
! Header version: 2018
! Port assignment regex: !\s*Touchstone port\s*([0-9]+)\s*=\s*(CST MWS port|CST DS port)\s*([0-9]+|Zmin|Zmax)\s*\(\"(.*)\"\)(\s*mode\s*([0-9]+))?.*
! Touchstone port assignment:
! Touchstone port 1 = CST MWS port 1 ("")
! Touchstone port 2 = CST MWS port 2 ("")
# GHz S DB R 50
0.5                    -0.179992        -122.581         -57.2879         66.8184         -57.1673          66.686      -0.00758133         151.116
0.501                  -0.188263        -123.005         -57.0837         65.3084         -56.9673         65.1136      -0.00766492         151.051
0.502                  -0.196598        -123.431         -56.8819         63.7798         -56.7701         63.5259        -0.007749         150.986
0.503                  -0.204997        -123.858         -56.6829         62.2335         -56.5759         61.9238      -0.00783358          150.92
0.504                  -0.213457        -124.286         -56.4865         60.6704         -56.3847         60.3082      -0.00791865         150.855
0.505                  -0.221978        -124.716          -56.293         59.0913         -56.1966         58.6802      -0.00800421         150.789
0.506                  -0.230559        -125.147         -56.1024         57.4972         -56.0117         57.0408      -0.00809025         150.724
0.507                  -0.239197        -125.579         -55.9148         55.8892         -55.8299          55.391      -0.00817677         150.658
0.508                  -0.247892        -126.013         -55.7302         54.2683         -55.6513         53.7319      -0.00826377         150.592
0.509                  -0.256642        -126.448         -55.5487         52.6354         -55.4759         52.0645      -0.00835125         150.526
0.51                   -0.265446        -126.885         -55.3703         50.9918         -55.3037         50.3899      -0.00843919          150.46
0.511                  -0.274303        -127.324         -55.1951         49.3385         -55.1347         48.7092       -0.0085276         150.394
0.512                  -0.283213        -127.764          -55.023         47.6766         -54.9689         47.0235      -0.00861648         150.328
0.513                  -0.292174        -128.205         -54.8542         46.0072         -54.8064         45.3337      -0.00870581         150.262
0.514                  -0.301186        -128.649         -54.6885         44.3316         -54.6469          43.641       -0.0087956         150.196
0.515                  -0.310247        -129.094         -54.5261         42.6507         -54.4906         41.9464      -0.00888584          150.13
0.516                  -0.319358        -129.541         -54.3668         40.9657         -54.3374         40.2509      -0.00897653         150.063
0.517                  -0.328517        -129.989         -54.2106         39.2777         -54.1871         38.5553      -0.00906767         149.997
0.518                  -0.337725         -130.44         -54.0575         37.5878         -54.0398         36.8608      -0.00915925          149.93
0.519                  -0.346982        -130.892         -53.9075         35.8969         -53.8953         35.1681      -0.00925126         149.864
0.52                   -0.356286        -131.346         -53.7604         34.2062         -53.7537         33.4781      -0.00934371         149.797
0.521                  -0.365639        -131.803         -53.6163         32.5166         -53.6147         31.7917      -0.00943658          149.73
0.522                  -0.375042        -132.261         -53.4749         30.8289         -53.4784         30.1095      -0.00952988         149.663
0.523                  -0.384493        -132.722         -53.3364         29.1442         -53.3445         28.4324      -0.00962361         149.596
0.524                  -0.393995        -133.184         -53.2005         27.4632         -53.2131         26.7609      -0.00971775         149.529
0.525                  -0.403549        -133.649         -53.0671         25.7867         -53.0839         25.0958      -0.00981231         149.462
0.526                  -0.413155        -134.117         -52.9362         24.1155         -52.9569         23.4374      -0.00990727         149.395
0.527                  -0.422815        -134.586         -52.8076         22.4502          -52.832         21.7865       -0.0100026         149.328
0.528                  -0.432532        -135.058         -52.6813         20.7915         -52.7091         20.1433       -0.0100984          149.26
0.529                  -0.442306        -135.533         -52.5571         19.1398          -52.588         18.5084       -0.0101946         149.193
0.53                   -0.452141         -136.01         -52.4348         17.4958         -52.4686          16.882       -0.0102912         149.125
0.531                   -0.46204         -136.49         -52.3145         15.8599         -52.3509         15.2646       -0.0103881         149.058
0.532                  -0.472005        -136.972         -52.1959         14.2325         -52.2346         13.6562       -0.0104855          148.99
0.533                   -0.48204        -137.457         -52.0789         12.6138         -52.1197         12.0572       -0.0105832         148.922
0.534                  -0.492149        -137.945         -51.9634         11.0043          -52.006         10.4677       -0.0106813         148.854
0.535                  -0.502336        -138.436         -51.8493         9.40404         -51.8935         8.88776       -0.0107798         148.786
0.536                  -0.512605         -138.93         -51.7365         7.81334          -51.782         7.31753       -0.0108787         148.718
0.537                  -0.522963        -139.427         -51.6248         6.23229         -51.6715         5.75701        -0.010978          148.65
0.538                  -0.533415        -139.927         -51.5142         4.66097         -51.5617         4.20621       -0.0110776         148.581
0.539                  -0.543966        -140.431         -51.4045         3.09944         -51.4527         2.66509       -0.0111776         148.513
0.54                   -0.554624        -140.937         -51.2955         1.54769         -51.3442         1.13356        -0.011278         148.444
0.541                  -0.565395        -141.448         -51.1872      0.00568989         -51.2363       -0.388475       -0.0113787         148.376
0.542                  -0.576288        -141.961         -51.0796        -1.52663         -51.1288        -1.90115       -0.0114798         148.307
0.543                   -0.58731        -142.478         -50.9724        -3.04938         -51.0216        -3.40462       -0.0115812         148.238
0.544                  -0.598471        -142.999         -50.8655         -4.5627         -50.9146        -4.89908       -0.0116831         148.169
0.545                   -0.60978        -143.524          -50.759        -6.06675         -50.8077        -6.38474       -0.0117853           148.1
0.546                  -0.621246        -144.052         -50.6526        -7.56173         -50.7009        -7.86182       -0.0118878         148.031
0.547                  -0.632882        -144.585         -50.5464        -9.04787         -50.5941        -9.33057       -0.0119907         147.962
0.548                  -0.644698        -145.121         -50.4401        -10.5254         -50.4872        -10.7913        -0.012094         147.892
0.549                  -0.656706        -145.662         -50.3338        -11.9946         -50.3802        -12.2442       -0.0121977         147.823
0.55                   -0.668921        -146.207         -50.2273        -13.4557         -50.2729        -13.6896       -0.0123017         147.753
0.551                  -0.681354        -146.756         -50.1206        -14.9091         -50.1653        -15.1279       -0.0124061         147.684
0.552                   -0.69402        -147.309         -50.0137         -16.355         -50.0573        -16.5593       -0.0125109         147.614
0.553                  -0.706936        -147.867         -49.9063        -17.7938         -49.9489        -17.9842       -0.0126161         147.544
0.554                  -0.720116        -148.429         -49.7986        -19.2259         -49.8401         -19.403       -0.0127216         147.474
0.555                  -0.733578        -148.996         -49.6903        -20.6515         -49.7307        -20.8159       -0.0128276         147.403
0.556                  -0.747339        -149.568         -49.5816         -22.071         -49.6208        -22.2233        -0.012934         147.333
0.557                  -0.761418        -150.145         -49.4722        -23.4849         -49.5102        -23.6256       -0.0130407         147.263
0.558                  -0.775834        -150.727         -49.3623        -24.8935          -49.399        -25.0232        -0.013148         147.192
0.559                  -0.790608        -151.313         -49.2516        -26.2971         -49.2871        -26.4165       -0.0132556         147.122
0.56                   -0.805761        -151.905         -49.1402        -27.6962         -49.1745        -27.8057       -0.0133637         147.051
0.561                  -0.821315        -152.502         -49.0281        -29.0911         -49.0611        -29.1914       -0.0134723          146.98
0.562                  -0.837293        -153.104         -48.9152        -30.4823         -48.9469        -30.5738       -0.0135813         146.909
0.563                  -0.853719        -153.711         -48.8015        -31.8702         -48.8319        -31.9534       -0.0136909         146.838
0.564                  -0.870619        -154.324         -48.6869        -33.2551          -48.716        -33.3305       -0.0138009         146.766
0.565                  -0.888019        -154.942         -48.5714        -34.6375         -48.5993        -34.7056       -0.0139115         146.695
0.566                  -0.905945        -155.566         -48.4551        -36.0178         -48.4817         -36.079       -0.0140227         146.623
0.567                  -0.924425        -156.195         -48.3378        -37.3963         -48.3632        -37.4511       -0.0141344         146.551
0.568                   -0.94349         -156.83         -48.2196        -38.7736         -48.2438        -38.8224       -0.0142468          146.48
0.569                  -0.963168         -157.47         -48.1004        -40.1499         -48.1234        -40.1932       -0.0143598         146.408
0.57                   -0.983492        -158.117         -47.9803        -41.5258         -48.0021        -41.5638       -0.0144734         146.335
0.571                   -1.00449        -158.769         -47.8592        -42.9015         -47.8799        -42.9348       -0.0145878         146.263
0.572                   -1.02621        -159.427         -47.7371        -44.2777         -47.7567        -44.3065       -0.0147029         146.191
0.573                   -1.04867        -160.091         -47.6141        -45.6545         -47.6325        -45.6792       -0.0148188         146.118
0.574                    -1.0719         -160.76           -47.49        -47.0325         -47.5074        -47.0534       -0.0149355         146.045
0.575                   -1.09596        -161.436          -47.365        -48.4121         -47.3813        -48.4295       -0.0150531         145.973
0.576                   -1.12087        -162.117          -47.239        -49.7936         -47.2543        -49.8078       -0.0151716           145.9
0.577                   -1.14668        -162.804          -47.112        -51.1774         -47.1263        -51.1888        -0.015291         145.826
0.578                   -1.17342        -163.498         -46.9841        -52.5641         -46.9975        -52.5727       -0.0154114         145.753
0.579                   -1.20114        -164.197         -46.8552        -53.9538         -46.8676        -53.9601        -0.015533          145.68
0.58                    -1.22987        -164.902         -46.7253        -55.3471         -46.7369        -55.3512       -0.0156556         145.606
0.581                   -1.25967        -165.612         -46.5945        -56.7444         -46.6053        -56.7465       -0.0157794         145.532
0.582                   -1.29057        -166.329         -46.4629         -58.146         -46.4728        -58.1464       -0.0159045         145.458
0.583                   -1.32262        -167.051         -46.3303        -59.5523         -46.3395        -59.5511       -0.0160309         145.384
0.584                   -1.35586        -167.779         -46.1969        -60.9637         -46.2053        -60.9611       -0.0161587          145.31
0.585                   -1.39035        -168.513         -46.0626        -62.3805         -46.0703        -62.3767        -0.016288         145.235
0.586                   -1.42613        -169.251         -45.9275        -63.8032         -45.9346        -63.7984       -0.0164188         145.161
0.587                   -1.46325        -169.996         -45.7917         -65.232          -45.798        -65.2263       -0.0165512         145.086
0.588                   -1.50177        -170.745         -45.6551        -66.6674         -45.6608        -66.6609       -0.0166854         145.011
0.589                   -1.54172          -171.5         -45.5178        -68.1097         -45.5229        -68.1026       -0.0168213         144.936
0.59                    -1.58317        -172.259         -45.3798        -69.5593         -45.3844        -69.5516       -0.0169592          144.86
0.591                   -1.62616        -173.024         -45.2411        -71.0164         -45.2452        -71.0083        -0.017099         144.785
0.592                   -1.67075        -173.792         -45.1019        -72.4814         -45.1055         -72.473        -0.017241         144.709
0.593                   -1.71699        -174.565         -44.9622        -73.9546         -44.9653         -73.946       -0.0173851         144.633
0.594                   -1.76494        -175.343         -44.8219        -75.4363         -44.8246        -75.4275       -0.0175315         144.557
0.595                   -1.81465        -176.124         -44.6813        -76.9269         -44.6835         -76.918       -0.0176803         144.481
0.596                   -1.86617        -176.908         -44.5402        -78.4265          -44.542        -78.4176       -0.0178317         144.404
0.597                   -1.91956        -177.696         -44.3988        -79.9355         -44.4003        -79.9266       -0.0179856         144.328
0.598                   -1.97486        -178.487         -44.2571         -81.454         -44.2583        -81.4453       -0.0181423         144.251
0.599                   -2.03215         -179.28         -44.1152        -82.9824         -44.1161        -82.9738       -0.0183019         144.174
0.6                     -2.09145         179.925         -43.9732        -84.5208         -43.9737        -84.5125       -0.0184644         144.097
0.601                   -2.15284         179.128         -43.8311        -86.0695         -43.8314        -86.0614         -0.01863         144.019
0.602                   -2.21635         178.329          -43.689        -87.6286          -43.689        -87.6208       -0.0187988         143.941
0.603                   -2.28204          177.53         -43.5469        -89.1983         -43.5467        -89.1907        -0.018971         143.864
0.604                   -2.34996         176.731          -43.405        -90.7786         -43.4046        -90.7714       -0.0191466         143.786
0.605                   -2.42014         175.932         -43.2633        -92.3698         -43.2627         -92.363       -0.0193258         143.707
0.606                   -2.49263         175.134         -43.1219        -93.9719         -43.1211        -93.9654       -0.0195087         143.629
0.607                   -2.56747         174.337         -42.9809        -95.5849         -42.9799        -95.5789       -0.0196955          143.55
0.608                   -2.64469         173.543         -42.8403        -97.2089         -42.8392        -97.2033       -0.0198861         143.471
0.609                   -2.72433         172.751         -42.7002         -98.844          -42.699        -98.8387       -0.0200809         143.392
0.61                     -2.8064         171.963         -42.5608         -100.49         -42.5595        -100.485       -0.0202798         143.313
0.611                   -2.89093          171.18          -42.422        -102.147         -42.4206        -102.142        -0.020483         143.233
0.612                   -2.97794         170.402         -42.2841        -103.814         -42.2826        -103.811       -0.0206906         143.153
0.613                   -3.06742         169.629          -42.147        -105.493         -42.1454        -105.489       -0.0209028         143.073
0.614                   -3.15938         168.864         -42.0108        -107.182         -42.0092        -107.179       -0.0211195         142.993
0.615                   -3.25381         168.106         -41.8757        -108.881          -41.874        -108.878        -0.021341         142.913
0.616                   -3.35069         167.357         -41.7417         -110.59           -41.74        -110.588       -0.0215673         142.832
0.617                      -3.45         166.618         -41.6089        -112.309         -41.6072        -112.307       -0.0217986         142.751
0.618                   -3.55169          165.89         -41.4774        -114.038         -41.4756        -114.036       -0.0220349          142.67
0.619                   -3.65572         165.173         -41.3472        -115.775         -41.3455        -115.774       -0.0222763         142.588
0.62                    -3.76202         164.469         -41.2184        -117.522         -41.2167        -117.521       -0.0225228         142.507
0.621                   -3.87052         163.779         -41.0912        -119.277         -41.0895        -119.277       -0.0227747         142.425
0.622                   -3.98112         163.103         -40.9655         -121.04         -40.9639         -121.04       -0.0230319         142.343
0.623                   -4.09372         162.443         -40.8415         -122.81         -40.8398        -122.811       -0.0232945          142.26
0.624                   -4.20821           161.8         -40.7192        -124.588         -40.7175        -124.589       -0.0235626         142.177
0.625                   -4.32445         161.175         -40.5986        -126.372          -40.597        -126.373       -0.0238363         142.095
0.626                   -4.44228         160.568         -40.4798        -128.161         -40.4783        -128.163       -0.0241155         142.011
0.627                   -4.56153         159.981         -40.3629        -129.957         -40.3614        -129.958       -0.0244004         141.928
0.628                   -4.68203         159.415         -40.2478        -131.756         -40.2464        -131.759        -0.024691         141.844
0.629                   -4.80357         158.869         -40.1347         -133.56         -40.1333        -133.563       -0.0249873          141.76
