! TOUCHSTONE file generated by CST MICROWAVE STUDIO
! Date and time: Sat Oct 24 11:12:12 2020
! Project name: Scenario_1_Circular_Tissue_in_Line.cst
! Parameters = {L_HA=400; MT=2.54; Rad_Dielectric=30; Rad_Lower=7.3; Rad_Upper=30; a_HA=580; a_WG=246; b_HA=500; b_WG=121; c_HA=0; c_WG=187; d_feed=85; dx1=311.56; h_feed=15; h_lower=18; h_upper=40}
! Header version: 2018
! Port assignment regex: !\s*Touchstone port\s*([0-9]+)\s*=\s*(CST MWS port|CST DS port)\s*([0-9]+|Zmin|Zmax)\s*\(\"(.*)\"\)(\s*mode\s*([0-9]+))?.*
! Touchstone port assignment:
! Touchstone port 1 = CST MWS port 1 ("")
! Touchstone port 2 = CST MWS port 2 ("")
# GHz S DB R 50
0.5                    -0.184254        -122.497         -57.4343         55.6269         -57.4342         55.6291      -0.00768711         151.109
0.501                  -0.190825        -122.914         -57.2647         53.9559          -57.263         53.9476       -0.0077664         151.043
0.502                  -0.197435        -123.332         -57.0976         52.2843         -57.0945         52.2658        -0.007846         150.978
0.503                  -0.204084        -123.752          -56.933         50.6127         -56.9287         50.5844      -0.00792591         150.913
0.504                  -0.210776        -124.174         -56.7707         48.9415         -56.7654          48.904      -0.00800613         150.847
0.505                  -0.217511        -124.599         -56.6109         47.2714         -56.6046         47.2251      -0.00808666         150.782
0.506                  -0.224291        -125.025         -56.4533          45.603         -56.4463         45.5484      -0.00816751         150.716
0.507                  -0.231119        -125.453         -56.2981         43.9366         -56.2904         43.8743      -0.00824868          150.65
0.508                  -0.237997        -125.884         -56.1451          42.273         -56.1369         42.2034      -0.00833016         150.585
0.509                  -0.244927        -126.316         -55.9942         40.6125         -55.9857         40.5362      -0.00841196         150.519
0.51                   -0.251911        -126.751         -55.8456         38.9556         -55.8367         38.8732      -0.00849408         150.453
0.511                  -0.258951        -127.188          -55.699         37.3028           -55.69         37.2148      -0.00857652         150.387
0.512                  -0.266051        -127.627         -55.5544         35.6545         -55.5453         35.5615      -0.00865928         150.321
0.513                  -0.273213        -128.069         -55.4118         34.0112         -55.4027         33.9137      -0.00874237         150.255
0.514                   -0.28044        -128.512          -55.271         32.3731          -55.262         32.2717      -0.00882579         150.189
0.515                  -0.287734        -128.959         -55.1321         30.7408         -55.1232         30.6359      -0.00890953         150.122
0.516                  -0.295099        -129.407         -54.9949         29.1144         -54.9862         29.0066       -0.0089936         150.056
0.517                  -0.302539        -129.858         -54.8594         27.4944         -54.8509         27.3842        -0.009078          149.99
0.518                  -0.310056        -130.312         -54.7255         25.8809         -54.7173         25.7688      -0.00916273         149.923
0.519                  -0.317654        -130.768          -54.593         24.2742         -54.5852         24.1607       -0.0092478         149.856
0.52                   -0.325337        -131.227          -54.462         22.6746         -54.4545         22.5601      -0.00933321          149.79
0.521                  -0.333109        -131.688         -54.3324         21.0822         -54.3252         20.9672      -0.00941896         149.723
0.522                  -0.340974        -132.152          -54.204         19.4971         -54.1972         19.3821      -0.00950505         149.656
0.523                  -0.348935        -132.619         -54.0768         17.9197         -54.0704         17.8049      -0.00959148         149.589
0.524                  -0.356999        -133.088         -53.9507         16.3498         -53.9448         16.2357      -0.00967827         149.522
0.525                  -0.365168         -133.56         -53.8256         14.7877         -53.8201         14.6745       -0.0097654         149.455
0.526                  -0.373449        -134.035         -53.7015         13.2333         -53.6964         13.1215      -0.00985289         149.388
0.527                  -0.381847        -134.514         -53.5782         11.6867         -53.5736         11.5765      -0.00994074          149.32
0.528                  -0.390366        -134.995         -53.4558         10.1479         -53.4515         10.0397       -0.0100289         149.253
0.529                  -0.399012        -135.479          -53.334         8.61695         -53.3302         8.51085       -0.0101175         149.185
0.53                   -0.407791        -135.966         -53.2128          7.0937         -53.2094         6.98999       -0.0102065         149.118
0.531                   -0.41671        -136.456         -53.0923         5.57813         -53.0892         5.47702       -0.0102958          149.05
0.532                  -0.425775        -136.949         -52.9722         4.07016         -52.9695         3.97184       -0.0103855         148.982
0.533                  -0.434992        -137.446         -52.8525         2.56968         -52.8502         2.47431       -0.0104755         148.915
0.534                  -0.444368        -137.946         -52.7331         1.07657         -52.7312        0.984291        -0.010566         148.847
0.535                  -0.453911        -138.449          -52.614       -0.409304         -52.6124       -0.498372       -0.0106568         148.779
0.536                  -0.463628        -138.956         -52.4951        -1.88811         -52.4938        -1.97386       -0.0107481          148.71
0.537                  -0.473528        -139.466         -52.3764           -3.36         -52.3754        -3.44236       -0.0108397         148.642
0.538                  -0.483618        -139.979         -52.2577        -4.82519          -52.257        -4.90408       -0.0109318         148.574
0.539                  -0.493908        -140.496         -52.1391        -6.28386         -52.1386        -6.35924       -0.0110242         148.505
0.54                   -0.504406        -141.017         -52.0204        -7.73623         -52.0201        -7.80806       -0.0111171         148.437
0.541                  -0.515122        -141.541         -51.9016        -9.18254         -51.9015         -9.2508       -0.0112104         148.368
0.542                  -0.526066         -142.07         -51.7827         -10.623         -51.7827        -10.6877       -0.0113042         148.299
0.543                  -0.537248        -142.601         -51.6635        -12.0579         -51.6638         -12.119       -0.0113984          148.23
0.544                   -0.54868        -143.137         -51.5441        -13.4875         -51.5445        -13.5451        -0.011493         148.161
0.545                  -0.560372        -143.677         -51.4244         -14.912         -51.4249        -14.9661       -0.0115882         148.092
0.546                  -0.572336        -144.221         -51.3043        -16.3317          -51.305        -16.3824       -0.0116837         148.023
0.547                  -0.584585        -144.768         -51.1839        -17.7469         -51.1846        -17.7942       -0.0117798         147.954
0.548                  -0.597132         -145.32          -51.063         -19.158         -51.0638        -19.2019       -0.0118764         147.884
0.549                  -0.609989        -145.876         -50.9416        -20.5651         -50.9425        -20.6058       -0.0119734         147.815
0.55                   -0.623172        -146.436         -50.8198        -21.9686         -50.8206        -22.0061        -0.012071         147.745
0.551                  -0.636694        -147.001         -50.6973        -23.3689         -50.6982        -23.4033       -0.0121691         147.675
0.552                  -0.650571         -147.57         -50.5743        -24.7662         -50.5753        -24.7976       -0.0122677         147.605
0.553                  -0.664819        -148.143         -50.4507        -26.1609         -50.4517        -26.1894       -0.0123669         147.535
0.554                  -0.679454         -148.72         -50.3265        -27.5532         -50.3274        -27.5789       -0.0124667         147.465
0.555                  -0.694495        -149.302         -50.2016        -28.9436         -50.2025        -28.9666        -0.012567         147.395
0.556                  -0.709958        -149.889          -50.076        -30.3323         -50.0768        -30.3527        -0.012668         147.325
0.557                  -0.725863        -150.481         -49.9497        -31.7197         -49.9505        -31.7377       -0.0127696         147.254
0.558                   -0.74223        -151.077         -49.8227        -33.1062         -49.8234        -33.1218       -0.0128718         147.183
0.559                  -0.759079        -151.677         -49.6949         -34.492         -49.6956        -34.5054       -0.0129747         147.113
0.56                    -0.77643        -152.283         -49.5664        -35.8776         -49.5669        -35.8888       -0.0130782         147.042
0.561                  -0.794308        -152.893          -49.437        -37.2632         -49.4375        -37.2724       -0.0131825         146.971
0.562                  -0.812734        -153.509         -49.3069        -38.6493         -49.3073        -38.6566       -0.0132875           146.9
0.563                  -0.831733        -154.129          -49.176        -40.0361         -49.1763        -40.0417       -0.0133932         146.828
0.564                  -0.851329        -154.754         -49.0443        -41.4242         -49.0445         -41.428       -0.0134998         146.757
0.565                  -0.871549        -155.384         -48.9117        -42.8137         -48.9119         -42.816       -0.0136071         146.686
0.566                   -0.89242        -156.019         -48.7784         -44.205         -48.7784         -44.206       -0.0137153         146.614
0.567                   -0.91397         -156.66         -48.6442        -45.5986         -48.6442        -45.5982       -0.0138243         146.542
0.568                  -0.936228        -157.305         -48.5092        -46.9948         -48.5091        -46.9932       -0.0139343          146.47
0.569                  -0.959224        -157.955         -48.3734         -48.394         -48.3732        -48.3913       -0.0140452         146.398
0.57                    -0.98299        -158.611         -48.2368        -49.7964         -48.2364        -49.7927       -0.0141571         146.326
0.571                   -1.00756        -159.272         -48.0994        -51.2025         -48.0989         -51.198         -0.01427         146.253
0.572                   -1.03296        -159.938         -47.9612        -52.6127         -47.9606        -52.6073        -0.014384         146.181
0.573                   -1.05923        -160.609         -47.8222        -54.0272         -47.8215        -54.0212       -0.0144991         146.108
0.574                   -1.08641        -161.285         -47.6824        -55.4465         -47.6816        -55.4399       -0.0146154         146.035
0.575                   -1.11454        -161.966         -47.5419        -56.8709          -47.541        -56.8638       -0.0147328         145.962
0.576                   -1.14364        -162.652         -47.4006        -58.3008         -47.3997        -58.2932       -0.0148516         145.889
0.577                   -1.17377        -163.344         -47.2586        -59.7365         -47.2576        -59.7286       -0.0149716         145.816
0.578                   -1.20495         -164.04          -47.116        -61.1784         -47.1149        -61.1702        -0.015093         145.743
0.579                   -1.23724        -164.741         -46.9726        -62.6268         -46.9715        -62.6184       -0.0152159         145.669
0.58                    -1.27068        -165.447         -46.8287         -64.082         -46.8275        -64.0735       -0.0153402         145.595
0.581                    -1.3053        -166.157         -46.6841        -65.5445         -46.6828        -65.5359       -0.0154661         145.521
0.582                   -1.34116        -166.873          -46.539        -67.0144         -46.5377        -67.0059       -0.0155937         145.447
0.583                   -1.37829        -167.592         -46.3933        -68.4923         -46.3919        -68.4838       -0.0157229         145.373
0.584                   -1.41675        -168.317         -46.2472        -69.9783         -46.2457          -69.97        -0.015854         145.299
0.585                   -1.45658        -169.045         -46.1006        -71.4728         -46.0991        -71.4647       -0.0159869         145.224
0.586                   -1.49783        -169.777         -45.9536        -72.9761          -45.952        -72.9682       -0.0161217         145.149
0.587                   -1.54055        -170.513         -45.8062        -74.4885         -45.8046        -74.4808       -0.0162586         145.075
0.588                   -1.58478        -171.252         -45.6585        -76.0102         -45.6569        -76.0028       -0.0163977         144.999
0.589                   -1.63058        -171.995         -45.5105        -77.5416          -45.509        -77.5345       -0.0165389         144.924
0.59                    -1.67798        -172.741         -45.3624        -79.0829         -45.3608        -79.0761       -0.0166825         144.849
0.591                   -1.72705         -173.49         -45.2141        -80.6343         -45.2126        -80.6279       -0.0168284         144.773
0.592                   -1.77782        -174.241         -45.0658         -82.196         -45.0642          -82.19       -0.0169769         144.697
0.593                   -1.83034        -174.994         -44.9174        -83.7683         -44.9158        -83.7627        -0.017128         144.621
0.594                   -1.88466        -175.749         -44.7691        -85.3513         -44.7675        -85.3462       -0.0172819         144.545
0.595                   -1.94081        -176.505         -44.6208        -86.9453         -44.6193        -86.9406       -0.0174386         144.469
0.596                   -1.99885        -177.261         -44.4728        -88.5503         -44.4713        -88.5461       -0.0175982         144.392
0.597                    -2.0588        -178.019         -44.3251        -90.1666         -44.3236        -90.1627       -0.0177609         144.315
0.598                   -2.12071        -178.776         -44.1777        -91.7941         -44.1762        -91.7907       -0.0179268         144.239
0.599                   -2.18461        -179.532         -44.0307        -93.4329         -44.0293        -93.4299        -0.018096         144.161
0.6                     -2.25052         179.713         -43.8842        -95.0832         -43.8828        -95.0806       -0.0182686         144.084
0.601                   -2.31848          178.96         -43.7382        -96.7449          -43.737        -96.7427       -0.0184447         144.007
0.602                    -2.3885          178.21          -43.593        -98.4181         -43.5918        -98.4163       -0.0186246         143.929
0.603                   -2.46059         177.462         -43.4485        -100.103         -43.4473        -100.101       -0.0188082         143.851
0.604                   -2.53476         176.719         -43.3048        -101.798         -43.3037        -101.797       -0.0189957         143.773
0.605                   -2.61102          175.98          -43.162        -103.505          -43.161        -103.505       -0.0191872         143.694
0.606                   -2.68935         175.246         -43.0203        -105.223         -43.0193        -105.223       -0.0193829         143.616
0.607                   -2.76975         174.519         -42.8796        -106.952         -42.8787        -106.952       -0.0195828         143.537
0.608                   -2.85218         173.799         -42.7401        -108.692         -42.7392        -108.692       -0.0197871         143.458
0.609                   -2.93662         173.086         -42.6018        -110.442          -42.601        -110.442       -0.0199959         143.379
0.61                    -3.02303         172.382         -42.4649        -112.202         -42.4642        -112.202       -0.0202092         143.299
0.611                   -3.11135         171.687         -42.3294        -113.972         -42.3288        -113.972       -0.0204273          143.22
0.612                   -3.20152         171.002         -42.1954        -115.751         -42.1948        -115.752       -0.0206501          143.14
0.613                   -3.29346         170.328          -42.063        -117.539         -42.0625         -117.54       -0.0208778          143.06
0.614                   -3.38708         169.666         -41.9322        -119.336         -41.9318        -119.337       -0.0211104          142.98
0.615                   -3.48229         169.016         -41.8031        -121.141         -41.8027        -121.142       -0.0213481         142.899
0.616                   -3.57897          168.38         -41.6759        -122.953         -41.6755        -122.955       -0.0215909         142.818
0.617                     -3.677         167.758         -41.5504        -124.773         -41.5501        -124.774       -0.0218389         142.737
0.618                   -3.77624          167.15         -41.4268        -126.599         -41.4266          -126.6       -0.0220921         142.656
0.619                   -3.87653         166.558         -41.3052        -128.431         -41.3051        -128.432       -0.0223506         142.575
0.62                    -3.97773         165.981         -41.1856        -130.269         -41.1855         -130.27       -0.0226145         142.493
0.621                   -4.07966         165.421          -41.068        -132.111         -41.0679        -132.112       -0.0228837         142.411
0.622                   -4.18213         164.877         -40.9525        -133.957         -40.9524        -133.958       -0.0231584         142.329
0.623                   -4.28495          164.35          -40.839        -135.806          -40.839        -135.807       -0.0234384         142.246
0.624                   -4.38792          163.84         -40.7277        -137.658         -40.7277        -137.659        -0.023724         142.164
0.625                   -4.49084         163.348         -40.6185        -139.512         -40.6185        -139.513        -0.024015         142.081
0.626                    -4.5935         162.872         -40.5114        -141.368         -40.5114        -141.368       -0.0243115         141.997
0.627                   -4.69567         162.412         -40.4064        -143.224         -40.4065        -143.224       -0.0246134         141.914
0.628                   -4.79715          161.97         -40.3035         -145.08         -40.3037         -145.08       -0.0249208          141.83
0.629                   -4.89771         161.543         -40.2028        -146.935         -40.2029        -146.935       -0.0252337         141.746
