! TOUCHSTONE file generated by CST MICROWAVE STUDIO
! Date and time: Mon Oct 26 12:05:47 2020
! Project name: Scenario_1_Circular_Tissue_out_of_Line_v2.cst
! Parameters = {dy1=-190.3; L_HA=400; MT=2.54; Rad_Dielectric=30; Rad_Lower=7.3; Rad_Upper=30; a_HA=580; a_WG=246; b_HA=500; b_WG=121; c_HA=0; c_WG=187; d_feed=85; dx1=173; h_feed=15; h_lower=18; h_upper=40}
! Header version: 2018
! Port assignment regex: !\s*Touchstone port\s*([0-9]+)\s*=\s*(CST MWS port|CST DS port)\s*([0-9]+|Zmin|Zmax)\s*\(\"(.*)\"\)(\s*mode\s*([0-9]+))?.*
! Touchstone port assignment:
! Touchstone port 1 = CST MWS port 1 ("")
! Touchstone port 2 = CST MWS port 2 ("")
# GHz S DB R 50
0.5                    -0.128729        -122.578         -59.3437         125.832         -59.3429         125.831      -0.00678697         151.128
0.501                  -0.134971        -123.026         -59.1349         124.768         -59.1341         124.767      -0.00683863         151.063
0.502                   -0.14139        -123.477         -58.9252         123.689         -58.9244         123.688      -0.00689124         150.998
0.503                  -0.147995         -123.93         -58.7147         122.593         -58.7138         122.592      -0.00694483         150.932
0.504                  -0.154793        -124.386         -58.5033          121.48         -58.5024         121.479      -0.00699941         150.867
0.505                  -0.161793        -124.844         -58.2912         120.351         -58.2903          120.35      -0.00705503         150.801
0.506                  -0.169005        -125.304         -58.0784         119.204         -58.0774         119.203      -0.00711171         150.735
0.507                  -0.176437        -125.766         -57.8649          118.04          -57.864         118.039      -0.00716948         150.669
0.508                  -0.184101        -126.231         -57.6509         116.858           -57.65         116.857      -0.00722838         150.603
0.509                  -0.192007        -126.698         -57.4364         115.657         -57.4355         115.657      -0.00728844         150.537
0.51                   -0.200166        -127.168         -57.2215         114.439         -57.2205         114.438       -0.0073497         150.471
0.511                  -0.208591         -127.64         -57.0062         113.201         -57.0053         113.201      -0.00741219         150.405
0.512                  -0.217294        -128.115         -56.7906         111.945         -56.7898         111.945      -0.00747595         150.339
0.513                  -0.226289        -128.592         -56.5749         110.669          -56.574         110.669      -0.00754101         150.273
0.514                  -0.235591        -129.071         -56.3591         109.374         -56.3582         109.374      -0.00760741         150.206
0.515                  -0.245213        -129.553         -56.1432         108.059         -56.1424         108.059      -0.00767519          150.14
0.516                  -0.255172        -130.038         -55.9275         106.724         -55.9267         106.724       -0.0077444         150.073
0.517                  -0.265484        -130.525         -55.7119         105.369         -55.7112         105.369      -0.00781507         150.007
0.518                  -0.276164        -131.014         -55.4966         103.994         -55.4959         103.994      -0.00788725          149.94
0.519                  -0.287231        -131.506         -55.2817         102.598         -55.2811         102.598      -0.00796097         149.873
0.52                   -0.298702            -132         -55.0673         101.182         -55.0668         101.182      -0.00803628         149.806
0.521                  -0.310594        -132.496         -54.8535         99.7452          -54.853         99.7452      -0.00811323         149.739
0.522                  -0.322926        -132.995         -54.6405         98.2877           -54.64         98.2877      -0.00819186         149.672
0.523                  -0.335717        -133.496         -54.4283         96.8095         -54.4279         96.8096      -0.00827221         149.605
0.524                  -0.348984        -133.999          -54.217         95.3107         -54.2167         95.3108      -0.00835433         149.537
0.525                  -0.362745        -134.504         -54.0069         93.7913         -54.0066         93.7915      -0.00843826          149.47
0.526                  -0.377017         -135.01         -53.7979         92.2514         -53.7977         92.2517      -0.00852405         149.402
0.527                  -0.391818        -135.519         -53.5903         90.6912         -53.5902         90.6917      -0.00861175         149.335
0.528                  -0.407161        -136.029         -53.3842          89.111         -53.3841         89.1115      -0.00870139         149.267
0.529                  -0.423062         -136.54         -53.1797         87.5109         -53.1796         87.5115      -0.00879304         149.199
0.53                   -0.439533        -137.053         -52.9768         85.8912         -52.9768          85.892      -0.00888672         149.132
0.531                  -0.456582        -137.566         -52.7759         84.2523         -52.7759         84.2533      -0.00898248         149.064
0.532                  -0.474216        -138.081         -52.5769         82.5947          -52.577         82.5958      -0.00908036         148.996
0.533                  -0.492441        -138.596         -52.3799         80.9187         -52.3801           80.92      -0.00918041         148.927
0.534                  -0.511255        -139.111         -52.1852         79.2249         -52.1854         79.2263      -0.00928267         148.859
0.535                  -0.530654        -139.627         -51.9929         77.5138         -51.9931         77.5154      -0.00938717         148.791
0.536                  -0.550629        -140.142         -51.8029         75.7861         -51.8032         75.7879      -0.00949394         148.722
0.537                  -0.571167        -140.657         -51.6156         74.0424         -51.6159         74.0444      -0.00960303         148.654
0.538                  -0.592248         -141.17         -51.4309         72.2834         -51.4312         72.2856      -0.00971446         148.585
0.539                  -0.613846        -141.683         -51.2489           70.51         -51.2493         70.5123      -0.00982826         148.516
0.54                    -0.63593        -142.195         -51.0698         68.7228         -51.0702         68.7253      -0.00994445         148.448
0.541                  -0.658464        -142.705         -50.8937         66.9228          -50.894         66.9255       -0.0100631         148.379
0.542                  -0.681403        -143.214         -50.7205         65.1109         -50.7209         65.1137       -0.0101841         148.309
0.543                  -0.704698         -143.72         -50.5504         63.2879         -50.5508         63.2908       -0.0103076          148.24
0.544                  -0.728295        -144.224         -50.3835         61.4548         -50.3838         61.4578       -0.0104335         148.171
0.545                  -0.752135        -144.726         -50.2197         59.6126         -50.2201         59.6157       -0.0105619         148.102
0.546                  -0.776154        -145.226         -50.0592         57.7623         -50.0595         57.7655       -0.0106928         148.032
0.547                  -0.800285        -145.724         -49.9019         55.9048         -49.9022         55.9081       -0.0108261         147.963
0.548                  -0.824462        -146.219         -49.7479         54.0413         -49.7482         54.0446       -0.0109619         147.893
0.549                  -0.848614        -146.712         -49.5971         52.1727         -49.5975          52.176       -0.0111001         147.823
0.55                   -0.872674        -147.203         -49.4497            50.3           -49.45         50.3033       -0.0112407         147.753
0.551                  -0.896576        -147.693         -49.3055         48.4242         -49.3058         48.4275       -0.0113837         147.683
0.552                  -0.920256        -148.181         -49.1646         46.5464         -49.1648         46.5495        -0.011529         147.613
0.553                  -0.943658        -148.667         -49.0269         44.6674         -49.0271         44.6705       -0.0116767         147.543
0.554                  -0.966729        -149.153         -48.8924         42.7883         -48.8926         42.7912       -0.0118267         147.473
0.555                  -0.989424        -149.639          -48.761         40.9099         -48.7612         40.9127       -0.0119788         147.402
0.556                    -1.0117        -150.124         -48.6327         39.0331         -48.6328         39.0357       -0.0121332         147.332
0.557                   -1.03354         -150.61         -48.5074         37.1589         -48.5075         37.1612       -0.0122897         147.261
0.558                   -1.05492        -151.097          -48.385         35.2878         -48.3851         35.2899       -0.0124483          147.19
0.559                   -1.07582        -151.586         -48.2656         33.4208         -48.2656         33.4227       -0.0126089         147.119
0.56                    -1.09624        -152.077         -48.1489         31.5586         -48.1489         31.5601       -0.0127715         147.048
0.561                    -1.1162        -152.571         -48.0349         29.7017         -48.0349         29.7029       -0.0129359         146.977
0.562                   -1.13569        -153.067         -47.9235         27.8508         -47.9234         27.8517       -0.0131022         146.906
0.563                   -1.15475        -153.567         -47.8146         26.0065         -47.8145         26.0071       -0.0132702         146.834
0.564                    -1.1734        -154.072         -47.7081         24.1693          -47.708         24.1694         -0.01344         146.763
0.565                   -1.19168         -154.58         -47.6039         22.3395         -47.6038         22.3393       -0.0136113         146.691
0.566                   -1.20962        -155.094         -47.5019         20.5177         -47.5018         20.5171       -0.0137843          146.62
0.567                   -1.22726        -155.613          -47.402         18.7041          -47.402         18.7031       -0.0139587         146.548
0.568                   -1.24466        -156.137         -47.3041         16.8991         -47.3041         16.8976       -0.0141345         146.476
0.569                   -1.26186        -156.667         -47.2081         15.1029         -47.2081          15.101       -0.0143117         146.404
0.57                    -1.27891        -157.204         -47.1139         13.3157         -47.1139         13.3134       -0.0144903         146.332
0.571                   -1.29587        -157.747         -47.0214         11.5377         -47.0214         11.5349         -0.01467         146.259
0.572                   -1.31277        -158.296         -46.9305         9.76891         -46.9305         9.76574        -0.014851         146.187
0.573                   -1.32969        -158.852         -46.8411         8.00952          -46.841         8.00593       -0.0150332         146.114
0.574                   -1.34667        -159.414          -46.753         6.25952          -46.753         6.25552       -0.0152165         146.041
0.575                   -1.36375        -159.984         -46.6663         4.51891         -46.6663         4.51451       -0.0154009         145.968
0.576                     -1.381        -160.561         -46.5808         2.78767         -46.5808         2.78286       -0.0155863         145.895
0.577                   -1.39845        -161.145         -46.4964         1.06571         -46.4965         1.06052       -0.0157728         145.822
0.578                   -1.41617        -161.736         -46.4131       -0.647044         -46.4131       -0.652599       -0.0159603         145.749
0.579                   -1.43418        -162.335         -46.3307        -2.35072         -46.3308        -2.35663       -0.0161488         145.676
0.58                    -1.45255         -162.94         -46.2492        -4.04545         -46.2493         -4.0517       -0.0163384         145.602
0.581                   -1.47131        -163.553         -46.1686        -5.73141         -46.1687        -5.73797       -0.0165289         145.528
0.582                   -1.49051        -164.173         -46.0886        -7.40878         -46.0888        -7.41564       -0.0167204         145.454
0.583                   -1.51019        -164.801         -46.0094        -9.07775         -46.0097        -9.08489        -0.016913          145.38
0.584                   -1.53039        -165.436         -45.9308        -10.7385         -45.9311        -10.7459       -0.0171065         145.306
0.585                   -1.55115        -166.078         -45.8528        -12.3914         -45.8531         -12.399       -0.0173012         145.232
0.586                    -1.5725        -166.728         -45.7753        -14.0365         -45.7757        -14.0443       -0.0174969         145.157
0.587                   -1.59449        -167.384         -45.6983        -15.6741         -45.6987        -15.6821       -0.0176937         145.082
0.588                   -1.61715        -168.049         -45.6217        -17.3045         -45.6222        -17.3127       -0.0178917         145.008
0.589                   -1.64053         -168.72         -45.5455         -18.928          -45.546        -18.9363       -0.0180909         144.933
0.59                    -1.66465        -169.399         -45.4697        -20.5447         -45.4702        -20.5531       -0.0182913         144.857
0.591                   -1.68956        -170.084         -45.3942         -22.155         -45.3948        -22.1635        -0.018493         144.782
0.592                   -1.71528        -170.777         -45.3189         -23.759         -45.3196        -23.7676       -0.0186961         144.707
0.593                   -1.74186        -171.478          -45.244        -25.3572         -45.2446        -25.3658       -0.0189005         144.631
0.594                   -1.76933        -172.185         -45.1692        -26.9496           -45.17        -26.9583       -0.0191064         144.555
0.595                   -1.79773        -172.899         -45.0947        -28.5367         -45.0955        -28.5453       -0.0193138         144.479
0.596                    -1.8271        -173.621         -45.0204        -30.1186         -45.0212        -30.1271       -0.0195228         144.403
0.597                   -1.85747         -174.35         -44.9463        -31.6955         -44.9471         -31.704       -0.0197335         144.326
0.598                   -1.88888        -175.085         -44.8723        -33.2678         -44.8732        -33.2763       -0.0199458          144.25
0.599                   -1.92137        -175.828         -44.7985        -34.8357         -44.7994         -34.844         -0.02016         144.173
0.6                     -1.95497        -176.578         -44.7249        -36.3993         -44.7258        -36.4075        -0.020376         144.096
0.601                   -1.98973        -177.335         -44.6514        -37.9589         -44.6524         -37.967       -0.0205939         144.019
0.602                   -2.02569        -178.098          -44.578        -39.5148          -44.579        -39.5227       -0.0208139         143.942
0.603                   -2.06288        -178.869         -44.5048         -41.067         -44.5059        -41.0748       -0.0210359         143.864
0.604                   -2.10136        -179.646         -44.4318        -42.6159         -44.4328        -42.6235       -0.0212601         143.786
0.605                   -2.14116          179.57         -44.3588        -44.1616         -44.3599         -44.169       -0.0214865         143.708
0.606                   -2.18232         178.779         -44.2861        -45.7043         -44.2872        -45.7114       -0.0217153          143.63
0.607                    -2.2249         177.981         -44.2135        -47.2441         -44.2146         -47.251       -0.0219464         143.552
0.608                   -2.26893         177.177          -44.141        -48.7812         -44.1422        -48.7878         -0.02218         143.473
0.609                   -2.31447         176.367         -44.0687        -50.3158         -44.0699        -50.3221       -0.0224162         143.394
0.61                    -2.36155          175.55         -43.9967        -51.8479         -43.9978         -51.854        -0.022655         143.315
0.611                   -2.41024         174.726         -43.9247        -53.3777         -43.9259        -53.3835       -0.0228965         143.236
0.612                   -2.46058         173.897          -43.853        -54.9054         -43.8542        -54.9109       -0.0231407         143.157
0.613                   -2.51262         173.061         -43.7815        -56.4309         -43.7827        -56.4361       -0.0233879         143.077
0.614                   -2.56642          172.22         -43.7103        -57.9545         -43.7115        -57.9594        -0.023638         142.997
0.615                   -2.62202         171.372         -43.6392        -59.4761         -43.6404        -59.4807       -0.0238912         142.917
0.616                   -2.67948         170.519         -43.5685        -60.9959         -43.5696        -61.0002       -0.0241475         142.837
0.617                   -2.73886          169.66         -43.4979        -62.5139         -43.4991        -62.5179       -0.0244069         142.756
0.618                   -2.80022         168.796         -43.4277        -64.0301         -43.4288        -64.0338       -0.0246697         142.675
0.619                    -2.8636         167.927         -43.3577        -65.5446         -43.3589         -65.548       -0.0249358         142.594
0.62                    -2.92907         167.053         -43.2881        -67.0574         -43.2892        -67.0606       -0.0252054         142.513
0.621                   -2.99669         166.174         -43.2187        -68.5686         -43.2198        -68.5714       -0.0254785         142.432
0.622                   -3.06651          165.29         -43.1497        -70.0781         -43.1508        -70.0806       -0.0257552          142.35
0.623                    -3.1386         164.403         -43.0811        -71.5859         -43.0821        -71.5882       -0.0260356         142.268
0.624                   -3.21301         163.511         -43.0128        -73.0921         -43.0138         -73.094       -0.0263198         142.185
0.625                   -3.28981         162.616         -42.9448        -74.5965         -42.9458        -74.5982       -0.0266078         142.103
0.626                   -3.36907         161.717         -42.8773        -76.0992         -42.8783        -76.1006       -0.0268998          142.02
0.627                   -3.45083         160.816         -42.8101        -77.6001         -42.8111        -77.6013       -0.0271959         141.937
0.628                   -3.53517         159.911         -42.7434        -79.0992         -42.7443        -79.1001       -0.0274961         141.854
0.629                   -3.62215         159.005         -42.6771        -80.5963         -42.6779        -80.5971       -0.0278005          141.77
