! TOUCHSTONE file generated by CST MICROWAVE STUDIO
! Date and time: Wed Oct 28 19:35:06 2020
! Project name: Scenario_1_Circular_Tissue_out_of_Line_v2.cst
! Parameters = {dy1=-190.3; L_HA=400; MT=2.54; Rad_Dielectric=30; Rad_Lower=7.3; Rad_Upper=30; a_HA=580; a_WG=246; b_HA=500; b_WG=121; c_HA=0; c_WG=187; d_feed=85; dx1=346; h_feed=15; h_lower=18; h_upper=40}
! Header version: 2018
! Port assignment regex: !\s*Touchstone port\s*([0-9]+)\s*=\s*(CST MWS port|CST DS port)\s*([0-9]+|Zmin|Zmax)\s*\(\"(.*)\"\)(\s*mode\s*([0-9]+))?.*
! Touchstone port assignment:
! Touchstone port 1 = CST MWS port 1 ("")
! Touchstone port 2 = CST MWS port 2 ("")
# GHz S DB R 50
0.5                    -0.158952        -122.246         -60.0898          16.295         -60.0898         16.2946       -0.0080497         151.129
0.501                  -0.163476        -122.673         -59.9848         15.0641         -59.9848         15.0636      -0.00810952         151.063
0.502                  -0.168079        -123.102         -59.8786         13.8273         -59.8787         13.8266      -0.00816973         150.998
0.503                  -0.172767        -123.534         -59.7711         12.5845         -59.7713         12.5837      -0.00823034         150.933
0.504                  -0.177542        -123.969         -59.6624         11.3357         -59.6626         11.3347      -0.00829135         150.868
0.505                  -0.182411        -124.405         -59.5525         10.0809         -59.5527         10.0798      -0.00835278         150.802
0.506                  -0.187379        -124.845         -59.4414         8.82014         -59.4416          8.8189      -0.00841464         150.737
0.507                   -0.19245        -125.287          -59.329         7.55337         -59.3293           7.552      -0.00847695         150.671
0.508                  -0.197631        -125.732         -59.2155         6.28058         -59.2158         6.27909      -0.00853972         150.605
0.509                  -0.202927        -126.179         -59.1007         5.00177         -59.1011         5.00015      -0.00860296          150.54
0.51                   -0.208345        -126.629         -58.9848         3.71691         -58.9852         3.71518      -0.00866668         150.474
0.511                   -0.21389        -127.082         -58.8677           2.426         -58.8682         2.42416       -0.0087309         150.408
0.512                   -0.21957        -127.538         -58.7495           1.129           -58.75         1.12706      -0.00879564         150.342
0.513                  -0.225391        -127.997           -58.63       -0.174104         -58.6306       -0.176142       -0.0088609         150.276
0.514                   -0.23136        -128.458         -58.5095        -1.48334         -58.5101        -1.48546       -0.0089267          150.21
0.515                  -0.237485        -128.923         -58.3878        -2.79872         -58.3884        -2.80093      -0.00899306         150.144
0.516                  -0.243774         -129.39          -58.265        -4.12029         -58.2656        -4.12258      -0.00905999         150.077
0.517                  -0.250236        -129.861         -58.1412        -5.44808         -58.1418        -5.45044       -0.0091275         150.011
0.518                  -0.256877        -130.334         -58.0162        -6.78212         -58.0169        -6.78455      -0.00919561         149.944
0.519                  -0.263709        -130.811         -57.8902        -8.12245         -57.8909        -8.12493      -0.00926433         149.878
0.52                   -0.270738        -131.291         -57.7631         -9.4691         -57.7638        -9.47163      -0.00933369         149.811
0.521                  -0.277977        -131.774          -57.635        -10.8221         -57.6358        -10.8247      -0.00940369         149.744
0.522                  -0.285433         -132.26         -57.5059        -12.1816         -57.5067        -12.1842      -0.00947435         149.677
0.523                  -0.293118        -132.749         -57.3759        -13.5474         -57.3766        -13.5501      -0.00954568          149.61
0.524                  -0.301042        -133.242         -57.2448        -14.9198         -57.2456        -14.9225      -0.00961771         149.543
0.525                  -0.309217        -133.738         -57.1128        -16.2987         -57.1136        -16.3014      -0.00969045         149.476
0.526                  -0.317654        -134.237         -56.9799        -17.6843         -56.9807         -17.687      -0.00976392         149.409
0.527                  -0.326365        -134.739         -56.8461        -19.0765         -56.8469        -19.0792      -0.00983813         149.342
0.528                  -0.335363        -135.245         -56.7115        -20.4753         -56.7123         -20.478      -0.00991309         149.274
0.529                   -0.34466        -135.755          -56.576         -21.881         -56.5768        -21.8837      -0.00998884         149.207
0.53                    -0.35427        -136.268         -56.4396        -23.2934         -56.4404        -23.2961       -0.0100654         149.139
0.531                  -0.364207        -136.784         -56.3025        -24.7127         -56.3033        -24.7154       -0.0101427         149.071
0.532                  -0.374484        -137.304         -56.1646        -26.1389         -56.1654        -26.1416       -0.0102209         149.004
0.533                  -0.385116        -137.827          -56.026        -27.5722         -56.0268        -27.5747          -0.0103         148.936
0.534                  -0.396119        -138.354         -55.8867        -29.0124         -55.8875        -29.0149       -0.0103799         148.868
0.535                  -0.407508        -138.884         -55.7467        -30.4597         -55.7475        -30.4622       -0.0104607           148.8
0.536                  -0.419299        -139.418         -55.6061        -31.9142         -55.6069        -31.9166       -0.0105423         148.731
0.537                  -0.431508        -139.955         -55.4649        -33.3758         -55.4657        -33.3782        -0.010625         148.663
0.538                  -0.444152        -140.496         -55.3231        -34.8447         -55.3239        -34.8471       -0.0107085         148.595
0.539                  -0.457248        -141.041         -55.1808        -36.3209         -55.1816        -36.3232       -0.0107931         148.526
0.54                   -0.470814        -141.589         -55.0379        -37.8045         -55.0387        -37.8067       -0.0108786         148.458
0.541                  -0.484867         -142.14         -54.8946        -39.2954         -54.8954        -39.2976       -0.0109651         148.389
0.542                  -0.499426        -142.695         -54.7509        -40.7938         -54.7517        -40.7959       -0.0110527          148.32
0.543                  -0.514509        -143.254         -54.6069        -42.2996         -54.6076        -42.3016       -0.0111413         148.251
0.544                  -0.530135        -143.816         -54.4624         -43.813         -54.4632        -43.8149       -0.0112309         148.182
0.545                  -0.546323        -144.381         -54.3177        -45.3339         -54.3184        -45.3357       -0.0113217         148.113
0.546                  -0.563092        -144.949         -54.1727        -46.8624         -54.1734        -46.8641       -0.0114136         148.044
0.547                  -0.580461        -145.521         -54.0275        -48.3985         -54.0282        -48.4001       -0.0115066         147.974
0.548                  -0.598449        -146.097         -53.8821        -49.9421         -53.8827        -49.9437       -0.0116008         147.905
0.549                  -0.617076        -146.675         -53.7365        -51.4934         -53.7372        -51.4949       -0.0116961         147.835
0.55                   -0.636362        -147.256         -53.5909        -53.0524         -53.5915        -53.0537       -0.0117927         147.766
0.551                  -0.656324        -147.841         -53.4452        -54.6189         -53.4459        -54.6202       -0.0118905         147.696
0.552                  -0.676982        -148.428         -53.2996        -56.1931         -53.3002        -56.1943       -0.0119895         147.626
0.553                  -0.698354        -149.019          -53.154        -57.7748         -53.1545        -57.7759       -0.0120899         147.556
0.554                  -0.720459        -149.612         -53.0084        -59.3642          -53.009        -59.3652       -0.0121915         147.485
0.555                  -0.743314        -150.207          -52.863        -60.9611         -52.8636         -60.962       -0.0122945         147.415
0.556                  -0.766935        -150.805         -52.7179        -62.5654         -52.7184        -62.5662       -0.0123988         147.345
0.557                   -0.79134        -151.406         -52.5729        -64.1772         -52.5734         -64.178       -0.0125045         147.274
0.558                  -0.816544        -152.009         -52.4282        -65.7964         -52.4287         -65.797       -0.0126116         147.204
0.559                   -0.84256        -152.614         -52.2839        -67.4229         -52.2843        -67.4234       -0.0127201         147.133
0.56                   -0.869403         -153.22         -52.1399        -69.0566         -52.1403        -69.0571       -0.0128301         147.062
0.561                  -0.897084        -153.829         -51.9963        -70.6974         -51.9967        -70.6978       -0.0129415         146.991
0.562                  -0.925614        -154.439         -51.8533        -72.3453         -51.8536        -72.3456       -0.0130545          146.92
0.563                  -0.955002        -155.051         -51.7107             -74         -51.7111        -74.0002       -0.0131691         146.848
0.564                  -0.985255        -155.664         -51.5687        -75.6615          -51.569        -75.6617       -0.0132852         146.777
0.565                   -1.01638        -156.278         -51.4273        -77.3297         -51.4276        -77.3297       -0.0134029         146.705
0.566                   -1.04838        -156.892         -51.2866        -79.0043         -51.2869        -79.0043       -0.0135222         146.633
0.567                   -1.08126        -157.508         -51.1466        -80.6852         -51.1468        -80.6851       -0.0136432         146.562
0.568                   -1.11501        -158.124         -51.0073        -82.3722         -51.0075        -82.3721       -0.0137658          146.49
0.569                   -1.14964         -158.74         -50.8688        -84.0652          -50.869         -84.065       -0.0138902         146.418
0.57                    -1.18514        -159.356         -50.7311        -85.7639         -50.7313        -85.7637       -0.0140164         146.345
0.571                   -1.22151        -159.972         -50.5943        -87.4682         -50.5944        -87.4679       -0.0141443         146.273
0.572                   -1.25872        -160.587         -50.4584        -89.1777         -50.4585        -89.1774        -0.014274           146.2
0.573                   -1.29677        -161.202         -50.3235        -90.8923         -50.3235         -90.892       -0.0144055         146.128
0.574                   -1.33565        -161.816         -50.1895        -92.6117         -50.1895        -92.6114        -0.014539         146.055
0.575                   -1.37534        -162.429         -50.0565        -94.3357         -50.0565        -94.3353       -0.0146743         145.982
0.576                   -1.41582        -163.041         -49.9245         -96.064         -49.9245        -96.0636       -0.0148116         145.909
0.577                   -1.45706        -163.652         -49.7936        -97.7963         -49.7936        -97.7959       -0.0149508         145.835
0.578                   -1.49904        -164.261         -49.6638        -99.5323         -49.6638        -99.5319        -0.015092         145.762
0.579                   -1.54173        -164.868         -49.5352        -101.272         -49.5351        -101.271       -0.0152353         145.688
0.58                    -1.58511        -165.474         -49.4076        -103.014         -49.4075        -103.014       -0.0153806         145.615
0.581                   -1.62913        -166.077         -49.2813         -104.76         -49.2811         -104.76       -0.0155281         145.541
0.582                   -1.67377        -166.678          -49.156        -106.508         -49.1559        -106.508       -0.0156776         145.467
0.583                   -1.71899        -167.278          -49.032        -108.258         -49.0319        -108.258       -0.0158294         145.392
0.584                   -1.76475        -167.874         -48.9092         -110.01          -48.909         -110.01       -0.0159833         145.318
0.585                   -1.81101        -168.469         -48.7876        -111.764         -48.7874        -111.764       -0.0161395         145.244
0.586                   -1.85773        -169.061         -48.6672        -113.519          -48.667        -113.519       -0.0162979         145.169
0.587                   -1.90487        -169.651          -48.548        -115.275         -48.5478        -115.275       -0.0164587         145.094
0.588                   -1.95239        -170.238         -48.4301        -117.032         -48.4298        -117.032       -0.0166217         145.019
0.589                   -2.00024        -170.824         -48.3133        -118.789          -48.313        -118.789       -0.0167872         144.944
0.59                    -2.04838        -171.406         -48.1978        -120.546         -48.1975        -120.546        -0.016955         144.868
0.591                   -2.09678        -171.987         -48.0835        -122.303         -48.0832        -122.303       -0.0171253         144.793
0.592                   -2.14538        -172.566         -47.9703        -124.059           -47.97        -124.059       -0.0172981         144.717
0.593                   -2.19415        -173.142         -47.8584        -125.814          -47.858        -125.814       -0.0174734         144.641
0.594                   -2.24305        -173.717         -47.7476        -127.569         -47.7472        -127.568       -0.0176512         144.565
0.595                   -2.29205        -174.291         -47.6379        -129.321         -47.6376        -129.321       -0.0178316         144.489
0.596                   -2.34109        -174.863         -47.5294        -131.072         -47.5291        -131.072       -0.0180146         144.413
0.597                   -2.39016        -175.433          -47.422        -132.821         -47.4217        -132.821       -0.0182003         144.336
0.598                   -2.43922        -176.003         -47.3157        -134.568         -47.3153        -134.568       -0.0183887         144.259
0.599                   -2.48824        -176.573         -47.2104        -136.313         -47.2101        -136.313       -0.0185797         144.182
0.6                      -2.5372        -177.142         -47.1062        -138.054         -47.1058        -138.054       -0.0187736         144.105
0.601                   -2.58607        -177.711         -47.0029        -139.793         -47.0026        -139.793       -0.0189702         144.028
0.602                   -2.63484         -178.28         -46.9007        -141.529         -46.9003        -141.529       -0.0191696          143.95
0.603                   -2.68349         -178.85         -46.7993        -143.261          -46.799        -143.262       -0.0193719         143.873
0.604                   -2.73201        -179.421         -46.6989         -144.99         -46.6985        -144.991        -0.019577         143.795
0.605                    -2.7804        -179.994         -46.5993        -146.716         -46.5989        -146.716       -0.0197851         143.716
0.606                   -2.82864         179.432         -46.5005        -148.438         -46.5002        -148.438       -0.0199961         143.638
0.607                   -2.87674         178.856         -46.4026        -150.155         -46.4022        -150.156       -0.0202101          143.56
0.608                    -2.9247         178.277         -46.3053        -151.869          -46.305         -151.87       -0.0204272         143.481
0.609                   -2.97253         177.696         -46.2088        -153.579         -46.2085         -153.58       -0.0206473         143.402
0.61                    -3.02025         177.111          -46.113        -155.285         -46.1127        -155.285       -0.0208704         143.323
0.611                   -3.06786         176.522         -46.0178        -156.986         -46.0175        -156.987       -0.0210967         143.243
0.612                    -3.1154          175.93         -45.9232        -158.684         -45.9229        -158.684       -0.0213261         143.164
0.613                   -3.16287         175.333         -45.8292        -160.377         -45.8288        -160.377       -0.0215587         143.084
0.614                   -3.21032         174.731         -45.7356        -162.065         -45.7353        -162.066       -0.0217946         143.004
0.615                   -3.25777         174.125         -45.6426         -163.75         -45.6422         -163.75       -0.0220336         142.924
0.616                   -3.30525         173.512         -45.5499         -165.43         -45.5496        -165.431        -0.022276         142.843
0.617                    -3.3528         172.894         -45.4577        -167.106         -45.4574        -167.106       -0.0225217         142.762
0.618                   -3.40047          172.27         -45.3659        -168.778         -45.3656        -168.778       -0.0227707         142.681
0.619                    -3.4483          171.64         -45.2743        -170.445          -45.274        -170.446       -0.0230231           142.6
0.62                    -3.49634         171.002         -45.1831        -172.108         -45.1828        -172.109       -0.0232789         142.519
0.621                   -3.54463         170.358         -45.0921        -173.768         -45.0918        -173.768       -0.0235381         142.437
0.622                   -3.59323         169.706         -45.0013        -175.423          -45.001        -175.424       -0.0238009         142.355
0.623                    -3.6422         169.046         -44.9107        -177.075         -44.9105        -177.075       -0.0240672         142.273
0.624                    -3.6916         168.379         -44.8203        -178.723           -44.82        -178.723        -0.024337         142.191
0.625                   -3.74148         167.703           -44.73         179.633         -44.7297         179.632       -0.0246105         142.108
0.626                   -3.79191         167.019         -44.6397         177.992         -44.6395         177.991       -0.0248876         142.025
0.627                   -3.84297         166.327         -44.5496         176.354         -44.5494         176.354       -0.0251685         141.942
0.628                    -3.8947         165.625         -44.4595          174.72         -44.4593          174.72        -0.025453         141.859
0.629                    -3.9472         164.914         -44.3694         173.089         -44.3692         173.088       -0.0257414         141.775
