! TOUCHSTONE file generated by CST MICROWAVE STUDIO
! Date and time: Wed Oct 28 19:15:10 2020
! Project name: Scenario_1_Circular_Tissue_out_of_Line.cst
! Parameters = {dy1=-189.931; L_HA=400; MT=2.54; Rad_Dielectric=30; Rad_Lower=7.3; Rad_Upper=30; a_HA=580; a_WG=246; b_HA=500; b_WG=121; c_HA=0; c_WG=187; d_feed=85; dx1=693; h_feed=15; h_lower=18; h_upper=40}
! Header version: 2018
! Port assignment regex: !\s*Touchstone port\s*([0-9]+)\s*=\s*(CST MWS port|CST DS port)\s*([0-9]+|Zmin|Zmax)\s*\(\"(.*)\"\)(\s*mode\s*([0-9]+))?.*
! Touchstone port assignment:
! Touchstone port 1 = CST MWS port 1 ("")
! Touchstone port 2 = CST MWS port 2 ("")
# GHz S DB R 50
0.5                    -0.151162        -122.253         -62.7591        -172.879         -62.7591        -172.879       -0.0077113         151.135
0.501                  -0.154975        -122.721         -62.6595        -174.579         -62.6594         -174.58      -0.00776405         151.069
0.502                  -0.159064        -123.191         -62.5572         -176.29         -62.5571         -176.29      -0.00781769         151.004
0.503                  -0.163431        -123.662         -62.4523        -178.009         -62.4522         -178.01      -0.00787222         150.939
0.504                  -0.168076        -124.135         -62.3447        -179.738         -62.3446        -179.739      -0.00792766         150.873
0.505                  -0.173002        -124.609         -62.2346         178.525         -62.2344         178.524        -0.007984         150.808
0.506                  -0.178209        -125.084         -62.1218         176.779         -62.1216         176.777      -0.00804126         150.742
0.507                  -0.183699        -125.561         -62.0064         175.025         -62.0062         175.023      -0.00809945         150.677
0.508                  -0.189473        -126.038         -61.8885         173.262         -61.8882          173.26      -0.00815857         150.611
0.509                  -0.195533        -126.518          -61.768         171.492         -61.7677          171.49      -0.00821863         150.545
0.51                   -0.201878        -126.998          -61.645         169.714         -61.6446         169.712      -0.00827964         150.479
0.511                  -0.208512         -127.48         -61.5195         167.929         -61.5191         167.927      -0.00834162         150.413
0.512                  -0.215435        -127.964         -61.3915         166.137         -61.3911         166.134      -0.00840456         150.347
0.513                  -0.222648        -128.448         -61.2611         164.337         -61.2607         164.335      -0.00846849         150.281
0.514                  -0.230152        -128.934         -61.1283         162.531         -61.1279         162.528      -0.00853339         150.215
0.515                  -0.237949        -129.422         -60.9932         160.718         -60.9927         160.715       -0.0085993         150.148
0.516                   -0.24604         -129.91         -60.8557         158.898         -60.8553         158.895      -0.00866621         150.082
0.517                  -0.254426          -130.4         -60.7161         157.072         -60.7156         157.069      -0.00873414         150.015
0.518                  -0.263109        -130.892         -60.5742          155.24         -60.5737         155.237      -0.00880309         149.949
0.519                  -0.272089        -131.384         -60.4302         153.401         -60.4298         153.398      -0.00887308         149.882
0.52                   -0.281368        -131.878         -60.2842         151.556         -60.2837         151.553      -0.00894411         149.816
0.521                  -0.290947        -132.374         -60.1361         149.705         -60.1356         149.702       -0.0090162         149.749
0.522                  -0.300828         -132.87          -59.986         147.848         -59.9856         147.845      -0.00908935         149.682
0.523                   -0.31101        -133.368         -59.8341         145.985         -59.8336         145.982      -0.00916358         149.615
0.524                  -0.321497        -133.868         -59.6804         144.116         -59.6799         144.112       -0.0092389         149.548
0.525                  -0.332289        -134.368         -59.5249          142.24         -59.5244         142.237      -0.00931531          149.48
0.526                  -0.343387         -134.87         -59.3677         140.358         -59.3673         140.355      -0.00939283         149.413
0.527                  -0.354792        -135.374          -59.209          138.47         -59.2085         138.467      -0.00947146         149.346
0.528                  -0.366507        -135.878         -59.0487         136.576         -59.0482         136.572      -0.00955123         149.278
0.529                  -0.378531        -136.384         -58.8869         134.675         -58.8865         134.672      -0.00963214         149.211
0.53                   -0.390867        -136.892         -58.7239         132.768         -58.7235         132.764       -0.0097142         149.143
0.531                  -0.403516          -137.4         -58.5595         130.854         -58.5591         130.851      -0.00979742         149.075
0.532                  -0.416479        -137.911         -58.3939         128.933         -58.3936          128.93      -0.00988182         149.007
0.533                  -0.429757        -138.422         -58.2272         127.006         -58.2269         127.002      -0.00996741          148.94
0.534                  -0.443353        -138.935         -58.0596         125.071         -58.0593         125.068       -0.0100542         148.871
0.535                  -0.457267        -139.449         -57.8909         123.129         -57.8907         123.126       -0.0101422         148.803
0.536                  -0.471501        -139.964         -57.7215          121.18         -57.7212         121.176       -0.0102314         148.735
0.537                  -0.486056        -140.481         -57.5513         119.223         -57.5511          119.22       -0.0103219         148.667
0.538                  -0.500934            -141         -57.3804         117.259         -57.3802         117.255       -0.0104136         148.598
0.539                  -0.516137        -141.519          -57.209         115.286         -57.2089         115.283       -0.0105066          148.53
0.54                   -0.531665         -142.04         -57.0371         113.305          -57.037         113.302       -0.0106008         148.461
0.541                  -0.547522        -142.563         -56.8649         111.316         -56.8649         111.313       -0.0106964         148.392
0.542                  -0.563708        -143.087         -56.6924         109.319         -56.6924         109.315       -0.0107933         148.323
0.543                  -0.580225        -143.612         -56.5198         107.313         -56.5198         107.309       -0.0108914         148.254
0.544                  -0.597074        -144.139         -56.3471         105.297         -56.3472         105.294       -0.0109909         148.185
0.545                  -0.614259        -144.667         -56.1745         103.273         -56.1746          103.27       -0.0110918         148.116
0.546                  -0.631781        -145.196          -56.002          101.24         -56.0022         101.237        -0.011194         148.047
0.547                  -0.649641        -145.727         -55.8298         99.1973           -55.83         99.1942       -0.0112976         147.978
0.548                  -0.667841         -146.26          -55.658         97.1451         -55.6582          97.142       -0.0114026         147.908
0.549                  -0.686384        -146.794         -55.4867         95.0834         -55.4869         95.0803        -0.011509         147.838
0.55                   -0.705273        -147.329         -55.3159         93.0119         -55.3162         93.0089       -0.0116168         147.769
0.551                  -0.724508        -147.866         -55.1459         90.9305         -55.1462         90.9277        -0.011726         147.699
0.552                  -0.744092        -148.404         -54.9767         88.8394          -54.977         88.8366       -0.0118367         147.629
0.553                  -0.764028        -148.944         -54.8084         86.7383         -54.8088         86.7356       -0.0119489         147.559
0.554                  -0.784318        -149.485         -54.6411         84.6273         -54.6416         84.6247       -0.0120626         147.488
0.555                  -0.804965        -150.028          -54.475         82.5064         -54.4755         82.5039       -0.0121778         147.418
0.556                  -0.825971        -150.572         -54.3102         80.3755         -54.3107         80.3732       -0.0122944         147.348
0.557                  -0.847338        -151.118         -54.1467         78.2349         -54.1473         78.2326       -0.0124127         147.277
0.558                   -0.86907        -151.666         -53.9847         76.0846         -53.9853         76.0824       -0.0125325         147.206
0.559                   -0.89117        -152.215         -53.8243         73.9246         -53.8249         73.9226       -0.0126538         147.136
0.56                    -0.91364        -152.765         -53.6656         71.7552         -53.6663         71.7533       -0.0127768         147.065
0.561                  -0.936483        -153.317         -53.5087         69.5766         -53.5094         69.5749       -0.0129014         146.994
0.562                  -0.959703        -153.871         -53.3537          67.389         -53.3544         67.3874       -0.0130276         146.922
0.563                  -0.983303        -154.427         -53.2007         65.1927         -53.2014         65.1912       -0.0131554         146.851
0.564                   -1.00729        -154.984         -53.0498         62.9879         -53.0506         62.9865        -0.013285          146.78
0.565                   -1.03166        -155.542         -52.9011          60.775         -52.9019         60.7738       -0.0134162         146.708
0.566                   -1.05642        -156.103         -52.7547         58.5544         -52.7555         58.5533       -0.0135491         146.636
0.567                   -1.08157        -156.665         -52.6106         56.3264         -52.6114         56.3255       -0.0136838         146.564
0.568                   -1.10712        -157.228          -52.469         54.0916         -52.4698         54.0909       -0.0138202         146.492
0.569                   -1.13307        -157.794         -52.3298         51.8504         -52.3307         51.8498       -0.0139584          146.42
0.57                    -1.15943        -158.361         -52.1933         49.6032         -52.1942         49.6028       -0.0140984         146.348
0.571                    -1.1862         -158.93         -52.0594         47.3506         -52.0603         47.3503       -0.0142402         146.276
0.572                   -1.21339          -159.5         -51.9283         45.0932         -51.9291         45.0931       -0.0143838         146.203
0.573                   -1.24099        -160.073         -51.7998         42.8316         -51.8007         42.8316       -0.0145293          146.13
0.574                   -1.26902        -160.647         -51.6742         40.5663         -51.6751         40.5664       -0.0146767         146.058
0.575                   -1.29748        -161.223         -51.5514         38.2979         -51.5523         38.2982       -0.0148261         145.985
0.576                   -1.32637          -161.8         -51.4315         36.0271         -51.4323         36.0275       -0.0149773         145.911
0.577                    -1.3557         -162.38         -51.3144         33.7546         -51.3152         33.7551       -0.0151305         145.838
0.578                   -1.38547        -162.961         -51.2002         31.4809         -51.2011         31.4816       -0.0152857         145.765
0.579                   -1.41569        -163.545          -51.089         29.2068         -51.0898         29.2075       -0.0154429         145.691
0.58                    -1.44637         -164.13         -50.9806         26.9328         -50.9814         26.9337       -0.0156022         145.617
0.581                   -1.47751        -164.717         -50.8751         24.6597         -50.8759         24.6606       -0.0157635         145.544
0.582                   -1.50912        -165.306         -50.7725         22.3881         -50.7732         22.3891       -0.0159269          145.47
0.583                    -1.5412        -165.897         -50.6727         20.1186         -50.6734         20.1197       -0.0160924         145.395
0.584                   -1.57376        -166.489         -50.5757         17.8518         -50.5764          17.853       -0.0162601         145.321
0.585                   -1.60681        -167.084         -50.4815         15.5885         -50.4822         15.5897         -0.01643         145.247
0.586                   -1.64035        -167.681           -50.39          13.329         -50.3907         13.3303        -0.016602         145.172
0.587                   -1.67439        -168.279         -50.3012         11.0742         -50.3018         11.0755       -0.0167763         145.097
0.588                   -1.70894         -168.88          -50.215         8.82439         -50.2156         8.82571       -0.0169529         145.022
0.589                   -1.74401        -169.483         -50.1314         6.58021         -50.1319         6.58153       -0.0171318         144.947
0.59                    -1.77959        -170.088         -50.0503         4.34213         -50.0507         4.34344        -0.017313         144.872
0.591                   -1.81571        -170.694         -49.9715         2.11062          -49.972         2.11191       -0.0174965         144.796
0.592                   -1.85237        -171.303         -49.8951       -0.113895         -49.8955       -0.112644       -0.0176825          144.72
0.593                   -1.88957        -171.914         -49.8209        -2.33101         -49.8213        -2.32981       -0.0178709         144.644
0.594                   -1.92733        -172.527         -49.7489        -4.54036         -49.7492        -4.53921       -0.0180617         144.568
0.595                   -1.96565        -173.142          -49.679         -6.7416         -49.6793        -6.74053       -0.0182551         144.492
0.596                   -2.00455        -173.759          -49.611        -8.93445         -49.6113        -8.93346        -0.018451         144.416
0.597                   -2.04403        -174.379          -49.545        -11.1186         -49.5452        -11.1177       -0.0186494         144.339
0.598                    -2.0841            -175         -49.4807        -13.2939         -49.4809        -13.2931       -0.0188505         144.263
0.599                   -2.12477        -175.624         -49.4182        -15.4601         -49.4182        -15.4594       -0.0190542         144.186
0.6                     -2.16605         -176.25         -49.3572         -17.617         -49.3572        -17.6165       -0.0192606         144.108
0.601                   -2.20796        -176.878         -49.2977        -19.7646         -49.2977        -19.7642       -0.0194697         144.031
0.602                    -2.2505        -177.508         -49.2397        -21.9026         -49.2396        -21.9024       -0.0196816         143.954
0.603                   -2.29369         -178.14          -49.183        -24.0311         -49.1829         -24.031       -0.0198963         143.876
0.604                   -2.33752        -178.774         -49.1274          -26.15         -49.1273        -26.1501       -0.0201138         143.798
0.605                   -2.38203        -179.411          -49.073        -28.2593         -49.0729        -28.2596       -0.0203343          143.72
0.606                   -2.42721          179.95         -49.0197         -30.359         -49.0194        -30.3594       -0.0205576         143.642
0.607                   -2.47308         179.309         -48.9672        -32.4491         -48.9669        -32.4498        -0.020784         143.563
0.608                   -2.51965         178.666         -48.9156        -34.5297         -48.9153        -34.5306       -0.0210133         143.484
0.609                   -2.56694          178.02         -48.8648        -36.6009         -48.8644         -36.602       -0.0212457         143.405
0.61                    -2.61495         177.373         -48.8146        -38.6629         -48.8142        -38.6642       -0.0214813         143.326
0.611                   -2.66371         176.723          -48.765        -40.7156         -48.7645        -40.7171         -0.02172         143.247
0.612                   -2.71321         176.071         -48.7159        -42.7593         -48.7154        -42.7611       -0.0219619         143.167
0.613                   -2.76349         175.417         -48.6672        -44.7941         -48.6666        -44.7961       -0.0222071         143.087
0.614                   -2.81454          174.76         -48.6188        -46.8203         -48.6182        -46.8225       -0.0224556         143.007
0.615                   -2.86639         174.102         -48.5707        -48.8379           -48.57        -48.8403       -0.0227075         142.927
0.616                   -2.91905         173.441         -48.5227        -50.8472         -48.5221        -50.8499       -0.0229628         142.847
0.617                   -2.97253         172.778         -48.4749        -52.8484         -48.4742        -52.8513       -0.0232216         142.766
0.618                   -3.02685         172.113         -48.4271        -54.8417         -48.4264        -54.8449       -0.0234839         142.685
0.619                   -3.08203         171.446         -48.3793        -56.8274         -48.3785        -56.8308       -0.0237498         142.604
0.62                    -3.13808         170.776         -48.3314        -58.8056         -48.3306        -58.8092       -0.0240193         142.522
0.621                   -3.19501         170.105         -48.2833        -60.7767         -48.2825        -60.7805       -0.0242926         142.441
0.622                   -3.25285         169.431          -48.235        -62.7408         -48.2342        -62.7449       -0.0245696         142.359
0.623                    -3.3116         168.756         -48.1865        -64.6982         -48.1856        -64.7025       -0.0248505         142.277
0.624                   -3.37129         168.078         -48.1376        -66.6492         -48.1367        -66.6537       -0.0251353         142.194
0.625                   -3.43194         167.399         -48.0884         -68.594         -48.0874        -68.5988        -0.025424         142.112
0.626                   -3.49355         166.717         -48.0387        -70.5328         -48.0377        -70.5378       -0.0257168         142.029
0.627                   -3.55616         166.034         -47.9886         -72.466         -47.9875        -72.4712       -0.0260136         141.946
0.628                   -3.61977         165.348         -47.9379        -74.3938         -47.9368        -74.3992       -0.0263146         141.862
0.629                    -3.6844         164.661         -47.8867        -76.3164         -47.8856         -76.322       -0.0266199         141.778
