! TOUCHSTONE file generated by CST MICROWAVE STUDIO
! Date and time: Mon Oct 26 12:25:59 2020
! Project name: Scenario_1_Circular_Tissue_out_of_Line.cst
! Parameters = {dy1=-189.931; L_HA=400; MT=2.54; Rad_Dielectric=30; Rad_Lower=7.3; Rad_Upper=30; a_HA=580; a_WG=246; b_HA=500; b_WG=121; c_HA=0; c_WG=187; d_feed=85; dx1=866; h_feed=15; h_lower=18; h_upper=40}
! Header version: 2018
! Port assignment regex: !\s*Touchstone port\s*([0-9]+)\s*=\s*(CST MWS port|CST DS port)\s*([0-9]+|Zmin|Zmax)\s*\(\"(.*)\"\)(\s*mode\s*([0-9]+))?.*
! Touchstone port assignment:
! Touchstone port 1 = CST MWS port 1 ("")
! Touchstone port 2 = CST MWS port 2 ("")
# GHz S DB R 50
0.5                    -0.145131        -122.403         -63.6362         95.4261         -63.6362         95.4261      -0.00746225         151.113
0.501                  -0.153273        -122.836         -63.4349         93.3774          -63.434         93.3677      -0.00753329         151.047
0.502                  -0.161493        -123.271         -63.2343         91.3083         -63.2326         91.2892       -0.0076051         150.982
0.503                  -0.169792        -123.708         -63.0345         89.2189         -63.0321         89.1909      -0.00767766         150.916
0.504                  -0.178171        -124.146         -62.8357         87.1094         -62.8327         87.0729        -0.007751         150.851
0.505                   -0.18663        -124.585         -62.6379         84.9801         -62.6344         84.9357       -0.0078251         150.785
0.506                  -0.195171        -125.027         -62.4413         82.8314         -62.4374         82.7794      -0.00789998          150.72
0.507                  -0.203795        -125.469          -62.246         80.6637         -62.2418         80.6046      -0.00797564         150.654
0.508                  -0.212502        -125.914         -62.0521         78.4772         -62.0476         78.4117      -0.00805208         150.588
0.509                  -0.221295         -126.36         -61.8597         76.2727         -61.8551         76.2012      -0.00812931         150.522
0.51                   -0.230175        -126.808          -61.669         74.0504         -61.6643         73.9735      -0.00820733         150.456
0.511                  -0.239143        -127.258           -61.48         71.8112         -61.4753         71.7294      -0.00828614          150.39
0.512                  -0.248201        -127.709         -61.2928         69.5555         -61.2883         69.4694      -0.00836576         150.324
0.513                  -0.257351        -128.163         -61.1076         67.2841         -61.1032         67.1942      -0.00844617         150.258
0.514                  -0.266595        -128.618         -60.9245         64.9976         -60.9202         64.9046       -0.0085274         150.191
0.515                  -0.275934        -129.075         -60.7434         62.6969         -60.7394         62.6013      -0.00860943         150.125
0.516                  -0.285372        -129.534         -60.5646         60.3828         -60.5608         60.2852      -0.00869228         150.058
0.517                  -0.294911        -129.996          -60.388         58.0561         -60.3846          57.957      -0.00877594         149.992
0.518                  -0.304553        -130.459         -60.2138         55.7176         -60.2107         55.6177      -0.00886042         149.925
0.519                  -0.314301        -130.924          -60.042         53.3684         -60.0392         53.2682      -0.00894572         149.859
0.52                   -0.324159        -131.392         -59.8726         51.0093         -59.8702         50.9093      -0.00903185         149.792
0.521                  -0.334129        -131.861         -59.7056         48.6412         -59.7037         48.5419       -0.0091188         149.725
0.522                  -0.344214        -132.333         -59.5412         46.2652         -59.5396         46.1672      -0.00920658         149.658
0.523                   -0.35442        -132.807         -59.3792         43.8822         -59.3781         43.7859       -0.0092952         149.591
0.524                  -0.364748        -133.284         -59.2198         41.4931          -59.219          41.399      -0.00938464         149.524
0.525                  -0.375205        -133.763         -59.0629          39.099         -59.0625         39.0075      -0.00947491         149.456
0.526                  -0.385793        -134.244         -58.9085         36.7008         -58.9085         36.6123      -0.00956601         149.389
0.527                  -0.396518        -134.727         -58.7565         34.2994         -58.7569         34.2143      -0.00965795         149.322
0.528                  -0.407384        -135.214          -58.607         31.8957         -58.6077         31.8143      -0.00975072         149.254
0.529                  -0.418398        -135.702         -58.4598         29.4907         -58.4608         29.4132      -0.00984431         149.187
0.53                   -0.429564        -136.194          -58.315         27.0851         -58.3163         27.0119      -0.00993874         149.119
0.531                  -0.440889        -136.688         -58.1725         24.6798          -58.174          24.611        -0.010034         149.051
0.532                  -0.452378        -137.185         -58.0321         22.2755         -58.0339         22.2114       -0.0101301         148.983
0.533                   -0.46404        -137.684         -57.8939          19.873         -57.8958         19.8137        -0.010227         148.915
0.534                   -0.47588        -138.186         -57.7577          17.473         -57.7598         17.4185       -0.0103247         148.847
0.535                  -0.487906        -138.692         -57.6235          15.076         -57.6256         15.0265       -0.0104232         148.779
0.536                  -0.500126          -139.2         -57.4911         12.6826         -57.4933         12.6381       -0.0105225         148.711
0.537                  -0.512549        -139.711         -57.3605         10.2934         -57.3627         10.2539       -0.0106226         148.642
0.538                  -0.525183        -140.225         -57.2315         7.90875         -57.2337         7.87418       -0.0107235         148.574
0.539                  -0.538039        -140.742         -57.1041         5.52907         -57.1063         5.49939       -0.0108251         148.505
0.54                   -0.551124        -141.263         -56.9781         3.15468         -56.9802          3.1298       -0.0109276         148.437
0.541                  -0.564452        -141.786         -56.8535        0.785867         -56.8554        0.765663       -0.0110308         148.368
0.542                  -0.578031        -142.313         -56.7301        -1.57717         -56.7318        -1.59284       -0.0111347         148.299
0.543                  -0.591874        -142.843         -56.6077        -3.93428         -56.6094        -3.94559       -0.0112394          148.23
0.544                  -0.605994        -143.377         -56.4864        -6.28536         -56.4879        -6.29249       -0.0113448         148.161
0.545                  -0.620402        -143.914         -56.3661        -8.63037         -56.3672        -8.63352       -0.0114509         148.092
0.546                  -0.635113        -144.454         -56.2465        -10.9693         -56.2474        -10.9687       -0.0115577         148.023
0.547                  -0.650141        -144.998         -56.1276        -13.3023         -56.1283        -13.2981       -0.0116651         147.953
0.548                  -0.665501        -145.545         -56.0093        -15.6293         -56.0097        -15.6219       -0.0117733         147.884
0.549                  -0.681209        -146.097         -55.8915        -17.9506         -55.8916        -17.9402        -0.011882         147.814
0.55                    -0.69728        -146.651         -55.7741        -20.2664          -55.774        -20.2532       -0.0119914         147.744
0.551                  -0.713733         -147.21         -55.6571        -22.5769         -55.6566        -22.5612       -0.0121015         147.675
0.552                  -0.730586        -147.772         -55.5403        -24.8823         -55.5395        -24.8644       -0.0122121         147.605
0.553                  -0.747857        -148.338         -55.4237         -27.183         -55.4226        -27.1631       -0.0123234         147.535
0.554                  -0.765567        -148.908         -55.3072        -29.4793         -55.3058        -29.4577       -0.0124353         147.464
0.555                  -0.783735        -149.481         -55.1907        -31.7716         -55.1891        -31.7485       -0.0125477         147.394
0.556                  -0.802384        -150.059         -55.0743        -34.0603         -55.0723         -34.036       -0.0126608         147.324
0.557                  -0.821536         -150.64         -54.9577        -36.3457         -54.9555        -36.3204       -0.0127745         147.253
0.558                  -0.841213        -151.225         -54.8411        -38.6283         -54.8386        -38.6023       -0.0128888         147.182
0.559                  -0.861441        -151.814         -54.7243        -40.9086         -54.7215        -40.8821       -0.0130037         147.112
0.56                   -0.882244        -152.407         -54.6073        -43.1869         -54.6043        -43.1602       -0.0131194         147.041
0.561                  -0.903647        -153.004           -54.49        -45.4639         -54.4868        -45.4371       -0.0132357          146.97
0.562                  -0.925677        -153.604         -54.3726        -47.7399         -54.3692        -47.7132       -0.0133528         146.898
0.563                  -0.948361        -154.209         -54.2549        -50.0154         -54.2513         -49.989       -0.0134708         146.827
0.564                  -0.971727        -154.817         -54.1369        -52.2909         -54.1331         -52.265       -0.0135896         146.756
0.565                  -0.995804        -155.429         -54.0186        -54.5669         -54.0147        -54.5417       -0.0137094         146.684
0.566                   -1.02062        -156.044         -53.9001        -56.8439         -53.8961        -56.8195       -0.0138303         146.612
0.567                    -1.0462        -156.664         -53.7813        -59.1223         -53.7772        -59.0988       -0.0139523         146.541
0.568                   -1.07258        -157.286         -53.6622        -61.4026          -53.658        -61.3801       -0.0140755         146.469
0.569                   -1.09979        -157.912         -53.5429        -63.6852         -53.5387        -63.6638       -0.0142002         146.396
0.57                    -1.12785        -158.541         -53.4234        -65.9706         -53.4192        -65.9505       -0.0143263         146.324
0.571                   -1.15679        -159.173         -53.3038        -68.2592         -53.2996        -68.2403        -0.014454         146.252
0.572                   -1.18665        -159.808          -53.184        -70.5514         -53.1798        -70.5338       -0.0145835         146.179
0.573                   -1.21745        -160.446         -53.0641        -72.8476         -53.0599        -72.8313       -0.0147148         146.106
0.574                   -1.24921        -161.087         -52.9441        -75.1481         -52.9401        -75.1332       -0.0148482         146.034
0.575                   -1.28197        -161.729         -52.8242        -77.4532         -52.8202        -77.4397       -0.0149836         145.961
0.576                   -1.31573        -162.374         -52.7043        -79.7633         -52.7004        -79.7511       -0.0151213         145.887
0.577                   -1.35053        -163.021         -52.5845        -82.0785         -52.5808        -82.0677       -0.0152613         145.814
0.578                   -1.38638        -163.669         -52.4649        -84.3993         -52.4613        -84.3898       -0.0154037         145.741
0.579                   -1.42329        -164.318         -52.3455        -86.7256         -52.3421        -86.7174       -0.0155486         145.667
0.58                    -1.46129        -164.969         -52.2264        -89.0578         -52.2232        -89.0507       -0.0156961         145.593
0.581                   -1.50036         -165.62         -52.1077        -91.3959         -52.1047          -91.39       -0.0158463         145.519
0.582                   -1.54053        -166.271         -51.9894        -93.7399         -51.9866        -93.7351       -0.0159992         145.445
0.583                   -1.58178        -166.922         -51.8717        -96.0901         -51.8691        -96.0862       -0.0161548         145.371
0.584                   -1.62411        -167.573         -51.7546        -98.4463         -51.7522        -98.4433       -0.0163132         145.296
0.585                    -1.6675        -168.223         -51.6381        -100.808          -51.636        -100.806       -0.0164745         145.222
0.586                   -1.71195        -168.871         -51.5224        -103.177         -51.5205        -103.175       -0.0166385         145.147
0.587                   -1.75741        -169.519         -51.4074         -105.55         -51.4058         -105.55       -0.0168053         145.072
0.588                   -1.80387        -170.164         -51.2934         -107.93          -51.292         -107.93        -0.016975         144.997
0.589                   -1.85127        -170.807         -51.1804        -110.315         -51.1792        -110.315       -0.0171475         144.922
0.59                    -1.89959        -171.447         -51.0683        -112.705         -51.0674        -112.705       -0.0173227         144.846
0.591                   -1.94876        -172.085         -50.9574          -115.1         -50.9567          -115.1       -0.0175008         144.771
0.592                   -1.99873        -172.719         -50.8476        -117.499         -50.8472          -117.5       -0.0176816         144.695
0.593                   -2.04943         -173.35          -50.739        -119.903         -50.7388        -119.903       -0.0178651         144.619
0.594                   -2.10079        -173.978         -50.6317         -122.31         -50.6317        -122.311       -0.0180514         144.543
0.595                   -2.15274        -174.602         -50.5258        -124.721          -50.526        -124.721       -0.0182404         144.467
0.596                    -2.2052        -175.221         -50.4211        -127.134         -50.4215        -127.134       -0.0184321          144.39
0.597                   -2.25808        -175.838         -50.3179         -129.55         -50.3185         -129.55       -0.0186265         144.314
0.598                    -2.3113         -176.45         -50.2161        -131.968         -50.2168        -131.967       -0.0188236         144.237
0.599                   -2.36477        -177.058         -50.1158        -134.387         -50.1166        -134.385       -0.0190233          144.16
0.6                     -2.41841        -177.663         -50.0169        -136.806         -50.0178        -136.805       -0.0192257         144.083
0.601                   -2.47212        -178.265         -49.9195        -139.226         -49.9205        -139.224       -0.0194307         144.005
0.602                   -2.52583        -178.864         -49.8235        -141.645         -49.8247        -141.643       -0.0196384         143.928
0.603                   -2.57946         -179.46         -49.7291        -144.064         -49.7303        -144.061       -0.0198488          143.85
0.604                   -2.63292         179.946          -49.636        -146.481         -49.6374        -146.477       -0.0200618         143.772
0.605                   -2.68616         179.353         -49.5445        -148.896         -49.5458        -148.892       -0.0202775         143.694
0.606                   -2.73912         178.761         -49.4543        -151.308         -49.4557        -151.304       -0.0204959         143.615
0.607                   -2.79174          178.17         -49.3656        -153.718          -49.367        -153.713        -0.020717         143.537
0.608                   -2.84398         177.578         -49.2781        -156.123         -49.2795        -156.118       -0.0209408         143.458
0.609                   -2.89582         176.986          -49.192        -158.525         -49.1934        -158.519       -0.0211673         143.379
0.61                    -2.94724         176.391         -49.1071        -160.922         -49.1085        -160.916       -0.0213967           143.3
0.611                   -2.99823         175.794         -49.0234        -163.315         -49.0248        -163.308       -0.0216288          143.22
0.612                   -3.04879         175.193         -48.9409        -165.702         -48.9422        -165.695       -0.0218638         143.141
0.613                   -3.09895         174.589         -48.8594        -168.084         -48.8606        -168.077       -0.0221016         143.061
0.614                   -3.14873         173.979         -48.7789        -170.459         -48.7801        -170.452       -0.0223424         142.981
0.615                   -3.19819         173.363         -48.6993        -172.829         -48.7005        -172.822        -0.022586         142.901
0.616                   -3.24736         172.741         -48.6206        -175.192         -48.6217        -175.185       -0.0228327          142.82
0.617                   -3.29633         172.111         -48.5427        -177.549         -48.5437        -177.542       -0.0230824         142.739
0.618                   -3.34516         171.474         -48.4655        -179.899         -48.4664        -179.892       -0.0233351         142.658
0.619                   -3.39394         170.828         -48.3889         177.758         -48.3898         177.764       -0.0235909         142.577
0.62                    -3.44276         170.172         -48.3129         175.421         -48.3137         175.428         -0.02385         142.496
0.621                   -3.49173         169.507         -48.2374         173.091         -48.2381         173.097       -0.0241122         142.414
0.622                   -3.54097         168.831         -48.1622         170.768         -48.1629         170.774       -0.0243777         142.332
0.623                   -3.59057         168.144         -48.0874         168.452          -48.088         168.457       -0.0246466          142.25
0.624                   -3.64068         167.445         -48.0129         166.141         -48.0134         166.146       -0.0249188         142.167
0.625                   -3.69142         166.735         -47.9386         163.838         -47.9391         163.842       -0.0251945         142.085
0.626                   -3.74292         166.013         -47.8644          161.54         -47.8649         161.544       -0.0254738         142.002
0.627                   -3.79533         165.279         -47.7903         159.248         -47.7907         159.251       -0.0257566         141.919
0.628                   -3.84877         164.532         -47.7163         156.962         -47.7166         156.965       -0.0260431         141.835
0.629                   -3.90341         163.773         -47.6422         154.681         -47.6425         154.683       -0.0263334         141.751
