! TOUCHSTONE file generated by CST MICROWAVE STUDIO
! Date and time: Mon Oct 26 12:05:57 2020
! Project name: Scenario_1_Circular_Tissue_out_of_Line_v2.cst
! Parameters = {dy1=-173; L_HA=400; MT=2.54; Rad_Dielectric=30; Rad_Lower=7.3; Rad_Upper=30; a_HA=580; a_WG=246; b_HA=500; b_WG=121; c_HA=0; c_WG=187; d_feed=85; dx1=173; h_feed=15; h_lower=18; h_upper=40}
! Header version: 2018
! Port assignment regex: !\s*Touchstone port\s*([0-9]+)\s*=\s*(CST MWS port|CST DS port)\s*([0-9]+|Zmin|Zmax)\s*\(\"(.*)\"\)(\s*mode\s*([0-9]+))?.*
! Touchstone port assignment:
! Touchstone port 1 = CST MWS port 1 ("")
! Touchstone port 2 = CST MWS port 2 ("")
# GHz S DB R 50
0.5                    -0.125023        -122.581         -58.8865         128.004         -58.8861         128.001      -0.00681426         151.113
0.501                  -0.130495        -123.032         -58.6761          126.99         -58.6758         126.987      -0.00686868         151.048
0.502                  -0.136197        -123.485         -58.4649         125.958         -58.4646         125.955      -0.00692361         150.982
0.503                  -0.142136        -123.941         -58.2527         124.909         -58.2526         124.906      -0.00697908         150.917
0.504                  -0.148324        -124.399         -58.0398         123.841         -58.0397         123.839      -0.00703513         150.851
0.505                  -0.154768        -124.859         -57.8261         122.756         -57.8261         122.754       -0.0070918         150.785
0.506                  -0.161479        -125.322         -57.6118         121.652         -57.6118          121.65      -0.00714912          150.72
0.507                  -0.168467        -125.787         -57.3968         120.529         -57.3968         120.528      -0.00720714         150.654
0.508                  -0.175744        -126.255         -57.1812         119.387         -57.1812         119.386       -0.0072659         150.588
0.509                  -0.183321        -126.725         -56.9651         118.227         -56.9651         118.226      -0.00732545         150.522
0.51                   -0.191209        -127.197         -56.7485         117.047         -56.7486         117.046      -0.00738585         150.456
0.511                  -0.199421        -127.672         -56.5315         115.847         -56.5317         115.847      -0.00744714          150.39
0.512                  -0.207969         -128.15         -56.3143         114.628         -56.3144         114.628      -0.00750939         150.323
0.513                  -0.216866         -128.63         -56.0968         113.389         -56.0969         113.389      -0.00757265         150.257
0.514                  -0.226125        -129.112         -55.8791          112.13         -55.8793          112.13      -0.00763698          150.19
0.515                  -0.235761        -129.597         -55.6614         110.851         -55.6615         110.851      -0.00770246         150.124
0.516                  -0.245787        -130.083         -55.4436         109.551         -55.4438         109.551      -0.00776914         150.057
0.517                  -0.256217        -130.573          -55.226          108.23         -55.2261          108.23      -0.00783709         149.991
0.518                  -0.267065        -131.064         -55.0085         106.889         -55.0086         106.889       -0.0079064         149.924
0.519                  -0.278346        -131.558         -54.7913         105.527         -54.7914         105.527      -0.00797713         149.857
0.52                   -0.290075        -132.054         -54.5745         104.144         -54.5746         104.144      -0.00804936          149.79
0.521                  -0.302264        -132.552         -54.3582          102.74         -54.3582         102.741      -0.00812318         149.723
0.522                   -0.31493        -133.052         -54.1424         101.316         -54.1424         101.316      -0.00819865         149.656
0.523                  -0.328084        -133.554         -53.9273         99.8695         -53.9273         99.8695      -0.00827585         149.588
0.524                   -0.34174        -134.057          -53.713         98.4023          -53.713         98.4023      -0.00835488         149.521
0.525                  -0.355911        -134.563         -53.4997         96.9142         -53.4996          96.914      -0.00843581         149.454
0.526                  -0.370608         -135.07         -53.2873         95.4051         -53.2873         95.4048      -0.00851873         149.386
0.527                  -0.385842        -135.578         -53.0761         93.8751          -53.076         93.8747      -0.00860371         149.318
0.528                  -0.401623        -136.088         -52.8661         92.3243         -52.8661         92.3239      -0.00869083         149.251
0.529                  -0.417957        -136.599         -52.6576         90.7531         -52.6575         90.7525      -0.00878018         149.183
0.53                   -0.434852        -137.111         -52.4505         89.1614         -52.4504         89.1607      -0.00887182         149.115
0.531                  -0.452311        -137.623          -52.245         87.5498         -52.2449         87.5489      -0.00896583         149.047
0.532                  -0.470336        -138.137         -52.0413         85.9184         -52.0412         85.9174      -0.00906228         148.979
0.533                  -0.488928         -138.65         -51.8395         84.2676         -51.8394         84.2665      -0.00916123          148.91
0.534                  -0.508082        -139.164         -51.6397         82.5978         -51.6395         82.5966      -0.00926274         148.842
0.535                  -0.527793        -139.679         -51.4419         80.9095         -51.4418         80.9082      -0.00936687         148.774
0.536                  -0.548052        -140.193         -51.2464         79.2032         -51.2463         79.2017      -0.00947367         148.705
0.537                  -0.568846        -140.706         -51.0533         77.4795         -51.0531         77.4779      -0.00958317         148.636
0.538                  -0.590159        -141.219         -50.8626         75.7389         -50.8625         75.7372      -0.00969542         148.568
0.539                  -0.611971        -141.732         -50.6745         73.9821         -50.6744         73.9803      -0.00981044         148.499
0.54                   -0.634258        -142.243         -50.4891         72.2098         -50.4889         72.2079      -0.00992825          148.43
0.541                  -0.656994        -142.753         -50.3064         70.4227         -50.3063         70.4208       -0.0100489         148.361
0.542                  -0.680147        -143.262         -50.1266         68.6218         -50.1265         68.6198       -0.0101723         148.292
0.543                  -0.703683         -143.77         -49.9498         66.8077         -49.9496         66.8057       -0.0102985         148.222
0.544                  -0.727562        -144.276          -49.776         64.9814         -49.7758         64.9794       -0.0104276         148.153
0.545                  -0.751745         -144.78         -49.6053         63.1438         -49.6052         63.1418       -0.0105594         148.084
0.546                  -0.776185        -145.282         -49.4378         61.2959         -49.4376         61.2938        -0.010694         148.014
0.547                  -0.800837        -145.783         -49.2734         59.4385         -49.2733         59.4365       -0.0108312         147.944
0.548                  -0.825651        -146.282         -49.1124         57.5727         -49.1123         57.5708       -0.0109712         147.875
0.549                  -0.850577        -146.779         -48.9547         55.6995         -48.9546         55.6977       -0.0111138         147.805
0.55                   -0.875563        -147.274         -48.8003           53.82         -48.8002         53.8182       -0.0112589         147.735
0.551                  -0.900557        -147.767         -48.6492         51.9351         -48.6492         51.9334       -0.0114066         147.665
0.552                  -0.925508        -148.259         -48.5015         50.0459         -48.5015         50.0443       -0.0115567         147.595
0.553                  -0.950366        -148.749         -48.3572         48.1534         -48.3571          48.152       -0.0117092         147.524
0.554                  -0.975081        -149.239         -48.2162         46.2586         -48.2161         46.2574       -0.0118639         147.454
0.555                  -0.999608        -149.727         -48.0785         44.3626         -48.0784         44.3615       -0.0120209         147.383
0.556                    -1.0239        -150.214         -47.9441         42.4663          -47.944         42.4654       -0.0121801         147.313
0.557                   -1.04793        -150.701         -47.8129         40.5706         -47.8129           40.57       -0.0123413         147.242
0.558                   -1.07165        -151.188         -47.6849         38.6766         -47.6849         38.6761       -0.0125045         147.171
0.559                   -1.09503        -151.675         -47.5601          36.785           -47.56         36.7848       -0.0126696           147.1
0.56                    -1.11805        -152.162         -47.4383         34.8968         -47.4382         34.8968       -0.0128365         147.029
0.561                   -1.14069        -152.651         -47.3195         33.0128         -47.3194          33.013       -0.0130051         146.958
0.562                   -1.16292        -153.141         -47.2036         31.1337         -47.2035         31.1341       -0.0131754         146.887
0.563                   -1.18476        -153.633         -47.0905         29.2602         -47.0904         29.2609       -0.0133473         146.815
0.564                   -1.20618        -154.127         -46.9802         27.3931           -46.98          27.394       -0.0135208         146.744
0.565                   -1.22719        -154.623         -46.8725         25.5329         -46.8723          25.534       -0.0136957         146.672
0.566                    -1.2478        -155.123         -46.7673         23.6802         -46.7671         23.6815       -0.0138719           146.6
0.567                   -1.26802        -155.626         -46.6646         21.8355         -46.6644         21.8371       -0.0140496         146.529
0.568                   -1.28787        -156.133         -46.5642         19.9993          -46.564         20.0011       -0.0142285         146.457
0.569                   -1.30737        -156.644          -46.466         18.1721         -46.4658          18.174       -0.0144086         146.384
0.57                    -1.32654         -157.16         -46.3699         16.3541         -46.3697         16.3562       -0.0145899         146.312
0.571                   -1.34541         -157.68         -46.2759         14.5456         -46.2756         14.5479       -0.0147724          146.24
0.572                   -1.36402        -158.206         -46.1838          12.747         -46.1834         12.7495        -0.014956         146.167
0.573                    -1.3824        -158.738         -46.0934         10.9584         -46.0931         10.9611       -0.0151406         146.094
0.574                   -1.40059        -159.275         -46.0048         9.18007         -46.0044         9.18286       -0.0153264         146.022
0.575                   -1.41863        -159.818         -45.9177         7.41204         -45.9173         7.41495       -0.0155132         145.949
0.576                   -1.43656        -160.368         -45.8321         5.65442         -45.8316         5.65743        -0.015701         145.876
0.577                   -1.45442        -160.924         -45.7479         3.90724         -45.7474         3.91035       -0.0158899         145.802
0.578                   -1.47226        -161.487          -45.665         2.17051         -45.6645         2.17369       -0.0160798         145.729
0.579                   -1.49012        -162.058         -45.5833        0.444201         -45.5827        0.447438       -0.0162707         145.656
0.58                    -1.50806        -162.635         -45.5027        -1.27176          -45.502        -1.26848       -0.0164627         145.582
0.581                    -1.5261         -163.22          -45.423        -2.97747         -45.4224        -2.97417       -0.0166558         145.508
0.582                   -1.54431        -163.812         -45.3444        -4.67304         -45.3437        -4.66974       -0.0168499         145.434
0.583                   -1.56273        -164.411         -45.2665        -6.35864         -45.2658        -6.35534       -0.0170451          145.36
0.584                   -1.58141        -165.019         -45.1895        -8.03442         -45.1887        -8.03115       -0.0172414         145.286
0.585                   -1.60039        -165.634         -45.1131        -9.70059         -45.1123        -9.69736       -0.0174388         145.211
0.586                   -1.61971        -166.258         -45.0373        -11.3573         -45.0365        -11.3542       -0.0176374         145.137
0.587                   -1.63943        -166.889         -44.9622        -13.0049         -44.9613        -13.0018       -0.0178372         145.062
0.588                    -1.6596        -167.528         -44.8875        -14.6436         -44.8866        -14.6406       -0.0180383         144.987
0.589                   -1.68025        -168.176         -44.8132        -16.2735         -44.8123        -16.2706       -0.0182406         144.912
0.59                    -1.70144        -168.831         -44.7394        -17.8951         -44.7384        -17.8923       -0.0184443         144.837
0.591                    -1.7232        -169.495         -44.6659        -19.5085         -44.6649        -19.5058       -0.0186493         144.762
0.592                   -1.74559        -170.167         -44.5927         -21.114         -44.5917        -21.1115       -0.0188558         144.686
0.593                   -1.76866        -170.848         -44.5197         -22.712         -44.5187        -22.7096       -0.0190637          144.61
0.594                   -1.79244        -171.537         -44.4469        -24.3026         -44.4459        -24.3004       -0.0192731         144.534
0.595                   -1.81698        -172.234         -44.3743        -25.8863         -44.3733        -25.8843       -0.0194841         144.458
0.596                   -1.84234        -172.939         -44.3019        -27.4633         -44.3008        -27.4614       -0.0196967         144.382
0.597                   -1.86855        -173.653         -44.2296        -29.0338         -44.2285        -29.0322        -0.019911         144.305
0.598                   -1.89567        -174.376         -44.1573        -30.5983         -44.1562        -30.5968        -0.020127         144.229
0.599                   -1.92374        -175.106         -44.0851        -32.1569          -44.084        -32.1556       -0.0203449         144.152
0.6                     -1.95281        -175.846          -44.013          -33.71         -44.0119        -33.7089       -0.0205646         144.075
0.601                   -1.98292        -176.593         -43.9409        -35.2579         -43.9398         -35.257       -0.0207862         143.998
0.602                   -2.01414        -177.349         -43.8688        -36.8008         -43.8677        -36.8001       -0.0210097          143.92
0.603                    -2.0465        -178.114         -43.7967         -38.339         -43.7956        -38.3385       -0.0212354         143.843
0.604                   -2.08006        -178.886         -43.7246        -39.8728         -43.7236        -39.8725       -0.0214631         143.765
0.605                   -2.11486        -179.668         -43.6525        -41.4025         -43.6515        -41.4024       -0.0216931         143.687
0.606                   -2.15098         179.543         -43.5804        -42.9283         -43.5794        -42.9283       -0.0219252         143.609
0.607                   -2.18844         178.745         -43.5083        -44.4504         -43.5072        -44.4507       -0.0221597          143.53
0.608                   -2.22732          177.94         -43.4362        -45.9691         -43.4351        -45.9696       -0.0223966         143.452
0.609                   -2.26766         177.126          -43.364        -47.4846          -43.363        -47.4853        -0.022636         143.373
0.61                    -2.30953         176.303         -43.2918        -48.9972         -43.2908         -48.998       -0.0228779         143.294
0.611                   -2.35298         175.473         -43.2196         -50.507         -43.2186         -50.508       -0.0231223         143.215
0.612                   -2.39807         174.635         -43.1475        -52.0143         -43.1465        -52.0155       -0.0233695         143.135
0.613                   -2.44486         173.789         -43.0753        -53.5193         -43.0744        -53.5206       -0.0236194         143.055
0.614                   -2.49341         172.936         -43.0032        -55.0221         -43.0022        -55.0236       -0.0238722         142.975
0.615                    -2.5438         172.074         -42.9311        -56.5229         -42.9302        -56.5245       -0.0241278         142.895
0.616                   -2.59607         171.206          -42.859        -58.0219         -42.8582        -58.0236       -0.0243865         142.815
0.617                    -2.6503         170.329          -42.787        -59.5192         -42.7862         -59.521       -0.0246482         142.734
0.618                   -2.70655         169.446         -42.7151        -61.0149         -42.7143        -61.0169        -0.024913         142.653
0.619                   -2.76489         168.556         -42.6433        -62.5093         -42.6425        -62.5113       -0.0251811         142.572
0.62                     -2.8254         167.659         -42.5716        -64.0023         -42.5709        -64.0045       -0.0254525         142.491
0.621                   -2.88814         166.755            -42.5        -65.4941         -42.4993        -65.4964       -0.0257272         142.409
0.622                   -2.95318         165.845         -42.4286        -66.9849         -42.4279        -66.9872       -0.0260055         142.328
0.623                    -3.0206         164.929         -42.3573        -68.4746         -42.3567        -68.4769       -0.0262873         142.245
0.624                   -3.09046         164.007         -42.2862        -69.9633         -42.2856        -69.9657       -0.0265728         142.163
0.625                   -3.16286         163.079         -42.2154        -71.4511         -42.2148        -71.4535        -0.026862         142.081
0.626                   -3.23785         162.147         -42.1447        -72.9381         -42.1442        -72.9405       -0.0271551         141.998
0.627                   -3.31552         161.209         -42.0743        -74.4242         -42.0738        -74.4266        -0.027452         141.915
0.628                   -3.39594         160.267         -42.0042        -75.9095         -42.0037        -75.9119        -0.027753         141.831
0.629                   -3.47919         159.321         -41.9343         -77.394         -41.9339        -77.3964       -0.0280581         141.748
