! TOUCHSTONE file generated by CST MICROWAVE STUDIO
! Date and time: Wed Oct 28 19:35:15 2020
! Project name: Scenario_1_Circular_Tissue_out_of_Line_v2.cst
! Parameters = {dy1=-173; L_HA=400; MT=2.54; Rad_Dielectric=30; Rad_Lower=7.3; Rad_Upper=30; a_HA=580; a_WG=246; b_HA=500; b_WG=121; c_HA=0; c_WG=187; d_feed=85; dx1=346; h_feed=15; h_lower=18; h_upper=40}
! Header version: 2018
! Port assignment regex: !\s*Touchstone port\s*([0-9]+)\s*=\s*(CST MWS port|CST DS port)\s*([0-9]+|Zmin|Zmax)\s*\(\"(.*)\"\)(\s*mode\s*([0-9]+))?.*
! Touchstone port assignment:
! Touchstone port 1 = CST MWS port 1 ("")
! Touchstone port 2 = CST MWS port 2 ("")
# GHz S DB R 50
0.5                    -0.161982        -122.266         -59.7133         19.1607         -59.7133         19.1607       -0.0080482         151.129
0.501                  -0.166406        -122.695         -59.5899          17.657         -59.5898         17.6567       -0.0081142         151.063
0.502                   -0.17092        -123.127          -59.467         16.1586         -59.4669         16.1579      -0.00818049         150.998
0.503                  -0.175529         -123.56         -59.3447         14.6654         -59.3446         14.6644      -0.00824708         150.933
0.504                  -0.180237        -123.996         -59.2229         13.1777         -59.2227         13.1764      -0.00831398         150.867
0.505                  -0.185048        -124.435         -59.1014         11.6953         -59.1012         11.6938      -0.00838119         150.802
0.506                  -0.189967        -124.876         -58.9803         10.2185           -58.98         10.2168      -0.00844872         150.737
0.507                  -0.194999         -125.32         -58.8594         8.74709         -58.8592         8.74519      -0.00851657         150.671
0.508                  -0.200149        -125.766         -58.7388         7.28117         -58.7385         7.27911      -0.00858475         150.605
0.509                  -0.205422        -126.215         -58.6183         5.82068          -58.618         5.81849      -0.00865327         150.539
0.51                   -0.210823        -126.666          -58.498         4.36556         -58.4977         4.36326      -0.00872213         150.474
0.511                  -0.216358         -127.12         -58.3776         2.91571         -58.3773         2.91335      -0.00879135         150.408
0.512                  -0.222034        -127.577         -58.2573         1.47106          -58.257         1.46865      -0.00886092         150.342
0.513                  -0.227856        -128.037         -58.1369       0.0314664         -58.1366       0.0290319      -0.00893086         150.276
0.514                  -0.233831        -128.499         -58.0163         -1.4032          -58.016        -1.40563      -0.00900118         150.209
0.515                  -0.239965        -128.964         -57.8956         -2.8331         -57.8953        -2.83551      -0.00907187         150.143
0.516                  -0.246267        -129.433         -57.7746         -4.2584         -57.7743        -4.26077      -0.00914296         150.077
0.517                  -0.252742        -129.904         -57.6533        -5.67931          -57.653        -5.68161      -0.00921445          150.01
0.518                    -0.2594        -130.378         -57.5317        -7.09602         -57.5315        -7.09824      -0.00928635         149.944
0.519                  -0.266247        -130.855         -57.4097        -8.50877         -57.4095        -8.51089      -0.00935866         149.877
0.52                   -0.273292        -131.335         -57.2873        -9.91778         -57.2871        -9.91979       -0.0094314         149.811
0.521                  -0.280544        -131.818         -57.1645        -11.3233         -57.1642        -11.3252      -0.00950459         149.744
0.522                  -0.288011        -132.304         -57.0411        -12.7256         -57.0409        -12.7274      -0.00957821         149.677
0.523                  -0.295703        -132.793         -56.9172         -14.125         -56.9169        -14.1266       -0.0096523          149.61
0.524                   -0.30363        -133.286         -56.7927        -15.5217         -56.7924        -15.5232      -0.00972686         149.543
0.525                  -0.311802        -133.781         -56.6676        -16.9161         -56.6673        -16.9174      -0.00980191         149.476
0.526                  -0.320229         -134.28         -56.5418        -18.3085         -56.5416        -18.3096      -0.00987744         149.409
0.527                  -0.328921        -134.782         -56.4153        -19.6991         -56.4151        -19.7001      -0.00995349         149.342
0.528                  -0.337891        -135.288         -56.2882        -21.0883          -56.288        -21.0891       -0.0100301         149.274
0.529                   -0.34715        -135.797         -56.1603        -22.4764         -56.1601        -22.4771       -0.0101072         149.207
0.53                    -0.35671        -136.309         -56.0317        -23.8639         -56.0315        -23.8644       -0.0101848         149.139
0.531                  -0.366584        -136.824         -55.9023        -25.2509         -55.9021        -25.2513        -0.010263         149.071
0.532                  -0.376784        -137.343         -55.7722        -26.6379         -55.7719        -26.6382       -0.0103418         149.004
0.533                  -0.387323        -137.866         -55.6412        -28.0253          -55.641        -28.0254       -0.0104212         148.936
0.534                  -0.398217        -138.391         -55.5094        -29.4133         -55.5092        -29.4133       -0.0105012         148.868
0.535                  -0.409478        -138.921         -55.3768        -30.8024         -55.3766        -30.8023       -0.0105818           148.8
0.536                  -0.421122        -139.453         -55.2434         -32.193         -55.2432        -32.1927       -0.0106631         148.731
0.537                  -0.433163         -139.99         -55.1092        -33.5853         -55.1089        -33.5849       -0.0107451         148.663
0.538                  -0.445617        -140.529         -54.9742        -34.9798         -54.9739        -34.9793       -0.0108277         148.595
0.539                  -0.458501        -141.073         -54.8383        -36.3768          -54.838        -36.3763        -0.010911         148.526
0.54                   -0.471831        -141.619         -54.7016        -37.7767         -54.7013        -37.7761       -0.0109951         148.458
0.541                  -0.485623         -142.17         -54.5641          -39.18         -54.5638        -39.1793       -0.0110799         148.389
0.542                  -0.499895        -142.723         -54.4258        -40.5868         -54.4255        -40.5861       -0.0111655          148.32
0.543                  -0.514664        -143.281         -54.2867        -41.9977         -54.2864        -41.9969       -0.0112519         148.251
0.544                  -0.529948        -143.841         -54.1469        -43.4129         -54.1465        -43.4122       -0.0113392         148.182
0.545                  -0.545767        -144.405         -54.0063        -44.8329         -54.0059        -44.8321       -0.0114273         148.113
0.546                  -0.562137        -144.973         -53.8649         -46.258         -53.8646        -46.2572       -0.0115162         148.044
0.547                  -0.579079        -145.544         -53.7229        -47.6885         -53.7225        -47.6877       -0.0116061         147.974
0.548                  -0.596611        -146.118         -53.5802        -49.1248         -53.5798        -49.1241       -0.0116969         147.905
0.549                  -0.614753        -146.696         -53.4369        -50.5672         -53.4365        -50.5665       -0.0117887         147.835
0.55                   -0.633524        -147.277         -53.2929         -52.016         -53.2925        -52.0154       -0.0118815         147.766
0.551                  -0.652944        -147.861         -53.1484        -53.4716          -53.148         -53.471       -0.0119753         147.696
0.552                  -0.673033        -148.448         -53.0033        -54.9343         -53.0029        -54.9338       -0.0120702         147.626
0.553                  -0.693809        -149.039         -52.8578        -56.4043         -52.8574        -56.4039       -0.0121662         147.556
0.554                  -0.715293        -149.632         -52.7118         -57.882         -52.7113        -57.8816       -0.0122633         147.486
0.555                  -0.737504        -150.228         -52.5653        -59.3676         -52.5649        -59.3673       -0.0123616         147.415
0.556                   -0.76046        -150.827         -52.4186        -60.8614         -52.4181        -60.8612       -0.0124612         147.345
0.557                  -0.784181        -151.429         -52.2715        -62.3636         -52.2711        -62.3635       -0.0125619         147.274
0.558                  -0.808685        -152.033         -52.1242        -63.8745         -52.1237        -63.8744        -0.012664         147.204
0.559                  -0.833988         -152.64         -51.9766        -65.3942         -51.9762        -65.3943       -0.0127675         147.133
0.56                   -0.860109        -153.249          -51.829        -66.9229         -51.8285        -66.9231       -0.0128723         147.062
0.561                  -0.887063         -153.86         -51.6812        -68.4609         -51.6808        -68.4612       -0.0129785         146.991
0.562                  -0.914865        -154.474         -51.5334        -70.0082          -51.533        -70.0086       -0.0130862          146.92
0.563                  -0.943529        -155.089         -51.3857         -71.565         -51.3853        -71.5655       -0.0131955         146.848
0.564                  -0.973069        -155.706         -51.2381        -73.1315         -51.2377        -73.1321       -0.0133063         146.777
0.565                    -1.0035        -156.324         -51.0907        -74.7076         -51.0903        -74.7083       -0.0134187         146.705
0.566                   -1.03482        -156.944         -50.9435        -76.2935         -50.9431        -76.2943       -0.0135327         146.634
0.567                   -1.06705        -157.564         -50.7966        -77.8891         -50.7963          -77.89       -0.0136485         146.562
0.568                   -1.10019        -158.186         -50.6502        -79.4945         -50.6498        -79.4955       -0.0137661          146.49
0.569                   -1.13424        -158.809         -50.5041        -81.1097         -50.5038        -81.1108       -0.0138855         146.418
0.57                    -1.16922        -159.432         -50.3586        -82.7346         -50.3583        -82.7358       -0.0140067         146.345
0.571                   -1.20512        -160.055         -50.2137        -84.3692         -50.2135        -84.3704       -0.0141298         146.273
0.572                   -1.24193        -160.678         -50.0695        -86.0133         -50.0693        -86.0145       -0.0142549           146.2
0.573                   -1.27965        -161.301          -49.926        -87.6668         -49.9258        -87.6681       -0.0143821         146.128
0.574                   -1.31829        -161.924         -49.7833        -89.3296         -49.7831        -89.3309       -0.0145112         146.055
0.575                   -1.35782        -162.547         -49.6415        -91.0014         -49.6413        -91.0027       -0.0146425         145.982
0.576                   -1.39823        -163.168         -49.5007         -92.682         -49.5005        -92.6834        -0.014776         145.909
0.577                   -1.43951        -163.788         -49.3608        -94.3713         -49.3607        -94.3727       -0.0149117         145.835
0.578                   -1.48164        -164.408          -49.222        -96.0689         -49.2219        -96.0703       -0.0150496         145.762
0.579                   -1.52461        -165.025         -49.0844        -97.7745         -49.0843        -97.7759       -0.0151899         145.688
0.58                    -1.56838        -165.641         -48.9479        -99.4878         -48.9478        -99.4891       -0.0153325         145.614
0.581                   -1.61293        -166.255         -48.8127        -101.208         -48.8126         -101.21       -0.0154774         145.541
0.582                   -1.65823        -166.867         -48.6788        -102.936         -48.6787        -102.937       -0.0156249         145.466
0.583                   -1.70424        -167.477         -48.5462         -104.67         -48.5462        -104.671       -0.0157748         145.392
0.584                   -1.75094        -168.085         -48.4151         -106.41          -48.415        -106.412       -0.0159272         145.318
0.585                   -1.79829         -168.69         -48.2853        -108.157         -48.2853        -108.158       -0.0160822         145.243
0.586                   -1.84624        -169.292          -48.157        -109.908          -48.157        -109.909       -0.0162398         145.169
0.587                   -1.89476        -169.892         -48.0303        -111.664         -48.0303        -111.665          -0.0164         145.094
0.588                    -1.9438        -170.488          -47.905        -113.424          -47.905        -113.425       -0.0165629         145.019
0.589                   -1.99332        -171.082         -47.7813        -115.188         -47.7813        -115.189       -0.0167285         144.943
0.59                    -2.04327        -171.674         -47.6592        -116.956         -47.6592        -116.957       -0.0168968         144.868
0.591                    -2.0936        -172.262         -47.5386        -118.726         -47.5387        -118.727       -0.0170678         144.792
0.592                   -2.14427        -172.847         -47.4196        -120.499         -47.4197        -120.499       -0.0172416         144.717
0.593                   -2.19523         -173.43         -47.3023        -122.273         -47.3023        -122.274       -0.0174182         144.641
0.594                   -2.24643         -174.01         -47.1865        -124.049         -47.1866        -124.049       -0.0175977         144.565
0.595                   -2.29782        -174.588         -47.0722        -125.825         -47.0723        -125.826         -0.01778         144.488
0.596                   -2.34935        -175.163         -46.9596        -127.602         -46.9597        -127.602       -0.0179651         144.412
0.597                   -2.40099        -175.735         -46.8485        -129.379         -46.8486        -129.379       -0.0181531         144.335
0.598                   -2.45268        -176.306         -46.7389        -131.154          -46.739        -131.155       -0.0183441         144.259
0.599                   -2.50439        -176.875         -46.6309        -132.929          -46.631        -132.929       -0.0185379         144.182
0.6                     -2.55608        -177.442         -46.5243        -134.702         -46.5244        -134.702       -0.0187346         144.104
0.601                   -2.60771        -178.008         -46.4191        -136.473         -46.4192        -136.473       -0.0189343         144.027
0.602                   -2.65924        -178.573         -46.3154        -138.242         -46.3155        -138.242       -0.0191369         143.949
0.603                   -2.71065        -179.138          -46.213        -140.008         -46.2131        -140.007       -0.0193425         143.872
0.604                   -2.76191        -179.702         -46.1119         -141.77          -46.112         -141.77        -0.019551         143.794
0.605                     -2.813         179.734         -46.0121        -143.529         -46.0122        -143.529       -0.0197625         143.716
0.606                   -2.86389         179.169         -45.9135        -145.285         -45.9136        -145.284        -0.019977         143.637
0.607                   -2.91458         178.604          -45.816        -147.036         -45.8161        -147.035       -0.0201945         143.559
0.608                   -2.96506         178.037         -45.7197        -148.783         -45.7198        -148.782       -0.0204151          143.48
0.609                   -3.01531         177.469         -45.6244        -150.525         -45.6245        -150.524       -0.0206386         143.401
0.61                    -3.06534         176.899         -45.5302        -152.262         -45.5302        -152.261       -0.0208652         143.322
0.611                   -3.11516         176.326         -45.4368        -153.994         -45.4369        -153.993       -0.0210948         143.242
0.612                   -3.16476          175.75         -45.3443        -155.721         -45.3444         -155.72       -0.0213276         143.163
0.613                   -3.21416         175.171         -45.2527        -157.443         -45.2527        -157.442       -0.0215634         143.083
0.614                   -3.26339         174.588         -45.1618        -159.159         -45.1618        -159.158       -0.0218023         143.003
0.615                   -3.31246             174         -45.0716        -160.869         -45.0716        -160.869       -0.0220443         142.923
0.616                   -3.36139         173.409         -44.9821        -162.574         -44.9821        -162.574       -0.0222895         142.842
0.617                   -3.41023         172.812         -44.8931        -164.274         -44.8931        -164.273       -0.0225379         142.762
0.618                     -3.459         172.209         -44.8046        -165.968         -44.8046        -165.967       -0.0227894         142.681
0.619                   -3.50775         171.601         -44.7166        -167.656         -44.7166        -167.655       -0.0230442         142.599
0.62                    -3.55651         170.986         -44.6291        -169.339          -44.629        -169.338       -0.0233023         142.518
0.621                   -3.60534         170.365         -44.5418        -171.016         -44.5418        -171.015       -0.0235637         142.436
0.622                   -3.65429         169.737         -44.4549        -172.688         -44.4549        -172.687       -0.0238284         142.355
0.623                    -3.7034         169.101         -44.3682        -174.354         -44.3682        -174.353       -0.0240965         142.272
0.624                   -3.75274         168.458         -44.2818        -176.015         -44.2817        -176.015        -0.024368          142.19
0.625                   -3.80236         167.806         -44.1955        -177.671         -44.1954        -177.671        -0.024643         142.107
0.626                   -3.85234         167.147         -44.1093        -179.322         -44.1092        -179.322       -0.0249215         142.024
0.627                   -3.90273         166.478         -44.0231         179.031         -44.0231         179.032       -0.0252035         141.941
0.628                   -3.95361         165.801          -43.937          177.39          -43.937          177.39       -0.0254892         141.858
0.629                   -4.00505         165.115         -43.8509         175.752         -43.8509         175.752       -0.0257786         141.774
