! TOUCHSTONE file generated by CST MICROWAVE STUDIO
! Date and time: Fri Oct 30 07:53:51 2020
! Project name: Scenario_1_Circular_Tissue_out_of_Line.cst
! Parameters = {dy1=-172.59; L_HA=400; MT=2.54; Rad_Dielectric=30; Rad_Lower=7.3; Rad_Upper=30; a_HA=580; a_WG=246; b_HA=500; b_WG=121; c_HA=0; c_WG=187; d_feed=85; dx1=520; h_feed=15; h_lower=18; h_upper=40}
! Header version: 2018
! Port assignment regex: !\s*Touchstone port\s*([0-9]+)\s*=\s*(CST MWS port|CST DS port)\s*([0-9]+|Zmin|Zmax)\s*\(\"(.*)\"\)(\s*mode\s*([0-9]+))?.*
! Touchstone port assignment:
! Touchstone port 1 = CST MWS port 1 ("")
! Touchstone port 2 = CST MWS port 2 ("")
# GHz S DB R 50
0.5                     -0.13592        -122.339         -62.1363        -66.3866         -62.1363        -66.3866       -0.0072422          151.14
0.501                  -0.143189        -122.793         -61.8782        -67.6401         -61.8779        -67.6228      -0.00730365         151.074
0.502                  -0.150681        -123.248         -61.6235        -68.9465         -61.6228         -68.914      -0.00736615         151.009
0.503                  -0.158396        -123.704         -61.3724        -70.3036         -61.3712        -70.2578      -0.00742971         150.944
0.504                  -0.166334        -124.162          -61.125        -71.7093         -61.1234        -71.6521      -0.00749435         150.878
0.505                  -0.174495         -124.62         -60.8816        -73.1614         -60.8794        -73.0946      -0.00756006         150.813
0.506                  -0.182878         -125.08         -60.6422        -74.6579         -60.6394        -74.5831      -0.00762687         150.747
0.507                  -0.191483        -125.541          -60.407        -76.1966         -60.4035        -76.1155      -0.00769477         150.681
0.508                  -0.200311        -126.003          -60.176        -77.7754         -60.1719        -77.6896      -0.00776379         150.616
0.509                  -0.209361        -126.466         -59.9492        -79.3924         -59.9446        -79.3032      -0.00783392          150.55
0.51                   -0.218631        -126.931         -59.7269        -81.0455         -59.7217        -80.9541      -0.00790519         150.484
0.511                  -0.228123        -127.396         -59.5089        -82.7326         -59.5033        -82.6404       -0.0079776         150.418
0.512                  -0.237836        -127.863         -59.2954        -84.4517         -59.2894        -84.3597      -0.00805117         150.352
0.513                  -0.247769        -128.331         -59.0864         -86.201           -59.08        -86.1102      -0.00812589         150.286
0.514                  -0.257921        -128.801         -58.8818        -87.9784         -58.8751        -87.8897      -0.00820179          150.22
0.515                  -0.268293        -129.271         -58.6817        -89.7821         -58.6748        -89.6962      -0.00827887         150.153
0.516                  -0.278883        -129.743          -58.486        -91.6102          -58.479        -91.5278      -0.00835715         150.087
0.517                  -0.289691        -130.216         -58.2948        -93.4609         -58.2877        -93.3826      -0.00843663          150.02
0.518                  -0.300717         -130.69         -58.1079        -95.3324         -58.1009        -95.2587      -0.00851733         149.954
0.519                  -0.311959        -131.166         -57.9253        -97.2229         -57.9184        -97.1543      -0.00859925         149.887
0.52                   -0.323417        -131.642          -57.747        -99.1309         -57.7403        -99.0676      -0.00868241         149.821
0.521                  -0.335091         -132.12         -57.5728        -101.055         -57.5664        -100.997      -0.00876682         149.754
0.522                  -0.346979          -132.6         -57.4028        -102.993         -57.3967        -102.941      -0.00885248         149.687
0.523                  -0.359081         -133.08         -57.2367        -104.943         -57.2311        -104.897      -0.00893941          149.62
0.524                  -0.371396        -133.562         -57.0745        -106.905         -57.0694        -106.865      -0.00902761         149.553
0.525                  -0.383923        -134.045         -56.9161        -108.877         -56.9115        -108.843       -0.0091171         149.486
0.526                  -0.396662         -134.53         -56.7613        -110.857         -56.7574        -110.829      -0.00920788         149.419
0.527                  -0.409611        -135.016         -56.6101        -112.845         -56.6068        -112.822      -0.00929997         149.351
0.528                   -0.42277        -135.503         -56.4622        -114.839         -56.4597        -114.822      -0.00939336         149.284
0.529                  -0.436138        -135.992         -56.3177        -116.838         -56.3159        -116.826      -0.00948808         149.216
0.53                   -0.449714        -136.482         -56.1763        -118.841         -56.1753        -118.834      -0.00958412         149.149
0.531                  -0.463498        -136.973         -56.0379        -120.847         -56.0377        -120.845      -0.00968149         149.081
0.532                  -0.477487        -137.466         -55.9023        -122.855          -55.903        -122.857       -0.0097802         149.013
0.533                  -0.491682        -137.961         -55.7695        -124.864          -55.771        -124.871      -0.00988026         148.946
0.534                  -0.506082        -138.457         -55.6393        -126.875         -55.6416        -126.885      -0.00998166         148.878
0.535                  -0.520686        -138.955         -55.5114        -128.885         -55.5147        -128.899       -0.0100844          148.81
0.536                  -0.535493        -139.454         -55.3859        -130.894           -55.39        -130.911       -0.0101885         148.741
0.537                  -0.550502        -139.955         -55.2626        -132.902         -55.2675        -132.922        -0.010294         148.673
0.538                  -0.565712        -140.457         -55.1412        -134.908          -55.147        -134.931       -0.0104008         148.605
0.539                  -0.581124        -140.961         -55.0217        -136.912         -55.0284        -136.937       -0.0105089         148.537
0.54                   -0.596736        -141.467          -54.904        -138.913         -54.9115        -138.941       -0.0106185         148.468
0.541                  -0.612548        -141.974         -54.7879        -140.911         -54.7961        -140.941       -0.0107293         148.399
0.542                  -0.628559        -142.483         -54.6733        -142.906         -54.6823        -142.937       -0.0108415         148.331
0.543                  -0.644769        -142.995         -54.5601        -144.897         -54.5698        -144.929        -0.010955         148.262
0.544                  -0.661178        -143.508         -54.4481        -146.885         -54.4585        -146.918       -0.0110699         148.193
0.545                  -0.677786        -144.022         -54.3373        -148.869         -54.3484        -148.902        -0.011186         148.124
0.546                  -0.694591        -144.539         -54.2275        -150.848         -54.2392        -150.882       -0.0113034         148.055
0.547                  -0.711596        -145.058         -54.1186        -152.824         -54.1309        -152.858       -0.0114222         147.986
0.548                  -0.728799        -145.579         -54.0106        -154.795         -54.0234        -154.829       -0.0115421         147.916
0.549                  -0.746201        -146.102         -53.9032        -156.762         -53.9166        -156.796       -0.0116634         147.847
0.55                   -0.763802        -146.627         -53.7966        -158.725         -53.8104        -158.758       -0.0117858         147.777
0.551                  -0.781605        -147.155         -53.6904        -160.683         -53.7047        -160.716       -0.0119095         147.708
0.552                  -0.799608        -147.685         -53.5848        -162.637         -53.5994         -162.67       -0.0120343         147.638
0.553                  -0.817815        -148.217         -53.4795        -164.588         -53.4945        -164.619       -0.0121602         147.568
0.554                  -0.836226        -148.752         -53.3746        -166.534         -53.3899        -166.564       -0.0122873         147.498
0.555                  -0.854843        -149.289         -53.2699        -168.476         -53.2855        -168.506       -0.0124154         147.428
0.556                  -0.873669        -149.829         -53.1655        -170.415         -53.1813        -170.443       -0.0125447         147.358
0.557                  -0.892706        -150.371         -53.0612        -172.349         -53.0772        -172.376       -0.0126749         147.288
0.558                  -0.911958        -150.916         -52.9569        -174.281         -52.9731        -174.306       -0.0128061         147.217
0.559                  -0.931427        -151.465         -52.8528        -176.209          -52.869        -176.233       -0.0129382         147.147
0.56                   -0.951117        -152.016         -52.7486        -178.133         -52.7649        -178.156       -0.0130713         147.076
0.561                  -0.971034         -152.57         -52.6444         179.945         -52.6608         179.924       -0.0132052         147.005
0.562                  -0.991183        -153.127         -52.5401         178.027         -52.5565         178.007       -0.0133399         146.934
0.563                   -1.01157        -153.688         -52.4357         176.111          -52.452         176.093       -0.0134755         146.863
0.564                    -1.0322        -154.251         -52.3312         174.197         -52.3475         174.181       -0.0136118         146.792
0.565                   -1.05308        -154.819         -52.2266         172.286         -52.2427         172.271       -0.0137489         146.721
0.566                   -1.07422         -155.39         -52.1217         170.377         -52.1377         170.364       -0.0138867          146.65
0.567                   -1.09563        -155.964         -52.0167          168.47         -52.0326         168.459       -0.0140252         146.578
0.568                   -1.11731        -156.543         -51.9115         166.564         -51.9271         166.555       -0.0141643         146.506
0.569                   -1.13929        -157.126         -51.8061         164.661         -51.8215         164.653       -0.0143041         146.435
0.57                    -1.16157        -157.712         -51.7004         162.758         -51.7156         162.752       -0.0144445         146.363
0.571                   -1.18416        -158.303         -51.5946         160.857         -51.6095         160.852       -0.0145856         146.291
0.572                   -1.20709        -158.898         -51.4885         158.957         -51.5031         158.954       -0.0147273         146.219
0.573                   -1.23036        -159.498         -51.3822         157.058         -51.3965         157.056       -0.0148696         146.146
0.574                     -1.254        -160.103         -51.2757         155.159         -51.2897         155.158       -0.0150126         146.074
0.575                   -1.27803        -160.712          -51.169          153.26         -51.1827         153.261       -0.0151563         146.001
0.576                   -1.30246        -161.326         -51.0621         151.363         -51.0754         151.365       -0.0153006         145.929
0.577                   -1.32733        -161.946         -50.9551         149.465          -50.968         149.468       -0.0154457         145.856
0.578                   -1.35265        -162.571         -50.8479         147.567         -50.8604         147.571       -0.0155916         145.783
0.579                   -1.37846        -163.201         -50.7405         145.669         -50.7527         145.674       -0.0157383          145.71
0.58                     -1.4048        -163.837          -50.633          143.77         -50.6448         143.777       -0.0158858         145.636
0.581                   -1.43168        -164.479         -50.5255         141.872         -50.5368         141.879       -0.0160343         145.563
0.582                   -1.45915        -165.127         -50.4178         139.972         -50.4287         139.981       -0.0161838         145.489
0.583                   -1.48726        -165.781         -50.3101         138.072         -50.3205         138.081       -0.0163344         145.415
0.584                   -1.51604        -166.441         -50.2024         136.171         -50.2124         136.181       -0.0164861         145.342
0.585                   -1.54553        -167.107         -50.0946          134.27         -50.1042          134.28       -0.0166391         145.267
0.586                    -1.5758        -167.781         -49.9869         132.367         -49.9961         132.378       -0.0167934         145.193
0.587                   -1.60689        -168.461         -49.8793         130.463          -49.888         130.474       -0.0169491         145.119
0.588                   -1.63886        -169.147         -49.7717         128.558           -49.78          128.57       -0.0171064         145.044
0.589                   -1.67178        -169.841         -49.6643         126.652         -49.6721         126.664       -0.0172652         144.969
0.59                    -1.70571        -170.542         -49.5571         124.745         -49.5645         124.757       -0.0174257         144.895
0.591                   -1.74072         -171.25           -49.45         122.836          -49.457         122.848        -0.017588         144.819
0.592                   -1.77688        -171.964         -49.3432         120.926         -49.3497         120.939       -0.0177522         144.744
0.593                   -1.81428        -172.686         -49.2366         119.015         -49.2427         119.027       -0.0179184         144.669
0.594                     -1.853        -173.415         -49.1304         117.102          -49.136         117.115       -0.0180866         144.593
0.595                   -1.89312        -174.151         -49.0244         115.188         -49.0297         115.201        -0.018257         144.517
0.596                   -1.93473        -174.894         -48.9189         113.273         -48.9237         113.286       -0.0184297         144.441
0.597                   -1.97793        -175.644         -48.8137         111.357         -48.8182         111.369       -0.0186047         144.365
0.598                   -2.02281          -176.4          -48.709          109.44         -48.7131         109.451       -0.0187821         144.289
0.599                   -2.06947        -177.162         -48.6048         107.521         -48.6085         107.532       -0.0189621         144.212
0.6                     -2.11801         -177.93          -48.501         105.601         -48.5044         105.612       -0.0191446         144.136
0.601                   -2.16853        -178.704         -48.3979         103.681         -48.4008         103.691       -0.0193298         144.059
0.602                   -2.22112        -179.483         -48.2952          101.76         -48.2979          101.77       -0.0195178         143.982
0.603                   -2.27589         179.734         -48.1932         99.8377         -48.1956         99.8472       -0.0197086         143.904
0.604                   -2.33293         178.948         -48.0919         97.9152         -48.0939          97.924       -0.0199023         143.827
0.605                   -2.39232         178.158         -47.9912         95.9922         -47.9929         96.0005       -0.0200989         143.749
0.606                   -2.45414         177.366         -47.8912          94.069         -47.8926         94.0766       -0.0202986         143.671
0.607                   -2.51847         176.572         -47.7919         92.1456         -47.7931         92.1525       -0.0205014         143.593
0.608                   -2.58538         175.779         -47.6934         90.2223         -47.6943         90.2285       -0.0207073         143.515
0.609                   -2.65489         174.986         -47.5956         88.2993         -47.5963         88.3048       -0.0209164         143.436
0.61                    -2.72707         174.194         -47.4986         86.3767         -47.4991         86.3814       -0.0211288         143.357
0.611                   -2.80191         173.406         -47.4025         84.4547         -47.4027         84.4587       -0.0213446         143.279
0.612                   -2.87942         172.622         -47.3071         82.5336         -47.3072         82.5368       -0.0215637         143.199
0.613                   -2.95958         171.844         -47.2126         80.6135         -47.2125          80.616       -0.0217862          143.12
0.614                   -3.04234         171.072          -47.119         78.6947         -47.1187         78.6964       -0.0220122          143.04
0.615                   -3.12764         170.308         -47.0262         76.7774         -47.0258         76.7783       -0.0222418         142.961
0.616                    -3.2154         169.554         -46.9343         74.8618         -46.9337          74.862       -0.0224749         142.881
0.617                    -3.3055          168.81         -46.8432         72.9482         -46.8425         72.9477       -0.0227117           142.8
0.618                   -3.39781         168.077         -46.7531         71.0368         -46.7523         71.0355       -0.0229521          142.72
0.619                   -3.49217         167.358         -46.6638         69.1278         -46.6629         69.1259       -0.0231963         142.639
0.62                    -3.58841         166.652         -46.5754         67.2215         -46.5744         67.2189       -0.0234443         142.558
0.621                   -3.68633          165.96         -46.4878          65.318         -46.4868         65.3148       -0.0236961         142.477
0.622                   -3.78572         165.283         -46.4012         63.4177         -46.4001         63.4139       -0.0239518         142.396
0.623                   -3.88637         164.622         -46.3154         61.5208         -46.3142         61.5163       -0.0242115         142.314
0.624                   -3.98805         163.977         -46.2304         59.6274         -46.2292         59.6224       -0.0244751         142.232
0.625                   -4.09051         163.348         -46.1463         57.7379          -46.145         57.7324       -0.0247428          142.15
0.626                   -4.19352         162.735         -46.0629         55.8524         -46.0617         55.8464       -0.0250145         142.068
0.627                   -4.29686         162.138         -45.9804         53.9711         -45.9792         53.9646       -0.0252904         141.985
0.628                   -4.40028         161.556         -45.8986         52.0942         -45.8974         52.0874       -0.0255706         141.902
0.629                   -4.50358         160.989         -45.8176          50.222         -45.8164         50.2148       -0.0258549         141.819
