! TOUCHSTONE file generated by CST MICROWAVE STUDIO
! Date and time: Mon Oct 26 12:26:06 2020
! Project name: Scenario_1_Circular_Tissue_out_of_Line.cst
! Parameters = {dy1=-172.59; L_HA=400; MT=2.54; Rad_Dielectric=30; Rad_Lower=7.3; Rad_Upper=30; a_HA=580; a_WG=246; b_HA=500; b_WG=121; c_HA=0; c_WG=187; d_feed=85; dx1=866; h_feed=15; h_lower=18; h_upper=40}
! Header version: 2018
! Port assignment regex: !\s*Touchstone port\s*([0-9]+)\s*=\s*(CST MWS port|CST DS port)\s*([0-9]+|Zmin|Zmax)\s*\(\"(.*)\"\)(\s*mode\s*([0-9]+))?.*
! Touchstone port assignment:
! Touchstone port 1 = CST MWS port 1 ("")
! Touchstone port 2 = CST MWS port 2 ("")
# GHz S DB R 50
0.5                    -0.144718        -122.425         -63.4491         96.2685         -63.4491         96.2685       -0.0074206         151.137
0.501                  -0.151192        -122.844         -63.3191         93.7383         -63.3191         93.7383      -0.00749443         151.071
0.502                  -0.157791        -123.265         -63.1846         91.2198         -63.1846         91.2199      -0.00756885         151.006
0.503                   -0.16452        -123.689          -63.046         88.7139          -63.046          88.714      -0.00764386         150.941
0.504                  -0.171383        -124.116         -62.9035         86.2212         -62.9035         86.2212      -0.00771947         150.875
0.505                  -0.178384        -124.545         -62.7573          83.742         -62.7573         83.7421      -0.00779568          150.81
0.506                  -0.185528        -124.977         -62.6077         81.2768         -62.6077         81.2769      -0.00787251         150.744
0.507                   -0.19282        -125.411          -62.455         78.8258          -62.455         78.8259      -0.00794995         150.678
0.508                  -0.200263        -125.848         -62.2994         76.3891         -62.2994         76.3892      -0.00802801         150.613
0.509                  -0.207864        -126.288         -62.1411         73.9667         -62.1412         73.9668       -0.0081067         150.547
0.51                   -0.215626         -126.73         -61.9805         71.5586         -61.9805         71.5586      -0.00818602         150.481
0.511                  -0.223555        -127.175         -61.8177         69.1644         -61.8177         69.1645      -0.00826599         150.415
0.512                  -0.231656        -127.623          -61.653          66.784          -61.653         66.7841       -0.0083466         150.349
0.513                  -0.239933        -128.073         -61.4865         64.4171         -61.4866         64.4172      -0.00842786         150.283
0.514                  -0.248393        -128.526         -61.3186         62.0632         -61.3186         62.0633      -0.00850978         150.216
0.515                  -0.257039        -128.982         -61.1493         59.7219         -61.1493          59.722      -0.00859238          150.15
0.516                  -0.265879        -129.441         -60.9789         57.3926          -60.979         57.3927      -0.00867564         150.084
0.517                  -0.274916        -129.902         -60.8076          55.075         -60.8077         55.0751      -0.00875959         150.017
0.518                  -0.284156        -130.366         -60.6355         52.7683         -60.6356         52.7684      -0.00884422         149.951
0.519                  -0.293606        -130.833         -60.4629          50.472         -60.4629         50.4721      -0.00892955         149.884
0.52                   -0.303271        -131.303         -60.2898         48.1855         -60.2898         48.1856      -0.00901558         149.817
0.521                  -0.313156        -131.775         -60.1163         45.9081         -60.1164         45.9082      -0.00910232          149.75
0.522                  -0.323268        -132.251         -59.9428         43.6393         -59.9428         43.6393      -0.00918979         149.684
0.523                  -0.333613        -132.729         -59.7692         41.3782         -59.7692         41.3783      -0.00927797         149.617
0.524                  -0.344195         -133.21         -59.5957         39.1243         -59.5957         39.1244       -0.0093669         149.549
0.525                  -0.355023        -133.694         -59.4224          36.877         -59.4224          36.877      -0.00945656         149.482
0.526                  -0.366101        -134.181         -59.2494         34.6355         -59.2494         34.6356      -0.00954698         149.415
0.527                  -0.377436        -134.671         -59.0768         32.3993         -59.0769         32.3993      -0.00963816         149.348
0.528                  -0.389034        -135.163         -58.9048         30.1676         -58.9048         30.1677       -0.0097301          149.28
0.529                  -0.400903        -135.659         -58.7334           27.94         -58.7334           27.94      -0.00982282         149.213
0.53                   -0.413048        -136.157         -58.5627         25.7157         -58.5627         25.7158      -0.00991633         149.145
0.531                  -0.425476        -136.659         -58.3927         23.4943         -58.3927         23.4943       -0.0100106         149.077
0.532                  -0.438193        -137.163         -58.2236         21.2751         -58.2237         21.2751       -0.0101057          149.01
0.533                  -0.451207         -137.67         -58.0555         19.0575         -58.0555         19.0575       -0.0102017         148.942
0.534                  -0.464525         -138.18         -57.8883         16.8411         -57.8883         16.8411       -0.0102984         148.874
0.535                  -0.478153        -138.693         -57.7222         14.6253         -57.7222         14.6254        -0.010396         148.806
0.536                  -0.492098        -139.209         -57.5572         12.4097         -57.5572         12.4097       -0.0104944         148.737
0.537                  -0.506367        -139.728         -57.3933         10.1938         -57.3933         10.1938       -0.0105937         148.669
0.538                  -0.520968         -140.25         -57.2307         7.97713         -57.2307         7.97714       -0.0106938         148.601
0.539                  -0.535908        -140.775         -57.0693         5.75929         -57.0694          5.7593       -0.0107948         148.532
0.54                   -0.551193        -141.303         -56.9093         3.53989         -56.9093         3.53989       -0.0108967         148.464
0.541                  -0.566832        -141.834         -56.7506         1.31856         -56.7506         1.31856       -0.0109995         148.395
0.542                  -0.582832        -142.368         -56.5934       -0.905031         -56.5934       -0.905031       -0.0111032         148.326
0.543                  -0.599201        -142.905         -56.4375        -3.13121         -56.4375        -3.13121       -0.0112078         148.257
0.544                  -0.615945        -143.444         -56.2831        -5.36027         -56.2831        -5.36028       -0.0113133         148.188
0.545                  -0.633072        -143.987         -56.1303        -7.59247         -56.1303        -7.59248       -0.0114198         148.119
0.546                  -0.650591        -144.533         -55.9789        -9.82807         -55.9789        -9.82808       -0.0115272          148.05
0.547                  -0.668508        -145.082         -55.8292        -12.0673         -55.8292        -12.0673       -0.0116356          147.98
0.548                  -0.686832        -145.633          -55.681        -14.3103          -55.681        -14.3103       -0.0117449         147.911
0.549                  -0.705571        -146.188         -55.5344        -16.5573         -55.5344        -16.5573       -0.0118552         147.841
0.55                   -0.724732        -146.745         -55.3895        -18.8084         -55.3894        -18.8084       -0.0119665         147.772
0.551                  -0.744323        -147.306         -55.2461        -21.0637         -55.2461        -21.0637       -0.0120788         147.702
0.552                  -0.764352        -147.869         -55.1045        -23.3234         -55.1045        -23.3235       -0.0121921         147.632
0.553                  -0.784827        -148.436         -54.9645        -25.5876         -54.9645        -25.5876       -0.0123065         147.562
0.554                  -0.805757        -149.005         -54.8263        -27.8562         -54.8262        -27.8562       -0.0124219         147.492
0.555                  -0.827149        -149.577         -54.6897        -30.1293         -54.6897        -30.1294       -0.0125383         147.422
0.556                  -0.849011        -150.152         -54.5548         -32.407         -54.5548        -32.4071       -0.0126557         147.351
0.557                  -0.871351         -150.73         -54.4216        -34.6893         -54.4216        -34.6893       -0.0127743         147.281
0.558                  -0.894178        -151.311         -54.2902        -36.9761         -54.2901        -36.9761       -0.0128939          147.21
0.559                    -0.9175        -151.895         -54.1604        -39.2674         -54.1604        -39.2674       -0.0130145         147.139
0.56                   -0.941325        -152.482         -54.0323        -41.5631         -54.0323        -41.5631       -0.0131363         147.069
0.561                  -0.965661        -153.071          -53.906        -43.8632          -53.906        -43.8632       -0.0132591         146.998
0.562                  -0.990516        -153.664         -53.7813        -46.1675         -53.7813        -46.1676       -0.0133831         146.926
0.563                    -1.0159        -154.259         -53.6583        -48.4761         -53.6583        -48.4762       -0.0135081         146.855
0.564                   -1.04182        -154.857          -53.537        -50.7888          -53.537        -50.7888       -0.0136343         146.784
0.565                   -1.06828        -155.458         -53.4174        -53.1054         -53.4174        -53.1054       -0.0137615         146.712
0.566                   -1.09529        -156.061         -53.2994        -55.4258         -53.2993        -55.4258       -0.0138898         146.641
0.567                   -1.12287        -156.668          -53.183        -57.7499         -53.1829          -57.75       -0.0140193         146.569
0.568                   -1.15101        -157.277         -53.0682        -60.0775         -53.0681        -60.0776       -0.0141498         146.497
0.569                   -1.17973        -157.889         -52.9549        -62.4086         -52.9549        -62.4086       -0.0142814         146.425
0.57                    -1.20903        -158.503         -52.8433        -64.7428         -52.8432        -64.7428       -0.0144141         146.353
0.571                   -1.23893         -159.12         -52.7331          -67.08         -52.7331        -67.0801       -0.0145479         146.281
0.572                   -1.26942         -159.74         -52.6245        -69.4201         -52.6244        -69.4202       -0.0146826         146.208
0.573                   -1.30053        -160.363         -52.5173        -71.7629         -52.5172        -71.7629       -0.0148184         146.136
0.574                   -1.33225        -160.988         -52.4115        -74.1081         -52.4115        -74.1082       -0.0149551         146.063
0.575                    -1.3646        -161.616         -52.3071        -76.4557         -52.3071        -76.4558       -0.0150928          145.99
0.576                   -1.39758        -162.246         -52.2041        -78.8054         -52.2041        -78.8054       -0.0152314         145.917
0.577                    -1.4312        -162.879         -52.1024         -81.157         -52.1024         -81.157       -0.0153708         145.844
0.578                   -1.46547        -163.514          -52.002        -83.5103          -52.002        -83.5104       -0.0155109         145.771
0.579                   -1.50039        -164.152         -51.9029        -85.8652         -51.9028        -85.8652       -0.0156518         145.697
0.58                    -1.53598        -164.793         -51.8049        -88.2214         -51.8049        -88.2215       -0.0157934         145.623
0.581                   -1.57225        -165.436         -51.7081        -90.5789         -51.7081        -90.5789       -0.0159355          145.55
0.582                   -1.60919        -166.081         -51.6124        -92.9373         -51.6124        -92.9374       -0.0160782         145.476
0.583                   -1.64681        -166.729         -51.5178        -95.2966         -51.5178        -95.2966       -0.0162214         145.402
0.584                   -1.68514        -167.379         -51.4242        -97.6565         -51.4242        -97.6566       -0.0163652         145.327
0.585                   -1.72416        -168.031         -51.3316        -100.017         -51.3316        -100.017       -0.0165096         145.253
0.586                    -1.7639        -168.686         -51.2399        -102.378         -51.2399        -102.378        -0.016655         145.178
0.587                   -1.80435        -169.343         -51.1492        -104.739         -51.1492        -104.739       -0.0168017         145.104
0.588                   -1.84553        -170.002         -51.0593          -107.1         -51.0592          -107.1       -0.0169503         145.029
0.589                   -1.88744        -170.664         -50.9701        -109.461         -50.9701        -109.461       -0.0171017         144.953
0.59                    -1.93008        -171.328         -50.8818        -111.821         -50.8818        -111.821       -0.0172569         144.878
0.591                   -1.97348        -171.994         -50.7941        -114.182         -50.7941        -114.182       -0.0174174         144.802
0.592                   -2.01763        -172.662         -50.7072        -116.541         -50.7072        -116.541       -0.0175844         144.727
0.593                   -2.06254        -173.333         -50.6208          -118.9         -50.6208          -118.9        -0.017759         144.651
0.594                   -2.10822        -174.006         -50.5351        -121.259         -50.5351        -121.259       -0.0179421         144.574
0.595                   -2.15467         -174.68         -50.4499        -123.617         -50.4499        -123.617       -0.0181336         144.498
0.596                   -2.20191        -175.357         -50.3651        -125.973         -50.3651        -125.973       -0.0183329         144.422
0.597                   -2.24994        -176.036         -50.2809        -128.329         -50.2809        -128.329       -0.0185389         144.345
0.598                   -2.29876        -176.717         -50.1971        -130.684         -50.1971        -130.684         -0.01875         144.268
0.599                   -2.34839          -177.4         -50.1136        -133.037         -50.1136        -133.037       -0.0189647         144.191
0.6                     -2.39883        -178.085         -50.0305         -135.39         -50.0306         -135.39       -0.0191819         144.114
0.601                   -2.45009        -178.772         -49.9478        -137.741         -49.9478        -137.741       -0.0194004         144.037
0.602                   -2.50218        -179.461         -49.8653         -140.09         -49.8653         -140.09       -0.0196198         143.959
0.603                    -2.5551         179.848         -49.7831        -142.439         -49.7831        -142.439       -0.0198397         143.882
0.604                   -2.60886         179.155         -49.7011        -144.786         -49.7011        -144.786       -0.0200601         143.804
0.605                   -2.66347         178.459         -49.6192        -147.131         -49.6192        -147.131       -0.0202811         143.726
0.606                   -2.71894         177.762         -49.5376        -149.476         -49.5376        -149.476       -0.0205027         143.648
0.607                   -2.77528         177.063         -49.4561        -151.818         -49.4561        -151.818       -0.0207253         143.569
0.608                   -2.83249         176.362         -49.3747        -154.159         -49.3747        -154.159        -0.020949         143.491
0.609                   -2.89058         175.659         -49.2934        -156.499         -49.2934        -156.499       -0.0211742         143.412
0.61                    -2.94956         174.954         -49.2122        -158.837         -49.2122        -158.837       -0.0214009         143.333
0.611                   -3.00944         174.247         -49.1311        -161.174         -49.1311        -161.174       -0.0216295         143.254
0.612                   -3.07023         173.538           -49.05        -163.509           -49.05        -163.509       -0.0218601         143.174
0.613                   -3.13194         172.827         -48.9689        -165.843         -48.9689        -165.842       -0.0220929         143.095
0.614                   -3.19458         172.114         -48.8879        -168.175         -48.8879        -168.175       -0.0223281         143.015
0.615                   -3.25816         171.398         -48.8069        -170.505         -48.8069        -170.505       -0.0225658         142.935
0.616                   -3.32269         170.681         -48.7259        -172.834         -48.7259        -172.834       -0.0228062         142.854
0.617                   -3.38818         169.961         -48.6449        -175.162         -48.6449        -175.162       -0.0230494         142.774
0.618                   -3.45465         169.239         -48.5639        -177.488         -48.5639        -177.488       -0.0232955         142.693
0.619                    -3.5221         168.515         -48.4828        -179.813         -48.4828        -179.813       -0.0235446         142.612
0.62                    -3.59055         167.789         -48.4018         177.863         -48.4018         177.863       -0.0237968          142.53
0.621                   -3.66003          167.06         -48.3208         175.541         -48.3208         175.541       -0.0240523         142.449
0.622                   -3.73053         166.328         -48.2397         173.221         -48.2397         173.221       -0.0243111         142.367
0.623                   -3.80208         165.594         -48.1587         170.901         -48.1587         170.901       -0.0245734         142.285
0.624                    -3.8747         164.857         -48.0777         168.583         -48.0777         168.583       -0.0248392         142.203
0.625                    -3.9484         164.117         -47.9967         166.267         -47.9967         166.267       -0.0251086          142.12
0.626                   -4.02321         163.375         -47.9157         163.951         -47.9157         163.951       -0.0253818         142.037
0.627                   -4.09914         162.629         -47.8348         161.637         -47.8348         161.637       -0.0256587         141.954
0.628                   -4.17622          161.88         -47.7539         159.324         -47.7539         159.324       -0.0259396         141.871
0.629                   -4.25448         161.127          -47.673         157.012         -47.6731         157.012       -0.0262245         141.787
