! TOUCHSTONE file generated by CST MICROWAVE STUDIO
! Date and time: Sat Oct 24 11:44:14 2020
! Project name: Scenario_1_Circular_Tissue_out_of_Line.cst
! Parameters = {dy1=-172.59; L_HA=400; MT=2.54; Rad_Dielectric=30; Rad_Lower=7.3; Rad_Upper=30; a_HA=580; a_WG=246; b_HA=500; b_WG=121; c_HA=0; c_WG=187; d_feed=85; dx1=1039; h_feed=15; h_lower=18; h_upper=40}
! Header version: 2018
! Port assignment regex: !\s*Touchstone port\s*([0-9]+)\s*=\s*(CST MWS port|CST DS port)\s*([0-9]+|Zmin|Zmax)\s*\(\"(.*)\"\)(\s*mode\s*([0-9]+))?.*
! Touchstone port assignment:
! Touchstone port 1 = CST MWS port 1 ("")
! Touchstone port 2 = CST MWS port 2 ("")
# GHz S DB R 50
0.5                    -0.145898        -122.257         -63.9308        -4.05114         -63.9308        -4.05114      -0.00759088         151.131
0.501                  -0.159382        -122.729          -63.671        -5.92765          -63.671        -5.92837      -0.00764821         151.065
0.502                  -0.172885        -123.201         -63.4149        -7.84136         -63.4147        -7.84278      -0.00770649             151
0.503                  -0.186402        -123.673         -63.1624        -9.79158         -63.1622        -9.79366       -0.0077657         150.935
0.504                  -0.199933        -124.145         -62.9136        -11.7776         -62.9133        -11.7803      -0.00782587         150.869
0.505                  -0.213473        -124.617         -62.6686        -13.7987         -62.6683         -13.802        -0.007887         150.804
0.506                   -0.22702        -125.089         -62.4274         -15.854         -62.4271        -15.8579      -0.00794909         150.738
0.507                  -0.240572        -125.562         -62.1901        -17.9428         -62.1897        -17.9472      -0.00801215         150.672
0.508                  -0.254127        -126.035         -61.9567        -20.0643         -61.9563        -20.0692      -0.00807618         150.606
0.509                  -0.267682        -126.509         -61.7273        -22.2175         -61.7269        -22.2229       -0.0081412         150.541
0.51                   -0.281236        -126.983         -61.5019        -24.4017         -61.5014        -24.4074      -0.00820721         150.475
0.511                  -0.294788        -127.457         -61.2805        -26.6158         -61.2801         -26.622      -0.00827421         150.409
0.512                  -0.308335        -127.932         -61.0633         -28.859         -61.0628        -28.8655      -0.00834221         150.342
0.513                  -0.321875        -128.408         -60.8501        -31.1302         -60.8497         -31.137      -0.00841122         150.276
0.514                  -0.335409        -128.884         -60.6411        -33.4285         -60.6407        -33.4355      -0.00848125          150.21
0.515                  -0.348935        -129.361         -60.4362        -35.7528         -60.4358          -35.76      -0.00855229         150.144
0.516                  -0.362452        -129.838         -60.2356         -38.102         -60.2351        -38.1094      -0.00862437         150.077
0.517                  -0.375959        -130.317          -60.039        -40.4751         -60.0387        -40.4826      -0.00869748         150.011
0.518                  -0.389456        -130.796         -59.8467        -42.8709         -59.8463        -42.8785      -0.00877164         149.944
0.519                  -0.402943        -131.276         -59.6585        -45.2884         -59.6582        -45.2961      -0.00884684         149.877
0.52                   -0.416419        -131.757         -59.4745        -47.7265         -59.4742        -47.7342       -0.0089231          149.81
0.521                  -0.429885        -132.239         -59.2946        -50.1839         -59.2943        -50.1916      -0.00900043         149.744
0.522                  -0.443342        -132.722         -59.1187        -52.6597         -59.1184        -52.6673      -0.00907884         149.677
0.523                  -0.456789        -133.206         -58.9469        -55.1526         -58.9466        -55.1602      -0.00915832          149.61
0.524                  -0.470228        -133.691          -58.779        -57.6616         -58.7788        -57.6691      -0.00923889         149.542
0.525                   -0.48366        -134.177          -58.615        -60.1855         -58.6149        -60.1928      -0.00932056         149.475
0.526                  -0.497086        -134.665         -58.4549        -62.7233         -58.4548        -62.7305      -0.00940333         149.408
0.527                  -0.510508        -135.154         -58.2986        -65.2739         -58.2984        -65.2809      -0.00948721         149.341
0.528                  -0.523927        -135.644         -58.1459        -67.8362         -58.1458        -67.8431      -0.00957222         149.273
0.529                  -0.537346        -136.136         -57.9967        -70.4093         -57.9967         -70.416      -0.00965836         149.205
0.53                   -0.550766        -136.629         -57.8511        -72.9922          -57.851        -72.9986      -0.00974564         149.138
0.531                  -0.564192        -137.124         -57.7088         -75.584         -57.7088        -75.5901      -0.00983406          149.07
0.532                  -0.577625         -137.62         -57.5698        -78.1837         -57.5698        -78.1896      -0.00992364         149.002
0.533                  -0.591069        -138.118         -57.4339        -80.7904         -57.4339         -80.796       -0.0100144         148.934
0.534                  -0.604528        -138.618          -57.301        -83.4034          -57.301        -83.4088       -0.0101063         148.866
0.535                  -0.618005         -139.12          -57.171        -86.0219          -57.171         -86.027       -0.0101994         148.798
0.536                  -0.631505        -139.623         -57.0438        -88.6452         -57.0438          -88.65       -0.0102937          148.73
0.537                  -0.645031        -140.128         -56.9191        -91.2725         -56.9192         -91.277       -0.0103892         148.661
0.538                   -0.65859        -140.635          -56.797        -93.9033         -56.7971        -93.9075       -0.0104859         148.593
0.539                  -0.672186        -141.144         -56.6773        -96.5369         -56.6773        -96.5408       -0.0105839         148.524
0.54                   -0.685825        -141.656         -56.5597        -99.1728         -56.5598        -99.1764       -0.0106831         148.456
0.541                  -0.699513        -142.169         -56.4443         -101.81         -56.4443        -101.814       -0.0107835         148.387
0.542                  -0.713257        -142.684         -56.3308         -104.45         -56.3309        -104.453       -0.0108852         148.318
0.543                  -0.727063        -143.202         -56.2191        -107.089         -56.2192        -107.092       -0.0109881         148.249
0.544                  -0.740938        -143.722         -56.1091         -109.73         -56.1092        -109.733       -0.0110923          148.18
0.545                   -0.75489        -144.245         -56.0007        -112.371         -56.0008        -112.373       -0.0111978         148.111
0.546                  -0.768928         -144.77         -55.8937        -115.011         -55.8938        -115.013       -0.0113046         148.042
0.547                   -0.78306        -145.297         -55.7881        -117.652         -55.7882        -117.653       -0.0114128         147.972
0.548                  -0.797295        -145.827         -55.6836        -120.291         -55.6837        -120.293       -0.0115222         147.903
0.549                  -0.811642        -146.359         -55.5803         -122.93         -55.5803        -122.932        -0.011633         147.833
0.55                   -0.826112        -146.894         -55.4779        -125.568         -55.4779        -125.569       -0.0117451         147.763
0.551                  -0.840715        -147.432         -55.3763        -128.205         -55.3764        -128.206       -0.0118586         147.693
0.552                  -0.855463        -147.973         -55.2756        -130.841         -55.2756        -130.841       -0.0119735         147.624
0.553                  -0.870366        -148.516         -55.1755        -133.475         -55.1755        -133.476       -0.0120897         147.553
0.554                  -0.885439        -149.063          -55.076        -136.108          -55.076        -136.108       -0.0122074         147.483
0.555                  -0.900692        -149.612         -54.9769        -138.739         -54.9769         -138.74       -0.0123264         147.413
0.556                   -0.91614        -150.164         -54.8783        -141.369         -54.8783         -141.37       -0.0124469         147.343
0.557                  -0.931797        -150.719           -54.78        -143.998           -54.78        -143.998       -0.0125688         147.272
0.558                  -0.947678        -151.278         -54.6819        -146.625         -54.6819        -146.625       -0.0126921         147.201
0.559                  -0.963797        -151.839         -54.5841         -149.25          -54.584         -149.25        -0.012817         147.131
0.56                   -0.980172        -152.404         -54.4863        -151.874         -54.4863        -151.874       -0.0129432          147.06
0.561                  -0.996819        -152.972         -54.3886        -154.497         -54.3886        -154.496        -0.013071         146.989
0.562                   -1.01376        -153.543         -54.2909        -157.117         -54.2909        -157.117       -0.0132003         146.917
0.563                     -1.031        -154.117         -54.1932        -159.737         -54.1932        -159.736        -0.013331         146.846
0.564                   -1.04857        -154.695         -54.0954        -162.355         -54.0954        -162.354       -0.0134633         146.775
0.565                   -1.06649        -155.277         -53.9975        -164.972         -53.9974        -164.971       -0.0135971         146.703
0.566                   -1.08477        -155.861         -53.8994        -167.587         -53.8994        -167.586       -0.0137325         146.632
0.567                   -1.10345         -156.45         -53.8011        -170.201         -53.8011          -170.2       -0.0138694          146.56
0.568                   -1.12254        -157.041         -53.7027        -172.814         -53.7026        -172.813       -0.0140078         146.488
0.569                   -1.14206        -157.637          -53.604        -175.425         -53.6039        -175.425       -0.0141478         146.416
0.57                    -1.16204        -158.236          -53.505        -178.036         -53.5049        -178.035       -0.0142893         146.344
0.571                    -1.1825        -158.838         -53.4057         179.355         -53.4057         179.356       -0.0144324         146.271
0.572                   -1.20348        -159.444         -53.3062         176.747         -53.3062         176.747       -0.0145771         146.199
0.573                   -1.22499        -160.054         -53.2064          174.14         -53.2063          174.14       -0.0147233         146.126
0.574                   -1.24706        -160.667         -53.1063         171.533         -53.1063         171.534       -0.0148711         146.053
0.575                   -1.26973        -161.284         -53.0059         168.928         -53.0059         168.929       -0.0150204         145.981
0.576                   -1.29303        -161.905         -52.9052         166.324         -52.9052         166.324       -0.0151713         145.908
0.577                   -1.31698         -162.53         -52.8043          163.72         -52.8042         163.721       -0.0153236         145.834
0.578                   -1.34161        -163.158          -52.703         161.118          -52.703         161.118       -0.0154774         145.761
0.579                   -1.36697         -163.79         -52.6015         158.516         -52.6015         158.516       -0.0156327         145.688
0.58                    -1.39308        -164.426         -52.4997         155.915         -52.4997         155.915       -0.0157894         145.614
0.581                   -1.41998        -165.065         -52.3977         153.314         -52.3977         153.315       -0.0159475          145.54
0.582                   -1.44771        -165.709         -52.2955         150.715         -52.2954         150.715       -0.0161069         145.466
0.583                   -1.47631        -166.356          -52.193         148.116          -52.193         148.116       -0.0162676         145.392
0.584                    -1.5058        -167.006         -52.0904         145.518         -52.0903         145.518       -0.0164295         145.318
0.585                   -1.53624        -167.661         -51.9876          142.92         -51.9875         142.921       -0.0165926         145.244
0.586                   -1.56766        -168.319         -51.8846         140.323         -51.8846         140.324       -0.0167568         145.169
0.587                    -1.6001        -168.981         -51.7816         137.727         -51.7815         137.728       -0.0169221         145.094
0.588                   -1.63361        -169.646         -51.6784         135.132         -51.6784         135.132       -0.0170884         145.019
0.589                   -1.66823        -170.316         -51.5752         132.537         -51.5751         132.537       -0.0172557         144.944
0.59                    -1.70401        -170.989         -51.4719         129.943         -51.4718         129.943        -0.017424         144.869
0.591                   -1.74099        -171.665         -51.3686          127.35         -51.3686          127.35       -0.0175934         144.794
0.592                   -1.77922        -172.346         -51.2653         124.757         -51.2653         124.757       -0.0177638         144.718
0.593                   -1.81874         -173.03         -51.1621         122.165          -51.162         122.165       -0.0179355         144.643
0.594                    -1.8596        -173.718         -51.0589         119.573         -51.0589         119.574       -0.0181085         144.567
0.595                   -1.90185        -174.409         -50.9558         116.983         -50.9558         116.983        -0.018283          144.49
0.596                   -1.94553        -175.104         -50.8529         114.393         -50.8529         114.393       -0.0184592         144.414
0.597                   -1.99071        -175.803         -50.7501         111.804         -50.7501         111.804       -0.0186375         144.338
0.598                   -2.03741        -176.505         -50.6475         109.215         -50.6475         109.215        -0.018818         144.261
0.599                    -2.0857        -177.211         -50.5452         106.628         -50.5452         106.628       -0.0190012         144.184
0.6                     -2.13562        -177.921          -50.443         104.041          -50.443         104.041       -0.0191871         144.107
0.601                   -2.18721        -178.635         -50.3412         101.455         -50.3412         101.455       -0.0193762          144.03
0.602                   -2.24052        -179.353         -50.2397         98.8701         -50.2397         98.8701       -0.0195687         143.952
0.603                    -2.2956         179.926         -50.1385         96.2859         -50.1385         96.2859       -0.0197646         143.875
0.604                   -2.35248           179.2         -50.0376         93.7027         -50.0376         93.7027       -0.0199643         143.797
0.605                   -2.41121         178.471         -49.9372         91.1204         -49.9372         91.1204       -0.0201678         143.719
0.606                   -2.47183         177.737         -49.8371         88.5391         -49.8371         88.5391       -0.0203751          143.64
0.607                   -2.53436             177         -49.7375         85.9588         -49.7376         85.9588       -0.0205863         143.562
0.608                   -2.59885         176.258         -49.6384         83.3796         -49.6384         83.3795       -0.0208013         143.483
0.609                   -2.66531         175.511         -49.5398         80.8014         -49.5398         80.8014       -0.0210202         143.404
0.61                    -2.73377         174.761         -49.4417         78.2244         -49.4417         78.2244       -0.0212429         143.325
0.611                   -2.80425         174.005         -49.3441         75.6485         -49.3441         75.6485       -0.0214693         143.246
0.612                   -2.87677         173.245         -49.2471         73.0738         -49.2471         73.0738       -0.0216995         143.166
0.613                   -2.95132          172.48         -49.1507         70.5004         -49.1507         70.5004       -0.0219333         143.086
0.614                   -3.02791         171.709         -49.0549         67.9282         -49.0549         67.9282       -0.0221708         143.006
0.615                   -3.10654         170.934         -48.9597         65.3574         -48.9597         65.3574       -0.0224118         142.926
0.616                   -3.18719         170.154         -48.8651         62.7879         -48.8651         62.7879       -0.0226564         142.846
0.617                   -3.26985         169.368         -48.7713         60.2198         -48.7712         60.2198       -0.0229045         142.765
0.618                   -3.35448         168.577         -48.6781         57.6531          -48.678         57.6532       -0.0231562         142.684
0.619                   -3.44106          167.78         -48.5856         55.0879         -48.5855          55.088       -0.0234114         142.603
0.62                    -3.52955         166.978         -48.4938         52.5243         -48.4938         52.5243       -0.0236702         142.522
0.621                   -3.61989          166.17         -48.4027         49.9622         -48.4027         49.9622       -0.0239325          142.44
0.622                   -3.71205         165.357         -48.3124         47.4017         -48.3124         47.4018       -0.0241985         142.358
0.623                   -3.80595         164.539         -48.2229         44.8429         -48.2228         44.8429        -0.024468         142.276
0.624                   -3.90153         163.715         -48.1341         42.2858         -48.1341         42.2858       -0.0247412         142.194
0.625                   -3.99873         162.886         -48.0461         39.7305         -48.0461         39.7305       -0.0250181         142.111
0.626                   -4.09747         162.052         -47.9589         37.1769         -47.9588          37.177       -0.0252988         142.028
0.627                   -4.19767         161.213         -47.8725         34.6252         -47.8724         34.6253       -0.0255833         141.945
0.628                   -4.29925          160.37         -47.7869         32.0755         -47.7868         32.0755       -0.0258716         141.862
0.629                   -4.40214         159.523         -47.7021         29.5277         -47.7021         29.5277       -0.0261639         141.778
