! TOUCHSTONE file generated by CST MICROWAVE STUDIO
! Date and time: Mon Oct 26 12:06:05 2020
! Project name: Scenario_1_Circular_Tissue_out_of_Line_v2.cst
! Parameters = {dy1=-155.7; L_HA=400; MT=2.54; Rad_Dielectric=30; Rad_Lower=7.3; Rad_Upper=30; a_HA=580; a_WG=246; b_HA=500; b_WG=121; c_HA=0; c_WG=187; d_feed=85; dx1=173; h_feed=15; h_lower=18; h_upper=40}
! Header version: 2018
! Port assignment regex: !\s*Touchstone port\s*([0-9]+)\s*=\s*(CST MWS port|CST DS port)\s*([0-9]+|Zmin|Zmax)\s*\(\"(.*)\"\)(\s*mode\s*([0-9]+))?.*
! Touchstone port assignment:
! Touchstone port 1 = CST MWS port 1 ("")
! Touchstone port 2 = CST MWS port 2 ("")
# GHz S DB R 50
0.5                    -0.121269        -122.561         -58.4583         129.684         -58.4583         129.684      -0.00687205         151.116
0.501                  -0.126262         -123.01         -58.2503         128.686         -58.2503         128.686      -0.00692493         151.051
0.502                  -0.131487        -123.461         -58.0411         127.672         -58.0411         127.672      -0.00697843         150.985
0.503                  -0.136956        -123.916         -57.8309         126.643         -57.8309         126.643      -0.00703257          150.92
0.504                  -0.142681        -124.373         -57.6195         125.599         -57.6195         125.599      -0.00708737         150.854
0.505                  -0.148673        -124.833         -57.4072         124.538         -57.4072         124.538      -0.00714286         150.788
0.506                  -0.154947        -125.296         -57.1939          123.46         -57.1939          123.46      -0.00719908         150.723
0.507                  -0.161515        -125.762         -56.9797         122.366         -56.9797         122.366      -0.00725606         150.657
0.508                  -0.168391         -126.23         -56.7646         121.254         -56.7646         121.254      -0.00731382         150.591
0.509                   -0.17559        -126.701         -56.5488         120.125         -56.5488         120.125      -0.00737242         150.525
0.51                   -0.183125        -127.175         -56.3322         118.977         -56.3322         118.977      -0.00743189         150.459
0.511                  -0.191012        -127.652         -56.1149         117.811         -56.1149         117.811      -0.00749227         150.393
0.512                  -0.199266        -128.131         -55.8971         116.627         -55.8971         116.627       -0.0075536         150.326
0.513                  -0.207902        -128.613         -55.6787         115.424         -55.6787         115.424      -0.00761594          150.26
0.514                  -0.216936        -129.098         -55.4598         114.201         -55.4598         114.201      -0.00767934         150.194
0.515                  -0.226385        -129.586         -55.2406         112.959         -55.2406         112.959      -0.00774385         150.127
0.516                  -0.236264        -130.076         -55.0211         111.697         -55.0211         111.697      -0.00780953         150.061
0.517                  -0.246589        -130.568         -54.8014         110.415         -54.8014         110.415      -0.00787644         149.994
0.518                  -0.257376        -131.063         -54.5816         109.112         -54.5816         109.112      -0.00794464         149.927
0.519                  -0.268642        -131.561         -54.3618         107.788         -54.3618         107.788       -0.0080142          149.86
0.52                   -0.280402         -132.06          -54.142         106.444          -54.142         106.444      -0.00808519         149.793
0.521                  -0.292671        -132.562         -53.9225         105.078         -53.9225         105.078      -0.00815768         149.726
0.522                  -0.305464        -133.066         -53.7032         103.691         -53.7032         103.691      -0.00823174         149.659
0.523                  -0.318796        -133.573         -53.4844         102.282         -53.4844         102.282      -0.00830747         149.592
0.524                  -0.332681        -134.081         -53.2661         100.852         -53.2661         100.852      -0.00838493         149.524
0.525                   -0.34713         -134.59         -53.0484         99.3996         -53.0484         99.3996      -0.00846421         149.457
0.526                  -0.362155        -135.102         -52.8316         97.9256         -52.8316         97.9256      -0.00854539         149.389
0.527                  -0.377766        -135.614         -52.6156         96.4296         -52.6156         96.4296      -0.00862857         149.322
0.528                  -0.393973        -136.128         -52.4007         94.9117         -52.4007         94.9117      -0.00871384         149.254
0.529                  -0.410782        -136.644         -52.1869          93.372         -52.1869          93.372      -0.00880127         149.186
0.53                   -0.428198         -137.16         -51.9745         91.8105         -51.9745         91.8105      -0.00889097         149.118
0.531                  -0.446225        -137.676         -51.7634         90.2275         -51.7634         90.2275      -0.00898302          149.05
0.532                  -0.464862        -138.194          -51.554          88.623          -51.554          88.623      -0.00907751         148.982
0.533                  -0.484109        -138.712         -51.3463         86.9973         -51.3463         86.9973      -0.00917453         148.914
0.534                  -0.503961         -139.23         -51.1404         85.3508         -51.1404         85.3508      -0.00927417         148.846
0.535                   -0.52441        -139.747         -50.9366         83.6838         -50.9366         83.6838       -0.0093765         148.777
0.536                  -0.545446        -140.265         -50.7349         81.9968         -50.7349         81.9968      -0.00948161         148.709
0.537                  -0.567056        -140.782         -50.5355         80.2902         -50.5355         80.2902      -0.00958957          148.64
0.538                  -0.589221        -141.299         -50.3385         78.5646         -50.3385         78.5646      -0.00970044         148.571
0.539                  -0.611923        -141.814         -50.1441         76.8206         -50.1441         76.8206      -0.00981428         148.502
0.54                   -0.635138        -142.329         -49.9523         75.0588         -49.9523         75.0588      -0.00993116         148.434
0.541                  -0.658837        -142.842         -49.7634         73.2801         -49.7634         73.2801       -0.0100511         148.364
0.542                   -0.68299        -143.353         -49.5773         71.4852         -49.5773         71.4852       -0.0101742         148.295
0.543                  -0.707564        -143.863         -49.3943         69.6749         -49.3943         69.6749       -0.0103004         148.226
0.544                  -0.732521        -144.372         -49.2145         67.8501         -49.2145         67.8501       -0.0104297         148.157
0.545                   -0.75782        -144.878         -49.0379         66.0119         -49.0379         66.0119       -0.0105622         148.087
0.546                   -0.78342        -145.382         -48.8646         64.1612         -48.8646         64.1612       -0.0106978         148.018
0.547                  -0.809275        -145.885         -48.6947          62.299         -48.6947          62.299       -0.0108366         147.948
0.548                  -0.835337        -146.385         -48.5283         60.4265         -48.5283         60.4265       -0.0109785         147.878
0.549                  -0.861557        -146.883         -48.3654         58.5447         -48.3654         58.5447       -0.0111234         147.808
0.55                   -0.887886        -147.379         -48.2061         56.6547         -48.2061         56.6547       -0.0112713         147.738
0.551                  -0.914272        -147.873         -48.0504         54.7578         -48.0504         54.7578       -0.0114221         147.668
0.552                  -0.940665        -148.365         -47.8983          52.855         -47.8983          52.855       -0.0115758         147.598
0.553                  -0.967014        -148.855         -47.7499         50.9476         -47.7499         50.9476       -0.0117323         147.528
0.554                  -0.993269        -149.344          -47.605         49.0366          -47.605         49.0366       -0.0118914         147.458
0.555                   -1.01938        -149.831         -47.4638         47.1233         -47.4638         47.1233       -0.0120532         147.387
0.556                   -1.04531        -150.316         -47.3262         45.2088         -47.3262         45.2088       -0.0122174         147.316
0.557                     -1.071        -150.801         -47.1922         43.2942         -47.1922         43.2942       -0.0123839         147.246
0.558                   -1.09642        -151.285         -47.0616         41.3806         -47.0616         41.3806       -0.0125527         147.175
0.559                   -1.12153        -151.768         -46.9345          39.469         -46.9345          39.469       -0.0127236         147.104
0.56                     -1.1463        -152.251         -46.8108         37.5604         -46.8108         37.5604       -0.0128965         147.033
0.561                   -1.17069        -152.734         -46.6903         35.6559         -46.6903         35.6559       -0.0130713         146.962
0.562                   -1.19469        -153.218         -46.5731         33.7562         -46.5731         33.7562       -0.0132479         146.891
0.563                   -1.21827        -153.702          -46.459         31.8623          -46.459         31.8623       -0.0134261         146.819
0.564                   -1.24141        -154.188         -46.3479         29.9749         -46.3479         29.9749       -0.0136058         146.748
0.565                   -1.26412        -154.676         -46.2398         28.0948         -46.2398         28.0948        -0.013787         146.676
0.566                   -1.28637        -155.165         -46.1344         26.2227         -46.1344         26.2227       -0.0139694         146.604
0.567                   -1.30817        -155.658         -46.0318         24.3593         -46.0318         24.3593       -0.0141531         146.533
0.568                   -1.32953        -156.153         -45.9317         22.5049         -45.9317         22.5049        -0.014338         146.461
0.569                   -1.35046        -156.651         -45.8341         20.6603         -45.8341         20.6603       -0.0145239         146.389
0.57                    -1.37096        -157.153         -45.7387         18.8257         -45.7387         18.8257       -0.0147108         146.316
0.571                   -1.39105        -157.659         -45.6456         17.0016         -45.6456         17.0016       -0.0148986         146.244
0.572                   -1.41076         -158.17         -45.5546         15.1883         -45.5546         15.1883       -0.0150873         146.171
0.573                   -1.43011        -158.686         -45.4656          13.386         -45.4656          13.386       -0.0152768         146.099
0.574                   -1.44913        -159.206         -45.3784         11.5949         -45.3784         11.5949       -0.0154671         146.026
0.575                   -1.46785        -159.733         -45.2929         9.81524         -45.2929         9.81524       -0.0156582         145.953
0.576                    -1.4863        -160.265          -45.209         8.04707          -45.209         8.04707         -0.01585          145.88
0.577                   -1.50453        -160.803         -45.1266         6.29045         -45.1266         6.29045       -0.0160425         145.807
0.578                   -1.52257        -161.348         -45.0455         4.54538         -45.0455         4.54538       -0.0162358         145.734
0.579                   -1.54046        -161.899         -44.9658         2.81185         -44.9658         2.81185       -0.0164297          145.66
0.58                    -1.55825        -162.458         -44.8872         1.08978         -44.8872         1.08978       -0.0166245         145.587
0.581                   -1.57597        -163.023         -44.8097       -0.620939         -44.8097       -0.620939       -0.0168199         145.513
0.582                   -1.59368        -163.596         -44.7331        -2.32043         -44.7331        -2.32043       -0.0170161         145.439
0.583                   -1.61143        -164.177         -44.6574        -4.00887         -44.6574        -4.00887       -0.0172131         145.365
0.584                   -1.62925        -164.765         -44.5825        -5.68644         -44.5825        -5.68644        -0.017411         145.291
0.585                    -1.6472        -165.362         -44.5083        -7.35335         -44.5083        -7.35335       -0.0176097         145.217
0.586                   -1.66532        -165.966         -44.4348        -9.00985         -44.4348        -9.00985       -0.0178093         145.142
0.587                   -1.68367        -166.579         -44.3618        -10.6562         -44.3618        -10.6562       -0.0180099         145.068
0.588                    -1.7023          -167.2         -44.2892        -12.2926         -44.2892        -12.2926       -0.0182114         144.993
0.589                   -1.72125         -167.83         -44.2171        -13.9194         -44.2171        -13.9194        -0.018414         144.918
0.59                    -1.74058        -168.468         -44.1454        -15.5369         -44.1454        -15.5369       -0.0186177         144.843
0.591                   -1.76033        -169.115         -44.0739        -17.1453         -44.0739        -17.1453       -0.0188226         144.767
0.592                   -1.78056        -169.771         -44.0027        -18.7451         -44.0027        -18.7451       -0.0190287         144.692
0.593                   -1.80132        -170.436         -43.9317        -20.3364         -43.9317        -20.3364        -0.019236         144.616
0.594                   -1.82265         -171.11         -43.8608        -21.9197         -43.8608        -21.9197       -0.0194447          144.54
0.595                   -1.84462        -171.793         -43.7901        -23.4951         -43.7901        -23.4951       -0.0196548         144.464
0.596                   -1.86726        -172.485         -43.7194        -25.0632         -43.7194        -25.0632       -0.0198664         144.388
0.597                   -1.89064        -173.186         -43.6488        -26.6241         -43.6488        -26.6241       -0.0200795         144.312
0.598                    -1.9148        -173.896         -43.5782        -28.1782         -43.5782        -28.1782       -0.0202942         144.235
0.599                    -1.9398        -174.616         -43.5075        -29.7258         -43.5075        -29.7258       -0.0205105         144.158
0.6                      -1.9657        -175.344         -43.4369        -31.2673         -43.4369        -31.2673       -0.0207286         144.082
0.601                   -1.99253        -176.082         -43.3661        -32.8029         -43.3661        -32.8029       -0.0209485         144.004
0.602                   -2.02037         -176.83         -43.2953        -34.3329         -43.2953        -34.3329       -0.0211703         143.927
0.603                   -2.04926        -177.586         -43.2245        -35.8577         -43.2245        -35.8577        -0.021394          143.85
0.604                   -2.07925        -178.352         -43.1535        -37.3775         -43.1535        -37.3775       -0.0216197         143.772
0.605                   -2.11041        -179.127         -43.0824        -38.8926         -43.0824        -38.8926       -0.0218475         143.694
0.606                   -2.14279        -179.912         -43.0112        -40.4033         -43.0112        -40.4033       -0.0220774         143.616
0.607                   -2.17646         179.295         -42.9398        -41.9099         -42.9398        -41.9099       -0.0223096         143.537
0.608                   -2.21146         178.492         -42.8683        -43.4125         -42.8683        -43.4125        -0.022544         143.459
0.609                   -2.24785          177.68         -42.7967        -44.9116         -42.7967        -44.9116       -0.0227809          143.38
0.61                    -2.28571         176.859          -42.725        -46.4073          -42.725        -46.4073       -0.0230201         143.301
0.611                   -2.32509         176.028         -42.6532        -47.8999         -42.6532        -47.8999       -0.0232619         143.222
0.612                   -2.36605         175.189         -42.5812        -49.3896         -42.5812        -49.3896       -0.0235063         143.143
0.613                   -2.40867         174.341         -42.5091        -50.8765         -42.5091        -50.8765       -0.0237533         143.063
0.614                   -2.45299         173.484         -42.4369         -52.361         -42.4369         -52.361       -0.0240031         142.983
0.615                    -2.4991         172.618         -42.3646        -53.8433         -42.3646        -53.8433       -0.0242557         142.903
0.616                   -2.54706         171.743         -42.2922        -55.3234         -42.2922        -55.3234       -0.0245112         142.823
0.617                   -2.59694          170.86         -42.2197        -56.8017         -42.2197        -56.8017       -0.0247697         142.742
0.618                   -2.64882         169.969         -42.1471        -58.2782         -42.1471        -58.2782       -0.0250313         142.662
0.619                   -2.70275         169.069         -42.0745        -59.7532         -42.0745        -59.7532        -0.025296         142.581
0.62                    -2.75883         168.161         -42.0018        -61.2268         -42.0018        -61.2268       -0.0255639         142.499
0.621                   -2.81712         167.245         -41.9291        -62.6991         -41.9291        -62.6991       -0.0258351         142.418
0.622                    -2.8777         166.321         -41.8564        -64.1704         -41.8564        -64.1704       -0.0261097         142.336
0.623                   -2.94066          165.39         -41.7837        -65.6407         -41.7837        -65.6407       -0.0263879         142.254
0.624                   -3.00606         164.452          -41.711        -67.1101          -41.711        -67.1101       -0.0266696         142.172
0.625                   -3.07399         163.506         -41.6383        -68.5788         -41.6383        -68.5788       -0.0269549         142.089
0.626                   -3.14454         162.554         -41.5657        -70.0469         -41.5657        -70.0469        -0.027244         142.007
0.627                   -3.21779         161.595         -41.4932        -71.5145         -41.4932        -71.5145        -0.027537         141.924
0.628                   -3.29382         160.631         -41.4208        -72.9816         -41.4208        -72.9816       -0.0278339          141.84
0.629                   -3.37271          159.66         -41.3484        -74.4483         -41.3484        -74.4483       -0.0281349         141.757
