! TOUCHSTONE file generated by CST MICROWAVE STUDIO
! Date and time: Wed Oct 28 19:35:46 2020
! Project name: Scenario_1_Circular_Tissue_out_of_Line_v2.cst
! Parameters = {dy1=-155.7; L_HA=400; MT=2.54; Rad_Dielectric=30; Rad_Lower=7.3; Rad_Upper=30; a_HA=580; a_WG=246; b_HA=500; b_WG=121; c_HA=0; c_WG=187; d_feed=85; dx1=346; h_feed=15; h_lower=18; h_upper=40}
! Header version: 2018
! Port assignment regex: !\s*Touchstone port\s*([0-9]+)\s*=\s*(CST MWS port|CST DS port)\s*([0-9]+|Zmin|Zmax)\s*\(\"(.*)\"\)(\s*mode\s*([0-9]+))?.*
! Touchstone port assignment:
! Touchstone port 1 = CST MWS port 1 ("")
! Touchstone port 2 = CST MWS port 2 ("")
# GHz S DB R 50
0.5                    -0.164798        -122.266         -59.3944          21.819         -59.3944          21.819      -0.00801792         151.141
0.501                  -0.169366        -122.694         -59.2665         20.3167         -59.2666         20.3163      -0.00808598         151.076
0.502                  -0.174017        -123.125         -59.1395         18.8176         -59.1396         18.8169      -0.00815423         151.011
0.503                  -0.178754        -123.558         -59.0133         17.3222         -59.0134         17.3212      -0.00822267         150.946
0.504                  -0.183582        -123.993         -58.8878         15.8306          -58.888         15.8294      -0.00829131          150.88
0.505                  -0.188503        -124.431         -58.7631         14.3432         -58.7633         14.3418      -0.00836015         150.815
0.506                  -0.193522        -124.872          -58.639           12.86         -58.6392         12.8585      -0.00842921         150.749
0.507                  -0.198645        -125.314         -58.5154         11.3814         -58.5156         11.3797      -0.00849849         150.684
0.508                  -0.203874         -125.76         -58.3924         9.90744         -58.3926         9.90564        -0.008568         150.618
0.509                  -0.209215        -126.207         -58.2698         8.43823           -58.27         8.43636      -0.00863774         150.552
0.51                   -0.214673        -126.658         -58.1475         6.97388         -58.1478         6.97197      -0.00870774         150.487
0.511                  -0.220254        -127.111         -58.0256         5.51446         -58.0259         5.51252      -0.00877799         150.421
0.512                  -0.225962        -127.567         -57.9039         4.05999         -57.9042         4.05805       -0.0088485         150.355
0.513                  -0.231804        -128.025         -57.7823         2.61048         -57.7827         2.60856       -0.0089193         150.289
0.514                  -0.237785        -128.486         -57.6609          1.1659         -57.6613         1.16402      -0.00899037         150.223
0.515                  -0.243913         -128.95         -57.5395       -0.273787         -57.5399       -0.275614      -0.00906175         150.156
0.516                  -0.250193        -129.417         -57.4181        -1.70866         -57.4185        -1.71042      -0.00913343          150.09
0.517                  -0.256632        -129.887         -57.2966        -3.13883          -57.297        -3.14051      -0.00920542         150.024
0.518                  -0.263238        -130.359         -57.1749        -4.56442         -57.1753          -4.566      -0.00927775         149.957
0.519                  -0.270018        -130.835          -57.053        -5.98556         -57.0534        -5.98705      -0.00935041         149.891
0.52                    -0.27698        -131.314         -56.9309        -7.40245         -56.9313        -7.40382      -0.00942343         149.824
0.521                  -0.284132        -131.795         -56.8084        -8.81526         -56.8088        -8.81652      -0.00949681         149.757
0.522                  -0.291483         -132.28         -56.6855        -10.2242          -56.686        -10.2254      -0.00957057         149.691
0.523                  -0.299042        -132.768         -56.5623        -11.6295         -56.5627        -11.6305      -0.00964472         149.624
0.524                  -0.306818        -133.259         -56.4385        -13.0315         -56.4389        -13.0324      -0.00971928         149.557
0.525                  -0.314821        -133.753         -56.3142        -14.4303         -56.3146        -14.4311      -0.00979425          149.49
0.526                  -0.323061         -134.25         -56.1894        -15.8263         -56.1898        -15.8269      -0.00986966         149.422
0.527                  -0.331548        -134.751         -56.0639        -17.2197         -56.0643        -17.2202      -0.00994551         149.355
0.528                  -0.340294        -135.255         -55.9378        -18.6109         -55.9382        -18.6113       -0.0100218         149.288
0.529                  -0.349309        -135.763          -55.811        -20.0002         -55.8114        -20.0005       -0.0100986          149.22
0.53                   -0.358606        -136.273         -55.6836         -21.388         -55.6839        -21.3881       -0.0101759         149.153
0.531                  -0.368197        -136.788         -55.5553        -22.7744         -55.5557        -22.7745       -0.0102537         149.085
0.532                  -0.378095        -137.305         -55.4263          -24.16         -55.4266          -24.16        -0.010332         149.017
0.533                  -0.388313        -137.826         -55.2965        -25.5451         -55.2968        -25.5449       -0.0104109          148.95
0.534                  -0.398865        -138.351         -55.1659          -26.93         -55.1662        -26.9298       -0.0104904         148.882
0.535                  -0.409764        -138.879         -55.0345        -28.3151         -55.0348        -28.3148       -0.0105704         148.814
0.536                  -0.421026        -139.411         -54.9022        -29.7009         -54.9025        -29.7004       -0.0106511         148.745
0.537                  -0.432666        -139.946         -54.7691        -31.0875         -54.7693         -31.087       -0.0107323         148.677
0.538                    -0.4447        -140.485         -54.6351        -32.4756         -54.6353         -32.475       -0.0108143         148.609
0.539                  -0.457143        -141.028         -54.5002        -33.8654         -54.5004        -33.8647       -0.0108969          148.54
0.54                   -0.470013        -141.574         -54.3645        -35.2573         -54.3647        -35.2566       -0.0109802         148.472
0.541                  -0.483327        -142.124         -54.2279        -36.6517         -54.2281         -36.651       -0.0110642         148.403
0.542                  -0.497102        -142.677         -54.0904        -38.0491         -54.0906        -38.0483       -0.0111489         148.334
0.543                  -0.511357        -143.234         -53.9521        -39.4498         -53.9522         -39.449       -0.0112345         148.265
0.544                   -0.52611        -143.795          -53.813        -40.8542         -53.8131        -40.8533       -0.0113208         148.196
0.545                  -0.541381         -144.36          -53.673        -42.2626          -53.673        -42.2617       -0.0114079         148.127
0.546                  -0.557189        -144.928         -53.5321        -43.6756         -53.5322        -43.6746        -0.011496         148.058
0.547                  -0.573553        -145.499         -53.3905        -45.0933         -53.3906        -45.0924       -0.0115848         147.989
0.548                  -0.590494        -146.074         -53.2481        -46.5163         -53.2482        -46.5154       -0.0116746         147.919
0.549                  -0.608034        -146.653          -53.105        -47.9449          -53.105        -47.9439       -0.0117654          147.85
0.55                   -0.626192        -147.235         -52.9611        -49.3794         -52.9611        -49.3784       -0.0118571          147.78
0.551                   -0.64499        -147.821         -52.8166        -50.8202         -52.8165        -50.8193       -0.0119498          147.71
0.552                  -0.664449         -148.41         -52.6713        -52.2676         -52.6713        -52.2667       -0.0120436          147.64
0.553                  -0.684591        -149.003         -52.5255         -53.722         -52.5255        -53.7212       -0.0121385          147.57
0.554                  -0.705437        -149.598         -52.3791        -55.1837          -52.379        -55.1829       -0.0122344           147.5
0.555                  -0.727009        -150.197         -52.2321         -56.653         -52.2321        -56.6522       -0.0123315          147.43
0.556                  -0.749329        -150.799         -52.0847        -58.1303         -52.0846        -58.1295       -0.0124298          147.36
0.557                  -0.772417        -151.404         -51.9368        -59.6157         -51.9367        -59.6149       -0.0125294         147.289
0.558                  -0.796295        -152.012         -51.7885        -61.1096         -51.7884        -61.1089       -0.0126302         147.218
0.559                  -0.820984        -152.623         -51.6399        -62.6122         -51.6398        -62.6115       -0.0127323         147.148
0.56                   -0.846503        -153.236          -51.491        -64.1237         -51.4909        -64.1231       -0.0128357         147.077
0.561                  -0.872873        -153.852         -51.3419        -65.6444         -51.3417        -65.6439       -0.0129406         147.006
0.562                  -0.900112         -154.47         -51.1925        -67.1745         -51.1924         -67.174       -0.0130469         146.935
0.563                  -0.928239         -155.09         -51.0431        -68.7142          -51.043        -68.7137       -0.0131547         146.863
0.564                  -0.957269        -155.713         -50.8937        -70.2636         -50.8936        -70.2632        -0.013264         146.792
0.565                   -0.98722        -156.337         -50.7443        -71.8229         -50.7441        -71.8225       -0.0133749          146.72
0.566                   -1.01811        -156.963         -50.5949        -73.3921         -50.5948        -73.3918       -0.0134874         146.649
0.567                   -1.04994        -157.591         -50.4458        -74.9714         -50.4457        -74.9711       -0.0136017         146.577
0.568                   -1.08273         -158.22         -50.2969        -76.5608         -50.2967        -76.5606       -0.0137176         146.505
0.569                   -1.11649         -158.85         -50.1482        -78.1605         -50.1481        -78.1603       -0.0138353         146.433
0.57                    -1.15123        -159.481              -50        -79.7703         -49.9999        -79.7701       -0.0139548         146.361
0.571                   -1.18695        -160.112         -49.8522        -81.3903         -49.8521        -81.3902       -0.0140762         146.288
0.572                   -1.22366        -160.744         -49.7049        -83.0204         -49.7048        -83.0204       -0.0141996         146.216
0.573                   -1.26135        -161.376         -49.5583        -84.6606         -49.5581        -84.6606       -0.0143249         146.143
0.574                   -1.30002        -162.007         -49.4123        -86.3108         -49.4121        -86.3108       -0.0144523          146.07
0.575                   -1.33968        -162.639          -49.267        -87.9708         -49.2669        -87.9709       -0.0145817         145.997
0.576                   -1.38031         -163.27         -49.1226        -89.6406         -49.1225        -89.6406       -0.0147133         145.924
0.577                    -1.4219          -163.9          -48.979        -91.3198         -48.9789        -91.3199       -0.0148471         145.851
0.578                   -1.46444        -164.529         -48.8365        -93.0083         -48.8364        -93.0084       -0.0149831         145.777
0.579                   -1.50791        -165.156         -48.6949        -94.7059         -48.6948         -94.706       -0.0151214         145.704
0.58                     -1.5523        -165.782         -48.5545        -96.4122         -48.5544        -96.4123       -0.0152621          145.63
0.581                   -1.59757        -166.406         -48.4152         -98.127         -48.4151        -98.1271       -0.0154052         145.556
0.582                   -1.64371        -167.028         -48.2771        -99.8499         -48.2771        -99.8501       -0.0155507         145.482
0.583                   -1.69068        -167.647         -48.1403        -101.581         -48.1403        -101.581       -0.0156987         145.408
0.584                   -1.73845        -168.264         -48.0049        -103.319         -48.0049        -103.319       -0.0158493         145.334
0.585                   -1.78699        -168.879         -47.8709        -105.064         -47.8708        -105.064       -0.0160025         145.259
0.586                   -1.83625         -169.49         -47.7382        -106.815         -47.7382        -106.816       -0.0161583         145.184
0.587                   -1.88619        -170.099         -47.6071        -108.573         -47.6071        -108.573       -0.0163168         145.109
0.588                   -1.93678        -170.704         -47.4775        -110.337         -47.4775        -110.337        -0.016478         145.034
0.589                   -1.98796        -171.306         -47.3495        -112.105         -47.3495        -112.105        -0.016642         144.959
0.59                    -2.03969        -171.904          -47.223        -113.879          -47.223        -113.879       -0.0168088         144.884
0.591                   -2.09191        -172.499         -47.0982        -115.656         -47.0982        -115.656       -0.0169785         144.808
0.592                   -2.14457        -173.091          -46.975        -117.437          -46.975        -117.437        -0.017151         144.733
0.593                   -2.19763        -173.679         -46.8534        -119.221         -46.8535        -119.221       -0.0173264         144.657
0.594                   -2.25102        -174.264         -46.7336        -121.008         -46.7336        -121.008       -0.0175049         144.581
0.595                   -2.30469        -174.845         -46.6153        -122.797         -46.6154        -122.797       -0.0176862         144.504
0.596                   -2.35859        -175.423         -46.4988        -124.588         -46.4988        -124.588       -0.0178706         144.428
0.597                   -2.41266        -175.998         -46.3839        -126.379          -46.384        -126.379       -0.0180581         144.351
0.598                   -2.46685        -176.569         -46.2707        -128.171         -46.2708        -128.171       -0.0182486         144.275
0.599                   -2.52111        -177.138         -46.1591        -129.963         -46.1592        -129.963       -0.0184421         144.198
0.6                     -2.57539        -177.704         -46.0492        -131.754         -46.0492        -131.754       -0.0186388         144.121
0.601                   -2.62964        -178.268         -45.9408        -133.544         -45.9409        -133.544       -0.0188386         144.043
0.602                   -2.68381         -178.83          -45.834        -135.333         -45.8341        -135.333       -0.0190415         143.966
0.603                   -2.73787         -179.39         -45.7288         -137.12         -45.7288         -137.12       -0.0192476         143.888
0.604                   -2.79178        -179.948          -45.625        -138.905         -45.6251        -138.904       -0.0194569          143.81
0.605                   -2.84549         179.495         -45.5227        -140.686         -45.5228        -140.686       -0.0196693         143.732
0.606                   -2.89898         178.938         -45.4218        -142.465         -45.4219        -142.464       -0.0198849         143.654
0.607                   -2.95223         178.382         -45.3223        -144.239         -45.3224        -144.239       -0.0201037         143.575
0.608                    -3.0052         177.826         -45.2241         -146.01         -45.2242         -146.01       -0.0203257         143.496
0.609                   -3.05789         177.269         -45.1272        -147.777         -45.1272        -147.777        -0.020551         143.417
0.61                    -3.11027         176.712         -45.0314        -149.539         -45.0315        -149.539       -0.0207794         143.338
0.611                   -3.16234         176.153         -44.9368        -151.296         -44.9369        -151.296       -0.0210111         143.259
0.612                    -3.2141         175.592         -44.8433        -153.048         -44.8434        -153.048        -0.021246         143.179
0.613                   -3.26555         175.029         -44.7509        -154.795         -44.7509        -154.795       -0.0214842           143.1
0.614                    -3.3167         174.463         -44.6594        -156.537         -44.6594        -156.536       -0.0217257          143.02
0.615                   -3.36756         173.893         -44.5688        -158.272         -44.5688        -158.272       -0.0219704         142.939
0.616                   -3.41814          173.32          -44.479        -160.002          -44.479        -160.002       -0.0222184         142.859
0.617                   -3.46847         172.743           -44.39        -161.727         -44.3901        -161.726       -0.0224697         142.778
0.618                   -3.51858         172.161         -44.3018        -163.445         -44.3018        -163.444       -0.0227243         142.697
0.619                   -3.56849         171.573         -44.2142        -165.157         -44.2142        -165.156       -0.0229822         142.616
0.62                    -3.61825          170.98         -44.1272        -166.863         -44.1272        -166.862       -0.0232434         142.535
0.621                    -3.6679         170.381         -44.0408        -168.563         -44.0408        -168.562       -0.0235081         142.453
0.622                   -3.71748         169.776         -43.9548        -170.257         -43.9548        -170.256       -0.0237761         142.371
0.623                   -3.76704         169.163         -43.8692        -171.945         -43.8693        -171.944       -0.0240475         142.289
0.624                   -3.81663         168.544          -43.784        -173.627         -43.7841        -173.626       -0.0243224         142.207
0.625                   -3.86632         167.916         -43.6992        -175.303         -43.6992        -175.303       -0.0246007         142.124
0.626                   -3.91616          167.28         -43.6145        -176.974         -43.6146        -176.973       -0.0248826         142.042
0.627                   -3.96622         166.636         -43.5301        -178.639         -43.5301        -178.638        -0.025168         141.958
0.628                   -4.01657         165.984         -43.4459         179.702         -43.4459         179.702        -0.025457         141.875
0.629                   -4.06727         165.322         -43.3617         178.048         -43.3617         178.048       -0.0257496         141.791
