! TOUCHSTONE file generated by CST MICROWAVE STUDIO
! Date and time: Fri Oct 30 07:54:01 2020
! Project name: Scenario_1_Circular_Tissue_out_of_Line.cst
! Parameters = {dy1=-155.249; L_HA=400; MT=2.54; Rad_Dielectric=30; Rad_Lower=7.3; Rad_Upper=30; a_HA=580; a_WG=246; b_HA=500; b_WG=121; c_HA=0; c_WG=187; d_feed=85; dx1=520; h_feed=15; h_lower=18; h_upper=40}
! Header version: 2018
! Port assignment regex: !\s*Touchstone port\s*([0-9]+)\s*=\s*(CST MWS port|CST DS port)\s*([0-9]+|Zmin|Zmax)\s*\(\"(.*)\"\)(\s*mode\s*([0-9]+))?.*
! Touchstone port assignment:
! Touchstone port 1 = CST MWS port 1 ("")
! Touchstone port 2 = CST MWS port 2 ("")
# GHz S DB R 50
0.5                    -0.134951        -122.337         -61.9288        -65.0133         -61.9288        -65.0133      -0.00727317         151.123
0.501                  -0.145381        -122.776         -61.7454        -66.3985          -61.748        -66.3982      -0.00734044         151.057
0.502                  -0.155905        -123.216         -61.5602         -67.802         -61.5653         -67.801      -0.00740871         150.992
0.503                  -0.166522        -123.657         -61.3734        -69.2242         -61.3809        -69.2221      -0.00747798         150.927
0.504                  -0.177231        -124.099          -61.185        -70.6656         -61.1948         -70.662      -0.00754825         150.861
0.505                  -0.188031        -124.542         -60.9952        -72.1266         -61.0072        -72.1211      -0.00761952         150.796
0.506                  -0.198921        -124.986         -60.8039        -73.6076          -60.818        -73.5998      -0.00769181          150.73
0.507                    -0.2099        -125.432         -60.6113        -75.1092         -60.6274        -75.0987       -0.0077651         150.664
0.508                  -0.220968        -125.878         -60.4175        -76.6317         -60.4355        -76.6182      -0.00783942         150.598
0.509                  -0.232123        -126.325         -60.2225        -78.1755         -60.2423        -78.1587      -0.00791476         150.533
0.51                   -0.243366        -126.774         -60.0266        -79.7412         -60.0481        -79.7206      -0.00799112         150.467
0.511                  -0.254694        -127.224         -59.8297         -81.329         -59.8528        -81.3044      -0.00806851         150.401
0.512                  -0.266108        -127.675         -59.6321        -82.9393         -59.6566        -82.9104      -0.00814694         150.335
0.513                  -0.277608        -128.127         -59.4339        -84.5725         -59.4597         -84.539       -0.0082264         150.268
0.514                  -0.289191        -128.581         -59.2352        -86.2289         -59.2621        -86.1905       -0.0083069         150.202
0.515                  -0.300859        -129.036         -59.0361        -87.9088         -59.0641        -87.8653      -0.00838844         150.136
0.516                   -0.31261        -129.492         -58.8368        -89.6124         -58.8658        -89.5636      -0.00847103         150.069
0.517                  -0.324445        -129.949         -58.6374        -91.3399         -58.6673        -91.2856      -0.00855467         150.003
0.518                  -0.336363        -130.409         -58.4382        -93.0914         -58.4687        -93.0315      -0.00863936         149.936
0.519                  -0.348363        -130.869         -58.2393         -94.867         -58.2704        -94.8014      -0.00872511          149.87
0.52                   -0.360446        -131.331         -58.0409        -96.6668         -58.0724        -96.5954      -0.00881191         149.803
0.521                  -0.372611        -131.794         -57.8431        -98.4907         -57.8749        -98.4136      -0.00889977         149.736
0.522                  -0.384859        -132.259         -57.6462        -100.339         -57.6782        -100.256       -0.0089887         149.669
0.523                   -0.39719        -132.726         -57.4504         -102.21         -57.4824        -102.122      -0.00907868         149.602
0.524                  -0.409603        -133.194         -57.2557        -104.105         -57.2876        -104.011      -0.00916973         149.535
0.525                  -0.422101        -133.664         -57.0625        -106.024         -57.0942        -105.924      -0.00926185         149.468
0.526                  -0.434681        -134.136         -56.8709        -107.965         -56.9023         -107.86      -0.00935503         149.401
0.527                  -0.447347        -134.609         -56.6812        -109.928         -56.7121        -109.818      -0.00944928         149.333
0.528                  -0.460097        -135.084         -56.4934        -111.913         -56.5238        -111.798       -0.0095446         149.266
0.529                  -0.472933        -135.561         -56.3079        -113.918         -56.3376          -113.8      -0.00964098         149.199
0.53                   -0.485857         -136.04         -56.1247        -115.943         -56.1537        -115.821      -0.00973843         149.131
0.531                  -0.498868        -136.521         -55.9441        -117.988         -55.9722        -117.862      -0.00983695         149.063
0.532                  -0.511969        -137.004         -55.7663         -120.05         -55.7934        -119.921      -0.00993654         148.996
0.533                  -0.525161        -137.489         -55.5913        -122.129         -55.6175        -121.998       -0.0100372         148.928
0.534                  -0.538445        -137.976         -55.4194        -124.224         -55.4445        -124.091       -0.0101389          148.86
0.535                  -0.551824        -138.465         -55.2506        -126.333         -55.2746        -126.199       -0.0102417         148.792
0.536                  -0.565299        -138.957         -55.0852        -128.455         -55.1079         -128.32       -0.0103455         148.724
0.537                  -0.578874         -139.45         -54.9231        -130.589         -54.9447        -130.453       -0.0104504         148.655
0.538                  -0.592549        -139.946         -54.7646        -132.733         -54.7849        -132.598       -0.0105564         148.587
0.539                  -0.606329        -140.445         -54.6096        -134.886         -54.6286        -134.751       -0.0106634         148.519
0.54                   -0.620216        -140.945         -54.4583        -137.045          -54.476        -136.912       -0.0107714          148.45
0.541                  -0.634214        -141.449         -54.3106         -139.21          -54.327        -139.079       -0.0108805         148.381
0.542                  -0.648326        -141.955         -54.1665        -141.379         -54.1817         -141.25       -0.0109906         148.313
0.543                  -0.662556        -142.463         -54.0261         -143.55           -54.04        -143.425       -0.0111018         148.244
0.544                  -0.676908        -142.974         -53.8894        -145.722         -53.9021          -145.6       -0.0112139         148.175
0.545                  -0.691388        -143.488         -53.7563        -147.893         -53.7677        -147.776       -0.0113271         148.106
0.546                  -0.705999        -144.005         -53.6267        -150.062          -53.637        -149.949       -0.0114414         148.037
0.547                  -0.720747        -144.525         -53.5005        -152.228         -53.5098        -152.119       -0.0115566         147.967
0.548                  -0.735638        -145.048         -53.3778        -154.388         -53.3859        -154.284       -0.0116728         147.898
0.549                  -0.750679        -145.574         -53.2583        -156.542         -53.2654        -156.444       -0.0117901         147.829
0.55                   -0.765875        -146.103         -53.1419        -158.689         -53.1481        -158.596       -0.0119083         147.759
0.551                  -0.781234        -146.635         -53.0285        -160.826         -53.0339         -160.74       -0.0120275         147.689
0.552                  -0.796764         -147.17          -52.918        -162.955         -52.9226        -162.874       -0.0121477          147.62
0.553                  -0.812472        -147.709         -52.8102        -165.072          -52.814        -164.998       -0.0122688          147.55
0.554                  -0.828368        -148.252         -52.7049        -167.179         -52.7081         -167.11       -0.0123909          147.48
0.555                   -0.84446        -148.798         -52.6021        -169.273         -52.6046         -169.21        -0.012514          147.41
0.556                  -0.860759        -149.347         -52.5014        -171.354         -52.5034        -171.298        -0.012638          147.34
0.557                  -0.877275          -149.9         -52.4027        -173.422         -52.4042        -173.372       -0.0127629         147.269
0.558                   -0.89402        -150.458         -52.3059        -175.477          -52.307        -175.432       -0.0128888         147.199
0.559                  -0.911004        -151.019         -52.2108        -177.517         -52.2116        -177.479       -0.0130157         147.128
0.56                   -0.928242        -151.583         -52.1172        -179.544         -52.1177        -179.511       -0.0131434         147.057
0.561                  -0.945747        -152.152          -52.025         178.444         -52.0252         178.472       -0.0132721         146.987
0.562                  -0.963533        -152.726         -51.9339         176.446         -51.9339         176.469       -0.0134017         146.916
0.563                  -0.981615        -153.303         -51.8438         174.463         -51.8437         174.481       -0.0135322         146.845
0.564                   -1.00001        -153.885         -51.7546         172.494         -51.7543         172.507       -0.0136636         146.774
0.565                   -1.01873        -154.471          -51.666         170.538         -51.6657         170.547        -0.013796         146.702
0.566                   -1.03781        -155.062         -51.5781         168.597         -51.5777         168.601       -0.0139292         146.631
0.567                   -1.05724        -155.657         -51.4905         166.669         -51.4902         166.669       -0.0140634         146.559
0.568                   -1.07707        -156.257         -51.4032         164.753         -51.4029         164.751       -0.0141985         146.488
0.569                   -1.09731        -156.862         -51.3161         162.851         -51.3159         162.845       -0.0143346         146.416
0.57                    -1.11797        -157.472         -51.2291         160.961         -51.2289         160.952       -0.0144716         146.344
0.571                   -1.13909        -158.087          -51.142         159.082         -51.1418         159.071       -0.0146095         146.272
0.572                   -1.16069        -158.706         -51.0547         157.215         -51.0547         157.201       -0.0147485         146.199
0.573                    -1.1828        -159.331         -50.9672         155.358         -50.9672         155.342       -0.0148884         146.127
0.574                   -1.20544        -159.961         -50.8793         153.512         -50.8795         153.494       -0.0150293         146.055
0.575                   -1.22864        -160.597          -50.791         151.675         -50.7913         151.655       -0.0151712         145.982
0.576                   -1.25244        -161.238         -50.7023         149.846         -50.7027         149.825       -0.0153141         145.909
0.577                   -1.27686        -161.884          -50.613         148.026         -50.6136         148.004       -0.0154582         145.836
0.578                   -1.30194        -162.535         -50.5232         146.214         -50.5238         146.191       -0.0156033         145.763
0.579                   -1.32771        -163.192         -50.4327         144.408         -50.4335         144.385       -0.0157496          145.69
0.58                    -1.35421        -163.855         -50.3415         142.609         -50.3424         142.585        -0.015897         145.617
0.581                   -1.38148        -164.523         -50.2497         140.816         -50.2506         140.791       -0.0160457         145.543
0.582                   -1.40956        -165.197         -50.1571         139.028         -50.1582         139.003       -0.0161956         145.469
0.583                   -1.43848        -165.877         -50.0637         137.244         -50.0649         137.219       -0.0163468         145.395
0.584                    -1.4683        -166.562         -49.9697         135.464         -49.9709         135.439       -0.0164993         145.321
0.585                   -1.49905        -167.252         -49.8748         133.687         -49.8762         133.663       -0.0166532         145.247
0.586                   -1.53077        -167.949         -49.7792         131.914         -49.7806         131.889       -0.0168086         145.173
0.587                   -1.56352        -168.651         -49.6829         130.142         -49.6843         130.118       -0.0169655         145.099
0.588                   -1.59735        -169.358         -49.5858         128.371         -49.5873         128.348       -0.0171239         145.024
0.589                   -1.63229        -170.071          -49.488         126.602         -49.4895          126.58       -0.0172839         144.949
0.59                    -1.66841        -170.789         -49.3895         124.833          -49.391         124.812       -0.0174456         144.874
0.591                   -1.70575        -171.512         -49.2903         123.064         -49.2919         123.044       -0.0176091         144.799
0.592                   -1.74437        -172.241         -49.1905         121.295          -49.192         121.275       -0.0177744         144.724
0.593                   -1.78431        -172.974           -49.09         119.525         -49.0916         119.506       -0.0179416         144.648
0.594                   -1.82563        -173.713          -48.989         117.753         -48.9906         117.735       -0.0181107         144.572
0.595                   -1.86839        -174.455         -48.8874         115.979          -48.889         115.962       -0.0182818         144.497
0.596                   -1.91263        -175.202         -48.7854         114.204         -48.7869         114.187       -0.0184551         144.421
0.597                    -1.9584        -175.954         -48.6829         112.425         -48.6844          112.41       -0.0186305         144.344
0.598                   -2.00577        -176.709         -48.5801         110.644         -48.5815          110.63       -0.0188081         144.268
0.599                   -2.05477        -177.467         -48.4769          108.86         -48.4782         108.846       -0.0189881         144.191
0.6                     -2.10547        -178.229         -48.3734         107.072         -48.3747         107.059       -0.0191705         144.115
0.601                    -2.1579        -178.994         -48.2697         105.281          -48.271         105.269       -0.0193554         144.038
0.602                   -2.21211        -179.761         -48.1659         103.485          -48.167         103.474       -0.0195428         143.961
0.603                   -2.26815          179.47         -48.0619         101.686          -48.063         101.676       -0.0197329         143.883
0.604                   -2.32604           178.7         -47.9579         99.8818         -47.9589         99.8727       -0.0199256         143.806
0.605                   -2.38584         177.928          -47.854         98.0736         -47.8549         98.0653       -0.0201212         143.728
0.606                   -2.44757         177.156         -47.7501          96.261         -47.7509         96.2535       -0.0203196          143.65
0.607                   -2.51126         176.384         -47.6464         94.4439         -47.6471         94.4371       -0.0205209         143.572
0.608                   -2.57692         175.612         -47.5429         92.6223         -47.5436         92.6162       -0.0207252         143.493
0.609                   -2.64458         174.842         -47.4397         90.7962         -47.4403         90.7907       -0.0209327         143.415
0.61                    -2.71425         174.073         -47.3368         88.9655         -47.3373         88.9607       -0.0211432         143.336
0.611                   -2.78593         173.307         -47.2343         87.1306         -47.2348         87.1263        -0.021357         143.257
0.612                   -2.85961         172.544         -47.1323         85.2913         -47.1327         85.2875       -0.0215741         143.178
0.613                   -2.93529         171.784         -47.0309         83.4478         -47.0311         83.4446       -0.0217945         143.099
0.614                   -3.01295         171.029           -46.93         81.6004         -46.9302         81.5976       -0.0220184         143.019
0.615                   -3.09257         170.278         -46.8297         79.7492         -46.8298         79.7468       -0.0222458         142.939
0.616                    -3.1741         169.533         -46.7301         77.8944         -46.7302         77.8924       -0.0224767         142.859
0.617                   -3.25751         168.795         -46.6313         76.0363         -46.6313         76.0346       -0.0227112         142.779
0.618                   -3.34275         168.063         -46.5333         74.1751         -46.5332         74.1738       -0.0229495         142.698
0.619                   -3.42975         167.338          -46.436         72.3112         -46.4359         72.3101       -0.0231915         142.617
0.62                    -3.51845         166.622         -46.3397         70.4448         -46.3395          70.444       -0.0234373         142.536
0.621                   -3.60878         165.914         -46.2442         68.5763          -46.244         68.5757        -0.023687         142.455
0.622                   -3.70065         165.215         -46.1497          66.706         -46.1494         66.7057       -0.0239406         142.374
0.623                   -3.79397         164.526         -46.0561         64.8343         -46.0558         64.8342       -0.0241983         142.292
0.624                   -3.88865         163.847         -45.9635         62.9616         -45.9632         62.9616         -0.02446          142.21
0.625                   -3.98458         163.178         -45.8719         61.0882         -45.8715         61.0884       -0.0247258         142.128
0.626                   -4.08166          162.52         -45.7813         59.2146         -45.7809          59.215       -0.0249959         142.045
0.627                   -4.17977         161.872         -45.6918         57.3412         -45.6913         57.3417       -0.0252701         141.963
0.628                   -4.27879         161.236         -45.6032         55.4683         -45.6028         55.4689       -0.0255487          141.88
0.629                   -4.37861         160.611         -45.5157         53.5964         -45.5152         53.5971       -0.0258317         141.796
