! TOUCHSTONE file generated by CST MICROWAVE STUDIO
! Date and time: Wed Oct 28 19:15:37 2020
! Project name: Scenario_1_Circular_Tissue_out_of_Line.cst
! Parameters = {dy1=-155.249; L_HA=400; MT=2.54; Rad_Dielectric=30; Rad_Lower=7.3; Rad_Upper=30; a_HA=580; a_WG=246; b_HA=500; b_WG=121; c_HA=0; c_WG=187; d_feed=85; dx1=693; h_feed=15; h_lower=18; h_upper=40}
! Header version: 2018
! Port assignment regex: !\s*Touchstone port\s*([0-9]+)\s*=\s*(CST MWS port|CST DS port)\s*([0-9]+|Zmin|Zmax)\s*\(\"(.*)\"\)(\s*mode\s*([0-9]+))?.*
! Touchstone port assignment:
! Touchstone port 1 = CST MWS port 1 ("")
! Touchstone port 2 = CST MWS port 2 ("")
# GHz S DB R 50
0.5                    -0.152497         -122.27         -62.4399        -170.564         -62.4399        -170.564      -0.00768822          151.14
0.501                  -0.156882        -122.747         -62.3407        -172.271         -62.3407        -172.271      -0.00773664         151.075
0.502                  -0.161556        -123.226         -62.2388        -173.987         -62.2388        -173.987      -0.00778609          151.01
0.503                  -0.166518        -123.706         -62.1344        -175.711         -62.1344        -175.711      -0.00783659         150.945
0.504                  -0.171772        -124.187         -62.0273        -177.443         -62.0273        -177.443      -0.00788814         150.879
0.505                  -0.177316        -124.669         -61.9177        -179.183         -61.9177        -179.183      -0.00794075         150.814
0.506                  -0.183153        -125.153         -61.8055          179.07         -61.8055          179.07      -0.00799442         150.748
0.507                  -0.189284        -125.637         -61.6908         177.315         -61.6907         177.315      -0.00804916         150.682
0.508                  -0.195709        -126.123         -61.5735         175.553         -61.5735         175.553      -0.00810498         150.617
0.509                  -0.202429        -126.611         -61.4537         173.785         -61.4537         173.785      -0.00816189         150.551
0.51                   -0.209446        -127.099         -61.3315          172.01         -61.3315         172.009      -0.00821988         150.485
0.511                   -0.21676        -127.588         -61.2068         170.228         -61.2068         170.228      -0.00827897         150.419
0.512                  -0.224373        -128.079         -61.0798          168.44         -61.0798          168.44      -0.00833917         150.353
0.513                  -0.232284        -128.571         -60.9504         166.646         -60.9504         166.646      -0.00840048         150.287
0.514                  -0.240496        -129.064         -60.8188         164.846         -60.8187         164.845       -0.0084629         150.221
0.515                  -0.249008        -129.559         -60.6848          163.04         -60.6848         163.039      -0.00852646         150.154
0.516                  -0.257822        -130.054         -60.5487         161.228         -60.5487         161.228      -0.00859114         150.088
0.517                  -0.266939        -130.551         -60.4104         159.411         -60.4104          159.41      -0.00865697         150.021
0.518                  -0.276359        -131.049         -60.2701         157.588         -60.2701         157.587      -0.00872395         149.955
0.519                  -0.286083        -131.547         -60.1277         155.759         -60.1277         155.759      -0.00879209         149.888
0.52                   -0.296112        -132.048         -59.9833         153.925         -59.9833         153.925      -0.00886139         149.821
0.521                  -0.306447        -132.549          -59.837         152.085          -59.837         152.085      -0.00893187         149.755
0.522                  -0.317089        -133.051         -59.6889          150.24         -59.6889          150.24      -0.00900352         149.688
0.523                  -0.328037        -133.555          -59.539         148.389          -59.539         148.389      -0.00907637         149.621
0.524                  -0.339294         -134.06         -59.3874         146.533         -59.3874         146.533      -0.00915042         149.554
0.525                   -0.35086        -134.566         -59.2341         144.671         -59.2341         144.671      -0.00922568         149.486
0.526                  -0.362735        -135.073         -59.0793         142.804         -59.0793         142.803      -0.00930215         149.419
0.527                   -0.37492        -135.581          -58.923          140.93         -58.9229          140.93      -0.00937985         149.352
0.528                  -0.387417         -136.09         -58.7652         139.051         -58.7652          139.05      -0.00945879         149.284
0.529                  -0.400225        -136.601         -58.6061         137.165         -58.6061         137.165      -0.00953897         149.217
0.53                   -0.413346        -137.113         -58.4457         135.274         -58.4457         135.274       -0.0096204         149.149
0.531                   -0.42678        -137.625         -58.2842         133.376         -58.2841         133.376       -0.0097031         149.081
0.532                  -0.440528        -138.139         -58.1215         131.472         -58.1215         131.471      -0.00978708         149.014
0.533                  -0.454591        -138.654         -57.9578         129.561         -57.9578          129.56      -0.00987233         148.946
0.534                   -0.46897        -139.171         -57.7931         127.643         -57.7931         127.643      -0.00995889         148.878
0.535                  -0.483665        -139.688         -57.6276         125.718         -57.6276         125.718       -0.0100467          148.81
0.536                  -0.498677        -140.207         -57.4613         123.786         -57.4613         123.786       -0.0101359         148.741
0.537                  -0.514006        -140.726         -57.2944         121.846         -57.2943         121.846       -0.0102264         148.673
0.538                  -0.529655        -141.247         -57.1268         119.899         -57.1268         119.899       -0.0103183         148.605
0.539                  -0.545623        -141.769         -56.9587         117.944         -56.9587         117.944       -0.0104115         148.536
0.54                   -0.561912        -142.293         -56.7902         115.982         -56.7902         115.981        -0.010506         148.467
0.541                  -0.578521        -142.817         -56.6213          114.01         -56.6213          114.01       -0.0106019         148.399
0.542                  -0.595453        -143.342         -56.4523         112.031         -56.4523          112.03       -0.0106992          148.33
0.543                  -0.612708        -143.869         -56.2831         110.042          -56.283         110.042        -0.010798         148.261
0.544                  -0.630287        -144.397         -56.1138         108.045         -56.1138         108.045       -0.0108981         148.192
0.545                  -0.648191        -144.926         -55.9446         106.039         -55.9446         106.039       -0.0109996         148.123
0.546                   -0.66642        -145.457         -55.7755         104.024         -55.7755         104.024       -0.0111026         148.053
0.547                  -0.684977        -145.988         -55.6067         101.999         -55.6067         101.999        -0.011207         147.984
0.548                  -0.703861        -146.521         -55.4382         99.9647         -55.4382         99.9645       -0.0113129         147.914
0.549                  -0.723075        -147.055         -55.2702         97.9207         -55.2702         97.9205       -0.0114202         147.845
0.55                   -0.742618         -147.59         -55.1027         95.8668         -55.1027         95.8667       -0.0115291         147.775
0.551                  -0.762493        -148.126         -54.9358         93.8031         -54.9358          93.803       -0.0116394         147.705
0.552                  -0.782701        -148.664         -54.7698         91.7293         -54.7697         91.7292       -0.0117513         147.635
0.553                  -0.803242        -149.203         -54.6045         89.6454         -54.6045         89.6454       -0.0118647         147.565
0.554                  -0.824118        -149.743         -54.4402         87.5515         -54.4402         87.5514       -0.0119796         147.495
0.555                  -0.845331        -150.284          -54.277         85.4473          -54.277         85.4473       -0.0120961         147.425
0.556                  -0.866882        -150.827         -54.1149         83.3331         -54.1149         83.3331       -0.0122142         147.354
0.557                  -0.888772         -151.37         -53.9541         81.2087         -53.9541         81.2087       -0.0123339         147.284
0.558                  -0.911003        -151.916         -53.7946         79.0743         -53.7946         79.0743       -0.0124551         147.213
0.559                  -0.933576        -152.462         -53.6366         76.9299         -53.6366         76.9299       -0.0125781         147.142
0.56                   -0.956494         -153.01         -53.4801         74.7757         -53.4801         74.7758       -0.0127026         147.071
0.561                  -0.979757        -153.559         -53.3253         72.6118         -53.3254         72.6119       -0.0128288             147
0.562                   -1.00337         -154.11         -53.1723         70.4385         -53.1723         70.4386       -0.0129567         146.929
0.563                   -1.02733        -154.661         -53.0211         68.2559         -53.0211          68.256       -0.0130863         146.858
0.564                   -1.05164        -155.215         -52.8718         66.0644         -52.8718         66.0645       -0.0132175         146.787
0.565                   -1.07631        -155.769         -52.7245         63.8641         -52.7246         63.8642       -0.0133506         146.715
0.566                   -1.10133        -156.325         -52.5794         61.6554         -52.5794         61.6556       -0.0134853         146.643
0.567                   -1.12671        -156.883         -52.4364         59.4388         -52.4364         59.4389       -0.0136218         146.571
0.568                   -1.15245        -157.442         -52.2957         57.2145         -52.2957         57.2147       -0.0137602           146.5
0.569                   -1.17855        -158.002         -52.1573         54.9831         -52.1573         54.9832       -0.0139003         146.427
0.57                    -1.20501        -158.563         -52.0213         52.7448         -52.0213          52.745       -0.0140422         146.355
0.571                   -1.23185        -159.127         -51.8877         50.5004         -51.8877         50.5006        -0.014186         146.283
0.572                   -1.25905        -159.691         -51.7567         48.2501         -51.7567         48.2503       -0.0143317          146.21
0.573                   -1.28663        -160.258         -51.6282         45.9947         -51.6282         45.9949       -0.0144792         146.138
0.574                   -1.31458        -160.825         -51.5023         43.7346         -51.5023         43.7348       -0.0146287         146.065
0.575                   -1.34292        -161.395          -51.379         41.4704          -51.379         41.4706       -0.0147801         145.992
0.576                   -1.37163        -161.965         -51.2584         39.2027         -51.2585          39.203       -0.0149334         145.919
0.577                   -1.40073        -162.538         -51.1405         36.9322         -51.1406         36.9324       -0.0150887         145.846
0.578                   -1.43022        -163.112         -51.0253         34.6594         -51.0254         34.6596       -0.0152461         145.772
0.579                   -1.46011        -163.687         -50.9129         32.3849         -50.9129         32.3851       -0.0154054         145.699
0.58                    -1.49039        -164.265         -50.8031         30.1095         -50.8031         30.1097       -0.0155668         145.625
0.581                   -1.52107        -164.844         -50.6961         27.8337         -50.6961         27.8339       -0.0157303         145.551
0.582                   -1.55215        -165.424         -50.5917         25.5581         -50.5917         25.5584       -0.0158959         145.477
0.583                   -1.58364        -166.007           -50.49         23.2835           -50.49         23.2838       -0.0160636         145.403
0.584                   -1.61555        -166.591          -50.391         21.0104          -50.391         21.0107       -0.0162334         145.329
0.585                   -1.64787        -167.177         -50.2946         18.7395         -50.2946         18.7397       -0.0164055         145.254
0.586                   -1.68061        -167.764         -50.2008         16.4713         -50.2008         16.4715       -0.0165797          145.18
0.587                   -1.71378        -168.354         -50.1095         14.2064         -50.1095         14.2066       -0.0167562         145.105
0.588                   -1.74739        -168.945         -50.0207         11.9454         -50.0207         11.9456        -0.016935          145.03
0.589                   -1.78143        -169.538         -49.9343         9.68887         -49.9343         9.68907        -0.017116         144.955
0.59                    -1.81591        -170.133         -49.8503         7.43728         -49.8503         7.43747       -0.0172994          144.88
0.591                   -1.85084         -170.73         -49.7686         5.19113         -49.7686         5.19131       -0.0174851         144.804
0.592                   -1.88622        -171.328         -49.6891          2.9509         -49.6891         2.95106       -0.0176733         144.728
0.593                   -1.92207        -171.929         -49.6118        0.717022         -49.6118        0.717177       -0.0178638         144.653
0.594                   -1.95837        -172.532         -49.5365        -1.51009         -49.5365        -1.50995       -0.0180568         144.577
0.595                   -1.99516        -173.136         -49.4633        -3.73005         -49.4633        -3.72992       -0.0182523         144.501
0.596                   -2.03242        -173.743         -49.3919        -5.94251         -49.3919         -5.9424       -0.0184503         144.424
0.597                   -2.07017        -174.352         -49.3223        -8.14717         -49.3223        -8.14708       -0.0186508         144.348
0.598                   -2.10841        -174.962         -49.2545        -10.3437         -49.2545        -10.3436        -0.018854         144.271
0.599                   -2.14715        -175.575         -49.1883        -12.5319         -49.1883        -12.5319       -0.0190597         144.194
0.6                      -2.1864         -176.19         -49.1237        -14.7115         -49.1237        -14.7115       -0.0192681         144.117
0.601                   -2.22617        -176.807         -49.0605        -16.8824         -49.0605        -16.8824       -0.0194793          144.04
0.602                   -2.26646        -177.427         -48.9986        -19.0443         -48.9986        -19.0443       -0.0196931         143.962
0.603                   -2.30729        -178.048         -48.9381        -21.1972         -48.9381        -21.1972       -0.0199098         143.885
0.604                   -2.34865        -178.672         -48.8787        -23.3409         -48.8787        -23.3409       -0.0201293         143.807
0.605                   -2.39057        -179.298         -48.8203        -25.4753         -48.8203        -25.4754       -0.0203516         143.729
0.606                   -2.43305        -179.926          -48.763        -27.6005          -48.763        -27.6006       -0.0205768          143.65
0.607                    -2.4761         179.443         -48.7066        -29.7163         -48.7066        -29.7164        -0.020805         143.572
0.608                   -2.51973          178.81         -48.6509        -31.8228         -48.6509         -31.823       -0.0210362         143.493
0.609                   -2.56395         178.175          -48.596          -33.92          -48.596        -33.9202       -0.0212704         143.414
0.61                    -2.60877         177.537         -48.5417         -36.008         -48.5417        -36.0082       -0.0215077         143.335
0.611                   -2.65421         176.897          -48.488        -38.0867          -48.488        -38.0869       -0.0217481         143.256
0.612                   -2.70026         176.255         -48.4347        -40.1564         -48.4347        -40.1566       -0.0219916         143.176
0.613                   -2.74696          175.61         -48.3818         -42.217         -48.3818        -42.2172       -0.0222384         143.097
0.614                    -2.7943         174.962         -48.3293        -44.2687         -48.3293         -44.269       -0.0224885         143.017
0.615                    -2.8423         174.312         -48.2769        -46.3116         -48.2769        -46.3119       -0.0227419         142.937
0.616                   -2.89097          173.66         -48.2247        -48.3459         -48.2247        -48.3463       -0.0229987         142.856
0.617                   -2.94033         173.005         -48.1726        -50.3718         -48.1726        -50.3721       -0.0232589         142.775
0.618                   -2.99039         172.347         -48.1206        -52.3893         -48.1206        -52.3896       -0.0235226         142.695
0.619                   -3.04117         171.687         -48.0684        -54.3986         -48.0684         -54.399       -0.0237898         142.613
0.62                    -3.09267         171.024         -48.0162           -56.4         -48.0162        -56.4004       -0.0240607         142.532
0.621                   -3.14492         170.359         -47.9638        -58.3937         -47.9638        -58.3941       -0.0243352         142.451
0.622                   -3.19793         169.691         -47.9112        -60.3797         -47.9112        -60.3802       -0.0246134         142.369
0.623                   -3.25171          169.02         -47.8583        -62.3584         -47.8583        -62.3589       -0.0248954         142.287
0.624                   -3.30629         168.347          -47.805        -64.3299          -47.805        -64.3304       -0.0251812         142.204
0.625                   -3.36167          167.67         -47.7514        -66.2945         -47.7514         -66.295       -0.0254709         142.122
0.626                   -3.41788         166.992         -47.6973        -68.2523         -47.6973        -68.2528       -0.0257646         142.039
0.627                   -3.47494          166.31         -47.6428        -70.2035         -47.6428        -70.2041       -0.0260623         141.956
0.628                   -3.53286         165.626         -47.5877        -72.1485         -47.5877        -72.1491       -0.0263642         141.872
0.629                   -3.59166         164.939          -47.532        -74.0874          -47.532         -74.088       -0.0266702         141.789
