! TOUCHSTONE file generated by CST MICROWAVE STUDIO
! Date and time: Mon Oct 26 12:26:15 2020
! Project name: Scenario_1_Circular_Tissue_out_of_Line.cst
! Parameters = {dy1=-155.249; L_HA=400; MT=2.54; Rad_Dielectric=30; Rad_Lower=7.3; Rad_Upper=30; a_HA=580; a_WG=246; b_HA=500; b_WG=121; c_HA=0; c_WG=187; d_feed=85; dx1=866; h_feed=15; h_lower=18; h_upper=40}
! Header version: 2018
! Port assignment regex: !\s*Touchstone port\s*([0-9]+)\s*=\s*(CST MWS port|CST DS port)\s*([0-9]+|Zmin|Zmax)\s*\(\"(.*)\"\)(\s*mode\s*([0-9]+))?.*
! Touchstone port assignment:
! Touchstone port 1 = CST MWS port 1 ("")
! Touchstone port 2 = CST MWS port 2 ("")
# GHz S DB R 50
0.5                    -0.143548        -122.251         -63.3289         97.0314         -63.3289         97.0314      -0.00744455         151.135
0.501                  -0.150402        -122.662         -63.2006         94.7083         -63.2004         94.7103      -0.00751847          151.07
0.502                  -0.157337        -123.076         -63.0691         92.3822         -63.0688         92.3861      -0.00759292         151.005
0.503                  -0.164359        -123.493         -62.9345         90.0536         -62.9341         90.0593       -0.0076679          150.94
0.504                  -0.171473        -123.913          -62.797         87.7231         -62.7964         87.7304      -0.00774341         150.874
0.505                  -0.178685        -124.336         -62.6566         85.3912         -62.6559         85.4001      -0.00781946         150.809
0.506                  -0.185999        -124.761         -62.5134         83.0584         -62.5126         83.0687      -0.00789606         150.743
0.507                  -0.193422        -125.189         -62.3677         80.7251         -62.3668         80.7367      -0.00797322         150.678
0.508                  -0.200959        -125.621         -62.2195         78.3915         -62.2186         78.4044      -0.00805094         150.612
0.509                  -0.208617        -126.055          -62.069         76.0582          -62.068         76.0721      -0.00812922         150.546
0.51                     -0.2164        -126.492         -61.9162         73.7252         -61.9152         73.7401      -0.00820809         150.481
0.511                  -0.224317        -126.932         -61.7615          71.393         -61.7604         71.4087      -0.00828753         150.415
0.512                  -0.232371        -127.375         -61.6048         69.0616         -61.6037          69.078      -0.00836756         150.349
0.513                   -0.24057        -127.821         -61.4463         66.7312         -61.4452         66.7483      -0.00844819         150.283
0.514                   -0.24892         -128.27         -61.2862          64.402         -61.2851         64.4196      -0.00852943         150.216
0.515                  -0.257428        -128.721         -61.1246         62.0741         -61.1235          62.092      -0.00861128          150.15
0.516                  -0.266099        -129.176         -60.9617         59.7475         -60.9606         59.7657      -0.00869375         150.084
0.517                  -0.274942        -129.634         -60.7975         57.4223         -60.7964         57.4406      -0.00877684         150.018
0.518                  -0.283961        -130.095         -60.6323         55.0984         -60.6312         55.1168      -0.00886057         149.951
0.519                  -0.293165        -130.559         -60.4661         52.7758         -60.4651         52.7942      -0.00894495         149.885
0.52                    -0.30256        -131.026         -60.2992         50.4545         -60.2981         50.4729      -0.00902998         149.818
0.521                  -0.312153        -131.496         -60.1315         48.1345         -60.1305         48.1526      -0.00911566         149.751
0.522                  -0.321952         -131.97         -59.9633         45.8157         -59.9623         45.8335      -0.00920202         149.684
0.523                  -0.331963        -132.446         -59.7947         43.4979         -59.7937         43.5154      -0.00928906         149.618
0.524                  -0.342194        -132.925         -59.6258         41.1811         -59.6248         41.1981      -0.00937678         149.551
0.525                  -0.352652        -133.408         -59.4567         38.8652         -59.4557         38.8817       -0.0094652         149.483
0.526                  -0.363346        -133.893         -59.2875           36.55         -59.2866          36.566      -0.00955432         149.416
0.527                  -0.374281        -134.382         -59.1184         34.2354         -59.1175         34.2508      -0.00964415         149.349
0.528                  -0.385467        -134.874         -58.9495         31.9214         -58.9487         31.9362      -0.00973471         149.282
0.529                   -0.39691        -135.369         -58.7808         29.6078           -58.78         29.6218        -0.009826         149.214
0.53                   -0.408619        -135.867         -58.6125         27.2944         -58.6118         27.3077      -0.00991804         149.147
0.531                  -0.420602        -136.369         -58.4447         24.9812          -58.444         24.9937       -0.0100108         149.079
0.532                  -0.432866        -136.873         -58.2775         22.6681         -58.2769         22.6797       -0.0101044         149.012
0.533                  -0.445421        -137.381         -58.1109         20.3549         -58.1103         20.3657       -0.0101987         148.944
0.534                  -0.458273        -137.892         -57.9451         18.0415         -57.9446         18.0514       -0.0102938         148.876
0.535                  -0.471431        -138.406         -57.7802         15.7279         -57.7797         15.7369       -0.0103897         148.808
0.536                  -0.484904        -138.923         -57.6162         13.4139         -57.6157          13.422       -0.0104864          148.74
0.537                    -0.4987        -139.443         -57.4532         11.0995         -57.4528         11.1067       -0.0105839         148.672
0.538                  -0.512827        -139.967         -57.2913         8.78472         -57.2909         8.79099       -0.0106822         148.603
0.539                  -0.527295        -140.493         -57.1305          6.4694         -57.1302         6.47474       -0.0107814         148.535
0.54                   -0.542111        -141.023         -56.9709         4.15353         -56.9707         4.15795       -0.0108814         148.467
0.541                  -0.557283        -141.556         -56.8127         1.83709         -56.8125          1.8406       -0.0109823         148.398
0.542                  -0.572822        -142.092         -56.6558       -0.479924         -56.6556       -0.477315        -0.011084         148.329
0.543                  -0.588736        -142.631         -56.5002        -2.79751         -56.5001        -2.79579       -0.0111866         148.261
0.544                  -0.605032        -143.174         -56.3462        -5.11567         -56.3461        -5.11482       -0.0112901         148.192
0.545                  -0.621721        -143.719         -56.1936        -7.43435         -56.1936        -7.43435       -0.0113945         148.123
0.546                  -0.638811        -144.268         -56.0426        -9.75355         -56.0426        -9.75437       -0.0114998         148.054
0.547                  -0.656311        -144.819         -55.8931        -12.0732         -55.8932        -12.0748       -0.0116061         147.985
0.548                  -0.674229        -145.374         -55.7453        -14.3932         -55.7454        -14.3956       -0.0117132         147.915
0.549                  -0.692575        -145.932          -55.599        -16.7136         -55.5992        -16.7167       -0.0118213         147.846
0.55                   -0.711358        -146.493         -55.4545        -19.0342         -55.4548         -19.038       -0.0119304         147.776
0.551                  -0.730586        -147.057         -55.3117         -21.355          -55.312        -21.3595       -0.0120404         147.707
0.552                  -0.750269        -147.624         -55.1705        -23.6758         -55.1709        -23.6809       -0.0121515         147.637
0.553                  -0.770415        -148.194         -55.0311        -25.9966         -55.0315        -26.0023       -0.0122634         147.567
0.554                  -0.791033        -148.767         -54.8934        -28.3173         -54.8939        -28.3236       -0.0123764         147.497
0.555                  -0.812132        -149.343         -54.7575        -30.6377          -54.758        -30.6445       -0.0124904         147.427
0.556                  -0.833722        -149.922         -54.6233        -32.9578         -54.6238        -32.9651       -0.0126054         147.357
0.557                   -0.85581        -150.504         -54.4908        -35.2774         -54.4914        -35.2851       -0.0127215         147.287
0.558                  -0.878406        -151.088         -54.3601        -37.5964         -54.3607        -37.6045       -0.0128385         147.216
0.559                  -0.901518        -151.676         -54.2311        -39.9147         -54.2317        -39.9231       -0.0129566         147.146
0.56                   -0.925156        -152.267         -54.1038        -42.2322         -54.1045        -42.2409       -0.0130757         147.075
0.561                  -0.949327         -152.86         -53.9782        -44.5488         -53.9789        -44.5577       -0.0131959         147.004
0.562                  -0.974041        -153.456         -53.8543        -46.8643          -53.855        -46.8734       -0.0133172         146.933
0.563                  -0.999305        -154.055          -53.732        -49.1786         -53.7328        -49.1879       -0.0134394         146.862
0.564                   -1.02513        -154.657         -53.6114        -51.4917         -53.6122         -51.501       -0.0135628         146.791
0.565                   -1.05152        -155.261         -53.4924        -53.8034         -53.4933        -53.8128       -0.0136871          146.72
0.566                   -1.07849        -155.868          -53.375        -56.1137         -53.3759        -56.1231       -0.0138125         146.648
0.567                   -1.10604        -156.478         -53.2592        -58.4224           -53.26        -58.4319        -0.013939         146.577
0.568                   -1.13418         -157.09         -53.1448        -60.7295         -53.1457        -60.7389       -0.0140664         146.505
0.569                   -1.16292        -157.705         -53.0319         -63.035         -53.0328        -63.0443       -0.0141949         146.433
0.57                    -1.19228        -158.323         -52.9205        -65.3387         -52.9214        -65.3478       -0.0143243         146.361
0.571                   -1.22224        -158.943         -52.8105        -67.6406         -52.8114        -67.6496       -0.0144546         146.289
0.572                   -1.25283        -159.565         -52.7018        -69.9406         -52.7027        -69.9494       -0.0145859         146.217
0.573                   -1.28405         -160.19         -52.5944        -72.2388         -52.5953        -72.2474       -0.0147181         146.145
0.574                   -1.31591        -160.817         -52.4884        -74.5351         -52.4892        -74.5435        -0.014851         146.072
0.575                   -1.34841        -161.447         -52.3835        -76.8295         -52.3844        -76.8376       -0.0149847         145.999
0.576                   -1.38156        -162.079         -52.2799         -79.122         -52.2807        -79.1298       -0.0151191         145.927
0.577                   -1.41537        -162.713         -52.1773        -81.4126         -52.1782          -81.42       -0.0152541         145.854
0.578                   -1.44985         -163.35         -52.0759        -83.7013         -52.0767        -83.7084       -0.0153896         145.781
0.579                   -1.48499        -163.988         -51.9755        -85.9882         -51.9763        -85.9949       -0.0155255         145.707
0.58                    -1.52082        -164.629         -51.8762        -88.2733         -51.8769        -88.2795       -0.0156618         145.634
0.581                   -1.55733        -165.272         -51.7778        -90.5566         -51.7784        -90.5624       -0.0157984         145.561
0.582                   -1.59452        -165.917         -51.6802        -92.8381         -51.6809        -92.8436       -0.0159352         145.487
0.583                   -1.63241        -166.564         -51.5836        -95.1181         -51.5842        -95.1231       -0.0160722         145.413
0.584                   -1.67101        -167.213         -51.4878        -97.3965         -51.4884        -97.4011       -0.0162097         145.339
0.585                    -1.7103        -167.864         -51.3927        -99.6734         -51.3933        -99.6776       -0.0163479         145.265
0.586                   -1.75031        -168.516         -51.2984        -101.949         -51.2989        -101.953       -0.0164872          145.19
0.587                   -1.79103        -169.171         -51.2048        -104.223         -51.2052        -104.226       -0.0166285         145.116
0.588                   -1.83248        -169.827         -51.1118        -106.496         -51.1122        -106.499       -0.0167729         145.041
0.589                   -1.87464        -170.485         -51.0194        -108.768         -51.0198        -108.771       -0.0169216         144.966
0.59                    -1.91754        -171.145         -50.9276         -111.04         -50.9279        -111.041       -0.0170762         144.891
0.591                   -1.96117        -171.807         -50.8364         -113.31         -50.8366        -113.311        -0.017238         144.816
0.592                   -2.00553         -172.47         -50.7456        -115.579         -50.7457         -115.58       -0.0174081          144.74
0.593                   -2.05063        -173.134         -50.6553        -117.849         -50.6554        -117.849       -0.0175869         144.664
0.594                   -2.09648        -173.801         -50.5654        -120.117         -50.5654        -120.117        -0.017774         144.589
0.595                   -2.14307        -174.469         -50.4759        -122.386         -50.4758        -122.385       -0.0179684         144.513
0.596                   -2.19041        -175.138         -50.3868        -124.654         -50.3867        -124.653       -0.0181686         144.436
0.597                    -2.2385        -175.809          -50.298        -126.922         -50.2978        -126.921        -0.018373          144.36
0.598                   -2.28735        -176.481         -50.2095        -129.191         -50.2093        -129.189       -0.0185802         144.284
0.599                   -2.33695        -177.154         -50.1213         -131.46          -50.121        -131.458       -0.0187892         144.207
0.6                     -2.38731        -177.829         -50.0334        -133.729          -50.033        -133.727       -0.0189993          144.13
0.601                   -2.43843        -178.505         -49.9458        -135.999         -49.9453        -135.996         -0.01921         144.053
0.602                   -2.49031        -179.183         -49.8583         -138.27         -49.8578        -138.267       -0.0194211         143.976
0.603                   -2.54296        -179.861         -49.7711        -140.541         -49.7705        -140.538       -0.0196328         143.899
0.604                   -2.59637         179.459          -49.684        -142.814         -49.6834         -142.81       -0.0198451         143.822
0.605                   -2.65055         178.777         -49.5972        -145.088         -49.5964        -145.084       -0.0200582         143.744
0.606                    -2.7055         178.095         -49.5105        -147.363         -49.5097        -147.359       -0.0202723         143.666
0.607                   -2.76122         177.411          -49.424         -149.64         -49.4231        -149.635       -0.0204877         143.588
0.608                   -2.81771         176.726         -49.3376        -151.918         -49.3367        -151.913       -0.0207045          143.51
0.609                   -2.87497          176.04         -49.2514        -154.198         -49.2504        -154.193       -0.0209229         143.431
0.61                      -2.933         175.353         -49.1654         -156.48         -49.1643        -156.475       -0.0211431         143.353
0.611                   -2.99181         174.664         -49.0795        -158.764         -49.0784        -158.758       -0.0213653         143.274
0.612                   -3.05139         173.974         -48.9937        -161.049         -48.9926        -161.044       -0.0215897         143.195
0.613                   -3.11175         173.283         -48.9082        -163.337          -48.907        -163.332       -0.0218164         143.116
0.614                    -3.1729         172.591         -48.8227        -165.627         -48.8215        -165.622       -0.0220455         143.036
0.615                   -3.23482         171.898         -48.7375         -167.92         -48.7362        -167.914       -0.0222772         142.956
0.616                   -3.29752         171.203         -48.6524        -170.214         -48.6511        -170.209       -0.0225115         142.876
0.617                   -3.36101         170.506         -48.5675        -172.511         -48.5662        -172.506       -0.0227486         142.796
0.618                   -3.42528         169.809         -48.4828        -174.811         -48.4814        -174.805       -0.0229885         142.716
0.619                   -3.49035          169.11         -48.3984        -177.113          -48.397        -177.107       -0.0232315         142.635
0.62                    -3.55621         168.409         -48.3141        -179.417         -48.3127        -179.411       -0.0234775         142.554
0.621                   -3.62287         167.707         -48.2302         178.276         -48.2287         178.282       -0.0237267         142.473
0.622                   -3.69033         167.003         -48.1464         175.967         -48.1449         175.972       -0.0239791         142.392
0.623                   -3.75859         166.298          -48.063         173.655         -48.0615          173.66       -0.0242349          142.31
0.624                   -3.82767          165.59         -47.9798         171.341         -47.9783         171.346       -0.0244941         142.228
0.625                   -3.89757         164.881          -47.897         169.024         -47.8955         169.029       -0.0247568         142.146
0.626                    -3.9683          164.17         -47.8145         166.705          -47.813          166.71       -0.0250231         142.064
0.627                   -4.03987         163.457         -47.7324         164.384         -47.7309         164.389        -0.025293         141.981
0.628                   -4.11229         162.741         -47.6507         162.061         -47.6491         162.066       -0.0255668         141.898
0.629                   -4.18556         162.023         -47.5694         159.735         -47.5678          159.74       -0.0258444         141.815
