! TOUCHSTONE file generated by CST MICROWAVE STUDIO
! Date and time: Sat Oct 24 11:44:29 2020
! Project name: Scenario_1_Circular_Tissue_out_of_Line.cst
! Parameters = {dy1=-155.249; L_HA=400; MT=2.54; Rad_Dielectric=30; Rad_Lower=7.3; Rad_Upper=30; a_HA=580; a_WG=246; b_HA=500; b_WG=121; c_HA=0; c_WG=187; d_feed=85; dx1=1039; h_feed=15; h_lower=18; h_upper=40}
! Header version: 2018
! Port assignment regex: !\s*Touchstone port\s*([0-9]+)\s*=\s*(CST MWS port|CST DS port)\s*([0-9]+|Zmin|Zmax)\s*\(\"(.*)\"\)(\s*mode\s*([0-9]+))?.*
! Touchstone port assignment:
! Touchstone port 1 = CST MWS port 1 ("")
! Touchstone port 2 = CST MWS port 2 ("")
# GHz S DB R 50
0.5                      -0.1456        -122.112         -63.8088        -3.66095         -63.8088        -3.66095      -0.00754853         151.141
0.501                  -0.151599        -122.576         -63.6598        -5.48988         -63.6591        -5.48677       -0.0076005         151.076
0.502                  -0.157882        -123.041         -63.5089         -7.3414         -63.5075        -7.33531      -0.00765348         151.011
0.503                   -0.16445        -123.507         -63.3561        -9.21575          -63.354        -9.20681       -0.0077075         150.945
0.504                  -0.171303        -123.975         -63.2014        -11.1132         -63.1987        -11.1015      -0.00776257          150.88
0.505                  -0.178444        -124.444         -63.0448        -13.0339         -63.0414        -13.0197      -0.00781868         150.815
0.506                  -0.185873        -124.915         -62.8863        -14.9782         -62.8824        -14.9616      -0.00787587         150.749
0.507                  -0.193591        -125.386         -62.7261        -16.9462         -62.7216        -16.9274      -0.00793413         150.684
0.508                  -0.201598        -125.859         -62.5641        -18.9383         -62.5591        -18.9173      -0.00799349         150.618
0.509                  -0.209896        -126.334         -62.4004        -20.9546         -62.3949        -20.9317      -0.00805394         150.552
0.51                   -0.218486         -126.81          -62.235        -22.9953         -62.2291        -22.9707      -0.00811551         150.486
0.511                  -0.227367        -127.287          -62.068        -25.0607         -62.0616        -25.0345      -0.00817821          150.42
0.512                  -0.236541        -127.765         -61.8995         -27.151         -61.8927        -27.1233      -0.00824204         150.354
0.513                  -0.246007        -128.245         -61.7295        -29.2663         -61.7224        -29.2373      -0.00830703         150.288
0.514                  -0.255766        -128.726         -61.5582        -31.4069         -61.5507        -31.3767      -0.00837317         150.222
0.515                  -0.265818        -129.208         -61.3855        -33.5728         -61.3777        -33.5416      -0.00844048         150.156
0.516                  -0.276162        -129.691         -61.2117        -35.7642         -61.2036        -35.7322      -0.00850898          150.09
0.517                    -0.2868        -130.176         -61.0367        -37.9812         -61.0283        -37.9486      -0.00857867         150.023
0.518                  -0.297731        -130.662         -60.8607         -40.224         -60.8521        -40.1909      -0.00864957         149.957
0.519                  -0.308953        -131.149         -60.6838        -42.4925          -60.675        -42.4591      -0.00872168          149.89
0.52                   -0.320468        -131.637         -60.5062        -44.7869         -60.4972        -44.7533      -0.00879502         149.824
0.521                  -0.332274        -132.126         -60.3278        -47.1071         -60.3187        -47.0735       -0.0088696         149.757
0.522                   -0.34437        -132.617          -60.149        -49.4531         -60.1398        -49.4196      -0.00894543          149.69
0.523                  -0.356757        -133.109         -59.9697        -51.8248         -59.9604        -51.7916      -0.00902251         149.623
0.524                  -0.369431        -133.602         -59.7902        -54.2222         -59.7809        -54.1894      -0.00910087         149.556
0.525                  -0.382393        -134.096         -59.6106        -56.6449         -59.6012        -56.6127      -0.00918051         149.489
0.526                  -0.395641        -134.591         -59.4311        -59.0929         -59.4216        -59.0614      -0.00926143         149.422
0.527                  -0.409174        -135.088         -59.2517        -61.5659         -59.2423        -61.5351      -0.00934366         149.355
0.528                   -0.42299        -135.585         -59.0727        -64.0635         -59.0633        -64.0336      -0.00942719         149.288
0.529                  -0.437087        -136.084         -58.8942        -66.5854         -58.8849        -66.5565      -0.00951204          149.22
0.53                   -0.451463        -136.584         -58.7164        -69.1311         -58.7072        -69.1033      -0.00959822         149.153
0.531                  -0.466116        -137.085         -58.5394        -71.7001         -58.5303        -71.6734      -0.00968574         149.085
0.532                  -0.481043        -137.587         -58.3635        -74.2918         -58.3545        -74.2663       -0.0097746         149.017
0.533                  -0.496243        -138.091         -58.1887        -76.9055         -58.1799        -76.8813      -0.00986481         148.949
0.534                  -0.511712        -138.595         -58.0153        -79.5406         -58.0067        -79.5177      -0.00995639         148.882
0.535                  -0.527448        -139.101         -57.8434        -82.1962          -57.835        -82.1747       -0.0100493         148.814
0.536                  -0.543448        -139.608         -57.6732        -84.8714          -57.665        -84.8514       -0.0101436         148.745
0.537                  -0.559707        -140.116         -57.5048        -87.5654         -57.4968        -87.5467       -0.0102393         148.677
0.538                  -0.576224        -140.625         -57.3383        -90.2771         -57.3307        -90.2599       -0.0103364         148.609
0.539                  -0.592994        -141.135          -57.174        -93.0054         -57.1666        -92.9896       -0.0104349         148.541
0.54                   -0.610013        -141.647         -57.0119        -95.7493         -57.0048        -95.7348       -0.0105348         148.472
0.541                  -0.627278        -142.159         -56.8522        -98.5074         -56.8454        -98.4943        -0.010636         148.404
0.542                  -0.644784        -142.673         -56.6949        -101.279         -56.6885        -101.267       -0.0107387         148.335
0.543                  -0.662527        -143.188         -56.5403        -104.062         -56.5342        -104.051       -0.0108428         148.266
0.544                  -0.680503        -143.705         -56.3882        -106.855         -56.3825        -106.846       -0.0109483         148.197
0.545                  -0.698706        -144.222          -56.239        -109.658         -56.2335         -109.65       -0.0110551         148.128
0.546                  -0.717132        -144.742         -56.0925        -112.468         -56.0874        -112.461       -0.0111634         148.059
0.547                  -0.735777        -145.262         -55.9488        -115.284         -55.9441        -115.279       -0.0112731          147.99
0.548                  -0.754634        -145.784          -55.808        -118.106         -55.8036        -118.101       -0.0113843         147.921
0.549                  -0.773699        -146.307         -55.6701        -120.931         -55.6661        -120.927       -0.0114968         147.851
0.55                   -0.792966        -146.832          -55.535        -123.758         -55.5314        -123.755       -0.0116107         147.782
0.551                   -0.81243        -147.358         -55.4029        -126.586         -55.3996        -126.584        -0.011726         147.712
0.552                  -0.832087        -147.886         -55.2735        -129.414         -55.2705        -129.412       -0.0118427         147.642
0.553                  -0.851929        -148.415         -55.1469         -132.24         -55.1443        -132.238       -0.0119607         147.573
0.554                  -0.871952        -148.946         -55.0231        -135.062         -55.0208        -135.062       -0.0120802         147.503
0.555                  -0.892151        -149.479         -54.9019        -137.881         -54.8999        -137.881       -0.0122009         147.433
0.556                   -0.91252        -150.014         -54.7833        -140.695         -54.7816        -140.694       -0.0123231         147.362
0.557                  -0.933054         -150.55         -54.6671        -143.502         -54.6657        -143.502       -0.0124465         147.292
0.558                  -0.953749        -151.089         -54.5534        -146.302         -54.5522        -146.302       -0.0125713         147.222
0.559                  -0.974601         -151.63         -54.4418        -149.094          -54.441        -149.094       -0.0126974         147.151
0.56                   -0.995604        -152.173         -54.3325        -151.877         -54.3319        -151.878       -0.0128248         147.081
0.561                   -1.01676        -152.718         -54.2251        -154.651         -54.2247        -154.651       -0.0129534          147.01
0.562                   -1.03805        -153.266         -54.1197        -157.415         -54.1195        -157.415       -0.0130833         146.939
0.563                   -1.05949        -153.816          -54.016        -160.168          -54.016        -160.168       -0.0132144         146.868
0.564                   -1.08108        -154.369         -53.9139         -162.91         -53.9141         -162.91       -0.0133467         146.797
0.565                    -1.1028        -154.925         -53.8133         -165.64         -53.8137         -165.64       -0.0134802         146.726
0.566                   -1.12466        -155.484          -53.714        -168.359         -53.7146        -168.359       -0.0136149         146.654
0.567                   -1.14667        -156.046          -53.616        -171.066         -53.6166        -171.066       -0.0137507         146.583
0.568                   -1.16883        -156.612          -53.519        -173.762         -53.5198        -173.761       -0.0138876         146.511
0.569                   -1.19113        -157.181          -53.423        -176.445         -53.4238        -176.444       -0.0140256         146.439
0.57                     -1.2136        -157.754         -53.3278        -179.117         -53.3287        -179.116       -0.0141647         146.367
0.571                   -1.23623         -158.33         -53.2332         178.223         -53.2342         178.224       -0.0143049         146.295
0.572                   -1.25904        -158.911         -53.1392         175.575         -53.1403         175.576        -0.014446         146.223
0.573                   -1.28205        -159.497         -53.0457         172.938         -53.0468         172.939       -0.0145882         146.151
0.574                   -1.30526        -160.087         -52.9525         170.311         -52.9537         170.313       -0.0147314         146.079
0.575                    -1.3287        -160.682         -52.8596         167.696         -52.8607         167.698       -0.0148757         146.006
0.576                    -1.3524        -161.282         -52.7667          165.09         -52.7679         165.092       -0.0150209         145.933
0.577                   -1.37637        -161.887          -52.674         162.494         -52.6751         162.496       -0.0151671          145.86
0.578                   -1.40066        -162.498         -52.5811         159.907         -52.5823          159.91       -0.0153142         145.787
0.579                   -1.42529        -163.115         -52.4882          157.33         -52.4894         157.332       -0.0154624         145.714
0.58                     -1.4503        -163.738         -52.3951          154.76         -52.3962         154.762       -0.0156117         145.641
0.581                   -1.47575        -164.367         -52.3017         152.198         -52.3028           152.2       -0.0157619         145.568
0.582                   -1.50168        -165.002         -52.2081         149.642         -52.2091         149.645       -0.0159133         145.494
0.583                   -1.52814        -165.645         -52.1141         147.093         -52.1151         147.096       -0.0160657          145.42
0.584                    -1.5552        -166.295         -52.0197          144.55         -52.0206         144.553       -0.0162194         145.346
0.585                   -1.58292        -166.951         -51.9249         142.012         -51.9258         142.015       -0.0163742         145.272
0.586                   -1.61138        -167.615         -51.8296         139.478         -51.8305         139.481       -0.0165303         145.198
0.587                   -1.64065        -168.287         -51.7339         136.949         -51.7347         136.951       -0.0166877         145.124
0.588                   -1.67081        -168.966         -51.6378         134.422         -51.6385         134.424       -0.0168466         145.049
0.589                   -1.70194        -169.652         -51.5411         131.898         -51.5418           131.9       -0.0170069         144.975
0.59                    -1.73415        -170.346          -51.444         129.376         -51.4446         129.378       -0.0171688           144.9
0.591                   -1.76752        -171.048         -51.3465         126.855          -51.347         126.856       -0.0173324         144.825
0.592                   -1.80215        -171.756         -51.2485         124.334         -51.2489         124.336       -0.0174978         144.749
0.593                   -1.83814        -172.472         -51.1501         121.814         -51.1505         121.816        -0.017665         144.674
0.594                   -1.87558        -173.195         -51.0513         119.294         -51.0517         119.295       -0.0178342         144.598
0.595                   -1.91458        -173.925         -50.9522         116.772         -50.9525         116.773       -0.0180055         144.523
0.596                   -1.95524         -174.66         -50.8528         114.249          -50.853         114.249        -0.018179         144.447
0.597                   -1.99763        -175.402         -50.7531         111.724         -50.7533         111.724       -0.0183548         144.371
0.598                   -2.04186        -176.148         -50.6533         109.196         -50.6534         109.196        -0.018533         144.294
0.599                   -2.08801        -176.899         -50.5533         106.665         -50.5534         106.665       -0.0187138         144.218
0.6                     -2.13613        -177.654         -50.4533         104.132         -50.4533         104.131       -0.0188971         144.141
0.601                   -2.18631        -178.412         -50.3532         101.594         -50.3532         101.593       -0.0190832         144.064
0.602                   -2.23858        -179.172         -50.2532         99.0527         -50.2532         99.0518       -0.0192721         143.987
0.603                   -2.29299        -179.933         -50.1534         96.5071         -50.1534         96.5059        -0.019464          143.91
0.604                   -2.34956         179.305         -50.0538          93.957         -50.0538         93.9557       -0.0196588         143.833
0.605                    -2.4083         178.544         -49.9546         91.4025         -49.9545         91.4009       -0.0198567         143.755
0.606                    -2.4692         177.784         -49.8557         88.8432         -49.8556         88.8414       -0.0200578         143.677
0.607                   -2.53224         177.026         -49.7573         86.2792         -49.7572         86.2772       -0.0202621         143.599
0.608                   -2.59739         176.272         -49.6594         83.7104         -49.6593         83.7082       -0.0204697         143.521
0.609                    -2.6646         175.522         -49.5622         81.1368         -49.5621         81.1345       -0.0206807         143.443
0.61                    -2.73379         174.777         -49.4657         78.5587         -49.4656         78.5562       -0.0208951         143.364
0.611                   -2.80488         174.037         -49.3701          75.976           -49.37         75.9735       -0.0211129         143.285
0.612                   -2.87779         173.304         -49.2753         73.3891         -49.2752         73.3864       -0.0213343         143.206
0.613                   -2.95242         172.578         -49.1815         70.7981         -49.1814         70.7954       -0.0215593         143.127
0.614                   -3.02864          171.86         -49.0888         68.2034         -49.0887         68.2006       -0.0217878         143.047
0.615                   -3.10634          171.15         -48.9972         65.6053         -48.9971         65.6025         -0.02202         142.968
0.616                    -3.1854         170.449         -48.9067         63.0041         -48.9067         63.0014       -0.0222558         142.888
0.617                   -3.26568         169.756         -48.8175         60.4004         -48.8175         60.3977       -0.0224953         142.807
0.618                   -3.34705         169.073         -48.7296         57.7947         -48.7296          57.792       -0.0227386         142.727
0.619                   -3.42938         168.398          -48.643         55.1873          -48.643         55.1847       -0.0229856         142.646
0.62                    -3.51253         167.733         -48.5578         52.5789         -48.5579         52.5765       -0.0232363         142.566
0.621                   -3.59637         167.077         -48.4741         49.9701         -48.4741         49.9678       -0.0234909         142.485
0.622                   -3.68079          166.43         -48.3917         47.3614         -48.3918         47.3592       -0.0237492         142.403
0.623                   -3.76564         165.792         -48.3108         44.7534         -48.3109         44.7515       -0.0240114         142.322
0.624                   -3.85081         165.162         -48.2314         42.1468         -48.2315         42.1451       -0.0242774          142.24
0.625                   -3.93619         164.541         -48.1534         39.5423         -48.1535         39.5407       -0.0245473         142.158
0.626                   -4.02166         163.927         -48.0769         36.9403          -48.077          36.939       -0.0248211         142.076
0.627                   -4.10713         163.321         -48.0017         34.3416         -48.0019         34.3406       -0.0250988         141.993
0.628                    -4.1925         162.721          -47.928         31.7468         -47.9282          31.746       -0.0253805          141.91
0.629                   -4.27767         162.127         -47.8556         29.1564         -47.8558         29.1559       -0.0256661         141.827
