! TOUCHSTONE file generated by CST MICROWAVE STUDIO
! Date and time: Mon Oct 26 12:06:13 2020
! Project name: Scenario_1_Circular_Tissue_out_of_Line_v2.cst
! Parameters = {dy1=-138.4; L_HA=400; MT=2.54; Rad_Dielectric=30; Rad_Lower=7.3; Rad_Upper=30; a_HA=580; a_WG=246; b_HA=500; b_WG=121; c_HA=0; c_WG=187; d_feed=85; dx1=173; h_feed=15; h_lower=18; h_upper=40}
! Header version: 2018
! Port assignment regex: !\s*Touchstone port\s*([0-9]+)\s*=\s*(CST MWS port|CST DS port)\s*([0-9]+|Zmin|Zmax)\s*\(\"(.*)\"\)(\s*mode\s*([0-9]+))?.*
! Touchstone port assignment:
! Touchstone port 1 = CST MWS port 1 ("")
! Touchstone port 2 = CST MWS port 2 ("")
# GHz S DB R 50
0.5                    -0.117939        -122.573         -58.0522         130.827         -58.0522         130.827      -0.00693248         151.133
0.501                  -0.123651        -123.017         -57.8389         129.798         -57.8395           129.8      -0.00698808         151.068
0.502                  -0.129525        -123.463          -57.625         128.758         -57.6262         128.761      -0.00704419         151.003
0.503                  -0.135569        -123.912         -57.4104         127.704         -57.4122         127.709      -0.00710082         150.937
0.504                  -0.141794        -124.364         -57.1953         126.638         -57.1976         126.644      -0.00715799         150.872
0.505                  -0.148209        -124.818         -56.9797         125.558         -56.9824         125.565      -0.00721572         150.806
0.506                  -0.154826        -125.275         -56.7635         124.464         -56.7666         124.472      -0.00727403          150.74
0.507                  -0.161656        -125.735         -56.5469         123.356         -56.5503         123.366      -0.00733293         150.675
0.508                  -0.168711        -126.198         -56.3297         122.233         -56.3335         122.244      -0.00739245         150.609
0.509                  -0.176006        -126.664         -56.1122         121.096         -56.1163         121.108      -0.00745261         150.543
0.51                   -0.183553        -127.132         -55.8942         119.943         -55.8986         119.957      -0.00751346         150.477
0.511                  -0.191367        -127.604         -55.6759         118.775         -55.6805          118.79      -0.00757501         150.411
0.512                  -0.199464        -128.078         -55.4573         117.591          -55.462         117.607       -0.0076373         150.344
0.513                  -0.207859        -128.556         -55.2384         116.391         -55.2433         116.408      -0.00770037         150.278
0.514                  -0.216571        -129.036         -55.0192         115.175         -55.0243         115.192      -0.00776427         150.212
0.515                  -0.225617         -129.52         -54.7999         113.941         -54.8051          113.96      -0.00782903         150.145
0.516                  -0.235015        -130.006         -54.5805         112.691         -54.5857          112.71      -0.00789472         150.079
0.517                  -0.244785        -130.496          -54.361         111.423         -54.3663         111.443      -0.00796138         150.012
0.518                  -0.254949        -130.989         -54.1415         110.137         -54.1468         110.158      -0.00802908         149.945
0.519                  -0.265526        -131.484         -53.9221         108.833         -53.9274         108.854      -0.00809788         149.878
0.52                   -0.276539        -131.983         -53.7028          107.51         -53.7081         107.532      -0.00816785         149.811
0.521                   -0.28801        -132.484         -53.4838         106.169          -53.489         106.192      -0.00823907         149.744
0.522                  -0.299964        -132.988          -53.265         104.809         -53.2701         104.832      -0.00831161         149.677
0.523                  -0.312422        -133.496         -53.0466          103.43         -53.0517         103.453      -0.00838557          149.61
0.524                  -0.325411        -134.005         -52.8287         102.031         -52.8336         102.054      -0.00846103         149.543
0.525                  -0.338953        -134.518         -52.6113         100.612         -52.6161         100.636       -0.0085381         149.475
0.526                  -0.353074        -135.033         -52.3946          99.174         -52.3992         99.1974      -0.00861687         149.408
0.527                  -0.367798         -135.55         -52.1786         97.7155         -52.1831         97.7388      -0.00869745          149.34
0.528                  -0.383149         -136.07         -51.9635         96.2367         -51.9678         96.2599      -0.00877996         149.273
0.529                   -0.39915        -136.592         -51.7493         94.7376         -51.7535         94.7605      -0.00886451         149.205
0.53                   -0.415823        -137.116         -51.5363          93.218         -51.5402         93.2407      -0.00895123         149.137
0.531                  -0.433189        -137.641         -51.3244          91.678         -51.3281         91.7002      -0.00904023         149.069
0.532                  -0.451268        -138.168         -51.1138         90.1176         -51.1174         90.1392      -0.00913165         149.001
0.533                  -0.470077        -138.696         -50.9047         88.5367          -50.908         88.5577      -0.00922562         148.933
0.534                  -0.489629        -139.225         -50.6971         86.9354         -50.7002         86.9558      -0.00932226         148.864
0.535                  -0.509938        -139.755         -50.4912          85.314         -50.4941         85.3335       -0.0094217         148.796
0.536                  -0.531009        -140.286         -50.2872         83.6726         -50.2898         83.6912      -0.00952406         148.727
0.537                  -0.552848        -140.816         -50.0851         82.0113         -50.0875          82.029      -0.00962948         148.659
0.538                  -0.575453        -141.346          -49.885         80.3306         -49.8873         80.3472      -0.00973806          148.59
0.539                  -0.598817        -141.876         -49.6872         78.6308         -49.6892         78.6463      -0.00984992         148.521
0.54                   -0.622929        -142.404         -49.4918         76.9122         -49.4935         76.9265      -0.00996515         148.452
0.541                  -0.647771        -142.932         -49.2988         75.1755         -49.3003         75.1885       -0.0100838         148.383
0.542                  -0.673317        -143.457         -49.1084          73.421         -49.1098         73.4327       -0.0102061         148.314
0.543                  -0.699537        -143.981         -48.9207         71.6495         -48.9219         71.6597       -0.0103319         148.245
0.544                  -0.726392        -144.502         -48.7359         69.8615         -48.7369         69.8703       -0.0104614         148.176
0.545                  -0.753837         -145.02         -48.5541         68.0579         -48.5549         68.0652       -0.0105946         148.106
0.546                  -0.781817        -145.536         -48.3753         66.2393          -48.376         66.2451       -0.0107315         148.037
0.547                  -0.810274        -146.048         -48.1998         64.4067         -48.2003         64.4109        -0.010872         147.967
0.548                  -0.839141        -146.556         -48.0275         62.5609         -48.0279         62.5636       -0.0110163         147.897
0.549                  -0.868346        -147.061         -47.8586         60.7029         -47.8588          60.704       -0.0111641         147.827
0.55                   -0.897812        -147.562         -47.6931         58.8337         -47.6933         58.8332       -0.0113155         147.757
0.551                  -0.927456        -148.059         -47.5312         56.9543         -47.5312         56.9522       -0.0114703         147.687
0.552                  -0.957195        -148.552         -47.3728         55.0658         -47.3728         55.0622       -0.0116285         147.617
0.553                   -0.98694        -149.041         -47.2181         53.1694          -47.218         53.1642         -0.01179         147.547
0.554                    -1.0166        -149.526         -47.0671         51.2661         -47.0669         51.2594       -0.0119545         147.476
0.555                    -1.0461        -150.007         -46.9197         49.3571         -46.9196         49.3489        -0.012122         147.406
0.556                   -1.07534        -150.485         -46.7761         47.4436         -46.7759          47.434       -0.0122923         147.335
0.557                   -1.10425        -150.959         -46.6362         45.5268          -46.636         45.5158       -0.0124653         147.265
0.558                   -1.13275        -151.431            -46.5         43.6078         -46.4998         43.5955       -0.0126406         147.194
0.559                   -1.16076          -151.9         -46.3675         41.6878         -46.3673         41.6743       -0.0128183         147.123
0.56                    -1.18823        -152.368         -46.2387         39.7679         -46.2385         39.7533        -0.012998         147.052
0.561                   -1.21509        -152.834         -46.1135         37.8493         -46.1133         37.8336       -0.0131796         146.981
0.562                   -1.24131        -153.299         -45.9918         35.9331         -45.9917         35.9164        -0.013363          146.91
0.563                   -1.26683        -153.764         -45.8736         34.0203         -45.8736         34.0027       -0.0135479         146.838
0.564                   -1.29164        -154.229         -45.7589          32.112         -45.7589         32.0936       -0.0137343         146.767
0.565                   -1.31572        -154.696         -45.6475         30.2091         -45.6475           30.19       -0.0139218         146.695
0.566                   -1.33905        -155.164         -45.5393         28.3126         -45.5394         28.2928       -0.0141105         146.624
0.567                   -1.36165        -155.634         -45.4342         26.4232         -45.4345         26.4029       -0.0143002         146.552
0.568                    -1.3835        -156.107         -45.3322         24.5419         -45.3325         24.5212       -0.0144907          146.48
0.569                   -1.40464        -156.583         -45.2331         22.6694         -45.2335         22.6483        -0.014682         146.408
0.57                    -1.42509        -157.063         -45.1368         20.8064         -45.1372          20.785        -0.014874         146.336
0.571                   -1.44488        -157.548         -45.0431         18.9534         -45.0437         18.9319       -0.0150665         146.263
0.572                   -1.46405        -158.038          -44.952         17.1111         -44.9526         17.0895       -0.0152596         146.191
0.573                   -1.48264        -158.534         -44.8633           15.28          -44.864         15.2584       -0.0154531         146.118
0.574                    -1.5007        -159.035         -44.7769         13.4605         -44.7777         13.4389        -0.015647         146.046
0.575                   -1.51828        -159.543         -44.6926         11.6529         -44.6935         11.6315       -0.0158413         145.973
0.576                   -1.53544        -160.058         -44.6104         9.85761         -44.6113         9.83637       -0.0160361           145.9
0.577                   -1.55223        -160.579           -44.53         8.07482         -44.5309         8.05387       -0.0162311         145.827
0.578                   -1.56871        -161.108         -44.4514         6.30476         -44.4524         6.28414       -0.0164266         145.754
0.579                   -1.58494        -161.645         -44.3743         4.54754         -44.3754         4.52733       -0.0166225          145.68
0.58                    -1.60099         -162.19         -44.2988         2.80327         -44.2999          2.7835       -0.0168188         145.607
0.581                    -1.6169        -162.743         -44.2247         1.07197         -44.2258         1.05269       -0.0170155         145.533
0.582                   -1.63274        -163.304         -44.1518       -0.646374          -44.153       -0.665121       -0.0172126          145.46
0.583                   -1.64856        -163.874           -44.08        -2.35181         -44.0812        -2.36998       -0.0174103         145.386
0.584                   -1.66444        -164.452         -44.0092        -4.04442         -44.0105          -4.062       -0.0176086         145.311
0.585                   -1.68042        -165.039         -43.9394        -5.72436         -43.9406        -5.74132       -0.0178075         145.237
0.586                   -1.69656        -165.635         -43.8703        -7.39179         -43.8716        -7.40809        -0.018007         145.163
0.587                   -1.71292         -166.24         -43.8019        -9.04691         -43.8033        -9.06254       -0.0182072         145.088
0.588                   -1.72955        -166.854         -43.7342        -10.6899         -43.7355        -10.7049       -0.0184083         145.013
0.589                    -1.7465        -167.477         -43.6669        -12.3211         -43.6682        -12.3354       -0.0186101         144.939
0.59                    -1.76384        -168.109         -43.6001        -13.9408         -43.6014        -13.9544       -0.0188129         144.863
0.591                    -1.7816        -168.751         -43.5336        -15.5492         -43.5349         -15.562       -0.0190166         144.788
0.592                   -1.79984        -169.401         -43.4674        -17.1466         -43.4687        -17.1588       -0.0192214         144.713
0.593                   -1.81861        -170.061         -43.4014        -18.7335         -43.4026        -18.7449       -0.0194273         144.637
0.594                   -1.83796         -170.73         -43.3355          -20.31         -43.3367        -20.3208       -0.0196344         144.561
0.595                   -1.85793        -171.409         -43.2696        -21.8767         -43.2708        -21.8868       -0.0198427         144.486
0.596                   -1.87858        -172.097         -43.2038        -23.4338         -43.2049        -23.4433       -0.0200524         144.409
0.597                   -1.89996        -172.794         -43.1379        -24.9818          -43.139        -24.9906       -0.0202634         144.333
0.598                    -1.9221          -173.5         -43.0719         -26.521          -43.073        -26.5291       -0.0204759         144.257
0.599                   -1.94506        -174.216         -43.0057        -28.0517         -43.0068        -28.0593         -0.02069          144.18
0.6                     -1.96889        -174.942         -42.9394        -29.5745         -42.9404        -29.5814       -0.0209056         144.103
0.601                   -1.99364        -175.676         -42.8728        -31.0896         -42.8737         -31.096       -0.0211229         144.026
0.602                   -2.01934         -176.42          -42.806        -32.5975         -42.8068        -32.6033        -0.021342         143.949
0.603                   -2.04606        -177.174         -42.7388        -34.0985         -42.7397        -34.1038        -0.021563         143.871
0.604                   -2.07384        -177.937         -42.6714        -35.5931         -42.6721        -35.5979       -0.0217858         143.794
0.605                   -2.10273        -178.709         -42.6036        -37.0816         -42.6043        -37.0859       -0.0220106         143.716
0.606                   -2.13278        -179.491         -42.5354        -38.5644         -42.5361        -38.5682       -0.0222374         143.638
0.607                   -2.16405         179.717         -42.4669        -40.0419         -42.4675        -40.0453       -0.0224664         143.559
0.608                   -2.19659         178.917          -42.398        -41.5144         -42.3985        -41.5174       -0.0226976         143.481
0.609                   -2.23045         178.107         -42.3287        -42.9823         -42.3291        -42.9849        -0.022931         143.402
0.61                    -2.26569         177.287         -42.2589         -44.446         -42.2594        -44.4483       -0.0231668         143.323
0.611                   -2.30237         176.458         -42.1888        -45.9058         -42.1892        -45.9077       -0.0234051         143.244
0.612                   -2.34054         175.619         -42.1182        -47.3621         -42.1186        -47.3637       -0.0236458         143.165
0.613                   -2.38027         174.772         -42.0473        -48.8152         -42.0475        -48.8165       -0.0238891         143.085
0.614                   -2.42161         173.914         -41.9759        -50.2654         -41.9761        -50.2664       -0.0241351         143.006
0.615                   -2.46464         173.048         -41.9042         -51.713         -41.9043        -51.7138       -0.0243839         142.926
0.616                   -2.50941         172.172          -41.832        -53.1584         -41.8321         -53.159       -0.0246355         142.845
0.617                     -2.556         171.287         -41.7595        -54.6018         -41.7595        -54.6022         -0.02489         142.765
0.618                   -2.60448         170.393         -41.6866        -56.0435         -41.6866        -56.0437       -0.0251475         142.684
0.619                   -2.65491          169.49         -41.6133        -57.4838         -41.6133        -57.4839        -0.025408         142.603
0.62                    -2.70738         168.578         -41.5398         -58.923         -41.5397         -58.923       -0.0256718         142.522
0.621                   -2.76195         167.657         -41.4659        -60.3613         -41.4658        -60.3612       -0.0259388         142.441
0.622                   -2.81871         166.728         -41.3917         -61.799         -41.3915        -61.7987       -0.0262092         142.359
0.623                   -2.87773          165.79         -41.3172        -63.2362          -41.317        -63.2358        -0.026483         142.277
0.624                    -2.9391         164.843         -41.2425        -64.6732         -41.2423        -64.6728       -0.0267604         142.195
0.625                    -3.0029         163.888         -41.1676        -66.1102         -41.1673        -66.1097       -0.0270414         142.112
0.626                   -3.06922         162.925         -41.0925        -67.5474         -41.0922        -67.5469       -0.0273261          142.03
0.627                   -3.13815         161.954         -41.0172        -68.9849         -41.0169        -68.9844       -0.0276147         141.947
0.628                   -3.20979         160.975         -40.9418        -70.4229         -40.9414        -70.4224       -0.0279072         141.863
0.629                   -3.28421         159.989         -40.8662        -71.8616         -40.8659         -71.861       -0.0282038          141.78
