! TOUCHSTONE file generated by CST MICROWAVE STUDIO
! Date and time: Wed Oct 28 19:35:58 2020
! Project name: Scenario_1_Circular_Tissue_out_of_Line_v2.cst
! Parameters = {dy1=-138.4; L_HA=400; MT=2.54; Rad_Dielectric=30; Rad_Lower=7.3; Rad_Upper=30; a_HA=580; a_WG=246; b_HA=500; b_WG=121; c_HA=0; c_WG=187; d_feed=85; dx1=346; h_feed=15; h_lower=18; h_upper=40}
! Header version: 2018
! Port assignment regex: !\s*Touchstone port\s*([0-9]+)\s*=\s*(CST MWS port|CST DS port)\s*([0-9]+|Zmin|Zmax)\s*\(\"(.*)\"\)(\s*mode\s*([0-9]+))?.*
! Touchstone port assignment:
! Touchstone port 1 = CST MWS port 1 ("")
! Touchstone port 2 = CST MWS port 2 ("")
# GHz S DB R 50
0.5                    -0.167561        -122.266         -59.1222         24.3499         -59.1222         24.3499       -0.0079752         151.132
0.501                  -0.172007        -122.691         -58.9967         22.8883         -58.9967         22.8905      -0.00804207         151.067
0.502                  -0.176532         -123.12         -58.8715         21.4273         -58.8714         21.4316      -0.00810928         151.001
0.503                  -0.181142         -123.55         -58.7465         19.9672         -58.7463         19.9735      -0.00817684         150.936
0.504                   -0.18584        -123.983         -58.6217         18.5081         -58.6214         18.5161      -0.00824474         150.871
0.505                   -0.19063        -124.419         -58.4971         17.0502         -58.4967         17.0599      -0.00831298         150.805
0.506                  -0.195518        -124.857         -58.3727         15.5937         -58.3722         15.6048      -0.00838158          150.74
0.507                  -0.200507        -125.298         -58.2485         14.1388         -58.2479         14.1512      -0.00845053         150.674
0.508                  -0.205604        -125.741         -58.1244         12.6855         -58.1236         12.6991      -0.00851984         150.608
0.509                  -0.210811        -126.187         -58.0004         11.2341         -57.9995         11.2486      -0.00858951         150.543
0.51                   -0.216136        -126.636         -57.8765         9.78458         -57.8755         9.79997      -0.00865954         150.477
0.511                  -0.221584        -127.087         -57.7526         8.33716         -57.7516         8.35326      -0.00872994         150.411
0.512                   -0.22716        -127.541         -57.6288         6.89191         -57.6276         6.90857       -0.0088007         150.345
0.513                   -0.23287        -127.998          -57.505         5.44891         -57.5037         5.46601      -0.00887184         150.279
0.514                  -0.238721        -128.458         -57.3812         4.00824         -57.3798         4.02563      -0.00894335         150.213
0.515                  -0.244718         -128.92         -57.2574         2.56994         -57.2558         2.58751      -0.00901525         150.146
0.516                  -0.250869        -129.386         -57.1334         1.13406         -57.1318          1.1517      -0.00908753          150.08
0.517                   -0.25718        -129.854         -57.0093       -0.299368         -57.0076       -0.281773      -0.00916019         150.014
0.518                   -0.26366        -130.326         -56.8851        -1.73034         -56.8833        -1.71289      -0.00923326         149.947
0.519                  -0.270314          -130.8         -56.7607        -3.15885         -56.7588        -3.14165      -0.00930672         149.881
0.52                   -0.277151        -131.278         -56.6361        -4.58494         -56.6341        -4.56806      -0.00938058         149.814
0.521                  -0.284179        -131.758         -56.5112        -6.00862         -56.5092        -5.99215      -0.00945485         149.747
0.522                  -0.291407        -132.242         -56.3861        -7.42996          -56.384        -7.41397      -0.00952954          149.68
0.523                  -0.298843        -132.729         -56.2606        -8.84902         -56.2585        -8.83358      -0.00960465         149.613
0.524                  -0.306496        -133.219         -56.1348        -10.2659         -56.1326         -10.251      -0.00968019         149.546
0.525                  -0.314376        -133.713         -56.0086        -11.6807         -56.0064        -11.6665      -0.00975616         149.479
0.526                  -0.322492        -134.209          -55.882        -13.0935         -55.8798          -13.08      -0.00983257         149.412
0.527                  -0.330855        -134.709         -55.7549        -14.5044         -55.7527        -14.4916      -0.00990944         149.345
0.528                  -0.339475        -135.213         -55.6274        -15.9137         -55.6252        -15.9017      -0.00998676         149.277
0.529                  -0.348362        -135.719         -55.4993        -17.3214         -55.4972        -17.3101       -0.0100646          149.21
0.53                   -0.357529        -136.229         -55.3707        -18.7277         -55.3686        -18.7173       -0.0101428         149.142
0.531                  -0.366987        -136.743         -55.2416        -20.1329         -55.2395        -20.1233       -0.0102216         149.075
0.532                  -0.376748         -137.26         -55.1119        -21.5371         -55.1098        -21.5283       -0.0103008         149.007
0.533                  -0.386825        -137.781         -54.9815        -22.9406         -54.9795        -22.9325       -0.0103806         148.939
0.534                   -0.39723        -138.305         -54.8505        -24.3435         -54.8486        -24.3362       -0.0104609         148.871
0.535                  -0.407978        -138.832         -54.7188        -25.7462          -54.717        -25.7397       -0.0105417         148.803
0.536                  -0.419081        -139.364         -54.5865        -27.1488         -54.5847        -27.1431       -0.0106231         148.735
0.537                  -0.430555        -139.899         -54.4534        -28.5517         -54.4518        -28.5467        -0.010705         148.667
0.538                  -0.442414        -140.437         -54.3197        -29.9552         -54.3181        -29.9508       -0.0107875         148.598
0.539                  -0.454674        -140.979         -54.1852        -31.3594         -54.1837        -31.3557       -0.0108706          148.53
0.54                    -0.46735        -141.525         -54.0499        -32.7648         -54.0486        -32.7617       -0.0109543         148.461
0.541                  -0.480458        -142.074         -53.9139        -34.1716         -53.9127         -34.169       -0.0110387         148.393
0.542                  -0.494016        -142.628         -53.7772        -35.5801          -53.776        -35.5781       -0.0111237         148.324
0.543                  -0.508041        -143.184         -53.6396        -36.9907         -53.6386        -36.9892       -0.0112094         148.255
0.544                   -0.52255        -143.745         -53.5013        -38.4037         -53.5004        -38.4026       -0.0112958         148.186
0.545                  -0.537561        -144.309         -53.3622        -39.8194         -53.3614        -39.8187       -0.0113828         148.117
0.546                  -0.553094        -144.877         -53.2224        -41.2382         -53.2217        -41.2378       -0.0114707         148.048
0.547                  -0.569167        -145.449         -53.0817        -42.6604         -53.0812        -42.6603       -0.0115593         147.978
0.548                    -0.5858        -146.024         -52.9404        -44.0864         -52.9399        -44.0865       -0.0116487         147.909
0.549                  -0.603013        -146.603         -52.7982        -45.5165         -52.7979        -45.5168       -0.0117389         147.839
0.55                   -0.620826        -147.185         -52.6553        -46.9511         -52.6551        -46.9515         -0.01183          147.77
0.551                  -0.639259        -147.771         -52.5117        -48.3905         -52.5117         -48.391        -0.011922           147.7
0.552                  -0.658335        -148.361         -52.3674        -49.8351         -52.3675        -49.8356       -0.0120149          147.63
0.553                  -0.678074        -148.954         -52.2224        -51.2852         -52.2226        -51.2857       -0.0121088          147.56
0.554                  -0.698497         -149.55         -52.0768        -52.7412          -52.077        -52.7417       -0.0122037          147.49
0.555                  -0.719627         -150.15         -51.9305        -54.2034         -51.9309        -54.2038       -0.0122996         147.419
0.556                  -0.741486        -150.753         -51.7836        -55.6722         -51.7841        -55.6725       -0.0123966         147.349
0.557                  -0.764096         -151.36         -51.6362        -57.1479         -51.6367         -57.148       -0.0124947         147.278
0.558                  -0.787477        -151.969         -51.4882        -58.6309         -51.4889        -58.6308        -0.012594         147.208
0.559                  -0.811654        -152.582         -51.3398        -60.1214         -51.3405         -60.121       -0.0126945         147.137
0.56                   -0.836646        -153.198         -51.1909        -61.6198         -51.1917        -61.6191       -0.0127963         147.066
0.561                  -0.862477        -153.816         -51.0416        -63.1263         -51.0424        -63.1254       -0.0128994         146.995
0.562                  -0.889166        -154.437          -50.892        -64.6413         -50.8929          -64.64       -0.0130038         146.924
0.563                  -0.916735        -155.061          -50.742        -66.1649          -50.743        -66.1634       -0.0131097         146.852
0.564                  -0.945204        -155.687         -50.5919        -67.6976         -50.5928        -67.6957        -0.013217         146.781
0.565                  -0.974592        -156.315         -50.4415        -69.2395         -50.4425        -69.2372       -0.0133259         146.709
0.566                   -1.00492        -156.945         -50.2911        -70.7908         -50.2921        -70.7882       -0.0134364         146.638
0.567                    -1.0362        -157.578         -50.1405        -72.3517         -50.1416        -72.3487       -0.0135485         146.566
0.568                   -1.06845        -158.212           -49.99        -73.9224         -49.9911        -73.9191       -0.0136623         146.494
0.569                   -1.10169        -158.847         -49.8396        -75.5031         -49.8407        -75.4995       -0.0137779         146.422
0.57                    -1.13593        -159.484         -49.6893        -77.0939         -49.6904        -77.0899       -0.0138953         146.349
0.571                   -1.17118        -160.122         -49.5392        -78.6949         -49.5403        -78.6906       -0.0140146         146.277
0.572                   -1.20745        -160.761         -49.3895        -80.3062         -49.3905        -80.3016       -0.0141359         146.204
0.573                   -1.24476        -161.401         -49.2401        -81.9278         -49.2411        -81.9229       -0.0142592         146.132
0.574                    -1.2831        -162.041         -49.0911        -83.5597         -49.0921        -83.5546       -0.0143846         146.059
0.575                   -1.32247        -162.681         -48.9427        -85.2021         -48.9437        -85.1966       -0.0145122         145.986
0.576                   -1.36289         -163.32         -48.7949        -86.8547         -48.7958        -86.8491        -0.014642         145.913
0.577                   -1.40434         -163.96         -48.6477        -88.5176         -48.6486        -88.5117       -0.0147741         145.839
0.578                   -1.44683        -164.599         -48.5014        -90.1906         -48.5022        -90.1846       -0.0149085         145.766
0.579                   -1.49034        -165.236         -48.3558        -91.8736         -48.3566        -91.8675       -0.0150453         145.692
0.58                    -1.53487        -165.873         -48.2112        -93.5664          -48.212        -93.5602       -0.0151846         145.618
0.581                   -1.58039        -166.508         -48.0676        -95.2689         -48.0683        -95.2627       -0.0153265         145.545
0.582                   -1.62689        -167.141          -47.925        -96.9808         -47.9257        -96.9745       -0.0154709          145.47
0.583                   -1.67435        -167.772         -47.7836        -98.7019         -47.7842        -98.6956        -0.015618         145.396
0.584                   -1.72275        -168.401         -47.6434        -100.432          -47.644        -100.425       -0.0157678         145.322
0.585                   -1.77204        -169.027         -47.5045         -102.17          -47.505        -102.164       -0.0159204         145.247
0.586                   -1.82221         -169.65         -47.3669        -103.917         -47.3674         -103.91       -0.0160758         145.172
0.587                   -1.87321        -170.271         -47.2307        -105.671         -47.2311        -105.665        -0.016234         145.098
0.588                     -1.925        -170.888          -47.096        -107.432         -47.0964        -107.427       -0.0163951         145.022
0.589                   -1.97754        -171.501         -46.9629        -109.201         -46.9632        -109.195       -0.0165592         144.947
0.59                    -2.03078        -172.111         -46.8313        -110.976         -46.8315         -110.97       -0.0167263         144.872
0.591                   -2.08467        -172.716         -46.7013        -112.756         -46.7015        -112.751       -0.0168964         144.796
0.592                   -2.13916        -173.318          -46.573        -114.543         -46.5732        -114.538       -0.0170695          144.72
0.593                   -2.19419        -173.916         -46.4464        -116.334         -46.4465        -116.329       -0.0172458         144.645
0.594                   -2.24971         -174.51         -46.3215        -118.129         -46.3216        -118.125       -0.0174252         144.568
0.595                   -2.30564        -175.099         -46.1983        -119.928         -46.1984        -119.924       -0.0176077         144.492
0.596                   -2.36194        -175.684          -46.077         -121.73          -46.077        -121.727       -0.0177934         144.416
0.597                   -2.41854        -176.265         -45.9574        -123.535         -45.9574        -123.532       -0.0179822         144.339
0.598                   -2.47537        -176.842         -45.8396        -125.342         -45.8396        -125.339       -0.0181743         144.262
0.599                   -2.53237        -177.415         -45.7236        -127.151         -45.7236        -127.148       -0.0183696         144.185
0.6                     -2.58948        -177.984         -45.6094         -128.96         -45.6093        -128.957       -0.0185682         144.108
0.601                   -2.64664        -178.549         -45.4969         -130.77         -45.4969        -130.767       -0.0187699         144.031
0.602                   -2.70378        -179.111         -45.3862        -132.579         -45.3862        -132.577        -0.018975         143.953
0.603                   -2.76085         -179.67         -45.2773        -134.388         -45.2773        -134.386       -0.0191832         143.875
0.604                   -2.81778         179.775         -45.1701        -136.195           -45.17        -136.193       -0.0193948         143.797
0.605                   -2.87454         179.222         -45.0645            -138         -45.0645        -137.999       -0.0196096         143.719
0.606                   -2.93106         178.671         -44.9606        -139.803         -44.9606        -139.802       -0.0198277         143.641
0.607                    -2.9873         178.122         -44.8584        -141.604         -44.8583        -141.603       -0.0200491         143.562
0.608                   -3.04322         177.574         -44.7576        -143.401         -44.7576          -143.4       -0.0202737         143.483
0.609                   -3.09879         177.028         -44.6584        -145.194         -44.6584        -145.194       -0.0205017         143.404
0.61                    -3.15397         176.481         -44.5606        -146.983         -44.5606        -146.983       -0.0207329         143.325
0.611                   -3.20875         175.935         -44.4643        -148.768         -44.4643        -148.768       -0.0209674         143.246
0.612                   -3.26309         175.388         -44.3692        -150.548         -44.3693        -150.548       -0.0212052         143.166
0.613                   -3.31699         174.841         -44.2755        -152.322         -44.2756        -152.322       -0.0214463         143.086
0.614                   -3.37043         174.291          -44.183        -154.091          -44.183        -154.092       -0.0216907         143.006
0.615                   -3.42343         173.739         -44.0916        -155.855         -44.0917        -155.855       -0.0219384         142.926
0.616                   -3.47599         173.185         -44.0013        -157.612         -44.0014        -157.613       -0.0221894         142.846
0.617                   -3.52811         172.627         -43.9121        -159.364         -43.9122        -159.364       -0.0224438         142.765
0.618                   -3.57981         172.066         -43.8238        -161.109         -43.8239        -161.109       -0.0227015         142.684
0.619                   -3.63113         171.499         -43.7363        -162.848         -43.7365        -162.848       -0.0229626         142.603
0.62                    -3.68209         170.928         -43.6497         -164.58         -43.6499         -164.58        -0.023227         142.521
0.621                   -3.73272         170.352         -43.5639        -166.305          -43.564        -166.306       -0.0234949          142.44
0.622                   -3.78307         169.769         -43.4787        -168.024         -43.4789        -168.025       -0.0237661         142.358
0.623                   -3.83319          169.18         -43.3941        -169.736         -43.3943        -169.737       -0.0240408         142.276
0.624                   -3.88313         168.584         -43.3101        -171.442         -43.3103        -171.442        -0.024319         142.193
0.625                   -3.93295          167.98         -43.2266        -173.141         -43.2268        -173.141       -0.0246007         142.111
0.626                   -3.98271         167.368         -43.1435        -174.833         -43.1437        -174.833       -0.0248859         142.028
0.627                   -4.03247         166.748         -43.0607        -176.519         -43.0609        -176.519       -0.0251747         141.945
0.628                   -4.08231         166.119         -42.9783        -178.198         -42.9785        -178.198       -0.0254672         141.861
0.629                   -4.13231          165.48         -42.8961        -179.871         -42.8963        -179.871       -0.0257633         141.778
