! TOUCHSTONE file generated by CST MICROWAVE STUDIO
! Date and time: Wed Oct 28 19:15:47 2020
! Project name: Scenario_1_Circular_Tissue_out_of_Line.cst
! Parameters = {dy1=-137.908; L_HA=400; MT=2.54; Rad_Dielectric=30; Rad_Lower=7.3; Rad_Upper=30; a_HA=580; a_WG=246; b_HA=500; b_WG=121; c_HA=0; c_WG=187; d_feed=85; dx1=693; h_feed=15; h_lower=18; h_upper=40}
! Header version: 2018
! Port assignment regex: !\s*Touchstone port\s*([0-9]+)\s*=\s*(CST MWS port|CST DS port)\s*([0-9]+|Zmin|Zmax)\s*\(\"(.*)\"\)(\s*mode\s*([0-9]+))?.*
! Touchstone port assignment:
! Touchstone port 1 = CST MWS port 1 ("")
! Touchstone port 2 = CST MWS port 2 ("")
# GHz S DB R 50
0.5                    -0.152993        -122.281         -62.3529         -169.58         -62.3312         -169.52      -0.00771915         151.124
0.501                  -0.157072        -122.703         -62.2304        -171.139         -62.2149        -171.069       -0.0077673         151.059
0.502                  -0.161198        -123.128         -62.1065        -172.711         -62.0969        -172.632      -0.00781657         150.994
0.503                  -0.165378        -123.555         -61.9812        -174.296         -61.9773        -174.208      -0.00786697         150.928
0.504                  -0.169624        -123.987         -61.8545        -175.894          -61.856        -175.798      -0.00791851         150.863
0.505                  -0.173946        -124.421         -61.7264        -177.505         -61.7331        -177.402      -0.00797119         150.797
0.506                  -0.178353        -124.858          -61.597         -179.13         -61.6086        -179.019      -0.00802501         150.732
0.507                  -0.182859        -125.299         -61.4661         179.233         -61.4824         179.351         -0.00808         150.666
0.508                  -0.187475        -125.743         -61.3339         177.582         -61.3547         177.707      -0.00813614           150.6
0.509                  -0.192214        -126.191         -61.2004         175.917         -61.2252         176.049      -0.00819345         150.534
0.51                    -0.19709        -126.642         -61.0655          174.24         -61.0942         174.377      -0.00825193         150.469
0.511                  -0.202117        -127.097         -60.9293         172.549         -60.9616         172.692      -0.00831159         150.403
0.512                  -0.207309        -127.555         -60.7918         170.844         -60.8275         170.993      -0.00837244         150.336
0.513                  -0.212683        -128.017          -60.653         169.126         -60.6918          169.28      -0.00843448          150.27
0.514                  -0.218255        -128.482          -60.513         167.395         -60.5545         167.553      -0.00849772         150.204
0.515                  -0.224041        -128.951         -60.3717          165.65         -60.4158         165.813      -0.00856216         150.138
0.516                  -0.230059        -129.424         -60.2293         163.892         -60.2755         164.059      -0.00862781         150.071
0.517                  -0.236328        -129.901         -60.0857          162.12         -60.1339         162.291      -0.00869468         150.005
0.518                  -0.242867        -130.381          -59.941         160.335         -59.9908         160.509      -0.00876278         149.938
0.519                  -0.249695        -130.865         -59.7952         158.536         -59.8463         158.714      -0.00883211         149.872
0.52                   -0.256832        -131.353         -59.6483         156.723         -59.7005         156.905      -0.00890267         149.805
0.521                  -0.264299        -131.845         -59.5004         154.897         -59.5534         155.081      -0.00897449         149.738
0.522                  -0.272117         -132.34         -59.3515         153.058         -59.4051         153.244      -0.00904755         149.671
0.523                  -0.280308        -132.839         -59.2017         151.205         -59.2555         151.394      -0.00912187         149.604
0.524                  -0.288894        -133.342         -59.0511         149.338         -59.1048         149.529      -0.00919746         149.537
0.525                  -0.297897        -133.849         -58.8996         147.458         -58.9531         147.651      -0.00927433          149.47
0.526                   -0.30734         -134.36         -58.7473         145.564         -58.8002         145.758      -0.00935247         149.403
0.527                  -0.317245        -134.874         -58.5943         143.657         -58.6464         143.853       -0.0094319         149.335
0.528                  -0.327635        -135.391         -58.4406         141.737         -58.4917         141.933      -0.00951263         149.268
0.529                  -0.338532        -135.912         -58.2864         139.803         -58.3361             140      -0.00959466           149.2
0.53                   -0.349959        -136.437         -58.1316         137.856         -58.1797         138.053        -0.009678         149.133
0.531                  -0.361938        -136.965         -57.9763         135.896         -58.0227         136.092      -0.00976266         149.065
0.532                  -0.374488        -137.496         -57.8206         133.923         -57.8649         134.118      -0.00984864         148.997
0.533                  -0.387632         -138.03         -57.6645         131.937         -57.7067          132.13      -0.00993596         148.929
0.534                  -0.401389        -138.567         -57.5082         129.938         -57.5479          130.13       -0.0100246         148.861
0.535                  -0.415777        -139.107         -57.3516         127.926         -57.3887         128.115       -0.0101146         148.793
0.536                  -0.430813         -139.65         -57.1949         125.902         -57.2293         126.088        -0.010206         148.725
0.537                  -0.446514        -140.195         -57.0382         123.865         -57.0696         124.048       -0.0102987         148.656
0.538                  -0.462892        -140.742         -56.8815         121.816         -56.9097         121.995       -0.0103928         148.588
0.539                  -0.479962        -141.292         -56.7248         119.755         -56.7498         119.929       -0.0104883         148.519
0.54                   -0.497732        -141.844         -56.5684         117.682         -56.5899          117.85       -0.0105851         148.451
0.541                  -0.516211        -142.397         -56.4122         115.597         -56.4302          115.76       -0.0106834         148.382
0.542                  -0.535405        -142.952         -56.2563         113.501         -56.2706         113.657       -0.0107831         148.313
0.543                  -0.555317        -143.508         -56.1008         111.394         -56.1114         111.542       -0.0108842         148.244
0.544                  -0.575947        -144.066         -55.9457         109.276         -55.9526         109.416       -0.0109866         148.175
0.545                  -0.597293        -144.624         -55.7913         107.147         -55.7943         107.278       -0.0110906         148.106
0.546                  -0.619349        -145.184         -55.6374         105.008         -55.6366         105.129       -0.0111959         148.037
0.547                  -0.642107        -145.743         -55.4843         102.859         -55.4796          102.97       -0.0113028         147.967
0.548                  -0.665557        -146.303          -55.332         100.701         -55.3233           100.8        -0.011411         147.898
0.549                  -0.689683        -146.863         -55.1805         98.5333          -55.168         98.6204       -0.0115208         147.828
0.55                   -0.714468        -147.423         -55.0299         96.3568         -55.0136         96.4312        -0.011632         147.758
0.551                  -0.739891        -147.983         -54.8804          94.172         -54.8602         94.2329       -0.0117446         147.689
0.552                   -0.76593        -148.542         -54.7319         91.9793          -54.708         92.0258       -0.0118588         147.619
0.553                  -0.792559        -149.101         -54.5845          89.779          -54.557         89.8106       -0.0119745         147.549
0.554                  -0.819748        -149.659         -54.4383         87.5717         -54.4073         87.5877       -0.0120917         147.478
0.555                  -0.847466        -150.215         -54.2934         85.3578          -54.259         85.3576       -0.0122104         147.408
0.556                  -0.875681        -150.771         -54.1498         83.1379         -54.1121         83.1208       -0.0123306         147.338
0.557                  -0.904357        -151.326         -54.0075         80.9123         -53.9667          80.878       -0.0124524         147.267
0.558                  -0.933456        -151.879         -53.8667         78.6817         -53.8229         78.6296       -0.0125757         147.196
0.559                  -0.962941        -152.431         -53.7273         76.4466         -53.6807         76.3763       -0.0127006         147.126
0.56                   -0.992773        -152.982         -53.5894         74.2075         -53.5402         74.1187        -0.012827         147.055
0.561                   -1.02291        -153.532          -53.453         71.9648         -53.4014         71.8574        -0.012955         146.984
0.562                   -1.05332         -154.08         -53.3181         69.7193         -53.2644         69.5929       -0.0130846         146.912
0.563                   -1.08395        -154.627         -53.1849         67.4713         -53.1293          67.326       -0.0132158         146.841
0.564                   -1.11476        -155.173         -53.0532         65.2215         -52.9959         65.0573       -0.0133486          146.77
0.565                   -1.14573        -155.718         -52.9231         62.9704         -52.8644         62.7873        -0.013483         146.698
0.566                    -1.1768        -156.262         -52.7947         60.7185         -52.7348         60.5168       -0.0136191         146.626
0.567                   -1.20794        -156.805         -52.6679         58.4664          -52.607         58.2463       -0.0137568         146.555
0.568                   -1.23913        -157.347         -52.5427         56.2145         -52.4812         55.9765       -0.0138961         146.483
0.569                   -1.27032         -157.89         -52.4192         53.9633         -52.3572         53.7079       -0.0140372         146.411
0.57                    -1.30148        -158.432         -52.2973         51.7134         -52.2351         51.4412       -0.0141798         146.338
0.571                    -1.3326        -158.974          -52.177         49.4653         -52.1149         49.1769       -0.0143242         146.266
0.572                   -1.36363        -159.516         -52.0583         47.2193         -51.9966         46.9156       -0.0144703         146.193
0.573                   -1.39457        -160.059         -51.9412          44.976           -51.88         44.6578       -0.0146181         146.121
0.574                   -1.42539        -160.603         -51.8257         42.7358         -51.7653         42.4041       -0.0147676         146.048
0.575                   -1.45608        -161.148         -51.7117          40.499         -51.6523         40.1549       -0.0149189         145.975
0.576                   -1.48662        -161.695         -51.5991         38.2661          -51.541         37.9106       -0.0150719         145.902
0.577                   -1.51701        -162.243         -51.4881         36.0374         -51.4315         35.6719       -0.0152267         145.829
0.578                   -1.54724        -162.793         -51.3784         33.8132         -51.3235         33.4389       -0.0153833         145.755
0.579                   -1.57732        -163.346         -51.2702         31.5939         -51.2171         31.2121       -0.0155417         145.682
0.58                    -1.60723        -163.902         -51.1633         29.3797         -51.1122         28.9919       -0.0157019         145.608
0.581                     -1.637        -164.461         -51.0577          27.171         -51.0088         26.7786       -0.0158639         145.534
0.582                   -1.66662        -165.023         -50.9534         24.9678         -50.9068         24.5723       -0.0160278          145.46
0.583                   -1.69611        -165.589         -50.8503         22.7705         -50.8062         22.3734       -0.0161936         145.386
0.584                   -1.72549        -166.159         -50.7483         20.5792         -50.7068         20.1821       -0.0163612         145.312
0.585                   -1.75478        -166.733         -50.6475          18.394         -50.6086         17.9985       -0.0165307         145.237
0.586                   -1.78399        -167.313         -50.5477         16.2152         -50.5116         15.8228       -0.0167022         145.163
0.587                   -1.81316        -167.897         -50.4489         14.0427         -50.4156         13.6551       -0.0168756         145.088
0.588                   -1.84232        -168.487         -50.3512         11.8767         -50.3207         11.4954        -0.017051         145.013
0.589                   -1.87149        -169.082         -50.2543         9.71718         -50.2267         9.34374       -0.0172283         144.938
0.59                    -1.90071        -169.684         -50.1583         7.56424         -50.1336          7.2002       -0.0174077         144.863
0.591                   -1.93002        -170.291         -50.0631         5.41784         -50.0412         5.06472       -0.0175891         144.787
0.592                   -1.95947        -170.906         -49.9687         3.27798         -49.9496         2.93725       -0.0177725         144.712
0.593                   -1.98908        -171.527         -49.8751         1.14461         -49.8587        0.817687        -0.017958         144.636
0.594                   -2.01891        -172.155         -49.7821        -0.98232         -49.7684        -1.29407       -0.0181457          144.56
0.595                   -2.04901         -172.79         -49.6897        -3.10289         -49.6787        -3.39815       -0.0183354         144.484
0.596                   -2.07943        -173.433          -49.598        -5.21719         -49.5894        -5.49474       -0.0185273         144.407
0.597                   -2.11023        -174.084         -49.5068        -7.32534         -49.5006        -7.58401       -0.0187214         144.331
0.598                   -2.14145        -174.743         -49.4161        -9.42746         -49.4122        -9.66618       -0.0189176         144.254
0.599                   -2.17315         -175.41         -49.3258        -11.5237         -49.3241        -11.7415       -0.0191161         144.177
0.6                      -2.2054        -176.085         -49.2361        -13.6142         -49.2362        -13.8101       -0.0193169           144.1
0.601                   -2.23826        -176.769         -49.1467        -15.6991         -49.1486        -15.8725         -0.01952         144.023
0.602                    -2.2718        -177.461         -49.0577        -17.7787         -49.0612        -17.9287       -0.0197254         143.945
0.603                   -2.30608        -178.162          -48.969         -19.853         -48.9739        -19.9792       -0.0199332         143.868
0.604                   -2.34116        -178.872         -48.8806        -21.9223         -48.8867        -22.0243       -0.0201434          143.79
0.605                   -2.37713        -179.592         -48.7926        -23.9868         -48.7996        -24.0642        -0.020356         143.712
0.606                   -2.41406          179.68         -48.7048        -26.0467         -48.7125        -26.0994        -0.020571         143.634
0.607                   -2.45202         178.943         -48.6172        -28.1022         -48.6254        -28.1302       -0.0207886         143.555
0.608                   -2.49109         178.196         -48.5299        -30.1536         -48.5383        -30.1569       -0.0210088         143.477
0.609                   -2.53135         177.441         -48.4428         -32.201         -48.4512        -32.1799       -0.0212315         143.398
0.61                    -2.57288         176.676         -48.3558        -34.2446          -48.364        -34.1996       -0.0214569         143.319
0.611                   -2.61576         175.902         -48.2691        -36.2847         -48.2768        -36.2163       -0.0216849         143.239
0.612                   -2.66009         175.119         -48.1825        -38.3216         -48.1895        -38.2305       -0.0219156          143.16
0.613                   -2.70595         174.327         -48.0961        -40.3553         -48.1021        -40.2426       -0.0221492          143.08
0.614                   -2.75343         173.526         -48.0098        -42.3862         -48.0146        -42.2528       -0.0223855             143
0.615                   -2.80261         172.716         -47.9237        -44.4145          -47.927        -44.2617       -0.0226247          142.92
0.616                    -2.8536         171.897         -47.8378        -46.4403         -47.8394        -46.2695       -0.0228669          142.84
0.617                   -2.90648          171.07          -47.752        -48.4639         -47.7517        -48.2767        -0.023112         142.759
0.618                   -2.96135         170.235         -47.6664        -50.4854          -47.664        -50.2836       -0.0233601         142.678
0.619                   -3.01831         169.392         -47.5809        -52.5051         -47.5762        -52.2905       -0.0236114         142.597
0.62                    -3.07746         168.541         -47.4956        -54.5231         -47.4885        -54.2978       -0.0238657         142.516
0.621                   -3.13888         167.683         -47.4104        -56.5396         -47.4008        -56.3059       -0.0241233         142.434
0.622                   -3.20268         166.818         -47.3255        -58.5548         -47.3132        -58.3149       -0.0243842         142.352
0.623                   -3.26895         165.947         -47.2407        -60.5688         -47.2257        -60.3253       -0.0246484          142.27
0.624                   -3.33779          165.07         -47.1562        -62.5818         -47.1384        -62.3372        -0.024916         142.188
0.625                   -3.40931         164.187         -47.0718        -64.5938         -47.0513        -64.3508       -0.0251872         142.105
0.626                   -3.48358         163.299         -46.9877        -66.6051         -46.9645        -66.3664       -0.0254618         142.022
0.627                   -3.56071         162.407         -46.9039        -68.6156          -46.878         -68.384       -0.0257402         141.939
0.628                   -3.64078         161.511         -46.8203        -70.6256          -46.792        -70.4038       -0.0260222         141.856
0.629                   -3.72388         160.612          -46.737        -72.6351         -46.7064        -72.4258       -0.0263081         141.772
