! TOUCHSTONE file generated by CST MICROWAVE STUDIO
! Date and time: Sat Oct 24 11:44:38 2020
! Project name: Scenario_1_Circular_Tissue_out_of_Line.cst
! Parameters = {dy1=-137.908; L_HA=400; MT=2.54; Rad_Dielectric=30; Rad_Lower=7.3; Rad_Upper=30; a_HA=580; a_WG=246; b_HA=500; b_WG=121; c_HA=0; c_WG=187; d_feed=85; dx1=1039; h_feed=15; h_lower=18; h_upper=40}
! Header version: 2018
! Port assignment regex: !\s*Touchstone port\s*([0-9]+)\s*=\s*(CST MWS port|CST DS port)\s*([0-9]+|Zmin|Zmax)\s*\(\"(.*)\"\)(\s*mode\s*([0-9]+))?.*
! Touchstone port assignment:
! Touchstone port 1 = CST MWS port 1 ("")
! Touchstone port 2 = CST MWS port 2 ("")
# GHz S DB R 50
0.5                     -0.14626        -122.255         -63.6136        -3.29748         -63.6136        -3.29748       -0.0076497          151.13
0.501                  -0.150685        -122.714         -63.4746        -5.17551         -63.4747        -5.17459      -0.00770615         151.065
0.502                  -0.155402        -123.174         -63.3333        -7.07508         -63.3335        -7.07327       -0.0077635         150.999
0.503                  -0.160414        -123.635         -63.1898        -8.99636         -63.1901         -8.9937      -0.00782173         150.934
0.504                  -0.165724        -124.099         -63.0441        -10.9395         -63.0444         -10.936      -0.00788087         150.868
0.505                  -0.171337        -124.565         -62.8962        -12.9047         -62.8966        -12.9005      -0.00794092         150.803
0.506                  -0.177255        -125.032         -62.7461        -14.8922         -62.7466        -14.8872      -0.00800189         150.737
0.507                  -0.183481        -125.502         -62.5939        -16.9021         -62.5945        -16.8964      -0.00806378         150.671
0.508                  -0.190019        -125.973         -62.4397        -18.9345         -62.4403        -18.9281      -0.00812661         150.606
0.509                  -0.196871        -126.445         -62.2834        -20.9897          -62.284        -20.9827      -0.00819037          150.54
0.51                   -0.204042         -126.92         -62.1251        -23.0678         -62.1258        -23.0602      -0.00825508         150.474
0.511                  -0.211532        -127.396         -61.9649        -25.1689         -61.9656        -25.1607      -0.00832075         150.408
0.512                  -0.219346        -127.874         -61.8029        -27.2932         -61.8036        -27.2846      -0.00838738         150.342
0.513                  -0.227486        -128.354         -61.6391        -29.4409         -61.6398        -29.4318      -0.00845499         150.275
0.514                  -0.235954        -128.836         -61.4736         -31.612         -61.4743        -31.6025      -0.00852358         150.209
0.515                  -0.244753        -129.319         -61.3064        -33.8067         -61.3071        -33.7968      -0.00859316         150.143
0.516                  -0.253885        -129.804         -61.1378        -36.0252         -61.1385        -36.0149      -0.00866374         150.076
0.517                  -0.263352         -130.29         -60.9677        -38.2674         -60.9684        -38.2568      -0.00873533          150.01
0.518                  -0.273156        -130.778         -60.7963        -40.5334          -60.797        -40.5226      -0.00880794         149.943
0.519                  -0.283298        -131.268         -60.6237        -42.8234         -60.6243        -42.8123      -0.00888159         149.876
0.52                   -0.293781        -131.759           -60.45        -45.1372         -60.4506         -45.126      -0.00895627          149.81
0.521                  -0.304605        -132.252         -60.2753         -47.475         -60.2759        -47.4637        -0.009032         149.743
0.522                  -0.315772        -132.746         -60.0998        -49.8367         -60.1003        -49.8253       -0.0091088         149.676
0.523                  -0.327283        -133.242         -59.9236        -52.2222          -59.924        -52.2108      -0.00918667         149.609
0.524                  -0.339138        -133.739         -59.7468        -54.6315         -59.7472          -54.62      -0.00926562         149.542
0.525                  -0.351338        -134.238         -59.5696        -57.0643           -59.57        -57.0529      -0.00934567         149.474
0.526                  -0.363883        -134.738         -59.3922        -59.5206         -59.3925        -59.5092      -0.00942682         149.407
0.527                  -0.376773         -135.24         -59.2147             -62         -59.2149        -61.9888       -0.0095091          149.34
0.528                  -0.390008        -135.742         -59.0373        -64.5023         -59.0374        -64.4913      -0.00959251         149.272
0.529                  -0.403588        -136.247         -58.8601        -67.0271         -58.8602        -67.0164      -0.00967707         149.205
0.53                   -0.417511        -136.752         -58.6832        -69.5741         -58.6833        -69.5637      -0.00976278         149.137
0.531                  -0.431777        -137.259          -58.507        -72.1429          -58.507        -72.1328      -0.00984967         149.069
0.532                  -0.446383        -137.768         -58.3315        -74.7328         -58.3314        -74.7231      -0.00993774         149.001
0.533                   -0.46133        -138.277          -58.157        -77.3434         -58.1568         -77.334        -0.010027         148.933
0.534                  -0.476613        -138.788         -57.9835         -79.974         -57.9833        -79.9651       -0.0101175         148.865
0.535                  -0.492232          -139.3         -57.8113        -82.6238          -57.811        -82.6154       -0.0102092         148.797
0.536                  -0.508183        -139.813         -57.6405        -85.2921         -57.6401        -85.2842       -0.0103022         148.729
0.537                  -0.524462        -140.328         -57.4713        -87.9781         -57.4709        -87.9707       -0.0103964          148.66
0.538                  -0.541068        -140.843         -57.3039        -90.6808         -57.3034        -90.6741        -0.010492         148.592
0.539                  -0.557996         -141.36         -57.1383        -93.3993         -57.1378        -93.3932       -0.0105888         148.523
0.54                   -0.575241        -141.878         -56.9748        -96.1326         -56.9742         -96.127       -0.0106869         148.455
0.541                  -0.592799        -142.397         -56.8135        -98.8794         -56.8128        -98.8746       -0.0107864         148.386
0.542                  -0.610666        -142.917         -56.6545        -101.639         -56.6538        -101.635       -0.0108872         148.317
0.543                  -0.628835        -143.438         -56.4978         -104.41         -56.4971        -104.406       -0.0109894         148.248
0.544                  -0.647302        -143.961         -56.3437         -107.19          -56.343        -107.187        -0.011093         148.179
0.545                  -0.666059        -144.485         -56.1922         -109.98         -56.1914        -109.978        -0.011198          148.11
0.546                  -0.685101        -145.009         -56.0434        -112.777         -56.0426        -112.776       -0.0113044          148.04
0.547                  -0.704421        -145.535         -55.8973         -115.58         -55.8965         -115.58       -0.0114123         147.971
0.548                  -0.724011        -146.062         -55.7539        -118.389         -55.7531        -118.388       -0.0115216         147.901
0.549                  -0.743864        -146.591         -55.6134          -121.2         -55.6126        -121.201       -0.0116325         147.832
0.55                   -0.763972         -147.12         -55.4757        -124.014         -55.4749        -124.016       -0.0117449         147.762
0.551                  -0.784326        -147.651         -55.3408        -126.829           -55.34        -126.831       -0.0118589         147.692
0.552                  -0.804919        -148.183         -55.2087        -129.644          -55.208        -129.646       -0.0119744         147.622
0.553                  -0.825741        -148.716         -55.0794        -132.457         -55.0787         -132.46       -0.0120915         147.552
0.554                  -0.846783        -149.251         -54.9529        -135.268         -54.9522        -135.271       -0.0122103         147.482
0.555                  -0.868037        -149.787          -54.829        -138.074         -54.8283        -138.078       -0.0123307         147.411
0.556                  -0.889493        -150.324         -54.7077        -140.876         -54.7071         -140.88       -0.0124528         147.341
0.557                  -0.911142        -150.863         -54.5889        -143.672         -54.5883        -143.676       -0.0125766          147.27
0.558                  -0.932974        -151.404         -54.4726         -146.46         -54.4721        -146.466       -0.0127021           147.2
0.559                  -0.954981        -151.946         -54.3586        -149.241         -54.3581        -149.247       -0.0128294         147.129
0.56                   -0.977153         -152.49         -54.2468        -152.014         -54.2464         -152.02       -0.0129585         147.058
0.561                  -0.999482        -153.036         -54.1372        -154.777         -54.1368        -154.783       -0.0130894         146.987
0.562                   -1.02196        -153.584         -54.0295        -157.531         -54.0292        -157.537       -0.0132221         146.916
0.563                   -1.04458        -154.134         -53.9237        -160.274         -53.9234         -160.28       -0.0133566         146.844
0.564                   -1.06733        -154.686         -53.8196        -163.006         -53.8194        -163.013        -0.013493         146.773
0.565                   -1.09022        -155.241         -53.7171        -165.727         -53.7169        -165.734       -0.0136313         146.701
0.566                   -1.11322        -155.799          -53.616        -168.437         -53.6159        -168.443       -0.0137714          146.63
0.567                   -1.13635        -156.359         -53.5163        -171.135         -53.5163        -171.141       -0.0139134         146.558
0.568                    -1.1596        -156.922         -53.4178        -173.821         -53.4178        -173.828       -0.0140573         146.486
0.569                   -1.18296        -157.488         -53.3203        -176.495         -53.3204        -176.502       -0.0142031         146.414
0.57                    -1.20645        -158.058         -53.2238        -179.158         -53.2239        -179.164       -0.0143506         146.342
0.571                   -1.23005        -158.632          -53.128         178.191         -53.1282         178.185          -0.0145         146.269
0.572                   -1.25379        -159.209         -53.0329         175.551         -53.0332         175.545       -0.0146511         146.197
0.573                   -1.27767         -159.79         -52.9384         172.923         -52.9387         172.917       -0.0148038         146.124
0.574                    -1.3017        -160.376         -52.8444         170.306         -52.8447           170.3       -0.0149581         146.051
0.575                   -1.32591        -160.966         -52.7506         167.699          -52.751         167.694       -0.0151139         145.979
0.576                    -1.3503        -161.561         -52.6572         165.103         -52.6575         165.097       -0.0152711         145.906
0.577                    -1.3749        -162.162         -52.5638         162.516         -52.5642         162.511       -0.0154295         145.832
0.578                   -1.39975        -162.767         -52.4705         159.938         -52.4709         159.934       -0.0155889         145.759
0.579                   -1.42488        -163.379         -52.3772          157.37         -52.3776         157.365       -0.0157493         145.686
0.58                    -1.45032        -163.997         -52.2838         154.809         -52.2842         154.805       -0.0159105         145.612
0.581                   -1.47613        -164.621         -52.1902         152.256         -52.1906         152.253       -0.0160723         145.538
0.582                   -1.50235        -165.251         -52.0963         149.711         -52.0968         149.707       -0.0162345         145.464
0.583                   -1.52903        -165.889         -52.0022         147.171         -52.0027         147.168       -0.0163971          145.39
0.584                   -1.55625        -166.533         -51.9078         144.638         -51.9083         144.635       -0.0165599         145.316
0.585                   -1.58406        -167.185          -51.813          142.11         -51.8135         142.107       -0.0167229         145.242
0.586                   -1.61254        -167.845         -51.7178         139.586         -51.7183         139.584        -0.016886         145.167
0.587                   -1.64178        -168.512         -51.6223         137.066         -51.6227         137.064       -0.0170494         145.093
0.588                   -1.67186        -169.187         -51.5262         134.549         -51.5267         134.548       -0.0172131         145.018
0.589                   -1.70286         -169.87         -51.4298         132.035         -51.4302         132.034       -0.0173772         144.943
0.59                    -1.73489         -170.56         -51.3329         129.523         -51.3334         129.522       -0.0175419         144.868
0.591                   -1.76804        -171.259         -51.2356         127.013          -51.236         127.012       -0.0177076         144.792
0.592                   -1.80242        -171.965         -51.1379         124.503         -51.1383         124.502       -0.0178743         144.717
0.593                   -1.83813        -172.679         -51.0398         121.993         -51.0402         121.992       -0.0180425         144.641
0.594                   -1.87526          -173.4         -50.9414         119.483         -50.9417         119.482       -0.0182124         144.565
0.595                   -1.91394        -174.128         -50.8426         116.972         -50.8429         116.971       -0.0183843         144.489
0.596                   -1.95425        -174.862         -50.7436         114.459         -50.7438         114.459       -0.0185584         144.412
0.597                    -1.9963        -175.603         -50.6443         111.945         -50.6445         111.944       -0.0187351         144.336
0.598                   -2.04018        -176.349         -50.5448         109.427          -50.545         109.427       -0.0189144         144.259
0.599                   -2.08598          -177.1         -50.4452         106.908         -50.4454         106.908       -0.0190967         144.182
0.6                     -2.13377        -177.855         -50.3455         104.384         -50.3456         104.384       -0.0192821         144.105
0.601                   -2.18362        -178.614         -50.2458         101.858         -50.2459         101.858       -0.0194706         144.028
0.602                   -2.23559        -179.375         -50.1462         99.3268         -50.1463          99.327       -0.0196626          143.95
0.603                   -2.28973         179.862         -50.0467         96.7919         -50.0468         96.7921       -0.0198579         143.873
0.604                   -2.34606         179.098         -49.9474         94.2526         -49.9475         94.2527       -0.0200567         143.795
0.605                   -2.40459         178.335         -49.8484         91.7087         -49.8485         91.7088       -0.0202592         143.717
0.606                   -2.46533         177.572         -49.7498         89.1602         -49.7499         89.1602       -0.0204652         143.638
0.607                   -2.52826         176.812         -49.6517         86.6069         -49.6517         86.6069       -0.0206748          143.56
0.608                   -2.59335         176.054         -49.5541         84.0488         -49.5541         84.0487       -0.0208881         143.481
0.609                   -2.66055         175.301         -49.4571          81.486         -49.4571         81.4859        -0.021105         143.402
0.61                     -2.7298         174.552         -49.3609         78.9185         -49.3608         78.9183       -0.0213257         143.323
0.611                   -2.80101         173.809         -49.2654         76.3466         -49.2653         76.3463       -0.0215501         143.244
0.612                    -2.8741         173.073         -49.1708         73.7703         -49.1707           73.77       -0.0217782         143.164
0.613                   -2.94896         172.344         -49.0771           71.19          -49.077         71.1895         -0.02201         143.084
0.614                   -3.02547         171.622         -48.9844         68.6059         -48.9843         68.6054       -0.0222456         143.004
0.615                   -3.10352         170.909         -48.8928         66.0184         -48.8927         66.0178        -0.022485         142.924
0.616                   -3.18296         170.205         -48.8024         63.4279         -48.8023         63.4272       -0.0227281         142.843
0.617                   -3.26366         169.511         -48.7131         60.8347          -48.713         60.8339       -0.0229751         142.763
0.618                   -3.34548         168.825         -48.6251         58.2394          -48.625         58.2386       -0.0232259         142.682
0.619                   -3.42827         168.149         -48.5384         55.6425         -48.5383         55.6416       -0.0234805         142.601
0.62                    -3.51188         167.483          -48.453         53.0445         -48.4529         53.0435       -0.0237391         142.519
0.621                   -3.59616         166.827          -48.369          50.446         -48.3689         50.4449       -0.0240015         142.437
0.622                   -3.68097          166.18         -48.2864         47.8475         -48.2863         47.8464       -0.0242679         142.356
0.623                   -3.76618         165.542         -48.2052         45.2497         -48.2051         45.2485       -0.0245383         142.273
0.624                   -3.85163         164.913         -48.1254         42.6531         -48.1253         42.6519       -0.0248127         142.191
0.625                   -3.93721         164.292          -48.047         40.0583         -48.0469         40.0571       -0.0250911         142.108
0.626                   -4.02279          163.68           -47.97         37.4661         -47.9699         37.4649       -0.0253736         142.025
0.627                   -4.10826         163.074         -47.8943         34.8769         -47.8943         34.8757       -0.0256603         141.942
0.628                    -4.1935         162.475           -47.82         32.2914           -47.82         32.2902       -0.0259511         141.859
0.629                   -4.27843         161.883          -47.747         29.7101          -47.747         29.7089       -0.0262462         141.775
