! TOUCHSTONE file generated by CST MICROWAVE STUDIO
! Date and time: Mon Oct 26 12:06:20 2020
! Project name: Scenario_1_Circular_Tissue_out_of_Line_v2.cst
! Parameters = {dy1=-121.1; L_HA=400; MT=2.54; Rad_Dielectric=30; Rad_Lower=7.3; Rad_Upper=30; a_HA=580; a_WG=246; b_HA=500; b_WG=121; c_HA=0; c_WG=187; d_feed=85; dx1=173; h_feed=15; h_lower=18; h_upper=40}
! Header version: 2018
! Port assignment regex: !\s*Touchstone port\s*([0-9]+)\s*=\s*(CST MWS port|CST DS port)\s*([0-9]+|Zmin|Zmax)\s*\(\"(.*)\"\)(\s*mode\s*([0-9]+))?.*
! Touchstone port assignment:
! Touchstone port 1 = CST MWS port 1 ("")
! Touchstone port 2 = CST MWS port 2 ("")
# GHz S DB R 50
0.5                    -0.114228        -122.505         -57.7068         131.569         -57.7068         131.569      -0.00700268         151.112
0.501                   -0.12144        -122.957         -57.4937         130.589         -57.4937         130.589      -0.00704845         151.047
0.502                  -0.128823        -123.411         -57.2798         129.595         -57.2799         129.595      -0.00709369         150.982
0.503                  -0.136383        -123.867         -57.0653         128.586         -57.0654         128.587      -0.00713849         150.916
0.504                  -0.144127        -124.325         -56.8501         127.563         -56.8502         127.564      -0.00718297         150.851
0.505                  -0.152061        -124.785         -56.6343         126.525         -56.6344         126.527      -0.00722725         150.785
0.506                  -0.160191        -125.247         -56.4179         125.472          -56.418         125.474      -0.00727144          150.72
0.507                  -0.168526        -125.711         -56.2009         124.404          -56.201         124.406      -0.00731569         150.654
0.508                  -0.177072        -126.178         -55.9834          123.32         -55.9835         123.322      -0.00736012         150.588
0.509                  -0.185839        -126.646         -55.7653          122.22         -55.7654         122.222       -0.0074049         150.522
0.51                   -0.194835        -127.117         -55.5467         121.103         -55.5469         121.105      -0.00745015         150.456
0.511                   -0.20407        -127.591         -55.3277          119.97         -55.3279         119.972      -0.00749606          150.39
0.512                  -0.213552        -128.066         -55.1083          118.82         -55.1085         118.822      -0.00754277         150.324
0.513                  -0.223294        -128.544         -54.8885         117.653         -54.8887         117.655      -0.00759047         150.257
0.514                  -0.233305        -129.024         -54.6684         116.467         -54.6686          116.47      -0.00763932         150.191
0.515                  -0.243597        -129.507         -54.4481         115.264         -54.4482         115.267      -0.00768949         150.124
0.516                  -0.254183        -129.992         -54.2275         114.043         -54.2277         114.046      -0.00774118         150.058
0.517                  -0.265075        -130.479         -54.0068         112.803          -54.007         112.806      -0.00779457         149.991
0.518                  -0.276287        -130.969          -53.786         111.544         -53.7862         111.547      -0.00784983         149.924
0.519                  -0.287832        -131.461         -53.5652         110.266         -53.5654         110.269      -0.00790714         149.857
0.52                   -0.299726        -131.956         -53.3444         108.968         -53.3446         108.971       -0.0079667          149.79
0.521                  -0.311984        -132.453         -53.1238         107.651         -53.1239         107.654      -0.00802868         149.723
0.522                  -0.324621        -132.953         -52.9034         106.313         -52.9035         106.317      -0.00809325         149.656
0.523                  -0.337656        -133.455         -52.6832         104.956         -52.6834         104.959      -0.00816058         149.589
0.524                  -0.351104        -133.959         -52.4635         103.577         -52.4636          103.58      -0.00823083         149.521
0.525                  -0.364984        -134.466         -52.2442         102.178         -52.2443         102.181      -0.00830417         149.454
0.526                  -0.379315        -134.974         -52.0255         100.757         -52.0256         100.761      -0.00838073         149.386
0.527                  -0.394114        -135.486         -51.8075         99.3159         -51.8076          99.319      -0.00846064         149.318
0.528                  -0.409402        -135.999         -51.5903         97.8529         -51.5903          97.856      -0.00854405          149.25
0.529                  -0.425197        -136.514         -51.3739         96.3685          -51.374         96.3715      -0.00863105         149.182
0.53                    -0.44152        -137.032         -51.1586         94.8624         -51.1587         94.8654      -0.00872174         149.114
0.531                   -0.45839        -137.551         -50.9444         93.3347         -50.9445         93.3376      -0.00881621         149.046
0.532                  -0.475826        -138.072         -50.7315         91.7853         -50.7315         91.7882      -0.00891453         148.978
0.533                  -0.493848        -138.595         -50.5199         90.2143           -50.52         90.2171      -0.00901675          148.91
0.534                  -0.512474         -139.12         -50.3099         88.6217         -50.3099         88.6244      -0.00912291         148.841
0.535                  -0.531722        -139.645         -50.1015         87.0076         -50.1016         87.0103      -0.00923303         148.773
0.536                  -0.551609        -140.172          -49.895         85.3723          -49.895         85.3748      -0.00934713         148.704
0.537                  -0.572149          -140.7         -49.6903         83.7159         -49.6903         83.7184      -0.00946518         148.635
0.538                  -0.593356        -141.229         -49.4877         82.0388         -49.4878         82.0412      -0.00958717         148.566
0.539                  -0.615241        -141.758         -49.2874         80.3413         -49.2874         80.3435      -0.00971306         148.497
0.54                   -0.637812        -142.288         -49.0894         78.6238         -49.0894         78.6259       -0.0098428         148.428
0.541                  -0.661073        -142.818         -48.8939         76.8868         -48.8939         76.8888      -0.00997632         148.359
0.542                  -0.685026        -143.347          -48.701         75.1309          -48.701         75.1328       -0.0101135          148.29
0.543                  -0.709669        -143.876         -48.5109         73.3566         -48.5109         73.3584       -0.0102544         148.221
0.544                  -0.734993        -144.403         -48.3237         71.5647         -48.3237         71.5664       -0.0103987         148.151
0.545                  -0.760985         -144.93         -48.1396         69.7559         -48.1396         69.7574       -0.0105465         148.082
0.546                  -0.787627        -145.455         -47.9586         67.9311         -47.9586         67.9324       -0.0106975         148.012
0.547                  -0.814893        -145.978         -47.7809          66.091         -47.7808         66.0922       -0.0108517         147.943
0.548                  -0.842753        -146.499         -47.6065         64.2366         -47.6065         64.2378        -0.011009         147.873
0.549                  -0.871167        -147.018         -47.4357          62.369         -47.4356           62.37       -0.0111691         147.803
0.55                    -0.90009        -147.533         -47.2684         60.4893         -47.2684         60.4901        -0.011332         147.733
0.551                  -0.929468        -148.046         -47.1047         58.5984         -47.1047         58.5991       -0.0114975         147.663
0.552                  -0.959242        -148.554         -46.9448         56.6976         -46.9448         56.6982       -0.0116656         147.593
0.553                  -0.989343         -149.06         -46.7887          54.788         -46.7887         54.7885       -0.0118359         147.522
0.554                    -1.0197        -149.561         -46.6365         52.8709         -46.6365         52.8713       -0.0120085         147.452
0.555                   -1.05023        -150.058         -46.4881         50.9475         -46.4881         50.9478       -0.0121832         147.381
0.556                   -1.08085        -150.552         -46.3436          49.019         -46.3436         49.0192       -0.0123598         147.311
0.557                   -1.11147        -151.041         -46.2029         47.0868          -46.203         47.0869       -0.0125382          147.24
0.558                     -1.142        -151.526         -46.0662         45.1522         -46.0663         45.1522       -0.0127183         147.169
0.559                   -1.17235        -152.007         -45.9334         43.2163         -45.9334         43.2162          -0.0129         147.098
0.56                    -1.20242        -152.485         -45.8044         41.2804         -45.8045         41.2802       -0.0130831         147.027
0.561                   -1.23213        -152.959         -45.6793         39.3457         -45.6793         39.3455       -0.0132676         146.956
0.562                   -1.26137         -153.43         -45.5579         37.4136         -45.5579         37.4132       -0.0134533         146.885
0.563                   -1.29008        -153.898         -45.4401          35.485         -45.4402         35.4846       -0.0136402         146.814
0.564                   -1.31817        -154.364          -45.326         33.5611         -45.3261         33.5607       -0.0138281         146.742
0.565                   -1.34558        -154.829         -45.2154         31.6431         -45.2155         31.6426        -0.014017         146.671
0.566                   -1.37225        -155.292         -45.1082         29.7319         -45.1083         29.7314       -0.0142069         146.599
0.567                   -1.39812        -155.756         -45.0043         27.8284         -45.0044         27.8279       -0.0143975         146.527
0.568                   -1.42317        -156.219         -44.9036         25.9336         -44.9037          25.933       -0.0145889         146.455
0.569                   -1.44736        -156.684          -44.806         24.0483         -44.8061         24.0477       -0.0147811         146.383
0.57                    -1.47068         -157.15         -44.7113         22.1733         -44.7114         22.1726       -0.0149739         146.311
0.571                   -1.49313        -157.619         -44.6195         20.3092         -44.6196         20.3085       -0.0151673         146.238
0.572                   -1.51471        -158.091         -44.5303         18.4566         -44.5304          18.456       -0.0153614         146.166
0.573                   -1.53545        -158.567         -44.4436         16.6162         -44.4437         16.6156        -0.015556         146.093
0.574                   -1.55538        -159.047         -44.3594         14.7884         -44.3595         14.7878       -0.0157511         146.021
0.575                   -1.57453        -159.533         -44.2773         12.9736         -44.2775          12.973       -0.0159467         145.948
0.576                   -1.59295        -160.025         -44.1974         11.1722         -44.1976         11.1715       -0.0161429         145.875
0.577                   -1.61071        -160.523         -44.1195         9.38438         -44.1196         9.38378       -0.0163396         145.802
0.578                   -1.62785        -161.028         -44.0434         7.61046         -44.0435         7.60987       -0.0165367         145.728
0.579                   -1.64445        -161.541         -43.9689         5.85057         -43.9691            5.85       -0.0167344         145.655
0.58                    -1.66057        -162.062         -43.8961          4.1048         -43.8962         4.10425       -0.0169325         145.581
0.581                   -1.67628        -162.591         -43.8246         2.37321         -43.8247         2.37267       -0.0171312         145.508
0.582                   -1.69167        -163.128         -43.7544        0.655785         -43.7545         0.65527       -0.0173304         145.434
0.583                    -1.7068        -163.674         -43.6853        -1.04752         -43.6855        -1.04801       -0.0175302          145.36
0.584                   -1.72175         -164.23         -43.6173         -2.7368         -43.6174        -2.73728       -0.0177306         145.286
0.585                    -1.7366        -164.795         -43.5502         -4.4122         -43.5503        -4.41265       -0.0179315         145.211
0.586                   -1.75142        -165.369         -43.4839        -6.07388          -43.484        -6.07431       -0.0181331         145.137
0.587                   -1.76627        -165.953         -43.4182        -7.72206         -43.4184        -7.72247       -0.0183354         145.062
0.588                   -1.78125        -166.547         -43.3532        -9.35698         -43.3533        -9.35737       -0.0185384         144.988
0.589                    -1.7964        -167.151         -43.2886        -10.9789         -43.2887        -10.9793       -0.0187421         144.913
0.59                     -1.8118        -167.765         -43.2244        -12.5881         -43.2245        -12.5885       -0.0189466         144.837
0.591                   -1.82752        -168.388         -43.1605        -14.1849         -43.1606        -14.1853        -0.019152         144.762
0.592                   -1.84361        -169.022         -43.0969        -15.7697          -43.097          -15.77       -0.0193583         144.687
0.593                   -1.86015        -169.666         -43.0333        -17.3428         -43.0334        -17.3431       -0.0195654         144.611
0.594                   -1.87718         -170.32         -42.9698        -18.9045         -42.9699        -18.9048       -0.0197736         144.535
0.595                   -1.89476        -170.983         -42.9063        -20.4553         -42.9064        -20.4556       -0.0199829         144.459
0.596                   -1.91296        -171.657         -42.8427        -21.9955         -42.8428        -21.9958       -0.0201932         144.383
0.597                   -1.93182        -172.341          -42.779        -23.5256         -42.7791        -23.5259       -0.0204047         144.307
0.598                    -1.9514        -173.035         -42.7151        -25.0459         -42.7151        -25.0461       -0.0206174          144.23
0.599                   -1.97175        -173.739         -42.6509        -26.5568          -42.651        -26.5571       -0.0208314         144.153
0.6                     -1.99292        -174.453         -42.5865        -28.0588         -42.5865        -28.0591       -0.0210468         144.077
0.601                   -2.01496        -175.177         -42.5217        -29.5523         -42.5217        -29.5526       -0.0212635         143.999
0.602                   -2.03792         -175.91         -42.4565        -31.0377         -42.4565         -31.038       -0.0214818         143.922
0.603                   -2.06186        -176.654         -42.3909        -32.5154          -42.391        -32.5157       -0.0217016         143.845
0.604                   -2.08681        -177.407         -42.3249        -33.9858         -42.3249        -33.9862       -0.0219231         143.767
0.605                   -2.11283        -178.171         -42.2584        -35.4494         -42.2584        -35.4498       -0.0221463         143.689
0.606                   -2.13997        -178.944         -42.1915        -36.9066         -42.1915         -36.907       -0.0223712         143.611
0.607                   -2.16827        -179.727          -42.124        -38.3578          -42.124        -38.3581       -0.0225981         143.533
0.608                    -2.1978         179.479          -42.056        -39.8033         -42.0559        -39.8036       -0.0228268         143.454
0.609                    -2.2286         178.677         -41.9874        -41.2436         -41.9874         -41.244       -0.0230576         143.375
0.61                    -2.26073         177.864         -41.9183         -42.679         -41.9182        -42.6794       -0.0232905         143.296
0.611                   -2.29424         177.041         -41.8486        -44.1101         -41.8486        -44.1105       -0.0235256         143.217
0.612                   -2.32918         176.209         -41.7784         -45.537         -41.7783        -45.5375        -0.023763         143.138
0.613                   -2.36561         175.367         -41.7076        -46.9603         -41.7075        -46.9608       -0.0240027         143.058
0.614                   -2.40359         174.515         -41.6362        -48.3803         -41.6361        -48.3808       -0.0242449         142.978
0.615                   -2.44319         173.653         -41.5642        -49.7973         -41.5642        -49.7978       -0.0244896         142.898
0.616                   -2.48446         172.782         -41.4917        -51.2116         -41.4917        -51.2122        -0.024737         142.818
0.617                   -2.52746         171.901         -41.4187        -52.6237         -41.4186        -52.6243       -0.0249871         142.737
0.618                   -2.57227          171.01         -41.3451        -54.0339          -41.345        -54.0345         -0.02524         142.656
0.619                   -2.61895         170.109          -41.271        -55.4424         -41.2709         -55.443       -0.0254959         142.575
0.62                    -2.66757         169.199         -41.1963        -56.8496         -41.1962        -56.8502       -0.0257548         142.494
0.621                    -2.7182          168.28         -41.1212        -58.2558         -41.1211        -58.2565       -0.0260168         142.413
0.622                   -2.77093         167.351         -41.0456        -59.6613         -41.0455        -59.6619       -0.0262821         142.331
0.623                   -2.82583         166.412         -40.9695        -61.0663         -40.9694         -61.067       -0.0265508         142.249
0.624                   -2.88297         165.465          -40.893        -62.4711         -40.8929        -62.4718       -0.0268228         142.167
0.625                   -2.94245         164.508         -40.8161         -63.876          -40.816        -63.8768       -0.0270985         142.084
0.626                   -3.00435         163.542         -40.7388        -65.2812         -40.7387         -65.282       -0.0273778         142.001
0.627                   -3.06876         162.567         -40.6611         -66.687          -40.661        -66.6878       -0.0276609         141.918
0.628                   -3.13577         161.584         -40.5831        -68.0935          -40.583        -68.0943       -0.0279479         141.835
0.629                   -3.20547         160.592         -40.5048         -69.501         -40.5048        -69.5018        -0.028239         141.751
