! TOUCHSTONE file generated by CST MICROWAVE STUDIO
! Date and time: Wed Oct 28 19:36:09 2020
! Project name: Scenario_1_Circular_Tissue_out_of_Line_v2.cst
! Parameters = {dy1=-121.1; L_HA=400; MT=2.54; Rad_Dielectric=30; Rad_Lower=7.3; Rad_Upper=30; a_HA=580; a_WG=246; b_HA=500; b_WG=121; c_HA=0; c_WG=187; d_feed=85; dx1=346; h_feed=15; h_lower=18; h_upper=40}
! Header version: 2018
! Port assignment regex: !\s*Touchstone port\s*([0-9]+)\s*=\s*(CST MWS port|CST DS port)\s*([0-9]+|Zmin|Zmax)\s*\(\"(.*)\"\)(\s*mode\s*([0-9]+))?.*
! Touchstone port assignment:
! Touchstone port 1 = CST MWS port 1 ("")
! Touchstone port 2 = CST MWS port 2 ("")
# GHz S DB R 50
0.5                    -0.169663        -122.249         -58.8912         26.5927         -58.8919         26.5931      -0.00795273         151.108
0.501                  -0.175499        -122.672         -58.7861         25.3182         -58.7869         25.3186      -0.00802166         151.043
0.502                  -0.181338        -123.096         -58.6797         24.0374         -58.6807         24.0376      -0.00809084         150.977
0.503                  -0.187184        -123.523          -58.572         22.7501         -58.5732         22.7502      -0.00816028         150.912
0.504                   -0.19304        -123.952         -58.4631         21.4564         -58.4644         21.4564      -0.00822997         150.847
0.505                  -0.198911        -124.383         -58.3529         20.1564         -58.3544         20.1563      -0.00829991         150.781
0.506                  -0.204802        -124.817         -58.2415           18.85         -58.2431         18.8498      -0.00837012         150.716
0.507                  -0.210715        -125.253         -58.1288         17.5372         -58.1306         17.5369      -0.00844059          150.65
0.508                  -0.216657        -125.691         -58.0149         16.2181         -58.0168         16.2177      -0.00851134         150.584
0.509                  -0.222632        -126.133         -57.8997         14.8927         -57.9018         14.8921      -0.00858236         150.518
0.51                   -0.228646        -126.577         -57.7834         13.5609         -57.7856         13.5602      -0.00865365         150.453
0.511                  -0.234704        -127.023         -57.6658         12.2227         -57.6681          12.222      -0.00872524         150.387
0.512                  -0.240812        -127.472         -57.5471         10.8783         -57.5495         10.8774      -0.00879711          150.32
0.513                  -0.246977        -127.924         -57.4271         9.52745         -57.4296         9.52651      -0.00886927         150.254
0.514                  -0.253206        -128.379          -57.306         8.17029         -57.3086         8.16926      -0.00894174         150.188
0.515                  -0.259505        -128.837         -57.1838         6.80677         -57.1865         6.80566      -0.00901451         150.122
0.516                  -0.265881        -129.298         -57.0604         5.43687         -57.0632          5.4357       -0.0090876         150.055
0.517                  -0.272344        -129.762         -56.9359          4.0606         -56.9387         4.05936        -0.009161         149.989
0.518                  -0.278901        -130.229         -56.8103         2.67792         -56.8132         2.67663      -0.00923474         149.922
0.519                   -0.28556        -130.699         -56.6836         1.28883         -56.6865         1.28749       -0.0093088         149.856
0.52                   -0.292331        -131.172         -56.5559        -0.10671         -56.5588       -0.108083       -0.0093832         149.789
0.521                  -0.299223        -131.649         -56.4271        -1.50871         -56.4301        -1.51011      -0.00945796         149.722
0.522                  -0.306247        -132.128         -56.2973        -2.91721         -56.3003        -2.91863      -0.00953306         149.655
0.523                  -0.313414        -132.612         -56.1665        -4.33223         -56.1695        -4.33365      -0.00960854         149.588
0.524                  -0.320733        -133.098         -56.0347        -5.75381         -56.0377        -5.75523      -0.00968439         149.521
0.525                  -0.328216        -133.589          -55.902        -7.18198          -55.905        -7.18338      -0.00976062         149.454
0.526                  -0.335876        -134.082         -55.7683        -8.61678         -55.7713        -8.61816      -0.00983725         149.387
0.527                  -0.343726         -134.58         -55.6338        -10.0582         -55.6368        -10.0596      -0.00991428          149.32
0.528                  -0.351778        -135.081         -55.4983        -11.5064         -55.5013        -11.5077      -0.00999173         149.252
0.529                  -0.360046        -135.585         -55.3621        -12.9614          -55.365        -12.9626       -0.0100696         149.185
0.53                   -0.368544        -136.094          -55.225        -14.4231         -55.2279        -14.4243       -0.0101479         149.117
0.531                  -0.377288        -136.606         -55.0872        -15.8917           -55.09        -15.8928       -0.0102267         149.049
0.532                  -0.386293        -137.122         -54.9486        -17.3672         -54.9514        -17.3682       -0.0103059         148.981
0.533                  -0.395575        -137.642         -54.8094        -18.8496          -54.812        -18.8506       -0.0103857         148.914
0.534                  -0.405151        -138.166         -54.6694         -20.339          -54.672        -20.3399       -0.0104659         148.846
0.535                  -0.415038        -138.695         -54.5288        -21.8355         -54.5313        -21.8363       -0.0105466         148.777
0.536                  -0.425254        -139.227         -54.3876        -23.3392           -54.39        -23.3398       -0.0106279         148.709
0.537                  -0.435819        -139.763         -54.2459        -24.8499         -54.2481        -24.8505       -0.0107097         148.641
0.538                   -0.44675        -140.303         -54.1036        -26.3679         -54.1057        -26.3684        -0.010792         148.572
0.539                  -0.458069        -140.847         -53.9609        -27.8932         -53.9627        -27.8936        -0.010875         148.504
0.54                   -0.469796        -141.396         -53.8177        -29.4258         -53.8194        -29.4261       -0.0109585         148.435
0.541                  -0.481952        -141.949         -53.6741        -30.9659         -53.6756        -30.9661       -0.0110427         148.367
0.542                  -0.494559        -142.505         -53.5302        -32.5133         -53.5315        -32.5134       -0.0111276         148.298
0.543                   -0.50764        -143.066         -53.3859        -34.0683          -53.387        -34.0683       -0.0112131         148.229
0.544                  -0.521217        -143.632         -53.2414        -35.6308         -53.2423        -35.6307       -0.0112993          148.16
0.545                  -0.535315        -144.201         -53.0967        -37.2009         -53.0973        -37.2008       -0.0113862          148.09
0.546                  -0.549957        -144.775         -52.9519        -38.7786         -52.9522        -38.7785       -0.0114738         148.021
0.547                  -0.565168        -145.352         -52.8069         -40.364          -52.807         -40.364       -0.0115623         147.952
0.548                  -0.580974        -145.934         -52.6619        -41.9572         -52.6617        -41.9572       -0.0116515         147.882
0.549                  -0.597399         -146.52         -52.5169        -43.5582         -52.5163        -43.5582       -0.0117416         147.813
0.55                   -0.614471         -147.11          -52.372        -45.1669         -52.3711        -45.1671       -0.0118326         147.743
0.551                  -0.632214        -147.704         -52.2272        -46.7836         -52.2259        -46.7838       -0.0119244         147.673
0.552                  -0.650656        -148.303         -52.0825        -48.4081         -52.0808        -48.4085       -0.0120172         147.603
0.553                  -0.669824        -148.904         -51.9381        -50.0405          -51.936        -50.0411        -0.012111         147.533
0.554                  -0.689744         -149.51          -51.794        -51.6808         -51.7915        -51.6818       -0.0122058         147.463
0.555                  -0.710444         -150.12         -51.6503         -53.329         -51.6473        -53.3304       -0.0123016         147.392
0.556                  -0.731949        -150.733          -51.507        -54.9853         -51.5035        -54.9871       -0.0123985         147.322
0.557                  -0.754286        -151.349         -51.3642        -56.6494         -51.3602        -56.6519       -0.0124966         147.251
0.558                  -0.777483        -151.969          -51.222        -58.3216         -51.2174        -58.3247       -0.0125958          147.18
0.559                  -0.801564        -152.592         -51.0804        -60.0017         -51.0752        -60.0055       -0.0126963          147.11
0.56                   -0.826555        -153.218         -50.9395        -61.6897         -50.9338        -61.6945        -0.012798         147.039
0.561                   -0.85248        -153.847         -50.7994        -63.3857         -50.7931        -63.3915        -0.012901         146.967
0.562                  -0.879363        -154.479         -50.6603        -65.0897         -50.6532        -65.0967       -0.0130054         146.896
0.563                  -0.907228        -155.114          -50.522        -66.8015         -50.5142        -66.8099       -0.0131112         146.825
0.564                  -0.936095        -155.751         -50.3848        -68.5213         -50.3763        -68.5312       -0.0132185         146.753
0.565                  -0.965984         -156.39         -50.2488        -70.2489         -50.2394        -70.2607       -0.0133274         146.682
0.566                  -0.996915        -157.031          -50.114        -71.9844         -50.1038        -71.9982       -0.0134378          146.61
0.567                    -1.0289        -157.674         -49.9805        -73.7276         -49.9694        -73.7438       -0.0135498         146.538
0.568                   -1.06197        -158.318         -49.8485        -75.4787         -49.8364        -75.4975       -0.0136635         146.466
0.569                   -1.09612        -158.963         -49.7181        -77.2376         -49.7049        -77.2594        -0.013779         146.394
0.57                    -1.13137         -159.61         -49.5893        -79.0042          -49.575        -79.0294       -0.0138963         146.321
0.571                   -1.16772        -160.257         -49.4623        -80.7785         -49.4469        -80.8077       -0.0140155         146.249
0.572                   -1.20519        -160.905         -49.3374        -82.5606         -49.3206        -82.5942       -0.0141366         146.176
0.573                   -1.24377        -161.552         -49.2145        -84.3505         -49.1964        -84.3891       -0.0142597         146.103
0.574                   -1.28346          -162.2          -49.094        -86.1481         -49.0744        -86.1925       -0.0143849          146.03
0.575                   -1.32427        -162.847          -48.976        -87.9535         -48.9548        -88.0045       -0.0145123         145.957
0.576                   -1.36619        -163.493         -48.8607        -89.7668         -48.8378        -89.8253       -0.0146418         145.884
0.577                    -1.4092        -164.138         -48.7485         -91.588         -48.7236        -91.6553       -0.0147736         145.811
0.578                    -1.4533        -164.782         -48.6395        -93.4174         -48.6126        -93.4946       -0.0149077         145.737
0.579                   -1.49847        -165.424         -48.5342        -95.2549          -48.505        -95.3438       -0.0150442         145.663
0.58                    -1.54468        -166.064          -48.433        -97.1007         -48.4013        -97.2034       -0.0151831         145.589
0.581                   -1.59192        -166.702         -48.3364        -98.9552         -48.3018        -99.0739       -0.0153246         145.515
0.582                   -1.64015        -167.337         -48.2449        -100.818         -48.2073        -100.956       -0.0154686         145.441
0.583                   -1.68936        -167.969         -48.1595         -102.69         -48.1183        -102.851       -0.0156153         145.367
0.584                   -1.73949        -168.599         -48.0809        -104.572         -48.0357         -104.76       -0.0157647         145.292
0.585                   -1.79051        -169.225         -48.0104        -106.462         -47.9607        -106.684       -0.0159168         145.218
0.586                   -1.84239        -169.847         -47.9495        -108.361         -47.8946        -108.624       -0.0160718         145.143
0.587                   -1.89508        -170.465         -47.9004        -110.269         -47.8393        -110.584       -0.0162297         145.068
0.588                   -1.94853         -171.08         -47.8655        -112.182         -47.7975        -112.564       -0.0163904         144.993
0.589                   -2.00268         -171.69         -47.8487        -114.098         -47.7724        -114.568       -0.0165542         144.917
0.59                     -2.0575        -172.297          -47.855         -116.01         -47.7692        -116.596        -0.016721         144.842
0.591                   -2.11291        -172.898         -47.8918        -117.902         -47.7948        -118.649       -0.0168909         144.766
0.592                   -2.16887        -173.495         -47.9697        -119.747         -47.8603        -120.723       -0.0170639          144.69
0.593                   -2.22531        -174.088         -48.1046        -121.486         -47.9826          -122.8         -0.01724         144.614
0.594                   -2.28217        -174.676         -48.3208        -122.997         -48.1902        -124.834       -0.0174194         144.538
0.595                    -2.3394        -175.259         -48.6535        -124.007          -48.532        -126.693        -0.017602         144.462
0.596                   -2.39693        -175.838          -49.146        -123.873         -49.0975         -127.98        -0.017788         144.385
0.597                   -2.45469        -176.413         -49.7958        -121.083         -50.0432        -127.406       -0.0179772         144.308
0.598                   -2.51263        -176.983         -50.2649         -112.91         -51.4691        -120.362       -0.0181698         144.231
0.599                   -2.57069        -177.549         -49.4024        -100.509         -51.6757        -97.7069       -0.0183657         144.154
0.6                      -2.6288         -178.11         -47.0794        -96.1171         -47.7726        -84.1252       -0.0185651         144.077
0.601                   -2.68691        -178.668         -45.1816         -102.17         -44.7173        -94.7607       -0.0187681         143.999
0.602                   -2.74495        -179.222         -44.2742        -110.694         -43.7252        -107.762       -0.0189744         143.922
0.603                   -2.80289        -179.773         -43.9317        -117.907         -43.5358        -116.923        -0.019184         143.844
0.604                   -2.86066         179.679         -43.8155        -123.509         -43.5505        -123.253       -0.0193971         143.766
0.605                   -2.91822         179.134         -43.7776        -127.948         -43.5992        -127.958       -0.0196136         143.687
0.606                   -2.97552         178.591          -43.762        -131.619          -43.639         -131.72       -0.0198337         143.609
0.607                   -3.03252          178.05         -43.7482        -134.781         -43.6614        -134.907       -0.0200572          143.53
0.608                   -3.08918         177.511         -43.7294        -137.599         -43.6668        -137.723       -0.0202842         143.451
0.609                   -3.14548         176.972         -43.7037        -140.175         -43.6577        -140.287       -0.0205147         143.372
0.61                    -3.20138         176.435         -43.6711        -142.576         -43.6368        -142.674       -0.0207487         143.293
0.611                   -3.25686         175.898         -43.6321        -144.846         -43.6063        -144.931       -0.0209863         143.213
0.612                   -3.31191          175.36         -43.5878        -147.018         -43.5681         -147.09       -0.0212273         143.134
0.613                   -3.36651         174.822         -43.5387        -149.112         -43.5237        -149.172       -0.0214719         143.054
0.614                   -3.42064         174.282         -43.4857        -151.143         -43.4742        -151.194         -0.02172         142.974
0.615                   -3.47432         173.741         -43.4293        -153.124         -43.4205        -153.166       -0.0219716         142.893
0.616                   -3.52755         173.197           -43.37        -155.064         -43.3633        -155.098       -0.0222267         142.813
0.617                   -3.58032          172.65         -43.3084        -156.967         -43.3033        -156.995       -0.0224853         142.732
0.618                   -3.63266           172.1         -43.2447        -158.841         -43.2408        -158.864       -0.0227475         142.651
0.619                   -3.68459         171.546         -43.1791        -160.689         -43.1763        -160.707       -0.0230132         142.569
0.62                    -3.73612         170.988         -43.1121        -162.513           -43.11        -162.528       -0.0232825         142.488
0.621                   -3.78728         170.425         -43.0437        -164.318         -43.0422        -164.329       -0.0235553         142.406
0.622                   -3.83812         169.856         -42.9741        -166.104         -42.9731        -166.112       -0.0238316         142.324
0.623                   -3.88867         169.281         -42.9035        -167.875         -42.9028         -167.88       -0.0241116         142.242
0.624                   -3.93897           168.7         -42.8319         -169.63         -42.8316        -169.634       -0.0243951         142.159
0.625                   -3.98906         168.113         -42.7596        -171.372         -42.7594        -171.374       -0.0246823         142.076
0.626                   -4.03901         167.517         -42.6864        -173.102         -42.6864        -173.102       -0.0249731         141.993
0.627                   -4.08887         166.914         -42.6126         -174.82         -42.6127         -174.82       -0.0252676          141.91
0.628                    -4.1387         166.303         -42.5381        -176.528         -42.5383        -176.526       -0.0255658         141.827
0.629                   -4.18856         165.683         -42.4631        -178.226         -42.4633        -178.224       -0.0258677         141.743
