! TOUCHSTONE file generated by CST MICROWAVE STUDIO
! Date and time: Fri Oct 30 07:54:28 2020
! Project name: Scenario_1_Circular_Tissue_out_of_Line.cst
! Parameters = {dy1=-120.567; L_HA=400; MT=2.54; Rad_Dielectric=30; Rad_Lower=7.3; Rad_Upper=30; a_HA=580; a_WG=246; b_HA=500; b_WG=121; c_HA=0; c_WG=187; d_feed=85; dx1=520; h_feed=15; h_lower=18; h_upper=40}
! Header version: 2018
! Port assignment regex: !\s*Touchstone port\s*([0-9]+)\s*=\s*(CST MWS port|CST DS port)\s*([0-9]+|Zmin|Zmax)\s*\(\"(.*)\"\)(\s*mode\s*([0-9]+))?.*
! Touchstone port assignment:
! Touchstone port 1 = CST MWS port 1 ("")
! Touchstone port 2 = CST MWS port 2 ("")
# GHz S DB R 50
0.5                    -0.133456         -122.48         -61.5371        -62.6769         -61.5371        -62.6769      -0.00734126         151.111
0.501                  -0.139956        -122.946         -61.3443        -64.1345         -61.3443        -64.1346      -0.00740043         151.046
0.502                  -0.146748        -123.412         -61.1504        -65.6066         -61.1503        -65.6069      -0.00746085          150.98
0.503                  -0.153827        -123.879         -60.9553        -67.0939         -60.9552        -67.0944      -0.00752254         150.915
0.504                  -0.161191        -124.346         -60.7593        -68.5968         -60.7591        -68.5974      -0.00758552         150.849
0.505                  -0.168834        -124.813         -60.5623        -70.1158          -60.562        -70.1166      -0.00764982         150.783
0.506                  -0.176755        -125.281         -60.3644        -71.6515         -60.3641        -71.6525      -0.00771544         150.718
0.507                  -0.184948        -125.749         -60.1657        -73.2042         -60.1654        -73.2054      -0.00778241         150.652
0.508                  -0.193411        -126.218         -59.9664        -74.7745         -59.9661        -74.7759      -0.00785075         150.586
0.509                  -0.202139        -126.687         -59.7664        -76.3629         -59.7661        -76.3644      -0.00792046          150.52
0.51                   -0.211128        -127.157          -59.566        -77.9698         -59.5656        -77.9715      -0.00799156         150.454
0.511                  -0.220375        -127.626         -59.3652        -79.5956         -59.3648        -79.5975      -0.00806408         150.388
0.512                  -0.229875        -128.097         -59.1641        -81.2408         -59.1637        -81.2428      -0.00813801         150.322
0.513                  -0.239625        -128.568         -58.9628        -82.9057         -58.9625        -82.9078      -0.00821339         150.255
0.514                   -0.24962        -129.039         -58.7616        -84.5907         -58.7612        -84.5929      -0.00829021         150.189
0.515                  -0.259856        -129.511         -58.5604         -86.296         -58.5601        -86.2984      -0.00836849         150.122
0.516                  -0.270329        -129.984         -58.3595         -88.022         -58.3592        -88.0245      -0.00844824         150.056
0.517                  -0.281035        -130.457         -58.1591        -89.7689         -58.1587        -89.7714      -0.00852947         149.989
0.518                   -0.29197         -130.93         -57.9591        -91.5369         -57.9588        -91.5394      -0.00861218         149.923
0.519                   -0.30313        -131.405         -57.7599         -93.326         -57.7597        -93.3286      -0.00869639         149.856
0.52                   -0.314511         -131.88         -57.5616        -95.1364         -57.5614        -95.1389       -0.0087821         149.789
0.521                  -0.326108        -132.355         -57.3643         -96.968         -57.3641        -96.9705      -0.00886931         149.722
0.522                  -0.337918        -132.832         -57.1683        -98.8207         -57.1681        -98.8232      -0.00895802         149.655
0.523                  -0.349936        -133.309         -56.9736        -100.694         -56.9734        -100.697      -0.00904824         149.588
0.524                  -0.362159        -133.787         -56.7806        -102.589         -56.7804        -102.591      -0.00913997         149.521
0.525                  -0.374581        -134.266         -56.5892        -104.504         -56.5891        -104.506       -0.0092332         149.453
0.526                  -0.387201        -134.745         -56.3998        -106.439         -56.3997        -106.441      -0.00932792         149.386
0.527                  -0.400012        -135.226         -56.2125        -108.393         -56.2124        -108.395      -0.00942414         149.318
0.528                  -0.413013        -135.707         -56.0275        -110.366         -56.0274        -110.368      -0.00952185         149.251
0.529                  -0.426198         -136.19         -55.8449        -112.358         -55.8448        -112.359      -0.00962103         149.183
0.53                   -0.439564        -136.674         -55.6649        -114.367         -55.6648        -114.368      -0.00972168         149.115
0.531                  -0.453109        -137.158         -55.4877        -116.393         -55.4876        -116.394      -0.00982378         149.048
0.532                  -0.466827        -137.644         -55.3134        -118.434         -55.3133        -118.435      -0.00992732          148.98
0.533                  -0.480716        -138.131         -55.1421         -120.49          -55.142         -120.49       -0.0100323         148.912
0.534                  -0.494772         -138.62          -54.974        -122.559          -54.974        -122.559       -0.0101386         148.844
0.535                  -0.508993        -139.109         -54.8093         -124.64         -54.8092         -124.64       -0.0102464         148.775
0.536                  -0.523375          -139.6         -54.6479        -126.733         -54.6478        -126.733       -0.0103555         148.707
0.537                  -0.537915        -140.093           -54.49        -128.835         -54.4899        -128.835        -0.010466         148.639
0.538                  -0.552612        -140.587         -54.3357        -130.946         -54.3355        -130.945       -0.0105777          148.57
0.539                  -0.567462        -141.082         -54.1849        -133.063         -54.1848        -133.062       -0.0106908         148.501
0.54                   -0.582463         -141.58         -54.0379        -135.186         -54.0377        -135.185       -0.0108051         148.433
0.541                  -0.597614        -142.079         -53.8944        -137.312         -53.8943        -137.311       -0.0109207         148.364
0.542                  -0.612913        -142.579         -53.7547        -139.442         -53.7545         -139.44       -0.0110374         148.295
0.543                  -0.628357        -143.082         -53.6186        -141.572         -53.6183         -141.57       -0.0111553         148.226
0.544                  -0.643947        -143.586         -53.4861        -143.702         -53.4858          -143.7       -0.0112744         148.157
0.545                   -0.65968        -144.093         -53.3572         -145.83         -53.3568        -145.828       -0.0113946         148.088
0.546                  -0.675557        -144.601         -53.2317        -147.954         -53.2313        -147.952       -0.0115159         148.019
0.547                  -0.691578        -145.112         -53.1097        -150.075         -53.1093        -150.073       -0.0116382         147.949
0.548                  -0.707742        -145.625         -52.9909        -152.189         -52.9905        -152.187       -0.0117615          147.88
0.549                   -0.72405        -146.141         -52.8754        -154.297         -52.8749        -154.295       -0.0118858          147.81
0.55                   -0.740504        -146.659         -52.7629        -156.396         -52.7623        -156.394       -0.0120111          147.74
0.551                  -0.757105        -147.179         -52.6533        -158.486         -52.6527        -158.485       -0.0121373          147.67
0.552                  -0.773855        -147.702         -52.5465        -160.567         -52.5459        -160.565       -0.0122643           147.6
0.553                  -0.790756        -148.228         -52.4423        -162.636         -52.4417        -162.635       -0.0123923          147.53
0.554                  -0.807812        -148.757         -52.3406        -164.694         -52.3399        -164.693        -0.012521          147.46
0.555                  -0.825027        -149.289         -52.2411         -166.74         -52.2404        -166.738       -0.0126506          147.39
0.556                  -0.842405        -149.823         -52.1438        -168.773          -52.143        -168.771        -0.012781          147.32
0.557                  -0.859951        -150.361         -52.0484        -170.792         -52.0476        -170.791       -0.0129121         147.249
0.558                  -0.877672        -150.903         -51.9547        -172.798          -51.954        -172.797        -0.013044         147.178
0.559                  -0.895573        -151.448         -51.8627         -174.79         -51.8619         -174.79       -0.0131766         147.108
0.56                   -0.913664        -151.996         -51.7721        -176.768         -51.7713        -176.768       -0.0133099         147.037
0.561                  -0.931951        -152.548         -51.6827        -178.732         -51.6819        -178.732       -0.0134439         146.966
0.562                  -0.950445        -153.104         -51.5944         179.318         -51.5936         179.318       -0.0135786         146.895
0.563                  -0.969156        -153.664          -51.507         177.382         -51.5062         177.382        -0.013714         146.823
0.564                  -0.988095        -154.228         -51.4203         175.461         -51.4195          175.46       -0.0138501         146.752
0.565                   -1.00728        -154.796         -51.3343         173.553         -51.3335         173.552       -0.0139868         146.681
0.566                   -1.02671        -155.368         -51.2488         171.659          -51.248         171.658       -0.0141243         146.609
0.567                   -1.04642        -155.945         -51.1635         169.777         -51.1628         169.776       -0.0142625         146.537
0.568                   -1.06641        -156.527         -51.0785         167.909         -51.0777         167.908       -0.0144013         146.465
0.569                   -1.08671        -157.113         -50.9935         166.053         -50.9928         166.052       -0.0145409         146.393
0.57                    -1.10733        -157.704         -50.9085         164.209         -50.9078         164.207       -0.0146812         146.321
0.571                    -1.1283          -158.3         -50.8233         162.376         -50.8226         162.375       -0.0148223         146.249
0.572                   -1.14964        -158.902         -50.7379         160.555         -50.7373         160.553       -0.0149642         146.176
0.573                   -1.17137        -159.509         -50.6522         158.743         -50.6515         158.742       -0.0151069         146.104
0.574                   -1.19351        -160.121          -50.566         156.942         -50.5653          156.94       -0.0152505         146.031
0.575                   -1.21611        -160.739         -50.4792          155.15         -50.4787         155.148        -0.015395         145.958
0.576                   -1.23918        -161.362          -50.392         153.366         -50.3914         153.364       -0.0155403         145.885
0.577                   -1.26276        -161.992          -50.304         151.591         -50.3035         151.589       -0.0156867         145.812
0.578                   -1.28688        -162.627         -50.2154         149.823         -50.2149         149.821       -0.0158341         145.739
0.579                   -1.31157        -163.269          -50.126         148.062         -50.1256          148.06       -0.0159825         145.665
0.58                    -1.33689        -163.916         -50.0359         146.307         -50.0354         146.305        -0.016132         145.592
0.581                   -1.36286         -164.57         -49.9449         144.558         -49.9445         144.556       -0.0162827         145.518
0.582                   -1.38954        -165.231         -49.8531         142.813         -49.8527         142.812       -0.0164346         145.444
0.583                   -1.41696        -165.898         -49.7604         141.074           -49.76         141.072       -0.0165879          145.37
0.584                   -1.44517        -166.571         -49.6668         139.337         -49.6665         139.336       -0.0167424         145.295
0.585                   -1.47423        -167.252         -49.5723         137.604          -49.572         137.603       -0.0168983         145.221
0.586                   -1.50418        -167.939         -49.4769         135.874         -49.4767         135.872       -0.0170557         145.146
0.587                   -1.53508        -168.632         -49.3806         134.146         -49.3804         134.144       -0.0172147         145.072
0.588                   -1.56699        -169.332         -49.2835         132.419         -49.2833         132.417       -0.0173752         144.997
0.589                   -1.59997         -170.04         -49.1854         130.693         -49.1853         130.692       -0.0175374         144.922
0.59                    -1.63407        -170.753         -49.0865         128.967         -49.0864         128.966       -0.0177013         144.846
0.591                   -1.66936        -171.474         -48.9867         127.241         -48.9866         127.241        -0.017867         144.771
0.592                   -1.70591        -172.201         -48.8861         125.515          -48.886         125.515       -0.0180346         144.695
0.593                   -1.74377        -172.934         -48.7847         123.788         -48.7847         123.788       -0.0182041         144.619
0.594                   -1.78303        -173.674         -48.6826         122.059         -48.6825         122.059       -0.0183756         144.543
0.595                   -1.82375         -174.42         -48.5797         120.329         -48.5797         120.329       -0.0185493         144.467
0.596                   -1.86599        -175.172         -48.4762         118.596         -48.4761         118.596       -0.0187251         144.391
0.597                   -1.90982        -175.929          -48.372          116.86         -48.3719          116.86       -0.0189031         144.314
0.598                   -1.95533        -176.692         -48.2672         115.121         -48.2671         115.122       -0.0190834         144.237
0.599                   -2.00257         -177.46         -48.1618         113.379         -48.1618          113.38       -0.0192661         144.161
0.6                     -2.05161        -178.233         -48.0559         111.633         -48.0559         111.634       -0.0194513         144.083
0.601                   -2.10252        -179.011         -47.9496         109.883         -47.9496         109.885        -0.019639         144.006
0.602                   -2.15537        -179.792         -47.8429         108.129         -47.8429         108.131       -0.0198293         143.929
0.603                   -2.21022         179.423         -47.7359         106.371         -47.7359         106.373       -0.0200223         143.851
0.604                   -2.26712         178.635         -47.6286         104.608         -47.6285          104.61        -0.020218         143.773
0.605                   -2.32612         177.845          -47.521          102.84          -47.521         102.842       -0.0204166         143.695
0.606                   -2.38729         177.053         -47.4133         101.067         -47.4133          101.07       -0.0206181         143.616
0.607                   -2.45066          176.26         -47.3055         99.2896         -47.3054         99.2922       -0.0208226         143.538
0.608                   -2.51626         175.466         -47.1977         97.5066         -47.1976         97.5093       -0.0210301         143.459
0.609                   -2.58414         174.673         -47.0898         95.7184         -47.0897         95.7213       -0.0212407          143.38
0.61                    -2.65431          173.88         -46.9821          93.925          -46.982          93.928       -0.0214546         143.301
0.611                   -2.72679         173.089         -46.8745         92.1264         -46.8744         92.1295       -0.0216717         143.221
0.612                   -2.80158         172.301         -46.7671         90.3226          -46.767         90.3258       -0.0218922         143.142
0.613                   -2.87868         171.515           -46.66         88.5137         -46.6599         88.5169       -0.0221161         143.062
0.614                   -2.95808         170.734         -46.5532         86.6997         -46.5531          86.703       -0.0223435         142.982
0.615                   -3.03976         169.958         -46.4468         84.8808         -46.4466         84.8841       -0.0225745         142.902
0.616                   -3.12367         169.188         -46.3409         83.0571         -46.3407         83.0605       -0.0228091         142.821
0.617                   -3.20978         168.424         -46.2354         81.2287         -46.2352         81.2322       -0.0230475          142.74
0.618                   -3.29803         167.667         -46.1305         79.3959         -46.1303         79.3994       -0.0232896         142.659
0.619                   -3.38836         166.918         -46.0262         77.5589         -46.0259         77.5624       -0.0235356         142.578
0.62                    -3.48068         166.178         -45.9226          75.718         -45.9223         75.7214       -0.0237856         142.496
0.621                   -3.57492         165.448         -45.8196         73.8732         -45.8193         73.8766       -0.0240396         142.415
0.622                   -3.67098         164.727         -45.7174         72.0251          -45.717         72.0284       -0.0242977         142.333
0.623                   -3.76875         164.017         -45.6159         70.1738         -45.6156          70.177       -0.0245599          142.25
0.624                   -3.86813         163.319         -45.5153         68.3196         -45.5149         68.3228       -0.0248264         142.168
0.625                   -3.96899         162.632         -45.4155         66.4629         -45.4151         66.4661       -0.0250973         142.085
0.626                   -4.07121         161.958         -45.3165         64.6041         -45.3162         64.6071       -0.0253725         142.002
0.627                   -4.17465         161.295         -45.2185         62.7434         -45.2181         62.7464       -0.0256522         141.919
0.628                   -4.27919         160.646         -45.1214         60.8813          -45.121         60.8842       -0.0259365         141.835
0.629                   -4.38469         160.009         -45.0252         59.0182         -45.0248         59.0209       -0.0262254         141.751
