! TOUCHSTONE file generated by CST MICROWAVE STUDIO
! Date and time: Wed Oct 28 19:15:56 2020
! Project name: Scenario_1_Circular_Tissue_out_of_Line.cst
! Parameters = {dy1=-120.567; L_HA=400; MT=2.54; Rad_Dielectric=30; Rad_Lower=7.3; Rad_Upper=30; a_HA=580; a_WG=246; b_HA=500; b_WG=121; c_HA=0; c_WG=187; d_feed=85; dx1=693; h_feed=15; h_lower=18; h_upper=40}
! Header version: 2018
! Port assignment regex: !\s*Touchstone port\s*([0-9]+)\s*=\s*(CST MWS port|CST DS port)\s*([0-9]+|Zmin|Zmax)\s*\(\"(.*)\"\)(\s*mode\s*([0-9]+))?.*
! Touchstone port assignment:
! Touchstone port 1 = CST MWS port 1 ("")
! Touchstone port 2 = CST MWS port 2 ("")
# GHz S DB R 50
0.5                    -0.153711        -122.284         -62.2236        -168.741         -62.2236        -168.741      -0.00771857          151.13
0.501                  -0.153838        -122.738          -62.129        -170.432         -62.1292        -170.431      -0.00777897         151.065
0.502                  -0.154361        -123.195         -62.0316        -172.131         -62.0319        -172.129      -0.00783992             151
0.503                  -0.155284        -123.654         -61.9312        -173.837         -61.9316        -173.835      -0.00790142         150.934
0.504                  -0.156612        -124.116          -61.828         -175.55         -61.8285        -175.547      -0.00796349         150.869
0.505                  -0.158351         -124.58         -61.7218         -177.27         -61.7225        -177.267      -0.00802613         150.804
0.506                  -0.160504        -125.046         -61.6128        -178.996         -61.6136        -178.993      -0.00808933         150.738
0.507                  -0.163075        -125.515          -61.501         179.271         -61.5019         179.275      -0.00815311         150.672
0.508                  -0.166071        -125.986         -61.3864         177.531         -61.3874         177.536      -0.00821747         150.607
0.509                  -0.169493        -126.459         -61.2691         175.786         -61.2702         175.791      -0.00828242         150.541
0.51                   -0.173347        -126.934          -61.149         174.035         -61.1502          174.04      -0.00834796         150.475
0.511                  -0.177635        -127.412         -61.0262         172.278         -61.0275         172.283      -0.00841409         150.409
0.512                  -0.182362        -127.892         -60.9008         170.515         -60.9022         170.521      -0.00848082         150.343
0.513                  -0.187531        -128.373         -60.7729         168.746         -60.7743         168.752      -0.00854817         150.277
0.514                  -0.193144        -128.857         -60.6424         166.973         -60.6438         166.979      -0.00861612          150.21
0.515                  -0.199205        -129.343         -60.5094         165.193         -60.5109           165.2       -0.0086847         150.144
0.516                  -0.205717        -129.831         -60.3739         163.408         -60.3755         163.415      -0.00875391         150.078
0.517                  -0.212682        -130.321         -60.2362         161.618         -60.2378         161.625      -0.00882375         150.011
0.518                  -0.220102        -130.813          -60.096         159.822         -60.0977         159.829      -0.00889424         149.945
0.519                   -0.22798        -131.307         -59.9537         158.021         -59.9554         158.028      -0.00896538         149.878
0.52                   -0.236316        -131.803         -59.8092         156.214         -59.8108         156.221      -0.00903717         149.811
0.521                  -0.245114          -132.3         -59.6625         154.401         -59.6642         154.408      -0.00910964         149.744
0.522                  -0.254373        -132.799         -59.5138         152.583         -59.5155          152.59      -0.00918278         149.677
0.523                  -0.264095          -133.3         -59.3631         150.758         -59.3648         150.765      -0.00925662          149.61
0.524                  -0.274282        -133.803         -59.2105         148.928         -59.2121         148.935      -0.00933115         149.543
0.525                  -0.284933        -134.307         -59.0561         147.091         -59.0577         147.098       -0.0094064         149.476
0.526                  -0.296049        -134.813         -58.8999         145.248         -58.9015         145.255      -0.00948236         149.409
0.527                  -0.307631         -135.32          -58.742         143.398         -58.7435         143.405      -0.00955907         149.342
0.528                  -0.319677        -135.829         -58.5825         141.541          -58.584         141.548      -0.00963652         149.274
0.529                  -0.332188         -136.34         -58.4215         139.678          -58.423         139.684      -0.00971474         149.207
0.53                   -0.345163        -136.852         -58.2591         137.806         -58.2605         137.813      -0.00979374         149.139
0.531                    -0.3586        -137.365         -58.0953         135.928         -58.0967         135.934      -0.00987354         149.071
0.532                    -0.3725         -137.88         -57.9303         134.041         -57.9316         134.047      -0.00995416         149.003
0.533                   -0.38686        -138.396         -57.7641         132.146         -57.7653         132.152       -0.0100356         148.935
0.534                  -0.401678        -138.914         -57.5968         130.242         -57.5979         130.248       -0.0101179         148.867
0.535                  -0.416954        -139.432         -57.4286          128.33         -57.4295         128.336       -0.0102011         148.799
0.536                  -0.432684        -139.952         -57.2594         126.409         -57.2603         126.414       -0.0102852         148.731
0.537                  -0.448866        -140.474         -57.0894         124.478         -57.0902         124.483       -0.0103702         148.662
0.538                  -0.465498        -140.996         -56.9188         122.537         -56.9195         122.542       -0.0104562         148.594
0.539                  -0.482576         -141.52         -56.7476         120.587         -56.7481         120.591       -0.0105432         148.525
0.54                   -0.500098        -142.045         -56.5758         118.626         -56.5763          118.63       -0.0106311         148.457
0.541                   -0.51806        -142.571         -56.4037         116.654         -56.4041         116.658       -0.0107202         148.388
0.542                  -0.536458        -143.098         -56.2313         114.672         -56.2316         114.675       -0.0108103         148.319
0.543                  -0.555289        -143.626         -56.0588         112.678         -56.0589         112.681       -0.0109016          148.25
0.544                  -0.574549        -144.155         -55.8862         110.673         -55.8862         110.676        -0.010994         148.181
0.545                  -0.594232        -144.685         -55.7137         108.657         -55.7136         108.659       -0.0110877         148.112
0.546                  -0.614335        -145.216         -55.5414         106.628         -55.5412          106.63       -0.0111826         148.042
0.547                  -0.634854        -145.748         -55.3694         104.587          -55.369         104.589       -0.0112788         147.973
0.548                  -0.655782        -146.282         -55.1978         102.535         -55.1973         102.535       -0.0113764         147.903
0.549                  -0.677116        -146.816         -55.0267         100.469         -55.0262          100.47       -0.0114754         147.834
0.55                   -0.698849        -147.351         -54.8564         98.3916         -54.8557         98.3915        -0.011576         147.764
0.551                  -0.720978        -147.887         -54.6868         96.3014          -54.686         96.3007        -0.011678         147.694
0.552                  -0.743495        -148.424         -54.5182         94.1985         -54.5173         94.1973       -0.0117817         147.624
0.553                  -0.766395        -148.962         -54.3506         92.0831         -54.3496         92.0813       -0.0118871         147.554
0.554                  -0.789672        -149.501         -54.1842         89.9552         -54.1831         89.9528       -0.0119943         147.484
0.555                  -0.813322        -150.041         -54.0192         87.8149          -54.018         87.8119       -0.0121032         147.413
0.556                  -0.837336        -150.582         -53.8555         85.6623         -53.8542         85.6586       -0.0122141         147.343
0.557                   -0.86171        -151.125         -53.6934         83.4976         -53.6921         83.4933        -0.012327         147.272
0.558                  -0.886437        -151.668         -53.5331          81.321         -53.5316         81.3161        -0.012442         147.201
0.559                  -0.911511        -152.212         -53.3745          79.133          -53.373         79.1274       -0.0125591          147.13
0.56                   -0.936925        -152.757         -53.2178         76.9337         -53.2163         76.9275       -0.0126784         147.059
0.561                  -0.962674        -153.303         -53.0632         74.7237         -53.0616         74.7168          -0.0128         146.988
0.562                   -0.98875         -153.85         -52.9108         72.5033         -52.9091         72.4958        -0.012924         146.917
0.563                   -1.01515        -154.399         -52.7606         70.2732         -52.7589         70.2649       -0.0130505         146.846
0.564                   -1.04186        -154.948         -52.6127         68.0337          -52.611         68.0249       -0.0131794         146.774
0.565                   -1.06888        -155.499         -52.4673         65.7857         -52.4656         65.7762       -0.0133109         146.702
0.566                   -1.09621        -156.051         -52.3245         63.5296         -52.3227         63.5195       -0.0134451         146.631
0.567                   -1.12383        -156.605         -52.1842         61.2663         -52.1824         61.2557       -0.0135819         146.559
0.568                   -1.15174         -157.16         -52.0467         58.9965         -52.0449         58.9853       -0.0137214         146.487
0.569                   -1.17993        -157.716         -51.9118         56.7209           -51.91         56.7092       -0.0138636         146.414
0.57                     -1.2084        -158.274         -51.7798         54.4404          -51.778         54.4282       -0.0140086         146.342
0.571                   -1.23715        -158.833         -51.6506         52.1559         -51.6488         52.1431       -0.0141563          146.27
0.572                   -1.26616        -159.394         -51.5242         49.8681         -51.5225         49.8549       -0.0143068         146.197
0.573                   -1.29544        -159.956         -51.4007          47.578         -51.3991         47.5645       -0.0144599         146.124
0.574                   -1.32498        -160.521         -51.2801         45.2864         -51.2785         45.2726       -0.0146157         146.051
0.575                   -1.35477        -161.087         -51.1624         42.9944         -51.1608         42.9803       -0.0147742         145.978
0.576                    -1.3848        -161.655         -51.0475         40.7028          -51.046         40.6885       -0.0149352         145.905
0.577                   -1.41509        -162.225         -50.9355         38.4124         -50.9341         38.3979       -0.0150987         145.832
0.578                   -1.44561        -162.798         -50.8263         36.1242         -50.8249         36.1096       -0.0152646         145.758
0.579                   -1.47638        -163.372         -50.7198          33.839         -50.7186         33.8244       -0.0154329         145.685
0.58                    -1.50738        -163.949         -50.6161         31.5577         -50.6149         31.5431       -0.0156035         145.611
0.581                   -1.53863        -164.529         -50.5149         29.2811         -50.5138         29.2666       -0.0157763         145.537
0.582                    -1.5701        -165.111         -50.4163           27.01         -50.4153         26.9956       -0.0159511         145.463
0.583                   -1.60181        -165.696         -50.3202          24.745         -50.3192         24.7308        -0.016128         145.389
0.584                   -1.63376        -166.284         -50.2264         22.4869         -50.2256          22.473       -0.0163068         145.315
0.585                   -1.66594        -166.874         -50.1349         20.2364         -50.1341         20.2227       -0.0164874          145.24
0.586                   -1.69836        -167.468         -50.0456         17.9939         -50.0449         17.9806       -0.0166698         145.165
0.587                   -1.73103        -168.066         -49.9583         15.7601         -49.9576         15.7472       -0.0168539         145.091
0.588                   -1.76394        -168.666         -49.8729         13.5353         -49.8723          13.523       -0.0170396         145.016
0.589                   -1.79711        -169.271         -49.7893         11.3201         -49.7888         11.3083        -0.017227         144.941
0.59                    -1.83053        -169.879         -49.7074         9.11483          -49.707         9.10351       -0.0174159         144.865
0.591                   -1.86423        -170.492         -49.6271         6.91969         -49.6267         6.90895       -0.0176063          144.79
0.592                    -1.8982        -171.108         -49.5481         4.73495         -49.5478         4.72483       -0.0177982         144.714
0.593                   -1.93246        -171.729         -49.4705          2.5608         -49.4702         2.55133       -0.0179917         144.639
0.594                   -1.96702        -172.355          -49.394        0.397339         -49.3938        0.388543       -0.0181866         144.563
0.595                    -2.0019        -172.985         -49.3185        -1.75537         -49.3183        -1.76347        -0.018383         144.486
0.596                   -2.03712        -173.621         -49.2439        -3.89733         -49.2438        -3.90473       -0.0185809          144.41
0.597                   -2.07268        -174.262         -49.1701         -6.0286           -49.17        -6.03528       -0.0187804         144.334
0.598                   -2.10862        -174.908         -49.0969        -8.14929         -49.0969        -8.15524       -0.0189815         144.257
0.599                   -2.14496         -175.56         -49.0243        -10.2596         -49.0242        -10.2648       -0.0191842          144.18
0.6                     -2.18172        -176.218          -48.952        -12.3596          -48.952        -12.3641       -0.0193886         144.103
0.601                   -2.21894        -176.882         -48.8801        -14.4497         -48.8801        -14.4535       -0.0195947         144.026
0.602                   -2.25664        -177.553         -48.8083        -16.5301         -48.8083        -16.5332       -0.0198026         143.948
0.603                   -2.29486         -178.23         -48.7366        -18.6012         -48.7367        -18.6036       -0.0200123         143.871
0.604                   -2.33364        -178.914          -48.665        -20.6633          -48.665         -20.665       -0.0202239         143.793
0.605                   -2.37302        -179.606         -48.5932        -22.7168         -48.5932        -22.7179       -0.0204376         143.715
0.606                   -2.41304         179.696         -48.5212        -24.7622         -48.5212        -24.7626       -0.0206533         143.637
0.607                   -2.45377         178.989          -48.449        -26.7998          -48.449        -26.7997       -0.0208711         143.558
0.608                   -2.49525         178.274         -48.3765        -28.8303         -48.3764        -28.8296       -0.0210911          143.48
0.609                   -2.53753         177.552         -48.3036        -30.8541         -48.3035        -30.8529       -0.0213135         143.401
0.61                    -2.58069          176.82         -48.2302        -32.8716         -48.2301        -32.8699       -0.0215382         143.322
0.611                   -2.62479         176.081         -48.1563        -34.8834         -48.1562        -34.8813       -0.0217654         143.242
0.612                   -2.66991         175.332         -48.0819        -36.8901         -48.0817        -36.8876       -0.0219951         143.163
0.613                   -2.71612         174.574         -48.0069        -38.8922         -48.0067        -38.8893       -0.0222275         143.083
0.614                   -2.76351         173.807         -47.9313        -40.8901         -47.9311        -40.8869       -0.0224626         143.003
0.615                   -2.81216         173.031         -47.8551        -42.8845         -47.8548         -42.881       -0.0227005         142.923
0.616                   -2.86218         172.245         -47.7782        -44.8759         -47.7779        -44.8722       -0.0229412         142.843
0.617                   -2.91366         171.449         -47.7007        -46.8648         -47.7004        -46.8609        -0.023185         142.762
0.618                   -2.96671         170.644         -47.6226        -48.8517         -47.6222        -48.8476       -0.0234318         142.681
0.619                   -3.02144         169.828         -47.5438        -50.8371         -47.5434        -50.8329       -0.0236818           142.6
0.62                    -3.07798         169.004         -47.4644        -52.8214          -47.464        -52.8172       -0.0239351         142.519
0.621                   -3.13645         168.169         -47.3845        -54.8053          -47.384         -54.801       -0.0241917         142.437
0.622                   -3.19697         167.325         -47.3039        -56.7889         -47.3034        -56.7846       -0.0244517         142.355
0.623                   -3.25968         166.471         -47.2228        -58.7729         -47.2222        -58.7687       -0.0247153         142.273
0.624                   -3.32472         165.608         -47.1411        -60.7576         -47.1406        -60.7534       -0.0249825         142.191
0.625                   -3.39224         164.736          -47.059        -62.7433         -47.0585        -62.7391       -0.0252534         142.108
0.626                   -3.46238         163.856         -46.9765        -64.7303         -46.9759        -64.7263       -0.0255281         142.025
0.627                   -3.53529         162.967         -46.8936        -66.7189          -46.893         -66.715       -0.0258067         141.942
0.628                   -3.61112         162.071         -46.8105        -68.7093         -46.8098        -68.7057       -0.0260894         141.859
0.629                   -3.69002         161.168          -46.727        -70.7019         -46.7264        -70.6984       -0.0263761         141.775
