! TOUCHSTONE file generated by CST MICROWAVE STUDIO
! Date and time: Mon Oct 26 12:26:30 2020
! Project name: Scenario_1_Circular_Tissue_out_of_Line.cst
! Parameters = {dy1=-120.567; L_HA=400; MT=2.54; Rad_Dielectric=30; Rad_Lower=7.3; Rad_Upper=30; a_HA=580; a_WG=246; b_HA=500; b_WG=121; c_HA=0; c_WG=187; d_feed=85; dx1=866; h_feed=15; h_lower=18; h_upper=40}
! Header version: 2018
! Port assignment regex: !\s*Touchstone port\s*([0-9]+)\s*=\s*(CST MWS port|CST DS port)\s*([0-9]+|Zmin|Zmax)\s*\(\"(.*)\"\)(\s*mode\s*([0-9]+))?.*
! Touchstone port assignment:
! Touchstone port 1 = CST MWS port 1 ("")
! Touchstone port 2 = CST MWS port 2 ("")
# GHz S DB R 50
0.5                    -0.143538        -122.426         -62.9887         98.2158         -62.9887         98.2158      -0.00744634         151.145
0.501                  -0.151113        -122.852          -62.797         97.0162          -62.797          97.016      -0.00755008         151.079
0.502                  -0.158755        -123.281         -62.6036         95.8209         -62.6035         95.8206      -0.00765356         151.014
0.503                  -0.166467        -123.712         -62.4084         94.6297         -62.4082         94.6292      -0.00775679         150.948
0.504                  -0.174255        -124.145         -62.2114         93.4421         -62.2112         93.4414      -0.00785977         150.883
0.505                  -0.182121         -124.58         -62.0127         92.2577         -62.0124         92.2568      -0.00796252         150.817
0.506                  -0.190073        -125.017         -61.8123          91.076          -61.812         91.0749      -0.00806504         150.752
0.507                  -0.198113        -125.457         -61.6102         89.8966         -61.6098         89.8954      -0.00816733         150.686
0.508                  -0.206247        -125.899         -61.4063          88.719         -61.4058         88.7177      -0.00826941          150.62
0.509                   -0.21448        -126.343         -61.2007         87.5427         -61.2002         87.5413      -0.00837129         150.554
0.51                   -0.222817         -126.79         -60.9934         86.3673         -60.9928         86.3657      -0.00847298         150.488
0.511                  -0.231262        -127.239         -60.7843         85.1921         -60.7837         85.1904      -0.00857448         150.422
0.512                  -0.239823        -127.691         -60.5734         84.0167         -60.5728         84.0148       -0.0086758         150.356
0.513                  -0.248503        -128.144         -60.3608         82.8404         -60.3601         82.8384      -0.00877695          150.29
0.514                  -0.257309        -128.601         -60.1464         81.6627         -60.1456         81.6606      -0.00887795         150.223
0.515                  -0.266247         -129.06         -59.9302         80.4829         -59.9294         80.4807      -0.00897881         150.157
0.516                  -0.275321        -129.521         -59.7121         79.3004         -59.7112         79.2981      -0.00907953         150.091
0.517                  -0.284538        -129.985         -59.4922         78.1145         -59.4912         78.1122      -0.00918012         150.024
0.518                  -0.293905        -130.451         -59.2703         76.9246         -59.2693         76.9222       -0.0092806         149.957
0.519                  -0.303427         -130.92         -59.0465         75.7299         -59.0455         75.7274      -0.00938099         149.891
0.52                   -0.313112        -131.391         -58.8208         74.5296         -58.8197          74.527      -0.00948128         149.824
0.521                  -0.322964        -131.866          -58.593          73.323         -58.5918         73.3203      -0.00958149         149.757
0.522                  -0.332992        -132.342         -58.3631         72.1092         -58.3619         72.1064      -0.00968164          149.69
0.523                  -0.343201        -132.822         -58.1311         70.8873         -58.1299         70.8844      -0.00978175         149.623
0.524                    -0.3536        -133.304          -57.897         69.6565         -57.8957         69.6535      -0.00988181         149.556
0.525                  -0.364194        -133.789         -57.6606         68.4157         -57.6592         68.4126      -0.00998185         149.489
0.526                  -0.374992        -134.276          -57.422         67.1639         -57.4205         67.1607       -0.0100819         149.422
0.527                     -0.386        -134.766          -57.181         65.9001         -57.1795         65.8968       -0.0101819         149.354
0.528                  -0.397227         -135.26         -56.9376         64.6232         -56.9361         64.6198        -0.010282         149.287
0.529                  -0.408679        -135.755         -56.6918         63.3318         -56.6902         63.3284        -0.010382         149.219
0.53                   -0.420365        -136.254         -56.4434         62.0249         -56.4418         62.0213       -0.0104822         149.152
0.531                  -0.432292        -136.755         -56.1925         60.7009         -56.1908         60.6972       -0.0105824         149.084
0.532                  -0.444469         -137.26         -55.9388         59.3586         -55.9371         59.3548       -0.0106827         149.016
0.533                  -0.456904        -137.767         -55.6825         57.9963         -55.6807         57.9923        -0.010783         148.948
0.534                  -0.469605        -138.277         -55.4233         56.6124         -55.4215         56.6083       -0.0108835          148.88
0.535                  -0.482582         -138.79         -55.1613         55.2052         -55.1594          55.201       -0.0109842         148.812
0.536                  -0.495842        -139.306         -54.8963         53.7728         -54.8944         53.7685       -0.0110849         148.744
0.537                  -0.509394        -139.824         -54.6283         52.3132         -54.6263         52.3087       -0.0111859         148.676
0.538                  -0.523249        -140.346         -54.3573         50.8243         -54.3552         50.8197        -0.011287         148.607
0.539                  -0.537413        -140.871         -54.0831         49.3039          -54.081         49.2991       -0.0113883         148.539
0.54                   -0.551898        -141.398         -53.8057         47.7493         -53.8035         47.7443       -0.0114899          148.47
0.541                  -0.566712        -141.929         -53.5251         46.1581         -53.5229         46.1529       -0.0115917         148.401
0.542                  -0.581865        -142.462         -53.2412         44.5272          -53.239         44.5218       -0.0116938         148.333
0.543                  -0.597367        -142.998         -52.9541         42.8538         -52.9518         42.8481       -0.0117961         148.264
0.544                  -0.613227        -143.538         -52.6637         41.1343         -52.6613         41.1284       -0.0118988         148.195
0.545                  -0.629455         -144.08           -52.37         39.3654         -52.3676         39.3592       -0.0120018         148.125
0.546                  -0.646063        -144.625         -52.0731         37.5432         -52.0707         37.5367       -0.0121051         148.056
0.547                  -0.663059        -145.174         -51.7731         35.6636         -51.7706         35.6567       -0.0122088         147.987
0.548                  -0.680454        -145.725         -51.4702          33.722         -51.4676         33.7149       -0.0123129         147.917
0.549                  -0.698259        -146.279         -51.1643          31.714         -51.1617         31.7064       -0.0124174         147.848
0.55                   -0.716485        -146.837         -50.8559         29.6343         -50.8533         29.6263       -0.0125224         147.778
0.551                  -0.735141        -147.397         -50.5452         27.4776         -50.5425         27.4692       -0.0126278         147.708
0.552                   -0.75424         -147.96         -50.2326         25.2382         -50.2299         25.2293       -0.0127337         147.639
0.553                  -0.773791        -148.526         -49.9186         22.9102         -49.9159         22.9007       -0.0128401         147.568
0.554                  -0.793806        -149.096         -49.6038         20.4872          -49.601         20.4772       -0.0129471         147.498
0.555                  -0.814296        -149.668         -49.2889         17.9629          -49.286         17.9523       -0.0130546         147.428
0.556                  -0.835273        -150.243         -48.9747         15.3306         -48.9719         15.3194       -0.0131627         147.358
0.557                  -0.856747        -150.821         -48.6625         12.5838         -48.6597          12.572       -0.0132715         147.287
0.558                   -0.87873        -151.402         -48.3534         9.71623         -48.3506         9.70364       -0.0133809         147.217
0.559                  -0.901234        -151.986         -48.0489         6.72174         -48.0461          6.7084       -0.0134909         147.146
0.56                    -0.92427        -152.572         -47.7507         3.59502         -47.7479         3.58091       -0.0136017         147.075
0.561                  -0.947849        -153.162         -47.4608        0.331724          -47.458        0.316811       -0.0137132         147.004
0.562                  -0.971984        -153.754         -47.1813        -3.07116         -47.1786        -3.08688       -0.0138255         146.933
0.563                  -0.996686         -154.35         -46.9147        -6.61483          -46.912        -6.63136       -0.0139385         146.862
0.564                   -1.02197        -154.948         -46.6635        -10.2982         -46.6609        -10.3155       -0.0140524          146.79
0.565                   -1.04784        -155.549         -46.4305        -14.1175         -46.4281        -14.1356       -0.0141672         146.719
0.566                   -1.07431        -156.152         -46.2185        -18.0659         -46.2162        -18.0846       -0.0142829         146.647
0.567                    -1.1014        -156.758         -46.0302        -22.1329         -46.0281        -22.1522       -0.0143995         146.575
0.568                   -1.12911        -157.367         -45.8683        -26.3047         -45.8663        -26.3245        -0.014517         146.503
0.569                   -1.15746        -157.979         -45.7351         -30.564         -45.7333        -30.5842       -0.0146356         146.431
0.57                    -1.18646        -158.593         -45.6323        -34.8904         -45.6307        -34.9107       -0.0147552         146.359
0.571                   -1.21613         -159.21         -45.5614        -39.2609           -45.56        -39.2813       -0.0148758         146.287
0.572                   -1.24646        -159.829         -45.5231        -43.6512         -45.5218        -43.6714       -0.0149976         146.214
0.573                   -1.27748        -160.451         -45.5172        -48.0362         -45.5162        -48.0562       -0.0151205         146.142
0.574                    -1.3092        -161.075         -45.5432        -52.3916         -45.5424         -52.411       -0.0152446         146.069
0.575                   -1.34162        -161.702         -45.5997        -56.6943         -45.5991        -56.7132       -0.0153699         145.996
0.576                   -1.37477         -162.33         -45.6849        -60.9242         -45.6844        -60.9423       -0.0154964         145.923
0.577                   -1.40865        -162.962         -45.7965        -65.0639         -45.7961        -65.0811       -0.0156243          145.85
0.578                   -1.44326        -163.595         -45.9317        -69.0996         -45.9315        -69.1158       -0.0157534         145.777
0.579                   -1.47864        -164.231          -46.088        -73.0209         -46.0879        -73.0362        -0.015884         145.703
0.58                    -1.51477        -164.868         -46.2625        -76.8212         -46.2625        -76.8355       -0.0160159         145.629
0.581                   -1.55169        -165.508         -46.4524        -80.4968         -46.4525          -80.51       -0.0161493         145.556
0.582                   -1.58938         -166.15         -46.6552        -84.0466         -46.6553        -84.0587       -0.0162841         145.482
0.583                   -1.62788        -166.794         -46.8684         -87.472         -46.8686        -87.4831       -0.0164205         145.407
0.584                   -1.66718        -167.439         -47.0899        -90.7763         -47.0901        -90.7863       -0.0165585         145.333
0.585                   -1.70731        -168.087         -47.3177        -93.9638         -47.3179        -93.9729       -0.0166981         145.259
0.586                   -1.74826        -168.736           -47.55        -97.0402         -47.5502        -97.0483       -0.0168394         145.184
0.587                   -1.79004        -169.386         -47.7854        -100.012         -47.7857        -100.019       -0.0169824         145.109
0.588                   -1.83268        -170.039         -48.0227        -102.885         -48.0229        -102.891       -0.0171272         145.034
0.589                   -1.87617        -170.693         -48.2607        -105.666         -48.2609        -105.672       -0.0172738         144.959
0.59                    -1.92053        -171.348         -48.4986        -108.363         -48.4988        -108.368       -0.0174222         144.884
0.591                   -1.96577        -172.004         -48.7356        -110.982         -48.7357        -110.986       -0.0175726         144.808
0.592                   -2.01188        -172.662          -48.971         -113.53         -48.9711        -113.533        -0.017725         144.733
0.593                    -2.0589        -173.321         -49.2044        -116.012         -49.2045        -116.014       -0.0178793         144.657
0.594                   -2.10681        -173.981         -49.4353        -118.435         -49.4354        -118.436       -0.0180358         144.581
0.595                   -2.15563        -174.642         -49.6635        -120.804         -49.6636        -120.805       -0.0181944         144.505
0.596                   -2.20537        -175.304         -49.8887        -123.125         -49.8887        -123.126       -0.0183551         144.428
0.597                   -2.25604        -175.967         -50.1106        -125.404         -50.1106        -125.404       -0.0185181         144.352
0.598                   -2.30763        -176.631         -50.3291        -127.644         -50.3291        -127.643       -0.0186835         144.275
0.599                   -2.36017        -177.295         -50.5442         -129.85         -50.5441        -129.849       -0.0188511         144.198
0.6                     -2.41365         -177.96         -50.7556        -132.027         -50.7555        -132.025       -0.0190212         144.121
0.601                   -2.46808        -178.625         -50.9633        -134.178         -50.9632        -134.176       -0.0191938         144.044
0.602                   -2.52347        -179.291         -51.1672        -136.307         -51.1671        -136.305       -0.0193689         143.966
0.603                   -2.57982        -179.957         -51.3674        -138.418         -51.3673        -138.415       -0.0195465         143.888
0.604                   -2.63714         179.377         -51.5638        -140.514         -51.5636        -140.511       -0.0197269          143.81
0.605                   -2.69543         178.711         -51.7564        -142.598         -51.7562        -142.594         -0.01991         143.732
0.606                    -2.7547         178.045         -51.9451        -144.673         -51.9448        -144.669       -0.0200959         143.654
0.607                   -2.81495         177.379         -52.1299        -146.741         -52.1296        -146.737       -0.0202846         143.575
0.608                   -2.87619         176.713         -52.3108        -148.806         -52.3105        -148.801       -0.0204762         143.496
0.609                   -2.93842         176.048         -52.4877        -150.869         -52.4874        -150.864       -0.0206709         143.417
0.61                    -3.00164         175.383         -52.6607        -152.934         -52.6604        -152.928       -0.0208686         143.338
0.611                   -3.06585         174.718         -52.8297        -155.001         -52.8294        -154.995       -0.0210694         143.259
0.612                   -3.13107         174.054         -52.9945        -157.074         -52.9942        -157.067       -0.0212735         143.179
0.613                   -3.19728         173.391         -53.1553        -159.154          -53.155        -159.147       -0.0214808         143.099
0.614                    -3.2645         172.729         -53.3119        -161.242         -53.3115        -161.235       -0.0216915         143.019
0.615                   -3.33272         172.068         -53.4641        -163.341         -53.4638        -163.334       -0.0219057         142.939
0.616                   -3.40194         171.408          -53.612        -165.453         -53.6117        -165.445       -0.0221233         142.858
0.617                   -3.47218         170.749         -53.7555        -167.577         -53.7551        -167.569       -0.0223445         142.778
0.618                   -3.54342         170.091         -53.8943        -169.717          -53.894        -169.708       -0.0225694         142.696
0.619                   -3.61566         169.434         -54.0284        -171.873         -54.0281        -171.864        -0.022798         142.615
0.62                    -3.68892         168.779         -54.1577        -174.046         -54.1574        -174.037       -0.0230305         142.534
0.621                   -3.76318         168.126          -54.282        -176.237         -54.2817        -176.228       -0.0232669         142.452
0.622                   -3.83845         167.474         -54.4012        -178.447         -54.4009        -178.438       -0.0235073          142.37
0.623                   -3.91472         166.824          -54.515         179.323         -54.5147         179.333       -0.0237518         142.288
0.624                     -3.992         166.176         -54.6233         177.072          -54.623         177.083       -0.0240005         142.205
0.625                   -4.07029          165.53         -54.7259         174.802         -54.7257         174.812       -0.0242535         142.122
0.626                   -4.14958         164.886         -54.8226          172.51         -54.8224         172.521       -0.0245108         142.039
0.627                   -4.22986         164.244         -54.9133         170.197         -54.9131         170.208       -0.0247726         141.956
0.628                   -4.31115         163.604         -54.9976         167.863         -54.9975         167.874       -0.0250389         141.872
0.629                   -4.39343         162.967         -55.0755         165.508         -55.0754          165.52         -0.02531         141.789
