! TOUCHSTONE file generated by CST MICROWAVE STUDIO
! Date and time: Sat Oct 24 11:44:46 2020
! Project name: Scenario_1_Circular_Tissue_out_of_Line.cst
! Parameters = {dy1=-120.567; L_HA=400; MT=2.54; Rad_Dielectric=30; Rad_Lower=7.3; Rad_Upper=30; a_HA=580; a_WG=246; b_HA=500; b_WG=121; c_HA=0; c_WG=187; d_feed=85; dx1=1039; h_feed=15; h_lower=18; h_upper=40}
! Header version: 2018
! Port assignment regex: !\s*Touchstone port\s*([0-9]+)\s*=\s*(CST MWS port|CST DS port)\s*([0-9]+|Zmin|Zmax)\s*\(\"(.*)\"\)(\s*mode\s*([0-9]+))?.*
! Touchstone port assignment:
! Touchstone port 1 = CST MWS port 1 ("")
! Touchstone port 2 = CST MWS port 2 ("")
# GHz S DB R 50
0.5                    -0.146534         -122.27         -63.4879        -3.05381         -63.4879        -3.05381      -0.00764148         151.133
0.501                  -0.157697        -122.708         -63.3523        -4.94643         -63.3523        -4.94667      -0.00769481         151.068
0.502                  -0.168947        -123.146         -63.2144        -6.85909         -63.2144        -6.85956      -0.00774866         151.003
0.503                  -0.180278        -123.584         -63.0741        -8.79195         -63.0742        -8.79265      -0.00780306         150.938
0.504                  -0.191688        -124.023         -62.9315        -10.7452         -62.9315        -10.7461      -0.00785807         150.872
0.505                   -0.20317        -124.462         -62.7865        -12.7189         -62.7866          -12.72      -0.00791372         150.807
0.506                  -0.214721        -124.902         -62.6393        -14.7133         -62.6393        -14.7146      -0.00797008         150.741
0.507                  -0.226336        -125.342         -62.4897        -16.7285         -62.4898          -16.73      -0.00802717         150.675
0.508                  -0.238008        -125.783          -62.338        -18.7647         -62.3381        -18.7664      -0.00808505          150.61
0.509                  -0.249733        -126.224          -62.184         -20.822         -62.1841        -20.8239      -0.00814376         150.544
0.51                   -0.261504        -126.665         -62.0279        -22.9007          -62.028        -22.9028      -0.00820336         150.478
0.511                  -0.273313        -127.107         -61.8697        -25.0009         -61.8698        -25.0031      -0.00826388         150.412
0.512                  -0.285154         -127.55         -61.7095        -27.1227         -61.7096         -27.125      -0.00832537         150.346
0.513                  -0.297017        -127.993         -61.5473        -29.2663         -61.5474        -29.2688      -0.00838789          150.28
0.514                  -0.308895        -128.436         -61.3833        -31.4318         -61.3833        -31.4345      -0.00845147         150.213
0.515                  -0.320776         -128.88         -61.2174        -33.6195         -61.2175        -33.6223      -0.00851616         150.147
0.516                   -0.33265        -129.324         -61.0498        -35.8295         -61.0498        -35.8323      -0.00858201         150.081
0.517                  -0.344503        -129.768         -60.8805        -38.0618         -60.8806        -38.0648      -0.00864906         150.014
0.518                  -0.356321        -130.213         -60.7097        -40.3167         -60.7097        -40.3197      -0.00871736         149.948
0.519                  -0.368087        -130.658         -60.5375        -42.5942         -60.5375        -42.5973      -0.00878695         149.881
0.52                   -0.379782        -131.104         -60.3639        -44.8945         -60.3639        -44.8976      -0.00885787         149.814
0.521                  -0.391384        -131.549         -60.1891        -47.2176         -60.1892        -47.2208      -0.00893017         149.747
0.522                  -0.402867        -131.995         -60.0133        -49.5636         -60.0133        -49.5669      -0.00900388          149.68
0.523                    -0.4142        -132.441         -59.8365        -51.9326         -59.8365        -51.9358      -0.00907904         149.613
0.524                  -0.425348        -132.888         -59.6589        -54.3245         -59.6589        -54.3277      -0.00915569         149.546
0.525                  -0.436267        -133.334         -59.4806        -56.7393         -59.4806        -56.7426      -0.00923387         149.479
0.526                  -0.446906        -133.781         -59.3019         -59.177         -59.3018        -59.1803      -0.00931361         149.411
0.527                  -0.457204        -134.227         -59.1227        -61.6375         -59.1227        -61.6407      -0.00939495         149.344
0.528                  -0.467083        -134.673         -58.9434        -64.1207         -58.9433        -64.1239       -0.0094779         149.276
0.529                  -0.476453         -135.12         -58.7641        -66.6263          -58.764        -66.6295       -0.0095625         149.209
0.53                   -0.485197        -135.566         -58.5849        -69.1541         -58.5848        -69.1573      -0.00964878         149.141
0.531                  -0.493174        -136.012          -58.406         -71.704         -58.4059         -71.707      -0.00973676         149.073
0.532                  -0.500207        -136.459         -58.2277        -74.2754         -58.2275        -74.2784      -0.00982646         149.005
0.533                  -0.506073        -136.906           -58.05        -76.8681         -58.0498         -76.871      -0.00991789         148.937
0.534                  -0.510495        -137.355         -57.8732        -79.4814          -57.873        -79.4843       -0.0100111         148.869
0.535                  -0.513129        -137.806         -57.6975         -82.115         -57.6972        -82.1178        -0.010106         148.801
0.536                   -0.51355        -138.261         -57.5229        -84.7682         -57.5227         -84.771       -0.0102027         148.733
0.537                  -0.511259        -138.724         -57.3498        -87.4404         -57.3495         -87.443       -0.0103012         148.664
0.538                  -0.505701        -139.199         -57.1783        -90.1307          -57.178        -90.1332       -0.0104015         148.596
0.539                  -0.496352        -139.694         -57.0085        -92.8383         -57.0082        -92.8408       -0.0105036         148.527
0.54                   -0.482935        -140.222         -56.8407        -95.5625         -56.8404        -95.5648       -0.0106074         148.459
0.541                  -0.465859        -140.799          -56.675        -98.3022         -56.6746        -98.3044        -0.010713          148.39
0.542                   -0.44698        -141.445         -56.5114        -101.056         -56.5111        -101.059       -0.0108204         148.321
0.543                  -0.430537        -142.181         -56.3503        -103.824         -56.3499        -103.826       -0.0109295         148.252
0.544                  -0.423456         -143.01         -56.1917        -106.604         -56.1913        -106.606       -0.0110403         148.183
0.545                  -0.433494        -143.904         -56.0357        -109.396         -56.0353        -109.397       -0.0111529         148.114
0.546                  -0.464829        -144.799         -55.8825        -112.197         -55.8821        -112.199       -0.0112671         148.044
0.547                  -0.514518        -145.627         -55.7322        -115.006         -55.7317        -115.008        -0.011383         147.975
0.548                  -0.574105        -146.347         -55.5848        -117.823         -55.5843        -117.825       -0.0115005         147.905
0.549                  -0.634796        -146.961         -55.4404        -120.646         -55.4399        -120.647       -0.0116196         147.836
0.55                   -0.690994        -147.496         -55.2991        -123.473         -55.2986        -123.474       -0.0117403         147.766
0.551                  -0.740557        -147.982         -55.1608        -126.302         -55.1603        -126.304       -0.0118625         147.696
0.552                   -0.78349        -148.443         -55.0256        -129.134          -55.025        -129.135       -0.0119862         147.626
0.553                  -0.820721        -148.895         -54.8934        -131.966         -54.8929        -131.967       -0.0121113         147.556
0.554                  -0.853389        -149.347         -54.7643        -134.796         -54.7638        -134.797       -0.0122378         147.486
0.555                  -0.882532        -149.804         -54.6383        -137.625         -54.6377        -137.626       -0.0123657         147.416
0.556                  -0.909005        -150.269         -54.5152         -140.45         -54.5146        -140.451       -0.0124948         147.345
0.557                  -0.933475        -150.743          -54.395        -143.271         -54.3944        -143.271       -0.0126253         147.275
0.558                   -0.95645        -151.226         -54.2776        -146.085          -54.277        -146.086        -0.012757         147.204
0.559                  -0.978317        -151.718          -54.163        -148.893         -54.1624        -148.894       -0.0128898         147.134
0.56                   -0.999372        -152.219          -54.051        -151.693         -54.0504        -151.693       -0.0130238         147.063
0.561                   -1.01984        -152.729         -53.9416        -154.484          -53.941        -154.485       -0.0131589         146.992
0.562                   -1.03989        -153.246         -53.8345        -157.266         -53.8339        -157.266        -0.013295         146.921
0.563                   -1.05968        -153.771         -53.7297        -160.037         -53.7291        -160.037       -0.0134321         146.849
0.564                    -1.0793        -154.304         -53.6271        -162.797         -53.6265        -162.798       -0.0135702         146.778
0.565                   -1.09884        -154.844         -53.5265        -165.546         -53.5259        -165.546       -0.0137092         146.707
0.566                   -1.11839        -155.391         -53.4277        -168.283         -53.4271        -168.283       -0.0138491         146.635
0.567                     -1.138        -155.945         -53.3306        -171.008           -53.33        -171.008       -0.0139899         146.563
0.568                   -1.15774        -156.506         -53.2351         -173.72         -53.2345         -173.72       -0.0141316         146.491
0.569                   -1.17765        -157.074          -53.141        -176.419         -53.1404        -176.419        -0.014274         146.419
0.57                    -1.19778        -157.648         -53.0482        -179.105         -53.0476        -179.105       -0.0144173         146.347
0.571                   -1.21816        -158.229         -52.9564         178.221         -52.9559         178.221       -0.0145614         146.275
0.572                   -1.23885        -158.816         -52.8656         175.561         -52.8651         175.561       -0.0147063         146.202
0.573                   -1.25988         -159.41         -52.7757         172.913         -52.7752         172.913       -0.0148521          146.13
0.574                    -1.2813        -160.011         -52.6864         170.278         -52.6859         170.278       -0.0149986         146.057
0.575                   -1.30313        -160.618         -52.5977         167.655         -52.5972         167.655       -0.0151459         145.984
0.576                   -1.32543        -161.232         -52.5094         165.044         -52.5089         165.044       -0.0152941         145.911
0.577                   -1.34823        -161.852         -52.4214         162.444         -52.4209         162.444       -0.0154432         145.838
0.578                   -1.37157        -162.479         -52.3336         159.856         -52.3332         159.856       -0.0155932         145.765
0.579                   -1.39551        -163.113         -52.2459         157.278         -52.2455         157.278       -0.0157441         145.692
0.58                    -1.42007        -163.754         -52.1582          154.71         -52.1577          154.71        -0.015896         145.618
0.581                   -1.44532        -164.401         -52.0703         152.152         -52.0699         152.152        -0.016049         145.544
0.582                   -1.47129        -165.055         -51.9823         149.603         -51.9819         149.603       -0.0162031          145.47
0.583                   -1.49805        -165.716          -51.894         147.062         -51.8936         147.062       -0.0163583         145.396
0.584                   -1.52564        -166.384         -51.8054         144.528          -51.805         144.528       -0.0165147         145.322
0.585                   -1.55412        -167.058         -51.7164         142.002          -51.716         142.002       -0.0166725         145.248
0.586                   -1.58354        -167.739         -51.6269         139.481         -51.6266         139.481       -0.0168316         145.173
0.587                   -1.61396        -168.427          -51.537         136.967         -51.5367         136.967       -0.0169922         145.099
0.588                   -1.64545        -169.121         -51.4465         134.457         -51.4462         134.457       -0.0171543         145.024
0.589                   -1.67807        -169.822         -51.3555         131.951         -51.3552         131.951        -0.017318         144.949
0.59                    -1.71188        -170.529         -51.2639         129.449         -51.2637         129.449       -0.0174835         144.873
0.591                   -1.74694        -171.243         -51.1717         126.949         -51.1715         126.949       -0.0176508         144.798
0.592                   -1.78333        -171.962          -51.079         124.451         -51.0788         124.451         -0.01782         144.722
0.593                   -1.82112        -172.687         -50.9857         121.955         -50.9855         121.955       -0.0179912         144.647
0.594                   -1.86036        -173.418         -50.8918         119.459         -50.8917         119.459       -0.0181645         144.571
0.595                   -1.90113        -174.155         -50.7974         116.964         -50.7973         116.964         -0.01834         144.495
0.596                    -1.9435        -174.896         -50.7026         114.467         -50.7024         114.467       -0.0185178         144.418
0.597                   -1.98752        -175.641         -50.6072         111.969         -50.6071         111.969        -0.018698         144.342
0.598                   -2.03328        -176.391         -50.5114          109.47         -50.5114          109.47       -0.0188807         144.265
0.599                   -2.08081        -177.145         -50.4153         106.968         -50.4152         106.968        -0.019066         144.188
0.6                     -2.13019        -177.901         -50.3189         104.463         -50.3188         104.463        -0.019254         144.111
0.601                   -2.18146         -178.66         -50.2222         101.955         -50.2221         101.955       -0.0194448         144.034
0.602                   -2.23468        -179.422         -50.1253         99.4426         -50.1253         99.4426       -0.0196384         143.956
0.603                   -2.28988         179.816         -50.0283         96.9262         -50.0283         96.9262        -0.019835         143.879
0.604                   -2.34709         179.053         -49.9314         94.4053         -49.9314         94.4053       -0.0200346         143.801
0.605                   -2.40633          178.29         -49.8344         91.8796         -49.8344         91.8796       -0.0202373         143.723
0.606                   -2.46763         177.528         -49.7376         89.3488         -49.7377         89.3488       -0.0204432         143.645
0.607                   -2.53098         176.768         -49.6411         86.8127         -49.6411         86.8127       -0.0206524         143.566
0.608                   -2.59638          176.01         -49.5449         84.2713         -49.5449         84.2713       -0.0208649         143.487
0.609                   -2.66379         175.256         -49.4491         81.7245         -49.4492         81.7245       -0.0210808         143.409
0.61                     -2.7332         174.506         -49.3538         79.1723         -49.3539         79.1722       -0.0213002         143.329
0.611                   -2.80454         173.761         -49.2592         76.6147         -49.2593         76.6147       -0.0215231          143.25
0.612                   -2.87775         173.022         -49.1653         74.0519         -49.1653         74.0519       -0.0217496         143.171
0.613                   -2.95276         172.289         -49.0721         71.4841         -49.0722         71.4841       -0.0219798         143.091
0.614                   -3.02947         171.564         -48.9799         68.9116         -48.9799         68.9116       -0.0222137         143.011
0.615                   -3.10777         170.847         -48.8886         66.3346         -48.8886         66.3346       -0.0224513         142.931
0.616                   -3.18756         170.139         -48.7984         63.7536         -48.7984         63.7535       -0.0226927          142.85
0.617                   -3.26869         169.439         -48.7093         61.1689         -48.7093         61.1688       -0.0229379         142.769
0.618                   -3.35102          168.75         -48.6214         58.5811         -48.6214          58.581        -0.023187         142.689
0.619                    -3.4344          168.07         -48.5347         55.9906         -48.5348         55.9905         -0.02344         142.607
0.62                    -3.51868         167.401         -48.4494         53.3981         -48.4495         53.3979       -0.0236969         142.526
0.621                   -3.60369         166.742         -48.3654         50.8042         -48.3655          50.804       -0.0239578         142.444
0.622                   -3.68927         166.093         -48.2829         48.2094         -48.2829         48.2092       -0.0242228         142.363
0.623                   -3.77525         165.454         -48.2017         45.6145         -48.2018         45.6142       -0.0244918          142.28
0.624                   -3.86146         164.825          -48.122         43.0202         -48.1221         43.0199       -0.0247648         142.198
0.625                   -3.94775         164.205         -48.0438         40.4271         -48.0438         40.4267        -0.025042         142.115
0.626                   -4.03397         163.594          -47.967         37.8359          -47.967         37.8356       -0.0253233         142.033
0.627                   -4.11997         162.991         -47.8916         35.2475         -47.8916          35.247       -0.0256088          141.95
0.628                   -4.20563         162.395         -47.8177         32.6623         -47.8177         32.6619       -0.0258985         141.866
0.629                   -4.29084         161.806         -47.7451         30.0812         -47.7451         30.0807       -0.0261924         141.782
