! TOUCHSTONE file generated by CST MICROWAVE STUDIO
! Date and time: Mon Oct 26 12:06:30 2020
! Project name: Scenario_1_Circular_Tissue_out_of_Line_v2.cst
! Parameters = {dy1=-103.8; L_HA=400; MT=2.54; Rad_Dielectric=30; Rad_Lower=7.3; Rad_Upper=30; a_HA=580; a_WG=246; b_HA=500; b_WG=121; c_HA=0; c_WG=187; d_feed=85; dx1=173; h_feed=15; h_lower=18; h_upper=40}
! Header version: 2018
! Port assignment regex: !\s*Touchstone port\s*([0-9]+)\s*=\s*(CST MWS port|CST DS port)\s*([0-9]+|Zmin|Zmax)\s*\(\"(.*)\"\)(\s*mode\s*([0-9]+))?.*
! Touchstone port assignment:
! Touchstone port 1 = CST MWS port 1 ("")
! Touchstone port 2 = CST MWS port 2 ("")
# GHz S DB R 50
0.5                    -0.111392        -122.533         -57.3809         131.959         -57.3809         131.959      -0.00708194         151.098
0.501                  -0.117844        -123.028         -57.1756          130.81         -57.1758         130.809      -0.00712675         151.033
0.502                  -0.124688        -123.525         -56.9695         129.659         -56.9698         129.658       -0.0071729         150.967
0.503                  -0.131923        -124.022         -56.7626         128.507          -56.763         128.505       -0.0072204         150.902
0.504                  -0.139546        -124.519         -56.5549         127.353         -56.5554          127.35      -0.00726927         150.836
0.505                  -0.147556        -125.018         -56.3464         126.195         -56.3471         126.192      -0.00731953          150.77
0.506                  -0.155949        -125.516         -56.1371         125.035         -56.1379         125.032      -0.00737118         150.704
0.507                  -0.164725        -126.016         -55.9271         123.871          -55.928         123.867      -0.00742425         150.638
0.508                  -0.173879        -126.516         -55.7163         122.702         -55.7174         122.698      -0.00747875         150.572
0.509                   -0.18341        -127.016         -55.5049         121.528          -55.506         121.524      -0.00753469         150.506
0.51                   -0.193315        -127.517         -55.2927          120.35         -55.2939         120.345      -0.00759209          150.44
0.511                   -0.20359        -128.018         -55.0799         119.165         -55.0812          119.16      -0.00765096         150.374
0.512                  -0.214232         -128.52         -54.8665         117.974         -54.8678         117.969      -0.00771133         150.307
0.513                  -0.225238        -129.022         -54.6524         116.775         -54.6538          116.77      -0.00777322         150.241
0.514                  -0.236604        -129.525         -54.4377          115.57         -54.4392         115.564      -0.00783663         150.175
0.515                  -0.248327        -130.028         -54.2224         114.356          -54.224          114.35      -0.00790159         150.108
0.516                  -0.260403        -130.531         -54.0066         113.133         -54.0082         113.128      -0.00796811         150.041
0.517                  -0.272828        -131.035         -53.7903         111.901         -53.7919         111.896      -0.00803622         149.974
0.518                  -0.285598        -131.539         -53.5735         110.659         -53.5752         110.654      -0.00810593         149.908
0.519                  -0.298708        -132.043         -53.3563         109.407         -53.3579         109.402      -0.00817727         149.841
0.52                   -0.312155        -132.548         -53.1387         108.144         -53.1403         108.139      -0.00825026         149.774
0.521                  -0.325934        -133.053         -52.9207         106.869         -52.9223         106.864      -0.00832491         149.707
0.522                   -0.34004        -133.558         -52.7023         105.582          -52.704         105.577      -0.00840126         149.639
0.523                  -0.354469        -134.063         -52.4837         104.282         -52.4854         104.277      -0.00847931         149.572
0.524                  -0.369216        -134.568         -52.2649         102.969         -52.2666         102.965       -0.0085591         149.505
0.525                  -0.384275        -135.074          -52.046         101.642         -52.0476         101.638      -0.00864064         149.437
0.526                  -0.399643         -135.58         -51.8269         100.301         -51.8285         100.296      -0.00872397          149.37
0.527                  -0.415313        -136.086         -51.6078         98.9438         -51.6094         98.9398       -0.0088091         149.302
0.528                  -0.431281        -136.593         -51.3888         97.5714         -51.3903         97.5676      -0.00889606         149.234
0.529                  -0.447542        -137.099         -51.1699         96.1827         -51.1713         96.1792      -0.00898488         149.166
0.53                   -0.464089        -137.606         -50.9511         94.7772         -50.9525          94.774      -0.00907558         149.098
0.531                  -0.480917        -138.113         -50.7327         93.3544         -50.7341         93.3515      -0.00916819          149.03
0.532                  -0.498022        -138.621         -50.5147         91.9137          -50.516         91.9111      -0.00926274         148.962
0.533                  -0.515397        -139.128         -50.2972         90.4545         -50.2984         90.4523      -0.00935924         148.894
0.534                  -0.533036        -139.636         -50.0802         88.9766         -50.0813         88.9746      -0.00945774         148.826
0.535                  -0.550935        -140.144          -49.864         87.4793          -49.865         87.4776      -0.00955826         148.757
0.536                  -0.569086        -140.652         -49.6486         85.9623         -49.6495         85.9609      -0.00966083         148.689
0.537                  -0.587485         -141.16         -49.4341         84.4251          -49.435         84.4241      -0.00976548          148.62
0.538                  -0.606125        -141.669         -49.2208         82.8675         -49.2215         82.8667      -0.00987223         148.551
0.539                  -0.625001        -142.178         -49.0087         81.2891         -49.0093         81.2886      -0.00998113         148.483
0.54                   -0.644106        -142.687          -48.798         79.6897         -48.7985         79.6894       -0.0100922         148.414
0.541                  -0.663436        -143.197         -48.5888          78.069         -48.5892          78.069       -0.0102055         148.345
0.542                  -0.682982        -143.706         -48.3813          76.427         -48.3815         76.4272        -0.010321         148.275
0.543                  -0.702741        -144.217         -48.1756         74.7635         -48.1758         74.7639       -0.0104387         148.206
0.544                  -0.722706        -144.727          -47.972         73.0785          -47.972         73.0791       -0.0105588         148.137
0.545                   -0.74287        -145.238         -47.7706         71.3722         -47.7704         71.3729       -0.0106812         148.067
0.546                  -0.763228         -145.75         -47.5715         69.6447         -47.5713         69.6455       -0.0108059         147.998
0.547                  -0.783775        -146.262          -47.375         67.8962         -47.3746          67.897       -0.0109331         147.928
0.548                  -0.804503        -146.774         -47.1812          66.127         -47.1807         66.1278       -0.0110626         147.858
0.549                  -0.825408        -147.287         -46.9904         64.3376         -46.9897         64.3384       -0.0111947         147.788
0.55                   -0.846483        -147.801         -46.8026         62.5285         -46.8018         62.5293       -0.0113292         147.718
0.551                  -0.867724        -148.315         -46.6181         60.7003         -46.6172          60.701       -0.0114662         147.648
0.552                  -0.889123         -148.83         -46.4371         58.8538          -46.436         58.8543       -0.0116058         147.578
0.553                  -0.910676        -149.346         -46.2596         56.9897         -46.2584           56.99       -0.0117479         147.508
0.554                  -0.932376        -149.862          -46.086          55.109         -46.0846         55.1091       -0.0118927         147.437
0.555                   -0.95422        -150.379         -45.9163         53.2128         -45.9148         53.2125       -0.0120401         147.367
0.556                    -0.9762        -150.897         -45.7506          51.302          -45.749         51.3014       -0.0121901         147.296
0.557                  -0.998313        -151.416         -45.5892         49.3781         -45.5874          49.377       -0.0123429         147.225
0.558                   -1.02055        -151.936          -45.432         47.4421         -45.4302         47.4407       -0.0124983         147.154
0.559                   -1.04291        -152.457         -45.2793         45.4956         -45.2774         45.4937       -0.0126565         147.083
0.56                    -1.06539        -152.979         -45.1312         43.5399         -45.1291         43.5375       -0.0128174         147.012
0.561                   -1.08798        -153.503         -44.9876         41.5766         -44.9854         41.5736        -0.012981         146.941
0.562                   -1.11068        -154.027         -44.8487         39.6073         -44.8464         39.6037       -0.0131474          146.87
0.563                   -1.13349        -154.553         -44.7145         37.6334         -44.7121         37.6292       -0.0133166         146.798
0.564                   -1.15639        -155.081          -44.585         35.6567         -44.5826         35.6519       -0.0134886         146.726
0.565                   -1.17939        -155.609         -44.4602         33.6787         -44.4577         33.6733       -0.0136634         146.655
0.566                   -1.20248         -156.14         -44.3401         31.7012         -44.3375         31.6951       -0.0138409         146.583
0.567                   -1.22566        -156.672         -44.2246         29.7256          -44.222         29.7189       -0.0140212         146.511
0.568                   -1.24893        -157.205         -44.1137         27.7537         -44.1111         27.7463       -0.0142043         146.439
0.569                   -1.27228        -157.741         -44.0074          25.787         -44.0047         25.7788       -0.0143902         146.366
0.57                    -1.29571        -158.278         -43.9054         23.8269         -43.9028         23.8181       -0.0145787         146.294
0.571                   -1.31922        -158.818         -43.8078         21.8749         -43.8051         21.8655       -0.0147699         146.222
0.572                   -1.34281         -159.36         -43.7143         19.9324         -43.7116         19.9224       -0.0149638         146.149
0.573                   -1.36647        -159.904         -43.6249         18.0008         -43.6222         17.9901       -0.0151603         146.076
0.574                    -1.3902         -160.45         -43.5393         16.0811         -43.5366         16.0698       -0.0153594         146.003
0.575                   -1.41401        -160.999         -43.4574         14.1745         -43.4548         14.1627       -0.0155609          145.93
0.576                   -1.43789         -161.55         -43.3791         12.2821         -43.3765         12.2698       -0.0157649         145.857
0.577                   -1.46184        -162.104         -43.3041         10.4048         -43.3016         10.3919       -0.0159713         145.784
0.578                   -1.48587        -162.661         -43.2323         8.54334         -43.2298         8.53004         -0.01618          145.71
0.579                   -1.50998        -163.221         -43.1634         6.69849          -43.161         6.68478       -0.0163908         145.637
0.58                    -1.53416        -163.784         -43.0973         4.87085         -43.0949         4.85678       -0.0166038         145.563
0.581                   -1.55842         -164.35         -43.0337         3.06094         -43.0314         3.04654       -0.0168188         145.489
0.582                   -1.58276         -164.92         -42.9725         1.26917         -42.9703         1.25449       -0.0170356         145.415
0.583                   -1.60719        -165.493         -42.9135       -0.504153         -42.9113       -0.519068       -0.0172543         145.341
0.584                   -1.63171         -166.07         -42.8564         -2.2588         -42.8543        -2.27391       -0.0174747         145.267
0.585                   -1.65632        -166.651          -42.801        -3.99464         -42.7991        -4.00989       -0.0176966         145.193
0.586                   -1.68104        -167.235         -42.7473        -5.71162         -42.7454        -5.72697       -0.0179199         145.118
0.587                   -1.70587        -167.824         -42.6949        -7.40978         -42.6931        -7.42518       -0.0181445         145.043
0.588                   -1.73081        -168.418         -42.6437         -9.0892         -42.6419        -9.10462       -0.0183703         144.969
0.589                   -1.75588        -169.015         -42.5935        -10.7501         -42.5918        -10.7655       -0.0185972         144.894
0.59                    -1.78108        -169.618         -42.5441        -12.3926         -42.5426        -12.4079       -0.0188249         144.818
0.591                   -1.80643        -170.225         -42.4955        -14.0171          -42.494        -14.0323       -0.0190535         144.743
0.592                   -1.83193        -170.838         -42.4473        -15.6239          -42.446        -15.6389       -0.0192826         144.668
0.593                   -1.85761        -171.456         -42.3996        -17.2134         -42.3983        -17.2282       -0.0195124         144.592
0.594                   -1.88347        -172.079         -42.3521        -18.7859         -42.3508        -18.8006       -0.0197425         144.516
0.595                   -1.90953        -172.708         -42.3046        -20.3421         -42.3035        -20.3565        -0.019973          144.44
0.596                   -1.93581        -173.343         -42.2572        -21.8824         -42.2561        -21.8965       -0.0202038         144.364
0.597                   -1.96233        -173.984         -42.2096        -23.4072         -42.2086         -23.421       -0.0204347         144.288
0.598                    -1.9891        -174.631         -42.1617        -24.9172         -42.1608        -24.9307       -0.0206657         144.212
0.599                   -2.01615        -175.285         -42.1135        -26.4129         -42.1127        -26.4261       -0.0208967         144.135
0.6                     -2.04351        -175.946         -42.0648        -27.8949         -42.0641        -27.9077       -0.0211277         144.058
0.601                   -2.07119        -176.614         -42.0156        -29.3638         -42.0149        -29.3762       -0.0213587         143.981
0.602                   -2.09922        -177.289         -41.9658        -30.8202         -41.9651        -30.8322       -0.0215897         143.904
0.603                   -2.12764        -177.971         -41.9152        -32.2647         -41.9146        -32.2763       -0.0218206         143.826
0.604                   -2.15648        -178.662         -41.8639         -33.698         -41.8634        -33.7092       -0.0220516         143.749
0.605                   -2.18577         -179.36         -41.8118        -35.1207         -41.8113        -35.1314       -0.0222826         143.671
0.606                   -2.21554         179.933         -41.7587        -36.5334         -41.7583        -36.5437       -0.0225138         143.593
0.607                   -2.24584         179.218         -41.7047        -37.9367         -41.7044        -37.9465       -0.0227451         143.515
0.608                   -2.27671         178.494         -41.6498        -39.3313         -41.6495        -39.3407       -0.0229767         143.437
0.609                    -2.3082         177.762         -41.5938        -40.7178         -41.5935        -40.7267       -0.0232088         143.358
0.61                    -2.34034         177.019         -41.5368        -42.0968         -41.5365        -42.1052       -0.0234413         143.279
0.611                    -2.3732         176.268         -41.4787        -43.4688         -41.4784        -43.4768       -0.0236746           143.2
0.612                   -2.40682         175.506         -41.4194        -44.8347         -41.4193        -44.8422       -0.0239086         143.121
0.613                   -2.44127         174.734         -41.3591        -46.1948         -41.3589        -46.2018       -0.0241437         143.041
0.614                    -2.4766         173.952         -41.2976        -47.5499         -41.2975        -47.5564       -0.0243799         142.962
0.615                   -2.51288          173.16          -41.235        -48.9004         -41.2349        -48.9065       -0.0246174         142.882
0.616                   -2.55018         172.356         -41.1713         -50.247         -41.1712        -50.2527       -0.0248565         142.801
0.617                   -2.58858         171.542         -41.1063        -51.5902         -41.1063        -51.5954       -0.0250973         142.721
0.618                   -2.62814         170.716         -41.0403        -52.9306         -41.0402        -52.9354         -0.02534          142.64
0.619                   -2.66895         169.879         -40.9731        -54.2686         -40.9731         -54.273       -0.0255849         142.559
0.62                    -2.71111          169.03         -40.9048        -55.6049         -40.9048        -55.6088        -0.025832         142.478
0.621                   -2.75469         168.169         -40.8354        -56.9398         -40.8354        -56.9434       -0.0260817         142.397
0.622                   -2.79979         167.295         -40.7649         -58.274         -40.7649        -58.2771       -0.0263342         142.315
0.623                   -2.84652          166.41         -40.6933        -59.6078         -40.6933        -59.6106       -0.0265896         142.233
0.624                   -2.89499         165.512         -40.6207        -60.9417         -40.6207        -60.9442       -0.0268481         142.151
0.625                   -2.94529         164.601         -40.5471        -62.2762         -40.5471        -62.2783         -0.02711         142.068
0.626                   -2.99756         163.677         -40.4725        -63.6117         -40.4725        -63.6135       -0.0273754         141.985
0.627                   -3.05191         162.741          -40.397        -64.9486          -40.397          -64.95       -0.0276445         141.902
0.628                   -3.10846         161.791         -40.3206        -66.2872         -40.3206        -66.2884       -0.0279176         141.819
0.629                   -3.16736         160.829         -40.2433         -67.628         -40.2433        -67.6289       -0.0281949         141.735
