! TOUCHSTONE file generated by CST MICROWAVE STUDIO
! Date and time: Wed Oct 28 19:36:20 2020
! Project name: Scenario_1_Circular_Tissue_out_of_Line_v2.cst
! Parameters = {dy1=-103.8; L_HA=400; MT=2.54; Rad_Dielectric=30; Rad_Lower=7.3; Rad_Upper=30; a_HA=580; a_WG=246; b_HA=500; b_WG=121; c_HA=0; c_WG=187; d_feed=85; dx1=346; h_feed=15; h_lower=18; h_upper=40}
! Header version: 2018
! Port assignment regex: !\s*Touchstone port\s*([0-9]+)\s*=\s*(CST MWS port|CST DS port)\s*([0-9]+|Zmin|Zmax)\s*\(\"(.*)\"\)(\s*mode\s*([0-9]+))?.*
! Touchstone port assignment:
! Touchstone port 1 = CST MWS port 1 ("")
! Touchstone port 2 = CST MWS port 2 ("")
# GHz S DB R 50
0.5                    -0.171781        -122.281         -58.7004         28.5085         -58.7004         28.5085      -0.00790708         151.116
0.501                  -0.176343        -122.705         -58.5727         26.9719         -58.5722         26.9806      -0.00797473         151.051
0.502                  -0.180981        -123.131         -58.4454          25.442         -58.4445         25.4585      -0.00804272         150.985
0.503                  -0.185697         -123.56         -58.3187         23.9186         -58.3173         23.9421      -0.00811104          150.92
0.504                  -0.190496        -123.991         -58.1923         22.4019         -58.1905         22.4315      -0.00817972         150.855
0.505                  -0.195381        -124.425         -58.0663         20.8918         -58.0641         20.9266      -0.00824873         150.789
0.506                  -0.200357        -124.861         -57.9407         19.3882          -57.938         19.4275       -0.0083181         150.724
0.507                  -0.205427          -125.3         -57.8153         17.8911         -57.8122         17.9343      -0.00838782         150.658
0.508                  -0.210595        -125.741         -57.6901         16.4004         -57.6866         16.4467       -0.0084579         150.592
0.509                  -0.215867        -126.185         -57.5651          14.916         -57.5613         14.9649      -0.00852833         150.526
0.51                   -0.221247        -126.631         -57.4402         13.4378          -57.436         13.4887      -0.00859913         150.461
0.511                  -0.226739        -127.081         -57.3153         11.9658         -57.3109         12.0182      -0.00867029         150.395
0.512                  -0.232348        -127.532         -57.1906         10.4997         -57.1859         10.5531      -0.00874182         150.329
0.513                  -0.238081        -127.987         -57.0658         9.03949         -57.0608         9.09347      -0.00881373         150.263
0.514                  -0.243941        -128.444         -56.9409         7.58498         -56.9357         7.63912        -0.008886         150.196
0.515                  -0.249935        -128.904         -56.8159         6.13602         -56.8106         6.18995      -0.00895866          150.13
0.516                  -0.256069        -129.367         -56.6908         4.69242         -56.6853         4.74583       -0.0090317         150.064
0.517                  -0.262349        -129.833         -56.5655         3.25402         -56.5599          3.3066      -0.00910513         149.997
0.518                  -0.268781        -130.302           -56.44         1.82061         -56.4342         1.87211      -0.00917895         149.931
0.519                  -0.275372        -130.773         -56.3142        0.392001         -56.3084        0.442185      -0.00925316         149.864
0.52                   -0.282129        -131.248         -56.1881        -1.03202         -56.1823       -0.983351      -0.00932778         149.798
0.521                  -0.289058        -131.726         -56.0617        -2.45168         -56.0558        -2.40469       -0.0094028         149.731
0.522                  -0.296168        -132.207         -55.9349         -3.8672          -55.929        -3.82204      -0.00947822         149.664
0.523                  -0.303466        -132.691         -55.8077        -5.27882         -55.8019         -5.2356      -0.00955407         149.597
0.524                   -0.31096        -133.178           -55.68        -6.68679         -55.6743         -6.6456      -0.00963033          149.53
0.525                  -0.318659        -133.668         -55.5519        -8.09134         -55.5462        -8.05226      -0.00970702         149.463
0.526                  -0.326572        -134.162         -55.4233        -9.49275         -55.4177        -9.45583      -0.00978415         149.396
0.527                  -0.334707        -134.658         -55.2941        -10.8913         -55.2887        -10.8566      -0.00986171         149.328
0.528                  -0.343074        -135.159         -55.1644        -12.2872         -55.1591        -12.2547      -0.00993971         149.261
0.529                  -0.351683        -135.662         -55.0341        -13.6808          -55.029        -13.6505       -0.0100182         149.193
0.53                   -0.360544        -136.169         -54.9032        -15.0723         -54.8983        -15.0442       -0.0100971         149.126
0.531                  -0.369669         -136.68         -54.7716        -16.4621         -54.7669        -16.4361       -0.0101765         149.058
0.532                  -0.379067        -137.194         -54.6394        -17.8503         -54.6349        -17.8265       -0.0102563          148.99
0.533                  -0.388751        -137.711         -54.5066        -19.2375         -54.5023        -19.2157       -0.0103367         148.922
0.534                  -0.398733        -138.232          -54.373        -20.6237          -54.369         -20.604       -0.0104175         148.854
0.535                  -0.409025        -138.757         -54.2388        -22.0094          -54.235        -21.9916       -0.0104989         148.786
0.536                  -0.419639        -139.285         -54.1038        -23.3948         -54.1003        -23.3789       -0.0105807         148.718
0.537                   -0.43059        -139.817         -53.9681        -24.7804         -53.9648        -24.7662       -0.0106631          148.65
0.538                  -0.441892        -140.352         -53.8316        -26.1662         -53.8287        -26.1537       -0.0107461         148.581
0.539                  -0.453558        -140.892         -53.6944        -27.5528         -53.6917        -27.5419       -0.0108295         148.513
0.54                   -0.465604        -141.435         -53.5565        -28.9404         -53.5541         -28.931       -0.0109136         148.444
0.541                  -0.478045        -141.981         -53.4177        -30.3294         -53.4156        -30.3214       -0.0109982         148.376
0.542                  -0.490898        -142.532         -53.2783        -31.7201         -53.2764        -31.7133       -0.0110834         148.307
0.543                  -0.504179        -143.087          -53.138        -33.1128         -53.1364        -33.1072       -0.0111693         148.238
0.544                  -0.517905        -143.645         -52.9969        -34.5078         -52.9956        -34.5033       -0.0112558         148.169
0.545                  -0.532094        -144.207         -52.8551        -35.9055         -52.8541         -35.902       -0.0113429           148.1
0.546                  -0.546764        -144.773         -52.7126        -37.3063         -52.7118        -37.3036       -0.0114307         148.031
0.547                  -0.561935        -145.343         -52.5692        -38.7104         -52.5687        -38.7084       -0.0115192         147.961
0.548                  -0.577626        -145.917         -52.4251        -40.1182         -52.4249        -40.1169       -0.0116084         147.892
0.549                  -0.593857        -146.495         -52.2803          -41.53         -52.2803        -41.5293       -0.0116983         147.822
0.55                   -0.610649        -147.076         -52.1347        -42.9463         -52.1349         -42.946        -0.011789         147.753
0.551                  -0.628022        -147.662         -51.9884        -44.3672         -51.9889        -44.3673       -0.0118805         147.683
0.552                     -0.646        -148.251         -51.8414        -45.7932         -51.8421        -45.7936       -0.0119728         147.613
0.553                  -0.664604        -148.845         -51.6937        -47.2246         -51.6946        -47.2252        -0.012066         147.543
0.554                  -0.683858        -149.442         -51.5454        -48.6617         -51.5465        -48.6624         -0.01216         147.473
0.555                  -0.703785        -150.043         -51.3964        -50.1048         -51.3976        -50.1056        -0.012255         147.402
0.556                  -0.724408        -150.647         -51.2468        -51.5543         -51.2482        -51.5551        -0.012351         147.332
0.557                  -0.745753        -151.255         -51.0966        -53.0105         -51.0982        -53.0112       -0.0124479         147.261
0.558                  -0.767843        -151.867         -50.9459        -54.4738         -50.9476        -54.4743       -0.0125458         147.191
0.559                  -0.790705        -152.483         -50.7946        -55.9443         -50.7964        -55.9447       -0.0126449          147.12
0.56                   -0.814364        -153.102         -50.6428        -57.4225         -50.6448        -57.4227       -0.0127451         147.049
0.561                  -0.838844        -153.725         -50.4906        -58.9087         -50.4926        -58.9085       -0.0128464         146.978
0.562                  -0.864173         -154.35         -50.3379         -60.403         -50.3401        -60.4025        -0.012949         146.907
0.563                  -0.890375        -154.979         -50.1849        -61.9059         -50.1871        -61.9051       -0.0130528         146.835
0.564                  -0.917478        -155.612         -50.0316        -63.4176         -50.0339        -63.4163        -0.013158         146.764
0.565                  -0.945505        -156.247         -49.8779        -64.9383         -49.8803        -64.9367       -0.0132646         146.692
0.566                  -0.974483        -156.885         -49.7241        -66.4683         -49.7265        -66.4663       -0.0133726          146.62
0.567                   -1.00444        -157.525         -49.5701        -68.0078         -49.5724        -68.0054       -0.0134821         146.549
0.568                   -1.03539        -158.169         -49.4159        -69.5572         -49.4183        -69.5543       -0.0135932         146.477
0.569                   -1.06737        -158.814         -49.2617        -71.1164         -49.2641        -71.1132       -0.0137059         146.404
0.57                     -1.1004        -159.462         -49.1075        -72.6859         -49.1098        -72.6822       -0.0138204         146.332
0.571                   -1.13449        -160.111         -48.9533        -74.2657         -48.9557        -74.2616       -0.0139366          146.26
0.572                   -1.16968        -160.763         -48.7992         -75.856         -48.8016        -75.8515       -0.0140547         146.187
0.573                   -1.20597        -161.416         -48.6454        -77.4569         -48.6477        -77.4521       -0.0141747         146.114
0.574                   -1.24339         -162.07         -48.4918        -79.0686          -48.494        -79.0634       -0.0142967         146.041
0.575                   -1.28195        -162.725         -48.3385        -80.6911         -48.3407        -80.6856       -0.0144208         145.968
0.576                   -1.32167        -163.381         -48.1856        -82.3246         -48.1877        -82.3187        -0.014547         145.895
0.577                   -1.36255        -164.037         -48.0332         -83.969         -48.0353        -83.9629       -0.0146755         145.822
0.578                   -1.40461        -164.693         -47.8814        -85.6243         -47.8833         -85.618       -0.0148063         145.748
0.579                   -1.44785        -165.349         -47.7302        -87.2906          -47.732        -87.2841       -0.0149396         145.675
0.58                    -1.49228        -166.004         -47.5796        -88.9678         -47.5814        -88.9612       -0.0150753         145.601
0.581                   -1.53789        -166.659         -47.4299        -90.6559         -47.4316        -90.6491       -0.0152136         145.527
0.582                   -1.58467        -167.313          -47.281        -92.3547         -47.2826        -92.3478       -0.0153545         145.453
0.583                   -1.63263        -167.964         -47.1331        -94.0641         -47.1346        -94.0572       -0.0154982         145.378
0.584                   -1.68175        -168.614         -46.9861        -95.7839         -46.9875        -95.7771       -0.0156447         145.304
0.585                     -1.732        -169.262         -46.8403         -97.514         -46.8416        -97.5072       -0.0157941         145.229
0.586                   -1.78337        -169.907         -46.6956        -99.2541         -46.6968        -99.2474       -0.0159464         145.155
0.587                   -1.83584        -170.549         -46.5522        -101.004         -46.5533        -100.997       -0.0161018          145.08
0.588                   -1.88937        -171.187         -46.4101        -102.763         -46.4111        -102.757       -0.0162603         145.004
0.589                   -1.94392        -171.822         -46.2694        -104.532         -46.2703        -104.525       -0.0164219         144.929
0.59                    -1.99946        -172.453         -46.1301        -106.309         -46.1309        -106.303       -0.0165869         144.854
0.591                   -2.05594         -173.08         -45.9924        -108.094         -45.9931        -108.089       -0.0167551         144.778
0.592                   -2.11331        -173.702         -45.8562        -109.888         -45.8569        -109.883       -0.0169266         144.702
0.593                   -2.17151        -174.319         -45.7217        -111.689         -45.7223        -111.684       -0.0171016         144.626
0.594                   -2.23048        -174.931         -45.5889        -113.497         -45.5894        -113.492       -0.0172801          144.55
0.595                   -2.29016        -175.538         -45.4579        -115.311         -45.4583        -115.307       -0.0174621         144.474
0.596                   -2.35048        -176.139         -45.3286        -117.132          -45.329        -117.128       -0.0176476         144.397
0.597                   -2.41136        -176.734         -45.2012        -118.958         -45.2015        -118.954       -0.0178367          144.32
0.598                   -2.47273        -177.323         -45.0757        -120.789         -45.0759        -120.785       -0.0180294         144.244
0.599                   -2.53451        -177.907          -44.952        -122.624         -44.9522        -122.621       -0.0182257         144.166
0.6                     -2.59662        -178.485         -44.8303        -124.462         -44.8304         -124.46       -0.0184257         144.089
0.601                   -2.65897        -179.057         -44.7106        -126.304         -44.7107        -126.302       -0.0186294         144.012
0.602                   -2.72148        -179.623         -44.5928        -128.148         -44.5928        -128.147       -0.0188368         143.934
0.603                   -2.78407         179.817         -44.4769        -129.994          -44.477        -129.993       -0.0190479         143.856
0.604                   -2.84665         179.262         -44.3631        -131.842         -44.3631        -131.841       -0.0192626         143.778
0.605                   -2.90914         178.712         -44.2512         -133.69         -44.2512        -133.689       -0.0194811           143.7
0.606                   -2.97145         178.168         -44.1412        -135.537         -44.1412        -135.537       -0.0197032         143.622
0.607                   -3.03352         177.628         -44.0332        -137.385         -44.0332        -137.385       -0.0199291         143.543
0.608                   -3.09525         177.092         -43.9271         -139.23         -43.9271        -139.231       -0.0201586         143.464
0.609                   -3.15659          176.56         -43.8229        -141.075         -43.8229        -141.075       -0.0203918         143.385
0.61                    -3.21747         176.032         -43.7205        -142.916         -43.7205        -142.917       -0.0206286         143.306
0.611                   -3.27782         175.506           -43.62        -144.755         -43.6199        -144.756       -0.0208691         143.226
0.612                    -3.3376         174.983         -43.5211         -146.59         -43.5211        -146.591       -0.0211132         143.147
0.613                   -3.39675         174.461          -43.424        -148.422          -43.424        -148.423       -0.0213609         143.067
0.614                   -3.45524          173.94         -43.3286        -150.248         -43.3286         -150.25       -0.0216123         142.987
0.615                   -3.51303          173.42         -43.2347         -152.07         -43.2347        -152.072       -0.0218672         142.906
0.616                    -3.5701         172.899         -43.1424        -153.887         -43.1424        -153.889       -0.0221257         142.826
0.617                   -3.62644         172.377         -43.0516        -155.698         -43.0516          -155.7       -0.0223877         142.745
0.618                   -3.68204         171.854         -42.9622        -157.503         -42.9622        -157.505       -0.0226533         142.664
0.619                    -3.7369         171.328         -42.8741        -159.301         -42.8741        -159.303       -0.0229224         142.583
0.62                    -3.79103         170.799         -42.7872        -161.093         -42.7873        -161.095       -0.0231951         142.502
0.621                   -3.84445         170.266         -42.7016        -162.878         -42.7016         -162.88       -0.0234713          142.42
0.622                   -3.89718         169.728          -42.617        -164.656         -42.6171        -164.658       -0.0237511         142.338
0.623                   -3.94927         169.186         -42.5335        -166.427         -42.5336        -166.428       -0.0240344         142.256
0.624                   -4.00075         168.637          -42.451         -168.19         -42.4511        -168.191       -0.0243212         142.173
0.625                   -4.05168         168.081         -42.3694        -169.945         -42.3695        -169.946       -0.0246116         142.091
0.626                   -4.10211         167.518         -42.2886        -171.693         -42.2886        -171.694       -0.0249055         142.008
0.627                   -4.15211         166.948         -42.2085        -173.433         -42.2085        -173.434       -0.0252031         141.925
0.628                   -4.20175         166.368          -42.129        -175.165         -42.1291        -175.166       -0.0255042         141.841
0.629                   -4.25111          165.78         -42.0502        -176.889         -42.0503         -176.89        -0.025809         141.758
