! TOUCHSTONE file generated by CST MICROWAVE STUDIO
! Date and time: Fri Oct 30 07:54:37 2020
! Project name: Scenario_1_Circular_Tissue_out_of_Line.cst
! Parameters = {dy1=-103.226; L_HA=400; MT=2.54; Rad_Dielectric=30; Rad_Lower=7.3; Rad_Upper=30; a_HA=580; a_WG=246; b_HA=500; b_WG=121; c_HA=0; c_WG=187; d_feed=85; dx1=520; h_feed=15; h_lower=18; h_upper=40}
! Header version: 2018
! Port assignment regex: !\s*Touchstone port\s*([0-9]+)\s*=\s*(CST MWS port|CST DS port)\s*([0-9]+|Zmin|Zmax)\s*\(\"(.*)\"\)(\s*mode\s*([0-9]+))?.*
! Touchstone port assignment:
! Touchstone port 1 = CST MWS port 1 ("")
! Touchstone port 2 = CST MWS port 2 ("")
# GHz S DB R 50
0.5                    -0.132774        -122.417         -61.3931        -61.7044         -61.3931        -61.7044      -0.00737098         151.124
0.501                  -0.140565        -122.874         -61.1909        -63.1212          -61.191        -63.1215      -0.00743256         151.059
0.502                  -0.148562        -123.332         -60.9882        -64.5579         -60.9884        -64.5584      -0.00749534         150.993
0.503                  -0.156765        -123.791         -60.7851        -66.0148         -60.7854        -66.0154      -0.00755933         150.928
0.504                  -0.165174        -124.251         -60.5818        -67.4921         -60.5821        -67.4928      -0.00762454         150.862
0.505                  -0.173788        -124.713         -60.3782        -68.9901         -60.3785         -68.991      -0.00769098         150.796
0.506                  -0.182607        -125.175         -60.1745        -70.5091         -60.1749          -70.51      -0.00775865         150.731
0.507                   -0.19163        -125.639         -59.9707        -72.0493         -59.9712        -72.0503      -0.00782756         150.665
0.508                  -0.200857        -126.104         -59.7671        -73.6109         -59.7676        -73.6119      -0.00789771         150.599
0.509                  -0.210286         -126.57         -59.5636        -75.1941         -59.5641        -75.1951      -0.00796911         150.533
0.51                   -0.219918        -127.038         -59.3603        -76.7991         -59.3609           -76.8      -0.00804176         150.467
0.511                  -0.229751        -127.506         -59.1575        -78.4259         -59.1581        -78.4268      -0.00811568         150.401
0.512                  -0.239786        -127.976         -58.9551        -80.0747         -58.9557        -80.0755      -0.00819086         150.335
0.513                  -0.250021        -128.447         -58.7534        -81.7456          -58.754        -81.7462       -0.0082673         150.268
0.514                  -0.260455        -128.919         -58.5524        -83.4384         -58.5531        -83.4389      -0.00834503         150.202
0.515                  -0.271089        -129.392         -58.3523        -85.1532          -58.353        -85.1536      -0.00842403         150.136
0.516                  -0.281921        -129.867         -58.1532          -86.89         -58.1538        -86.8902      -0.00850432         150.069
0.517                  -0.292951        -130.342         -57.9552        -88.6485         -57.9558        -88.6486      -0.00858589         150.002
0.518                  -0.304178         -130.82         -57.7585        -90.4286         -57.7591        -90.4286      -0.00866876         149.936
0.519                  -0.315602        -131.298         -57.5632          -92.23         -57.5638        -92.2299      -0.00875292         149.869
0.52                   -0.327221        -131.778         -57.3695        -94.0525           -57.37        -94.0522      -0.00883838         149.802
0.521                  -0.339035        -132.259         -57.1774        -95.8957         -57.1779        -95.8952      -0.00892514         149.735
0.522                  -0.351044        -132.741         -56.9871         -97.759         -56.9875        -97.7585      -0.00901321         149.668
0.523                  -0.363246        -133.225         -56.7988        -99.6422         -56.7992        -99.6415      -0.00910259         149.601
0.524                  -0.375641         -133.71         -56.6125        -101.545         -56.6129        -101.544      -0.00919327         149.534
0.525                  -0.388228        -134.196         -56.4285        -103.465         -56.4288        -103.465      -0.00928526         149.467
0.526                  -0.401008        -134.684         -56.2468        -105.404          -56.247        -105.403      -0.00937857         149.399
0.527                  -0.413978        -135.173         -56.0675         -107.36         -56.0677        -107.359      -0.00947319         149.332
0.528                   -0.42714        -135.664         -55.8909        -109.332          -55.891        -109.331      -0.00956912         149.264
0.529                  -0.440491        -136.156         -55.7169         -111.32         -55.7169        -111.319      -0.00966637         149.197
0.53                   -0.454032         -136.65         -55.5457        -113.322         -55.5457        -113.321      -0.00976492         149.129
0.531                  -0.467763        -137.145         -55.3774        -115.338         -55.3773        -115.337      -0.00986479         149.061
0.532                  -0.481682        -137.642          -55.212        -117.366         -55.2119        -117.365      -0.00996597         148.993
0.533                   -0.49579        -138.141         -55.0497        -119.406         -55.0495        -119.405       -0.0100684         148.925
0.534                  -0.510087        -138.641         -54.8905        -121.455         -54.8902        -121.455       -0.0101722         148.857
0.535                  -0.524571        -139.142         -54.7344        -123.514          -54.734        -123.514       -0.0102773         148.789
0.536                  -0.539244        -139.646         -54.5815        -125.581         -54.5811        -125.581       -0.0103837         148.721
0.537                  -0.554104        -140.151         -54.4319        -127.655         -54.4314        -127.654       -0.0104914         148.652
0.538                  -0.569153        -140.658         -54.2854        -129.734         -54.2848        -129.734       -0.0106003         148.584
0.539                   -0.58439        -141.167         -54.1422        -131.817         -54.1416        -131.817       -0.0107106         148.515
0.54                   -0.599815        -141.677         -54.0023        -133.904         -54.0015        -133.904       -0.0108221         148.447
0.541                  -0.615429         -142.19         -53.8655        -135.992         -53.8647        -135.993       -0.0109348         148.378
0.542                  -0.631233        -142.704         -53.7318        -138.081          -53.731        -138.082       -0.0110489         148.309
0.543                  -0.647227         -143.22         -53.6013         -140.17         -53.6004        -140.171       -0.0111641          148.24
0.544                  -0.663412        -143.739         -53.4738        -142.257         -53.4729        -142.259       -0.0112806         148.171
0.545                  -0.679789        -144.259         -53.3493        -144.341         -53.3483        -144.343       -0.0113983         148.102
0.546                  -0.696359        -144.781         -53.2277        -146.422         -53.2267        -146.424       -0.0115173         148.032
0.547                  -0.713123        -145.306         -53.1089        -148.498         -53.1078        -148.501       -0.0116374         147.963
0.548                  -0.730084        -145.833         -52.9928        -150.569         -52.9917        -150.572       -0.0117587         147.893
0.549                  -0.747242        -146.362         -52.8793        -152.633         -52.8781        -152.636       -0.0118812         147.824
0.55                   -0.764601        -146.894         -52.7682         -154.69         -52.7671        -154.694       -0.0120049         147.754
0.551                  -0.782161        -147.427         -52.6596        -156.738         -52.6584        -156.743       -0.0121297         147.684
0.552                  -0.799926        -147.964         -52.5531        -158.779         -52.5519        -158.784       -0.0122556         147.614
0.553                  -0.817899        -148.503         -52.4488         -160.81         -52.4476        -160.815       -0.0123826         147.544
0.554                  -0.836083        -149.044         -52.3464        -162.831         -52.3452        -162.837       -0.0125107         147.474
0.555                  -0.854481        -149.588         -52.2459        -164.842         -52.2447        -164.848       -0.0126399         147.404
0.556                  -0.873097        -150.135          -52.147        -166.843         -52.1458        -166.849       -0.0127702         147.333
0.557                  -0.891936        -150.684         -52.0497        -168.832         -52.0486        -168.839       -0.0129015         147.263
0.558                  -0.911002        -151.237         -51.9539         -170.81         -51.9527        -170.817       -0.0130338         147.192
0.559                  -0.930301        -151.792         -51.8593        -172.777         -51.8582        -172.785       -0.0131671         147.122
0.56                   -0.949838        -152.351         -51.7659        -174.733         -51.7648         -174.74       -0.0133015         147.051
0.561                  -0.969619        -152.912         -51.6734        -176.677         -51.6724        -176.684       -0.0134367          146.98
0.562                  -0.989651        -153.477         -51.5819        -178.609         -51.5809        -178.617        -0.013573         146.909
0.563                   -1.00994        -154.045         -51.4912          179.47         -51.4902         179.462       -0.0137101         146.837
0.564                    -1.0305        -154.616         -51.4011         177.561         -51.4001         177.553       -0.0138482         146.766
0.565                   -1.05133        -155.191         -51.3115         175.663         -51.3105         175.655       -0.0139872         146.695
0.566                   -1.07245        -155.769         -51.2223         173.777         -51.2214         173.768       -0.0141271         146.623
0.567                   -1.09386        -156.351         -51.1335         171.901         -51.1326         171.892       -0.0142679         146.551
0.568                   -1.11557        -156.937         -51.0448         170.036          -51.044         170.027       -0.0144095         146.479
0.569                   -1.13761        -157.527         -50.9562         168.181         -50.9555         168.172        -0.014552         146.407
0.57                    -1.15997         -158.12         -50.8677         166.337          -50.867         166.328       -0.0146953         146.335
0.571                   -1.18268        -158.718         -50.7791         164.502         -50.7784         164.493       -0.0148395         146.263
0.572                   -1.20574         -159.32         -50.6903         162.676         -50.6896         162.668       -0.0149845         146.191
0.573                   -1.22918        -159.926         -50.6013          160.86         -50.6007         160.851       -0.0151304         146.118
0.574                   -1.25301        -160.536         -50.5119         159.052         -50.5114         159.044       -0.0152771         146.045
0.575                   -1.27725        -161.151         -50.4222         157.253         -50.4217         157.244       -0.0154247         145.972
0.576                   -1.30192        -161.771         -50.3321         155.461         -50.3316         155.453       -0.0155731         145.899
0.577                   -1.32704        -162.395         -50.2415         153.677         -50.2411         153.668       -0.0157224         145.826
0.578                   -1.35263        -163.024         -50.1503         151.899         -50.1499         151.891       -0.0158726         145.753
0.579                   -1.37872        -163.658         -50.0586         150.128         -50.0582          150.12       -0.0160236          145.68
0.58                    -1.40533        -164.297         -49.9662         148.362         -49.9659         148.355       -0.0161756         145.606
0.581                   -1.43249        -164.941         -49.8732         146.603         -49.8729         146.595       -0.0163286         145.532
0.582                   -1.46023        -165.591         -49.7794         144.848         -49.7792          144.84       -0.0164826         145.458
0.583                   -1.48858        -166.245          -49.685         143.097         -49.6848          143.09       -0.0166375         145.384
0.584                   -1.51756        -166.906         -49.5898         141.351         -49.5897         141.344       -0.0167936          145.31
0.585                   -1.54723        -167.572         -49.4939         139.608         -49.4938         139.602       -0.0169507         145.236
0.586                   -1.57761        -168.243         -49.3972         137.869         -49.3971         137.862        -0.017109         145.161
0.587                   -1.60875         -168.92         -49.2998         136.131         -49.2997         136.125       -0.0172685         145.087
0.588                   -1.64068        -169.603         -49.2015         134.397         -49.2015         134.391       -0.0174293         145.012
0.589                   -1.67344        -170.292         -49.1025         132.663         -49.1025         132.658       -0.0175914         144.937
0.59                     -1.7071        -170.987         -49.0028         130.931         -49.0028         130.926       -0.0177549         144.861
0.591                   -1.74168        -171.688         -48.9022           129.2         -48.9022         129.195       -0.0179198         144.786
0.592                   -1.77725        -172.395         -48.8009         127.469          -48.801         127.465       -0.0180863          144.71
0.593                   -1.81386        -173.108         -48.6989         125.739          -48.699         125.734       -0.0182543         144.635
0.594                   -1.85156        -173.827         -48.5962         124.007         -48.5962         124.003       -0.0184241         144.559
0.595                   -1.89041        -174.552         -48.4927         122.275         -48.4928         122.272       -0.0185956         144.483
0.596                   -1.93047        -175.283         -48.3886         120.542         -48.3887         120.539        -0.018769         144.406
0.597                   -1.97181         -176.02         -48.2839         118.808          -48.284         118.804       -0.0189443          144.33
0.598                   -2.01449        -176.763         -48.1785         117.071         -48.1786         117.068       -0.0191216         144.253
0.599                   -2.05858        -177.511         -48.0726         115.332         -48.0727         115.329       -0.0193011         144.176
0.6                     -2.10414        -178.266         -47.9662         113.591         -47.9663         113.588       -0.0194827         144.099
0.601                   -2.15124        -179.025         -47.8592         111.846         -47.8593         111.844       -0.0196667         144.022
0.602                   -2.19997         -179.79         -47.7518         110.099         -47.7519         110.097       -0.0198531         143.944
0.603                   -2.25038          179.44         -47.6439         108.348          -47.644         108.347       -0.0200419         143.867
0.604                   -2.30256         178.665         -47.5357         106.593         -47.5358         106.592       -0.0202334         143.789
0.605                   -2.35658         177.886         -47.4272         104.835         -47.4273         104.834       -0.0204275         143.711
0.606                    -2.4125         177.103         -47.3184         103.073         -47.3185         103.072       -0.0206245         143.633
0.607                   -2.47041         176.317         -47.2094         101.306         -47.2095         101.306       -0.0208243         143.554
0.608                   -2.53036         175.527         -47.1003         99.5351         -47.1003         99.5348       -0.0210271         143.475
0.609                   -2.59243         174.735          -46.991         97.7595          -46.991         97.7595        -0.021233         143.396
0.61                    -2.65669          173.94         -46.8816         95.9794         -46.8817         95.9795        -0.021442         143.317
0.611                   -2.72319         173.144         -46.7723         94.1945         -46.7723         94.1948       -0.0216543         143.238
0.612                   -2.79198         172.348          -46.663         92.4048          -46.663         92.4053         -0.02187         143.158
0.613                   -2.86312         171.551         -46.5539         90.6103         -46.5538         90.6109       -0.0220891         143.079
0.614                   -2.93665         170.755         -46.4449          88.811         -46.4448         88.8118       -0.0223117         142.999
0.615                   -3.01261         169.961         -46.3361         87.0069         -46.3361         87.0078        -0.022538         142.918
0.616                   -3.09101         169.169         -46.2276          85.198         -46.2276          85.199        -0.022768         142.838
0.617                   -3.17188          168.38         -46.1195         83.3844         -46.1194         83.3855       -0.0230018         142.757
0.618                   -3.25522         167.596         -46.0118         81.5662         -46.0117         81.5675       -0.0232395         142.676
0.619                   -3.34102         166.816         -45.9045         79.7436         -45.9044         79.7449       -0.0234812         142.595
0.62                    -3.42926         166.043         -45.7977         77.9166         -45.7975         77.9179       -0.0237269         142.513
0.621                   -3.51992         165.277         -45.6914         76.0854         -45.6913         76.0868       -0.0239768         142.432
0.622                   -3.61293         164.518         -45.5858         74.2502         -45.5857         74.2517       -0.0242309          142.35
0.623                   -3.70825         163.769         -45.4808         72.4112         -45.4807         72.4127       -0.0244893         142.267
0.624                    -3.8058          163.03         -45.3765         70.5687         -45.3764         70.5702        -0.024752         142.185
0.625                   -3.90548         162.301          -45.273         68.7229         -45.2728         68.7245       -0.0250193         142.102
0.626                   -4.00719         161.585         -45.1702         66.8741           -45.17         66.8756        -0.025291         142.019
0.627                   -4.11081         160.881         -45.0683         65.0225          -45.068         65.0241       -0.0255674         141.936
0.628                   -4.21621          160.19         -44.9671         63.1685         -44.9669         63.1701       -0.0258484         141.853
0.629                   -4.32324         159.513         -44.8669         61.3125         -44.8667          61.314       -0.0261342         141.769
