! TOUCHSTONE file generated by CST MICROWAVE STUDIO
! Date and time: Wed Oct 28 19:16:05 2020
! Project name: Scenario_1_Circular_Tissue_out_of_Line.cst
! Parameters = {dy1=-103.226; L_HA=400; MT=2.54; Rad_Dielectric=30; Rad_Lower=7.3; Rad_Upper=30; a_HA=580; a_WG=246; b_HA=500; b_WG=121; c_HA=0; c_WG=187; d_feed=85; dx1=693; h_feed=15; h_lower=18; h_upper=40}
! Header version: 2018
! Port assignment regex: !\s*Touchstone port\s*([0-9]+)\s*=\s*(CST MWS port|CST DS port)\s*([0-9]+|Zmin|Zmax)\s*\(\"(.*)\"\)(\s*mode\s*([0-9]+))?.*
! Touchstone port assignment:
! Touchstone port 1 = CST MWS port 1 ("")
! Touchstone port 2 = CST MWS port 2 ("")
# GHz S DB R 50
0.5                    -0.154283        -122.301          -62.148        -168.027          -62.148        -168.027      -0.00770636         151.146
0.501                  -0.156388        -122.744         -62.0368        -169.605         -62.0369        -169.603       -0.0077667          151.08
0.502                  -0.158759         -123.19         -61.9235        -171.194         -61.9238        -171.191      -0.00782763         151.015
0.503                  -0.161403        -123.638         -61.8084        -172.797         -61.8088        -172.792      -0.00788916          150.95
0.504                  -0.164323        -124.089         -61.6912        -174.412         -61.6918        -174.406      -0.00795129         150.884
0.505                  -0.167528        -124.542         -61.5722         -176.04         -61.5729        -176.033      -0.00801402         150.819
0.506                  -0.171023        -124.998         -61.4512        -177.681          -61.452        -177.673      -0.00807735         150.753
0.507                  -0.174814        -125.456         -61.3284        -179.334         -61.3293        -179.325      -0.00814129         150.688
0.508                  -0.178906        -125.917         -61.2036             179         -61.2046          179.01      -0.00820583         150.622
0.509                  -0.183307         -126.38         -61.0769         177.322          -61.078         177.333      -0.00827098         150.556
0.51                   -0.188022        -126.846         -60.9484         175.631         -60.9496         175.642      -0.00833674          150.49
0.511                  -0.193056        -127.314         -60.8181         173.928         -60.8193          173.94      -0.00840311         150.424
0.512                  -0.198416        -127.785         -60.6859         172.212         -60.6872         172.224      -0.00847009         150.358
0.513                  -0.204108        -128.258         -60.5519         170.484         -60.5533         170.497      -0.00853768         150.292
0.514                  -0.210137        -128.734         -60.4162         168.743         -60.4177         168.756      -0.00860588         150.226
0.515                  -0.216508        -129.212         -60.2788          166.99         -60.2803         167.004       -0.0086747          150.16
0.516                  -0.223229        -129.692         -60.1397         165.225         -60.1412         165.239      -0.00874414         150.093
0.517                  -0.230303        -130.175          -59.999         163.448         -60.0005         163.461      -0.00881419         150.027
0.518                  -0.237737         -130.66         -59.8567         161.658         -59.8581         161.672      -0.00888486          149.96
0.519                  -0.245535        -131.147         -59.7128         159.856         -59.7142         159.869      -0.00895616         149.894
0.52                   -0.253704        -131.636         -59.5673         158.041         -59.5688         158.055      -0.00902807         149.827
0.521                  -0.262247        -132.128         -59.4205         156.215         -59.4219         156.228      -0.00910061          149.76
0.522                  -0.271171        -132.622         -59.2722         154.376         -59.2736         154.389      -0.00917377         149.694
0.523                  -0.280479        -133.118         -59.1226         152.525          -59.124         152.538      -0.00924757         149.627
0.524                  -0.290177        -133.617         -58.9717         150.662          -58.973         150.674      -0.00932199          149.56
0.525                  -0.300269        -134.118         -58.8196         148.787         -58.8209         148.798      -0.00939704         149.492
0.526                   -0.31076         -134.62         -58.6663         146.899         -58.6675          146.91      -0.00947272         149.425
0.527                  -0.321654        -135.125         -58.5119             145         -58.5131          145.01      -0.00954904         149.358
0.528                  -0.332954        -135.632         -58.3565         143.088         -58.3576         143.098        -0.009626          149.29
0.529                  -0.344665        -136.141         -58.2001         141.164         -58.2011         141.173      -0.00970361         149.223
0.53                   -0.356791        -136.652         -58.0429         139.228         -58.0438         139.237      -0.00978186         149.155
0.531                  -0.369335        -137.165         -57.8848          137.28         -57.8857         137.288      -0.00986076         149.088
0.532                    -0.3823         -137.68         -57.7261         135.321         -57.7269         135.327      -0.00994033          149.02
0.533                  -0.395689        -138.197         -57.5667         133.349         -57.5674         133.355       -0.0100206         148.952
0.534                  -0.409505        -138.715         -57.4067         131.366         -57.4073          131.37       -0.0101015         148.884
0.535                  -0.423752        -139.236         -57.2463          129.37         -57.2468         129.374        -0.010183         148.816
0.536                   -0.43843        -139.758         -57.0855         127.363         -57.0859         127.366       -0.0102653         148.748
0.537                  -0.453543        -140.282         -56.9245         125.345         -56.9248         125.346       -0.0103483         148.679
0.538                  -0.469093        -140.808         -56.7632         123.314         -56.7634         123.315        -0.010432         148.611
0.539                   -0.48508        -141.336         -56.6018         121.273         -56.6019         121.272       -0.0105165         148.542
0.54                   -0.501507        -141.865         -56.4404          119.22         -56.4404         119.218       -0.0106017         148.474
0.541                  -0.518374        -142.396          -56.279         117.156          -56.279         117.153       -0.0106877         148.405
0.542                  -0.535683        -142.928         -56.1179         115.081         -56.1177         115.077       -0.0107745         148.336
0.543                  -0.553433        -143.462          -55.957         112.995         -55.9568          112.99       -0.0108622         148.267
0.544                  -0.571626        -143.998         -55.7965         110.899         -55.7962         110.892       -0.0109508         148.198
0.545                  -0.590261        -144.535         -55.6364         108.792          -55.636         108.784       -0.0110403         148.129
0.546                  -0.609339        -145.074         -55.4769         106.675         -55.4764         106.666       -0.0111308          148.06
0.547                  -0.628857        -145.614         -55.3181         104.548         -55.3175         104.538       -0.0112223          147.99
0.548                  -0.648817        -146.155           -55.16         102.412         -55.1593           102.4       -0.0113149         147.921
0.549                  -0.669216        -146.698         -55.0027         100.266          -55.002         100.253       -0.0114088         147.851
0.55                   -0.690052        -147.242         -54.8463          98.111         -54.8456         98.0975       -0.0115038         147.781
0.551                  -0.711325        -147.788          -54.691         95.9476         -54.6902          95.933       -0.0116003         147.712
0.552                  -0.733032        -148.335         -54.5367         93.7759         -54.5358         93.7602       -0.0116982         147.642
0.553                  -0.755171        -148.883         -54.3836         91.5963         -54.3827         91.5795       -0.0117978         147.571
0.554                  -0.777739        -149.432         -54.2318         89.4092         -54.2309         89.3913        -0.011899         147.501
0.555                  -0.800733        -149.983         -54.0813          87.215         -54.0803         87.1961       -0.0120021         147.431
0.556                   -0.82415        -150.535         -53.9322         85.0141         -53.9312         84.9944       -0.0121072          147.36
0.557                  -0.847987        -151.088         -53.7845         82.8071         -53.7836         82.7865       -0.0122146          147.29
0.558                  -0.872239        -151.642         -53.6384         80.5945         -53.6375         80.5729       -0.0123242         147.219
0.559                  -0.896902        -152.197         -53.4939         78.3766          -53.493         78.3542       -0.0124364         147.148
0.56                   -0.921972        -152.754         -53.3511          76.154         -53.3501         76.1309       -0.0125513         147.077
0.561                  -0.947445        -153.311         -53.2099         73.9273          -53.209         73.9035       -0.0126692         147.006
0.562                  -0.973315         -153.87         -53.0705         71.6969         -53.0696         71.6725       -0.0127901         146.935
0.563                  -0.999577         -154.43         -52.9329         69.4635          -52.932         69.4385       -0.0129143         146.863
0.564                   -1.02623        -154.991          -52.797         67.2274         -52.7962          67.202       -0.0130419         146.792
0.565                   -1.05326        -155.553         -52.6631         64.9894         -52.6622         64.9635       -0.0131731          146.72
0.566                   -1.08066        -156.117         -52.5309         62.7499         -52.5301         62.7236        -0.013308         146.648
0.567                   -1.10844        -156.681         -52.4007         60.5094         -52.3999         60.4829       -0.0134467         146.576
0.568                   -1.13657        -157.247         -52.2723         58.2686         -52.2716         58.2419       -0.0135892         146.504
0.569                   -1.16507        -157.814         -52.1459          56.028         -52.1452         56.0011       -0.0137356         146.432
0.57                    -1.19391        -158.382         -52.0213          53.788         -52.0207          53.761       -0.0138858          146.36
0.571                    -1.2231        -158.951         -51.8986         51.5492         -51.8981         51.5222       -0.0140398         146.287
0.572                   -1.25262        -159.522         -51.7778         49.3121         -51.7773         49.2852       -0.0141974         146.215
0.573                   -1.28248        -160.094         -51.6589         47.0772         -51.6585         47.0504       -0.0143585         146.142
0.574                   -1.31266        -160.667         -51.5418          44.845         -51.5414         44.8184        -0.014523         146.069
0.575                   -1.34315        -161.242         -51.4265         42.6158         -51.4262         42.5895       -0.0146906         145.996
0.576                   -1.37395        -161.818          -51.313         40.3902         -51.3127         40.3643        -0.014861         145.923
0.577                   -1.40506        -162.395         -51.2012         38.1685          -51.201          38.143       -0.0150341          145.85
0.578                   -1.43645        -162.975         -51.0911         35.9512          -51.091         35.9261       -0.0152096         145.776
0.579                   -1.46814        -163.555         -50.9827         33.7385         -50.9827          33.714       -0.0153872         145.703
0.58                    -1.50011        -164.138         -50.8759         31.5309         -50.8759         31.5069       -0.0155668         145.629
0.581                   -1.53236        -164.722         -50.7707         29.3285         -50.7708         29.3052       -0.0157479         145.555
0.582                   -1.56488        -165.309          -50.667         27.1318         -50.6671         27.1091       -0.0159306         145.481
0.583                   -1.59766        -165.897         -50.5648         24.9408         -50.5649          24.919       -0.0161146         145.407
0.584                    -1.6307        -166.487          -50.464          22.756         -50.4642         22.7349       -0.0162997         145.333
0.585                     -1.664         -167.08         -50.3645         20.5774         -50.3647         20.5571       -0.0164859         145.259
0.586                   -1.69755        -167.675         -50.2663         18.4052         -50.2666         18.3858        -0.016673         145.184
0.587                   -1.73134        -168.273         -50.1694         16.2396         -50.1697          16.221        -0.016861         145.109
0.588                   -1.76538        -168.873         -50.0736         14.0806          -50.074          14.063       -0.0170499         145.034
0.589                   -1.79966        -169.476          -49.979         11.9284         -49.9794         11.9117       -0.0172396         144.959
0.59                    -1.83418        -170.081         -49.8854         9.78304         -49.8858         9.76723       -0.0174301         144.884
0.591                   -1.86894         -170.69         -49.7929         7.64448         -49.7932         7.62962       -0.0176215         144.809
0.592                   -1.90395        -171.302         -49.7012         5.51275         -49.7016         5.49886       -0.0178138         144.733
0.593                   -1.93919        -171.918         -49.6105         3.38786         -49.6109         3.37493        -0.018007         144.658
0.594                   -1.97469        -172.537         -49.5206         1.26975         -49.5209          1.2578       -0.0182013         144.582
0.595                   -2.01044        -173.161         -49.4314       -0.841636         -49.4318       -0.852619       -0.0183966         144.506
0.596                   -2.04644        -173.788          -49.343        -2.94637         -49.3433        -2.95639       -0.0185931          144.43
0.597                   -2.08272        -174.419         -49.2552        -5.04457         -49.2556        -5.05363       -0.0187909         144.353
0.598                   -2.11927        -175.056         -49.1681        -7.13633         -49.1684        -7.14445         -0.01899         144.277
0.599                   -2.15611        -175.697         -49.0815         -9.2218         -49.0818        -9.22899       -0.0191906           144.2
0.6                     -2.19326        -176.342         -48.9954        -11.3011         -48.9957        -11.3074       -0.0193927         144.123
0.601                   -2.23073        -176.994         -48.9098        -13.3744           -48.91        -13.3798       -0.0195964         144.046
0.602                   -2.26855        -177.651         -48.8246         -15.442         -48.8248        -15.4465       -0.0198018         143.969
0.603                   -2.30674        -178.314         -48.7399        -17.5039           -48.74        -17.5075       -0.0200091         143.891
0.604                   -2.34532        -178.983         -48.6555        -19.5603         -48.6556        -19.5632       -0.0202182         143.813
0.605                   -2.38433        -179.658         -48.5714        -21.6115         -48.5714        -21.6136       -0.0204294         143.735
0.606                    -2.4238          179.66         -48.4875        -23.6577         -48.4876        -23.6591       -0.0206426         143.657
0.607                   -2.46377          178.97          -48.404        -25.6991          -48.404        -25.6997       -0.0208581         143.579
0.608                   -2.50428         178.273         -48.3206        -27.7359         -48.3206        -27.7359       -0.0210758           143.5
0.609                   -2.54538         177.569         -48.2375        -29.7684         -48.2374        -29.7677       -0.0212959         143.421
0.61                    -2.58713         176.856         -48.1545        -31.7967         -48.1544        -31.7953       -0.0215184         143.343
0.611                   -2.62959         176.135         -48.0717         -33.821         -48.0715        -33.8192       -0.0217435         143.263
0.612                   -2.67281         175.405          -47.989        -35.8417         -47.9888        -35.8393       -0.0219712         143.184
0.613                   -2.71688         174.666         -47.9065         -37.859         -47.9062        -37.8561       -0.0222016         143.104
0.614                   -2.76186         173.918         -47.8241         -39.873         -47.8237        -39.8697       -0.0224348         143.024
0.615                   -2.80785         173.159         -47.7417         -41.884         -47.7413        -41.8802       -0.0226709         142.944
0.616                   -2.85493         172.391         -47.6595        -43.8921          -47.659         -43.888         -0.02291         142.864
0.617                   -2.90322         171.613         -47.5773        -45.8977         -47.5767        -45.8933       -0.0231521         142.783
0.618                    -2.9528         170.824         -47.4952        -47.9009         -47.4946        -47.8962       -0.0233974         142.703
0.619                   -3.00381         170.025         -47.4131         -49.902         -47.4125         -49.897       -0.0236459         142.621
0.62                    -3.05637         169.214         -47.3312         -51.901         -47.3305        -51.8959       -0.0238977          142.54
0.621                    -3.1106         168.393         -47.2493        -53.8982         -47.2486        -53.8929       -0.0241529         142.459
0.622                   -3.16665         167.561         -47.1675        -55.8938         -47.1667        -55.8884       -0.0244115         142.377
0.623                   -3.22467         166.717         -47.0858        -57.8879          -47.085        -57.8824       -0.0246737         142.295
0.624                   -3.28482         165.862         -47.0041        -59.8807         -47.0033        -59.8751       -0.0249396         142.213
0.625                   -3.34726         164.997         -46.9226        -61.8723         -46.9217        -61.8667       -0.0252093          142.13
0.626                   -3.41216          164.12         -46.8412        -63.8629         -46.8403        -63.8573       -0.0254827         142.047
0.627                   -3.47971         163.234         -46.7598        -65.8525         -46.7589         -65.847       -0.0257601         141.964
0.628                   -3.55008         162.337         -46.6786        -67.8414         -46.6777        -67.8358       -0.0260415         141.881
0.629                   -3.62347         161.431         -46.5976        -69.8295         -46.5966         -69.824        -0.026327         141.797
