! TOUCHSTONE file generated by CST MICROWAVE STUDIO
! Date and time: Mon Oct 26 12:26:38 2020
! Project name: Scenario_1_Circular_Tissue_out_of_Line.cst
! Parameters = {dy1=-103.226; L_HA=400; MT=2.54; Rad_Dielectric=30; Rad_Lower=7.3; Rad_Upper=30; a_HA=580; a_WG=246; b_HA=500; b_WG=121; c_HA=0; c_WG=187; d_feed=85; dx1=866; h_feed=15; h_lower=18; h_upper=40}
! Header version: 2018
! Port assignment regex: !\s*Touchstone port\s*([0-9]+)\s*=\s*(CST MWS port|CST DS port)\s*([0-9]+|Zmin|Zmax)\s*\(\"(.*)\"\)(\s*mode\s*([0-9]+))?.*
! Touchstone port assignment:
! Touchstone port 1 = CST MWS port 1 ("")
! Touchstone port 2 = CST MWS port 2 ("")
# GHz S DB R 50
0.5                    -0.143253         -122.41          -62.876         98.6536          -62.876         98.6536      -0.00745102         151.144
0.501                  -0.141184        -122.823         -62.8548         96.8524         -62.8548         96.8524      -0.00751853         151.078
0.502                  -0.139327         -123.24         -62.8309         95.0278         -62.8309          95.028      -0.00758677         151.013
0.503                  -0.137692         -123.66          -62.804         93.1801          -62.804         93.1803      -0.00765573         150.948
0.504                  -0.136286        -124.084          -62.774         91.3095          -62.774         91.3097      -0.00772542         150.882
0.505                   -0.13512        -124.512         -62.7409         89.4161         -62.7409         89.4164      -0.00779585         150.817
0.506                  -0.134202        -124.944         -62.7044         87.5003         -62.7045         87.5007      -0.00786702         150.751
0.507                  -0.133542        -125.379         -62.6647         85.5625         -62.6647         85.5629      -0.00793893         150.685
0.508                   -0.13315        -125.818         -62.6214         83.6029         -62.6215         83.6033       -0.0080116         150.619
0.509                  -0.133036        -126.261         -62.5745          81.622         -62.5746         81.6225      -0.00808502         150.554
0.51                   -0.133209        -126.707          -62.524         79.6204         -62.5241         79.6209      -0.00815921         150.488
0.511                   -0.13368        -127.157         -62.4698         77.5984         -62.4699         77.5989      -0.00823416         150.422
0.512                  -0.134458        -127.611         -62.4116         75.5566         -62.4118         75.5572      -0.00830989         150.356
0.513                  -0.135555        -128.068         -62.3496         73.4956         -62.3498         73.4963       -0.0083864         150.289
0.514                   -0.13698        -128.529         -62.2836         71.4161         -62.2838         71.4167      -0.00846369         150.223
0.515                  -0.138744        -128.994         -62.2135         69.3186         -62.2137         69.3193      -0.00854177         150.157
0.516                  -0.140859        -129.463         -62.1394         67.2038         -62.1396         67.2045      -0.00862066          150.09
0.517                  -0.143334        -129.935         -62.0611         65.0725         -62.0613         65.0732      -0.00870034         150.024
0.518                  -0.146181        -130.412         -61.9786         62.9253         -61.9788         62.9261      -0.00878084         149.957
0.519                   -0.14941        -130.891         -61.8919          60.763         -61.8921         60.7638      -0.00886215         149.891
0.52                   -0.153034        -131.375          -61.801         58.5863         -61.8012         58.5871      -0.00894429         149.824
0.521                  -0.157062        -131.862         -61.7058         56.3961          -61.706         56.3968      -0.00902725         149.757
0.522                  -0.161506        -132.353         -61.6064         54.1929         -61.6067         54.1937      -0.00911105          149.69
0.523                  -0.166378        -132.847         -61.5028         51.9776         -61.5031         51.9784       -0.0091957         149.623
0.524                  -0.171689        -133.345         -61.3951          49.751         -61.3953         49.7517       -0.0092812         149.556
0.525                  -0.177449        -133.847         -61.2831         47.5137         -61.2833         47.5144      -0.00936755         149.489
0.526                  -0.183671        -134.352          -61.167         45.2665         -61.1673         45.2672      -0.00945477         149.422
0.527                  -0.190366        -134.861         -61.0469           43.01         -61.0471         43.0108      -0.00954287         149.354
0.528                  -0.197544        -135.373         -60.9228          40.745          -60.923         40.7457      -0.00963184         149.287
0.529                  -0.205218        -135.889         -60.7947          38.472          -60.795         38.4728       -0.0097217         149.219
0.53                   -0.213398        -136.408         -60.6628         36.1918         -60.6631         36.1925      -0.00981246         149.152
0.531                  -0.222096         -136.93         -60.5271         33.9048         -60.5274         33.9054      -0.00990412         149.084
0.532                  -0.231322        -137.456         -60.3878         31.6115         -60.3881         31.6122       -0.0099967         149.016
0.533                  -0.241087        -137.986          -60.245         29.3125         -60.2452         29.3132       -0.0100902         148.948
0.534                  -0.251403        -138.518         -60.0986         27.0082         -60.0989         27.0089       -0.0101846          148.88
0.535                   -0.26228        -139.054          -59.949         24.6991         -59.9493         24.6997         -0.01028         148.812
0.536                  -0.273728        -139.593         -59.7962         22.3853         -59.7965          22.386       -0.0103763         148.744
0.537                  -0.285758        -140.135         -59.6403         20.0674         -59.6406          20.068       -0.0104735         148.675
0.538                  -0.298379         -140.68         -59.4815         17.7455         -59.4817         17.7461       -0.0105717         148.607
0.539                  -0.311603        -141.228         -59.3199         15.4199         -59.3201         15.4205       -0.0106709         148.538
0.54                   -0.325437        -141.779         -59.1556         13.0907         -59.1559         13.0913       -0.0107711          148.47
0.541                  -0.339892        -142.334         -58.9889         10.7581         -58.9891         10.7586       -0.0108722         148.401
0.542                  -0.354977         -142.89         -58.8198         8.42213           -58.82         8.42265       -0.0109744         148.332
0.543                  -0.370701         -143.45         -58.6485         6.08289         -58.6487         6.08339       -0.0110776         148.263
0.544                  -0.387071        -144.012         -58.4751         3.74039         -58.4754         3.74087       -0.0111817         148.194
0.545                  -0.404097        -144.577         -58.2999          1.3946         -58.3002         1.39507       -0.0112869         148.125
0.546                  -0.421785        -145.145          -58.123       -0.954522         -58.1232       -0.954064       -0.0113932         148.056
0.547                  -0.440143        -145.715         -57.9445        -3.30705         -57.9447        -3.30661       -0.0115004         147.987
0.548                  -0.459177        -146.287         -57.7646         -5.6631         -57.7648        -5.66267       -0.0116088         147.917
0.549                  -0.478895        -146.862         -57.5834        -8.02278         -57.5837        -8.02236       -0.0117181         147.848
0.55                   -0.499302        -147.439         -57.4012        -10.3862         -57.4014        -10.3858       -0.0118286         147.778
0.551                  -0.520404        -148.018         -57.2181        -12.7536         -57.2183        -12.7532       -0.0119401         147.708
0.552                  -0.542205        -148.599         -57.0341        -15.1252         -57.0343        -15.1248       -0.0120527         147.638
0.553                  -0.564711        -149.182         -56.8496        -17.5009         -56.8498        -17.5006       -0.0121665         147.568
0.554                  -0.587924        -149.767         -56.6646        -19.8812         -56.6648        -19.8808       -0.0122813         147.498
0.555                  -0.611848        -150.354         -56.4794        -22.2661         -56.4796        -22.2658       -0.0123972         147.428
0.556                  -0.636486        -150.943          -56.294        -24.6558         -56.2942        -24.6555       -0.0125143         147.357
0.557                   -0.66184        -151.533         -56.1086        -27.0505         -56.1088        -27.0502       -0.0126325         147.287
0.558                  -0.687912        -152.124         -55.9235        -29.4504         -55.9236        -29.4501       -0.0127518         147.216
0.559                  -0.714702        -152.717         -55.7386        -31.8556         -55.7388        -31.8553       -0.0128723         147.145
0.56                    -0.74221        -153.312         -55.5542        -34.2662         -55.5544        -34.2659       -0.0129939         147.074
0.561                  -0.770437        -153.908         -55.3705        -36.6824         -55.3706        -36.6821       -0.0131167         147.003
0.562                   -0.79938        -154.504         -55.1875        -39.1042         -55.1877        -39.1039       -0.0132406         146.932
0.563                  -0.829039        -155.102         -55.0055        -41.5317         -55.0056        -41.5314       -0.0133658         146.861
0.564                  -0.859411        -155.701         -54.8245        -43.9649         -54.8247        -43.9647       -0.0134921          146.79
0.565                  -0.890492        -156.301         -54.6448        -46.4039         -54.6449        -46.4037       -0.0136196         146.718
0.566                  -0.922279        -156.902         -54.4663        -48.8486         -54.4664        -48.8484       -0.0137482         146.646
0.567                  -0.954767        -157.503         -54.2893         -51.299         -54.2894        -51.2988       -0.0138781         146.575
0.568                  -0.987951        -158.105          -54.114         -53.755          -54.114        -53.7548       -0.0140091         146.503
0.569                   -1.02182        -158.707         -53.9403        -56.2164         -53.9404        -56.2162       -0.0141414         146.431
0.57                    -1.05638         -159.31         -53.7684        -58.6831         -53.7685        -58.6829       -0.0142748         146.358
0.571                   -1.09161        -159.914         -53.5985        -61.1548         -53.5986        -61.1546       -0.0144095         146.286
0.572                   -1.12752        -160.517         -53.4307        -63.6314         -53.4308        -63.6312       -0.0145453         146.214
0.573                   -1.16408        -161.121          -53.265        -66.1126          -53.265        -66.1124       -0.0146823         146.141
0.574                   -1.20128        -161.725         -53.1015         -68.598         -53.1016        -68.5979       -0.0148206         146.068
0.575                   -1.23913         -162.33         -52.9404        -71.0874         -52.9405        -71.0873         -0.01496         145.995
0.576                   -1.27761        -162.934         -52.7817        -73.5803         -52.7817        -73.5802       -0.0151006         145.922
0.577                   -1.31671        -163.538         -52.6255        -76.0764         -52.6255        -76.0763       -0.0152424         145.849
0.578                   -1.35641        -164.143         -52.4718        -78.5751         -52.4718         -78.575       -0.0153854         145.776
0.579                   -1.39671        -164.747         -52.3207        -81.0761         -52.3207         -81.076       -0.0155296         145.702
0.58                    -1.43758        -165.351         -52.1723        -83.5789         -52.1723        -83.5788        -0.015675         145.629
0.581                   -1.47902        -165.955         -52.0266        -86.0829         -52.0266        -86.0829       -0.0158216         145.555
0.582                   -1.52102        -166.559         -51.8836        -88.5877         -51.8836        -88.5876       -0.0159695         145.481
0.583                   -1.56355        -167.162         -51.7434        -91.0927         -51.7434        -91.0926       -0.0161187         145.407
0.584                   -1.60661        -167.766          -51.606        -93.5973          -51.606        -93.5972       -0.0162691         145.332
0.585                   -1.65018        -168.369         -51.4713         -96.101         -51.4713         -96.101        -0.016421         145.258
0.586                   -1.69424        -168.972         -51.3395        -98.6033         -51.3395        -98.6033       -0.0165744         145.183
0.587                   -1.73877        -169.575         -51.2104        -101.104         -51.2104        -101.104       -0.0167293         145.108
0.588                   -1.78377        -170.177          -51.084        -103.601          -51.084        -103.601       -0.0168861         145.033
0.589                   -1.82921         -170.78         -50.9604        -106.096         -50.9604        -106.096       -0.0170448         144.958
0.59                    -1.87508        -171.382         -50.8395        -108.587         -50.8395        -108.587       -0.0172056         144.883
0.591                   -1.92137        -171.984         -50.7213        -111.074         -50.7213        -111.074        -0.017369         144.807
0.592                   -1.96805        -172.586         -50.6057        -113.556         -50.6057        -113.556       -0.0175351         144.731
0.593                   -2.01511        -173.188         -50.4926        -116.033         -50.4926        -116.033       -0.0177045         144.656
0.594                   -2.06253        -173.791         -50.3821        -118.505          -50.382        -118.505       -0.0178774         144.579
0.595                    -2.1103        -174.393         -50.2739         -120.97         -50.2739        -120.971       -0.0180543         144.503
0.596                    -2.1584        -174.996         -50.1682         -123.43         -50.1682         -123.43       -0.0182357         144.427
0.597                   -2.20682        -175.599         -50.0647        -125.882         -50.0647        -125.883       -0.0184218          144.35
0.598                   -2.25555        -176.203         -49.9635        -128.328         -49.9635        -128.328        -0.018613         144.273
0.599                   -2.30456        -176.807         -49.8644        -130.766         -49.8643        -130.766       -0.0188095         144.196
0.6                     -2.35385        -177.412         -49.7673        -133.197         -49.7673        -133.197       -0.0190113         144.119
0.601                    -2.4034        -178.018         -49.6722         -135.62         -49.6722         -135.62       -0.0192185         144.041
0.602                    -2.4532        -178.625         -49.5789        -138.034         -49.5789        -138.035       -0.0194308         143.964
0.603                   -2.50324        -179.233         -49.4875        -140.441         -49.4875        -140.441       -0.0196479         143.886
0.604                   -2.55352        -179.843         -49.3977        -142.839         -49.3977         -142.84       -0.0198695         143.808
0.605                   -2.60402         179.546         -49.3095        -145.229         -49.3095         -145.23       -0.0200952          143.73
0.606                   -2.65473         178.933         -49.2228        -147.611         -49.2228        -147.611       -0.0203245         143.651
0.607                   -2.70566         178.318         -49.1376        -149.984         -49.1375        -149.984        -0.020557         143.573
0.608                   -2.75679           177.7         -49.0536        -152.349         -49.0536        -152.349       -0.0207924         143.494
0.609                   -2.80813          177.08         -48.9709        -154.705         -48.9709        -154.705       -0.0210304         143.415
0.61                    -2.85968         176.457         -48.8893        -157.053         -48.8893        -157.053       -0.0212707         143.336
0.611                   -2.91144         175.832         -48.8088        -159.393         -48.8088        -159.393       -0.0215133         143.257
0.612                   -2.96342         175.203         -48.7292        -161.724         -48.7292        -161.724       -0.0217579         143.177
0.613                   -3.01562          174.57         -48.6505        -164.048         -48.6505        -164.048       -0.0220046         143.097
0.614                   -3.06805         173.933         -48.5727        -166.364         -48.5727        -166.364       -0.0222534         143.017
0.615                   -3.12073         173.292         -48.4956        -168.672         -48.4955        -168.672       -0.0225042         142.937
0.616                   -3.17368         172.647         -48.4191        -170.973         -48.4191        -170.973       -0.0227573         142.857
0.617                   -3.22691         171.997         -48.3432        -173.267         -48.3432        -173.267       -0.0230126         142.776
0.618                   -3.28045         171.341         -48.2679        -175.554         -48.2679        -175.554       -0.0232703         142.695
0.619                   -3.33433          170.68          -48.193        -177.834          -48.193        -177.834       -0.0235304         142.614
0.62                    -3.38858         170.013         -48.1185         179.892         -48.1185         179.892       -0.0237932         142.533
0.621                   -3.44323          169.34         -48.0444         177.624         -48.0444         177.624       -0.0240587         142.451
0.622                   -3.49833          168.66         -47.9705         175.363         -47.9705         175.362        -0.024327         142.369
0.623                   -3.55393         167.973          -47.897         173.106          -47.897         173.106       -0.0245984         142.287
0.624                   -3.61007         167.279         -47.8236         170.855         -47.8236         170.855       -0.0248728         142.205
0.625                   -3.66682         166.577         -47.7504         168.609         -47.7504         168.609       -0.0251504         142.122
0.626                   -3.72422         165.867         -47.6773         166.367         -47.6773         166.367       -0.0254314         142.039
0.627                   -3.78237         165.149         -47.6043          164.13         -47.6043          164.13       -0.0257159         141.956
0.628                   -3.84132         164.421         -47.5314         161.897         -47.5314         161.897       -0.0260039         141.872
0.629                   -3.90117         163.685         -47.4586         159.667         -47.4585         159.667       -0.0262957         141.789
