! TOUCHSTONE file generated by CST MICROWAVE STUDIO
! Date and time: Sat Oct 24 11:44:53 2020
! Project name: Scenario_1_Circular_Tissue_out_of_Line.cst
! Parameters = {dy1=-103.226; L_HA=400; MT=2.54; Rad_Dielectric=30; Rad_Lower=7.3; Rad_Upper=30; a_HA=580; a_WG=246; b_HA=500; b_WG=121; c_HA=0; c_WG=187; d_feed=85; dx1=1039; h_feed=15; h_lower=18; h_upper=40}
! Header version: 2018
! Port assignment regex: !\s*Touchstone port\s*([0-9]+)\s*=\s*(CST MWS port|CST DS port)\s*([0-9]+|Zmin|Zmax)\s*\(\"(.*)\"\)(\s*mode\s*([0-9]+))?.*
! Touchstone port assignment:
! Touchstone port 1 = CST MWS port 1 ("")
! Touchstone port 2 = CST MWS port 2 ("")
# GHz S DB R 50
0.5                    -0.146585        -122.257         -63.3914        -2.83749         -63.3914        -2.83749      -0.00763024         151.151
0.501                  -0.150778        -122.693         -63.2581        -5.06408         -63.2579        -5.06493      -0.00768966         151.085
0.502                   -0.15511        -123.132         -63.1224        -7.29154          -63.122         -7.2931      -0.00774945          151.02
0.503                   -0.15959        -123.574         -62.9844        -9.52008         -62.9839        -9.52221      -0.00780962         150.955
0.504                  -0.164226        -124.019         -62.8441        -11.7499         -62.8435        -11.7525      -0.00787019          150.89
0.505                  -0.169028        -124.466         -62.7017        -13.9814         -62.7009        -13.9843      -0.00793118         150.824
0.506                  -0.174005        -124.916          -62.557        -16.2147         -62.5562        -16.2178       -0.0079926         150.758
0.507                  -0.179168        -125.369         -62.4104        -18.4503         -62.4095        -18.4535      -0.00805447         150.693
0.508                  -0.184528        -125.825         -62.2616        -20.6884         -62.2607        -20.6917      -0.00811681         150.627
0.509                  -0.190095        -126.284          -62.111        -22.9295           -62.11        -22.9327      -0.00817964         150.561
0.51                   -0.195883        -126.746         -61.9584        -25.1739         -61.9574        -25.1769      -0.00824299         150.495
0.511                  -0.201903        -127.211          -61.804        -27.4221          -61.803        -27.4249      -0.00830688          150.43
0.512                  -0.208169        -127.679         -61.6478        -29.6745         -61.6468         -29.677      -0.00837134         150.364
0.513                  -0.214695         -128.15         -61.4899        -31.9316         -61.4889        -31.9338      -0.00843641         150.297
0.514                  -0.221496        -128.624         -61.3304        -34.1939         -61.3294        -34.1958      -0.00850211         150.231
0.515                  -0.228586        -129.101         -61.1692         -36.462         -61.1683        -36.4633      -0.00856848         150.165
0.516                  -0.235982        -129.581         -61.0065        -38.7362         -61.0057        -38.7371      -0.00863556         150.099
0.517                  -0.243701        -130.064         -60.8424        -41.0172         -60.8416        -41.0176      -0.00870339         150.032
0.518                  -0.251758         -130.55         -60.6769        -43.3056         -60.6761        -43.3055      -0.00877202         149.965
0.519                  -0.260173        -131.039           -60.51        -45.6018         -60.5093        -45.6012      -0.00884149         149.899
0.52                   -0.268963        -131.531         -60.3419        -47.9066         -60.3412        -47.9054      -0.00891185         149.832
0.521                  -0.278146        -132.026         -60.1726        -50.2204         -60.1719        -50.2187      -0.00898315         149.765
0.522                  -0.287741        -132.525         -60.0022         -52.544         -60.0016        -52.5417      -0.00905545         149.698
0.523                  -0.297768        -133.026         -59.8307        -54.8778         -59.8302         -54.875      -0.00912881         149.631
0.524                  -0.308245         -133.53         -59.6584        -57.2226         -59.6579        -57.2192      -0.00920328         149.564
0.525                  -0.319192        -134.036         -59.4852        -59.5788         -59.4847         -59.575      -0.00927894         149.497
0.526                  -0.330627        -134.546         -59.3112        -61.9472         -59.3107        -61.9429      -0.00935584          149.43
0.527                  -0.342569        -135.058         -59.1365        -64.3284         -59.1361        -64.3236      -0.00943405         149.362
0.528                  -0.355036        -135.572         -58.9613        -66.7228         -58.9609        -66.7176      -0.00951364         149.295
0.529                  -0.368044        -136.089         -58.7857        -69.1311         -58.7853        -69.1255      -0.00959468         149.227
0.53                   -0.381609        -136.608         -58.6097        -71.5539         -58.6093         -71.548      -0.00967723          149.16
0.531                  -0.395745        -137.129         -58.4335        -73.9916         -58.4331        -73.9854      -0.00976137         149.092
0.532                  -0.410465        -137.652         -58.2572        -76.4449         -58.2569        -76.4385      -0.00984717         149.024
0.533                  -0.425779        -138.177         -58.0809        -78.9141         -58.0806        -78.9075      -0.00993469         148.956
0.534                  -0.441694        -138.703         -57.9048        -81.3997         -57.9045         -81.393        -0.010024         148.888
0.535                  -0.458216         -139.23         -57.7291        -83.9021         -57.7288        -83.8954       -0.0101151          148.82
0.536                  -0.475345        -139.759         -57.5539        -86.4215         -57.5535        -86.4149       -0.0102082         148.751
0.537                   -0.49308        -140.288         -57.3792        -88.9584         -57.3789        -88.9519       -0.0103032         148.683
0.538                  -0.511415        -140.818         -57.2054        -91.5129         -57.2051        -91.5065       -0.0104002         148.615
0.539                  -0.530339        -141.348         -57.0326        -94.0851         -57.0323        -94.0789       -0.0104992         148.546
0.54                   -0.549837        -141.879         -56.8609         -96.675         -56.8606        -96.6692       -0.0106003         148.477
0.541                  -0.569889        -142.409         -56.6906        -99.2827         -56.6902        -99.2774       -0.0107035         148.409
0.542                  -0.590472        -142.939         -56.5218        -101.908         -56.5214        -101.903       -0.0108087          148.34
0.543                  -0.611555        -143.469         -56.3546        -104.551         -56.3542        -104.546       -0.0109161         148.271
0.544                  -0.633105        -143.998         -56.1894        -107.211          -56.189        -107.207       -0.0110256         148.202
0.545                  -0.655083        -144.526         -56.0262        -109.887         -56.0258        -109.884       -0.0111371         148.132
0.546                  -0.677444        -145.053         -55.8652         -112.58         -55.8648        -112.577       -0.0112507         148.063
0.547                  -0.700144        -145.579         -55.7067        -115.288         -55.7063        -115.286       -0.0113664         147.994
0.548                   -0.72313        -146.103         -55.5507         -118.01         -55.5504        -118.009        -0.011484         147.924
0.549                  -0.746351        -146.627         -55.3976        -120.746         -55.3972        -120.746       -0.0116035         147.855
0.55                   -0.769751        -147.149         -55.2473        -123.495          -55.247        -123.496       -0.0117249         147.785
0.551                  -0.793276        -147.671            -55.1        -126.256         -55.0998        -126.257        -0.011848         147.715
0.552                  -0.816869        -148.191         -54.9559        -129.027         -54.9558        -129.028       -0.0119729         147.645
0.553                  -0.840477         -148.71         -54.8152        -131.806          -54.815        -131.809       -0.0120994         147.575
0.554                  -0.864047        -149.229         -54.6777        -134.594         -54.6777        -134.597       -0.0122275         147.505
0.555                   -0.88753        -149.748         -54.5437        -137.388         -54.5438        -137.391        -0.012357         147.435
0.556                  -0.910882        -150.266         -54.4132        -140.186         -54.4133         -140.19        -0.012488         147.364
0.557                  -0.934063        -150.785         -54.2863        -142.987         -54.2864        -142.991       -0.0126202         147.294
0.558                  -0.957039        -151.304         -54.1628        -145.789         -54.1631        -145.794       -0.0127536         147.223
0.559                  -0.979782        -151.825         -54.0429        -148.592         -54.0432        -148.597       -0.0128882         147.152
0.56                    -1.00227        -152.347         -53.9264        -151.392         -53.9268        -151.397       -0.0130238         147.082
0.561                    -1.0245        -152.871         -53.8133        -154.189         -53.8138        -154.194       -0.0131605         147.011
0.562                   -1.04645        -153.397         -53.7034        -156.981          -53.704        -156.986        -0.013298         146.939
0.563                   -1.06813        -153.926         -53.5968        -159.767         -53.5975        -159.772       -0.0134364         146.868
0.564                   -1.08956        -154.459         -53.4933        -162.545          -53.494        -162.549       -0.0135757         146.797
0.565                   -1.11074        -154.996         -53.3926        -165.313         -53.3934        -165.318       -0.0137157         146.726
0.566                    -1.1317        -155.536         -53.2947        -168.072         -53.2955        -168.076       -0.0138564         146.654
0.567                   -1.15248        -156.082         -53.1993        -170.819         -53.2001        -170.823       -0.0139979         146.582
0.568                   -1.17311        -156.633         -53.1062        -173.554         -53.1071        -173.557         -0.01414          146.51
0.569                   -1.19364        -157.189         -53.0153        -176.276         -53.0162        -176.279       -0.0142828         146.438
0.57                    -1.21411        -157.751         -52.9263        -178.984         -52.9272        -178.986       -0.0144263         146.366
0.571                   -1.23457         -158.32          -52.839         178.322         -52.8399          178.32       -0.0145704         146.294
0.572                   -1.25509        -158.895         -52.7532         175.643         -52.7541         175.641       -0.0147152         146.222
0.573                   -1.27572        -159.477         -52.6687         172.978         -52.6695         172.977       -0.0148607         146.149
0.574                   -1.29653        -160.066         -52.5851         170.328         -52.5859         170.328        -0.015007         146.077
0.575                   -1.31758        -160.662         -52.5024         167.693         -52.5031         167.693        -0.015154         146.004
0.576                   -1.33894        -161.265         -52.4203         165.072         -52.4209         165.072       -0.0153018         145.931
0.577                   -1.36068        -161.877         -52.3386         162.466         -52.3392         162.466       -0.0154504         145.858
0.578                   -1.38287        -162.496         -52.2571         159.873         -52.2576         159.874       -0.0155999         145.784
0.579                   -1.40559        -163.122         -52.1756         157.293         -52.1761         157.294       -0.0157503         145.711
0.58                    -1.42889        -163.757         -52.0941         154.726         -52.0944         154.727       -0.0159017         145.638
0.581                   -1.45286        -164.399         -52.0122         152.171         -52.0125         152.172       -0.0160541         145.564
0.582                   -1.47758        -165.049         -51.9299         149.626         -51.9301         149.627       -0.0162077          145.49
0.583                    -1.5031        -165.708         -51.8471         147.092         -51.8472         147.093       -0.0163624         145.416
0.584                   -1.52951        -166.373         -51.7636         144.567         -51.7637         144.568       -0.0165184         145.342
0.585                   -1.55687        -167.047         -51.6794          142.05         -51.6794         142.051       -0.0166757         145.267
0.586                   -1.58527        -167.728         -51.5944         139.541         -51.5943         139.541       -0.0168344         145.193
0.587                   -1.61476        -168.416         -51.5085         137.037         -51.5084         137.038       -0.0169946         145.118
0.588                   -1.64543        -169.112         -51.4218          134.54         -51.4216          134.54       -0.0171563         145.043
0.589                   -1.67734        -169.814         -51.3341         132.046         -51.3338         132.047       -0.0173197         144.968
0.59                    -1.71056        -170.523         -51.2454         129.557         -51.2452         129.557       -0.0174848         144.893
0.591                   -1.74516        -171.239         -51.1558         127.069         -51.1556         127.069       -0.0176517         144.818
0.592                    -1.7812        -171.961         -51.0653         124.583          -51.065         124.583       -0.0178206         144.742
0.593                   -1.81875        -172.688         -50.9739         122.098         -50.9736         122.098       -0.0179914         144.666
0.594                   -1.85787        -173.422         -50.8816         119.613         -50.8813         119.612       -0.0181643         144.591
0.595                   -1.89862         -174.16         -50.7885         117.127         -50.7883         117.126       -0.0183394         144.514
0.596                   -1.94106        -174.903         -50.6947         114.639         -50.6945         114.638       -0.0185168         144.438
0.597                   -1.98524         -175.65         -50.6002         112.148            -50.6         112.148       -0.0186965         144.362
0.598                   -2.03122        -176.401         -50.5051         109.655         -50.5049         109.654       -0.0188787         144.285
0.599                   -2.07903        -177.155         -50.4095         107.158         -50.4093         107.157       -0.0190634         144.208
0.6                     -2.12873        -177.911         -50.3135         104.657         -50.3134         104.657       -0.0192508         144.131
0.601                   -2.18035         -178.67         -50.2171         102.152          -50.217         102.151       -0.0194409         144.054
0.602                   -2.23392         -179.43         -50.1206         99.6419         -50.1205         99.6415       -0.0196338         143.977
0.603                   -2.28946         179.809         -50.0239         97.1266         -50.0238         97.1264       -0.0198297         143.899
0.604                   -2.34699         179.048         -49.9272          94.606         -49.9272          94.606       -0.0200285         143.821
0.605                   -2.40653         178.287         -49.8305           92.08         -49.8306         92.0802       -0.0202305         143.743
0.606                   -2.46807         177.528         -49.7341         89.5484         -49.7342         89.5489       -0.0204356         143.665
0.607                   -2.53161          176.77          -49.638         87.0112         -49.6381         87.0121       -0.0206439         143.586
0.608                   -2.59713         176.016         -49.5423         84.4685         -49.5424         84.4697       -0.0208556         143.508
0.609                    -2.6646         175.265         -49.4472         81.9205         -49.4473          81.922       -0.0210706         143.429
0.61                    -2.73399         174.518         -49.3526         79.3672         -49.3527         79.3691       -0.0212891          143.35
0.611                   -2.80524         173.776         -49.2588          76.809         -49.2589         76.8112       -0.0215112          143.27
0.612                    -2.8783         173.039         -49.1657         74.2461         -49.1658         74.2487       -0.0217368         143.191
0.613                   -2.95309         172.309         -49.0736         71.6789         -49.0737         71.6818       -0.0219662         143.111
0.614                   -3.02954         171.586         -48.9824         69.1078         -48.9825          69.111       -0.0221992         143.031
0.615                   -3.10755         170.871         -48.8922         66.5332         -48.8923         66.5367        -0.022436         142.951
0.616                     -3.187         170.163         -48.8031         63.9556         -48.8032         63.9593       -0.0226766         142.871
0.617                    -3.2678         169.465         -48.7152         61.3755         -48.7153         61.3794        -0.022921          142.79
0.618                   -3.34981         168.775         -48.6285         58.7934         -48.6286         58.7975       -0.0231694         142.709
0.619                    -3.4329         168.095         -48.5431         56.2099         -48.5431         56.2142       -0.0234217         142.628
0.62                    -3.51693         167.424         -48.4589         53.6256         -48.4589           53.63        -0.023678         142.547
0.621                   -3.60175         166.763         -48.3761          51.041         -48.3761         51.0455       -0.0239382         142.465
0.622                   -3.68721         166.112         -48.2946         48.4568         -48.2945         48.4613       -0.0242026         142.383
0.623                   -3.77316          165.47         -48.2144         45.8735         -48.2143          45.878        -0.024471         142.301
0.624                   -3.85944         164.839         -48.1355         43.2917         -48.1354         43.2962       -0.0247434         142.219
0.625                    -3.9459         164.216          -48.058         40.7121         -48.0578         40.7165       -0.0250201         142.136
0.626                   -4.03239         163.602         -47.9817         38.1352         -47.9816         38.1394       -0.0253008         142.053
0.627                   -4.11878         162.996         -47.9068         35.5615         -47.9066         35.5656       -0.0255858          141.97
0.628                   -4.20491         162.398         -47.8331         32.9916         -47.8329         32.9955       -0.0258749         141.887
0.629                   -4.29067         161.807         -47.7606         30.4261         -47.7604         30.4297       -0.0261683         141.803
