! TOUCHSTONE file generated by CST MICROWAVE STUDIO
! Date and time: Wed Oct 28 19:16:14 2020
! Project name: Scenario_1_Circular_Tissue_out_of_Line.cst
! Parameters = {dy1=-85.885; L_HA=400; MT=2.54; Rad_Dielectric=30; Rad_Lower=7.3; Rad_Upper=30; a_HA=580; a_WG=246; b_HA=500; b_WG=121; c_HA=0; c_WG=187; d_feed=85; dx1=693; h_feed=15; h_lower=18; h_upper=40}
! Header version: 2018
! Port assignment regex: !\s*Touchstone port\s*([0-9]+)\s*=\s*(CST MWS port|CST DS port)\s*([0-9]+|Zmin|Zmax)\s*\(\"(.*)\"\)(\s*mode\s*([0-9]+))?.*
! Touchstone port assignment:
! Touchstone port 1 = CST MWS port 1 ("")
! Touchstone port 2 = CST MWS port 2 ("")
# GHz S DB R 50
0.5                    -0.154476        -122.249         -62.0965        -167.432         -62.0965        -167.432      -0.00768821         151.098
0.501                  -0.161299        -122.689         -61.9933        -169.069         -61.9903        -169.066      -0.00775225         151.033
0.502                  -0.168193         -123.13         -61.8877        -170.714         -61.8819        -170.707      -0.00781648         150.968
0.503                  -0.175158        -123.573         -61.7796        -172.368         -61.7713        -172.357      -0.00788092         150.902
0.504                  -0.182192        -124.018         -61.6692         -174.03         -61.6584        -174.015      -0.00794557         150.837
0.505                  -0.189297        -124.464         -61.5564        -175.699         -61.5433        -175.681      -0.00801045         150.772
0.506                  -0.196472        -124.912         -61.4412        -177.377         -61.4261        -177.355      -0.00807557         150.706
0.507                  -0.203717        -125.362         -61.3237        -179.062         -61.3067        -179.037      -0.00814094          150.64
0.508                  -0.211033        -125.813         -61.2039         179.245         -61.1851         179.273      -0.00820656         150.574
0.509                   -0.21842        -126.267         -61.0818         177.544         -61.0615         177.575      -0.00827247         150.509
0.51                   -0.225879        -126.722         -60.9575         175.835         -60.9357          175.87      -0.00833866         150.443
0.511                  -0.233412         -127.18          -60.831         174.119         -60.8079         174.156      -0.00840515         150.377
0.512                  -0.241021        -127.639         -60.7023         172.395         -60.6781         172.435      -0.00847197         150.311
0.513                  -0.248707        -128.101         -60.5714         170.664         -60.5463         170.706      -0.00853912         150.244
0.514                  -0.256473        -128.565         -60.4385         168.925         -60.4126         168.969      -0.00860663         150.178
0.515                  -0.264322        -129.031         -60.3035         167.178         -60.2769         167.225      -0.00867451         150.112
0.516                  -0.272258          -129.5         -60.1665         165.424         -60.1394         165.472      -0.00874279         150.045
0.517                  -0.280286        -129.971         -60.0275         163.662              -60         163.711      -0.00881148         149.979
0.518                  -0.288408        -130.444         -59.8866         161.892         -59.8588         161.942      -0.00888061         149.912
0.519                  -0.296633        -130.921         -59.7438         160.114         -59.7159         160.165      -0.00895021         149.846
0.52                   -0.304965          -131.4         -59.5992         158.329         -59.5713          158.38       -0.0090203         149.779
0.521                  -0.313412        -131.881         -59.4529         156.535         -59.4251         156.587       -0.0090909         149.712
0.522                  -0.321983        -132.366         -59.3049         154.733         -59.2772         154.785      -0.00916204         149.645
0.523                  -0.330686        -132.854         -59.1552         152.923         -59.1279         152.975      -0.00923376         149.578
0.524                  -0.339532        -133.344         -59.0039         151.105          -58.977         151.156      -0.00930608         149.511
0.525                  -0.348533        -133.838         -58.8511         149.278         -58.8247         149.328      -0.00937904         149.444
0.526                  -0.357702        -134.336         -58.6969         147.442         -58.6711         147.491      -0.00945267         149.376
0.527                  -0.367053        -134.836         -58.5413         145.597         -58.5161         145.645        -0.009527         149.309
0.528                  -0.376602         -135.34         -58.3844         143.743           -58.36          143.79      -0.00960207         149.242
0.529                  -0.386368        -135.848         -58.2262         141.881         -58.2026         141.925      -0.00967793         149.174
0.53                    -0.39637         -136.36         -58.0669         140.008         -58.0442         140.051       -0.0097546         149.106
0.531                  -0.406629        -136.875         -57.9064         138.126         -57.8847         138.167      -0.00983213         149.038
0.532                   -0.41717        -137.394          -57.745         136.235         -57.7243         136.273      -0.00991056         148.971
0.533                  -0.428019        -137.917         -57.5826         134.333          -57.563         134.369      -0.00998994         148.903
0.534                  -0.439204        -138.445         -57.4194         132.421         -57.4008         132.455       -0.0100703         148.834
0.535                  -0.450755        -138.976         -57.2554         130.499          -57.238         130.531       -0.0101517         148.766
0.536                  -0.462707        -139.512         -57.0907         128.566         -57.0745         128.595       -0.0102342         148.698
0.537                  -0.475094        -140.052         -56.9254         126.623         -56.9105         126.649       -0.0103178          148.63
0.538                  -0.487957        -140.596         -56.7596         124.669         -56.7459         124.692       -0.0104027         148.561
0.539                  -0.501335        -141.144         -56.5934         122.703          -56.581         122.724       -0.0104887         148.492
0.54                   -0.515272        -141.697         -56.4269         120.727         -56.4158         120.745        -0.010576         148.424
0.541                  -0.529815        -142.255         -56.2601         118.739         -56.2504         118.755       -0.0106647         148.355
0.542                  -0.545012        -142.816         -56.0933         116.739         -56.0849         116.753       -0.0107548         148.286
0.543                  -0.560912        -143.382         -55.9264         114.728         -55.9194         114.739       -0.0108463         148.217
0.544                  -0.577567        -143.951         -55.7596         112.705         -55.7539         112.714       -0.0109393         148.148
0.545                  -0.595028        -144.525          -55.593          110.67         -55.5886         110.677       -0.0110338         148.078
0.546                  -0.613349        -145.102         -55.4266         108.623         -55.4236         108.628         -0.01113         148.009
0.547                   -0.63258        -145.683         -55.2607         106.565          -55.259         106.568       -0.0112278          147.94
0.548                  -0.652771        -146.266         -55.0953         104.494         -55.0949         104.496       -0.0113274          147.87
0.549                  -0.673969        -146.853         -54.9305         102.412         -54.9314         102.412       -0.0114287           147.8
0.55                   -0.696216        -147.441         -54.7663         100.317         -54.7685         100.316       -0.0115318          147.73
0.551                  -0.719551        -148.032         -54.6031         98.2112         -54.6065         98.2087       -0.0116367          147.66
0.552                  -0.744002        -148.624         -54.4407         96.0934         -54.4453           96.09       -0.0117436          147.59
0.553                  -0.769591        -149.216         -54.2794          93.964         -54.2852           93.96       -0.0118524          147.52
0.554                  -0.796331        -149.809         -54.1193         91.8232         -54.1261         91.8188       -0.0119632          147.45
0.555                   -0.82422        -150.402         -53.9604         89.6713         -53.9683         89.6667       -0.0120761         147.379
0.556                  -0.853245        -150.993         -53.8028         87.5085         -53.8118         87.5039        -0.012191         147.309
0.557                  -0.883379        -151.583         -53.6468          85.335         -53.6566         85.3308       -0.0123081         147.238
0.558                   -0.91458         -152.17         -53.4922         83.1513          -53.503         83.1475       -0.0124273         147.167
0.559                  -0.946791        -152.754         -53.3394         80.9577          -53.351         80.9546       -0.0125486         147.097
0.56                   -0.979939        -153.334         -53.1883         78.7546         -53.2007         78.7524       -0.0126722         147.025
0.561                   -1.01394        -153.911          -53.039         76.5425         -53.0521         76.5414        -0.012798         146.954
0.562                   -1.04869        -154.482         -52.8917         74.3218         -52.9055         74.3219        -0.012926         146.883
0.563                   -1.08408        -155.049         -52.7464         72.0931         -52.7607         72.0946       -0.0130563         146.812
0.564                   -1.11998         -155.61         -52.6031         69.8569         -52.6179           69.86       -0.0131888          146.74
0.565                   -1.15628        -156.166          -52.462         67.6138         -52.4773         67.6185       -0.0133237         146.668
0.566                   -1.19284        -156.716         -52.3231         65.3644         -52.3387         65.3709       -0.0134608         146.597
0.567                   -1.22952        -157.261         -52.1865         63.1094         -52.2024         63.1178       -0.0136001         146.525
0.568                    -1.2662        -157.801         -52.0522         60.8494         -52.0683         60.8597       -0.0137418         146.453
0.569                   -1.30276        -158.336         -51.9202         58.5851         -51.9365         58.5974       -0.0138857          146.38
0.57                    -1.33907        -158.866         -51.7906         56.3173          -51.807         56.3315       -0.0140319         146.308
0.571                   -1.37504        -159.393         -51.6634         54.0467         -51.6798         54.0628       -0.0141804         146.236
0.572                   -1.41057        -159.917         -51.5387         51.7739          -51.555          51.792        -0.014331         146.163
0.573                   -1.44558        -160.437         -51.4164         49.4998         -51.4326         49.5197       -0.0144839          146.09
0.574                   -1.48001        -160.957         -51.2965          47.225         -51.3125         47.2467        -0.014639         146.017
0.575                   -1.51382        -161.475         -51.1791         44.9503         -51.1948         44.9737       -0.0147962         145.944
0.576                   -1.54697        -161.993         -51.0641         42.6765         -51.0795         42.7015       -0.0149556         145.871
0.577                   -1.57945        -162.511         -50.9515         40.4042         -50.9665         40.4306       -0.0151171         145.798
0.578                   -1.61125        -163.031         -50.8412         38.1341         -50.8558         38.1619       -0.0152807         145.725
0.579                   -1.64239        -163.553         -50.7332          35.867         -50.7474          35.896       -0.0154464         145.651
0.58                    -1.67289        -164.078         -50.6276         33.6035         -50.6412         33.6334       -0.0156141         145.577
0.581                   -1.70278        -164.607         -50.5241         31.3442         -50.5373          31.375       -0.0157838         145.503
0.582                    -1.7321        -165.139         -50.4228         29.0898         -50.4354         29.1212       -0.0159554         145.429
0.583                   -1.76091        -165.677         -50.3236         26.8408         -50.3356         26.8726       -0.0161291         145.355
0.584                   -1.78925         -166.22         -50.2264         24.5978         -50.2378         24.6298       -0.0163046         145.281
0.585                    -1.8172        -166.769         -50.1312         22.3613          -50.142         22.3933       -0.0164821         145.206
0.586                   -1.84481        -167.324         -50.0378         20.1317          -50.048         20.1635       -0.0166615         145.132
0.587                   -1.87215        -167.886         -49.9462         17.9094         -49.9557          17.941       -0.0168427         145.057
0.588                   -1.89929        -168.455         -49.8563          15.695         -49.8652         15.7259       -0.0170258         144.982
0.589                   -1.92631        -169.031          -49.768         13.4886         -49.7763         13.5188       -0.0172107         144.907
0.59                    -1.95326        -169.615         -49.6812         11.2906         -49.6889           11.32       -0.0173974         144.832
0.591                   -1.98023        -170.207         -49.5959         9.10122         -49.6029          9.1296       -0.0175859         144.756
0.592                   -2.00729        -170.807         -49.5118         6.92074         -49.5182         6.94795       -0.0177762         144.681
0.593                    -2.0345        -171.416          -49.429          4.7493         -49.4348         4.77521       -0.0179684         144.605
0.594                   -2.06194        -172.033         -49.3473         2.58703         -49.3525         2.61152       -0.0181623         144.529
0.595                   -2.08967        -172.659         -49.2666        0.434025         -49.2713        0.456983       -0.0183581         144.453
0.596                   -2.11777        -173.293         -49.1869        -1.70968          -49.191        -1.68833       -0.0185556         144.376
0.597                    -2.1463        -173.936          -49.108        -3.84406         -49.1116         -3.8244        -0.018755           144.3
0.598                   -2.17533        -174.588         -49.0299        -5.96915          -49.033        -5.95123       -0.0189562         144.223
0.599                   -2.20492        -175.249         -48.9524        -8.08501         -48.9551        -8.06887       -0.0191593         144.146
0.6                     -2.23516         -175.92         -48.8755        -10.1917         -48.8778        -10.1774       -0.0193643         144.069
0.601                   -2.26609        -176.599         -48.7991        -12.2895          -48.801        -12.2769       -0.0195712         143.992
0.602                   -2.29779        -177.287         -48.7231        -14.3783         -48.7246        -14.3676       -0.0197801         143.915
0.603                   -2.33032        -177.985         -48.6474        -16.4585         -48.6486        -16.4496       -0.0199909         143.837
0.604                   -2.36376        -178.691          -48.572        -18.5303         -48.5728        -18.5231       -0.0202037         143.759
0.605                   -2.39816        -179.407         -48.4967        -20.5938         -48.4973        -20.5884       -0.0204186         143.681
0.606                    -2.4336         179.868         -48.4216        -22.6494         -48.4219        -22.6456       -0.0206356         143.603
0.607                   -2.47015         179.134         -48.3465        -24.6973         -48.3466        -24.6951       -0.0208548         143.525
0.608                   -2.50786         178.391         -48.2713        -26.7379         -48.2713        -26.7371       -0.0210761         143.446
0.609                   -2.54682         177.639         -48.1962        -28.7713         -48.1959         -28.772       -0.0212997         143.367
0.61                    -2.58709         176.878         -48.1209        -30.7981         -48.1205           -30.8       -0.0215257         143.288
0.611                   -2.62875         176.108         -48.0454        -32.8184         -48.0449        -32.8215        -0.021754         143.209
0.612                   -2.67187          175.33         -47.9697        -34.8326         -47.9692        -34.8369       -0.0219847         143.129
0.613                   -2.71653         174.543         -47.8938        -36.8412         -47.8932        -36.8464        -0.022218          143.05
0.614                   -2.76279         173.747         -47.8176        -38.8444         -47.8169        -38.8505       -0.0224538          142.97
0.615                   -2.81074         172.942         -47.7411        -40.8427         -47.7404        -40.8495       -0.0226923          142.89
0.616                   -2.86046          172.13         -47.6642        -42.8363         -47.6635        -42.8438       -0.0229335         142.809
0.617                   -2.91202         171.309          -47.587        -44.8257         -47.5863        -44.8337       -0.0231775         142.729
0.618                   -2.96551         170.481         -47.5094        -46.8113         -47.5087        -46.8197       -0.0234244         142.648
0.619                   -3.02102         169.644         -47.4314        -48.7933         -47.4307         -48.802       -0.0236742         142.567
0.62                    -3.07861         168.801         -47.3531        -50.7723         -47.3524        -50.7811       -0.0239271         142.485
0.621                   -3.13839          167.95         -47.2743        -52.7484         -47.2737        -52.7574       -0.0241832         142.404
0.622                   -3.20043         167.092         -47.1952        -54.7221         -47.1946        -54.7311       -0.0244424         142.322
0.623                   -3.26482         166.228         -47.1156        -56.6938         -47.1151        -56.7026        -0.024705          142.24
0.624                   -3.33165         165.358         -47.0357        -58.6636         -47.0352        -58.6722        -0.024971         142.158
0.625                   -3.40101         164.483         -46.9554         -60.632         -46.9549        -60.6404       -0.0252405         142.075
0.626                   -3.47298         163.601         -46.8747        -62.5993         -46.8743        -62.6073       -0.0255136         141.992
0.627                   -3.54765         162.716         -46.7937        -64.5656         -46.7934        -64.5733       -0.0257904         141.909
0.628                   -3.62511         161.826         -46.7124        -66.5314         -46.7121        -66.5386        -0.026071         141.826
0.629                   -3.70544         160.932         -46.6308        -68.4969         -46.6306        -68.5036       -0.0263556         141.742
