! TOUCHSTONE file generated by CST MICROWAVE STUDIO
! Date and time: Sat Oct 24 11:45:01 2020
! Project name: Scenario_1_Circular_Tissue_out_of_Line.cst
! Parameters = {dy1=-85.885; L_HA=400; MT=2.54; Rad_Dielectric=30; Rad_Lower=7.3; Rad_Upper=30; a_HA=580; a_WG=246; b_HA=500; b_WG=121; c_HA=0; c_WG=187; d_feed=85; dx1=1039; h_feed=15; h_lower=18; h_upper=40}
! Header version: 2018
! Port assignment regex: !\s*Touchstone port\s*([0-9]+)\s*=\s*(CST MWS port|CST DS port)\s*([0-9]+|Zmin|Zmax)\s*\(\"(.*)\"\)(\s*mode\s*([0-9]+))?.*
! Touchstone port assignment:
! Touchstone port 1 = CST MWS port 1 ("")
! Touchstone port 2 = CST MWS port 2 ("")
# GHz S DB R 50
0.5                    -0.146788        -122.264         -63.2967        -2.76058         -63.2957        -2.76008      -0.00762822         151.143
0.501                  -0.150972          -122.7         -63.1616        -5.04606         -63.1609        -5.04135      -0.00768735         151.078
0.502                  -0.155293        -123.139         -63.0249        -7.32139         -63.0243         -7.3132      -0.00774686         151.012
0.503                  -0.159758        -123.581         -62.8865        -9.58763         -62.8862        -9.57662      -0.00780677         150.947
0.504                  -0.164377        -124.025         -62.7465        -11.8458         -62.7463        -11.8326       -0.0078671         150.882
0.505                  -0.169159        -124.473         -62.6049        -14.0971         -62.6047        -14.0821      -0.00792786         150.816
0.506                  -0.174114        -124.923         -62.4615        -16.3424         -62.4614        -16.3263      -0.00798907         150.751
0.507                  -0.179254        -125.376         -62.3163        -18.5828         -62.3163        -18.5659      -0.00805075         150.685
0.508                  -0.184589        -125.832         -62.1695        -20.8195         -62.1695        -20.8022      -0.00811293         150.619
0.509                  -0.190131        -126.291         -62.0208        -23.0535         -62.0209         -23.036      -0.00817563         150.553
0.51                   -0.195893        -126.753         -61.8704        -25.2857         -61.8705        -25.2685      -0.00823887         150.487
0.511                  -0.201887        -127.218         -61.7182        -27.5174         -61.7184        -27.5006      -0.00830268         150.421
0.512                  -0.208128        -127.686         -61.5643        -29.7494         -61.5645        -29.7333      -0.00836709         150.355
0.513                  -0.214629        -128.157         -61.4085         -31.983         -61.4088        -31.9677      -0.00843213         150.289
0.514                  -0.221406        -128.631         -61.2511        -34.2191         -61.2513        -34.2048      -0.00849783         150.223
0.515                  -0.228474        -129.108         -61.0919        -36.4587         -61.0922        -36.4455      -0.00856423         150.157
0.516                   -0.23585        -129.589          -60.931         -38.703         -60.9313         -38.691      -0.00863138          150.09
0.517                   -0.24355        -130.072         -60.7685        -40.9529         -60.7688        -40.9421       -0.0086993         150.024
0.518                  -0.251591        -130.559         -60.6043        -43.2095         -60.6046           -43.2      -0.00876804         149.957
0.519                  -0.259992        -131.048         -60.4385        -45.4738         -60.4389        -45.4656      -0.00883764          149.89
0.52                   -0.268771        -131.541         -60.2712        -47.7468         -60.2716        -47.7398      -0.00890817         149.824
0.521                  -0.277947        -132.036         -60.1024        -50.0295         -60.1029        -50.0238      -0.00897965         149.757
0.522                  -0.287538        -132.535         -59.9323        -52.3228         -59.9327        -52.3183      -0.00905216          149.69
0.523                  -0.297564        -133.037         -59.7608        -54.6278         -59.7613        -54.6245      -0.00912573         149.623
0.524                  -0.308045        -133.541         -59.5881        -56.9453         -59.5886        -56.9431      -0.00920044         149.556
0.525                  -0.318998        -134.048         -59.4142        -59.2763         -59.4148        -59.2752      -0.00927635         149.489
0.526                  -0.330444        -134.558         -59.2394        -61.6217           -59.24        -61.6215      -0.00935351         149.421
0.527                  -0.342401         -135.07         -59.0636        -63.9822         -59.0642        -63.9829      -0.00943198         149.354
0.528                  -0.354887        -135.585          -58.887        -66.3587         -58.8876        -66.3602      -0.00951185         149.286
0.529                  -0.367918        -136.102         -58.7097         -68.752         -58.7104        -68.7542      -0.00959316         149.219
0.53                    -0.38151        -136.622         -58.5319        -71.1628         -58.5326        -71.1656        -0.009676         149.151
0.531                  -0.395678        -137.143         -58.3538        -73.5917         -58.3545         -73.595      -0.00976042         149.083
0.532                  -0.410434        -137.667         -58.1754        -76.0393         -58.1762         -76.043       -0.0098465         149.015
0.533                  -0.425787        -138.192          -57.997        -78.5061         -57.9978        -78.5102      -0.00993431         148.947
0.534                  -0.441747        -138.718         -57.8187        -80.9927         -57.8196         -80.997       -0.0100239         148.879
0.535                  -0.458316        -139.246         -57.6408        -83.4993         -57.6416        -83.5037       -0.0101153         148.811
0.536                  -0.475498        -139.775         -57.4633        -86.0262         -57.4642        -86.0307       -0.0102087         148.743
0.537                  -0.493289        -140.305         -57.2866        -88.5737         -57.2875        -88.5781        -0.010304         148.674
0.538                  -0.511684        -140.835         -57.1108        -91.1417         -57.1117         -91.146       -0.0104013         148.606
0.539                  -0.530672        -141.366         -56.9362        -93.7303          -56.937        -93.7345       -0.0105007         148.537
0.54                   -0.550238        -141.896         -56.7628        -96.3393         -56.7637        -96.3432       -0.0106021         148.468
0.541                  -0.570362        -142.427         -56.5911        -98.9684         -56.5919         -98.972       -0.0107057         148.399
0.542                   -0.59102        -142.957         -56.4211        -101.617         -56.4219        -101.621       -0.0108114         148.331
0.543                  -0.612181        -143.487         -56.2531        -104.285         -56.2538        -104.288       -0.0109193         148.262
0.544                  -0.633813        -144.016         -56.0872        -106.972         -56.0879        -106.974       -0.0110293         148.192
0.545                  -0.655874        -144.544         -55.9238        -109.676         -55.9244        -109.678       -0.0111414         148.123
0.546                  -0.678322        -145.071         -55.7629        -112.397         -55.7635        -112.399       -0.0112556         148.054
0.547                  -0.701109        -145.597         -55.6047        -115.134         -55.6053        -115.136        -0.011372         147.984
0.548                  -0.724184        -146.122         -55.4496        -117.886           -55.45        -117.887       -0.0114903         147.915
0.549                  -0.747493        -146.645         -55.2974        -120.651         -55.2979        -120.652       -0.0116106         147.845
0.55                   -0.770982        -147.167         -55.1485        -123.428         -55.1489        -123.429       -0.0117329         147.775
0.551                  -0.794592        -147.688          -55.003        -126.216         -55.0032        -126.216        -0.011857         147.706
0.552                  -0.818268        -148.208         -54.8609        -129.013          -54.861        -129.013       -0.0119829         147.636
0.553                  -0.841954        -148.728         -54.7223        -131.817         -54.7224        -131.817       -0.0121105         147.565
0.554                  -0.865597        -149.246         -54.5872        -134.627         -54.5873        -134.627       -0.0122396         147.495
0.555                  -0.889145        -149.764         -54.4558        -137.442         -54.4558        -137.441       -0.0123703         147.425
0.556                  -0.912554        -150.282          -54.328        -140.259         -54.3279        -140.257       -0.0125024         147.355
0.557                  -0.935781          -150.8         -54.2038        -143.076         -54.2036        -143.075       -0.0126358         147.284
0.558                  -0.958791        -151.319         -54.0831        -145.893         -54.0828        -145.891       -0.0127705         147.213
0.559                  -0.981556        -151.838         -53.9659        -148.707         -53.9656        -148.706       -0.0129062         147.143
0.56                    -1.00405         -152.36         -53.8522        -151.517         -53.8518        -151.516       -0.0130431         147.072
0.561                   -1.02627        -152.883         -53.7417        -154.322         -53.7413        -154.321       -0.0131809         147.001
0.562                    -1.0482        -153.408         -53.6345         -157.12          -53.634        -157.118       -0.0133196          146.93
0.563                   -1.06985        -153.937         -53.5302        -159.909         -53.5297        -159.908       -0.0134591         146.858
0.564                   -1.09122        -154.469         -53.4289        -162.689         -53.4284        -162.688       -0.0135995         146.787
0.565                   -1.11234        -155.005         -53.3303        -165.459         -53.3297        -165.457       -0.0137405         146.715
0.566                   -1.13322        -155.545         -53.2342        -168.217         -53.2336        -168.215       -0.0138822         146.644
0.567                   -1.15391         -156.09         -53.1404        -170.962         -53.1398        -170.961       -0.0140246         146.572
0.568                   -1.17443         -156.64         -53.0488        -173.695         -53.0482        -173.694       -0.0141676           146.5
0.569                   -1.19484        -157.196         -52.9591        -176.414         -52.9585        -176.413       -0.0143112         146.428
0.57                    -1.21518        -157.758         -52.8712        -179.119         -52.8706        -179.118       -0.0144554         146.356
0.571                   -1.23551        -158.326         -52.7848         178.191         -52.7842         178.191       -0.0146003         146.284
0.572                   -1.25588        -158.901         -52.6997         175.515         -52.6991         175.515       -0.0147457         146.211
0.573                   -1.27637        -159.483         -52.6157         172.853         -52.6152         172.854       -0.0148918         146.139
0.574                   -1.29703        -160.072         -52.5326         170.206         -52.5321         170.207       -0.0150386         146.066
0.575                   -1.31793        -160.668         -52.4503         167.574         -52.4498         167.574       -0.0151861         145.993
0.576                   -1.33914        -161.272         -52.3686         164.955         -52.3681         164.956       -0.0153343          145.92
0.577                   -1.36074        -161.883         -52.2872          162.35         -52.2867         162.351       -0.0154834         145.847
0.578                   -1.38279        -162.503          -52.206         159.759         -52.2056         159.759       -0.0156333         145.774
0.579                   -1.40537         -163.13         -52.1248          157.18         -52.1245         157.181        -0.015784           145.7
0.58                    -1.42855        -163.765         -52.0436         154.614         -52.0433         154.614       -0.0159358         145.627
0.581                   -1.45241        -164.409         -51.9622         152.059         -51.9619         152.059       -0.0160886         145.553
0.582                   -1.47702         -165.06         -51.8805         149.514         -51.8802         149.515       -0.0162424         145.479
0.583                   -1.50245        -165.719         -51.7983          146.98          -51.798         146.981       -0.0163975         145.405
0.584                   -1.52878        -166.385         -51.7155         144.455         -51.7153         144.456       -0.0165538         145.331
0.585                   -1.55608         -167.06         -51.6322         141.938          -51.632         141.939       -0.0167114         145.256
0.586                   -1.58443        -167.742         -51.5481         139.429         -51.5479          139.43       -0.0168704         145.182
0.587                   -1.61388        -168.431         -51.4633         136.927         -51.4632         136.928       -0.0170309         145.107
0.588                   -1.64453        -169.128         -51.3778         134.431         -51.3776         134.432        -0.017193         145.032
0.589                   -1.67643        -169.831         -51.2914         131.939         -51.2913         131.941       -0.0173567         144.957
0.59                    -1.70965        -170.541         -51.2041         129.452          -51.204         129.453       -0.0175221         144.882
0.591                   -1.74426        -171.258         -51.1161         126.968          -51.116         126.969       -0.0176894         144.807
0.592                   -1.78033        -171.981         -51.0271         124.486         -51.0271         124.488       -0.0178586         144.731
0.593                   -1.81791        -172.709         -50.9374         122.006         -50.9373         122.008       -0.0180298         144.655
0.594                   -1.85708        -173.443         -50.8468         119.527         -50.8467         119.529       -0.0182031         144.579
0.595                   -1.89788        -174.183         -50.7554         117.048         -50.7554          117.05       -0.0183785         144.503
0.596                   -1.94039        -174.926         -50.6633         114.568         -50.6633          114.57       -0.0185562         144.427
0.597                   -1.98464        -175.674         -50.5705         112.087         -50.5705         112.089       -0.0187363          144.35
0.598                   -2.03069        -176.426         -50.4771         109.604         -50.4771         109.605       -0.0189189         144.273
0.599                   -2.07858        -177.181         -50.3832         107.118         -50.3832         107.119       -0.0191039         144.197
0.6                     -2.12836        -177.938         -50.2887         104.629         -50.2887          104.63       -0.0192917         144.119
0.601                   -2.18006        -178.697         -50.1938         102.136         -50.1939         102.138       -0.0194821         144.042
0.602                   -2.23371        -179.458         -50.0986         99.6394         -50.0987         99.6407       -0.0196753         143.965
0.603                   -2.28934          179.78         -50.0032         97.1379         -50.0033         97.1392       -0.0198715         143.887
0.604                   -2.34696         179.019         -49.9077         94.6316         -49.9077         94.6328       -0.0200706         143.809
0.605                   -2.40659         178.258         -49.8121         92.1202         -49.8121         92.1214       -0.0202728         143.731
0.606                   -2.46821         177.498         -49.7165         89.6034         -49.7166         89.6045       -0.0204781         143.653
0.607                   -2.53184          176.74         -49.6212         87.0812         -49.6212         87.0822       -0.0206867         143.574
0.608                   -2.59744         175.985         -49.5261         84.5534         -49.5262         84.5543       -0.0208986         143.495
0.609                     -2.665         175.234         -49.4314           82.02         -49.4314         82.0209       -0.0211139         143.416
0.61                    -2.73447         174.486         -49.3371         79.4812         -49.3372          79.482       -0.0213326         143.337
0.611                   -2.80581         173.744         -49.2435         76.9369         -49.2435         76.9376       -0.0215549         143.258
0.612                   -2.87896         173.007         -49.1505         74.3875         -49.1506         74.3881       -0.0217808         143.178
0.613                   -2.95385         172.276         -49.0582         71.8331         -49.0583         71.8337       -0.0220103         143.098
0.614                   -3.03039         171.553         -48.9669          69.274          -48.967         69.2746       -0.0222436         143.018
0.615                    -3.1085         170.837         -48.8765         66.7107         -48.8766         66.7112       -0.0224807         142.938
0.616                   -3.18807         170.129         -48.7871         64.1435         -48.7872         64.1439       -0.0227216         142.858
0.617                   -3.26898          169.43         -48.6988         61.5728         -48.6989         61.5733       -0.0229664         142.777
0.618                   -3.35111          168.74         -48.6116         58.9993         -48.6118         58.9997       -0.0232151         142.696
0.619                   -3.43432         168.059         -48.5257         56.4234         -48.5259         56.4238       -0.0234678         142.615
0.62                    -3.51849         167.388         -48.4411         53.8457         -48.4412         53.8461       -0.0237246         142.533
0.621                   -3.60345         166.727         -48.3578         51.2669         -48.3579         51.2672       -0.0239854         142.452
0.622                   -3.68906         166.076         -48.2758         48.6874         -48.2759         48.6877       -0.0242503          142.37
0.623                   -3.77516         165.434         -48.1951         46.1081         -48.1953         46.1084       -0.0245193         142.287
0.624                    -3.8616         164.802         -48.1159         43.5295         -48.1161         43.5298       -0.0247925         142.205
0.625                   -3.94822         164.179          -48.038         40.9522         -48.0382         40.9526       -0.0250698         142.122
0.626                   -4.03487         163.566         -47.9615          38.377         -47.9617         38.3774       -0.0253514         142.039
0.627                   -4.12142          162.96         -47.8863         35.8044         -47.8865         35.8048       -0.0256372         141.956
0.628                   -4.20771         162.362         -47.8125         33.2352         -47.8127         33.2356       -0.0259273         141.873
0.629                   -4.29363         161.771         -47.7399         30.6698         -47.7401         30.6702       -0.0262217         141.789
