! TOUCHSTONE file generated by CST MICROWAVE STUDIO
! Date and time: Wed Oct 28 19:36:43 2020
! Project name: Scenario_1_Circular_Tissue_out_of_Line_v2.cst
! Parameters = {dy1=-69.2; L_HA=400; MT=2.54; Rad_Dielectric=30; Rad_Lower=7.3; Rad_Upper=30; a_HA=580; a_WG=246; b_HA=500; b_WG=121; c_HA=0; c_WG=187; d_feed=85; dx1=346; h_feed=15; h_lower=18; h_upper=40}
! Header version: 2018
! Port assignment regex: !\s*Touchstone port\s*([0-9]+)\s*=\s*(CST MWS port|CST DS port)\s*([0-9]+|Zmin|Zmax)\s*\(\"(.*)\"\)(\s*mode\s*([0-9]+))?.*
! Touchstone port assignment:
! Touchstone port 1 = CST MWS port 1 ("")
! Touchstone port 2 = CST MWS port 2 ("")
# GHz S DB R 50
0.5                    -0.174637        -122.311         -58.4386         31.6476         -58.4386         31.6476      -0.00783948         151.121
0.501                  -0.179931        -122.731         -58.3133         30.1221         -58.3133         30.1227      -0.00790843         151.056
0.502                  -0.185253        -123.153         -58.1879         28.6027          -58.188         28.6038      -0.00797769         150.991
0.503                  -0.190607        -123.578         -58.0625         27.0894         -58.0626          27.091      -0.00804728         150.925
0.504                  -0.195997        -124.005          -57.937          25.582         -57.9371          25.584      -0.00811719          150.86
0.505                  -0.201427        -124.435         -57.8114         24.0805         -57.8115          24.083      -0.00818743         150.794
0.506                  -0.206901        -124.867         -57.6857         22.5848         -57.6858         22.5876        -0.008258         150.729
0.507                  -0.212425        -125.302         -57.5599         21.0948         -57.5599          21.098       -0.0083289         150.663
0.508                  -0.218003        -125.739         -57.4338         19.6104         -57.4339         19.6138      -0.00840014         150.597
0.509                   -0.22364        -126.179         -57.3076         18.1314         -57.3077         18.1352      -0.00847171         150.532
0.51                   -0.229341        -126.621         -57.1812         16.6578         -57.1812         16.6618      -0.00854361         150.466
0.511                  -0.235112        -127.066         -57.0545         15.1895         -57.0546         15.1937      -0.00861586           150.4
0.512                  -0.240959        -127.514         -56.9277         13.7262         -56.9277         13.7307      -0.00868846         150.334
0.513                  -0.246887        -127.965         -56.8005         12.2679         -56.8005         12.2725       -0.0087614         150.268
0.514                  -0.252903        -128.418         -56.6731         10.8145         -56.6731         10.8192      -0.00883469         150.202
0.515                  -0.259013        -128.874         -56.5454         9.36573         -56.5454         9.37059      -0.00890833         150.135
0.516                  -0.265223        -129.334         -56.4173          7.9215         -56.4173         7.92644      -0.00898233         150.069
0.517                  -0.271541        -129.796         -56.2889         6.48163         -56.2889         6.48663      -0.00905668         150.003
0.518                  -0.277973        -130.261         -56.1602         5.04597         -56.1601           5.051      -0.00913141         149.936
0.519                  -0.284527        -130.729         -56.0311         3.61433          -56.031         3.61938      -0.00920649         149.869
0.52                    -0.29121        -131.201         -55.9016         2.18655         -55.9014         2.19159      -0.00928195         149.803
0.521                  -0.298031        -131.675         -55.7716        0.762441         -55.7715        0.767441      -0.00935778         149.736
0.522                  -0.304998        -132.153         -55.6413       -0.658188         -55.6411       -0.653241        -0.009434         149.669
0.523                  -0.312119        -132.634         -55.5104        -2.07553         -55.5103        -2.07065      -0.00951059         149.602
0.524                  -0.319404        -133.118         -55.3791        -3.48978         -55.3789        -3.48499      -0.00958758         149.535
0.525                  -0.326861        -133.606         -55.2474        -4.90114         -55.2471        -4.89647      -0.00966496         149.468
0.526                    -0.3345        -134.097         -55.1151        -6.30983         -55.1148        -6.30527      -0.00974273         149.401
0.527                  -0.342331        -134.591         -54.9823        -7.71605          -54.982        -7.71163      -0.00982092         149.333
0.528                  -0.350365        -135.089         -54.8489        -9.12002         -54.8486        -9.11576      -0.00989951         149.266
0.529                  -0.358612         -135.59          -54.715         -10.522         -54.7147        -10.5179      -0.00997852         149.199
0.53                   -0.367083        -136.095         -54.5805        -11.9221         -54.5802        -11.9182        -0.010058         149.131
0.531                   -0.37579        -136.603         -54.4455        -13.3207         -54.4452         -13.317       -0.0101378         149.063
0.532                  -0.384745        -137.115         -54.3099         -14.718         -54.3095        -14.7145       -0.0102181         148.995
0.533                  -0.393959        -137.631         -54.1736        -16.1142         -54.1733        -16.1108       -0.0102989         148.928
0.534                  -0.403447        -138.151         -54.0367        -17.5095         -54.0364        -17.5064       -0.0103801          148.86
0.535                  -0.413221        -138.674         -53.8992        -18.9043         -53.8989        -18.9014       -0.0104618         148.792
0.536                  -0.423295        -139.201         -53.7611        -20.2987         -53.7607         -20.296       -0.0105439         148.723
0.537                  -0.433683        -139.732         -53.6223        -21.6931         -53.6219        -21.6906       -0.0106266         148.655
0.538                  -0.444399        -140.266         -53.4828        -23.0876         -53.4825        -23.0854       -0.0107097         148.587
0.539                   -0.45546        -140.805         -53.3427        -24.4826         -53.3423        -24.4806       -0.0107934         148.518
0.54                   -0.466881        -141.347         -53.2019        -25.8784         -53.2015        -25.8766       -0.0108775          148.45
0.541                  -0.478678        -141.894         -53.0604        -27.2751         -53.0601        -27.2736       -0.0109622         148.381
0.542                  -0.490868        -142.444         -52.9183        -28.6731         -52.9179        -28.6718       -0.0110475         148.312
0.543                  -0.503469        -142.999         -52.7754        -30.0727          -52.775        -30.0717       -0.0111333         148.243
0.544                  -0.516497        -143.558         -52.6319        -31.4741         -52.6315        -31.4733       -0.0112197         148.174
0.545                  -0.529973         -144.12         -52.4876        -32.8777         -52.4873        -32.8771       -0.0113068         148.105
0.546                  -0.543915        -144.687         -52.3427        -34.2837         -52.3423        -34.2834       -0.0113944         148.036
0.547                  -0.558342        -145.258         -52.1971        -35.6925         -52.1967        -35.6924       -0.0114827         147.966
0.548                  -0.573275        -145.833         -52.0508        -37.1043         -52.0504        -37.1044       -0.0115716         147.897
0.549                  -0.588735        -146.412         -51.9038        -38.5194         -51.9034        -38.5197       -0.0116612         147.827
0.55                   -0.604743        -146.995         -51.7561        -39.9381         -51.7557        -39.9386       -0.0117515         147.758
0.551                  -0.621321        -147.582         -51.6077        -41.3608         -51.6074        -41.3615       -0.0118426         147.688
0.552                  -0.638493        -148.173         -51.4587        -42.7878         -51.4584        -42.7887       -0.0119344         147.618
0.553                   -0.65628        -148.769          -51.309        -44.2193         -51.3088        -44.2204        -0.012027         147.548
0.554                  -0.674707        -149.368         -51.1587        -45.6557         -51.1585         -45.657       -0.0121205         147.478
0.555                  -0.693798        -149.972         -51.0078        -47.0973         -51.0075        -47.0987       -0.0122148         147.407
0.556                  -0.713578        -150.579         -50.8563        -48.5444          -50.856         -48.546         -0.01231         147.337
0.557                  -0.734073        -151.191         -50.7041        -49.9973         -50.7039         -49.999       -0.0124061         147.266
0.558                  -0.755307        -151.806         -50.5514        -51.4563         -50.5512        -51.4582       -0.0125032         147.196
0.559                  -0.777308        -152.425         -50.3981        -52.9218         -50.3979        -52.9238       -0.0126012         147.125
0.56                   -0.800102        -153.049         -50.2443        -54.3941         -50.2442        -54.3962       -0.0127004         147.054
0.561                  -0.823716        -153.675         -50.0901        -55.8734         -50.0899        -55.8757       -0.0128006         146.983
0.562                  -0.848177        -154.306         -49.9353        -57.3601         -49.9352        -57.3625        -0.012902         146.912
0.563                  -0.873513         -154.94         -49.7801        -58.8545           -49.78        -58.8569       -0.0130046          146.84
0.564                  -0.899751        -155.577         -49.6245        -60.3569         -49.6244        -60.3594       -0.0131084         146.769
0.565                  -0.926919        -156.218         -49.4685        -61.8676         -49.4684        -61.8701       -0.0132135         146.697
0.566                  -0.955046        -156.862         -49.3122        -63.3868         -49.3121        -63.3894         -0.01332         146.626
0.567                  -0.984158         -157.51         -49.1556        -64.9149         -49.1556        -64.9175       -0.0134279         146.554
0.568                   -1.01428         -158.16         -48.9987        -66.4521         -48.9987        -66.4548       -0.0135374         146.482
0.569                   -1.04545        -158.813         -48.8417        -67.9987         -48.8417        -68.0014       -0.0136484         146.409
0.57                    -1.07768        -159.468         -48.6845         -69.555         -48.6845        -69.5577        -0.013761         146.337
0.571                     -1.111        -160.126         -48.5272        -71.1212         -48.5273        -71.1239       -0.0138753         146.265
0.572                   -1.14544        -160.786         -48.3699        -72.6975         -48.3699        -72.7002       -0.0139914         146.192
0.573                   -1.18103        -161.448         -48.2125        -74.2841         -48.2126        -74.2868       -0.0141094         146.119
0.574                   -1.21778        -162.112         -48.0553        -75.8814         -48.0554         -75.884       -0.0142293         146.046
0.575                   -1.25571        -162.777         -47.8982        -77.4893         -47.8983        -77.4919       -0.0143512         145.973
0.576                   -1.29485        -163.444         -47.7412        -79.1082         -47.7414        -79.1107       -0.0144753           145.9
0.577                   -1.33522        -164.111         -47.5846        -80.7382         -47.5847        -80.7406       -0.0146015         145.827
0.578                   -1.37682        -164.779         -47.4283        -82.3793         -47.4284        -82.3817         -0.01473         145.753
0.579                   -1.41968        -165.448         -47.2724        -84.0318         -47.2726        -84.0341        -0.014861          145.68
0.58                    -1.46381        -166.116         -47.1169        -85.6956         -47.1171        -85.6979       -0.0149943         145.606
0.581                   -1.50921        -166.785         -46.9621        -87.3709         -46.9623        -87.3731       -0.0151303         145.532
0.582                   -1.55589        -167.452         -46.8079        -89.0577         -46.8081        -89.0597       -0.0152689         145.458
0.583                   -1.60386        -168.118         -46.6544        -90.7559         -46.6546        -90.7579       -0.0154103         145.383
0.584                    -1.6531        -168.783         -46.5017        -92.4656         -46.5019        -92.4675       -0.0155546         145.309
0.585                   -1.70362        -169.447         -46.3498        -94.1867         -46.3501        -94.1885       -0.0157018         145.234
0.586                    -1.7554        -170.108          -46.199        -95.9191         -46.1992        -95.9207       -0.0158521         145.159
0.587                   -1.80843        -170.766         -46.0492        -97.6626         -46.0494        -97.6641       -0.0160055         145.084
0.588                    -1.8627        -171.421         -45.9005        -99.4171         -45.9007        -99.4186       -0.0161621         145.009
0.589                   -1.91817        -172.073          -45.753        -101.182         -45.7533        -101.184       -0.0163221         144.934
0.59                    -1.97482        -172.721         -45.6068        -102.958         -45.6071         -102.96       -0.0164854         144.858
0.591                   -2.03261        -173.365         -45.4621        -104.745         -45.4623        -104.746       -0.0166523         144.783
0.592                   -2.09151        -174.005         -45.3187        -106.541          -45.319        -106.542       -0.0168228         144.707
0.593                   -2.15146        -174.639         -45.1769        -108.347         -45.1772        -108.348       -0.0169969         144.631
0.594                   -2.21242        -175.268         -45.0367        -110.162          -45.037        -110.163       -0.0171747         144.554
0.595                   -2.27432        -175.892         -44.8982        -111.986         -44.8984        -111.987       -0.0173563         144.478
0.596                   -2.33711        -176.509         -44.7614        -113.818         -44.7617        -113.819       -0.0175418         144.401
0.597                   -2.40072         -177.12         -44.6265        -115.659         -44.6267        -115.659       -0.0177312         144.325
0.598                   -2.46506        -177.725         -44.4934        -117.507         -44.4936        -117.507       -0.0179246         144.248
0.599                   -2.53007        -178.322         -44.3623        -119.361         -44.3625        -119.362       -0.0181219         144.171
0.6                     -2.59566        -178.913         -44.2332        -121.222         -44.2334        -121.223       -0.0183233         144.093
0.601                   -2.66174        -179.497         -44.1061        -123.089         -44.1062        -123.089       -0.0185288         144.016
0.602                   -2.72821         179.927          -43.981        -124.961         -43.9812        -124.961       -0.0187384         143.938
0.603                   -2.79499         179.358         -43.8581        -126.837         -43.8583        -126.837       -0.0189521          143.86
0.604                   -2.86197         178.796         -43.7373        -128.717         -43.7375        -128.717         -0.01917         143.782
0.605                   -2.92906         178.241         -43.6187          -130.6         -43.6188          -130.6       -0.0193919         143.704
0.606                   -2.99615         177.694         -43.5023        -132.485         -43.5024        -132.485        -0.019618         143.625
0.607                   -3.06314         177.153          -43.388        -134.372         -43.3881        -134.372       -0.0198483         143.547
0.608                   -3.12993          176.62         -43.2759         -136.26          -43.276         -136.26       -0.0200827         143.468
0.609                   -3.19642         176.092          -43.166        -138.149         -43.1661        -138.149       -0.0203211         143.389
0.61                    -3.26252         175.571         -43.0582        -140.037         -43.0583        -140.037       -0.0205637         143.309
0.611                   -3.32812         175.055         -42.9526        -141.924         -42.9527        -141.924       -0.0208104          143.23
0.612                   -3.39315         174.544         -42.8492        -143.809         -42.8492        -143.809        -0.021061          143.15
0.613                   -3.45752         174.037         -42.7478        -145.692         -42.7478        -145.692       -0.0213157          143.07
0.614                   -3.52115         173.535         -42.6484        -147.572         -42.6485        -147.572       -0.0215743          142.99
0.615                   -3.58397         173.035          -42.551        -149.448         -42.5511        -149.448       -0.0218369          142.91
0.616                   -3.64592         172.539         -42.4556         -151.32         -42.4557         -151.32       -0.0221034         142.829
0.617                   -3.70695         172.043         -42.3621        -153.187         -42.3621        -153.187       -0.0223738         142.748
0.618                   -3.76702         171.549         -42.2704        -155.049         -42.2705        -155.049        -0.022648         142.667
0.619                   -3.82609         171.055         -42.1805        -156.905         -42.1805        -156.905       -0.0229261         142.586
0.62                    -3.88414          170.56         -42.0923        -158.755         -42.0923        -158.755       -0.0232079         142.504
0.621                   -3.94115         170.064         -42.0056        -160.598         -42.0057        -160.598       -0.0234934         142.423
0.622                   -3.99713         169.565         -41.9206        -162.434         -41.9206        -162.434       -0.0237827         142.341
0.623                   -4.05209         169.062          -41.837        -164.262          -41.837        -164.262       -0.0240757         142.258
0.624                   -4.10605         168.555         -41.7547        -166.083         -41.7547        -166.083       -0.0243723         142.176
0.625                   -4.15903         168.044         -41.6738        -167.896         -41.6738        -167.896       -0.0246726         142.093
0.626                   -4.21108         167.526         -41.5941          -169.7         -41.5941          -169.7       -0.0249766          142.01
0.627                   -4.26226         167.001         -41.5155        -171.496         -41.5155        -171.496       -0.0252842         141.927
0.628                   -4.31262         166.468         -41.4379        -173.283         -41.4379        -173.283       -0.0255955         141.844
0.629                   -4.36224         165.927         -41.3613        -175.062         -41.3613        -175.062       -0.0259104          141.76
