! TOUCHSTONE file generated by CST MICROWAVE STUDIO
! Date and time: Fri Oct 30 07:55:00 2020
! Project name: Scenario_1_Circular_Tissue_out_of_Line.cst
! Parameters = {dy1=-68.544; L_HA=400; MT=2.54; Rad_Dielectric=30; Rad_Lower=7.3; Rad_Upper=30; a_HA=580; a_WG=246; b_HA=500; b_WG=121; c_HA=0; c_WG=187; d_feed=85; dx1=520; h_feed=15; h_lower=18; h_upper=40}
! Header version: 2018
! Port assignment regex: !\s*Touchstone port\s*([0-9]+)\s*=\s*(CST MWS port|CST DS port)\s*([0-9]+|Zmin|Zmax)\s*\(\"(.*)\"\)(\s*mode\s*([0-9]+))?.*
! Touchstone port assignment:
! Touchstone port 1 = CST MWS port 1 ("")
! Touchstone port 2 = CST MWS port 2 ("")
# GHz S DB R 50
0.5                    -0.131769        -122.536         -61.1525         -60.498         -61.1525         -60.498      -0.00738156         151.132
0.501                   -0.14241        -122.992         -60.9891        -63.2455         -60.9851        -63.2394       -0.0074493         151.067
0.502                    -0.1532        -123.448         -60.8211        -65.9298         -60.8134        -65.9168      -0.00751816         151.001
0.503                  -0.164135        -123.905         -60.6491        -68.5521         -60.6382        -68.5318      -0.00758816         150.936
0.504                  -0.175213        -124.362         -60.4739        -71.1139           -60.46        -71.0861      -0.00765929          150.87
0.505                  -0.186431         -124.82         -60.2961        -73.6172         -60.2795        -73.5817      -0.00773156         150.804
0.506                  -0.197787        -125.279         -60.1163        -76.0639         -60.0971        -76.0208      -0.00780496         150.739
0.507                  -0.209277        -125.738         -59.9348        -78.4562         -59.9135        -78.4057      -0.00787951         150.673
0.508                  -0.220898        -126.198         -59.7521        -80.7965         -59.7289        -80.7387      -0.00795519         150.607
0.509                   -0.23265        -126.658         -59.5688        -83.0869         -59.5438        -83.0221      -0.00803201         150.541
0.51                   -0.244527        -127.119          -59.385        -85.3298         -59.3586        -85.2585      -0.00810998         150.475
0.511                  -0.256529        -127.581          -59.201        -87.5277         -59.1733        -87.4502      -0.00818908         150.409
0.512                  -0.268652        -128.044         -59.0173        -89.6827         -58.9884        -89.5994      -0.00826933         150.343
0.513                  -0.280895        -128.507         -58.8338        -91.7972         -58.8041        -91.7087      -0.00835073         150.276
0.514                  -0.293253        -128.972          -58.651        -93.8734         -58.6204        -93.7801      -0.00843327          150.21
0.515                  -0.305727        -129.437         -58.4689        -95.9134         -58.4377        -95.8158      -0.00851695         150.144
0.516                  -0.318312        -129.903         -58.2876        -97.9193         -58.2559        -97.8179      -0.00860178         150.077
0.517                  -0.331007         -130.37         -58.1073        -99.8932         -58.0752        -99.7884      -0.00868775         150.011
0.518                   -0.34381        -130.837         -57.9281        -101.837         -57.8957        -101.729      -0.00877486         149.944
0.519                  -0.356718        -131.306         -57.7501        -103.752         -57.7175        -103.642      -0.00886311         149.877
0.52                   -0.369731        -131.776         -57.5733        -105.641         -57.5405        -105.529      -0.00895251          149.81
0.521                  -0.382845        -132.247         -57.3977        -107.505         -57.3649        -107.392      -0.00904304         149.743
0.522                  -0.396059        -132.718         -57.2234        -109.346         -57.1907        -109.232      -0.00913472         149.677
0.523                  -0.409372        -133.191         -57.0505        -111.165         -57.0179        -111.051      -0.00922752         149.609
0.524                  -0.422781        -133.666         -56.8788        -112.964         -56.8465        -112.849      -0.00932147         149.542
0.525                  -0.436286        -134.141         -56.7086        -114.745         -56.6765         -114.63      -0.00941654         149.475
0.526                  -0.449885        -134.617         -56.5396        -116.507         -56.5079        -116.393      -0.00951274         149.408
0.527                  -0.463577        -135.095          -56.372        -118.254         -56.3407        -118.141      -0.00961007          149.34
0.528                  -0.477361        -135.575         -56.2057        -119.985         -56.1749        -119.874      -0.00970852         149.273
0.529                  -0.491235        -136.055         -56.0407        -121.703         -56.0104        -121.593      -0.00980809         149.205
0.53                     -0.5052        -136.537         -55.8771        -123.408         -55.8472          -123.3      -0.00990877         149.137
0.531                  -0.519255        -137.021         -55.7146        -125.102         -55.6854        -124.995       -0.0100106          149.07
0.532                  -0.533398        -137.506         -55.5534        -126.784         -55.5248        -126.681       -0.0101135         149.002
0.533                  -0.547631        -137.992         -55.3934        -128.457         -55.3655        -128.356       -0.0102175         148.934
0.534                  -0.561952        -138.481         -55.2346        -130.121         -55.2074        -130.023       -0.0103226         148.866
0.535                  -0.576362        -138.971         -55.0769        -131.777         -55.0505        -131.683       -0.0104287         148.798
0.536                  -0.590861        -139.462         -54.9203        -133.427         -54.8947        -133.335        -0.010536         148.729
0.537                  -0.605449        -139.956         -54.7648        -135.069           -54.74        -134.982       -0.0106444         148.661
0.538                  -0.620129        -140.451         -54.6103        -136.707         -54.5864        -136.623       -0.0107538         148.593
0.539                  -0.634899        -140.949         -54.4569        -138.339         -54.4338        -138.259       -0.0108643         148.524
0.54                   -0.649762        -141.448         -54.3044        -139.968         -54.2823        -139.892       -0.0109758         148.455
0.541                  -0.664719         -141.95         -54.1528        -141.593         -54.1317        -141.521       -0.0110884         148.387
0.542                  -0.679772        -142.453         -54.0021        -143.215          -53.982        -143.148        -0.011202         148.318
0.543                  -0.694923        -142.959         -53.8522        -144.835         -53.8332        -144.773       -0.0113167         148.249
0.544                  -0.710174        -143.467         -53.7032        -146.454         -53.6853        -146.396       -0.0114324          148.18
0.545                  -0.725528        -143.978          -53.555        -148.072         -53.5382        -148.019       -0.0115491         148.111
0.546                  -0.740988        -144.491         -53.4075         -149.69         -53.3919        -149.641       -0.0116668         148.042
0.547                  -0.756557        -145.006         -53.2607        -151.308         -53.2463        -151.264       -0.0117855         147.972
0.548                  -0.772239        -145.524         -53.1147        -152.927         -53.1014        -152.888       -0.0119052         147.903
0.549                  -0.788038        -146.045         -52.9692        -154.548         -52.9573        -154.513       -0.0120259         147.833
0.55                   -0.803958        -146.568         -52.8244         -156.17         -52.8138         -156.14       -0.0121476         147.763
0.551                  -0.820005        -147.094         -52.6801        -157.796         -52.6709         -157.77       -0.0122702         147.694
0.552                  -0.836184        -147.624         -52.5365        -159.424         -52.5286        -159.403       -0.0123938         147.624
0.553                  -0.852501        -148.156         -52.3933        -161.056         -52.3869        -161.039       -0.0125183         147.554
0.554                  -0.868962        -148.691         -52.2506        -162.691         -52.2458        -162.679       -0.0126438         147.484
0.555                  -0.885573        -149.229         -52.1084        -164.332         -52.1051        -164.324       -0.0127702         147.413
0.556                  -0.902343        -149.771         -51.9667        -165.978          -51.965        -165.974       -0.0128975         147.343
0.557                   -0.91928        -150.316         -51.8254         -167.63         -51.8254        -167.629       -0.0130257         147.273
0.558                  -0.936391        -150.865         -51.6845        -169.288         -51.6862         -169.29       -0.0131549         147.202
0.559                  -0.953687        -151.417          -51.544        -170.952         -51.5474        -170.958       -0.0132849         147.131
0.56                   -0.971177        -151.972         -51.4038        -172.625         -51.4091        -172.634       -0.0134158          147.06
0.561                  -0.988871        -152.532          -51.264        -174.305         -51.2712        -174.316       -0.0135476         146.989
0.562                   -1.00678        -153.095         -51.1246        -175.994         -51.1338        -176.007       -0.0136803         146.918
0.563                   -1.02492        -153.662         -50.9855        -177.692         -50.9967        -177.707       -0.0138138         146.847
0.564                    -1.0433        -154.233         -50.8468          -179.4         -50.8601        -179.416       -0.0139483         146.776
0.565                   -1.06193        -154.809         -50.7084         178.881         -50.7239         178.865       -0.0140836         146.704
0.566                   -1.08084        -155.389         -50.5704         177.151         -50.5881         177.135       -0.0142197         146.633
0.567                   -1.10003        -155.973         -50.4327         175.408         -50.4528         175.394       -0.0143568         146.561
0.568                   -1.11951        -156.561         -50.2955         173.653         -50.3179         173.641       -0.0144947         146.489
0.569                   -1.13932        -157.154         -50.1587         171.884         -50.1836         171.875       -0.0146334         146.417
0.57                    -1.15947        -157.752         -50.0225           170.1         -50.0498         170.096       -0.0147731         146.345
0.571                   -1.17997        -158.354         -49.8868         168.301         -49.9167         168.302       -0.0149136         146.273
0.572                   -1.20085        -158.962         -49.7517         166.485         -49.7842         166.494        -0.015055         146.201
0.573                   -1.22213        -159.574         -49.6174         164.651         -49.6526         164.669       -0.0151973         146.128
0.574                   -1.24383        -160.191         -49.4841         162.798         -49.5218         162.827       -0.0153405         146.055
0.575                   -1.26598        -160.814         -49.3517         160.926         -49.3921         160.968       -0.0154847         145.982
0.576                    -1.2886        -161.442         -49.2207         159.032         -49.2637         159.089       -0.0156298          145.91
0.577                   -1.31171        -162.075         -49.0911         157.115         -49.1366          157.19       -0.0157758         145.836
0.578                   -1.33536        -162.714         -48.9634         155.174         -49.0113         155.271       -0.0159229         145.763
0.579                   -1.35957        -163.358         -48.8378         153.209         -48.8879         153.329       -0.0160709          145.69
0.58                    -1.38436        -164.008         -48.7148         151.217         -48.7668         151.364         -0.01622         145.616
0.581                   -1.40978        -164.664         -48.5949         149.198         -48.6485         149.377       -0.0163701         145.542
0.582                   -1.43585        -165.326         -48.4788         147.152         -48.5335         147.365       -0.0165213         145.469
0.583                   -1.46262        -165.993         -48.3671         145.078         -48.4222         145.329       -0.0166737         145.395
0.584                   -1.49012        -166.666         -48.2607         142.977         -48.3154         143.269       -0.0168272          145.32
0.585                   -1.51839        -167.346         -48.1604         140.851         -48.2139         141.187        -0.016982         145.246
0.586                   -1.54746        -168.031         -48.0674         138.702         -48.1184         139.084        -0.017138         145.171
0.587                    -1.5774        -168.723         -47.9827         136.536         -48.0298         136.965       -0.0172952         145.097
0.588                   -1.60823         -169.42         -47.9073          134.36          -47.949         134.834       -0.0174539         145.022
0.589                   -1.64001        -170.124         -47.8423         132.182          -47.877         132.697       -0.0176139         144.947
0.59                    -1.67278        -170.834         -47.7884         130.015         -47.8145         130.565       -0.0177754         144.872
0.591                   -1.70659         -171.55         -47.7461         127.873          -47.762         128.449       -0.0179385         144.796
0.592                   -1.74149        -172.272         -47.7153         125.774         -47.7197         126.361       -0.0181031         144.721
0.593                   -1.77755        -173.001         -47.6951         123.735         -47.6873         124.317       -0.0182693         144.645
0.594                    -1.8148        -173.735         -47.6839         121.774         -47.6639         122.333       -0.0184373         144.569
0.595                   -1.85332        -174.475         -47.6791         119.906         -47.6477         120.424       -0.0186071         144.493
0.596                   -1.89315        -175.222         -47.6774         118.143         -47.6364         118.601       -0.0187787         144.417
0.597                   -1.93435        -175.974         -47.6751         116.488         -47.6269         116.875       -0.0189522          144.34
0.598                   -1.97699        -176.731         -47.6683         114.938         -47.6157         115.245       -0.0191278         144.264
0.599                   -2.02112        -177.494         -47.6533         113.482         -47.5995         113.708       -0.0193054         144.187
0.6                      -2.0668        -178.263         -47.6273         112.103         -47.5751         112.254       -0.0194852          144.11
0.601                   -2.11411        -179.036         -47.5884         110.779         -47.5401         110.864       -0.0196673         144.032
0.602                   -2.16309        -179.815         -47.5357         109.489         -47.4929         109.522       -0.0198517         143.955
0.603                   -2.21382         179.402         -47.4693         108.211         -47.4329         108.205       -0.0200386         143.877
0.604                   -2.26635         178.615         -47.3901         106.926         -47.3603         106.894       -0.0202279         143.799
0.605                   -2.32075         177.824         -47.2994         105.619          -47.276         105.574       -0.0204199         143.721
0.606                   -2.37707         177.029         -47.1991         104.281         -47.1814         104.231       -0.0206146         143.643
0.607                   -2.43539         176.232         -47.0908         102.903         -47.0779         102.855        -0.020812         143.565
0.608                   -2.49574         175.431         -46.9762         101.482         -46.9674          101.44       -0.0210124         143.486
0.609                   -2.55819         174.628          -46.857         100.016         -46.8513         99.9838       -0.0212157         143.407
0.61                     -2.6228         173.824         -46.7345         98.5071         -46.7311         98.4846       -0.0214221         143.328
0.611                   -2.68961         173.018         -46.6097         96.9556         -46.6081         96.9434       -0.0216317         143.249
0.612                   -2.75866         172.211         -46.4837         95.3646         -46.4833         95.3621       -0.0218445         143.169
0.613                   -2.82999         171.405         -46.3573          93.737         -46.3576         93.7432       -0.0220607         143.089
0.614                   -2.90365         170.599         -46.2309          92.076         -46.2317         92.0897       -0.0222803         143.009
0.615                   -2.97967         169.795         -46.1052         90.3848         -46.1061         90.4047       -0.0225035         142.929
0.616                   -3.05806         168.992         -45.9804         88.6664         -45.9813         88.6913       -0.0227303         142.849
0.617                   -3.13885         168.192         -45.8568         86.9237         -45.8576         86.9524       -0.0229608         142.768
0.618                   -3.22204         167.396         -45.7346         85.1595         -45.7352         85.1909       -0.0231952         142.687
0.619                   -3.30763         166.604          -45.614         83.3762         -45.6144         83.4095       -0.0234334         142.606
0.62                    -3.39563         165.818          -45.495         81.5761         -45.4951         81.6103       -0.0236757         142.524
0.621                   -3.48602         165.037         -45.3777         79.7612         -45.3775         79.7958       -0.0239221         142.442
0.622                   -3.57876         164.263         -45.2621         77.9334         -45.2617         77.9678       -0.0241726         142.361
0.623                   -3.67384         163.496         -45.1482         76.0944         -45.1476         76.1281       -0.0244274         142.278
0.624                   -3.77119         162.738         -45.0361         74.2457         -45.0353         74.2784       -0.0246866         142.196
0.625                   -3.87077          161.99         -44.9257         72.3887         -44.9247         72.4202       -0.0249502         142.113
0.626                   -3.97251         161.251          -44.817         70.5248         -44.8159         70.5547       -0.0252183          142.03
0.627                   -4.07633         160.524           -44.71         68.6549         -44.7087         68.6832       -0.0254911         141.947
0.628                   -4.18215         159.808         -44.6046         66.7802         -44.6032         66.8067       -0.0257685         141.864
0.629                   -4.28987         159.104         -44.5007         64.9016         -44.4993         64.9263       -0.0260508          141.78
