! TOUCHSTONE file generated by CST MICROWAVE STUDIO
! Date and time: Wed Oct 28 19:16:30 2020
! Project name: Scenario_1_Circular_Tissue_out_of_Line.cst
! Parameters = {dy1=-68.544; L_HA=400; MT=2.54; Rad_Dielectric=30; Rad_Lower=7.3; Rad_Upper=30; a_HA=580; a_WG=246; b_HA=500; b_WG=121; c_HA=0; c_WG=187; d_feed=85; dx1=693; h_feed=15; h_lower=18; h_upper=40}
! Header version: 2018
! Port assignment regex: !\s*Touchstone port\s*([0-9]+)\s*=\s*(CST MWS port|CST DS port)\s*([0-9]+|Zmin|Zmax)\s*\(\"(.*)\"\)(\s*mode\s*([0-9]+))?.*
! Touchstone port assignment:
! Touchstone port 1 = CST MWS port 1 ("")
! Touchstone port 2 = CST MWS port 2 ("")
# GHz S DB R 50
0.5                    -0.154972        -122.289         -62.0314        -167.044         -62.0314        -167.044      -0.00768366         151.144
0.501                  -0.153323        -122.787         -61.9205        -168.522         -61.9205        -168.522      -0.00773814         151.079
0.502                   -0.15227        -123.286         -61.8077        -170.012         -61.8077        -170.012      -0.00779317         151.013
0.503                  -0.151815        -123.787          -61.693        -171.515          -61.693        -171.515      -0.00784878         150.948
0.504                  -0.151959        -124.289         -61.5764         -173.03         -61.5765         -173.03      -0.00790499         150.883
0.505                  -0.152704        -124.793          -61.458        -174.557         -61.4581        -174.557      -0.00796179         150.817
0.506                  -0.154049        -125.298         -61.3377        -176.097         -61.3378        -176.096      -0.00801922         150.752
0.507                  -0.155995        -125.804         -61.2155        -177.649         -61.2156        -177.648      -0.00807729         150.686
0.508                  -0.158542        -126.312         -61.0914        -179.213         -61.0915        -179.213      -0.00813601          150.62
0.509                   -0.16169        -126.821         -60.9655          179.21         -60.9656          179.21      -0.00819541         150.555
0.51                   -0.165437        -127.331         -60.8377          177.62         -60.8378         177.621      -0.00825549         150.489
0.511                  -0.169783        -127.843         -60.7081         176.018         -60.7082         176.018      -0.00831628         150.423
0.512                  -0.174727        -128.355         -60.5766         174.403         -60.5768         174.404      -0.00837779         150.357
0.513                  -0.180267        -128.869         -60.4434         172.776         -60.4435         172.776      -0.00844005         150.291
0.514                    -0.1864        -129.383         -60.3083         171.135         -60.3084         171.136      -0.00850307         150.225
0.515                  -0.193126        -129.898         -60.1714         169.482         -60.1716         169.482      -0.00856686         150.158
0.516                  -0.200441        -130.415         -60.0328         167.816          -60.033         167.816      -0.00863146         150.092
0.517                  -0.208342        -130.932         -59.8925         166.136         -59.8927         166.137      -0.00869687         150.026
0.518                  -0.216827         -131.45         -59.7504         164.444         -59.7506         164.444      -0.00876312         149.959
0.519                  -0.225891        -131.968         -59.6067         162.738         -59.6069         162.739      -0.00883024         149.892
0.52                   -0.235532        -132.488         -59.4613          161.02         -59.4615          161.02      -0.00889823         149.826
0.521                  -0.245745        -133.008         -59.3144         159.287         -59.3146         159.288      -0.00896712         149.759
0.522                  -0.256525        -133.528         -59.1658         157.542          -59.166         157.542      -0.00903694         149.692
0.523                  -0.267869        -134.049         -59.0158         155.782          -59.016         155.783      -0.00910771         149.625
0.524                  -0.279771        -134.571         -58.8642          154.01         -58.8644          154.01      -0.00917944         149.558
0.525                  -0.292225        -135.093         -58.7113         152.223         -58.7115         152.223      -0.00925216         149.491
0.526                  -0.305227        -135.615         -58.5569         150.422         -58.5571         150.423       -0.0093259         149.424
0.527                  -0.318771        -136.138         -58.4012         148.608         -58.4015         148.608      -0.00940068         149.356
0.528                   -0.33285        -136.661         -58.2443         146.779         -58.2445          146.78      -0.00947653         149.289
0.529                  -0.347458        -137.184         -58.0862         144.937         -58.0864         144.937      -0.00955346         149.221
0.53                   -0.362588        -137.708         -57.9269          143.08         -57.9271          143.08      -0.00963151         149.154
0.531                  -0.378234        -138.232         -57.7665         141.208         -57.7667         141.209       -0.0097107         149.086
0.532                  -0.394389        -138.756         -57.6052         139.322         -57.6054         139.323      -0.00979105         149.018
0.533                  -0.411045        -139.281         -57.4429         137.422         -57.4431         137.422       -0.0098726          148.95
0.534                  -0.428194        -139.805         -57.2798         135.507           -57.28         135.507      -0.00995538         148.882
0.535                  -0.445829         -140.33         -57.1159         133.577         -57.1161         133.577       -0.0100394         148.814
0.536                  -0.463942        -140.854         -56.9513         131.632         -56.9515         131.633       -0.0101247         148.746
0.537                  -0.482525        -141.379         -56.7861         129.673         -56.7863         129.673       -0.0102113         148.678
0.538                  -0.501568        -141.904         -56.6205         127.699         -56.6206         127.699       -0.0102993         148.609
0.539                  -0.521064        -142.429         -56.4544          125.71         -56.4546          125.71       -0.0103886         148.541
0.54                   -0.541003        -142.954          -56.288         123.705         -56.2882         123.706       -0.0104793         148.472
0.541                  -0.561377        -143.479         -56.1214         121.686         -56.1216         121.687       -0.0105714         148.403
0.542                  -0.582176        -144.004         -55.9547         119.652         -55.9548         119.653        -0.010665         148.334
0.543                  -0.603391        -144.529          -55.788         117.603         -55.7881         117.604       -0.0107601         148.265
0.544                  -0.625013        -145.054         -55.6214          115.54         -55.6215          115.54       -0.0108567         148.196
0.545                  -0.647033        -145.579          -55.455         113.461         -55.4551         113.462       -0.0109549         148.127
0.546                  -0.669439        -146.104         -55.2889         111.368         -55.2891         111.369       -0.0110546         148.058
0.547                  -0.692223        -146.629         -55.1233         109.261         -55.1234         109.261        -0.011156         147.988
0.548                  -0.715376        -147.154         -54.9582         107.139         -54.9584         107.139        -0.011259         147.919
0.549                  -0.738885         -147.68         -54.7938         105.003          -54.794         105.004       -0.0113637         147.849
0.55                   -0.762743        -148.205         -54.6302         102.854         -54.6303         102.854       -0.0114701          147.78
0.551                  -0.786939         -148.73         -54.4675          100.69         -54.4676         100.691       -0.0115782          147.71
0.552                  -0.811462        -149.256         -54.3059          98.514          -54.306         98.5141       -0.0116882          147.64
0.553                  -0.836303        -149.781         -54.1453         96.3246         -54.1454         96.3248       -0.0117999          147.57
0.554                  -0.861451        -150.307          -53.986         94.1228         -53.9861         94.1229       -0.0119134           147.5
0.555                  -0.886897        -150.833         -53.8281         91.9088         -53.8282         91.9089       -0.0120289         147.429
0.556                   -0.91263         -151.36         -53.6716         89.6832         -53.6717         89.6833       -0.0121462         147.359
0.557                   -0.93864        -151.886         -53.5167         87.4465         -53.5168         87.4465       -0.0122655         147.288
0.558                  -0.964918        -152.413         -53.3635         85.1992         -53.3636         85.1992       -0.0123867         147.218
0.559                  -0.991453         -152.94         -53.2121         82.9419         -53.2121         82.9419       -0.0125099         147.147
0.56                    -1.01824        -153.468         -53.0625         80.6752         -53.0625         80.6751       -0.0126351         147.076
0.561                   -1.04526        -153.996         -52.9149         78.3998         -52.9149         78.3997       -0.0127623         147.005
0.562                   -1.07251        -154.525         -52.7693         76.1162         -52.7693         76.1161       -0.0128916         146.934
0.563                   -1.09997        -155.055         -52.6258         73.8254         -52.6259         73.8252        -0.013023         146.862
0.564                   -1.12765        -155.585         -52.4846         71.5278         -52.4846         71.5277       -0.0131564         146.791
0.565                   -1.15553        -156.116         -52.3455         69.2244         -52.3455         69.2242        -0.013292         146.719
0.566                    -1.1836        -156.647         -52.2088          66.916         -52.2088         66.9157       -0.0134297         146.648
0.567                   -1.21186         -157.18         -52.0744         64.6032         -52.0744          64.603       -0.0135695         146.576
0.568                   -1.24029        -157.714         -51.9425         62.2869         -51.9425         62.2867       -0.0137115         146.504
0.569                   -1.26889        -158.249         -51.8129          59.968         -51.8129         59.9677       -0.0138557         146.432
0.57                    -1.29765        -158.785         -51.6858         57.6473         -51.6858          57.647        -0.014002         146.359
0.571                   -1.32657        -159.323         -51.5611         55.3255         -51.5611         55.3252       -0.0141505         146.287
0.572                   -1.35563        -159.862         -51.4389         53.0035         -51.4389         53.0032       -0.0143012         146.215
0.573                   -1.38483        -160.402         -51.3192         50.6822         -51.3192         50.6818       -0.0144541         146.142
0.574                   -1.41417        -160.944         -51.2019         48.3623         -51.2018         48.3619       -0.0146091         146.069
0.575                   -1.44364        -161.488          -51.087         46.0446          -51.087         46.0442       -0.0147663         145.996
0.576                   -1.47324        -162.034         -50.9745         43.7298         -50.9745         43.7294       -0.0149257         145.923
0.577                   -1.50296        -162.583         -50.8644         41.4188         -50.8643         41.4184       -0.0150872          145.85
0.578                   -1.53279        -163.133         -50.7565         39.1122         -50.7565         39.1118       -0.0152508         145.777
0.579                   -1.56275        -163.686          -50.651         36.8107         -50.6509         36.8103       -0.0154166         145.703
0.58                    -1.59282        -164.241         -50.5476         34.5149         -50.5476         34.5145       -0.0155845          145.63
0.581                     -1.623        -164.799         -50.4464         32.2255         -50.4464         32.2251       -0.0157545         145.556
0.582                    -1.6533         -165.36         -50.3472          29.943         -50.3472         29.9426       -0.0159266         145.482
0.583                   -1.68372        -165.924         -50.2501         27.6679         -50.2501         27.6675       -0.0161007         145.408
0.584                   -1.71425        -166.491         -50.1549         25.4008         -50.1548         25.4004       -0.0162768         145.334
0.585                   -1.74491        -167.062         -50.0615         23.1421         -50.0614         23.1416       -0.0164549         145.259
0.586                    -1.7757        -167.636         -49.9698          20.892         -49.9698         20.8916       -0.0166351         145.185
0.587                   -1.80662        -168.214         -49.8798         18.6511         -49.8798         18.6507       -0.0168172          145.11
0.588                   -1.83768        -168.797         -49.7914         16.4197         -49.7914         16.4192       -0.0170012         145.035
0.589                    -1.8689        -169.383         -49.7045         14.1978         -49.7044         14.1974       -0.0171871          144.96
0.59                    -1.90028        -169.974         -49.6189         11.9859         -49.6189         11.9855        -0.017375         144.885
0.591                   -1.93183        -170.569         -49.5347           9.784         -49.5346         9.78362       -0.0175647          144.81
0.592                   -1.96357         -171.17         -49.4516         7.59228         -49.4516         7.59191       -0.0177562         144.734
0.593                   -1.99552        -171.776         -49.3696         5.41082         -49.3696         5.41047       -0.0179497         144.658
0.594                    -2.0277        -172.387         -49.2887         3.23965         -49.2887         3.23932       -0.0181449         144.583
0.595                   -2.06012        -173.003         -49.2087         1.07879         -49.2087         1.07848        -0.018342         144.507
0.596                   -2.09281        -173.626         -49.1295        -1.07179         -49.1295        -1.07208       -0.0185409          144.43
0.597                   -2.12579        -174.255         -49.0511        -3.21218         -49.0511        -3.21245       -0.0187416         144.354
0.598                   -2.15911         -174.89         -48.9733        -5.34247         -48.9733        -5.34271       -0.0189441         144.277
0.599                   -2.19277        -175.532         -48.8961        -7.46278         -48.8961          -7.463       -0.0191485         144.201
0.6                     -2.22683        -176.181         -48.8194        -9.57329         -48.8194        -9.57348       -0.0193547         144.124
0.601                   -2.26132        -176.837         -48.7432        -11.6742         -48.7432        -11.6743       -0.0195627         144.047
0.602                   -2.29628          -177.5         -48.6673        -13.7657         -48.6673        -13.7658       -0.0197726         143.969
0.603                   -2.33176        -178.171         -48.5916         -15.848         -48.5916        -15.8481       -0.0199844         143.892
0.604                    -2.3678         -178.85         -48.5162        -17.9214         -48.5162        -17.9215       -0.0201982         143.814
0.605                   -2.40445        -179.537          -48.441        -19.9861          -48.441        -19.9862       -0.0204138         143.736
0.606                   -2.44178         179.767         -48.3658        -22.0425         -48.3658        -22.0426       -0.0206315         143.658
0.607                   -2.47984         179.062         -48.2907        -24.0909         -48.2907        -24.0909       -0.0208512          143.58
0.608                    -2.5187         178.349         -48.2155        -26.1316         -48.2155        -26.1316       -0.0210729         143.501
0.609                   -2.55843         177.626         -48.1403        -28.1649         -48.1403        -28.1648       -0.0212968         143.423
0.61                    -2.59911         176.894          -48.065        -30.1911          -48.065        -30.1911       -0.0215229         143.344
0.611                    -2.6408         176.153         -47.9895        -32.2107         -47.9895        -32.2106       -0.0217513         143.265
0.612                    -2.6836         175.402         -47.9139        -34.2239         -47.9139        -34.2238       -0.0219819         143.185
0.613                    -2.7276         174.641          -47.838        -36.2311          -47.838         -36.231        -0.022215         143.106
0.614                   -2.77288          173.87         -47.7619        -38.2327         -47.7619        -38.2326       -0.0224505         143.026
0.615                   -2.81955         173.088         -47.6856        -40.2291         -47.6856        -40.2289       -0.0226885         142.946
0.616                   -2.86771         172.297         -47.6089        -42.2206         -47.6089        -42.2203       -0.0229291         142.866
0.617                   -2.91746         171.496          -47.532        -44.2075          -47.532        -44.2072       -0.0231724         142.785
0.618                   -2.96893         170.684         -47.4547        -46.1903         -47.4547          -46.19       -0.0234185         142.704
0.619                   -3.02223         169.862         -47.3771        -48.1692         -47.3771        -48.1689       -0.0236674         142.624
0.62                    -3.07747          169.03         -47.2991        -50.1447         -47.2991        -50.1443       -0.0239193         142.542
0.621                   -3.13478         168.189         -47.2208         -52.117         -47.2208        -52.1166       -0.0241743         142.461
0.622                    -3.1943         167.337         -47.1421        -54.0865         -47.1421        -54.0861       -0.0244323         142.379
0.623                   -3.25615         166.477         -47.0632        -56.0536         -47.0631        -56.0532       -0.0246937         142.297
0.624                   -3.32047         165.607         -46.9838        -58.0185         -46.9838        -58.0181       -0.0249583         142.215
0.625                   -3.38739         164.729         -46.9042        -59.9815         -46.9042        -59.9811       -0.0252264         142.133
0.626                   -3.45704         163.843         -46.8242         -61.943         -46.8242        -61.9425       -0.0254981          142.05
0.627                   -3.52956         162.949         -46.7439        -63.9032         -46.7439        -63.9027       -0.0257734         141.967
0.628                   -3.60509         162.048         -46.6633        -65.8623         -46.6633        -65.8619       -0.0260524         141.884
0.629                   -3.68375         161.141         -46.5825        -67.8207         -46.5825        -67.8202       -0.0263353           141.8
