! TOUCHSTONE file generated by CST MICROWAVE STUDIO
! Date and time: Mon Oct 26 12:26:55 2020
! Project name: Scenario_1_Circular_Tissue_out_of_Line.cst
! Parameters = {dy1=-68.544; L_HA=400; MT=2.54; Rad_Dielectric=30; Rad_Lower=7.3; Rad_Upper=30; a_HA=580; a_WG=246; b_HA=500; b_WG=121; c_HA=0; c_WG=187; d_feed=85; dx1=866; h_feed=15; h_lower=18; h_upper=40}
! Header version: 2018
! Port assignment regex: !\s*Touchstone port\s*([0-9]+)\s*=\s*(CST MWS port|CST DS port)\s*([0-9]+|Zmin|Zmax)\s*\(\"(.*)\"\)(\s*mode\s*([0-9]+))?.*
! Touchstone port assignment:
! Touchstone port 1 = CST MWS port 1 ("")
! Touchstone port 2 = CST MWS port 2 ("")
# GHz S DB R 50
0.5                    -0.142948        -122.423         -62.7052         99.2694          -62.705         99.2705      -0.00744913         151.141
0.501                  -0.142848        -122.863         -62.6567         97.3476         -62.6565         97.3517      -0.00752042         151.076
0.502                  -0.143018        -123.305         -62.6053          95.406         -62.6052         95.4131      -0.00759229         151.011
0.503                  -0.143461         -123.75          -62.551         93.4451         -62.5509          93.455      -0.00766476         150.945
0.504                  -0.144183        -124.198         -62.4938          91.465         -62.4937         91.4778      -0.00773782          150.88
0.505                  -0.145191        -124.648         -62.4335         89.4662         -62.4335         89.4818      -0.00781148         150.814
0.506                  -0.146489          -125.1         -62.3701         87.4491         -62.3701         87.4674      -0.00788575         150.749
0.507                  -0.148082        -125.556         -62.3035         85.4142         -62.3036         85.4351      -0.00796064         150.683
0.508                  -0.149977        -126.014         -62.2337         83.3619         -62.2339         83.3854      -0.00803615         150.617
0.509                  -0.152178        -126.474         -62.1607         81.2927          -62.161         81.3187      -0.00811228         150.551
0.51                   -0.154692        -126.937         -62.0844         79.2071         -62.0848         79.2356      -0.00818905         150.486
0.511                  -0.157524        -127.403         -62.0048         77.1057         -62.0053         77.1365      -0.00826647          150.42
0.512                  -0.160679        -127.871         -61.9218         74.9889         -61.9224         75.0221      -0.00834453         150.354
0.513                  -0.164164        -128.342         -61.8355         72.8575         -61.8362         72.8928      -0.00842324         150.287
0.514                  -0.167983        -128.815         -61.7458         70.7119         -61.7465         70.7493      -0.00850262         150.221
0.515                  -0.172144        -129.291         -61.6527         68.5527         -61.6536         68.5922      -0.00858267         150.155
0.516                  -0.176651        -129.769         -61.5562         66.3806         -61.5572         66.4219      -0.00866339         150.088
0.517                   -0.18151         -130.25         -61.4564         64.1961         -61.4575         64.2392       -0.0087448         150.022
0.518                  -0.186727        -130.734         -61.3532         61.9999         -61.3544         62.0446      -0.00882689         149.955
0.519                  -0.192309         -131.22         -61.2467         59.7924          -61.248         59.8388      -0.00890969         149.889
0.52                    -0.19826        -131.709          -61.137         57.5744         -61.1383         57.6222      -0.00899319         149.822
0.521                  -0.204587          -132.2         -61.0239         55.3463         -61.0254         55.3955       -0.0090774         149.755
0.522                  -0.211295        -132.694         -60.9077         53.1089         -60.9092         53.1592      -0.00916234         149.688
0.523                  -0.218391         -133.19         -60.7882         50.8625         -60.7899         50.9139        -0.009248         149.621
0.524                   -0.22588        -133.689         -60.6657         48.6077         -60.6675         48.6602       -0.0093344         149.554
0.525                  -0.233768        -134.191         -60.5402         46.3451         -60.5421         46.3985      -0.00942154         149.487
0.526                  -0.242062        -134.695         -60.4117         44.0752         -60.4137         44.1294      -0.00950944          149.42
0.527                  -0.250766        -135.201         -60.2804         41.7984         -60.2824         41.8533       -0.0095981         149.352
0.528                  -0.259887         -135.71         -60.1462         39.5152         -60.1483         39.5706      -0.00968753         149.285
0.529                  -0.269431        -136.221         -60.0094          37.226         -60.0115         37.2819      -0.00977773         149.217
0.53                   -0.279403        -136.735         -59.8699         34.9312         -59.8721         34.9874      -0.00986872          149.15
0.531                   -0.28981        -137.251         -59.7279         32.6311         -59.7302         32.6876       -0.0099605         149.082
0.532                  -0.300657         -137.77         -59.5836         30.3262         -59.5859         30.3828       -0.0100531         149.014
0.533                  -0.311949        -138.291         -59.4369         28.0167         -59.4392         28.0733       -0.0101465         148.946
0.534                  -0.323693        -138.814          -59.288         25.7028         -59.2904         25.7594       -0.0102407         148.878
0.535                  -0.335895         -139.34         -59.1371         23.3849         -59.1395         23.4413       -0.0103358          148.81
0.536                  -0.348559        -139.868         -58.9842         21.0632         -58.9866         21.1194       -0.0104316         148.742
0.537                  -0.361692        -140.398         -58.8295         18.7379         -58.8319         18.7937       -0.0105284         148.674
0.538                  -0.375299        -140.931         -58.6731         16.4092         -58.6754         16.4645        -0.010626         148.605
0.539                  -0.389386        -141.466          -58.515         14.0771         -58.5174          14.132       -0.0107244         148.537
0.54                   -0.403958        -142.004         -58.3555         11.7419         -58.3578         11.7961       -0.0108237         148.468
0.541                  -0.419021        -142.543         -58.1947         9.40359          -58.197         9.45717        -0.010924           148.4
0.542                  -0.434579        -143.085         -58.0326         7.06232         -58.0348         7.11515       -0.0110251         148.331
0.543                  -0.450638        -143.629         -57.8694         4.71813         -57.8716         4.77015       -0.0111271         148.262
0.544                  -0.467204        -144.175         -57.7052         2.37109         -57.7074         2.42221         -0.01123         148.193
0.545                  -0.484281        -144.724         -57.5402       0.0212171         -57.5423       0.0713786       -0.0113338         148.124
0.546                  -0.501875        -145.274         -57.3745        -2.33146         -57.3765        -2.28232       -0.0114386         148.054
0.547                   -0.51999        -145.827         -57.2082        -4.68694         -57.2101        -4.63888       -0.0115444         147.985
0.548                  -0.538631        -146.382         -57.0413         -7.0452         -57.0432        -6.99829        -0.011651         147.916
0.549                  -0.557804        -146.939         -56.8741        -9.40627         -56.8759        -9.36055       -0.0117587         147.846
0.55                   -0.577512        -147.498         -56.7067        -11.7701         -56.7084        -11.7257       -0.0118673         147.776
0.551                   -0.59776        -148.058         -56.5392        -14.1368         -56.5408        -14.0937       -0.0119769         147.706
0.552                  -0.618554        -148.621         -56.3716        -16.5064         -56.3731        -16.4645       -0.0120875         147.637
0.553                  -0.639896        -149.186         -56.2041        -18.8787         -56.2056        -18.8383       -0.0121991         147.566
0.554                  -0.661792        -149.753         -56.0369         -21.254         -56.0382        -21.2149       -0.0123117         147.496
0.555                  -0.684245        -150.321           -55.87        -23.6321         -55.8712        -23.5945       -0.0124254         147.426
0.556                   -0.70726        -150.892         -55.7035         -26.013         -55.7046        -25.9769       -0.0125401         147.356
0.557                   -0.73084        -151.464         -55.5375        -28.3969         -55.5386        -28.3623       -0.0126558         147.285
0.558                  -0.754989        -152.038         -55.3722        -30.7835         -55.3732        -30.7505       -0.0127726         147.215
0.559                  -0.779711        -152.614         -55.2076        -33.1731         -55.2085        -33.1416       -0.0128905         147.144
0.56                   -0.805009        -153.191         -55.0439        -35.5654         -55.0446        -35.5355       -0.0130095         147.073
0.561                  -0.830887        -153.771          -54.881        -37.9604         -54.8817        -37.9322       -0.0131296         147.002
0.562                  -0.857347        -154.352         -54.7192        -40.3582         -54.7198        -40.3315       -0.0132508         146.931
0.563                  -0.884393        -154.934         -54.5585        -42.7586          -54.559        -42.7335       -0.0133731         146.859
0.564                  -0.912028        -155.519         -54.3989        -45.1615         -54.3994        -45.1381       -0.0134966         146.788
0.565                  -0.940254        -156.104         -54.2407        -47.5669          -54.241        -47.5451       -0.0136212         146.717
0.566                  -0.969074        -156.692         -54.0837        -49.9747          -54.084        -49.9545        -0.013747         146.645
0.567                   -0.99849        -157.281         -53.9281        -52.3847         -53.9284        -52.3661        -0.013874         146.573
0.568                    -1.0285        -157.871         -53.7741        -54.7967         -53.7742        -54.7797       -0.0140023         146.501
0.569                   -1.05912        -158.463         -53.6215        -57.2107         -53.6216        -57.1953       -0.0141318         146.429
0.57                    -1.09034        -159.056         -53.4705        -59.6265         -53.4706        -59.6127       -0.0142625         146.357
0.571                   -1.12216        -159.651         -53.3212        -62.0439         -53.3212        -62.0316       -0.0143945         146.284
0.572                   -1.15459        -160.247         -53.1735        -64.4628         -53.1735        -64.4519       -0.0145279         146.212
0.573                   -1.18762        -160.844         -53.0276        -66.8828         -53.0276        -66.8735       -0.0146626         146.139
0.574                   -1.22126        -161.443         -52.8835        -69.3039         -52.8834         -69.296       -0.0147986         146.067
0.575                   -1.25551        -162.043         -52.7412        -71.7258          -52.741        -71.7193       -0.0149361         145.994
0.576                   -1.29038        -162.644         -52.6007        -74.1483         -52.6005        -74.1431        -0.015075         145.921
0.577                   -1.32585        -163.246         -52.4621        -76.5711         -52.4619        -76.5673       -0.0152154         145.847
0.578                   -1.36193         -163.85         -52.3253        -78.9941         -52.3252        -78.9915       -0.0153574         145.774
0.579                   -1.39863        -164.454         -52.1905         -81.417         -52.1904        -81.4156        -0.015501           145.7
0.58                    -1.43593         -165.06         -52.0576        -83.8394         -52.0575        -83.8392       -0.0156462         145.627
0.581                   -1.47385        -165.667         -51.9266        -86.2613         -51.9265        -86.2622       -0.0157931         145.553
0.582                   -1.51237        -166.275         -51.7976        -88.6823         -51.7975        -88.6843       -0.0159419         145.479
0.583                   -1.55151        -166.884         -51.6705        -91.1023         -51.6704        -91.1052       -0.0160925         145.405
0.584                   -1.59125        -167.494         -51.5453        -93.5209         -51.5452        -93.5247       -0.0162451          145.33
0.585                   -1.63161        -168.105         -51.4221        -95.9379          -51.422        -95.9426       -0.0163997         145.256
0.586                   -1.67257        -168.717         -51.3007         -98.353         -51.3007        -98.3586       -0.0165565         145.181
0.587                   -1.71413         -169.33         -51.1813        -100.766         -51.1813        -100.772       -0.0167155         145.106
0.588                    -1.7563        -169.944         -51.0637        -103.177         -51.0638        -103.184       -0.0168769         145.031
0.589                   -1.79906        -170.559          -50.948        -105.585         -50.9481        -105.593       -0.0170408         144.956
0.59                    -1.84243        -171.175         -50.8341        -107.991         -50.8343        -107.999       -0.0172073         144.881
0.591                   -1.88639        -171.792         -50.7221        -110.394         -50.7223        -110.402       -0.0173765         144.805
0.592                   -1.93095        -172.409         -50.6118        -112.793          -50.612        -112.802       -0.0175486         144.729
0.593                    -1.9761        -173.028         -50.5032         -115.19         -50.5035        -115.199       -0.0177237         144.653
0.594                   -2.02183        -173.647         -50.3964        -117.583         -50.3967        -117.592       -0.0179019         144.577
0.595                   -2.06815        -174.268         -50.2912        -119.972         -50.2916        -119.982       -0.0180834         144.501
0.596                   -2.11505        -174.889         -50.1877        -122.357         -50.1881        -122.367       -0.0182682         144.425
0.597                   -2.16252        -175.511         -50.0857        -124.739         -50.0862        -124.749       -0.0184564         144.348
0.598                   -2.21056        -176.134         -49.9854        -127.116         -49.9858        -127.126       -0.0186481         144.271
0.599                   -2.25917        -176.758         -49.8865         -129.49          -49.887          -129.5       -0.0188434         144.194
0.6                     -2.30835        -177.382          -49.789        -131.859         -49.7896        -131.869       -0.0190424         144.117
0.601                   -2.35807        -178.008          -49.693        -134.224         -49.6936        -134.234        -0.019245         144.039
0.602                   -2.40835        -178.635         -49.5984        -136.584          -49.599        -136.594       -0.0194513         143.962
0.603                   -2.45917        -179.262         -49.5051         -138.94         -49.5057         -138.95       -0.0196613         143.884
0.604                   -2.51053        -179.891          -49.413        -141.292         -49.4137        -141.301       -0.0198749         143.806
0.605                   -2.56242         179.479         -49.3223        -143.639         -49.3229        -143.648        -0.020092         143.728
0.606                   -2.61483         178.849         -49.2326        -145.981         -49.2333         -145.99       -0.0203128          143.65
0.607                   -2.66776         178.217         -49.1442        -148.319         -49.1449        -148.328        -0.020537         143.571
0.608                   -2.72119         177.584         -49.0568        -150.652         -49.0575         -150.66       -0.0207646         143.492
0.609                   -2.77513         176.949         -48.9705        -152.981         -48.9712        -152.989       -0.0209956         143.413
0.61                    -2.82955         176.314         -48.8851        -155.305         -48.8859        -155.312       -0.0212299         143.334
0.611                   -2.88445         175.677         -48.8008        -157.625         -48.8015        -157.631       -0.0214673         143.255
0.612                   -2.93983         175.038         -48.7173         -159.94          -48.718        -159.946       -0.0217079         143.175
0.613                   -2.99566         174.398         -48.6348         -162.25         -48.6355        -162.256       -0.0219516         143.095
0.614                   -3.05195         173.756          -48.553        -164.556         -48.5537        -164.561       -0.0221983         143.015
0.615                   -3.10867         173.112         -48.4721        -166.858         -48.4727        -166.863       -0.0224481         142.935
0.616                   -3.16582         172.467         -48.3919        -169.155         -48.3925        -169.159       -0.0227008         142.854
0.617                   -3.22339         171.819         -48.3124        -171.448          -48.313        -171.452       -0.0229566         142.774
0.618                   -3.28135         171.168         -48.2336        -173.736         -48.2342         -173.74       -0.0232153         142.693
0.619                   -3.33971         170.516         -48.1554        -176.021          -48.156        -176.024        -0.023477         142.612
0.62                    -3.39845          169.86         -48.0779        -178.301         -48.0784        -178.304       -0.0237418          142.53
0.621                   -3.45756         169.201         -48.0009         179.422         -48.0013          179.42       -0.0240097         142.449
0.622                   -3.51702         168.539         -47.9244          177.15         -47.9248         177.148       -0.0242806         142.367
0.623                   -3.57683         167.873         -47.8485         174.881         -47.8488         174.879       -0.0245548         142.285
0.624                   -3.63697         167.203          -47.773         172.616         -47.7733         172.615       -0.0248321         142.202
0.625                   -3.69744         166.529          -47.698         170.355         -47.6982         170.354       -0.0251128         142.119
0.626                   -3.75824          165.85         -47.6233         168.098         -47.6236         168.097       -0.0253969         142.037
0.627                   -3.81935         165.165         -47.5491         165.844         -47.5493         165.843       -0.0256844         141.953
0.628                   -3.88079         164.474         -47.4753         163.593         -47.4754         163.593       -0.0259755          141.87
0.629                   -3.94257         163.776         -47.4018         161.346         -47.4019         161.346       -0.0262703         141.786
