! TOUCHSTONE file generated by CST MICROWAVE STUDIO
! Date and time: Sat Oct 24 11:46:18 2020
! Project name: Scenario_1_Circular_Tissue_out_of_Line.cst
! Parameters = {dy1=-68.544; L_HA=400; MT=2.54; Rad_Dielectric=30; Rad_Lower=7.3; Rad_Upper=30; a_HA=580; a_WG=246; b_HA=500; b_WG=121; c_HA=0; c_WG=187; d_feed=85; dx1=1039; h_feed=15; h_lower=18; h_upper=40}
! Header version: 2018
! Port assignment regex: !\s*Touchstone port\s*([0-9]+)\s*=\s*(CST MWS port|CST DS port)\s*([0-9]+|Zmin|Zmax)\s*\(\"(.*)\"\)(\s*mode\s*([0-9]+))?.*
! Touchstone port assignment:
! Touchstone port 1 = CST MWS port 1 ("")
! Touchstone port 2 = CST MWS port 2 ("")
# GHz S DB R 50
0.5                    -0.146645        -122.226         -63.2422         -2.6172         -63.2422        -2.61608      -0.00763271          151.13
0.501                  -0.153449        -122.693         -63.1177        -4.67832         -63.1162         -4.6855      -0.00769131         151.064
0.502                  -0.160517        -123.161         -62.9902         -6.7539         -62.9871        -6.76891      -0.00775082         150.999
0.503                   -0.16785        -123.631         -62.8598        -8.84381         -62.8551        -8.86623      -0.00781123         150.934
0.504                  -0.175448        -124.101         -62.7264        -10.9479         -62.7203        -10.9773      -0.00787257         150.868
0.505                   -0.18331        -124.572         -62.5901        -13.0662         -62.5826        -13.1022      -0.00793482         150.802
0.506                  -0.191435        -125.045          -62.451        -15.1986         -62.4422        -15.2407      -0.00799801         150.737
0.507                  -0.199824        -125.518         -62.3091         -17.345          -62.299        -17.3928      -0.00806213         150.671
0.508                  -0.208475        -125.993         -62.1645        -19.5053         -62.1532        -19.5585      -0.00812718         150.605
0.509                  -0.217388        -126.469         -62.0173        -21.6796         -62.0048        -21.7378      -0.00819319         150.539
0.51                   -0.226564        -126.946         -61.8675        -23.8679         -61.8539        -23.9306      -0.00826014         150.473
0.511                     -0.236        -127.424         -61.7151        -26.0701         -61.7005        -26.1371      -0.00832806         150.407
0.512                  -0.245696        -127.904         -61.5603        -28.2863         -61.5448        -28.3572      -0.00839694         150.341
0.513                  -0.255652        -128.384         -61.4032        -30.5166         -61.3868        -30.5911      -0.00846679         150.275
0.514                  -0.265866        -128.865         -61.2438        -32.7609         -61.2266        -32.8387      -0.00853762         150.208
0.515                  -0.276339        -129.348         -61.0823        -35.0195         -61.0644        -35.1002      -0.00860943         150.142
0.516                  -0.287068        -129.832         -60.9187        -37.2923         -60.9001        -37.3756      -0.00868223         150.076
0.517                  -0.298054        -130.317         -60.7531        -39.5795          -60.734        -39.6652      -0.00875604         150.009
0.518                  -0.309294        -130.802         -60.5857        -41.8811         -60.5662        -41.9689      -0.00883085         149.942
0.519                  -0.320789         -131.29         -60.4166        -44.1974         -60.3966         -44.287      -0.00890667         149.876
0.52                   -0.332536        -131.778         -60.2458        -46.5285         -60.2256        -46.6196      -0.00898352         149.809
0.521                  -0.344535        -132.267         -60.0736        -48.8744         -60.0531        -48.9668      -0.00906139         149.742
0.522                  -0.356785        -132.758            -59.9        -51.2354         -59.8794        -51.3288      -0.00914031         149.675
0.523                  -0.369284        -133.249         -59.7252        -53.6115         -59.7045        -53.7058      -0.00922027         149.608
0.524                  -0.382032        -133.742         -59.5493         -56.003         -59.5286        -56.0978      -0.00930128         149.541
0.525                  -0.395026        -134.236         -59.3725        -58.4099         -59.3518        -58.5051      -0.00938335         149.473
0.526                  -0.408266        -134.731         -59.1949        -60.8325         -59.1743        -60.9277       -0.0094665         149.406
0.527                   -0.42175        -135.227         -59.0166        -63.2707         -58.9963        -63.3658      -0.00955073         149.339
0.528                  -0.435476        -135.725         -58.8378        -65.7247         -58.8178        -65.8194      -0.00963605         149.271
0.529                  -0.449445        -136.224         -58.6587        -68.1946          -58.639        -68.2887      -0.00972247         149.203
0.53                   -0.463653        -136.723         -58.4794        -70.6804         -58.4601        -70.7737      -0.00980999         149.136
0.531                  -0.478099        -137.225         -58.3001        -73.1822         -58.2813        -73.2745      -0.00989864         149.068
0.532                  -0.492783        -137.727          -58.121           -75.7         -58.1027         -75.791      -0.00998842             149
0.533                  -0.507702        -138.231         -57.9421        -78.2338         -57.9244        -78.3232       -0.0100793         148.932
0.534                  -0.522855        -138.736         -57.7638        -80.7834         -57.7467        -80.8711       -0.0101714         148.864
0.535                  -0.538241        -139.242         -57.5861        -83.3487         -57.5697        -83.4345       -0.0102646         148.796
0.536                  -0.553858        -139.749         -57.4092        -85.9297         -57.3935        -86.0133        -0.010359         148.727
0.537                  -0.569704        -140.258         -57.2334         -88.526         -57.2184        -88.6072       -0.0104546         148.659
0.538                  -0.585778        -140.769         -57.0587        -91.1375         -57.0445         -91.216       -0.0105514         148.591
0.539                  -0.602078         -141.28         -56.8853        -93.7638          -56.872        -93.8394       -0.0106494         148.522
0.54                   -0.618604        -141.794         -56.7135        -96.4045         -56.7009         -96.477       -0.0107486         148.453
0.541                  -0.635353        -142.308         -56.5433        -99.0593         -56.5316        -99.1285        -0.010849         148.384
0.542                  -0.652323        -142.824         -56.3749        -101.728         -56.3641        -101.793       -0.0109507         148.316
0.543                  -0.669515        -143.342         -56.2085        -104.409         -56.1985        -104.471       -0.0110537         148.247
0.544                  -0.686926        -143.861         -56.0442        -107.103         -56.0351         -107.16       -0.0111579         148.177
0.545                  -0.704555        -144.382         -55.8822        -109.808          -55.874        -109.862       -0.0112634         148.108
0.546                  -0.722401        -144.904         -55.7226        -112.524         -55.7152        -112.574       -0.0113703         148.039
0.547                  -0.740462        -145.428         -55.5655        -115.251          -55.559        -115.296       -0.0114784         147.969
0.548                  -0.758738        -145.954          -55.411        -117.987         -55.4053        -118.027       -0.0115879           147.9
0.549                  -0.777227        -146.482         -55.2593        -120.732         -55.2544        -120.767       -0.0116987          147.83
0.55                   -0.795929        -147.011         -55.1103        -123.484         -55.1063        -123.514       -0.0118109          147.76
0.551                  -0.814843        -147.542         -54.9643        -126.242          -54.961        -126.268       -0.0119245         147.691
0.552                  -0.833968        -148.075         -54.8213        -129.007         -54.8187        -129.027       -0.0120395         147.621
0.553                  -0.853304         -148.61         -54.6813        -131.776         -54.6794        -131.791       -0.0121559         147.551
0.554                  -0.872851        -149.147         -54.5444        -134.548         -54.5431        -134.559       -0.0122738          147.48
0.555                  -0.892609        -149.687         -54.4105        -137.323         -54.4098        -137.329       -0.0123931          147.41
0.556                  -0.912577        -150.228         -54.2798          -140.1         -54.2796          -140.1        -0.012514         147.339
0.557                  -0.932756        -150.772         -54.1522        -142.877         -54.1525        -142.872       -0.0126363         147.269
0.558                  -0.953147        -151.317         -54.0276        -145.653         -54.0284        -145.644       -0.0127602         147.198
0.559                  -0.973751        -151.866         -53.9062        -148.428         -53.9074        -148.413       -0.0128856         147.127
0.56                    -0.99457        -152.416         -53.7877          -151.2         -53.7893        -151.181       -0.0130126         147.056
0.561                    -1.0156         -152.97         -53.6722        -153.969         -53.6741        -153.945       -0.0131412         146.985
0.562                   -1.03686        -153.525         -53.5597        -156.732         -53.5618        -156.704       -0.0132715         146.914
0.563                   -1.05833        -154.084         -53.4499        -159.491         -53.4522        -159.458       -0.0134034         146.843
0.564                   -1.08003        -154.645         -53.3429        -162.243         -53.3454        -162.206        -0.013537         146.771
0.565                   -1.10195         -155.21         -53.2385        -164.988         -53.2411        -164.948       -0.0136724           146.7
0.566                   -1.12411        -155.777         -53.1366        -167.725         -53.1393        -167.682       -0.0138095         146.628
0.567                    -1.1465        -156.347         -53.0372        -170.454         -53.0399        -170.407       -0.0139484         146.556
0.568                   -1.16913        -156.921           -52.94        -173.174         -52.9427        -173.124       -0.0140891         146.484
0.569                   -1.19202        -157.498          -52.845        -175.884         -52.8477        -175.832       -0.0142317         146.412
0.57                    -1.21516        -158.078          -52.752        -178.584         -52.7546         -178.53       -0.0143763          146.34
0.571                   -1.23856        -158.662         -52.6609         178.726         -52.6634         178.782       -0.0145228         146.267
0.572                   -1.26225         -159.25         -52.5716         176.047          -52.574         176.105       -0.0146713         146.195
0.573                   -1.28621        -159.842         -52.4838         173.379         -52.4861         173.438       -0.0148218         146.122
0.574                   -1.31048        -160.437         -52.3975         170.722         -52.3996         170.782       -0.0149744         146.049
0.575                   -1.33505        -161.037         -52.3126         168.076         -52.3144         168.137       -0.0151292         145.976
0.576                   -1.35996        -161.641         -52.2288         165.441         -52.2305         165.503       -0.0152862         145.903
0.577                    -1.3852         -162.25          -52.146         162.818         -52.1475          162.88       -0.0154455          145.83
0.578                   -1.41081        -162.863         -52.0641         160.206         -52.0654         160.267        -0.015607         145.757
0.579                   -1.43681        -163.481          -51.983         157.605         -51.9841         157.666       -0.0157708         145.683
0.58                    -1.46321        -164.104         -51.9025         155.015         -51.9034         155.074        -0.015937         145.609
0.581                   -1.49005        -164.733         -51.8225         152.435         -51.8232         152.493       -0.0161055         145.536
0.582                   -1.51735        -165.366         -51.7429         149.865         -51.7434         149.922       -0.0162764         145.462
0.583                   -1.54514        -166.005         -51.6636         147.306         -51.6638         147.361       -0.0164495         145.388
0.584                   -1.57347         -166.65         -51.5844         144.755         -51.5844         144.809       -0.0166248         145.313
0.585                   -1.60236        -167.301         -51.5053         142.214         -51.5051         142.266       -0.0168021         145.239
0.586                   -1.63187        -167.957         -51.4261         139.681         -51.4257         139.731       -0.0169811         145.164
0.587                   -1.66203         -168.62         -51.3467         137.157         -51.3462         137.204       -0.0171614          145.09
0.588                   -1.69289        -169.289         -51.2671          134.64         -51.2665         134.684       -0.0173425         145.015
0.589                   -1.72453        -169.965         -51.1872          132.13         -51.1865         132.172       -0.0175237          144.94
0.59                    -1.75698        -170.648          -51.107         129.626         -51.1061         129.665       -0.0177042         144.865
0.591                   -1.79032        -171.337         -51.0262         127.128         -51.0253         127.164       -0.0178828         144.789
0.592                   -1.82463        -172.033          -50.945         124.635          -50.944         124.669       -0.0180588         144.714
0.593                   -1.85996        -172.736         -50.8632         122.147         -50.8622         122.177       -0.0182313         144.638
0.594                   -1.89642        -173.446         -50.7809         119.663         -50.7798          119.69       -0.0183997         144.562
0.595                   -1.93407        -174.163         -50.6979         117.181         -50.6969         117.206       -0.0185642         144.486
0.596                   -1.97302        -174.887         -50.6142         114.703         -50.6132         114.724       -0.0187255          144.41
0.597                   -2.01337        -175.618         -50.5299         112.226          -50.529         112.244       -0.0188851         144.334
0.598                    -2.0552        -176.356         -50.4449          109.75         -50.4441         109.766       -0.0190448         144.257
0.599                   -2.09864          -177.1         -50.3593         107.275         -50.3585         107.288       -0.0192064          144.18
0.6                     -2.14379        -177.851          -50.273           104.8         -50.2723          104.81       -0.0193719         144.103
0.601                   -2.19076        -178.607          -50.186         102.324         -50.1855         102.332       -0.0195424         144.026
0.602                   -2.23966        -179.368         -50.0984         99.8474         -50.0981         99.8522        -0.019719         143.948
0.603                    -2.2906         179.865         -50.0103         97.3685         -50.0101         97.3709       -0.0199018          143.87
0.604                    -2.3437         179.095         -49.9215         94.8871         -49.9215         94.8872       -0.0200911         143.792
0.605                   -2.39905         178.321         -49.8323         92.4027         -49.8325         92.4008       -0.0202865         143.714
0.606                   -2.45674         177.545         -49.7427         89.9147         -49.7431          89.911       -0.0204878         143.636
0.607                   -2.51687         176.767         -49.6527         87.4228         -49.6532         87.4174       -0.0206946         143.557
0.608                   -2.57949          175.99         -49.5623         84.9265         -49.5631         84.9196       -0.0209065         143.478
0.609                   -2.64465         175.213         -49.4718         82.4254         -49.4728         82.4171       -0.0211231         143.399
0.61                    -2.71239         174.439         -49.3811         79.9191         -49.3823         79.9098       -0.0213442          143.32
0.611                   -2.78269         173.669         -49.2903         77.4075         -49.2918         77.3972       -0.0215695         143.241
0.612                   -2.85554         172.903         -49.1996         74.8901         -49.2013         74.8792       -0.0217988         143.161
0.613                   -2.93087         172.145         -49.1091          72.367         -49.1109         72.3557        -0.022032         143.081
0.614                   -3.00859         171.395         -49.0188          69.838         -49.0208         69.8264       -0.0222689         143.001
0.615                   -3.08857         170.655         -48.9288         67.3031          -48.931         67.2914       -0.0225095         142.921
0.616                   -3.17065         169.926         -48.8393         64.7623         -48.8417         64.7507       -0.0227538          142.84
0.617                   -3.25463         169.209         -48.7504         62.2157         -48.7529         62.2044       -0.0230015         142.759
0.618                   -3.34028         168.505         -48.6622         59.6636         -48.6648         59.6528       -0.0232529         142.678
0.619                   -3.42735         167.816         -48.5748         57.1063         -48.5775          57.096       -0.0235078         142.597
0.62                    -3.51557         167.141         -48.4882          54.544          -48.491         54.5345       -0.0237663         142.516
0.621                   -3.60465         166.482         -48.4027         51.9773         -48.4055         51.9685       -0.0240284         142.434
0.622                   -3.69429         165.837         -48.3183         49.4066         -48.3211         49.3987       -0.0242941         142.352
0.623                   -3.78419         165.208          -48.235         46.8325         -48.2378         46.8255       -0.0245634          142.27
0.624                   -3.87406         164.592          -48.153         44.2556         -48.1558         44.2497       -0.0248365         142.187
0.625                   -3.96363          163.99         -48.0724         41.6767         -48.0751         41.6718       -0.0251133         142.105
0.626                   -4.05266           163.4         -47.9931         39.0966         -47.9957         39.0927        -0.025394         142.022
0.627                   -4.14092         162.821         -47.9152          36.516         -47.9178          36.513       -0.0256785         141.938
0.628                   -4.22822         162.252         -47.8389         33.9358         -47.8413         33.9337       -0.0259669         141.855
0.629                   -4.31442          161.69          -47.764         31.3569         -47.7662         31.3557       -0.0262594         141.771
