! TOUCHSTONE file generated by CST MICROWAVE STUDIO
! Date and time: Mon Oct 26 12:07:08 2020
! Project name: Scenario_1_Circular_Tissue_out_of_Line_v2.cst
! Parameters = {dy1=-51.9; L_HA=400; MT=2.54; Rad_Dielectric=30; Rad_Lower=7.3; Rad_Upper=30; a_HA=580; a_WG=246; b_HA=500; b_WG=121; c_HA=0; c_WG=187; d_feed=85; dx1=173; h_feed=15; h_lower=18; h_upper=40}
! Header version: 2018
! Port assignment regex: !\s*Touchstone port\s*([0-9]+)\s*=\s*(CST MWS port|CST DS port)\s*([0-9]+|Zmin|Zmax)\s*\(\"(.*)\"\)(\s*mode\s*([0-9]+))?.*
! Touchstone port assignment:
! Touchstone port 1 = CST MWS port 1 ("")
! Touchstone port 2 = CST MWS port 2 ("")
# GHz S DB R 50
0.5                    -0.103663         -122.54         -56.7537         131.001         -56.7107         131.486      -0.00725945         151.119
0.501                  -0.103363        -122.989         -56.5434         130.056         -56.4983         130.528      -0.00729085         151.053
0.502                  -0.103383        -123.441         -56.3325           129.1         -56.2855         129.559      -0.00732396         150.988
0.503                  -0.103746        -123.899          -56.121         128.133         -56.0722         128.578      -0.00735882         150.922
0.504                  -0.104475         -124.36          -55.909         127.154         -55.8585         127.586      -0.00739546         150.857
0.505                  -0.105597        -124.826         -55.6963         126.164         -55.6443         126.582      -0.00743392         150.791
0.506                  -0.107138        -125.297          -55.483         125.161         -55.4297         125.565      -0.00747423         150.725
0.507                  -0.109124        -125.772         -55.2691         124.146         -55.2146         124.536      -0.00751642         150.659
0.508                  -0.111583        -126.252         -55.0547         123.118         -54.9991         123.493      -0.00756053         150.593
0.509                  -0.114546        -126.736         -54.8396         122.076         -54.7831         122.437      -0.00760659         150.527
0.51                    -0.11804        -127.225         -54.6241         121.021         -54.5668         121.367      -0.00765464         150.461
0.511                  -0.122097        -127.718          -54.408         119.951         -54.3501         120.282      -0.00770471         150.395
0.512                  -0.126748        -128.215         -54.1913         118.867          -54.133         119.183      -0.00775685         150.328
0.513                  -0.132023        -128.717         -53.9742         117.768         -53.9155         118.069      -0.00781108         150.262
0.514                  -0.137955        -129.222         -53.7566         116.653         -53.6977         116.939      -0.00786744         150.196
0.515                  -0.144574        -129.732         -53.5385         115.523         -53.4796         115.794      -0.00792597         150.129
0.516                  -0.151914        -130.245         -53.3201         114.376         -53.2612         114.631       -0.0079867         150.062
0.517                  -0.160006        -130.763         -53.1013         113.212         -53.0426         113.453      -0.00804968         149.996
0.518                  -0.168881        -131.284         -52.8821         112.031         -52.8238         112.256      -0.00811494         149.929
0.519                  -0.178569        -131.808         -52.6627         110.832         -52.6049         111.043      -0.00818252         149.862
0.52                     -0.1891        -132.336          -52.443         109.615         -52.3858         109.811      -0.00825245         149.795
0.521                  -0.200502        -132.866         -52.2231          108.38         -52.1667         108.561      -0.00832478         149.728
0.522                  -0.212803          -133.4         -52.0032         107.125         -51.9476         107.291      -0.00839952         149.661
0.523                  -0.226027        -133.936         -51.7831         105.851         -51.7286         106.003      -0.00847674         149.593
0.524                  -0.240198        -134.474         -51.5631         104.557         -51.5097         104.694      -0.00855645         149.526
0.525                  -0.255335        -135.014         -51.3432         103.242         -51.2911         103.366      -0.00863869         149.458
0.526                  -0.271455        -135.556         -51.1234         101.907         -51.0727         102.017       -0.0087235         149.391
0.527                  -0.288574        -136.099         -50.9039          100.55         -50.8547         100.647       -0.0088109         149.323
0.528                  -0.306701        -136.643         -50.6848         99.1719         -50.6372         99.2553      -0.00890094         149.255
0.529                  -0.325842        -137.187         -50.4661         97.7714         -50.4202         97.8423      -0.00899364         149.188
0.53                   -0.346001        -137.732          -50.248         96.3486         -50.2039         96.4073      -0.00908903          149.12
0.531                  -0.367175        -138.276         -50.0306         94.9029         -49.9884           94.95      -0.00918714         149.052
0.532                  -0.389356        -138.821          -49.814         93.4342         -49.7738         93.4701      -0.00928799         148.984
0.533                  -0.412532        -139.364         -49.5983         91.9422         -49.5603         91.9675      -0.00939161         148.915
0.534                  -0.436684        -139.905         -49.3837         90.4266         -49.3478          90.442      -0.00949803         148.847
0.535                  -0.461791        -140.446         -49.1703         88.8873         -49.1367         88.8933      -0.00960725         148.779
0.536                  -0.487822        -140.984         -48.9583         87.3241          -48.927         87.3214       -0.0097193          148.71
0.537                  -0.514743        -141.519         -48.7477         85.7369         -48.7189         85.7263       -0.0098342         148.641
0.538                  -0.542513        -142.052         -48.5389         84.1257         -48.5125         84.1078      -0.00995195         148.573
0.539                  -0.571088        -142.581         -48.3318         82.4905          -48.308         82.4663       -0.0100726         148.504
0.54                   -0.600416        -143.107         -48.1268         80.8315         -48.1055         80.8016       -0.0101961         148.435
0.541                  -0.630442        -143.629          -47.924         79.1488         -47.9053         79.1142       -0.0103224         148.366
0.542                  -0.661104        -144.147         -47.7235         77.4428         -47.7074         77.4042       -0.0104517         148.297
0.543                  -0.692339        -144.661         -47.5255         75.7137         -47.5121          75.672       -0.0105838         148.228
0.544                  -0.724077         -145.17         -47.3303          73.962         -47.3194          73.918       -0.0107188         148.158
0.545                  -0.756248        -145.675         -47.1379         72.1882         -47.1297         72.1429       -0.0108566         148.089
0.546                  -0.788778        -146.175         -46.9487          70.393          -46.943         70.3473       -0.0109972          148.02
0.547                   -0.82159         -146.67         -46.7626         68.5771         -46.7596         68.5317       -0.0111407          147.95
0.548                  -0.854608        -147.161         -46.5801         66.7412         -46.5795         66.6972        -0.011287          147.88
0.549                  -0.887755        -147.646         -46.4011         64.8864          -46.403         64.8445        -0.011436          147.81
0.55                   -0.920953        -148.127         -46.2258         63.0136         -46.2301         62.9746       -0.0115877         147.741
0.551                  -0.954126        -148.604         -46.0545         61.1239         -46.0611         61.0887       -0.0117422          147.67
0.552                  -0.987201        -149.075         -45.8872         59.2186          -45.896         59.1878       -0.0118992           147.6
0.553                    -1.0201        -149.543         -45.7241         57.2989          -45.735         57.2733       -0.0120589          147.53
0.554                   -1.05277        -150.007         -45.5653         55.3663         -45.5782         55.3464       -0.0122211          147.46
0.555                   -1.08513        -150.467         -45.4109         53.4221         -45.4257         53.4086       -0.0123858         147.389
0.556                   -1.11712        -150.924          -45.261         51.4679         -45.2776         51.4613       -0.0125529         147.319
0.557                   -1.14869        -151.377         -45.1157         49.5052         -45.1338         49.5059       -0.0127223         147.248
0.558                   -1.17978        -151.828         -44.9749         47.5356         -44.9946         47.5441       -0.0128941         147.177
0.559                   -1.21035        -152.277         -44.8389         45.5609         -44.8599         45.5773        -0.013068         147.106
0.56                    -1.24036        -152.724         -44.7075         43.5827         -44.7297         43.6072       -0.0132441         147.035
0.561                   -1.26977        -153.169         -44.5808         41.6026         -44.6041         41.6354       -0.0134222         146.964
0.562                   -1.29855        -153.614         -44.4587         39.6223         -44.4829         39.6635       -0.0136023         146.893
0.563                   -1.32668        -154.059         -44.3413         37.6435         -44.3662          37.693       -0.0137842         146.822
0.564                   -1.35413        -154.503         -44.2284         35.6679         -44.2539         35.7255       -0.0139679          146.75
0.565                    -1.3809        -154.948           -44.12          33.697          -44.146         33.7625       -0.0141533         146.679
0.566                   -1.40698        -155.394         -44.0159         31.7323         -44.0423         31.8055       -0.0143403         146.607
0.567                   -1.43236        -155.841         -43.9162         29.7754         -43.9428          29.856       -0.0145288         146.535
0.568                   -1.45705         -156.29         -43.8206         27.8276         -43.8473         27.9151       -0.0147187         146.463
0.569                   -1.48105        -156.742          -43.729         25.8903         -43.7556         25.9843       -0.0149099         146.391
0.57                    -1.50438        -157.196         -43.6412         23.9647         -43.6678         24.0648       -0.0151022         146.319
0.571                   -1.52705        -157.654         -43.5572         22.0521         -43.5835         22.1576       -0.0152957         146.247
0.572                   -1.54907        -158.115         -43.4767         20.1534         -43.5027         20.2637       -0.0154902         146.175
0.573                   -1.57048        -158.581         -43.3995         18.2696         -43.4251         18.3842       -0.0156855         146.102
0.574                    -1.5913        -159.051         -43.3255         16.4015         -43.3506         16.5198       -0.0158817         146.029
0.575                   -1.61155        -159.526         -43.2544           14.55         -43.2791         14.6714       -0.0160786         145.957
0.576                   -1.63127        -160.006         -43.1862         12.7157         -43.2102         12.8394       -0.0162762         145.884
0.577                   -1.65049        -160.492         -43.1205         10.8992         -43.1439         11.0246       -0.0164743         145.811
0.578                   -1.66924        -160.983         -43.0571         9.10084           -43.08         9.22732       -0.0166729         145.737
0.579                   -1.68757        -161.481          -42.996         7.32108         -43.0182         7.44802       -0.0168719         145.664
0.58                     -1.7055        -161.985         -42.9369         5.56019         -42.9584         5.68696       -0.0170713          145.59
0.581                   -1.72309        -162.496         -42.8795         3.81836         -42.9004         3.94438        -0.017271         145.517
0.582                   -1.74036        -163.014         -42.8238         2.09569          -42.844         2.22039       -0.0174708         145.443
0.583                   -1.75737        -163.539         -42.7695        0.392229          -42.789         0.51506       -0.0176709         145.369
0.584                   -1.77415        -164.072         -42.7165        -1.29207         -42.7353        -1.17161       -0.0178711         145.295
0.585                   -1.79075        -164.613         -42.6645         -2.9573         -42.6827        -2.83969       -0.0180715         145.221
0.586                   -1.80721        -165.161         -42.6134        -4.60362         -42.6311        -4.48931       -0.0182719         145.147
0.587                   -1.82357        -165.717         -42.5631        -6.23126         -42.5802        -6.12066       -0.0184724         145.072
0.588                   -1.83988        -166.282         -42.5134        -7.84048           -42.53        -7.73395       -0.0186729         144.997
0.589                   -1.85618        -166.856         -42.4641         -9.4316         -42.4802        -9.32948       -0.0188735         144.922
0.59                    -1.87251        -167.437         -42.4152         -11.005         -42.4308        -10.9075       -0.0190742         144.847
0.591                   -1.88893        -168.028         -42.3664         -12.561         -42.3816        -12.4685       -0.0192749         144.772
0.592                   -1.90547        -168.628         -42.3176        -14.1001         -42.3325        -14.0128       -0.0194758         144.697
0.593                   -1.92218        -169.236         -42.2688        -15.6226         -42.2834        -15.5407       -0.0196767         144.621
0.594                   -1.93911        -169.854         -42.2199        -17.1292         -42.2342        -17.0528       -0.0198779         144.546
0.595                    -1.9563        -170.482         -42.1706        -18.6203         -42.1847        -18.5494       -0.0200792          144.47
0.596                   -1.97379        -171.118          -42.121        -20.0963         -42.1349        -20.0312       -0.0202808         144.394
0.597                   -1.99164        -171.765         -42.0708        -21.5579         -42.0847        -21.4985       -0.0204827         144.317
0.598                   -2.00988         -172.42         -42.0202        -23.0055         -42.0339        -22.9518        -0.020685         144.241
0.599                   -2.02856        -173.086         -41.9688        -24.4397         -41.9826        -24.3918       -0.0208877         144.164
0.6                     -2.04774        -173.762         -41.9168        -25.8611         -41.9306        -25.8188        -0.021091         144.088
0.601                   -2.06745        -174.447          -41.864        -27.2702         -41.8779        -27.2335       -0.0212949         144.011
0.602                   -2.08774        -175.143         -41.8104        -28.6676         -41.8243        -28.6363       -0.0214995         143.933
0.603                   -2.10867        -175.849         -41.7558        -30.0538           -41.77        -30.0279       -0.0217048         143.856
0.604                   -2.13027        -176.565         -41.7003        -31.4295         -41.7147        -31.4087       -0.0219111         143.778
0.605                   -2.15261        -177.291         -41.6439        -32.7951         -41.6584        -32.7793       -0.0221183         143.701
0.606                   -2.17572        -178.028         -41.5863        -34.1512         -41.6012        -34.1403       -0.0223266         143.622
0.607                   -2.19966        -178.776         -41.5278        -35.4984         -41.5429        -35.4921       -0.0225361         143.544
0.608                   -2.22449        -179.534         -41.4681        -36.8373         -41.4836        -36.8353        -0.022747         143.466
0.609                   -2.25025         179.698         -41.4072        -38.1684         -41.4231        -38.1705       -0.0229593         143.387
0.61                    -2.27699         178.918         -41.3452        -39.4922         -41.3615        -39.4981       -0.0231731         143.308
0.611                   -2.30478         178.128         -41.2821        -40.8093         -41.2988        -40.8188       -0.0233886         143.229
0.612                   -2.33367         177.327         -41.2177        -42.1202         -41.2348        -42.1329       -0.0236058          143.15
0.613                   -2.36371         176.515         -41.1522        -43.4255         -41.1697        -43.4411        -0.023825          143.07
0.614                   -2.39497         175.691         -41.0854        -44.7256         -41.1034        -44.7439       -0.0240463          142.99
0.615                    -2.4275         174.857         -41.0174        -46.0211         -41.0359        -46.0417       -0.0242697          142.91
0.616                   -2.46137         174.012         -40.9481        -47.3124         -40.9671         -47.335       -0.0244954          142.83
0.617                   -2.49665         173.155         -40.8777        -48.6001         -40.8972        -48.6243       -0.0247235          142.75
0.618                   -2.53339         172.287          -40.806        -49.8846          -40.826        -49.9102       -0.0249542         142.669
0.619                   -2.57166         171.408         -40.7331        -51.1665         -40.7536        -51.1931       -0.0251876         142.588
0.62                    -2.61154         170.517          -40.659        -52.4462         -40.6799        -52.4734       -0.0254238         142.507
0.621                   -2.65309         169.615         -40.5837        -53.7241         -40.6051        -53.7516        -0.025663         142.425
0.622                    -2.6964         168.701         -40.5072        -55.0007         -40.5291        -55.0283       -0.0259053         142.343
0.623                   -2.74153         167.777         -40.4295        -56.2765         -40.4519        -56.3037       -0.0261508         142.261
0.624                   -2.78856          166.84         -40.3507        -57.5518         -40.3735        -57.5783       -0.0263996         142.179
0.625                   -2.83758         165.892         -40.2707        -58.8272          -40.294        -58.8527       -0.0266519         142.096
0.626                   -2.88867         164.933         -40.1897        -60.1029         -40.2133        -60.1271       -0.0269079         142.014
0.627                   -2.94192         163.962         -40.1075        -61.3794         -40.1316         -61.402       -0.0271676         141.931
0.628                   -2.99741          162.98         -40.0244        -62.6571         -40.0488        -62.6779       -0.0274312         141.847
0.629                   -3.05525         161.986         -39.9402        -63.9364         -39.9649         -63.955       -0.0276989         141.764
