! TOUCHSTONE file generated by CST MICROWAVE STUDIO
! Date and time: Wed Oct 28 19:36:53 2020
! Project name: Scenario_1_Circular_Tissue_out_of_Line_v2.cst
! Parameters = {dy1=-51.9; L_HA=400; MT=2.54; Rad_Dielectric=30; Rad_Lower=7.3; Rad_Upper=30; a_HA=580; a_WG=246; b_HA=500; b_WG=121; c_HA=0; c_WG=187; d_feed=85; dx1=346; h_feed=15; h_lower=18; h_upper=40}
! Header version: 2018
! Port assignment regex: !\s*Touchstone port\s*([0-9]+)\s*=\s*(CST MWS port|CST DS port)\s*([0-9]+|Zmin|Zmax)\s*\(\"(.*)\"\)(\s*mode\s*([0-9]+))?.*
! Touchstone port assignment:
! Touchstone port 1 = CST MWS port 1 ("")
! Touchstone port 2 = CST MWS port 2 ("")
# GHz S DB R 50
0.5                    -0.175013        -122.268         -58.3013         32.8424         -58.3433         32.6962      -0.00781745         151.134
0.501                  -0.179448        -122.689         -58.1547         31.2807         -58.2296         31.2224      -0.00788519         151.069
0.502                  -0.183964        -123.112         -58.0101         29.7237         -58.1147         29.7506       -0.0079533         151.004
0.503                  -0.188564        -123.537         -57.8674         28.1717         -57.9987         28.2809      -0.00802179         150.939
0.504                  -0.193251        -123.966         -57.7265         26.6253         -57.8814         26.8134      -0.00809064         150.873
0.505                  -0.198028        -124.396         -57.5872         25.0846         -57.7631          25.348      -0.00815987         150.808
0.506                    -0.2029        -124.829         -57.4495         23.5501         -57.6436         23.8848      -0.00822948         150.742
0.507                  -0.207871        -125.265         -57.3132         22.0219         -57.5231          22.424      -0.00829947         150.677
0.508                  -0.212943        -125.703         -57.1782         20.5003         -57.4016         20.9654      -0.00836984         150.611
0.509                   -0.21812        -126.144         -57.0443         18.9853         -57.2791         19.5092      -0.00844061         150.545
0.51                   -0.223408        -126.587         -56.9116         17.4772         -57.1556         18.0554      -0.00851176         150.479
0.511                  -0.228811        -127.034         -56.7798         15.9759         -57.0311         16.6039      -0.00858331         150.413
0.512                  -0.234332        -127.482         -56.6488         14.4815         -56.9058         15.1548      -0.00865526         150.347
0.513                  -0.239977        -127.934         -56.5186          12.994         -56.7795          13.708      -0.00872761         150.281
0.514                  -0.245751        -128.388          -56.389         11.5133         -56.6523         12.2636      -0.00880036         150.215
0.515                  -0.251658        -128.845           -56.26         10.0393         -56.5243         10.8215      -0.00887353         150.149
0.516                  -0.257704        -129.305         -56.1315         8.57206         -56.3955         9.38162      -0.00894711         150.082
0.517                  -0.263894        -129.768         -56.0033         7.11133         -56.2659         7.94403       -0.0090211         150.016
0.518                  -0.270234        -130.234         -55.8753         5.65699         -56.1354         6.50864      -0.00909552         149.949
0.519                  -0.276729        -130.703         -55.7476         4.20886         -56.0042          5.0754      -0.00917036         149.883
0.52                   -0.283387        -131.175           -55.62         2.76676         -55.8722         3.64424      -0.00924564         149.816
0.521                  -0.290213        -131.649         -55.4924         1.33048         -55.7396         2.21511      -0.00932135         149.749
0.522                  -0.297213        -132.127         -55.3648       -0.100212         -55.6061        0.787927      -0.00939751         149.683
0.523                  -0.304395        -132.608         -55.2371        -1.52556          -55.472       -0.637385      -0.00947411         149.616
0.524                  -0.311766        -133.092         -55.1092        -2.94581         -55.3372        -2.06091      -0.00955116         149.549
0.525                  -0.319334         -133.58         -54.9811        -4.36125         -55.2017        -3.48275      -0.00962867         149.481
0.526                  -0.327105         -134.07         -54.8527        -5.77213         -55.0655          -4.903      -0.00970665         149.414
0.527                  -0.335088        -134.564         -54.7239        -7.17877         -54.9286        -6.32176      -0.00978509         149.347
0.528                  -0.343292        -135.061         -54.5948        -8.58144         -54.7911        -7.73915      -0.00986402         149.279
0.529                  -0.351725        -135.562         -54.4652        -9.98047          -54.653        -9.15529      -0.00994342         149.212
0.53                   -0.360396        -136.066         -54.3351        -11.3762         -54.5142        -10.5703       -0.0100233         149.144
0.531                  -0.369315        -136.573         -54.2045        -12.7688         -54.3748        -11.9843       -0.0101037         149.077
0.532                  -0.378491        -137.084         -54.0733        -14.1588         -54.2348        -13.3975       -0.0101846         149.009
0.533                  -0.387934        -137.598         -53.9415        -15.5464         -54.0942          -14.81        -0.010266         148.941
0.534                  -0.397656        -138.116          -53.809         -16.932          -53.953        -16.2219        -0.010348         148.873
0.535                  -0.407666        -138.637         -53.6759        -18.3159         -53.8111        -17.6334       -0.0104305         148.805
0.536                  -0.417977        -139.162         -53.5421        -19.6985         -53.6687        -19.0447       -0.0105135         148.737
0.537                  -0.428601        -139.691         -53.4075        -21.0801         -53.5256         -20.456        -0.010597         148.669
0.538                   -0.43955        -140.224         -53.2722         -22.461          -53.382        -21.8674       -0.0106812           148.6
0.539                  -0.450836         -140.76          -53.136        -23.8416         -53.2377        -23.2791       -0.0107659         148.532
0.54                   -0.462474          -141.3         -52.9991        -25.2223         -53.0929        -24.6913       -0.0108512         148.463
0.541                  -0.474476        -141.844         -52.8614        -26.6034         -52.9475        -26.1043        -0.010937         148.394
0.542                  -0.486859        -142.391         -52.7229        -27.9852         -52.8015        -27.5182       -0.0110235         148.326
0.543                  -0.499635        -142.943         -52.5835        -29.3682         -52.6549        -28.9332       -0.0111107         148.257
0.544                  -0.512822        -143.498         -52.4432        -30.7526         -52.5077        -30.3496       -0.0111984         148.188
0.545                  -0.526436        -144.058         -52.3021        -32.1389           -52.36        -31.7676       -0.0112868         148.118
0.546                  -0.540492        -144.621         -52.1601        -33.5274         -52.2117        -33.1875       -0.0113759         148.049
0.547                  -0.555009        -145.188         -52.0173        -34.9185         -52.0628        -34.6095       -0.0114657          147.98
0.548                  -0.570005         -145.76         -51.8736        -36.3124         -51.9133        -36.0338       -0.0115562          147.91
0.549                  -0.585499        -146.335          -51.729        -37.7097         -51.7633        -37.4607       -0.0116474         147.841
0.55                   -0.601509        -146.915         -51.5836        -39.1105         -51.6127        -38.8905       -0.0117393         147.771
0.551                  -0.618056        -147.498         -51.4373        -40.5154         -51.4615        -40.3235        -0.011832         147.701
0.552                  -0.635161        -148.086         -51.2902        -41.9247         -51.3098        -41.7598       -0.0119255         147.631
0.553                  -0.652845        -148.677         -51.1422        -43.3386         -51.1576        -43.1999       -0.0120199         147.561
0.554                  -0.671131        -149.273         -50.9934        -44.7576         -51.0048         -44.644        -0.012115         147.491
0.555                  -0.690041        -149.873         -50.8438        -46.1821         -50.8515        -46.0924        -0.012211         147.421
0.556                    -0.7096        -150.477         -50.6934        -47.6124         -50.6977        -47.5454       -0.0123079          147.35
0.557                   -0.72983        -151.085         -50.5422        -49.0487         -50.5433        -49.0033       -0.0124058          147.28
0.558                  -0.750759        -151.697         -50.3903        -50.4916         -50.3885        -50.4665       -0.0125045         147.209
0.559                   -0.77241        -152.313         -50.2376        -51.9413         -50.2333        -51.9352       -0.0126043         147.138
0.56                   -0.794811        -152.933         -50.0843        -53.3983         -50.0775        -53.4098       -0.0127051         147.067
0.561                  -0.817989        -153.556         -49.9303        -54.8627         -49.9214        -54.8905       -0.0128069         146.996
0.562                  -0.841971        -154.184         -49.7756         -56.335         -49.7648        -56.3777       -0.0129099         146.925
0.563                  -0.866786        -154.816         -49.6203        -57.8154         -49.6079        -57.8718        -0.013014         146.854
0.564                  -0.892462        -155.451         -49.4645        -59.3044         -49.4506         -59.373       -0.0131193         146.782
0.565                  -0.919028         -156.09         -49.3082        -60.8022         -49.2929        -60.8817       -0.0132258         146.711
0.566                  -0.946515        -156.732         -49.1513        -62.3092          -49.135        -62.3982       -0.0133336         146.639
0.567                  -0.974953        -157.378          -48.994        -63.8256         -48.9768        -63.9229       -0.0134427         146.567
0.568                   -1.00437        -158.027         -48.8364        -65.3517         -48.8184        -65.4559       -0.0135532         146.495
0.569                    -1.0348         -158.68         -48.6784        -66.8879         -48.6598        -66.9977       -0.0136652         146.423
0.57                    -1.06627        -159.335         -48.5201        -68.4344          -48.501        -68.5485       -0.0137786          146.35
0.571                   -1.09881        -159.994         -48.3616        -69.9914         -48.3422        -70.1087       -0.0138937         146.278
0.572                   -1.13245        -160.655         -48.2029        -71.5592         -48.1833        -71.6785       -0.0140104         146.205
0.573                   -1.16723        -161.318         -48.0441        -73.1381         -48.0243        -73.2582       -0.0141287         146.133
0.574                   -1.20316        -161.984         -47.8853        -74.7283         -47.8655         -74.848       -0.0142489          146.06
0.575                   -1.24029        -162.652         -47.7265        -76.3299         -47.7068        -76.4482       -0.0143709         145.987
0.576                   -1.27863        -163.322         -47.5677        -77.9431         -47.5482        -78.0591       -0.0144949         145.913
0.577                    -1.3182        -163.993         -47.4092        -79.5681         -47.3899        -79.6808       -0.0146209          145.84
0.578                   -1.35905        -164.665         -47.2509        -81.2051         -47.2319        -81.3136        -0.014749         145.766
0.579                   -1.40118        -165.339         -47.0929        -82.8541         -47.0742        -82.9576       -0.0148793         145.693
0.58                    -1.44462        -166.013         -46.9353        -84.5153          -46.917        -84.6129       -0.0150119         145.619
0.581                   -1.48939        -166.688         -46.7782        -86.1887         -46.7603        -86.2797       -0.0151468         145.545
0.582                    -1.5355        -167.362         -46.6217        -87.8743         -46.6042        -87.9582       -0.0152843         145.471
0.583                   -1.58296        -168.036         -46.4658        -89.5722         -46.4488        -89.6482       -0.0154244         145.396
0.584                   -1.63179        -168.709         -46.3106        -91.2823         -46.2941          -91.35       -0.0155671         145.322
0.585                   -1.68197        -169.381         -46.1563        -93.0046         -46.1403        -93.0634       -0.0157127         145.247
0.586                   -1.73353        -170.051         -46.0029         -94.739         -45.9874        -94.7885       -0.0158612         145.172
0.587                   -1.78645        -170.719         -45.8504        -96.4854         -45.8355        -96.5252       -0.0160127         145.097
0.588                   -1.84071        -171.385         -45.6991        -98.2436         -45.6847        -98.2734       -0.0161673         145.022
0.589                   -1.89632        -172.047         -45.5489        -100.013         -45.5351        -100.033       -0.0163252         144.947
0.59                    -1.95324        -172.706         -45.4001        -101.795         -45.3867        -101.804       -0.0164865         144.871
0.591                   -2.01144        -173.361         -45.2525        -103.587         -45.2397        -103.585       -0.0166512         144.795
0.592                   -2.07091        -174.011         -45.1064         -105.39         -45.0941        -105.378       -0.0168195         144.719
0.593                   -2.13158        -174.657         -44.9619        -107.204         -44.9501        -107.181       -0.0169916         144.643
0.594                   -2.19342        -175.297         -44.8189        -109.027         -44.8076        -108.993       -0.0171674         144.567
0.595                   -2.25638        -175.931         -44.6776        -110.861         -44.6668        -110.816       -0.0173471         144.491
0.596                   -2.32038        -176.559         -44.5381        -112.703         -44.5278        -112.648       -0.0175308         144.414
0.597                   -2.38537         -177.18         -44.4005        -114.555         -44.3905        -114.488       -0.0177187         144.337
0.598                   -2.45126        -177.794         -44.2647        -116.414         -44.2552        -116.337       -0.0179107          144.26
0.599                   -2.51797        -178.401         -44.1309        -118.282         -44.1218        -118.194        -0.018107         144.183
0.6                     -2.58541            -179         -43.9991        -120.156         -43.9905        -120.058       -0.0183077         144.106
0.601                   -2.65349        -179.591         -43.8694        -122.037         -43.8612        -121.929       -0.0185128         144.028
0.602                    -2.7221         179.826         -43.7419        -123.923          -43.734        -123.806       -0.0187224          143.95
0.603                   -2.79113         179.251         -43.6165        -125.815          -43.609        -125.688       -0.0189365         143.872
0.604                   -2.86048         178.685         -43.4933        -127.711         -43.4862        -127.574       -0.0191552         143.794
0.605                   -2.93002         178.128         -43.3723        -129.611         -43.3655        -129.465       -0.0193785         143.716
0.606                   -2.99964         177.578         -43.2536        -131.514         -43.2472        -131.359       -0.0196064         143.637
0.607                   -3.06922         177.037         -43.1372        -133.419          -43.131        -133.256       -0.0198391         143.558
0.608                   -3.13864         176.504          -43.023        -135.326         -43.0172        -135.155       -0.0200763         143.479
0.609                   -3.20777         175.979         -42.9111        -137.233         -42.9056        -137.054       -0.0203182           143.4
0.61                    -3.27651         175.461         -42.8015        -139.141         -42.7963        -138.955       -0.0205648         143.321
0.611                   -3.34473         174.951         -42.6942        -141.048         -42.6892        -140.855       -0.0208159         143.241
0.612                   -3.41233         174.446          -42.589        -142.954         -42.5843        -142.754       -0.0210717         143.161
0.613                    -3.4792         173.948         -42.4861        -144.858         -42.4816        -144.651        -0.021332         143.081
0.614                   -3.54525         173.455         -42.3854         -146.76          -42.381        -146.546       -0.0215967         143.001
0.615                   -3.61038         172.966         -42.2867        -148.657         -42.2826        -148.439       -0.0218659          142.92
0.616                   -3.67452         172.481         -42.1902        -150.551         -42.1862        -150.327       -0.0221394          142.84
0.617                    -3.7376         171.999         -42.0957        -152.441         -42.0918        -152.211       -0.0224173         142.759
0.618                   -3.79956         171.519         -42.0031        -154.325         -41.9994        -154.091       -0.0226993         142.678
0.619                   -3.86036          171.04         -41.9125        -156.204         -41.9088        -155.965       -0.0229856         142.596
0.62                    -3.91996         170.561         -41.8236        -158.076         -41.8201        -157.833       -0.0232759         142.515
0.621                   -3.97835         170.081         -41.7365        -159.941          -41.733        -159.695       -0.0235702         142.433
0.622                   -4.03551         169.599         -41.6512          -161.8         -41.6477        -161.551       -0.0238685         142.351
0.623                   -4.09146         169.115         -41.5674        -163.651         -41.5639        -163.399       -0.0241706         142.269
0.624                    -4.1462         168.626         -41.4851        -165.494         -41.4816        -165.239       -0.0244765         142.186
0.625                   -4.19978         168.132         -41.4043        -167.328         -41.4008        -167.072       -0.0247862         142.103
0.626                   -4.25224         167.633         -41.3248        -169.154         -41.3212        -168.897       -0.0250995          142.02
0.627                   -4.30363         167.126         -41.2465        -170.972         -41.2429        -170.713       -0.0254165         141.937
0.628                   -4.35403         166.612         -41.1695         -172.78         -41.1658        -172.521       -0.0257371         141.854
0.629                    -4.4035         166.089         -41.0935        -174.579         -41.0897        -174.319       -0.0260613          141.77
