! TOUCHSTONE file generated by CST MICROWAVE STUDIO
! Date and time: Fri Oct 30 07:55:09 2020
! Project name: Scenario_1_Circular_Tissue_out_of_Line.cst
! Parameters = {dy1=-51.203; L_HA=400; MT=2.54; Rad_Dielectric=30; Rad_Lower=7.3; Rad_Upper=30; a_HA=580; a_WG=246; b_HA=500; b_WG=121; c_HA=0; c_WG=187; d_feed=85; dx1=520; h_feed=15; h_lower=18; h_upper=40}
! Header version: 2018
! Port assignment regex: !\s*Touchstone port\s*([0-9]+)\s*=\s*(CST MWS port|CST DS port)\s*([0-9]+|Zmin|Zmax)\s*\(\"(.*)\"\)(\s*mode\s*([0-9]+))?.*
! Touchstone port assignment:
! Touchstone port 1 = CST MWS port 1 ("")
! Touchstone port 2 = CST MWS port 2 ("")
# GHz S DB R 50
0.5                    -0.131127        -122.477         -61.0749        -60.1107         -61.0749        -60.1107       -0.0073819         151.123
0.501                  -0.141599        -122.952         -60.8875         -61.539         -60.8878        -61.5397      -0.00744305         151.058
0.502                  -0.152303        -123.426         -60.6989        -62.9839         -60.6995        -62.9853      -0.00750589         150.992
0.503                  -0.163233          -123.9         -60.5092        -64.4457           -60.51        -64.4478      -0.00757043         150.927
0.504                  -0.174379        -124.373         -60.3183         -65.925         -60.3194        -65.9275      -0.00763663         150.861
0.505                  -0.185732        -124.846         -60.1265        -67.4221         -60.1278         -67.425      -0.00770449         150.795
0.506                  -0.197284        -125.319         -59.9337        -68.9373         -59.9353        -68.9406      -0.00777398          150.73
0.507                  -0.209027        -125.792         -59.7401         -70.471         -59.7419        -70.4747       -0.0078451         150.664
0.508                  -0.220952        -126.264         -59.5458        -72.0237         -59.5478        -72.0275      -0.00791781         150.598
0.509                  -0.233052        -126.735         -59.3509        -73.5956         -59.3531        -73.5996      -0.00799211         150.532
0.51                   -0.245318        -127.207         -59.1554        -75.1871         -59.1578        -75.1911      -0.00806796         150.466
0.511                  -0.257743        -127.679         -58.9596        -76.7985         -58.9621        -76.8025      -0.00814537           150.4
0.512                  -0.270319         -128.15         -58.7635          -78.43         -58.7661        -78.4339      -0.00822429         150.334
0.513                  -0.283039        -128.621         -58.5672        -80.0819           -58.57        -80.0857      -0.00830472         150.267
0.514                  -0.295895        -129.092         -58.3709        -81.7544         -58.3738        -81.7581      -0.00838663         150.201
0.515                  -0.308881        -129.564         -58.1747        -83.4477         -58.1778        -83.4512         -0.00847         150.134
0.516                  -0.321991        -130.035         -57.9788         -85.162          -57.982        -85.1652      -0.00855481         150.068
0.517                  -0.335217        -130.506         -57.7833        -86.8973         -57.7865        -86.9001      -0.00864104         150.001
0.518                  -0.348553        -130.978         -57.5884        -88.6537         -57.5917        -88.6561      -0.00872867         149.935
0.519                  -0.361993         -131.45         -57.3941        -90.4311         -57.3975        -90.4332      -0.00881768         149.868
0.52                   -0.375531        -131.922         -57.2008        -92.2296         -57.2042        -92.2312      -0.00890804         149.801
0.521                  -0.389163        -132.394         -57.0084        -94.0489         -57.0118          -94.05      -0.00899974         149.734
0.522                  -0.402882        -132.867         -56.8173        -95.8889         -56.8207        -95.8895      -0.00909274         149.667
0.523                  -0.416683         -133.34         -56.6275        -97.7492         -56.6309        -97.7493      -0.00918704           149.6
0.524                  -0.430561        -133.814         -56.4392        -99.6297         -56.4427        -99.6293      -0.00928261         149.533
0.525                  -0.444513        -134.288         -56.2527         -101.53         -56.2561        -101.529      -0.00937943         149.466
0.526                  -0.458534        -134.763          -56.068        -103.449         -56.0713        -103.448      -0.00947747         149.398
0.527                  -0.472619        -135.239         -55.8853        -105.387         -55.8886        -105.385      -0.00957672         149.331
0.528                  -0.486766        -135.715         -55.7048        -107.343          -55.708         -107.34      -0.00967715         149.263
0.529                  -0.500971        -136.193         -55.5266        -109.316         -55.5298        -109.313      -0.00977874         149.196
0.53                   -0.515231        -136.671         -55.3509        -111.305          -55.354        -111.302      -0.00988148         149.128
0.531                  -0.529542         -137.15         -55.1779         -113.31         -55.1809        -113.306      -0.00998534          149.06
0.532                  -0.543904        -137.631         -55.0076         -115.33         -55.0104        -115.326       -0.0100903         148.992
0.533                  -0.558314        -138.113         -54.8401        -117.363         -54.8429        -117.358       -0.0101963         148.924
0.534                   -0.57277        -138.596         -54.6757        -119.408         -54.6784        -119.404       -0.0103034         148.856
0.535                  -0.587272         -139.08         -54.5144        -121.465         -54.5169         -121.46       -0.0104116         148.788
0.536                  -0.601817        -139.566         -54.3563        -123.532         -54.3587        -123.527       -0.0105207          148.72
0.537                  -0.616406        -140.053         -54.2014        -125.608         -54.2037        -125.602       -0.0106309         148.652
0.538                  -0.631038        -140.542         -54.0499        -127.691          -54.052        -127.685       -0.0107421         148.583
0.539                  -0.645714        -141.032         -53.9017        -129.781         -53.9037        -129.775       -0.0108542         148.515
0.54                   -0.660435        -141.525         -53.7569        -131.875         -53.7588        -131.869       -0.0109673         148.446
0.541                  -0.675201        -142.019         -53.6156        -133.973         -53.6173        -133.967       -0.0110813         148.377
0.542                  -0.690015        -142.515         -53.4777        -136.073         -53.4792        -136.067       -0.0111962         148.309
0.543                  -0.704877        -143.013         -53.3431        -138.174         -53.3445        -138.168        -0.011312          148.24
0.544                  -0.719792        -143.514          -53.212        -140.274         -53.2133        -140.268       -0.0114288         148.171
0.545                  -0.734762        -144.017         -53.0842        -142.372         -53.0853        -142.367       -0.0115464         148.102
0.546                   -0.74979        -144.522         -52.9596        -144.468         -52.9606        -144.462       -0.0116648         148.032
0.547                   -0.76488        -145.029         -52.8382        -146.559         -52.8391        -146.554       -0.0117841         147.963
0.548                  -0.780038        -145.539           -52.72        -148.644         -52.7207        -148.639       -0.0119043         147.894
0.549                  -0.795267        -146.052         -52.6047        -150.723         -52.6053        -150.719       -0.0120253         147.824
0.55                   -0.810575        -146.568         -52.4923        -152.794         -52.4928         -152.79       -0.0121471         147.754
0.551                  -0.825967        -147.087         -52.3827        -154.857         -52.3831        -154.853       -0.0122697         147.685
0.552                  -0.841451        -147.608         -52.2757         -156.91         -52.2761        -156.907       -0.0123931         147.615
0.553                  -0.857033        -148.133         -52.1712        -158.953         -52.1715         -158.95       -0.0125174         147.545
0.554                  -0.872722        -148.661         -52.0691        -160.984         -52.0693        -160.982       -0.0126424         147.475
0.555                  -0.888527        -149.192         -51.9692        -163.004         -51.9693        -163.003       -0.0127682         147.405
0.556                  -0.904458        -149.727         -51.8713        -165.012         -51.8713        -165.011       -0.0128948         147.334
0.557                  -0.920525        -150.265         -51.7753        -167.008         -51.7753        -167.007       -0.0130221         147.264
0.558                  -0.936739        -150.807         -51.6811         -168.99          -51.681        -168.989       -0.0131503         147.193
0.559                  -0.953112        -151.352         -51.5884        -170.958         -51.5883        -170.959       -0.0132792         147.122
0.56                   -0.969657        -151.902         -51.4972        -172.913          -51.497        -172.914       -0.0134089         147.052
0.561                  -0.986386        -152.456         -51.4072        -174.855          -51.407        -174.856       -0.0135394         146.981
0.562                   -1.00332        -153.013         -51.3183        -176.782         -51.3181        -176.783       -0.0136707          146.91
0.563                   -1.02046        -153.575         -51.2304        -178.695         -51.2302        -178.697       -0.0138027         146.839
0.564                   -1.03784        -154.142         -51.1433         179.405         -51.1431         179.403       -0.0139356         146.767
0.565                   -1.05546        -154.713         -51.0569         177.519         -51.0566         177.516       -0.0140693         146.696
0.566                   -1.07335        -155.288          -50.971         175.647         -50.9707         175.644       -0.0142038         146.624
0.567                   -1.09152        -155.868         -50.8855         173.788         -50.8852         173.784       -0.0143391         146.552
0.568                      -1.11        -156.453         -50.8003         171.942            -50.8         171.938       -0.0144752         146.481
0.569                   -1.12881        -157.043         -50.7152         170.108          -50.715         170.105       -0.0146122         146.409
0.57                    -1.14797        -157.637         -50.6302         168.288           -50.63         168.284       -0.0147501         146.337
0.571                   -1.16749        -158.237         -50.5451         166.479         -50.5449         166.475       -0.0148889         146.264
0.572                   -1.18742        -158.842         -50.4598         164.681         -50.4596         164.677       -0.0150285         146.192
0.573                   -1.20777        -159.453         -50.3743         162.895         -50.3741         162.891       -0.0151691         146.119
0.574                   -1.22856        -160.069         -50.2883          161.12         -50.2882         161.116       -0.0153107         146.047
0.575                   -1.24984         -160.69          -50.202         159.355         -50.2018         159.351       -0.0154532         145.974
0.576                   -1.27162        -161.317         -50.1151         157.599          -50.115         157.595       -0.0155967         145.901
0.577                   -1.29394         -161.95         -50.0276         155.853         -50.0275         155.849       -0.0157412         145.828
0.578                   -1.31683        -162.588         -49.9395         154.115         -49.9394         154.111       -0.0158868         145.755
0.579                   -1.34032        -163.233         -49.8506         152.385         -49.8506         152.381       -0.0160334         145.681
0.58                    -1.36446        -163.883          -49.761         150.663         -49.7609         150.659       -0.0161812         145.608
0.581                   -1.38926        -164.539         -49.6705         148.947         -49.6705         148.943       -0.0163301         145.534
0.582                   -1.41478        -165.201         -49.5792         147.238         -49.5792         147.234       -0.0164802          145.46
0.583                   -1.44105         -165.87          -49.487         145.535          -49.487         145.531       -0.0166316         145.386
0.584                    -1.4681        -166.544         -49.3939         143.837         -49.3939         143.833       -0.0167842         145.312
0.585                   -1.49599        -167.225         -49.2998         142.143         -49.2998          142.14       -0.0169381         145.238
0.586                   -1.52476        -167.912         -49.2047         140.454         -49.2048          140.45       -0.0170934         145.163
0.587                   -1.55444        -168.605         -49.1087         138.768         -49.1088         138.765         -0.01725         145.088
0.588                   -1.58509        -169.304         -49.0116         137.085         -49.0117         137.082       -0.0174081         145.014
0.589                   -1.61675        -170.009         -48.9136         135.404         -48.9137         135.401       -0.0175678         144.939
0.59                    -1.64948        -170.721         -48.8145         133.726         -48.8146         133.723       -0.0177289         144.863
0.591                   -1.68331        -171.438         -48.7144         132.048         -48.7146         132.046       -0.0178917         144.788
0.592                    -1.7183        -172.162         -48.6134         130.372         -48.6135         130.369       -0.0180561         144.712
0.593                    -1.7545        -172.892         -48.5113         128.695         -48.5115         128.693       -0.0182222         144.637
0.594                   -1.79196        -173.628         -48.4083         127.019         -48.4084         127.017       -0.0183901         144.561
0.595                   -1.83074        -174.369         -48.3043         125.342         -48.3045          125.34       -0.0185599         144.485
0.596                   -1.87089        -175.116         -48.1994         123.664         -48.1996         123.662       -0.0187315         144.408
0.597                   -1.91247        -175.869         -48.0936         121.984         -48.0938         121.982       -0.0189052         144.332
0.598                   -1.95553        -176.627         -47.9869         120.302         -47.9871         120.301       -0.0190808         144.255
0.599                   -2.00012         -177.39         -47.8794         118.617         -47.8795         118.616       -0.0192586         144.179
0.6                     -2.04631        -178.158          -47.771          116.93         -47.7712         116.929       -0.0194385         144.102
0.601                   -2.09414        -178.931         -47.6619          115.24         -47.6621         115.239       -0.0196207         144.024
0.602                   -2.14368        -179.708         -47.5521         113.546         -47.5522         113.545       -0.0198052         143.947
0.603                   -2.19497          179.51         -47.4416         111.847         -47.4417         111.847       -0.0199921         143.869
0.604                   -2.24807         178.725         -47.3304         110.145         -47.3306         110.145       -0.0201815         143.791
0.605                   -2.30304         177.936         -47.2187         108.438         -47.2188         108.438       -0.0203734         143.713
0.606                   -2.35993         177.144         -47.1064         106.726         -47.1065         106.726        -0.020568         143.635
0.607                   -2.41878         176.349         -46.9937         105.009         -46.9938         105.009       -0.0207652         143.557
0.608                   -2.47964         175.552         -46.8805         103.286         -46.8806         103.287       -0.0209653         143.478
0.609                   -2.54257         174.753         -46.7669         101.558          -46.767         101.559       -0.0211683         143.399
0.61                    -2.60759         173.952         -46.6531         99.8244         -46.6532         99.8247       -0.0213742          143.32
0.611                   -2.67477          173.15          -46.539         98.0844         -46.5391         98.0849       -0.0215832         143.241
0.612                   -2.74412         172.348         -46.4247         96.3384         -46.4248         96.3389       -0.0217953         143.161
0.613                   -2.81569         171.547         -46.3103         94.5861         -46.3104         94.5866       -0.0220107         143.082
0.614                    -2.8895         170.745         -46.1958         92.8275         -46.1959         92.8281       -0.0222294         143.002
0.615                   -2.96558         169.945         -46.0814         91.0625         -46.0814         91.0631       -0.0224515         142.921
0.616                   -3.04395         169.147          -45.967          89.291          -45.967         89.2917       -0.0226771         142.841
0.617                   -3.12462         168.352         -45.8528         87.5132         -45.8528         87.5138       -0.0229063          142.76
0.618                   -3.20761          167.56         -45.7387         85.7289         -45.7387         85.7296       -0.0231391         142.679
0.619                    -3.2929         166.772         -45.6249         83.9383         -45.6249          83.939       -0.0233758         142.598
0.62                    -3.38051         165.988         -45.5115         82.1414         -45.5115          82.142       -0.0236163         142.517
0.621                   -3.47041          165.21         -45.3984         80.3383         -45.3984          80.339       -0.0238608         142.435
0.622                   -3.56259         164.438         -45.2858         78.5292         -45.2858         78.5298       -0.0241094         142.353
0.623                   -3.65703         163.673         -45.1737         76.7143         -45.1737         76.7148       -0.0243621         142.271
0.624                   -3.75369         162.915         -45.0622         74.8936         -45.0622         74.8941       -0.0246191         142.189
0.625                   -3.85253         162.166         -44.9513         73.0675         -44.9512          73.068       -0.0248804         142.106
0.626                    -3.9535         161.425          -44.841         71.2361          -44.841         71.2365       -0.0251462         142.023
0.627                   -4.05653         160.695         -44.7316         69.3997         -44.7315         69.4001       -0.0254164          141.94
0.628                   -4.16157         159.975         -44.6228         67.5587         -44.6228         67.5591       -0.0256914         141.856
0.629                   -4.26854         159.266         -44.5149         65.7133         -44.5149         65.7136        -0.025971         141.773
