! TOUCHSTONE file generated by CST MICROWAVE STUDIO
! Date and time: Mon Oct 26 12:27:03 2020
! Project name: Scenario_1_Circular_Tissue_out_of_Line.cst
! Parameters = {dy1=-51.203; L_HA=400; MT=2.54; Rad_Dielectric=30; Rad_Lower=7.3; Rad_Upper=30; a_HA=580; a_WG=246; b_HA=500; b_WG=121; c_HA=0; c_WG=187; d_feed=85; dx1=866; h_feed=15; h_lower=18; h_upper=40}
! Header version: 2018
! Port assignment regex: !\s*Touchstone port\s*([0-9]+)\s*=\s*(CST MWS port|CST DS port)\s*([0-9]+|Zmin|Zmax)\s*\(\"(.*)\"\)(\s*mode\s*([0-9]+))?.*
! Touchstone port assignment:
! Touchstone port 1 = CST MWS port 1 ("")
! Touchstone port 2 = CST MWS port 2 ("")
# GHz S DB R 50
0.5                    -0.142675        -122.412          -62.643         99.4055          -62.643         99.4055      -0.00745919         151.122
0.501                  -0.150269        -122.857         -62.4398         97.3122         -62.4401         97.3118       -0.0075317         151.056
0.502                  -0.158008        -123.304         -62.2382         95.1996         -62.2388         95.1989      -0.00760502         150.991
0.503                  -0.165891        -123.751         -62.0383         93.0679         -62.0392         93.0672      -0.00767914         150.926
0.504                  -0.173917          -124.2         -61.8403         90.9175         -61.8415         90.9167      -0.00775408          150.86
0.505                  -0.182085         -124.65         -61.6443         88.7486         -61.6456         88.7479      -0.00782984         150.794
0.506                  -0.190394        -125.102         -61.4503         86.5617         -61.4518         86.5611      -0.00790643         150.729
0.507                  -0.198845        -125.554         -61.2585          84.357         -61.2601         84.3566      -0.00798387         150.663
0.508                  -0.207437        -126.008         -61.0689         82.1352         -61.0705          82.135      -0.00806215         150.597
0.509                  -0.216168        -126.464         -60.8816         79.8967         -60.8833         79.8968      -0.00814129         150.531
0.51                    -0.22504         -126.92         -60.6967          77.642         -60.6984         77.6424      -0.00822129         150.465
0.511                  -0.234051        -127.378         -60.5142         75.3719         -60.5159         75.3726      -0.00830216         150.399
0.512                  -0.243201        -127.838         -60.3343          73.087         -60.3359          73.088      -0.00838391         150.333
0.513                  -0.252489        -128.299          -60.157          70.788         -60.1585         70.7892      -0.00846655         150.267
0.514                  -0.261917        -128.762         -59.9824         68.4757         -59.9838         68.4771      -0.00855009           150.2
0.515                  -0.271484        -129.226         -59.8105         66.1509         -59.8118         66.1525      -0.00863453         150.134
0.516                   -0.28119        -129.691         -59.6414         63.8144         -59.6425         63.8161      -0.00871989         150.067
0.517                  -0.291035        -130.159          -59.475         61.4671          -59.476         61.4689      -0.00880618         150.001
0.518                  -0.301019        -130.628         -59.3115           59.11         -59.3124         59.1117      -0.00889339         149.934
0.519                  -0.311144        -131.098         -59.1509         56.7438         -59.1515         56.7455      -0.00898155         149.868
0.52                   -0.321409        -131.571         -58.9932         54.3697         -58.9936         54.3713      -0.00907066         149.801
0.521                  -0.331815        -132.045         -58.8383         51.9885         -58.8385         51.9899      -0.00916072         149.734
0.522                  -0.342364        -132.521         -58.6863         49.6012         -58.6863         49.6023      -0.00925176         149.667
0.523                  -0.353056        -132.998         -58.5372         47.2089          -58.537         47.2096      -0.00934376           149.6
0.524                  -0.363893        -133.478         -58.3908         44.8124         -58.3904         44.8126      -0.00943676         149.533
0.525                  -0.374876        -133.959         -58.2473         42.4127         -58.2467         42.4124      -0.00953074         149.465
0.526                  -0.386006        -134.443         -58.1065         40.0108         -58.1058         40.0099      -0.00962572         149.398
0.527                  -0.397286        -134.928         -57.9685         37.6075         -57.9675          37.606       -0.0097217         149.331
0.528                  -0.408718        -135.416          -57.833         35.2039         -57.8319         35.2017      -0.00981869         149.263
0.529                  -0.420303        -135.906         -57.7002         32.8008         -57.6988         32.7978      -0.00991669         149.196
0.53                   -0.432046        -136.398         -57.5698         30.3989         -57.5682         30.3951       -0.0100157         149.128
0.531                  -0.443948        -136.892         -57.4418         27.9991         -57.4401         27.9945       -0.0101157          149.06
0.532                  -0.456013        -137.388         -57.3161         25.6022         -57.3143         25.5966       -0.0102168         148.992
0.533                  -0.468244        -137.887         -57.1926         23.2088         -57.1907         23.2023       -0.0103188         148.924
0.534                  -0.480646        -138.388         -57.0712         20.8196         -57.0692         20.8122       -0.0104219         148.856
0.535                  -0.493223        -138.892         -56.9518         18.4352         -56.9497         18.4269        -0.010526         148.788
0.536                  -0.505979        -139.398         -56.8343         16.0561         -56.8321         16.0469        -0.010631          148.72
0.537                   -0.51892        -139.907         -56.7186         13.6829         -56.7162         13.6728        -0.010737         148.651
0.538                  -0.532051        -140.418         -56.6044         11.3159         -56.6021         11.3049        -0.010844         148.583
0.539                  -0.545379        -140.932         -56.4918          8.9556         -56.4894         8.94371       -0.0109519         148.515
0.54                   -0.558909        -141.449         -56.3806         6.60226         -56.3782         6.58953       -0.0110607         148.446
0.541                   -0.57265        -141.969         -56.2707         4.25615         -56.2683         4.24262       -0.0111703         148.377
0.542                  -0.586609        -142.492         -56.1619         1.91748         -56.1595         1.90319       -0.0112807         148.308
0.543                  -0.600794        -143.017         -56.0542         -0.4136         -56.0518       -0.428604       -0.0113919         148.239
0.544                  -0.615214        -143.546         -55.9473        -2.73699         -55.9449        -2.75265       -0.0115038          148.17
0.545                   -0.62988        -144.078         -55.8413        -5.05265         -55.8389         -5.0689       -0.0116163         148.101
0.546                  -0.644802        -144.613         -55.7359        -7.36058         -55.7336        -7.37736       -0.0117293         148.032
0.547                  -0.659991        -145.151         -55.6311        -9.66084         -55.6288        -9.67808       -0.0118427         147.963
0.548                  -0.675459        -145.693         -55.5267        -11.9535         -55.5245        -11.9712       -0.0119564         147.893
0.549                  -0.691219        -146.238         -55.4226        -14.2388         -55.4205        -14.2567       -0.0120704         147.824
0.55                   -0.707285        -146.786         -55.3188        -16.5168         -55.3168         -16.535       -0.0121844         147.754
0.551                  -0.723673        -147.338         -55.2151        -18.7878         -55.2132        -18.8062       -0.0122984         147.684
0.552                  -0.740397        -147.894         -55.1115         -21.052         -55.1097        -21.0705       -0.0124121         147.614
0.553                  -0.757476        -148.454         -55.0078        -23.3098         -55.0061        -23.3283       -0.0125255         147.544
0.554                  -0.774926        -149.017          -54.904        -25.5615         -54.9024          -25.58       -0.0126383         147.474
0.555                  -0.792768        -149.584            -54.8        -27.8074         -54.7985        -27.8258       -0.0127506         147.404
0.556                  -0.811022        -150.155         -54.6957        -30.0479         -54.6944        -30.0661        -0.012862         147.334
0.557                  -0.829709         -150.73         -54.5911        -32.2835         -54.5898        -32.3014       -0.0129726         147.263
0.558                  -0.848852        -151.308         -54.4861        -34.5145         -54.4849        -34.5322       -0.0130823         147.193
0.559                  -0.868476        -151.891         -54.3806        -36.7415         -54.3795        -36.7588        -0.013191         147.122
0.56                   -0.888606        -152.478         -54.2745        -38.9649         -54.2736        -38.9818       -0.0132988         147.051
0.561                  -0.909269        -153.069          -54.168        -41.1852         -54.1671        -41.2016       -0.0134057          146.98
0.562                  -0.930493        -153.664         -54.0608        -43.4029           -54.06        -43.4187       -0.0135119         146.909
0.563                  -0.952307        -154.264          -53.953        -45.6185         -53.9523        -45.6338       -0.0136176         146.838
0.564                  -0.974743        -154.867         -53.8446        -47.8325          -53.844        -47.8472       -0.0137231         146.767
0.565                  -0.997833        -155.475         -53.7354        -50.0455          -53.735        -50.0596       -0.0138286         146.695
0.566                   -1.02161        -156.087         -53.6257         -52.258         -53.6253        -52.2714       -0.0139345         146.623
0.567                   -1.04611        -156.702         -53.5152        -54.4705         -53.5149        -54.4833       -0.0140412         146.552
0.568                   -1.07136        -157.322          -53.404        -56.6836         -53.4038        -56.6956        -0.014149          146.48
0.569                   -1.09741        -157.946         -53.2922        -58.8978          -53.292        -58.9091       -0.0142585         146.407
0.57                    -1.12428        -158.574         -53.1797        -61.1137         -53.1796        -61.1242         -0.01437         146.335
0.571                   -1.15202        -159.205         -53.0665        -63.3317         -53.0665        -63.3415       -0.0144837         146.263
0.572                   -1.18067         -159.84         -52.9528        -65.5523         -52.9527        -65.5614       -0.0146001          146.19
0.573                   -1.21025        -160.479         -52.8384        -67.7761         -52.8384        -67.7845       -0.0147193         146.117
0.574                   -1.24082        -161.121         -52.7235        -70.0036         -52.7235        -70.0112       -0.0148417         146.045
0.575                    -1.2724        -161.766         -52.6081        -72.2352         -52.6081        -72.2421       -0.0149672         145.971
0.576                   -1.30502        -162.414         -52.4922        -74.4713         -52.4923        -74.4775       -0.0150961         145.898
0.577                   -1.33873        -163.064         -52.3759        -76.7124          -52.376        -76.7179       -0.0152284         145.825
0.578                   -1.37355        -163.717         -52.2592        -78.9589         -52.2593        -78.9638       -0.0153641         145.751
0.579                   -1.40952        -164.372         -52.1423        -81.2111         -52.1424        -81.2154       -0.0155032         145.678
0.58                    -1.44664        -165.029         -52.0251        -83.4694         -52.0253        -83.4731       -0.0156457         145.604
0.581                   -1.48495        -165.687         -51.9078        -85.7341          -51.908        -85.7373       -0.0157915          145.53
0.582                   -1.52447        -166.345         -51.7905        -88.0055         -51.7906        -88.0081       -0.0159406         145.456
0.583                   -1.56519        -167.005         -51.6731        -90.2838         -51.6732        -90.2859       -0.0160928         145.381
0.584                   -1.60712        -167.664         -51.5559        -92.5692          -51.556        -92.5708       -0.0162482         145.307
0.585                   -1.65027        -168.323         -51.4389        -94.8618         -51.4389         -94.863       -0.0164066         145.232
0.586                   -1.69462        -168.981         -51.3221        -97.1617         -51.3222        -97.1626        -0.016568         145.158
0.587                   -1.74015        -169.637         -51.2057        -99.4691         -51.2058        -99.4696       -0.0167323         145.083
0.588                   -1.78684        -170.292         -51.0898        -101.784         -51.0898        -101.784       -0.0168995         145.007
0.589                   -1.83465        -170.945         -50.9745        -104.106         -50.9745        -104.106       -0.0170694         144.932
0.59                    -1.88353        -171.595         -50.8598        -106.435         -50.8598        -106.435       -0.0172421         144.857
0.591                   -1.93344        -172.242         -50.7458        -108.772         -50.7458        -108.771       -0.0174175         144.781
0.592                   -1.98431        -172.885         -50.6327        -111.115         -50.6327        -111.115       -0.0175956         144.705
0.593                   -2.03607        -173.525         -50.5206        -113.465         -50.5205        -113.465       -0.0177764         144.629
0.594                   -2.08864         -174.16         -50.4095        -115.822         -50.4094        -115.821       -0.0179598         144.553
0.595                   -2.14195        -174.792         -50.2994        -118.185         -50.2993        -118.184       -0.0181459         144.477
0.596                   -2.19589        -175.418         -50.1906        -120.553         -50.1905        -120.552       -0.0183347         144.401
0.597                   -2.25037         -176.04         -50.0831        -122.926         -50.0829        -122.925       -0.0185261         144.324
0.598                   -2.30529        -176.657         -49.9768        -125.304         -49.9767        -125.303       -0.0187203         144.247
0.599                   -2.36056         -177.27          -49.872        -127.686         -49.8719        -127.686       -0.0189172          144.17
0.6                     -2.41607        -177.878         -49.7686        -130.072         -49.7685        -130.072       -0.0191169         144.093
0.601                   -2.47171        -178.482         -49.6668        -132.461         -49.6667        -132.461       -0.0193194         144.015
0.602                    -2.5274        -179.082         -49.5665        -134.853         -49.5663        -134.852       -0.0195247         143.938
0.603                   -2.58303        -179.679         -49.4677        -137.246         -49.4676        -137.245        -0.019733          143.86
0.604                   -2.63853         179.727         -49.3706         -139.64         -49.3705         -139.64       -0.0199442         143.782
0.605                   -2.69381         179.136         -49.2751        -142.035          -49.275        -142.034       -0.0201584         143.704
0.606                   -2.74881         178.547         -49.1812         -144.43         -49.1811        -144.429       -0.0203757         143.625
0.607                   -2.80347         177.959         -49.0889        -146.823         -49.0889        -146.823       -0.0205961         143.547
0.608                   -2.85774         177.372         -48.9983        -149.216         -48.9982        -149.215       -0.0208198         143.468
0.609                   -2.91158         176.784         -48.9092        -151.606         -48.9092        -151.605       -0.0210466         143.389
0.61                    -2.96498         176.195         -48.8217        -153.993         -48.8217        -153.992       -0.0212768          143.31
0.611                   -3.01792         175.604         -48.7358        -156.377         -48.7358        -156.376       -0.0215103          143.23
0.612                   -3.07041         175.011         -48.6513        -158.757         -48.6513        -158.756       -0.0217472          143.15
0.613                   -3.12246         174.414         -48.5683        -161.132         -48.5683        -161.132       -0.0219875         143.071
0.614                   -3.17411         173.813         -48.4866        -163.502         -48.4866        -163.502       -0.0222313          142.99
0.615                   -3.22539         173.207         -48.4062        -165.867         -48.4063        -165.867       -0.0224785          142.91
0.616                   -3.27636         172.594         -48.3271        -168.226         -48.3271        -168.226       -0.0227291          142.83
0.617                   -3.32708         171.976         -48.2492        -170.579         -48.2492        -170.578       -0.0229831         142.749
0.618                   -3.37762          171.35         -48.1723        -172.925         -48.1724        -172.924       -0.0232406         142.668
0.619                   -3.42806         170.716         -48.0965        -175.264         -48.0965        -175.264       -0.0235015         142.586
0.62                     -3.4785         170.073         -48.0216        -177.596         -48.0216        -177.596       -0.0237658         142.505
0.621                   -3.52902         169.422         -47.9475        -179.921         -47.9476        -179.921       -0.0240335         142.423
0.622                   -3.57974          168.76         -47.8742         177.761         -47.8743         177.762       -0.0243046         142.341
0.623                   -3.63076         168.089         -47.8016         175.451         -47.8017         175.452        -0.024579         142.259
0.624                    -3.6822         167.407         -47.7297         173.149         -47.7297         173.149       -0.0248569         142.177
0.625                   -3.73416         166.715         -47.6582         170.853         -47.6583         170.854       -0.0251381         142.094
0.626                   -3.78679         166.011         -47.5872         168.566         -47.5873         168.566       -0.0254228         142.011
0.627                   -3.84019         165.296         -47.5166         166.285         -47.5166         166.286        -0.025711         141.928
0.628                    -3.8945         164.569         -47.4462         164.012         -47.4463         164.012       -0.0260027         141.844
0.629                   -3.94985          163.83         -47.3762         161.745         -47.3762         161.746       -0.0262981          141.76
