! TOUCHSTONE file generated by CST MICROWAVE STUDIO
! Date and time: Sat Oct 24 11:46:30 2020
! Project name: Scenario_1_Circular_Tissue_out_of_Line.cst
! Parameters = {dy1=-51.203; L_HA=400; MT=2.54; Rad_Dielectric=30; Rad_Lower=7.3; Rad_Upper=30; a_HA=580; a_WG=246; b_HA=500; b_WG=121; c_HA=0; c_WG=187; d_feed=85; dx1=1039; h_feed=15; h_lower=18; h_upper=40}
! Header version: 2018
! Port assignment regex: !\s*Touchstone port\s*([0-9]+)\s*=\s*(CST MWS port|CST DS port)\s*([0-9]+|Zmin|Zmax)\s*\(\"(.*)\"\)(\s*mode\s*([0-9]+))?.*
! Touchstone port assignment:
! Touchstone port 1 = CST MWS port 1 ("")
! Touchstone port 2 = CST MWS port 2 ("")
# GHz S DB R 50
0.5                    -0.146811        -122.272         -63.1987        -2.59257         -63.1987        -2.59257      -0.00762914         151.132
0.501                  -0.150179        -122.724          -63.051        -4.46856          -63.051        -4.46851      -0.00768241         151.067
0.502                  -0.153829        -123.178         -62.9018        -6.36707         -62.9017        -6.36698      -0.00773663         151.001
0.503                   -0.15777        -123.634         -62.7509        -8.28833         -62.7509        -8.28821      -0.00779181         150.936
0.504                  -0.162007        -124.093         -62.5984        -10.2326         -62.5984        -10.2324      -0.00784795         150.871
0.505                  -0.166547        -124.554         -62.4444           -12.2         -62.4444        -12.1998      -0.00790506         150.805
0.506                  -0.171397        -125.017         -62.2889        -14.1908         -62.2889        -14.1906      -0.00796315         150.739
0.507                  -0.176564        -125.483         -62.1319        -16.2053         -62.1319         -16.205      -0.00802224         150.674
0.508                  -0.182053        -125.951         -61.9735        -18.2435         -61.9735        -18.2432      -0.00808232         150.608
0.509                   -0.18787        -126.421         -61.8137        -20.3057         -61.8137        -20.3053      -0.00814341         150.542
0.51                   -0.194022        -126.894         -61.6526         -22.392         -61.6526        -22.3916      -0.00820551         150.476
0.511                  -0.200514        -127.368         -61.4903        -24.5026         -61.4903        -24.5022      -0.00826864          150.41
0.512                  -0.207351        -127.845         -61.3268        -26.6376         -61.3267        -26.6373       -0.0083328         150.344
0.513                  -0.214539        -128.324         -61.1621        -28.7972         -61.1621        -28.7969      -0.00839801         150.278
0.514                  -0.222082        -128.805         -60.9964        -30.9815         -60.9964        -30.9811      -0.00846427         150.212
0.515                  -0.229985        -129.288         -60.8298        -33.1904         -60.8297          -33.19      -0.00853159         150.145
0.516                  -0.238252        -129.773         -60.6622        -35.4242         -60.6622        -35.4238      -0.00859998         150.079
0.517                  -0.246887         -130.26         -60.4939        -37.6828         -60.4939        -37.6824      -0.00866946         150.012
0.518                  -0.255893        -130.749          -60.325        -39.9661         -60.3249        -39.9657      -0.00874003         149.946
0.519                  -0.265273         -131.24         -60.1554        -42.2743         -60.1554        -42.2739      -0.00881171         149.879
0.52                   -0.275031        -131.733         -59.9854        -44.6072         -59.9854        -44.6068       -0.0088845         149.812
0.521                  -0.285169        -132.227          -59.815        -46.9646          -59.815        -46.9643      -0.00895841         149.745
0.522                  -0.295688        -132.724         -59.6444        -49.3466         -59.6444        -49.3462      -0.00903346         149.678
0.523                  -0.306591        -133.222         -59.4737        -51.7528         -59.4737        -51.7524      -0.00910966         149.611
0.524                  -0.317878        -133.722         -59.3031        -54.1831          -59.303        -54.1827      -0.00918702         149.544
0.525                   -0.32955        -134.223         -59.1325        -56.6371         -59.1325        -56.6368      -0.00926554         149.477
0.526                  -0.341607        -134.726         -58.9623        -59.1146         -58.9623        -59.1143      -0.00934525          149.41
0.527                   -0.35405         -135.23         -58.7925        -61.6151         -58.7924        -61.6148      -0.00942616         149.342
0.528                  -0.366876        -135.736         -58.6232        -64.1383         -58.6232         -64.138      -0.00950826         149.275
0.529                  -0.380086        -136.244         -58.4546        -66.6836         -58.4546        -66.6833      -0.00959159         149.207
0.53                   -0.393677        -136.753         -58.2869        -69.2504         -58.2869        -69.2502      -0.00967615          149.14
0.531                  -0.407648        -137.263         -58.1202        -71.8382         -58.1202         -71.838      -0.00976196         149.072
0.532                  -0.421996        -137.775         -57.9546        -74.4463         -57.9546        -74.4462      -0.00984902         149.004
0.533                  -0.436717        -138.288         -57.7902         -77.074         -57.7902        -77.0739      -0.00993736         148.936
0.534                  -0.451809        -138.802         -57.6273        -79.7205         -57.6273        -79.7203        -0.010027         148.868
0.535                  -0.467266        -139.318         -57.4659        -82.3848         -57.4659        -82.3847       -0.0101179           148.8
0.536                  -0.483086        -139.835         -57.3061        -85.0662         -57.3061        -85.0661       -0.0102101         148.732
0.537                  -0.499262        -140.353         -57.1481        -87.7636         -57.1481        -87.7636       -0.0103037         148.663
0.538                   -0.51579        -140.872          -56.992        -90.4761          -56.992        -90.4761       -0.0103986         148.595
0.539                  -0.532664        -141.392         -56.8379        -93.2026         -56.8379        -93.2025       -0.0104949         148.526
0.54                   -0.549878        -141.914         -56.6859        -95.9419         -56.6859        -95.9419       -0.0105926         148.458
0.541                  -0.567424        -142.436          -56.536        -98.6929          -56.536         -98.693       -0.0106916         148.389
0.542                  -0.585297         -142.96         -56.3884        -101.455         -56.3884        -101.455       -0.0107921          148.32
0.543                  -0.603489        -143.485         -56.2432        -104.226         -56.2432        -104.226        -0.010894         148.251
0.544                  -0.621993        -144.011         -56.1003        -107.005         -56.1003        -107.005       -0.0109973         148.182
0.545                  -0.640801        -144.538         -55.9599        -109.791         -55.9599        -109.791       -0.0111021         148.113
0.546                  -0.659904        -145.066         -55.8219        -112.582          -55.822        -112.582       -0.0112084         148.043
0.547                  -0.679295        -145.595         -55.6865        -115.378         -55.6865        -115.379       -0.0113162         147.974
0.548                  -0.698965        -146.126         -55.5535        -118.178         -55.5535        -118.178       -0.0114255         147.904
0.549                  -0.718906        -146.658          -55.423        -120.979          -55.423        -120.979       -0.0115363         147.835
0.55                    -0.73911        -147.191          -55.295        -123.781          -55.295        -123.781       -0.0116488         147.765
0.551                  -0.759567        -147.725         -55.1694        -126.583         -55.1695        -126.583       -0.0117628         147.695
0.552                   -0.78027         -148.26         -55.0463        -129.383         -55.0463        -129.383       -0.0118784         147.625
0.553                  -0.801209        -148.797         -54.9255        -132.181         -54.9256        -132.181       -0.0119956         147.555
0.554                  -0.822377        -149.336         -54.8071        -134.975         -54.8071        -134.975       -0.0121145         147.485
0.555                  -0.843766        -149.875         -54.6908        -137.764         -54.6909        -137.764       -0.0122351         147.415
0.556                  -0.865367        -150.417         -54.5768        -140.548         -54.5768        -140.549       -0.0123574         147.344
0.557                  -0.887174         -150.96         -54.4648        -143.326         -54.4648        -143.326       -0.0124814         147.274
0.558                   -0.90918        -151.505         -54.3548        -146.097         -54.3549        -146.097       -0.0126072         147.203
0.559                  -0.931378        -152.051         -54.2467         -148.86         -54.2468         -148.86       -0.0127348         147.132
0.56                   -0.953762          -152.6         -54.1404        -151.615         -54.1404        -151.615       -0.0128641         147.061
0.561                  -0.976327         -153.15         -54.0358         -154.36         -54.0358         -154.36       -0.0129953          146.99
0.562                  -0.999069        -153.703         -53.9327        -157.097         -53.9327        -157.097       -0.0131284         146.919
0.563                   -1.02198        -154.258         -53.8311        -159.823         -53.8312        -159.823       -0.0132633         146.848
0.564                   -1.04507        -154.815         -53.7309        -162.539         -53.7309        -162.539       -0.0134002         146.776
0.565                   -1.06833        -155.375         -53.6318        -165.245         -53.6319        -165.245       -0.0135389         146.705
0.566                   -1.09175        -155.938          -53.534         -167.94          -53.534        -167.941       -0.0136797         146.633
0.567                   -1.11535        -156.504         -53.4371        -170.625         -53.4371        -170.625       -0.0138224         146.561
0.568                   -1.13912        -157.072         -53.3411        -173.299         -53.3412        -173.299       -0.0139672         146.489
0.569                   -1.16307        -157.644         -53.2459        -175.962          -53.246        -175.962       -0.0141139         146.417
0.57                     -1.1872        -158.219         -53.1514        -178.614         -53.1515        -178.614       -0.0142627         146.345
0.571                   -1.21152        -158.798         -53.0575         178.744         -53.0576         178.744       -0.0144135         146.273
0.572                   -1.23605        -159.381         -52.9641         176.113         -52.9642         176.113       -0.0145664           146.2
0.573                   -1.26079        -159.967         -52.8711         173.492         -52.8711         173.492       -0.0147213         146.128
0.574                   -1.28575        -160.558         -52.7784         170.881         -52.7784         170.881       -0.0148782         146.055
0.575                   -1.31097        -161.153         -52.6859          168.28          -52.686          168.28       -0.0150371         145.982
0.576                   -1.33644        -161.752         -52.5936         165.688         -52.5936         165.688       -0.0151979         145.909
0.577                   -1.36221        -162.357         -52.5013         163.105         -52.5014         163.104       -0.0153607         145.836
0.578                   -1.38829        -162.966         -52.4091          160.53         -52.4092          160.53       -0.0155252         145.763
0.579                   -1.41471        -163.581         -52.3168         157.963         -52.3169         157.963       -0.0156914         145.689
0.58                    -1.44151        -164.201         -52.2245         155.404         -52.2245         155.404       -0.0158592         145.616
0.581                   -1.46872        -164.827         -52.1319         152.852          -52.132         152.852       -0.0160285         145.542
0.582                   -1.49637        -165.458         -52.0392         150.307         -52.0392         150.307        -0.016199         145.468
0.583                   -1.52452        -166.096         -51.9463         147.768         -51.9463         147.768       -0.0163705         145.394
0.584                   -1.55321        -166.739         -51.8531         145.234         -51.8531         145.234       -0.0165429          145.32
0.585                    -1.5825         -167.39         -51.7596         142.706         -51.7596         142.706       -0.0167158         145.246
0.586                   -1.61243        -168.046         -51.6658         140.182         -51.6658         140.182       -0.0168891         145.171
0.587                   -1.64307         -168.71         -51.5717         137.662         -51.5717         137.662       -0.0170624         145.096
0.588                   -1.67448         -169.38         -51.4773         135.146         -51.4773         135.146       -0.0172356         145.022
0.589                   -1.70673        -170.057         -51.3825         132.632         -51.3826         132.632       -0.0174085         144.947
0.59                     -1.7399        -170.741         -51.2875         130.121         -51.2875         130.121       -0.0175808         144.872
0.591                   -1.77405        -171.433         -51.1922         127.612         -51.1922         127.612       -0.0177526         144.796
0.592                   -1.80928        -172.131         -51.0966         125.104         -51.0966         125.104       -0.0179238         144.721
0.593                   -1.84566        -172.836         -51.0007         122.597         -51.0007         122.597       -0.0180946         144.645
0.594                   -1.88328        -173.548         -50.9045         120.091         -50.9046         120.091       -0.0182651          144.57
0.595                   -1.92223        -174.267         -50.8082         117.584         -50.8082         117.584       -0.0184358         144.494
0.596                   -1.96261        -174.992         -50.7117         115.077         -50.7117         115.077       -0.0186069         144.417
0.597                    -2.0045        -175.724         -50.6151          112.57         -50.6151          112.57       -0.0187789         144.341
0.598                   -2.04799        -176.461         -50.5184         110.061         -50.5184         110.061       -0.0189524         144.264
0.599                   -2.09319        -177.204         -50.4217          107.55         -50.4217          107.55       -0.0191277         144.188
0.6                     -2.14018        -177.952         -50.3249         105.038         -50.3249         105.038       -0.0193054         144.111
0.601                   -2.18904        -178.705         -50.2283         102.523         -50.2283         102.523       -0.0194858         144.033
0.602                   -2.23986        -179.462         -50.1318         100.006         -50.1318         100.006       -0.0196695         143.956
0.603                   -2.29272         179.778         -50.0354         97.4865         -50.0354         97.4865       -0.0198566         143.878
0.604                   -2.34767         179.016         -49.9393         94.9639         -49.9393         94.9639       -0.0200475           143.8
0.605                   -2.40479         178.252         -49.8436         92.4383         -49.8436         92.4383       -0.0202423         143.722
0.606                   -2.46411         177.487         -49.7482         89.9095         -49.7482         89.9095       -0.0204411         143.644
0.607                   -2.52568         176.722         -49.6532         87.3776         -49.6532         87.3776       -0.0206442         143.566
0.608                    -2.5895         175.959         -49.5588         84.8424         -49.5588         84.8424       -0.0208514         143.487
0.609                   -2.65559         175.197          -49.465          82.304          -49.465          82.304       -0.0210629         143.408
0.61                    -2.72392         174.439         -49.3718         79.7624         -49.3718         79.7624       -0.0212786         143.329
0.611                   -2.79446         173.685         -49.2793         77.2178         -49.2793         77.2178       -0.0214985          143.25
0.612                   -2.86716         172.937         -49.1876         74.6701         -49.1876         74.6701       -0.0217226          143.17
0.613                   -2.94195         172.195         -49.0967         72.1197         -49.0967         72.1197       -0.0219508          143.09
0.614                   -3.01872          171.46         -49.0067         69.5667         -49.0067         69.5667       -0.0221832          143.01
0.615                   -3.09738         170.734         -48.9177         67.0113         -48.9177         67.0113       -0.0224196          142.93
0.616                   -3.17777         170.017         -48.8297         64.4539         -48.8297         64.4539         -0.02266          142.85
0.617                   -3.25976          169.31         -48.7427         61.8948         -48.7427         61.8948       -0.0229044         142.769
0.618                   -3.34317         168.614         -48.6568         59.3343         -48.6568         59.3342       -0.0231528         142.688
0.619                   -3.42783         167.929         -48.5721         56.7727         -48.5721         56.7727       -0.0234051         142.607
0.62                    -3.51354         167.255         -48.4885         54.2106         -48.4885         54.2105       -0.0236614         142.526
0.621                   -3.60011         166.593         -48.4061         51.6482         -48.4061         51.6482       -0.0239217         142.444
0.622                   -3.68733         165.943         -48.3249         49.0861         -48.3249         49.0861       -0.0241858         142.362
0.623                   -3.77501         165.305          -48.245         46.5247          -48.245         46.5247        -0.024454          142.28
0.624                   -3.86293         164.678         -48.1663         43.9646         -48.1663         43.9645        -0.024726         142.198
0.625                   -3.95091         164.061         -48.0888          41.406         -48.0888          41.406       -0.0250021         142.115
0.626                   -4.03876         163.455         -48.0126         38.8497         -48.0126         38.8497       -0.0252821         142.032
0.627                    -4.1263         162.858         -47.9376         36.2959         -47.9376         36.2959       -0.0255662         141.949
0.628                   -4.21339          162.27         -47.8637         33.7453         -47.8637         33.7453       -0.0258544         141.866
0.629                   -4.29988         161.689         -47.7911         31.1983         -47.7911         31.1983       -0.0261466         141.782
