! TOUCHSTONE file generated by CST MICROWAVE STUDIO
! Date and time: Wed Oct 28 19:37:06 2020
! Project name: Scenario_1_Circular_Tissue_out_of_Line_v2.cst
! Parameters = {dy1=-34.6; L_HA=400; MT=2.54; Rad_Dielectric=30; Rad_Lower=7.3; Rad_Upper=30; a_HA=580; a_WG=246; b_HA=500; b_WG=121; c_HA=0; c_WG=187; d_feed=85; dx1=346; h_feed=15; h_lower=18; h_upper=40}
! Header version: 2018
! Port assignment regex: !\s*Touchstone port\s*([0-9]+)\s*=\s*(CST MWS port|CST DS port)\s*([0-9]+|Zmin|Zmax)\s*\(\"(.*)\"\)(\s*mode\s*([0-9]+))?.*
! Touchstone port assignment:
! Touchstone port 1 = CST MWS port 1 ("")
! Touchstone port 2 = CST MWS port 2 ("")
# GHz S DB R 50
0.5                    -0.176374         -122.31         -58.3427         32.4378         -58.2916         33.2602      -0.00777257         151.143
0.501                   -0.18321        -122.737         -58.2694         31.0864         -58.1854         31.8675       -0.0078439         151.078
0.502                  -0.190061        -123.165         -58.1934         29.7281         -58.0778         30.4742      -0.00791518         151.013
0.503                  -0.196928        -123.595         -58.1146         28.3634         -57.9689         29.0803      -0.00798643         150.948
0.504                  -0.203812        -124.027         -58.0331         26.9927         -57.8586         27.6859      -0.00805765         150.882
0.505                  -0.210716        -124.461         -57.9487         25.6164          -57.747          26.291      -0.00812887         150.817
0.506                  -0.217641        -124.896         -57.8617          24.235         -57.6342         24.8958      -0.00820011         150.752
0.507                  -0.224588        -125.334         -57.7718         22.8488           -57.52         23.5001      -0.00827138         150.686
0.508                   -0.23156        -125.774         -57.6792         21.4583         -57.4045         22.1042      -0.00834269          150.62
0.509                  -0.238559        -126.216         -57.5839         20.0639         -57.2878         20.7079      -0.00841407         150.555
0.51                   -0.245587        -126.659         -57.4858          18.666         -57.1698         19.3113      -0.00848552         150.489
0.511                  -0.252648        -127.105         -57.3851          17.265         -57.0505         17.9143      -0.00855707         150.423
0.512                  -0.259744        -127.554         -57.2816         15.8612         -56.9301         16.5171      -0.00862874         150.357
0.513                  -0.266878        -128.004         -57.1755         14.4551         -56.8085         15.1197      -0.00870054         150.291
0.514                  -0.274054        -128.457         -57.0667         13.0468         -56.6856         13.7219      -0.00877248         150.225
0.515                  -0.281275        -128.913         -56.9554         11.6369         -56.5616         12.3237       -0.0088446         150.159
0.516                  -0.288545        -129.371         -56.8415         10.2255         -56.4365         10.9253       -0.0089169         150.093
0.517                  -0.295868        -129.831         -56.7251         8.81304         -56.3102         9.52645       -0.0089894         150.026
0.518                   -0.30325        -130.294         -56.6062          7.3997         -56.1828         8.12722      -0.00906213          149.96
0.519                  -0.310694        -130.759         -56.4849         5.98575         -56.0542         6.72755      -0.00913509         149.893
0.52                   -0.318207        -131.228         -56.3612          4.5714         -55.9246         5.32738      -0.00920832         149.827
0.521                  -0.325792        -131.699         -56.2351         3.15687          -55.794         3.92667      -0.00928183          149.76
0.522                  -0.333457        -132.173         -56.1068         1.74233         -55.6622         2.52536      -0.00935564         149.693
0.523                  -0.341208         -132.65         -55.9763        0.327927         -55.5294         1.12339      -0.00942977         149.627
0.524                   -0.34905        -133.129         -55.8436         -1.0862         -55.3956       -0.279328      -0.00950424          149.56
0.525                  -0.356992        -133.612         -55.7088        -2.49995         -55.2608        -1.68286      -0.00957907         149.492
0.526                  -0.365041        -134.098         -55.5719        -3.91324          -55.125        -3.08728      -0.00965429         149.425
0.527                  -0.373204        -134.587          -55.433        -5.32601         -54.9882        -4.49269      -0.00972991         149.358
0.528                   -0.38149        -135.079         -55.2922        -6.73822         -54.8505        -5.89918      -0.00980595         149.291
0.529                  -0.389908        -135.575         -55.1495        -8.14988         -54.7118        -7.30684      -0.00988244         149.223
0.53                   -0.398467        -136.074          -55.005        -9.56099         -54.5722        -8.71578      -0.00995941         149.156
0.531                  -0.407178        -136.577         -54.8588        -10.9716         -54.4317        -10.1261       -0.0100369         149.088
0.532                   -0.41605        -137.083         -54.7108        -12.3817         -54.2902         -11.538       -0.0101148          149.02
0.533                  -0.425095        -137.592         -54.5612        -13.7915          -54.148        -12.9514       -0.0101933         148.952
0.534                  -0.434325        -138.106           -54.41        -15.2009         -54.0048        -14.3666       -0.0102724         148.884
0.535                  -0.443753        -138.623         -54.2573        -16.6103         -53.8608        -15.7837       -0.0103521         148.816
0.536                   -0.45339        -139.143         -54.1032        -18.0196          -53.716        -17.2028       -0.0104324         148.748
0.537                  -0.463251        -139.668         -53.9476         -19.429         -53.5704        -18.6241       -0.0105133          148.68
0.538                  -0.473351        -140.197         -53.7907        -20.8388         -53.4239        -20.0477       -0.0105949         148.612
0.539                  -0.483704        -140.729         -53.6326         -22.249         -53.2767        -21.4737       -0.0106771         148.543
0.54                   -0.494327        -141.266         -53.4732          -23.66         -53.1288        -22.9023       -0.0107601         148.475
0.541                  -0.505236        -141.807         -53.3126        -25.0719         -52.9801        -24.3337       -0.0108438         148.406
0.542                  -0.516449        -142.352          -53.151         -26.485         -52.8307        -25.7679       -0.0109283         148.337
0.543                  -0.527985        -142.902         -52.9883        -27.8995         -52.6805        -27.2053       -0.0110136         148.268
0.544                  -0.539863        -143.455         -52.8246        -29.3157         -52.5297        -28.6459       -0.0110997         148.199
0.545                  -0.552103        -144.014           -52.66        -30.7339         -52.3782          -30.09       -0.0111867          148.13
0.546                  -0.564727        -144.576         -52.4944        -32.1544         -52.2261        -31.5376       -0.0112745         148.061
0.547                  -0.577757        -145.143         -52.3281        -33.5773         -52.0733         -32.989       -0.0113633         147.991
0.548                  -0.591215        -145.715          -52.161        -35.0032           -51.92        -34.4444        -0.011453         147.922
0.549                  -0.605127        -146.291         -51.9931        -36.4321          -51.766        -35.9039       -0.0115437         147.852
0.55                   -0.619518        -146.872         -51.8246        -37.8646         -51.6115        -37.3678       -0.0116354         147.783
0.551                  -0.634413        -147.458         -51.6555        -39.3009         -51.4564        -38.8362       -0.0117281         147.713
0.552                   -0.64984        -148.048         -51.4858        -40.7413         -51.3008        -40.3093       -0.0118219         147.643
0.553                  -0.665827        -148.644         -51.3156        -42.1862         -51.1447        -41.7874       -0.0119169         147.573
0.554                  -0.682405        -149.244         -51.1449        -43.6359         -50.9881        -43.2705       -0.0120129         147.503
0.555                  -0.699603        -149.848         -50.9738        -45.0907         -50.8311         -44.759       -0.0121101         147.432
0.556                  -0.717452        -150.458         -50.8024         -46.551         -50.6736        -46.2529       -0.0122086         147.362
0.557                  -0.735986        -151.072         -50.6307        -48.0171         -50.5158        -47.7526       -0.0123082         147.291
0.558                  -0.755239        -151.691         -50.4587        -49.4894         -50.3575        -49.2583       -0.0124092         147.221
0.559                  -0.775243        -152.315         -50.2865        -50.9683         -50.1989          -50.77       -0.0125115          147.15
0.56                   -0.796035        -152.943         -50.1141        -52.4539           -50.04         -52.288       -0.0126151         147.079
0.561                  -0.817652        -153.576         -49.9417        -53.9467         -49.8809        -53.8126       -0.0127202         147.008
0.562                  -0.840129        -154.214         -49.7692        -55.4471         -49.7214        -55.3439       -0.0128266         146.937
0.563                  -0.863505        -154.856         -49.5967        -56.9552         -49.5618        -56.8822       -0.0129346         146.865
0.564                  -0.887819        -155.502         -49.4243        -58.4715         -49.4019        -58.4275        -0.013044         146.794
0.565                  -0.913108        -156.153         -49.2521        -59.9962         -49.2419        -59.9802       -0.0131551         146.722
0.566                  -0.939413        -156.808           -49.08        -61.5297         -49.0818        -61.5404       -0.0132677          146.65
0.567                  -0.966772        -157.467         -48.9081        -63.0722         -48.9216        -63.1083        -0.013382         146.579
0.568                  -0.995224         -158.13         -48.7365         -64.624         -48.7614        -64.6841       -0.0134979         146.507
0.569                   -1.02481        -158.796         -48.5653        -66.1854         -48.6012         -66.268       -0.0136157         146.434
0.57                    -1.05557        -159.466         -48.3945        -67.7566          -48.441        -67.8601       -0.0137351         146.362
0.571                   -1.08754         -160.14         -48.2242        -69.3379         -48.2809        -69.4606       -0.0138565          146.29
0.572                   -1.12075        -160.816         -48.0544        -70.9294          -48.121        -71.0696       -0.0139797         146.217
0.573                   -1.15525        -161.495         -47.8852        -72.5315         -47.9612        -72.6874       -0.0141048         146.144
0.574                   -1.19107        -162.176         -47.7166        -74.1442         -47.8017        -74.3141       -0.0142319         146.071
0.575                   -1.22824         -162.86         -47.5488        -75.7677         -47.6424        -75.9497        -0.014361         145.998
0.576                   -1.26679        -163.545         -47.3818        -77.4022         -47.4835        -77.5945       -0.0144922         145.925
0.577                   -1.30676        -164.232         -47.2157        -79.0478         -47.3249        -79.2485       -0.0146256         145.852
0.578                   -1.34816         -164.92         -47.0504        -80.7046         -47.1668        -80.9118       -0.0147611         145.778
0.579                   -1.39102        -165.609         -46.8862        -82.3726         -47.0092        -82.5846       -0.0148988         145.705
0.58                    -1.43536        -166.298          -46.723         -84.052         -46.8522        -84.2668       -0.0150389         145.631
0.581                   -1.48119        -166.986         -46.5609        -85.7427         -46.6958        -85.9586       -0.0151813         145.557
0.582                   -1.52853        -167.674         -46.4001        -87.4447           -46.54        -87.6599       -0.0153261         145.483
0.583                   -1.57737        -168.361         -46.2405         -89.158          -46.385        -89.3708       -0.0154734         145.409
0.584                   -1.62773        -169.046         -46.0822        -90.8825         -46.2308        -91.0913       -0.0156232         145.334
0.585                   -1.67959        -169.729         -45.9253        -92.6181         -46.0774        -92.8214       -0.0157756         145.259
0.586                   -1.73295        -170.409           -45.77        -94.3647          -45.925        -94.5611       -0.0159306         145.185
0.587                   -1.78777        -171.086         -45.6161        -96.1222         -45.7736        -96.3102       -0.0160884          145.11
0.588                   -1.84405        -171.759         -45.4638        -97.8902         -45.6232        -98.0687       -0.0162489         145.035
0.589                   -1.90175        -172.428         -45.3132        -99.6687         -45.4739        -99.8364       -0.0164122         144.959
0.59                    -1.96083        -173.092         -45.1643        -101.457         -45.3258        -101.613       -0.0165784         144.884
0.591                   -2.02125        -173.751         -45.0172        -103.256          -45.179        -103.399       -0.0167476         144.808
0.592                   -2.08295        -174.404          -44.872        -105.064         -45.0335        -105.194       -0.0169198         144.732
0.593                   -2.14586        -175.051         -44.7286        -106.881         -44.8894        -106.997        -0.017095         144.656
0.594                   -2.20993        -175.691         -44.5872        -108.707         -44.7467        -108.809       -0.0172735          144.58
0.595                   -2.27508        -176.324         -44.4478        -110.542         -44.6055        -110.628       -0.0174551         144.504
0.596                   -2.34123        -176.949         -44.3105        -112.384         -44.4659        -112.456         -0.01764         144.427
0.597                   -2.40828        -177.566         -44.1752        -114.234          -44.328        -114.291       -0.0178282         144.351
0.598                   -2.47614        -178.175          -44.042        -116.091         -44.1917        -116.133       -0.0180199         144.274
0.599                   -2.54471        -178.776          -43.911        -117.954         -44.0571        -117.982        -0.018215         144.197
0.6                     -2.61388        -179.368         -43.7822        -119.824         -43.9244        -119.837       -0.0184136         144.119
0.601                   -2.68355         -179.95         -43.6556        -121.698         -43.7934        -121.698       -0.0186158         144.042
0.602                   -2.75361         179.476         -43.5313        -123.578         -43.6644        -123.565       -0.0188217         143.964
0.603                   -2.82392          178.91         -43.4091        -125.462         -43.5373        -125.437       -0.0190313         143.886
0.604                   -2.89439         178.354         -43.2892        -127.349         -43.4121        -127.313       -0.0192447         143.808
0.605                   -2.96488         177.807         -43.1716        -129.239          -43.289        -129.193       -0.0194619          143.73
0.606                   -3.03529         177.268         -43.0562        -131.132         -43.1678        -131.077        -0.019683         143.652
0.607                   -3.10549         176.738         -42.9431        -133.027         -43.0487        -132.964        -0.019908         143.573
0.608                   -3.17537         176.215         -42.8322        -134.922         -42.9317        -134.853       -0.0201371         143.494
0.609                   -3.24482         175.701         -42.7235        -136.819         -42.8168        -136.744       -0.0203702         143.415
0.61                    -3.31373         175.193          -42.617        -138.715         -42.7039        -138.637       -0.0206074         143.336
0.611                     -3.382         174.692         -42.5126         -140.61         -42.5932         -140.53       -0.0208487         143.256
0.612                   -3.44955         174.196         -42.4104        -142.504         -42.4845        -142.423       -0.0210943         143.177
0.613                   -3.51628         173.707         -42.3102        -144.397          -42.378        -144.316        -0.021344         143.097
0.614                   -3.58211         173.221         -42.2121        -146.286         -42.2735        -146.208       -0.0215981         143.017
0.615                   -3.64698          172.74         -42.1159        -148.173          -42.171        -148.098       -0.0218564         142.936
0.616                   -3.71083         172.262         -42.0218        -150.057         -42.0706        -149.986       -0.0221191         142.856
0.617                    -3.7736         171.785         -41.9294        -151.936         -41.9723        -151.871       -0.0223861         142.775
0.618                   -3.83526         171.311         -41.8389        -153.811         -41.8758        -153.753       -0.0226575         142.694
0.619                   -3.89578         170.836         -41.7502         -155.68         -41.7813        -155.631       -0.0229333         142.613
0.62                    -3.95514         170.362         -41.6631        -157.545         -41.6887        -157.505       -0.0232136         142.531
0.621                   -4.01333         169.886         -41.5776        -159.403          -41.598        -159.374       -0.0234982         142.449
0.622                   -4.07036         169.408         -41.4937        -161.256          -41.509        -161.238       -0.0237873         142.367
0.623                   -4.12623         168.926         -41.4113        -163.101         -41.4218        -163.096       -0.0240809         142.285
0.624                   -4.18099         168.441         -41.3303         -164.94         -41.3362        -164.947       -0.0243789         142.203
0.625                   -4.23465         167.951         -41.2505        -166.772         -41.2522        -166.792       -0.0246813          142.12
0.626                   -4.28727         167.454          -41.172        -168.596         -41.1698        -168.631       -0.0249882         142.037
0.627                   -4.33889         166.952         -41.0947        -170.413         -41.0888        -170.461       -0.0252995         141.954
0.628                   -4.38958         166.442         -41.0185        -172.222         -41.0092        -172.284       -0.0256151          141.87
0.629                   -4.43941         165.923         -40.9432        -174.023          -40.931          -174.1       -0.0259352         141.787
