! TOUCHSTONE file generated by CST MICROWAVE STUDIO
! Date and time: Fri Oct 30 07:55:22 2020
! Project name: Scenario_1_Circular_Tissue_out_of_Line.cst
! Parameters = {dy1=-33.862; L_HA=400; MT=2.54; Rad_Dielectric=30; Rad_Lower=7.3; Rad_Upper=30; a_HA=580; a_WG=246; b_HA=500; b_WG=121; c_HA=0; c_WG=187; d_feed=85; dx1=520; h_feed=15; h_lower=18; h_upper=40}
! Header version: 2018
! Port assignment regex: !\s*Touchstone port\s*([0-9]+)\s*=\s*(CST MWS port|CST DS port)\s*([0-9]+|Zmin|Zmax)\s*\(\"(.*)\"\)(\s*mode\s*([0-9]+))?.*
! Touchstone port assignment:
! Touchstone port 1 = CST MWS port 1 ("")
! Touchstone port 2 = CST MWS port 2 ("")
# GHz S DB R 50
0.5                    -0.130793        -122.473         -61.0127        -59.8428         -61.0127        -59.8428      -0.00738701         151.144
0.501                  -0.137053        -122.946         -60.8288        -61.2556         -60.8285        -61.2561      -0.00745277         151.078
0.502                  -0.143797        -123.421         -60.6434        -62.6854         -60.6429        -62.6864      -0.00751972         151.013
0.503                  -0.151021        -123.896         -60.4566        -64.1326         -60.4559        -64.1342      -0.00758784         150.948
0.504                  -0.158717        -124.372         -60.2685        -65.5977         -60.2676        -65.5997      -0.00765715         150.882
0.505                  -0.166877        -124.848         -60.0791        -67.0809          -60.078        -67.0835      -0.00772766         150.816
0.506                  -0.175492        -125.326         -59.8886        -68.5829         -59.8873        -68.5859      -0.00779935         150.751
0.507                  -0.184555        -125.803          -59.697        -70.1038         -59.6956        -70.1073      -0.00787225         150.685
0.508                  -0.194053        -126.281         -59.5044        -71.6442         -59.5029        -71.6482      -0.00794636         150.619
0.509                  -0.203978        -126.759          -59.311        -73.2044         -59.3094        -73.2088      -0.00802167         150.553
0.51                   -0.214316        -127.238         -59.1169        -74.7847         -59.1151        -74.7896       -0.0080982         150.487
0.511                  -0.225056        -127.717         -58.9222        -76.3855         -58.9203        -76.3909      -0.00817595         150.421
0.512                  -0.236184        -128.196          -58.727        -78.0071          -58.725        -78.0129      -0.00825491         150.355
0.513                  -0.247688        -128.675         -58.5315        -79.6498         -58.5294         -79.656       -0.0083351         150.289
0.514                  -0.259554        -129.154         -58.3357        -81.3137         -58.3336        -81.3204      -0.00841651         150.222
0.515                  -0.271766        -129.633           -58.14        -82.9992         -58.1378        -83.0062      -0.00849915         150.156
0.516                  -0.284311        -130.112         -57.9443        -84.7063         -57.9421        -84.7137      -0.00858301          150.09
0.517                  -0.297172        -130.591         -57.7488        -86.4352         -57.7466        -86.4429      -0.00866811         150.023
0.518                  -0.310335         -131.07         -57.5538        -88.1859         -57.5516        -88.1939      -0.00875445         149.956
0.519                  -0.323784        -131.549         -57.3593        -89.9585         -57.3571        -89.9667      -0.00884201          149.89
0.52                   -0.337503        -132.028         -57.1657        -91.7528         -57.1634        -91.7613       -0.0089308         149.823
0.521                  -0.351476        -132.507         -56.9729        -93.5688         -56.9707        -93.5775      -0.00902083         149.756
0.522                  -0.365687        -132.985         -56.7812        -95.4062         -56.7791        -95.4151      -0.00911209         149.689
0.523                   -0.38012        -133.464         -56.5909        -97.2648         -56.5887        -97.2739      -0.00920458         149.622
0.524                  -0.394759        -133.943         -56.4019        -99.1443         -56.3998        -99.1535      -0.00929829         149.555
0.525                  -0.409589        -134.422         -56.2146        -101.044         -56.2126        -101.053      -0.00939323         149.488
0.526                  -0.424594          -134.9         -56.0292        -102.964         -56.0272        -102.973      -0.00948939          149.42
0.527                   -0.43976        -135.379         -55.8457        -104.903         -55.8438        -104.912      -0.00958677         149.353
0.528                  -0.455071        -135.858         -55.6644        -106.861         -55.6625         -106.87      -0.00968537         149.286
0.529                  -0.470513        -136.338         -55.4854        -108.837         -55.4836        -108.846      -0.00978517         149.218
0.53                   -0.486073        -136.817         -55.3088        -110.829         -55.3072        -110.838      -0.00988617          149.15
0.531                  -0.501737        -137.297          -55.135        -112.838         -55.1334        -112.847      -0.00998837         149.083
0.532                  -0.517492        -137.778         -54.9639        -114.862         -54.9624         -114.87       -0.0100918         149.015
0.533                  -0.533326        -138.259         -54.7957          -116.9         -54.7943        -116.908       -0.0101963         148.947
0.534                  -0.549228         -138.74         -54.6306        -118.951         -54.6292        -118.959       -0.0103021         148.879
0.535                  -0.565188        -139.223         -54.4686        -121.013         -54.4673        -121.021        -0.010409         148.811
0.536                  -0.581195        -139.706         -54.3098        -123.086         -54.3087        -123.093        -0.010517         148.743
0.537                  -0.597241         -140.19         -54.1544        -125.168         -54.1533        -125.175       -0.0106262         148.674
0.538                  -0.613316        -140.675         -54.0024        -127.257         -54.0014        -127.264       -0.0107366         148.606
0.539                  -0.629415        -141.162         -53.8538        -129.353         -53.8529        -129.359        -0.010848         148.537
0.54                    -0.64553        -141.649         -53.7086        -131.454         -53.7078        -131.459       -0.0109606         148.469
0.541                  -0.661657        -142.138          -53.567        -133.558         -53.5663        -133.563       -0.0110742           148.4
0.542                   -0.67779        -142.629         -53.4289        -135.664         -53.4282        -135.669        -0.011189         148.331
0.543                  -0.693926        -143.121         -53.2942        -137.771         -53.2936        -137.775       -0.0113048         148.262
0.544                  -0.710063        -143.615          -53.163        -139.877         -53.1624        -139.881       -0.0114216         148.193
0.545                    -0.7262        -144.111         -53.0351        -141.981         -53.0346        -141.984       -0.0115395         148.124
0.546                  -0.742335        -144.609         -52.9106        -144.082         -52.9102        -144.085       -0.0116584         148.055
0.547                   -0.75847        -145.109         -52.7893        -146.177          -52.789         -146.18       -0.0117783         147.986
0.548                  -0.774607        -145.612         -52.6712        -148.267         -52.6709        -148.269       -0.0118992         147.916
0.549                  -0.790747        -146.117         -52.5561         -150.35         -52.5558        -150.352        -0.012021         147.847
0.55                   -0.806897        -146.625          -52.444        -152.425         -52.4437        -152.426       -0.0121438         147.777
0.551                  -0.823059        -147.136         -52.3346        -154.491         -52.3344        -154.492       -0.0122676         147.708
0.552                  -0.839241        -147.649          -52.228        -156.547         -52.2277        -156.547       -0.0123922         147.638
0.553                   -0.85545        -148.166         -52.1238        -158.592         -52.1236        -158.592       -0.0125178         147.568
0.554                  -0.871694        -148.686          -52.022        -160.626         -52.0218        -160.625       -0.0126442         147.498
0.555                  -0.887983        -149.209         -51.9224        -162.647         -51.9222        -162.646       -0.0127716         147.427
0.556                  -0.904327        -149.736         -51.8248        -164.656         -51.8247        -164.655       -0.0128997         147.357
0.557                  -0.920738        -150.267         -51.7292        -166.651         -51.7291         -166.65       -0.0130287         147.287
0.558                  -0.937229        -150.801         -51.6353        -168.633         -51.6352        -168.631       -0.0131585         147.216
0.559                  -0.953814         -151.34         -51.5429        -170.601         -51.5428        -170.599       -0.0132892         147.146
0.56                   -0.970508        -151.882          -51.452        -172.555         -51.4519        -172.553       -0.0134206         147.075
0.561                  -0.987327        -152.429         -51.3623        -174.495         -51.3622        -174.493       -0.0135528         147.004
0.562                   -1.00429         -152.98         -51.2737        -176.421         -51.2736        -176.418       -0.0136858         146.933
0.563                   -1.02141        -153.536          -51.186        -178.332         -51.1859        -178.329       -0.0138195         146.862
0.564                   -1.03872        -154.096         -51.0992         179.771          -51.099         179.773        -0.013954          146.79
0.565                   -1.05622        -154.661         -51.0129         177.888         -51.0128          177.89       -0.0140892         146.719
0.566                   -1.07395        -155.231         -50.9272         176.018         -50.9271         176.021       -0.0142252         146.648
0.567                   -1.09192        -155.806         -50.8418         174.162         -50.8417         174.165        -0.014362         146.576
0.568                   -1.11017        -156.386         -50.7567          172.32         -50.7566         172.323       -0.0144994         146.504
0.569                   -1.12871        -156.972         -50.6717          170.49         -50.6716         170.493       -0.0146377         146.432
0.57                    -1.14757        -157.563         -50.5867         168.674         -50.5866         168.676       -0.0147766          146.36
0.571                   -1.16678        -158.159         -50.5016         166.869         -50.5015         166.871       -0.0149164         146.288
0.572                   -1.18637        -158.761         -50.4163         165.076         -50.4162         165.078       -0.0150569         146.216
0.573                   -1.20637        -159.369         -50.3307         163.294         -50.3306         163.296       -0.0151982         146.143
0.574                   -1.22681        -159.983         -50.2447         161.523         -50.2446         161.525       -0.0153403         146.071
0.575                   -1.24771        -160.602         -50.1582         159.762         -50.1581         159.764       -0.0154832         145.998
0.576                   -1.26912        -161.227         -50.0712         158.011         -50.0711         158.013        -0.015627         145.925
0.577                   -1.29107        -161.859         -49.9835         156.269         -49.9834         156.271       -0.0157716         145.852
0.578                   -1.31359        -162.496         -49.8952         154.535         -49.8951         154.537       -0.0159172         145.779
0.579                   -1.33672         -163.14         -49.8061          152.81          -49.806         152.812       -0.0160636         145.705
0.58                    -1.36049         -163.79         -49.7163         151.092         -49.7162         151.094        -0.016211         145.632
0.581                   -1.38496        -164.446         -49.6256         149.382         -49.6255         149.383       -0.0163595         145.558
0.582                   -1.41014        -165.109          -49.534         147.677         -49.5339         147.678       -0.0165089         145.484
0.583                    -1.4361        -165.778         -49.4415         145.978         -49.4414         145.979       -0.0166595          145.41
0.584                   -1.46286        -166.453         -49.3481         144.285          -49.348         144.286       -0.0168112         145.336
0.585                   -1.49047        -167.135         -49.2537         142.596         -49.2536         142.597        -0.016964         145.262
0.586                   -1.51897        -167.822         -49.1583         140.911         -49.1582         140.912       -0.0171181         145.187
0.587                   -1.54842        -168.517         -49.0619         139.229         -49.0619          139.23       -0.0172735         145.113
0.588                   -1.57885        -169.217         -48.9645         137.551         -48.9645         137.551       -0.0174303         145.038
0.589                   -1.61031        -169.924          -48.866         135.875         -48.8661         135.875       -0.0175884         144.963
0.59                    -1.64285        -170.638         -48.7666         134.201         -48.7666         134.201        -0.017748         144.888
0.591                   -1.67652        -171.357         -48.6662         132.528         -48.6662         132.528       -0.0179092         144.813
0.592                   -1.71136        -172.083         -48.5647         130.855         -48.5648         130.855        -0.018072         144.737
0.593                   -1.74744        -172.814         -48.4622         129.184         -48.4623         129.184       -0.0182364         144.662
0.594                   -1.78479        -173.552         -48.3588         127.512         -48.3589         127.511       -0.0184026         144.586
0.595                   -1.82347        -174.295         -48.2544         125.839         -48.2545         125.839       -0.0185706          144.51
0.596                   -1.86353        -175.044         -48.1491         124.165         -48.1492         124.165       -0.0187406         144.433
0.597                   -1.90502        -175.798         -48.0428          122.49         -48.0429         122.489       -0.0189124         144.357
0.598                     -1.948        -176.558         -47.9356         120.812         -47.9358         120.811       -0.0190864          144.28
0.599                   -1.99252        -177.323         -47.8276         119.132         -47.8278         119.131       -0.0192625         144.204
0.6                     -2.03862        -178.093         -47.7188         117.449          -47.719         117.449       -0.0194407         144.127
0.601                   -2.08637        -178.867         -47.6092         115.763         -47.6094         115.762       -0.0196213         144.049
0.602                   -2.13581        -179.646         -47.4989         114.074          -47.499         114.073       -0.0198043         143.972
0.603                     -2.187         179.571         -47.3878          112.38          -47.388         112.379       -0.0199897         143.895
0.604                   -2.23999         178.784         -47.2761         110.682         -47.2763         110.681       -0.0201776         143.817
0.605                   -2.29482         177.993         -47.1638         108.979          -47.164         108.978       -0.0203682         143.739
0.606                   -2.35154           177.2         -47.0509         107.272         -47.0511         107.271       -0.0205614         143.661
0.607                   -2.41021         176.403         -46.9375         105.559         -46.9378         105.558       -0.0207575         143.582
0.608                   -2.47087         175.604         -46.8237         103.841          -46.824          103.84       -0.0209564         143.504
0.609                   -2.53357         174.804         -46.7095         102.117         -46.7098         102.116       -0.0211583         143.425
0.61                    -2.59833         174.001          -46.595         100.388         -46.5952         100.387       -0.0213632         143.346
0.611                   -2.66522         173.198         -46.4801         98.6523         -46.4804         98.6514       -0.0215712         143.266
0.612                   -2.73426         172.393         -46.3651         96.9106         -46.3654         96.9096       -0.0217825         143.187
0.613                   -2.80548         171.589         -46.2499         95.1626         -46.2502         95.1616        -0.021997         143.107
0.614                   -2.87892         170.786         -46.1346         93.4081         -46.1349         93.4072       -0.0222149         143.027
0.615                   -2.95461         169.983         -46.0193         91.6472         -46.0196         91.6463       -0.0224362         142.947
0.616                   -3.03257         169.182          -45.904         89.8798         -45.9043         89.8789       -0.0226611         142.867
0.617                   -3.11281         168.383         -45.7889         88.1058         -45.7891          88.105       -0.0228896         142.786
0.618                   -3.19535         167.587         -45.6739         86.3253         -45.6741         86.3245       -0.0231218         142.705
0.619                    -3.2802         166.795         -45.5591         84.5383         -45.5593         84.5375       -0.0233578         142.624
0.62                    -3.36736         166.007         -45.4446         82.7448         -45.4448         82.7441       -0.0235977         142.543
0.621                   -3.45682         165.224         -45.3305          80.945         -45.3307         80.9443       -0.0238415         142.461
0.622                   -3.54859         164.446         -45.2167         79.1389          -45.217         79.1383       -0.0240893         142.379
0.623                   -3.64263         163.675         -45.1035         77.3268         -45.1037         77.3262       -0.0243413         142.297
0.624                   -3.73893         162.911         -44.9908         75.5087          -44.991         75.5081       -0.0245975         142.215
0.625                   -3.83745         162.155         -44.8787         73.6849         -44.8789         73.6843       -0.0248579         142.132
0.626                   -3.93816         161.407         -44.7672         71.8556         -44.7674          71.855       -0.0251228         142.049
0.627                   -4.04101         160.669         -44.6564         70.0209         -44.6566         70.0205       -0.0253921         141.966
0.628                   -4.14594         159.941         -44.5464         68.1813         -44.5466         68.1809       -0.0256659         141.883
0.629                   -4.25289         159.223         -44.4372          66.337         -44.4374         66.3366       -0.0259445         141.799
