! TOUCHSTONE file generated by CST MICROWAVE STUDIO
! Date and time: Wed Oct 28 19:17:00 2020
! Project name: Scenario_1_Circular_Tissue_out_of_Line.cst
! Parameters = {dy1=-33.862; L_HA=400; MT=2.54; Rad_Dielectric=30; Rad_Lower=7.3; Rad_Upper=30; a_HA=580; a_WG=246; b_HA=500; b_WG=121; c_HA=0; c_WG=187; d_feed=85; dx1=693; h_feed=15; h_lower=18; h_upper=40}
! Header version: 2018
! Port assignment regex: !\s*Touchstone port\s*([0-9]+)\s*=\s*(CST MWS port|CST DS port)\s*([0-9]+|Zmin|Zmax)\s*\(\"(.*)\"\)(\s*mode\s*([0-9]+))?.*
! Touchstone port assignment:
! Touchstone port 1 = CST MWS port 1 ("")
! Touchstone port 2 = CST MWS port 2 ("")
# GHz S DB R 50
0.5                    -0.155179        -122.253         -61.9842        -166.413         -61.9842        -166.413      -0.00768524         151.147
0.501                  -0.159466        -122.685         -61.8926        -168.193         -61.8922        -168.189        -0.007748         151.082
0.502                  -0.163863        -123.119         -61.7973        -169.971         -61.7966        -169.963      -0.00781109         151.017
0.503                  -0.168374        -123.556         -61.6983        -171.747         -61.6974        -171.736       -0.0078745         150.952
0.504                  -0.173004        -123.995         -61.5958        -173.521         -61.5947        -173.506      -0.00793825         150.886
0.505                  -0.177761        -124.438         -61.4898        -175.294         -61.4885        -175.276      -0.00800234         150.821
0.506                  -0.182649        -124.882         -61.3806        -177.064         -61.3791        -177.043      -0.00806678         150.755
0.507                  -0.187677         -125.33         -61.2681        -178.831         -61.2666        -178.808      -0.00813157          150.69
0.508                  -0.192849         -125.78         -61.1525         179.403         -61.1509         179.428      -0.00819674         150.624
0.509                  -0.198174        -126.233         -61.0339         177.638         -61.0323         177.666      -0.00826228         150.558
0.51                    -0.20366        -126.688         -60.9124         175.876         -60.9108         175.905      -0.00832821         150.492
0.511                  -0.209314        -127.147         -60.7881         174.115         -60.7865         174.145      -0.00839454         150.426
0.512                  -0.215144        -127.608         -60.6612         172.355         -60.6596         172.387      -0.00846128          150.36
0.513                  -0.221159        -128.073         -60.5316         170.597         -60.5301         170.629      -0.00852844         150.294
0.514                  -0.227369         -128.54         -60.3996         168.838         -60.3981         168.871      -0.00859603         150.228
0.515                  -0.233783         -129.01         -60.2652          167.08         -60.2637         167.114      -0.00866408         150.162
0.516                   -0.24041        -129.483         -60.1284         165.323          -60.127         165.356      -0.00873258         150.096
0.517                  -0.247262         -129.96         -59.9894         163.564         -59.9881         163.598      -0.00880156         150.029
0.518                   -0.25435        -130.439         -59.8483         161.805         -59.8471         161.839      -0.00887104         149.963
0.519                  -0.261684        -130.922         -59.7052         160.044          -59.704         160.078      -0.00894103         149.896
0.52                   -0.269277        -131.407           -59.56         158.282          -59.559         158.315      -0.00901155         149.829
0.521                   -0.27714        -131.896          -59.413         156.518          -59.412          156.55      -0.00908262         149.763
0.522                  -0.285288        -132.388         -59.2642         154.751         -59.2632         154.783      -0.00915427         149.696
0.523                  -0.293734        -132.883         -59.1136          152.98         -59.1128         153.012       -0.0092265         149.629
0.524                  -0.302491        -133.382         -58.9614         151.206         -58.9606         151.237      -0.00929935         149.562
0.525                  -0.311573        -133.883         -58.8076         149.428         -58.8069         149.458      -0.00937284         149.495
0.526                  -0.320997        -134.388         -58.6522         147.645         -58.6516         147.675      -0.00944699         149.427
0.527                  -0.330777        -134.897         -58.4955         145.858         -58.4949         145.886      -0.00952184          149.36
0.528                   -0.34093        -135.408         -58.3374         144.064         -58.3369         144.091      -0.00959741         149.293
0.529                  -0.351472        -135.923          -58.178         142.264         -58.1775          142.29      -0.00967373         149.225
0.53                    -0.36242        -136.441         -58.0174         140.458         -58.0169         140.483      -0.00975084         149.157
0.531                  -0.373791        -136.962         -57.8556         138.644         -57.8552         138.668      -0.00982876          149.09
0.532                  -0.385604        -137.486         -57.6928         136.822         -57.6925         136.845      -0.00990754         149.022
0.533                  -0.397876        -138.014          -57.529         134.992         -57.5287         135.014      -0.00998721         148.954
0.534                  -0.410626        -138.545         -57.3643         133.154          -57.364         133.175       -0.0100678         148.886
0.535                  -0.423874        -139.079         -57.1987         131.306         -57.1985         131.326       -0.0101494         148.818
0.536                  -0.437637        -139.616         -57.0324         129.448         -57.0322         129.467       -0.0102319          148.75
0.537                  -0.451936        -140.156         -56.8654          127.58         -56.8652         127.598       -0.0103156         148.681
0.538                  -0.466789        -140.699         -56.6978         125.702         -56.6977         125.718       -0.0104003         148.613
0.539                  -0.482215        -141.244         -56.5297         123.812         -56.5296         123.827       -0.0104862         148.544
0.54                   -0.498234        -141.793         -56.3612          121.91         -56.3611         121.925       -0.0105733         148.476
0.541                  -0.514863        -142.344         -56.1924         119.997         -56.1923         120.011       -0.0106616         148.407
0.542                  -0.532122        -142.898         -56.0233         118.071         -56.0232         118.084       -0.0107513         148.338
0.543                  -0.550026        -143.454          -55.854         116.133          -55.854         116.145       -0.0108422         148.269
0.544                  -0.568594        -144.013         -55.6848         114.182         -55.6847         114.192       -0.0109346           148.2
0.545                  -0.587841        -144.574         -55.5155         112.217         -55.5155         112.226       -0.0110285         148.131
0.546                   -0.60778        -145.137         -55.3465         110.238         -55.3464         110.247       -0.0111239         148.062
0.547                  -0.628426        -145.702         -55.1777         108.246         -55.1776         108.254       -0.0112209         147.992
0.548                  -0.649789        -146.268         -55.0092         106.239         -55.0092         106.246       -0.0113195         147.923
0.549                  -0.671879        -146.836         -54.8412         104.218         -54.8412         104.225       -0.0114198         147.853
0.55                   -0.694703        -147.405         -54.6738         102.183         -54.6738         102.189       -0.0115219         147.783
0.551                  -0.718266        -147.975         -54.5072         100.133         -54.5071         100.138       -0.0116258         147.714
0.552                   -0.74257        -148.547         -54.3413         98.0685         -54.3413         98.0732       -0.0117316         147.644
0.553                  -0.767615        -149.118         -54.1763         95.9894         -54.1763         95.9936       -0.0118394         147.574
0.554                  -0.793397        -149.691         -54.0124         93.8959         -54.0124         93.8996       -0.0119491         147.503
0.555                  -0.819908        -150.263         -53.8497         91.7879         -53.8497         91.7911       -0.0120609         147.433
0.556                  -0.847139        -150.835         -53.6883         89.6657         -53.6883         89.6684       -0.0121748         147.362
0.557                  -0.875073        -151.407         -53.5282         87.5294         -53.5282         87.5317       -0.0122908         147.292
0.558                  -0.903694        -151.979         -53.3697         85.3793         -53.3697         85.3813       -0.0124091         147.221
0.559                  -0.932979         -152.55         -53.2128         83.2157         -53.2128         83.2174       -0.0125296          147.15
0.56                   -0.962901         -153.12         -53.0576         81.0391         -53.0576         81.0405       -0.0126523         147.079
0.561                   -0.99343        -153.688         -52.9043         78.8497         -52.9043         78.8509       -0.0127775         147.008
0.562                   -1.02453        -154.255         -52.7529         76.6483          -52.753         76.6492       -0.0129049         146.937
0.563                   -1.05617        -154.821         -52.6037         74.4352         -52.6037         74.4359       -0.0130348         146.866
0.564                   -1.08829        -155.385         -52.4565         72.2111         -52.4565         72.2116       -0.0131671         146.794
0.565                   -1.12087        -155.948         -52.3116         69.9766         -52.3117          69.977       -0.0133018         146.723
0.566                   -1.15384        -156.508         -52.1691         67.7324         -52.1691         67.7327       -0.0134389         146.651
0.567                   -1.18716        -157.066         -52.0289         65.4794         -52.0289         65.4796       -0.0135785         146.579
0.568                   -1.22078        -157.623         -51.8912         63.2182         -51.8913         63.2183       -0.0137206         146.507
0.569                   -1.25463        -158.178         -51.7561         60.9497         -51.7561         60.9498       -0.0138651         146.435
0.57                    -1.28867         -158.73         -51.6235         58.6748         -51.6235         58.6748       -0.0140121         146.363
0.571                   -1.32284        -159.281         -51.4936         56.3943         -51.4936         56.3944       -0.0141615          146.29
0.572                   -1.35708         -159.83         -51.3663         54.1093         -51.3663         54.1093       -0.0143133         146.218
0.573                   -1.39134        -160.378         -51.2417         51.8205         -51.2418         51.8205       -0.0144675         146.145
0.574                   -1.42557        -160.924         -51.1198         49.5289         -51.1199          49.529        -0.014624         146.072
0.575                   -1.45971         -161.47         -51.0006         47.2356         -51.0007         47.2357       -0.0147829             146
0.576                   -1.49372        -162.015         -50.8841         44.9414         -50.8842         44.9415       -0.0149441         145.926
0.577                   -1.52756        -162.559         -50.7703         42.6474         -50.7704         42.6475       -0.0151075         145.853
0.578                   -1.56119        -163.103         -50.6591         40.3543         -50.6592         40.3545       -0.0152732          145.78
0.579                   -1.59458        -163.648         -50.5506         38.0632         -50.5506         38.0634       -0.0154411         145.706
0.58                    -1.62769        -164.194         -50.4445         35.7749         -50.4446         35.7751        -0.015611         145.633
0.581                   -1.66051        -164.741          -50.341         33.4903         -50.3411         33.4906       -0.0157831         145.559
0.582                   -1.69303        -165.289         -50.2399         31.2101           -50.24         31.2105       -0.0159573         145.485
0.583                   -1.72523         -165.84         -50.1412         28.9353         -50.1412         28.9357       -0.0161334         145.411
0.584                   -1.75712        -166.394         -50.0447         26.6665         -50.0448         26.6669       -0.0163115         145.337
0.585                   -1.78869         -166.95         -49.9505         24.4044         -49.9505         24.4049       -0.0164915         145.262
0.586                   -1.81996        -167.511         -49.8583         22.1497         -49.8583         22.1502       -0.0166734         145.188
0.587                   -1.85096        -168.075         -49.7681         19.9029         -49.7681         19.9034       -0.0168572         145.113
0.588                   -1.88169        -168.645         -49.6798         17.6646         -49.6798         17.6651       -0.0170428         145.038
0.589                    -1.9122        -169.219         -49.5933         15.4353         -49.5933         15.4358       -0.0172302         144.963
0.59                    -1.94252        -169.799         -49.5085         13.2153         -49.5085         13.2159       -0.0174193         144.888
0.591                    -1.9727        -170.385         -49.4252         11.0051         -49.4252         11.0057       -0.0176102         144.813
0.592                   -2.00277        -170.977         -49.3433         8.80497         -49.3434         8.80554       -0.0178029         144.737
0.593                   -2.03279        -171.577         -49.2628         6.61513         -49.2629         6.61571       -0.0179972         144.661
0.594                   -2.06282        -172.183         -49.1835         4.43581         -49.1836         4.43638       -0.0181933         144.586
0.595                   -2.09292        -172.797         -49.1053         2.26713         -49.1054          2.2677       -0.0183911          144.51
0.596                   -2.12315        -173.419         -49.0281        0.109197         -49.0282        0.109748       -0.0185906         144.433
0.597                   -2.15358        -174.049         -48.9518        -2.03796         -48.9518        -2.03743       -0.0187918         144.357
0.598                   -2.18427        -174.688         -48.8762        -4.17436         -48.8763        -4.17384       -0.0189948          144.28
0.599                    -2.2153        -175.335         -48.8013        -6.30004         -48.8014        -6.29955       -0.0191995         144.204
0.6                     -2.24674        -175.991          -48.727        -8.41511          -48.727        -8.41465        -0.019406         144.127
0.601                   -2.27867        -176.656         -48.6531        -10.5197         -48.6531        -10.5193       -0.0196142          144.05
0.602                   -2.31115         -177.33         -48.5796         -12.614         -48.5796        -12.6136       -0.0198244         143.972
0.603                   -2.34428        -178.013         -48.5063        -14.6982         -48.5064        -14.6979       -0.0200363         143.895
0.604                   -2.37813        -178.706         -48.4333        -16.7726         -48.4333        -16.7723       -0.0202502         143.817
0.605                   -2.41278        -179.409         -48.3603        -18.8374         -48.3604        -18.8371       -0.0204661         143.739
0.606                   -2.44831          179.88         -48.2874         -20.893         -48.2875        -20.8927       -0.0206839         143.661
0.607                   -2.48479         179.158         -48.2144        -22.9396         -48.2145        -22.9394       -0.0209037         143.583
0.608                   -2.52232         178.427         -48.1414        -24.9776         -48.1415        -24.9774       -0.0211257         143.504
0.609                   -2.56098         177.687         -48.0681        -27.0074         -48.0682        -27.0073       -0.0213498         143.426
0.61                    -2.60084         176.937         -47.9947        -29.0294         -47.9948        -29.0292       -0.0215762         143.347
0.611                   -2.64199         176.177         -47.9209        -31.0439          -47.921        -31.0438       -0.0218048         143.268
0.612                   -2.68452         175.408         -47.8468        -33.0513         -47.8469        -33.0513       -0.0220357         143.188
0.613                    -2.7285          174.63         -47.7724        -35.0521         -47.7725        -35.0521       -0.0222691         143.109
0.614                   -2.77402         173.843         -47.6976        -37.0467         -47.6977        -37.0467        -0.022505         143.029
0.615                   -2.82116         173.047         -47.6223        -39.0355         -47.6224        -39.0355       -0.0227434         142.949
0.616                   -2.87002         172.242         -47.5466        -41.0189         -47.5467        -41.0189       -0.0229844         142.869
0.617                   -2.92066         171.429         -47.4704        -42.9973         -47.4705        -42.9974       -0.0232282         142.788
0.618                   -2.97319         170.607         -47.3937        -44.9712         -47.3938        -44.9713       -0.0234748         142.707
0.619                   -3.02767         169.777         -47.3165         -46.941         -47.3166        -46.9412       -0.0237242         142.626
0.62                     -3.0842         168.939         -47.2388        -48.9071         -47.2389        -48.9072       -0.0239766         142.545
0.621                   -3.14287         168.094         -47.1606        -50.8699         -47.1607          -50.87       -0.0242321         142.464
0.622                   -3.20375         167.242         -47.0818        -52.8297          -47.082        -52.8299       -0.0244907         142.382
0.623                   -3.26694         166.383         -47.0026         -54.787         -47.0027        -54.7872       -0.0247525           142.3
0.624                   -3.33251         165.517         -46.9228        -56.7422          -46.923        -56.7424       -0.0250177         142.218
0.625                   -3.40055         164.645         -46.8426        -58.6955         -46.8427        -58.6957       -0.0252862         142.135
0.626                   -3.47115         163.768         -46.7619        -60.6474         -46.7621        -60.6476       -0.0255583         142.053
0.627                   -3.54439         162.885         -46.6808        -62.5981         -46.6809        -62.5983       -0.0258341          141.97
0.628                   -3.62035         161.998         -46.5992         -64.548         -46.5994        -64.5482       -0.0261135         141.887
0.629                   -3.69912         161.107         -46.5173        -66.4973         -46.5174        -66.4975       -0.0263967         141.803
