! TOUCHSTONE file generated by CST MICROWAVE STUDIO
! Date and time: Mon Oct 26 12:31:20 2020
! Project name: Scenario_1_Circular_Tissue_out_of_Line.cst
! Parameters = {dy1=-33.862; L_HA=400; MT=2.54; Rad_Dielectric=30; Rad_Lower=7.3; Rad_Upper=30; a_HA=580; a_WG=246; b_HA=500; b_WG=121; c_HA=0; c_WG=187; d_feed=85; dx1=866; h_feed=15; h_lower=18; h_upper=40}
! Header version: 2018
! Port assignment regex: !\s*Touchstone port\s*([0-9]+)\s*=\s*(CST MWS port|CST DS port)\s*([0-9]+|Zmin|Zmax)\s*\(\"(.*)\"\)(\s*mode\s*([0-9]+))?.*
! Touchstone port assignment:
! Touchstone port 1 = CST MWS port 1 ("")
! Touchstone port 2 = CST MWS port 2 ("")
# GHz S DB R 50
0.5                    -0.142616        -122.425         -62.5994         99.5325         -62.5994         99.5325      -0.00746863         151.136
0.501                  -0.145692        -122.852         -62.5058         97.2257         -62.5058         97.2253      -0.00754114          151.07
0.502                  -0.149006         -123.28         -62.4085         94.9096         -62.4086         94.9088      -0.00761437         151.005
0.503                  -0.152564        -123.711         -62.3077         92.5851         -62.3079         92.5839      -0.00768833          150.94
0.504                   -0.15637        -124.144         -62.2034         90.2531         -62.2036         90.2515      -0.00776302         150.874
0.505                  -0.160426        -124.578         -62.0956         87.9143         -62.0959         87.9123      -0.00783844         150.808
0.506                  -0.164739        -125.015         -61.9845         85.5695         -61.9847         85.5672      -0.00791459         150.743
0.507                  -0.169311        -125.454           -61.87         83.2196         -61.8703          83.217      -0.00799149         150.677
0.508                  -0.174148        -125.894         -61.7523         80.8652         -61.7526         80.8623      -0.00806914         150.611
0.509                  -0.179254        -126.337         -61.6314         78.5071         -61.6318         78.5039      -0.00814753         150.545
0.51                   -0.184633        -126.782         -61.5076          76.146          -61.508         76.1425      -0.00822668          150.48
0.511                   -0.19029        -127.229         -61.3808         73.7824         -61.3812         73.7787      -0.00830659         150.413
0.512                  -0.196229        -127.679         -61.2512         71.4171         -61.2516         71.4131      -0.00838726         150.347
0.513                  -0.202454         -128.13         -61.1189         69.0505         -61.1194         69.0463      -0.00846869         150.281
0.514                  -0.208971        -128.584          -60.984         66.6832         -60.9845         66.6788       -0.0085509         150.215
0.515                  -0.215783        -129.039         -60.8467         64.3157         -60.8472         64.3111      -0.00863388         150.149
0.516                  -0.222896        -129.498         -60.7071         61.9484         -60.7076         61.9437      -0.00871764         150.082
0.517                  -0.230313        -129.958         -60.5653         59.5817         -60.5658         59.5769      -0.00880219         150.016
0.518                  -0.238041        -130.421         -60.4214          57.216          -60.422         57.2111      -0.00888752         149.949
0.519                  -0.246082        -130.886         -60.2756         54.8516         -60.2762         54.8466      -0.00897363         149.882
0.52                   -0.254443        -131.353         -60.1281         52.4887         -60.1287         52.4838      -0.00906055         149.816
0.521                  -0.263127        -131.823         -59.9789         50.1278         -59.9795         50.1228      -0.00914826         149.749
0.522                   -0.27214        -132.295         -59.8282         47.7688         -59.8288         47.7638      -0.00923677         149.682
0.523                  -0.281486         -132.77         -59.6761         45.4121         -59.6768         45.4072      -0.00932608         149.615
0.524                   -0.29117        -133.247         -59.5228         43.0578         -59.5235         43.0529       -0.0094162         149.548
0.525                  -0.301197        -133.726         -59.3684          40.706         -59.3691         40.7011      -0.00950713         149.481
0.526                  -0.311571        -134.209         -59.2131         38.3568         -59.2137          38.352      -0.00959886         149.413
0.527                  -0.322299        -134.693         -59.0569         36.0103         -59.0576         36.0055      -0.00969141         149.346
0.528                  -0.333383        -135.181         -58.8999         33.6664         -58.9007         33.6618      -0.00978478         149.278
0.529                   -0.34483         -135.67         -58.7425         31.3253         -58.7432         31.3208      -0.00987896         149.211
0.53                   -0.356644        -136.163         -58.5845          28.987         -58.5852         28.9826      -0.00997395         149.143
0.531                  -0.368831        -136.658         -58.4262         26.6514         -58.4269         26.6471       -0.0100698         149.075
0.532                  -0.381394        -137.156         -58.2677         24.3185         -58.2684         24.3143       -0.0101664         149.008
0.533                   -0.39434        -137.656          -58.109         21.9882         -58.1098         21.9843       -0.0102638          148.94
0.534                  -0.407673        -138.159         -57.9504         19.6607         -57.9512         19.6569       -0.0103621         148.872
0.535                  -0.421397        -138.665         -57.7919         17.3357         -57.7926         17.3321       -0.0104611         148.804
0.536                  -0.435519        -139.174         -57.6335         15.0132         -57.6343         15.0099        -0.010561         148.735
0.537                  -0.450043        -139.685         -57.4755         12.6933         -57.4763         12.6901       -0.0106616         148.667
0.538                  -0.464974          -140.2         -57.3179         10.3757         -57.3187         10.3728       -0.0107631         148.599
0.539                  -0.480317        -140.717         -57.1607         8.06051         -57.1615         8.05778       -0.0108653          148.53
0.54                   -0.496077        -141.237         -57.0042         5.74759         -57.0049         5.74509       -0.0109683         148.462
0.541                  -0.512259        -141.759         -56.8482          3.4369          -56.849         3.43462       -0.0110721         148.393
0.542                  -0.528869        -142.285          -56.693         1.12836         -56.6938         1.12632       -0.0111767         148.324
0.543                  -0.545912        -142.814         -56.5386        -1.17807         -56.5395        -1.17987        -0.011282         148.255
0.544                  -0.563392        -143.345         -56.3851        -3.48246         -56.3859        -3.48401        -0.011388         148.186
0.545                  -0.581314         -143.88         -56.2326        -5.78484         -56.2334        -5.78616       -0.0114948         148.117
0.546                  -0.599685        -144.417          -56.081        -8.08529         -56.0818        -8.08636       -0.0116022         148.048
0.547                  -0.618509        -144.957         -55.9305        -10.3838         -55.9313        -10.3846       -0.0117104         147.978
0.548                  -0.637791        -145.501         -55.7811        -12.6805         -55.7819        -12.6811       -0.0118192         147.909
0.549                  -0.657536        -146.047         -55.6328        -14.9753         -55.6336        -14.9757       -0.0119286         147.839
0.55                   -0.677751        -146.596         -55.4858        -17.2683         -55.4866        -17.2684       -0.0120387          147.77
0.551                  -0.698439        -147.149           -55.34        -19.5595         -55.3408        -19.5594       -0.0121493           147.7
0.552                  -0.719607        -147.704         -55.1955         -21.849         -55.1963        -21.8486       -0.0122605          147.63
0.553                   -0.74126        -148.263         -55.0523        -24.1366         -55.0531        -24.1361       -0.0123723          147.56
0.554                  -0.763402        -148.824         -54.9104        -26.4225         -54.9112        -26.4217       -0.0124845          147.49
0.555                  -0.786041        -149.389         -54.7699        -28.7067         -54.7707        -28.7057       -0.0125973          147.42
0.556                   -0.80918        -149.956         -54.6308        -30.9891         -54.6316        -30.9879       -0.0127105         147.349
0.557                  -0.832825        -150.527         -54.4932        -33.2697         -54.4939        -33.2683       -0.0128241         147.279
0.558                  -0.856982        -151.101         -54.3569        -35.5485         -54.3577        -35.5469       -0.0129381         147.208
0.559                  -0.881657        -151.678         -54.2221        -37.8256         -54.2228        -37.8238       -0.0130525         147.137
0.56                   -0.906854        -152.258         -54.0887        -40.1009         -54.0895        -40.0989       -0.0131673         147.066
0.561                  -0.932581        -152.841         -53.9568        -42.3743         -53.9575        -42.3722       -0.0132824         146.995
0.562                  -0.958841        -153.427         -53.8263        -44.6459          -53.827        -44.6436       -0.0133979         146.924
0.563                  -0.985641        -154.016         -53.6973        -46.9157          -53.698        -46.9132       -0.0135137         146.853
0.564                   -1.01299        -154.608         -53.5697        -49.1836         -53.5704         -49.181       -0.0136299         146.782
0.565                   -1.04088        -155.204         -53.4435        -51.4497         -53.4442        -51.4469       -0.0137466          146.71
0.566                   -1.06934        -155.802         -53.3188        -53.7138         -53.3195         -53.711       -0.0138636         146.638
0.567                   -1.09836        -156.404         -53.1955        -55.9761         -53.1962        -55.9731       -0.0139812         146.567
0.568                   -1.12794        -157.008         -53.0736        -58.2365         -53.0743        -58.2334       -0.0140995         146.495
0.569                    -1.1581        -157.616         -52.9531        -60.4949         -52.9538        -60.4918       -0.0142184         146.423
0.57                    -1.18885        -158.226         -52.8339        -62.7515         -52.8346        -62.7483       -0.0143382          146.35
0.571                   -1.22017         -158.84         -52.7161        -65.0062         -52.7168        -65.0029        -0.014459         146.278
0.572                    -1.2521        -159.457         -52.5996         -67.259         -52.6003        -67.2556        -0.014581         146.205
0.573                   -1.28462        -160.076         -52.4844        -69.5099         -52.4851        -69.5065       -0.0147043         146.133
0.574                   -1.31775        -160.699         -52.3705        -71.7589         -52.3711        -71.7555       -0.0148293          146.06
0.575                   -1.35149        -161.325         -52.2578        -74.0061         -52.2584        -74.0027        -0.014956         145.987
0.576                   -1.38584        -161.953         -52.1464        -76.2516          -52.147        -76.2481       -0.0150848         145.914
0.577                   -1.42083        -162.585         -52.0361        -78.4952         -52.0367        -78.4918       -0.0152158          145.84
0.578                   -1.45644        -163.219          -51.927        -80.7372         -51.9275        -80.7337       -0.0153494         145.767
0.579                   -1.49269        -163.856          -51.819        -82.9774         -51.8195         -82.974       -0.0154856         145.693
0.58                    -1.52959        -164.497          -51.712        -85.2161         -51.7126        -85.2127       -0.0156247          145.62
0.581                   -1.56714         -165.14         -51.6062        -87.4531         -51.6067        -87.4498        -0.015767         145.546
0.582                   -1.60534        -165.786         -51.5014        -89.6887         -51.5019        -89.6854       -0.0159124         145.471
0.583                   -1.64421        -166.434         -51.3975        -91.9229          -51.398        -91.9196       -0.0160612         145.397
0.584                   -1.68375        -167.086         -51.2947        -94.1557         -51.2951        -94.1525       -0.0162135         145.323
0.585                   -1.72397         -167.74         -51.1927        -96.3872         -51.1932        -96.3841       -0.0163693         145.248
0.586                   -1.76488        -168.397         -51.0916        -98.6176         -51.0921        -98.6146       -0.0165287         145.173
0.587                   -1.80648        -169.056         -50.9914        -100.847         -50.9919        -100.844       -0.0166917         145.098
0.588                   -1.84878        -169.719         -50.8921        -103.075         -50.8925        -103.072       -0.0168582         145.023
0.589                   -1.89178        -170.384         -50.7935        -105.303         -50.7939          -105.3       -0.0170282         144.948
0.59                     -1.9355        -171.051         -50.6957        -107.529         -50.6961        -107.527       -0.0172017         144.873
0.591                   -1.97995        -171.721         -50.5986        -109.755          -50.599        -109.753       -0.0173786         144.797
0.592                   -2.02512        -172.394         -50.5022        -111.981         -50.5026        -111.978       -0.0175589         144.721
0.593                   -2.07103        -173.069         -50.4065        -114.206         -50.4068        -114.204       -0.0177424         144.645
0.594                   -2.11768        -173.746         -50.3114        -116.431         -50.3118        -116.429       -0.0179291         144.569
0.595                   -2.16509        -174.426         -50.2169        -118.655         -50.2173        -118.653       -0.0181189         144.493
0.596                   -2.21326        -175.109          -50.123         -120.88         -50.1234        -120.878       -0.0183118         144.416
0.597                    -2.2622        -175.793         -50.0297        -123.104         -50.0301        -123.103       -0.0185076          144.34
0.598                   -2.31191         -176.48          -49.937        -125.329         -49.9373        -125.328       -0.0187063         144.263
0.599                   -2.36241         -177.17         -49.8447        -127.554         -49.8451        -127.553       -0.0189079         144.186
0.6                      -2.4137        -177.861         -49.7529         -129.78         -49.7533        -129.779       -0.0191122         144.109
0.601                    -2.4658        -178.555         -49.6617        -132.006          -49.662        -132.005       -0.0193193         144.031
0.602                    -2.5187        -179.251         -49.5708        -134.233         -49.5711        -134.232       -0.0195292         143.954
0.603                   -2.57243        -179.949         -49.4804        -136.461         -49.4807         -136.46       -0.0197417         143.876
0.604                   -2.62698          179.35         -49.3904         -138.69         -49.3908        -138.689        -0.019957         143.798
0.605                   -2.68237         178.648         -49.3008        -140.919         -49.3012        -140.919       -0.0201749          143.72
0.606                   -2.73861         177.944         -49.2117        -143.151          -49.212         -143.15       -0.0203955         143.641
0.607                    -2.7957         177.237         -49.1229        -145.383         -49.1232        -145.383       -0.0206188         143.563
0.608                   -2.85366         176.529         -49.0344        -147.617         -49.0347        -147.617       -0.0208449         143.484
0.609                   -2.91249         175.819         -48.9463        -149.852         -48.9467        -149.852       -0.0210736         143.405
0.61                    -2.97221         175.106         -48.8586        -152.089         -48.8589         -152.09       -0.0213052         143.326
0.611                   -3.03283         174.392         -48.7712        -154.328         -48.7715        -154.328       -0.0215395         143.246
0.612                   -3.09435         173.677         -48.6842        -156.569         -48.6845        -156.569       -0.0217766         143.167
0.613                   -3.15679         172.959         -48.5975        -158.811         -48.5978        -158.812       -0.0220166         143.087
0.614                   -3.22016          172.24         -48.5111        -161.056         -48.5114        -161.056       -0.0222595         143.007
0.615                   -3.28447         171.518         -48.4251        -163.302         -48.4254        -163.303       -0.0225053         142.926
0.616                   -3.34974         170.796         -48.3394        -165.551         -48.3397        -165.552       -0.0227542         142.846
0.617                   -3.41596         170.071         -48.2541        -167.802         -48.2544        -167.803       -0.0230061         142.765
0.618                   -3.48317         169.345         -48.1691        -170.055         -48.1694        -170.056       -0.0232611         142.684
0.619                   -3.55136         168.617         -48.0844         -172.31         -48.0847        -172.312       -0.0235193         142.603
0.62                    -3.62056         167.888         -48.0001        -174.567         -48.0004        -174.569       -0.0237807         142.522
0.621                   -3.69078         167.157         -47.9162        -176.827         -47.9165        -176.829       -0.0240454          142.44
0.622                   -3.76204         166.425         -47.8326        -179.089          -47.833        -179.091       -0.0243135         142.358
0.623                   -3.83434         165.691         -47.7495         178.646         -47.7498         178.644       -0.0245851         142.276
0.624                    -3.9077         164.955         -47.6667          176.38          -47.667         176.377       -0.0248601         142.193
0.625                   -3.98215         164.218         -47.5843         174.111         -47.5846         174.108       -0.0251387          142.11
0.626                    -4.0577          163.48         -47.5023          171.84         -47.5026         171.837        -0.025421         142.027
0.627                   -4.13436          162.74         -47.4207         169.566         -47.4211         169.564        -0.025707         141.944
0.628                   -4.21217         161.999         -47.3396         167.291         -47.3399         167.289       -0.0259968         141.861
0.629                   -4.29113         161.256         -47.2589         165.014         -47.2593         165.011       -0.0262905         141.777
