! TOUCHSTONE file generated by CST MICROWAVE STUDIO
! Date and time: Sat Oct 24 11:46:39 2020
! Project name: Scenario_1_Circular_Tissue_out_of_Line.cst
! Parameters = {dy1=-33.862; L_HA=400; MT=2.54; Rad_Dielectric=30; Rad_Lower=7.3; Rad_Upper=30; a_HA=580; a_WG=246; b_HA=500; b_WG=121; c_HA=0; c_WG=187; d_feed=85; dx1=1039; h_feed=15; h_lower=18; h_upper=40}
! Header version: 2018
! Port assignment regex: !\s*Touchstone port\s*([0-9]+)\s*=\s*(CST MWS port|CST DS port)\s*([0-9]+|Zmin|Zmax)\s*\(\"(.*)\"\)(\s*mode\s*([0-9]+))?.*
! Touchstone port assignment:
! Touchstone port 1 = CST MWS port 1 ("")
! Touchstone port 2 = CST MWS port 2 ("")
# GHz S DB R 50
0.5                    -0.146791        -122.248         -63.1513        -2.61489         -63.1513        -2.61489       -0.0076566         151.132
0.501                  -0.149984        -122.695         -63.0037        -4.38114         -63.0037        -4.38117      -0.00771301         151.067
0.502                  -0.153413        -123.144          -62.854        -6.17141          -62.854        -6.17147       -0.0077703         151.001
0.503                  -0.157091        -123.596         -62.7024          -7.986         -62.7024        -7.98608      -0.00782848         150.936
0.504                  -0.161026        -124.051         -62.5488        -9.82523         -62.5488        -9.82534      -0.00788758          150.87
0.505                  -0.165232        -124.509         -62.3932        -11.6894         -62.3932        -11.6896      -0.00794759         150.805
0.506                  -0.169719         -124.97         -62.2357        -13.5789         -62.2357         -13.579      -0.00800852         150.739
0.507                    -0.1745        -125.433         -62.0763        -15.4939         -62.0763        -15.4941       -0.0080704         150.673
0.508                  -0.179587        -125.899          -61.915        -17.4349          -61.915        -17.4351      -0.00813322         150.607
0.509                  -0.184992        -126.368         -61.7519        -19.4021         -61.7519        -19.4023      -0.00819701         150.541
0.51                   -0.190729         -126.84         -61.5869        -21.3958         -61.5869        -21.3961      -0.00826176         150.475
0.511                  -0.196809        -127.315         -61.4203        -23.4164         -61.4203        -23.4166       -0.0083275         150.409
0.512                  -0.203246        -127.792          -61.252         -25.464          -61.252        -25.4643      -0.00839424         150.343
0.513                  -0.210054        -128.272          -61.082        -27.5391          -61.082        -27.5394      -0.00846198         150.277
0.514                  -0.217246        -128.755         -60.9106        -29.6418         -60.9106        -29.6421      -0.00853074         150.211
0.515                  -0.224834        -129.241         -60.7376        -31.7725         -60.7376        -31.7728      -0.00860054         150.144
0.516                  -0.232832        -129.729         -60.5634        -33.9314         -60.5634        -33.9317      -0.00867139         150.078
0.517                  -0.241253        -130.219         -60.3878        -36.1186         -60.3878        -36.1189       -0.0087433         150.011
0.518                   -0.25011        -130.712         -60.2111        -38.3344         -60.2111        -38.3347      -0.00881628         149.945
0.519                  -0.259415        -131.208         -60.0334         -40.579         -60.0334        -40.5793      -0.00889035         149.878
0.52                    -0.26918        -131.706         -59.8547        -42.8525         -59.8547        -42.8528      -0.00896553         149.811
0.521                  -0.279417        -132.206         -59.6752        -45.1549         -59.6752        -45.1553      -0.00904183         149.744
0.522                  -0.290136        -132.708         -59.4951        -47.4865         -59.4951        -47.4868      -0.00911926         149.677
0.523                  -0.301347        -133.212         -59.3144        -49.8471         -59.3144        -49.8475      -0.00919785          149.61
0.524                   -0.31306        -133.719         -59.1334        -52.2369         -59.1334        -52.2372      -0.00927761         149.543
0.525                  -0.325282        -134.227         -58.9522        -54.6556         -58.9522        -54.6559      -0.00935855         149.476
0.526                   -0.33802        -134.737         -58.7709        -57.1031          -58.771        -57.1035       -0.0094407         149.408
0.527                  -0.351279        -135.248         -58.5898        -59.5794         -58.5898        -59.5797      -0.00952407         149.341
0.528                  -0.365064        -135.761          -58.409         -62.084          -58.409        -62.0843      -0.00960868         149.273
0.529                  -0.379376        -136.276         -58.2287        -64.6167         -58.2287         -64.617      -0.00969455         149.206
0.53                   -0.394216        -136.791         -58.0491        -67.1771         -58.0492        -67.1774       -0.0097817         149.138
0.531                  -0.409583        -137.308         -57.8704        -69.7646         -57.8704        -69.7649      -0.00987014          149.07
0.532                  -0.425473        -137.825         -57.6928        -72.3787         -57.6928         -72.379      -0.00995991         149.002
0.533                   -0.44188        -138.344         -57.5165        -75.0187         -57.5165         -75.019        -0.010051         148.934
0.534                  -0.458797        -138.862         -57.3416        -77.6839         -57.3416        -77.6841       -0.0101435         148.866
0.535                  -0.476213        -139.382         -57.1684        -80.3733         -57.1684        -80.3736       -0.0102373         148.798
0.536                  -0.494115        -139.902         -56.9971        -83.0861         -56.9971        -83.0863       -0.0103326         148.729
0.537                  -0.512488        -140.422         -56.8278        -85.8212         -56.8278        -85.8214       -0.0104292         148.661
0.538                  -0.531315        -140.942         -56.6608        -88.5775         -56.6608        -88.5777       -0.0105274         148.593
0.539                  -0.550575        -141.462         -56.4962        -91.3537         -56.4962        -91.3539        -0.010627         148.524
0.54                   -0.570245        -141.982         -56.3342        -94.1485         -56.3342        -94.1487       -0.0107281         148.455
0.541                  -0.590302        -142.501         -56.1749        -96.9606         -56.1749        -96.9607       -0.0108307         148.386
0.542                  -0.610718        -143.021         -56.0185        -99.7884         -56.0185        -99.7885       -0.0109348         148.317
0.543                  -0.631464         -143.54         -55.8651         -102.63         -55.8651        -102.631       -0.0110405         148.248
0.544                  -0.652511        -144.058         -55.7149        -105.485         -55.7149        -105.485       -0.0111478         148.179
0.545                  -0.673825        -144.576         -55.5678        -108.351         -55.5678        -108.351       -0.0112567          148.11
0.546                  -0.695374        -145.094         -55.4241        -111.226         -55.4241        -111.226       -0.0113672         148.041
0.547                  -0.717123        -145.611         -55.2837        -114.108         -55.2837        -114.108       -0.0114794         147.971
0.548                   -0.73904        -146.128         -55.1467        -116.996         -55.1467        -116.997       -0.0115932         147.902
0.549                  -0.761087        -146.645         -55.0132        -119.889         -55.0132        -119.889       -0.0117087         147.832
0.55                   -0.783233        -147.161          -54.883        -122.784          -54.883        -122.784       -0.0118259         147.762
0.551                  -0.805442        -147.677         -54.7563        -125.679         -54.7563        -125.679       -0.0119449         147.692
0.552                  -0.827684        -148.194          -54.633        -128.574          -54.633        -128.574       -0.0120655         147.622
0.553                  -0.849926         -148.71          -54.513        -131.466          -54.513        -131.466       -0.0121879         147.552
0.554                  -0.872142        -149.228         -54.3963        -134.354         -54.3963        -134.354       -0.0123121         147.482
0.555                  -0.894303        -149.745         -54.2827        -137.237         -54.2827        -137.237       -0.0124379         147.411
0.556                  -0.916387        -150.264         -54.1722        -140.112         -54.1722        -140.112       -0.0125656         147.341
0.557                  -0.938374        -150.784         -54.0646         -142.98         -54.0646         -142.98       -0.0126949          147.27
0.558                  -0.960247        -151.306         -53.9599        -145.838         -53.9599        -145.838        -0.012826           147.2
0.559                  -0.981993        -151.829         -53.8578        -148.686         -53.8578        -148.686       -0.0129588         147.129
0.56                     -1.0036        -152.354         -53.7583        -151.522         -53.7583        -151.522       -0.0130933         147.058
0.561                   -1.02507        -152.882         -53.6612        -154.345         -53.6612        -154.345       -0.0132294         146.987
0.562                    -1.0464        -153.412         -53.5662        -157.156         -53.5662        -157.156       -0.0133672         146.916
0.563                   -1.06759        -153.946         -53.4734        -159.953         -53.4734        -159.953       -0.0135065         146.844
0.564                   -1.08865        -154.483         -53.3824        -162.735         -53.3824        -162.735       -0.0136473         146.773
0.565                    -1.1096        -155.024         -53.2931        -165.503         -53.2931        -165.503       -0.0137897         146.701
0.566                   -1.13045        -155.569         -53.2054        -168.256         -53.2054        -168.256       -0.0139334          146.63
0.567                   -1.15122        -156.118          -53.119        -170.994          -53.119        -170.994       -0.0140784         146.558
0.568                   -1.17195        -156.673         -53.0338        -173.716         -53.0338        -173.716       -0.0142247         146.486
0.569                   -1.19265        -157.232         -52.9497        -176.423         -52.9497        -176.423       -0.0143722         146.414
0.57                    -1.21337        -157.797         -52.8665        -179.114         -52.8664        -179.114       -0.0145207         146.342
0.571                   -1.23415        -158.367         -52.7839          178.21         -52.7839          178.21       -0.0146703         146.269
0.572                   -1.25503        -158.944          -52.702         175.549          -52.702         175.549       -0.0148208         146.197
0.573                   -1.27605        -159.527         -52.6205         172.902         -52.6205         172.902        -0.014972         146.124
0.574                   -1.29727        -160.116         -52.5393          170.27         -52.5393          170.27       -0.0151241         146.051
0.575                   -1.31873        -160.712         -52.4582         167.651         -52.4582         167.651       -0.0152768         145.978
0.576                   -1.34049        -161.315         -52.3772         165.046         -52.3772         165.046       -0.0154301         145.905
0.577                   -1.36262        -161.925         -52.2962         162.454         -52.2962         162.454       -0.0155839         145.832
0.578                   -1.38517        -162.542          -52.215         159.874          -52.215         159.874       -0.0157383         145.759
0.579                    -1.4082        -163.167         -52.1336         157.306         -52.1336         157.306       -0.0158932         145.685
0.58                    -1.43178        -163.799         -52.0518         154.749         -52.0518         154.749       -0.0160485         145.612
0.581                   -1.45598        -164.438         -51.9696         152.203         -51.9696         152.203       -0.0162044         145.538
0.582                   -1.48087        -165.086         -51.8869         149.666         -51.8869         149.666       -0.0163608         145.464
0.583                   -1.50651        -165.741         -51.8037         147.138         -51.8037         147.138       -0.0165178          145.39
0.584                   -1.53299        -166.403         -51.7199         144.618         -51.7199         144.618       -0.0166755         145.316
0.585                   -1.56036        -167.073         -51.6355         142.106         -51.6355         142.106       -0.0168339         145.241
0.586                   -1.58871        -167.751         -51.5504         139.601         -51.5504         139.601       -0.0169931         145.167
0.587                   -1.61811        -168.436         -51.4646         137.102         -51.4645         137.102       -0.0171534         145.092
0.588                   -1.64863        -169.129          -51.378         134.608          -51.378         134.608       -0.0173147         145.017
0.589                   -1.68035        -169.828         -51.2908         132.119         -51.2908         132.119       -0.0174773         144.942
0.59                    -1.71334        -170.535         -51.2028         129.634         -51.2028         129.634       -0.0176414         144.867
0.591                   -1.74768        -171.248         -51.1141         127.152         -51.1141         127.152       -0.0178069         144.791
0.592                   -1.78343        -171.968         -51.0247         124.672         -51.0247         124.672       -0.0179742         144.716
0.593                   -1.82067        -172.693         -50.9346         122.194         -50.9346         122.194       -0.0181433          144.64
0.594                   -1.85947        -173.425         -50.8439         119.717         -50.8439         119.717       -0.0183144         144.564
0.595                   -1.89989        -174.162         -50.7525         117.241         -50.7525         117.241       -0.0184877         144.487
0.596                     -1.942        -174.904         -50.6605         114.764         -50.6605         114.764       -0.0186633         144.411
0.597                   -1.98585         -175.65          -50.568         112.287          -50.568         112.287       -0.0188413         144.334
0.598                   -2.03151        -176.401          -50.475         109.808          -50.475         109.808       -0.0190218         144.258
0.599                   -2.07903        -177.154         -50.3815         107.328         -50.3815         107.328       -0.0192051         144.181
0.6                     -2.12845        -177.911         -50.2877         104.845         -50.2877         104.845       -0.0193911         144.104
0.601                   -2.17983         -178.67         -50.1935         102.359         -50.1935         102.359         -0.01958         144.026
0.602                   -2.23318        -179.431         -50.0991         99.8703         -50.0991         99.8703        -0.019772         143.949
0.603                   -2.28854         179.808         -50.0046         97.3779         -50.0046         97.3779        -0.019967         143.871
0.604                   -2.34593         179.046         -49.9099         94.8815         -49.9099         94.8815       -0.0201652         143.793
0.605                   -2.40536         178.284         -49.8153         92.3811         -49.8153         92.3811       -0.0203666         143.715
0.606                   -2.46684         177.524         -49.7207         89.8762         -49.7207         89.8762       -0.0205714         143.636
0.607                   -2.53035         176.766         -49.6263         87.3667         -49.6263         87.3667       -0.0207795         143.558
0.608                   -2.59588         176.011         -49.5322         84.8525         -49.5322         84.8525       -0.0209911         143.479
0.609                    -2.6634         175.259         -49.4384         82.3336         -49.4384         82.3336       -0.0212062           143.4
0.61                    -2.73287         174.511          -49.345         79.8098          -49.345         79.8098       -0.0214249         143.321
0.611                   -2.80424         173.768         -49.2521         77.2813         -49.2521         77.2813       -0.0216471         143.241
0.612                   -2.87744         173.032         -49.1599         74.7481         -49.1599         74.7481       -0.0218731         143.162
0.613                    -2.9524         172.301         -49.0683         72.2103         -49.0683         72.2103       -0.0221027         143.082
0.614                   -3.02902         171.578         -48.9775         69.6683         -48.9775         69.6683       -0.0223361         143.002
0.615                   -3.10722         170.863         -48.8876         67.1222         -48.8876         67.1222       -0.0225733         142.921
0.616                   -3.18688         170.156         -48.7986         64.5722         -48.7986         64.5722       -0.0228144         142.841
0.617                   -3.26788         169.458         -48.7106         62.0189         -48.7106         62.0189       -0.0230593          142.76
0.618                   -3.35009         168.769         -48.6237         59.4625         -48.6237         59.4625       -0.0233081         142.679
0.619                   -3.43337         168.089         -48.5379         56.9036         -48.5379         56.9036       -0.0235609         142.597
0.62                    -3.51758          167.42         -48.4533         54.3425         -48.4533         54.3425       -0.0238178         142.516
0.621                   -3.60257          166.76         -48.3699         51.7798         -48.3699         51.7798       -0.0240786         142.434
0.622                   -3.68818          166.11         -48.2877         49.2161         -48.2877         49.2161       -0.0243435         142.352
0.623                   -3.77425          165.47         -48.2069         46.6519         -48.2069         46.6519       -0.0246126          142.27
0.624                   -3.86064          164.84         -48.1274         44.0877         -48.1274         44.0877       -0.0248858         142.187
0.625                   -3.94719         164.218         -48.0492         41.5243         -48.0492         41.5243       -0.0251632         142.104
0.626                   -4.03374         163.606         -47.9723         38.9622         -47.9723         38.9621       -0.0254449         142.021
0.627                   -4.12016         163.002         -47.8968         36.4019         -47.8968         36.4019       -0.0257308         141.938
0.628                   -4.20632         162.405         -47.8226         33.8442         -47.8226         33.8442       -0.0260211         141.855
0.629                   -4.29209         161.815         -47.7497         31.2896         -47.7497         31.2896       -0.0263157         141.771
