! TOUCHSTONE file generated by CST MICROWAVE STUDIO
! Date and time: Mon Oct 26 12:03:42 2020
! Project name: Scenario_1_Circular_Tissue_out_of_Line_v2.cst
! Parameters = {dy1=-346; L_HA=400; MT=2.54; Rad_Dielectric=30; Rad_Lower=7.3; Rad_Upper=30; a_HA=580; a_WG=246; b_HA=500; b_WG=121; c_HA=0; c_WG=187; d_feed=85; dx1=173; h_feed=15; h_lower=18; h_upper=40}
! Header version: 2018
! Port assignment regex: !\s*Touchstone port\s*([0-9]+)\s*=\s*(CST MWS port|CST DS port)\s*([0-9]+|Zmin|Zmax)\s*\(\"(.*)\"\)(\s*mode\s*([0-9]+))?.*
! Touchstone port assignment:
! Touchstone port 1 = CST MWS port 1 ("")
! Touchstone port 2 = CST MWS port 2 ("")
# GHz S DB R 50
0.5                    -0.158031        -122.488         -64.6488         76.8425         -64.6488         76.8425      -0.00717476         151.108
0.501                  -0.164149        -122.913         -64.5216         75.3821         -64.5216         75.3813      -0.00724418         151.043
0.502                  -0.170374        -123.341         -64.3938         73.9129         -64.3937         73.9115      -0.00731417         150.977
0.503                  -0.176709        -123.771         -64.2653         72.4351         -64.2652         72.4331      -0.00738473         150.912
0.504                   -0.18316        -124.203         -64.1363         70.9486         -64.1361         70.9459      -0.00745589         150.847
0.505                   -0.18973        -124.637         -64.0067         69.4534         -64.0065         69.4501      -0.00752764         150.781
0.506                  -0.196424        -125.074         -63.8766         67.9495         -63.8763         67.9456      -0.00759999         150.715
0.507                  -0.203245        -125.513          -63.746         66.4369         -63.7457         66.4324      -0.00767297         150.649
0.508                    -0.2102        -125.955          -63.615         64.9155         -63.6147         64.9105      -0.00774658         150.584
0.509                  -0.217292        -126.399         -63.4836         63.3855         -63.4833           63.38      -0.00782083         150.518
0.51                   -0.224525        -126.845         -63.3519         61.8468         -63.3516         61.8408      -0.00789574         150.452
0.511                  -0.231905        -127.294         -63.2199         60.2994         -63.2196         60.2929      -0.00797131         150.386
0.512                  -0.239437        -127.745         -63.0877         58.7434         -63.0873         58.7365      -0.00804757         150.319
0.513                  -0.247124        -128.199         -62.9552         57.1787         -62.9548         57.1714      -0.00812451         150.253
0.514                  -0.254973        -128.655         -62.8227         55.6055         -62.8222         55.5978      -0.00820216         150.187
0.515                  -0.262987        -129.113           -62.69         54.0237         -62.6896         54.0157      -0.00828052         150.121
0.516                  -0.271173        -129.574         -62.5573         52.4335         -62.5568         52.4251      -0.00835961         150.054
0.517                  -0.279534        -130.038         -62.4245         50.8348         -62.4241         50.8261      -0.00843945         149.987
0.518                  -0.288077        -130.504         -62.2919         49.2278         -62.2915         49.2188      -0.00852004         149.921
0.519                  -0.296806        -130.973         -62.1594         47.6124         -62.1589         47.6032       -0.0086014         149.854
0.52                   -0.305727        -131.444          -62.027         45.9889         -62.0266         45.9794      -0.00868355         149.787
0.521                  -0.314846        -131.918         -61.8949         44.3573         -61.8945         44.3476      -0.00876649          149.72
0.522                  -0.324166        -132.394         -61.7631         42.7177         -61.7626         42.7078      -0.00885024         149.653
0.523                  -0.333695        -132.873         -61.6316         41.0703         -61.6311         41.0601      -0.00893483         149.586
0.524                  -0.343438        -133.355         -61.5005         39.4151         -61.5001         39.4048      -0.00902025         149.519
0.525                    -0.3534        -133.839         -61.3698         37.7523         -61.3694         37.7419      -0.00910653         149.452
0.526                  -0.363587        -134.326         -61.2397         36.0821         -61.2393         36.0715      -0.00919368         149.384
0.527                  -0.374005        -134.815         -61.1102         34.4046         -61.1098         34.3939      -0.00928172         149.317
0.528                   -0.38466        -135.307         -60.9813           32.72         -60.9809         32.7093      -0.00937067         149.249
0.529                  -0.395557        -135.802          -60.853         31.0285         -60.8527         31.0178      -0.00946053         149.182
0.53                   -0.406704        -136.299         -60.7255         29.3304         -60.7252         29.3196      -0.00955133         149.114
0.531                  -0.418106          -136.8         -60.5989         27.6258         -60.5985          27.615      -0.00964307         149.046
0.532                  -0.429769        -137.302          -60.473         25.9149         -60.4727         25.9042      -0.00973579         148.978
0.533                  -0.441699        -137.808         -60.3481         24.1981         -60.3478         24.1874      -0.00982949          148.91
0.534                  -0.453904        -138.316         -60.2241         22.4756         -60.2239          22.465      -0.00992419         148.842
0.535                  -0.466389        -138.827         -60.1012         20.7477         -60.1009         20.7371       -0.0100199         148.774
0.536                  -0.479161        -139.341         -59.9793         19.0146         -59.9791         19.0042       -0.0101167         148.706
0.537                  -0.492226        -139.858         -59.8585         17.2767         -59.8583         17.2664       -0.0102145         148.637
0.538                  -0.505592        -140.377         -59.7388         15.5343         -59.7387         15.5241       -0.0103134         148.569
0.539                  -0.519265        -140.899         -59.6204         13.7877         -59.6203         13.7776       -0.0104133           148.5
0.54                   -0.533252        -141.424         -59.5032         12.0373         -59.5031         12.0274       -0.0105144         148.431
0.541                  -0.547561        -141.952         -59.3873         10.2834         -59.3872         10.2736       -0.0106166         148.363
0.542                  -0.562197        -142.482         -59.2727         8.52631         -59.2727         8.51676       -0.0107199         148.294
0.543                  -0.577168        -143.015         -59.1594          6.7665         -59.1595         6.75716       -0.0108244         148.225
0.544                  -0.592482        -143.551         -59.0476         5.00431         -59.0476         4.99519       -0.0109301         148.155
0.545                  -0.608146         -144.09         -58.9372         3.24012         -58.9372         3.23124        -0.011037         148.086
0.546                  -0.624167        -144.632         -58.8282         1.47435         -58.8283         1.46572       -0.0111451         148.017
0.547                  -0.640553        -145.176         -58.7206       -0.292622         -58.7207       -0.300995       -0.0112544         147.947
0.548                  -0.657311        -145.724         -58.6146        -2.06038         -58.6147        -2.06849        -0.011365         147.878
0.549                  -0.674449        -146.274           -58.51        -3.82853         -58.5102        -3.83635       -0.0114768         147.808
0.55                   -0.691976        -146.827          -58.407        -5.59665         -58.4072        -5.60418       -0.0115899         147.738
0.551                  -0.709897        -147.383         -58.3055        -7.36433         -58.3057        -7.37156       -0.0117044         147.668
0.552                  -0.728223        -147.942         -58.2056        -9.13116         -58.2058        -9.13809       -0.0118201         147.598
0.553                   -0.74696        -148.504         -58.1071        -10.8967         -58.1074        -10.9034       -0.0119372         147.528
0.554                  -0.766118        -149.068         -58.0102        -12.6606         -58.0105         -12.667       -0.0120557         147.458
0.555                  -0.785703        -149.635         -57.9149        -14.4225         -57.9152        -14.4285       -0.0121755         147.387
0.556                  -0.805725        -150.206         -57.8211        -16.1819         -57.8214        -16.1876       -0.0122968         147.317
0.557                  -0.826192        -150.779         -57.7288        -17.9384         -57.7292        -17.9438       -0.0124194         147.246
0.558                  -0.847112        -151.355          -57.638        -19.6918         -57.6384        -19.6968       -0.0125435         147.176
0.559                  -0.868495        -151.933         -57.5488        -21.4415         -57.5492        -21.4461        -0.012669         147.105
0.56                   -0.890348        -152.515          -57.461        -23.1872         -57.4614        -23.1916        -0.012796         147.034
0.561                  -0.912681          -153.1         -57.3746        -24.9286         -57.3751        -24.9327       -0.0129245         146.963
0.562                  -0.935502        -153.687         -57.2897        -26.6654         -57.2902        -26.6691       -0.0130545         146.891
0.563                  -0.958821        -154.277         -57.2063        -28.3972         -57.2067        -28.4005        -0.013186          146.82
0.564                  -0.982647         -154.87         -57.1242        -30.1236         -57.1246        -30.1267       -0.0133191         146.749
0.565                   -1.00699        -155.466         -57.0434        -31.8445         -57.0439        -31.8473       -0.0134537         146.677
0.566                   -1.03186        -156.065          -56.964        -33.5595         -56.9645        -33.5619       -0.0135899         146.605
0.567                   -1.05726        -156.666         -56.8858        -35.2683         -56.8863        -35.2705       -0.0137276         146.533
0.568                    -1.0832        -157.271         -56.8089        -36.9708         -56.8094        -36.9726        -0.013867         146.461
0.569                    -1.1097        -157.878         -56.7333        -38.6665         -56.7337        -38.6681        -0.014008         146.389
0.57                    -1.13676        -158.488         -56.6588        -40.3554         -56.6592        -40.3567       -0.0141506         146.317
0.571                    -1.1644        -159.101         -56.5854        -42.0372         -56.5859        -42.0382       -0.0142948         146.244
0.572                   -1.19262        -159.716         -56.5131        -43.7118         -56.5136        -43.7125       -0.0144408         146.172
0.573                   -1.22143        -160.335         -56.4419        -45.3789         -56.4423        -45.3793       -0.0145884         146.099
0.574                   -1.25084        -160.956         -56.3716        -47.0384         -56.3721        -47.0386       -0.0147377         146.026
0.575                   -1.28087         -161.58         -56.3024        -48.6902         -56.3028        -48.6901       -0.0148888         145.953
0.576                   -1.31152        -162.206          -56.234        -50.3341         -56.2345        -50.3338       -0.0150415          145.88
0.577                    -1.3428        -162.835         -56.1665        -51.9701          -56.167        -51.9695        -0.015196         145.807
0.578                   -1.37473        -163.467         -56.0998         -53.598         -56.1003        -53.5972       -0.0153523         145.733
0.579                   -1.40731        -164.102         -56.0339        -55.2178         -56.0344        -55.2168       -0.0155104          145.66
0.58                    -1.44056        -164.739         -55.9688        -56.8294         -55.9692        -56.8282       -0.0156703         145.586
0.581                   -1.47449        -165.379         -55.9043        -58.4328         -55.9048        -58.4314        -0.015832         145.512
0.582                    -1.5091        -166.022         -55.8405        -60.0279         -55.8409        -60.0264       -0.0159955         145.438
0.583                   -1.54441        -166.667         -55.7773        -61.6148         -55.7777        -61.6131       -0.0161608         145.364
0.584                   -1.58042        -167.315         -55.7146        -63.1933          -55.715        -63.1915       -0.0163281         145.289
0.585                   -1.61716        -167.966         -55.6524        -64.7637         -55.6528        -64.7617       -0.0164972         145.215
0.586                   -1.65463        -168.618         -55.5907        -66.3258         -55.5911        -66.3236       -0.0166683          145.14
0.587                   -1.69284        -169.274         -55.5294        -67.8796         -55.5298        -67.8774       -0.0168413         145.065
0.588                   -1.73181        -169.932         -55.4685        -69.4254         -55.4688         -69.423       -0.0170162          144.99
0.589                   -1.77154        -170.592         -55.4079         -70.963         -55.4082        -70.9605       -0.0171931         144.915
0.59                    -1.81205        -171.255         -55.3476        -72.4927         -55.3479        -72.4901        -0.017372          144.84
0.591                   -1.85334         -171.92         -55.2876        -74.0143         -55.2879        -74.0117        -0.017553         144.764
0.592                   -1.89544        -172.588         -55.2277        -75.5282         -55.2281        -75.5254       -0.0177359         144.689
0.593                   -1.93835        -173.258         -55.1681        -77.0342         -55.1684        -77.0314        -0.017921         144.613
0.594                   -1.98208         -173.93         -55.1086        -78.5326         -55.1089        -78.5298       -0.0181081         144.537
0.595                   -2.02665        -174.604         -55.0492        -80.0235         -55.0495        -80.0206       -0.0182974          144.46
0.596                   -2.07207        -175.281         -54.9899         -81.507         -54.9902         -81.504       -0.0184888         144.384
0.597                   -2.11835         -175.96         -54.9306        -82.9831         -54.9309        -82.9801       -0.0186824         144.307
0.598                   -2.16551        -176.641         -54.8713        -84.4521         -54.8716        -84.4491       -0.0188783         144.231
0.599                   -2.21355        -177.324          -54.812        -85.9141         -54.8123         -85.911       -0.0190763         144.154
0.6                     -2.26249        -178.009         -54.7526        -87.3692         -54.7529        -87.3661       -0.0192767         144.077
0.601                   -2.31234        -178.696         -54.6932        -88.8176         -54.6934        -88.8145       -0.0194793         143.999
0.602                   -2.36311        -179.385         -54.6336        -90.2594         -54.6338        -90.2563       -0.0196843         143.922
0.603                   -2.41482         179.924         -54.5739        -91.6947         -54.5741        -91.6917       -0.0198917         143.844
0.604                   -2.46748         179.231          -54.514        -93.1239         -54.5142        -93.1208       -0.0201015         143.766
0.605                   -2.52111         178.536         -54.4539        -94.5469         -54.4541        -94.5438       -0.0203138         143.688
0.606                   -2.57571          177.84         -54.3936         -95.964         -54.3937        -95.9609       -0.0205285          143.61
0.607                    -2.6313         177.141          -54.333        -97.3753         -54.3332        -97.3723       -0.0207459         143.531
0.608                   -2.68789         176.442         -54.2722        -98.7811         -54.2723        -98.7781       -0.0209658         143.453
0.609                   -2.74551          175.74         -54.2111        -100.181         -54.2112        -100.178       -0.0211883         143.374
0.61                    -2.80415         175.037         -54.1497        -101.577         -54.1498        -101.574       -0.0214135         143.294
0.611                   -2.86383         174.333         -54.0879        -102.967          -54.088        -102.964       -0.0216414         143.215
0.612                   -2.92458         173.627         -54.0258        -104.352         -54.0259        -104.349       -0.0218721         143.135
0.613                   -2.98639          172.92         -53.9633        -105.732         -53.9634        -105.729       -0.0221057         143.056
0.614                   -3.04929         172.211         -53.9005        -107.108         -53.9006        -107.106       -0.0223421         142.976
0.615                    -3.1133         171.502         -53.8372         -108.48         -53.8373        -108.477       -0.0225814         142.895
0.616                   -3.17841         170.791         -53.7736        -109.847         -53.7736        -109.845       -0.0228238         142.815
0.617                   -3.24466         170.079         -53.7095        -111.211         -53.7096        -111.208       -0.0230691         142.734
0.618                   -3.31205         169.366          -53.645         -112.57          -53.645        -112.568       -0.0233176         142.653
0.619                    -3.3806         168.652           -53.58        -113.927           -53.58        -113.924       -0.0235693         142.572
0.62                    -3.45033         167.938         -53.5146        -115.279         -53.5146        -115.277       -0.0238241         142.491
0.621                   -3.52124         167.223         -53.4487        -116.629         -53.4487        -116.627       -0.0240823         142.409
0.622                   -3.59335         166.507         -53.3823        -117.975         -53.3823        -117.973       -0.0243437         142.327
0.623                   -3.66669         165.791         -53.3154        -119.319         -53.3154        -119.317       -0.0246086         142.245
0.624                   -3.74126         165.074          -53.248        -120.659          -53.248        -120.657        -0.024877         142.162
0.625                   -3.81708         164.357         -53.1801        -121.998         -53.1801        -121.996        -0.025149          142.08
0.626                   -3.89416         163.639         -53.1117        -123.334         -53.1117        -123.332       -0.0254245         141.997
0.627                   -3.97253         162.922         -53.0428        -124.667         -53.0428        -124.666       -0.0257038         141.914
0.628                   -4.05219         162.204         -52.9734        -125.999         -52.9733        -125.997       -0.0259868          141.83
0.629                   -4.13316         161.486         -52.9034        -127.329         -52.9033        -127.328       -0.0262736         141.746
