! TOUCHSTONE file generated by CST MICROWAVE STUDIO
! Date and time: Wed Oct 28 19:33:27 2020
! Project name: Scenario_1_Circular_Tissue_out_of_Line_v2.cst
! Parameters = {dy1=-346; L_HA=400; MT=2.54; Rad_Dielectric=30; Rad_Lower=7.3; Rad_Upper=30; a_HA=580; a_WG=246; b_HA=500; b_WG=121; c_HA=0; c_WG=187; d_feed=85; dx1=346; h_feed=15; h_lower=18; h_upper=40}
! Header version: 2018
! Port assignment regex: !\s*Touchstone port\s*([0-9]+)\s*=\s*(CST MWS port|CST DS port)\s*([0-9]+|Zmin|Zmax)\s*\(\"(.*)\"\)(\s*mode\s*([0-9]+))?.*
! Touchstone port assignment:
! Touchstone port 1 = CST MWS port 1 ("")
! Touchstone port 2 = CST MWS port 2 ("")
# GHz S DB R 50
0.5                    -0.139239        -122.396         -65.1441        -18.3659         -65.1441        -18.3659      -0.00776431         151.125
0.501                  -0.144035        -122.876         -65.0035        -19.3998         -65.0031        -19.3992      -0.00781962          151.06
0.502                  -0.149158        -123.356         -64.8612        -20.4516         -64.8604        -20.4506      -0.00787578         150.995
0.503                   -0.15461        -123.837         -64.7174        -21.5218         -64.7162        -21.5204       -0.0079328         150.929
0.504                  -0.160389        -124.319          -64.572        -22.6105         -64.5705        -22.6089      -0.00799069         150.864
0.505                  -0.166497        -124.803         -64.4252        -23.7181         -64.4233        -23.7164      -0.00804946         150.798
0.506                  -0.172934        -125.287         -64.2769        -24.8449         -64.2747        -24.8431       -0.0081091         150.732
0.507                    -0.1797        -125.773         -64.1273         -25.991         -64.1248        -25.9892      -0.00816963         150.667
0.508                  -0.186796        -126.259         -63.9765        -27.1567         -63.9736        -27.1551      -0.00823106         150.601
0.509                  -0.194222        -126.747         -63.8243        -28.3423         -63.8212        -28.3408      -0.00829338         150.535
0.51                   -0.201978        -127.235         -63.6711        -29.5478         -63.6676        -29.5467      -0.00835661         150.469
0.511                  -0.210064        -127.725         -63.5168        -30.7735         -63.5131        -30.7728      -0.00842076         150.403
0.512                   -0.21848        -128.216         -63.3615        -32.0196         -63.3575        -32.0193      -0.00848583         150.337
0.513                  -0.227226        -128.707         -63.2052        -33.2861         -63.2011        -33.2862      -0.00855183         150.271
0.514                  -0.236303          -129.2         -63.0482        -34.5731         -63.0439        -34.5738      -0.00861877         150.204
0.515                  -0.245709        -129.693         -62.8904        -35.8808         -62.8859         -35.882      -0.00868665         150.138
0.516                  -0.255446        -130.188          -62.732         -37.209         -62.7273        -37.2109      -0.00875548         150.072
0.517                  -0.265512        -130.684          -62.573        -38.5579         -62.5682        -38.5604      -0.00882527         150.005
0.518                  -0.275908         -131.18         -62.4135        -39.9274         -62.4087        -39.9306      -0.00889603         149.938
0.519                  -0.286634        -131.678         -62.2537        -41.3175         -62.2487        -41.3214      -0.00896776         149.872
0.52                   -0.297688        -132.176         -62.0936         -42.728         -62.0886        -42.7326      -0.00904048         149.805
0.521                  -0.309072        -132.676         -61.9333        -44.1589         -61.9282        -44.1641      -0.00911419         149.738
0.522                  -0.320784        -133.176         -61.7729        -45.6099         -61.7678        -45.6158       -0.0091889         149.671
0.523                  -0.332824        -133.677         -61.6126        -47.0808         -61.6075        -47.0874      -0.00926462         149.604
0.524                  -0.345192         -134.18         -61.4524        -48.5715         -61.4473        -48.5788      -0.00934136         149.537
0.525                  -0.357887        -134.683         -61.2923        -50.0817         -61.2873        -50.0896      -0.00941913          149.47
0.526                  -0.370909        -135.187         -61.1326         -51.611         -61.1276        -51.6195      -0.00949793         149.402
0.527                  -0.384257        -135.692         -60.9733        -53.1591         -60.9683        -53.1682      -0.00957777         149.335
0.528                  -0.397931        -136.198         -60.8144        -54.7256         -60.8095        -54.7352      -0.00965867         149.267
0.529                  -0.411931        -136.706         -60.6562        -56.3102         -60.6514        -56.3202      -0.00974064           149.2
0.53                   -0.426255        -137.214         -60.4986        -57.9123         -60.4939        -57.9228      -0.00982367         149.132
0.531                  -0.440904        -137.723         -60.3417        -59.5315         -60.3371        -59.5424      -0.00990779         149.064
0.532                  -0.455876        -138.233         -60.1857        -61.1673         -60.1813        -61.1785      -0.00999301         148.996
0.533                  -0.471172        -138.744         -60.0306        -62.8191         -60.0263        -62.8306       -0.0100793         148.928
0.534                   -0.48679        -139.255         -59.8765        -64.4864         -59.8723        -64.4981       -0.0101668          148.86
0.535                   -0.50273        -139.768         -59.7235        -66.1687         -59.7194        -66.1805       -0.0102553         148.792
0.536                  -0.518991        -140.282         -59.5715        -67.8652         -59.5676        -67.8771        -0.010345         148.724
0.537                  -0.535574        -140.797         -59.4208        -69.5754          -59.417        -69.5873       -0.0104358         148.656
0.538                  -0.552476        -141.313         -59.2713        -71.2987         -59.2677        -71.3105       -0.0105278         148.587
0.539                  -0.569699         -141.83          -59.123        -73.0343         -59.1196         -73.046        -0.010621         148.518
0.54                   -0.587241        -142.348         -58.9761        -74.7816         -58.9728        -74.7932       -0.0107153          148.45
0.541                  -0.605102        -142.867         -58.8306          -76.54         -58.8274        -76.5513       -0.0108109         148.381
0.542                  -0.623281        -143.387         -58.6864        -78.3087         -58.6835        -78.3197       -0.0109076         148.312
0.543                  -0.641779        -143.909         -58.5437        -80.0871         -58.5409        -80.0978       -0.0110055         148.243
0.544                  -0.660594        -144.431         -58.4024        -81.8746         -58.3998        -81.8849       -0.0111047         148.174
0.545                  -0.679726        -144.954         -58.2626        -83.6703         -58.2601        -83.6802       -0.0112051         148.105
0.546                  -0.699175        -145.479         -58.1243        -85.4738         -58.1219        -85.4832       -0.0113068         148.035
0.547                  -0.718941        -146.005         -57.9874        -87.2842         -57.9852        -87.2931       -0.0114097         147.966
0.548                  -0.739024        -146.531          -57.852        -89.1011           -57.85        -89.1094        -0.011514         147.896
0.549                  -0.759423        -147.059         -57.7181        -90.9237         -57.7163        -90.9315       -0.0116195         147.827
0.55                   -0.780138        -147.589         -57.5857        -92.7515          -57.584        -92.7587       -0.0117263         147.757
0.551                   -0.80117        -148.119         -57.4548        -94.5838         -57.4531        -94.5904       -0.0118344         147.687
0.552                  -0.822518        -148.651         -57.3253        -96.4202         -57.3237        -96.4262       -0.0119439         147.617
0.553                  -0.844183        -149.184         -57.1972          -98.26         -57.1958        -98.2653       -0.0120547         147.547
0.554                  -0.866165        -149.718         -57.0705        -100.103         -57.0692        -100.107       -0.0121669         147.477
0.555                  -0.888464        -150.254         -56.9452        -101.948          -56.944        -101.952       -0.0122805         147.406
0.556                  -0.911081        -150.791         -56.8212        -103.795         -56.8201        -103.799       -0.0123954         147.336
0.557                  -0.934017        -151.329         -56.6985        -105.644         -56.6975        -105.647       -0.0125118         147.265
0.558                  -0.957272        -151.869         -56.5772        -107.494         -56.5762        -107.496       -0.0126296         147.194
0.559                  -0.980846        -152.411          -56.457        -109.345         -56.4562        -109.346       -0.0127489         147.124
0.56                    -1.00474        -152.954         -56.3381        -111.196         -56.3373        -111.197       -0.0128696         147.053
0.561                   -1.02896        -153.498         -56.2204        -113.047         -56.2196        -113.048       -0.0129918         146.982
0.562                    -1.0535        -154.044         -56.1038        -114.898         -56.1031        -114.899       -0.0131154          146.91
0.563                   -1.07837        -154.591         -55.9883        -116.749         -55.9877        -116.749       -0.0132406         146.839
0.564                   -1.10356        -155.141         -55.8739        -118.599         -55.8733        -118.598       -0.0133674         146.767
0.565                   -1.12908        -155.692         -55.7605        -120.448         -55.7599        -120.447       -0.0134956         146.696
0.566                   -1.15493        -156.244         -55.6481        -122.296         -55.6475        -122.295       -0.0136255         146.624
0.567                   -1.18112        -156.799         -55.5367        -124.143         -55.5361        -124.141       -0.0137569         146.552
0.568                   -1.20764        -157.355         -55.4262        -125.988         -55.4256        -125.986         -0.01389          146.48
0.569                    -1.2345        -157.913         -55.3165        -127.832          -55.316         -127.83       -0.0140246         146.408
0.57                     -1.2617        -158.473         -55.2078        -129.674         -55.2073        -129.672        -0.014161         146.336
0.571                   -1.28924        -159.035         -55.0999        -131.515         -55.0994        -131.512       -0.0142989         146.263
0.572                   -1.31713        -159.599         -54.9927        -133.354         -54.9923        -133.351       -0.0144386         146.191
0.573                   -1.34537        -160.165         -54.8864        -135.191         -54.8859        -135.188         -0.01458         146.118
0.574                   -1.37396        -160.734         -54.7808        -137.026         -54.7803        -137.023       -0.0147231         146.045
0.575                   -1.40292        -161.304         -54.6759        -138.859         -54.6754        -138.856        -0.014868         145.972
0.576                   -1.43224        -161.877         -54.5717        -140.691         -54.5713        -140.688       -0.0150147         145.899
0.577                   -1.46193        -162.452         -54.4682         -142.52         -54.4678        -142.517       -0.0151632         145.826
0.578                   -1.49199        -163.029         -54.3654        -144.348          -54.365        -144.345       -0.0153135         145.752
0.579                   -1.52244        -163.609         -54.2632        -146.174         -54.2628        -146.171       -0.0154656         145.679
0.58                    -1.55327        -164.192         -54.1617        -147.998         -54.1613        -147.995       -0.0156197         145.605
0.581                   -1.58449        -164.777         -54.0608         -149.82         -54.0604        -149.818       -0.0157756         145.531
0.582                   -1.61611        -165.364         -53.9606        -151.641         -53.9602        -151.638       -0.0159335         145.457
0.583                   -1.64814        -165.954         -53.8609         -153.46         -53.8606        -153.457       -0.0160933         145.383
0.584                   -1.68059        -166.547         -53.7619        -155.277         -53.7615        -155.275       -0.0162551         145.308
0.585                   -1.71346        -167.143         -53.6635        -157.092         -53.6631         -157.09        -0.016419         145.234
0.586                   -1.74676        -167.742         -53.5656        -158.906         -53.5653        -158.904       -0.0165848         145.159
0.587                   -1.78051        -168.343         -53.4684        -160.718         -53.4681        -160.717       -0.0167528         145.084
0.588                    -1.8147        -168.948         -53.3718        -162.529         -53.3715        -162.528       -0.0169228         145.009
0.589                   -1.84936        -169.556         -53.2758        -164.338         -53.2755        -164.337        -0.017095         144.934
0.59                    -1.88449        -170.167         -53.1804        -166.146         -53.1801        -166.145       -0.0172694         144.859
0.591                   -1.92011        -170.781         -53.0856        -167.952         -53.0853        -167.952       -0.0174459         144.783
0.592                   -1.95623        -171.399         -52.9914        -169.757         -52.9912        -169.757       -0.0176247         144.707
0.593                   -1.99286         -172.02         -52.8978         -171.56         -52.8977         -171.56       -0.0178057         144.631
0.594                   -2.03002        -172.645         -52.8049        -173.362         -52.8048        -173.362       -0.0179891         144.555
0.595                   -2.06771        -173.273         -52.7127        -175.162         -52.7125        -175.163       -0.0181748         144.479
0.596                   -2.10597        -173.905         -52.6211        -176.961          -52.621        -176.962       -0.0183628         144.403
0.597                   -2.14479        -174.541         -52.5301        -178.758           -52.53         -178.76       -0.0185533         144.326
0.598                    -2.1842         -175.18         -52.4398         179.446         -52.4398         179.444       -0.0187462         144.249
0.599                   -2.22423        -175.824         -52.3502         177.651         -52.3502          177.65       -0.0189415         144.172
0.6                     -2.26487        -176.471         -52.2613         175.859         -52.2613         175.856       -0.0191394         144.095
0.601                   -2.30617        -177.123         -52.1731         174.068         -52.1732         174.065       -0.0193399         144.018
0.602                   -2.34813        -177.779         -52.0856         172.278         -52.0857         172.275        -0.019543          143.94
0.603                   -2.39079        -178.438         -51.9988          170.49          -51.999         170.487       -0.0197487         143.862
0.604                   -2.43415        -179.103         -51.9127         168.704         -51.9129         168.701       -0.0199571         143.784
0.605                   -2.47826        -179.771         -51.8274          166.92         -51.8277         166.917       -0.0201682         143.706
0.606                   -2.52313         179.556         -51.7429         165.138         -51.7431         165.135       -0.0203821         143.628
0.607                   -2.56878         178.878          -51.659         163.358         -51.6593         163.355       -0.0205989         143.549
0.608                   -2.61526         178.196          -51.576          161.58         -51.5763         161.577       -0.0208185          143.47
0.609                   -2.66258         177.509         -51.4937         159.805         -51.4941         159.801        -0.021041         143.391
0.61                    -2.71077         176.817         -51.4122         158.032         -51.4126         158.027       -0.0212665         143.312
0.611                   -2.75988          176.12         -51.3314         156.261         -51.3319         156.257        -0.021495         143.233
0.612                   -2.80992         175.419         -51.2514         154.493         -51.2519         154.488       -0.0217266         143.153
0.613                   -2.86094         174.713         -51.1722         152.727         -51.1728         152.723       -0.0219613         143.073
0.614                   -2.91298         174.002         -51.0938         150.965         -51.0944          150.96       -0.0221992         142.993
0.615                   -2.96606         173.285         -51.0162         149.205         -51.0168         149.201       -0.0224404         142.913
0.616                   -3.02023         172.564         -50.9393         147.449         -50.9399         147.444       -0.0226848         142.832
0.617                   -3.07552         171.838         -50.8632         145.696         -50.8639         145.691       -0.0229326         142.751
0.618                   -3.13199         171.106         -50.7879         143.946         -50.7886         143.941       -0.0231838          142.67
0.619                   -3.18967          170.37         -50.7133           142.2         -50.7141         142.195       -0.0234384         142.589
0.62                    -3.24861         169.628         -50.6395         140.457         -50.6403         140.453       -0.0236966         142.508
0.621                   -3.30886         168.881         -50.5665         138.718         -50.5672         138.714       -0.0239584         142.426
0.622                   -3.37046         168.129         -50.4941         136.984         -50.4949         136.979       -0.0242239         142.344
0.623                   -3.43346         167.372         -50.4225         135.253         -50.4234         135.248       -0.0244931         142.262
0.624                   -3.49792          166.61         -50.3517         133.526         -50.3525         133.522       -0.0247661         142.179
0.625                   -3.56389         165.843         -50.2815         131.804         -50.2823           131.8       -0.0250429         142.096
0.626                   -3.63142         165.071          -50.212         130.087         -50.2128         130.082       -0.0253238         142.013
0.627                   -3.70057         164.295         -50.1431         128.374          -50.144         128.369       -0.0256086          141.93
0.628                   -3.77139         163.513         -50.0749         126.665         -50.0758         126.661       -0.0258975         141.847
0.629                   -3.84395         162.727         -50.0074         124.962         -50.0083         124.958       -0.0261906         141.763
