! TOUCHSTONE file generated by CST MICROWAVE STUDIO
! Date and time: Fri Oct 30 07:47:56 2020
! Project name: Scenario_1_Circular_Tissue_out_of_Line.cst
! Parameters = {dy1=-346; L_HA=400; MT=2.54; Rad_Dielectric=30; Rad_Lower=7.3; Rad_Upper=30; a_HA=580; a_WG=246; b_HA=500; b_WG=121; c_HA=0; c_WG=187; d_feed=85; dx1=520; h_feed=15; h_lower=18; h_upper=40}
! Header version: 2018
! Port assignment regex: !\s*Touchstone port\s*([0-9]+)\s*=\s*(CST MWS port|CST DS port)\s*([0-9]+|Zmin|Zmax)\s*\(\"(.*)\"\)(\s*mode\s*([0-9]+))?.*
! Touchstone port assignment:
! Touchstone port 1 = CST MWS port 1 ("")
! Touchstone port 2 = CST MWS port 2 ("")
# GHz S DB R 50
0.5                    -0.153259        -122.393         -64.3241        -97.1125         -64.3241        -97.1125       -0.0073746         151.137
0.501                  -0.157926         -122.87         -64.2399        -98.6345           -64.24        -98.6338      -0.00744433         151.072
0.502                  -0.162884        -123.348         -64.1539         -100.17          -64.154        -100.168      -0.00751479         151.006
0.503                  -0.168133        -123.829          -64.066        -101.718          -64.066        -101.716      -0.00758598         150.941
0.504                  -0.173676        -124.311         -63.9761         -103.28         -63.9762        -103.277       -0.0076579         150.875
0.505                  -0.179517        -124.794         -63.8843        -104.855         -63.8844        -104.852      -0.00773056          150.81
0.506                  -0.185657        -125.279         -63.7905        -106.444         -63.7906        -106.439      -0.00780397         150.744
0.507                  -0.192099        -125.766         -63.6947        -108.045         -63.6949        -108.039      -0.00787813         150.679
0.508                  -0.198845        -126.255          -63.597        -109.659         -63.5972        -109.653      -0.00795305         150.613
0.509                  -0.205898        -126.745         -63.4972        -111.286         -63.4975        -111.279      -0.00802873         150.547
0.51                   -0.213261        -127.237         -63.3955        -112.926         -63.3958        -112.919      -0.00810518         150.481
0.511                  -0.220935         -127.73         -63.2918        -114.579         -63.2921        -114.571      -0.00818241         150.415
0.512                  -0.228924        -128.225          -63.186        -116.245         -63.1864        -116.235      -0.00826041         150.349
0.513                  -0.237229        -128.722         -63.0783        -117.923         -63.0787        -117.913      -0.00833921         150.283
0.514                  -0.245852         -129.22         -62.9686        -119.613         -62.9691        -119.603       -0.0084188         150.216
0.515                  -0.254798         -129.72         -62.8569        -121.317         -62.8574        -121.305      -0.00849919          150.15
0.516                  -0.264067        -130.222         -62.7432        -123.032         -62.7438         -123.02      -0.00858039         150.084
0.517                  -0.273662        -130.725         -62.6276         -124.76         -62.6282        -124.747       -0.0086624         150.017
0.518                  -0.283585        -131.229           -62.51          -126.5         -62.5107        -126.487      -0.00874524          149.95
0.519                  -0.293839        -131.736         -62.3906        -128.252         -62.3913        -128.239      -0.00882891         149.884
0.52                   -0.304426        -132.243         -62.2692        -130.017           -62.27        -130.002      -0.00891341         149.817
0.521                  -0.315348        -132.753         -62.1459        -131.793         -62.1467        -131.778      -0.00899876          149.75
0.522                  -0.326607        -133.264         -62.0208        -133.581         -62.0217        -133.565      -0.00908496         149.683
0.523                  -0.338207        -133.776         -61.8939        -135.381         -61.8948        -135.365      -0.00917203         149.616
0.524                  -0.350148         -134.29         -61.7652        -137.193         -61.7662        -137.176      -0.00925996         149.549
0.525                  -0.362433        -134.806         -61.6347        -139.017         -61.6358        -138.999      -0.00934876         149.482
0.526                  -0.375065        -135.323         -61.5026        -140.852         -61.5037        -140.834      -0.00943846         149.415
0.527                  -0.388045        -135.842         -61.3688        -142.698         -61.3699         -142.68      -0.00952904         149.347
0.528                  -0.401375        -136.362         -61.2333        -144.556         -61.2346        -144.537      -0.00962053          149.28
0.529                  -0.415059        -136.883         -61.0964        -146.426         -61.0977        -146.406      -0.00971293         149.212
0.53                   -0.429097        -137.407         -60.9579        -148.307         -60.9592        -148.286      -0.00980625         149.144
0.531                  -0.443493        -137.931          -60.818        -150.199         -60.8194        -150.178      -0.00990051         149.077
0.532                  -0.458247        -138.458         -60.6767        -152.102         -60.6781        -152.081       -0.0099957         149.009
0.533                  -0.473363        -138.985          -60.534        -154.016         -60.5355        -153.995       -0.0100918         148.941
0.534                  -0.488842        -139.515         -60.3901        -155.942         -60.3917         -155.92       -0.0101889         148.873
0.535                  -0.504687        -140.046         -60.2451        -157.878         -60.2466        -157.856        -0.010287         148.805
0.536                  -0.520898        -140.578         -60.0989        -159.825         -60.1005        -159.803       -0.0103861         148.736
0.537                  -0.537479        -141.112         -59.9516        -161.784         -59.9533        -161.761       -0.0104861         148.668
0.538                  -0.554432        -141.647         -59.8034        -163.753         -59.8051        -163.729       -0.0105871           148.6
0.539                  -0.571758        -142.184         -59.6544        -165.733         -59.6561        -165.709       -0.0106892         148.531
0.54                    -0.58946        -142.722         -59.5045        -167.723         -59.5062        -167.699       -0.0107923         148.462
0.541                  -0.607539        -143.261         -59.3539        -169.724         -59.3557          -169.7       -0.0108964         148.394
0.542                  -0.625997        -143.803         -59.2027        -171.735         -59.2045        -171.711       -0.0110015         148.325
0.543                  -0.644837        -144.345         -59.0509        -173.757         -59.0528        -173.732       -0.0111077         148.256
0.544                   -0.66406        -144.889         -58.8987        -175.789         -58.9006        -175.764        -0.011215         148.187
0.545                  -0.683669        -145.435         -58.7462        -177.831         -58.7481        -177.806       -0.0113234         148.118
0.546                  -0.703665        -145.982         -58.5934        -179.884         -58.5953        -179.858       -0.0114329         148.048
0.547                   -0.72405         -146.53         -58.4405         178.054         -58.4424          178.08       -0.0115434         147.979
0.548                  -0.744827         -147.08         -58.2875         175.983         -58.2894         176.008       -0.0116551          147.91
0.549                  -0.765997        -147.632         -58.1345         173.901         -58.1364         173.927        -0.011768          147.84
0.55                   -0.787563        -148.184         -57.9817          171.81         -57.9836         171.836        -0.011882          147.77
0.551                  -0.809525        -148.739         -57.8291          169.71          -57.831         169.736       -0.0119971           147.7
0.552                  -0.831888        -149.294         -57.6769         167.601         -57.6788         167.627       -0.0121134          147.63
0.553                  -0.854651        -149.852         -57.5252         165.484          -57.527         165.509       -0.0122309          147.56
0.554                  -0.877818         -150.41         -57.3739         163.358         -57.3758         163.383       -0.0123497          147.49
0.555                  -0.901391         -150.97         -57.2234         161.223         -57.2252         161.249       -0.0124696          147.42
0.556                  -0.925371        -151.532         -57.0735         159.081         -57.0754         159.106       -0.0125908         147.349
0.557                  -0.949761        -152.095         -56.9246         156.931         -56.9264         156.956       -0.0127132         147.279
0.558                  -0.974563         -152.66         -56.7765         154.774         -56.7783         154.799        -0.012837         147.208
0.559                  -0.999779        -153.226         -56.6295          152.61         -56.6313         152.635        -0.012962         147.137
0.56                    -1.02541        -153.793         -56.4837         150.439         -56.4854         150.464       -0.0130883         147.067
0.561                   -1.05146        -154.362          -56.339         148.262         -56.3407         148.287       -0.0132159         146.996
0.562                   -1.07793        -154.932         -56.1957          146.08         -56.1974         146.104       -0.0133448         146.924
0.563                   -1.10483        -155.504         -56.0537         143.892         -56.0554         143.916       -0.0134752         146.853
0.564                   -1.13215        -156.078         -55.9132         141.699         -55.9149         141.724       -0.0136069         146.782
0.565                   -1.15989        -156.652         -55.7743         139.502         -55.7759         139.526         -0.01374          146.71
0.566                   -1.18807        -157.229          -55.637         137.302         -55.6385         137.325       -0.0138745         146.638
0.567                   -1.21668        -157.807         -55.5014         135.098         -55.5028         135.121       -0.0140104         146.567
0.568                   -1.24573        -158.386         -55.3675         132.891         -55.3689         132.914       -0.0141478         146.495
0.569                   -1.27521        -158.967         -55.2354         130.682         -55.2368         130.704       -0.0142867         146.423
0.57                    -1.30514         -159.55         -55.1051         128.471         -55.1065         128.493        -0.014427          146.35
0.571                   -1.33551        -160.134         -54.9768         126.259         -54.9781         126.281       -0.0145689         146.278
0.572                   -1.36632        -160.719         -54.8504         124.047         -54.8516         124.068       -0.0147123         146.205
0.573                   -1.39758        -161.306         -54.7259         121.834         -54.7272         121.855       -0.0148573         146.133
0.574                    -1.4293        -161.895         -54.6035         119.623         -54.6047         119.643       -0.0150039          146.06
0.575                   -1.46147        -162.485         -54.4831         117.412         -54.4842         117.432        -0.015152         145.987
0.576                   -1.49411        -163.077         -54.3647         115.203         -54.3658         115.223       -0.0153018         145.914
0.577                    -1.5272        -163.671         -54.2483         112.997         -54.2494         113.016       -0.0154533         145.841
0.578                   -1.56076        -164.266         -54.1341         110.793          -54.135         110.812       -0.0156064         145.767
0.579                   -1.59479        -164.863         -54.0218         108.593         -54.0228         108.611       -0.0157612         145.694
0.58                    -1.62929        -165.461         -53.9116         106.397         -53.9125         106.415       -0.0159178          145.62
0.581                   -1.66427        -166.061         -53.8034         104.206         -53.8043         104.223       -0.0160761         145.546
0.582                   -1.69973        -166.663         -53.6972          102.02          -53.698         102.036       -0.0162362         145.472
0.583                   -1.73568        -167.267          -53.593         99.8388         -53.5938         99.8546       -0.0163981         145.398
0.584                   -1.77211        -167.872         -53.4908         97.6641         -53.4915         97.6794       -0.0165619         145.324
0.585                   -1.80904        -168.479         -53.3904         95.4959         -53.3911         95.5106       -0.0167275          145.25
0.586                   -1.84647        -169.088         -53.2919         93.3346         -53.2926         93.3488        -0.016895         145.175
0.587                    -1.8844        -169.699         -53.1953         91.1807          -53.196         91.1943       -0.0170645           145.1
0.588                   -1.92284        -170.311         -53.1005         89.0346         -53.1011         89.0475       -0.0172359         145.025
0.589                    -1.9618        -170.925         -53.0074         86.8965         -53.0079         86.9089       -0.0174093          144.95
0.59                    -2.00128        -171.542         -52.9159         84.7669         -52.9165         84.7787       -0.0175847         144.875
0.591                   -2.04128         -172.16         -52.8261         82.6459         -52.8267         82.6572       -0.0177621         144.799
0.592                   -2.08181         -172.78         -52.7379          80.534         -52.7384         80.5447       -0.0179417         144.724
0.593                   -2.12288        -173.402         -52.6512         78.4313         -52.6517         78.4415       -0.0181234         144.648
0.594                    -2.1645        -174.025         -52.5659         76.3381         -52.5664         76.3477       -0.0183072         144.572
0.595                   -2.20667        -174.651          -52.482         74.2545         -52.4824         74.2635       -0.0184932         144.496
0.596                   -2.24939        -175.279         -52.3994         72.1807         -52.3998         72.1892       -0.0186814         144.419
0.597                   -2.29268        -175.909         -52.3181         70.1168         -52.3185         70.1248        -0.018872         144.343
0.598                   -2.33655        -176.541         -52.2379         68.0629         -52.2383         68.0704       -0.0190648         144.266
0.599                     -2.381        -177.176         -52.1589         66.0191         -52.1593         66.0261       -0.0192599         144.189
0.6                     -2.42603        -177.812         -52.0809         63.9855         -52.0813          63.992       -0.0194575         144.112
0.601                   -2.47167         -178.45          -52.004          61.962         -52.0043          61.968       -0.0196574         144.035
0.602                   -2.51792        -179.091         -51.9279         59.9487         -51.9283         59.9542       -0.0198598         143.957
0.603                   -2.56478        -179.734         -51.8527         57.9456          -51.853         57.9506       -0.0200648          143.88
0.604                   -2.61227         179.621         -51.7783         55.9525         -51.7786         55.9571       -0.0202722         143.802
0.605                    -2.6604         178.973         -51.7046         53.9694         -51.7049         53.9736       -0.0204823         143.724
0.606                   -2.70918         178.323         -51.6315         51.9963         -51.6319         52.0001        -0.020695         143.645
0.607                   -2.75862         177.671         -51.5591          50.033         -51.5595         50.0364       -0.0209104         143.567
0.608                   -2.80873         177.016         -51.4873         48.0794         -51.4876         48.0824       -0.0211286         143.488
0.609                   -2.85953         176.358         -51.4159         46.1354         -51.4163          46.138       -0.0213495         143.409
0.61                    -2.91103         175.699          -51.345         44.2008         -51.3453         44.2031       -0.0215732          143.33
0.611                   -2.96324         175.036         -51.2744         42.2754         -51.2748         42.2774       -0.0217999         143.251
0.612                   -3.01618         174.371         -51.2042         40.3591         -51.2046         40.3608       -0.0220294         143.171
0.613                   -3.06986         173.704         -51.1343         38.4517         -51.1346          38.453        -0.022262         143.091
0.614                   -3.12429         173.033         -51.0646         36.5529         -51.0649          36.554       -0.0224976         143.011
0.615                    -3.1795          172.36         -50.9951         34.6626         -50.9954         34.6634       -0.0227363         142.931
0.616                    -3.2355         171.685         -50.9257         32.7806         -50.9261         32.7811       -0.0229782         142.851
0.617                   -3.29231         171.006         -50.8565         30.9065         -50.8569         30.9068       -0.0232233          142.77
0.618                   -3.34995         170.325         -50.7873         29.0402         -50.7877         29.0403       -0.0234716         142.689
0.619                   -3.40843         169.641         -50.7182         27.1815         -50.7186         27.1814       -0.0237233         142.608
0.62                    -3.46778         168.953          -50.649           25.33         -50.6494         25.3297       -0.0239784         142.526
0.621                   -3.52801         168.263         -50.5798         23.4856         -50.5802         23.4851        -0.024237         142.445
0.622                   -3.58916          167.57         -50.5106          21.648          -50.511         21.6474       -0.0244991         142.363
0.623                   -3.65124         166.874         -50.4412         19.8169         -50.4417         19.8162       -0.0247648         142.281
0.624                   -3.71428         166.175         -50.3718         17.9922         -50.3722         17.9913       -0.0250341         142.198
0.625                    -3.7783         165.473         -50.3022         16.1734         -50.3026         16.1724       -0.0253072         142.116
0.626                   -3.84333         164.767         -50.2324         14.3605         -50.2328         14.3594       -0.0255841         142.033
0.627                   -3.90939         164.059         -50.1624         12.5531         -50.1629         12.5519       -0.0258649          141.95
0.628                   -3.97653         163.347         -50.0923          10.751         -50.0927         10.7497       -0.0261496         141.866
0.629                   -4.04475         162.632         -50.0219         8.95387         -50.0223         8.95253       -0.0264384         141.782
