! TOUCHSTONE file generated by CST MICROWAVE STUDIO
! Date and time: Wed Oct 28 19:13:26 2020
! Project name: Scenario_1_Circular_Tissue_out_of_Line.cst
! Parameters = {dy1=-346; L_HA=400; MT=2.54; Rad_Dielectric=30; Rad_Lower=7.3; Rad_Upper=30; a_HA=580; a_WG=246; b_HA=500; b_WG=121; c_HA=0; c_WG=187; d_feed=85; dx1=693; h_feed=15; h_lower=18; h_upper=40}
! Header version: 2018
! Port assignment regex: !\s*Touchstone port\s*([0-9]+)\s*=\s*(CST MWS port|CST DS port)\s*([0-9]+|Zmin|Zmax)\s*\(\"(.*)\"\)(\s*mode\s*([0-9]+))?.*
! Touchstone port assignment:
! Touchstone port 1 = CST MWS port 1 ("")
! Touchstone port 2 = CST MWS port 2 ("")
# GHz S DB R 50
0.5                    -0.141312        -122.258         -65.0774         161.084         -65.0774         161.084      -0.00764185         151.133
0.501                  -0.145869        -122.697          -64.953         159.342         -64.9532         159.341      -0.00770082         151.068
0.502                  -0.150589        -123.138         -64.8259         157.597         -64.8263         157.595      -0.00776032         151.002
0.503                  -0.155482        -123.582         -64.6964         155.849         -64.6969         155.846      -0.00782036         150.937
0.504                  -0.160554        -124.029         -64.5644         154.098         -64.5651         154.095      -0.00788095         150.872
0.505                  -0.165814        -124.478         -64.4301         152.344         -64.4309          152.34       -0.0079421         150.806
0.506                  -0.171271         -124.93         -64.2936         150.586         -64.2944         150.581      -0.00800383         150.741
0.507                  -0.176935        -125.384         -64.1549         148.824         -64.1558         148.819      -0.00806616         150.675
0.508                  -0.182814        -125.842          -64.014         147.058          -64.015         147.052       -0.0081291         150.609
0.509                  -0.188918        -126.301         -63.8712         145.287         -63.8722         145.281      -0.00819266         150.543
0.51                   -0.195258        -126.764         -63.7264         143.512         -63.7274         143.505      -0.00825686         150.477
0.511                  -0.201842        -127.229         -63.5797         141.731         -63.5807         141.724      -0.00832172         150.411
0.512                  -0.208683        -127.697         -63.4313         139.944         -63.4323         139.937      -0.00838726         150.345
0.513                  -0.215791        -128.168         -63.2811         138.151         -63.2821         138.144       -0.0084535         150.279
0.514                  -0.223177        -128.641         -63.1293         136.352         -63.1302         136.345      -0.00852044         150.213
0.515                  -0.230852        -129.118         -62.9758         134.547         -62.9768         134.539      -0.00858813         150.147
0.516                  -0.238828        -129.596         -62.8209         132.733         -62.8218         132.726      -0.00865656          150.08
0.517                  -0.247117        -130.078         -62.6646         130.913         -62.6655         130.906      -0.00872577         150.014
0.518                   -0.25573        -130.562         -62.5069         129.084         -62.5077         129.077      -0.00879577         149.947
0.519                  -0.264679        -131.049         -62.3479         127.247         -62.3487          127.24       -0.0088666          149.88
0.52                   -0.273977        -131.539         -62.1877         125.401         -62.1885         125.395      -0.00893826         149.814
0.521                  -0.283636        -132.031         -62.0264         123.546         -62.0271          123.54      -0.00901079         149.747
0.522                  -0.293667        -132.526          -61.864         121.682         -61.8647         121.675      -0.00908421          149.68
0.523                  -0.304082        -133.023         -61.7007         119.807         -61.7013         119.801      -0.00915854         149.613
0.524                  -0.314894        -133.523         -61.5364         117.922          -61.537         117.916      -0.00923381         149.546
0.525                  -0.326113        -134.025         -61.3714         116.026         -61.3719         116.021      -0.00931005         149.479
0.526                  -0.337752         -134.53         -61.2056          114.12          -61.206         114.115      -0.00938728         149.411
0.527                   -0.34982        -135.037         -61.0392         112.202         -61.0396         112.197      -0.00946552         149.344
0.528                  -0.362328        -135.546         -60.8722         110.272         -60.8725         110.268      -0.00954482         149.276
0.529                  -0.375285        -136.057         -60.7047         108.331          -60.705         108.327      -0.00962519         149.209
0.53                   -0.388702        -136.571         -60.5368         106.377         -60.5371         106.373      -0.00970667         149.141
0.531                  -0.402585        -137.086         -60.3687          104.41         -60.3688         104.407      -0.00978928         149.073
0.532                  -0.416943        -137.604         -60.2003         102.431         -60.2004         102.428      -0.00987306         149.005
0.533                  -0.431781        -138.123         -60.0318         100.439         -60.0319         100.436      -0.00995802         148.937
0.534                  -0.447104        -138.644         -59.8633         98.4331         -59.8633         98.4311       -0.0100442         148.869
0.535                  -0.462918        -139.167         -59.6949         96.4142         -59.6948         96.4126       -0.0101316         148.801
0.536                  -0.479223        -139.691         -59.5266         94.3818         -59.5265         94.3805       -0.0102204         148.733
0.537                  -0.496021        -140.217         -59.3586         92.3358         -59.3585         92.3349       -0.0103104         148.665
0.538                  -0.513311        -140.743          -59.191         90.2762         -59.1909         90.2756       -0.0104018         148.596
0.539                  -0.531092        -141.272         -59.0239         88.2028         -59.0237         88.2025       -0.0104945         148.528
0.54                   -0.549359        -141.801         -58.8574         86.1157         -58.8571         86.1157       -0.0105886         148.459
0.541                  -0.568106        -142.331         -58.6915          84.015         -58.6912         84.0152       -0.0106842          148.39
0.542                  -0.587325        -142.861         -58.5264         81.9006          -58.526         81.9012       -0.0107812         148.321
0.543                  -0.607007        -143.393         -58.3622         79.7728         -58.3618         79.7736       -0.0108796         148.252
0.544                   -0.62714        -143.925         -58.1989         77.6317         -58.1985         77.6327       -0.0109796         148.183
0.545                   -0.64771        -144.458         -58.0368         75.4775         -58.0363         75.4787       -0.0110811         148.114
0.546                  -0.668701        -144.991         -57.8758         73.3104         -57.8753         73.3118       -0.0111841         148.045
0.547                  -0.690096        -145.524         -57.7161         71.1308         -57.7156         71.1324       -0.0112887         147.975
0.548                  -0.711876        -146.057         -57.5577         68.9389         -57.5572         68.9407       -0.0113948         147.906
0.549                   -0.73402        -146.591         -57.4008         66.7352         -57.4002         66.7371       -0.0115025         147.836
0.55                   -0.756504        -147.125         -57.2454         64.5201         -57.2448          64.522       -0.0116119         147.766
0.551                  -0.779305        -147.659         -57.0917         62.2939         -57.0911         62.2959       -0.0117228         147.696
0.552                  -0.802398        -148.193         -56.9396         60.0573          -56.939         60.0594       -0.0118354         147.626
0.553                  -0.825757        -148.727         -56.7893         57.8106         -56.7887         57.8128       -0.0119496         147.556
0.554                  -0.849354        -149.262         -56.6409         55.5546         -56.6402         55.5568       -0.0120654         147.486
0.555                  -0.873162        -149.796         -56.4943         53.2898         -56.4936         53.2919       -0.0121829         147.416
0.556                  -0.897156        -150.331         -56.3496         51.0167          -56.349         51.0188        -0.012302         147.345
0.557                  -0.921306        -150.866          -56.207         48.7361         -56.2063         48.7382       -0.0124228         147.275
0.558                  -0.945587        -151.401         -56.0664         46.4486         -56.0657         46.4506       -0.0125452         147.204
0.559                  -0.969972        -151.937         -55.9278         44.1549         -55.9271         44.1569       -0.0126692         147.133
0.56                   -0.994439        -152.473         -55.7913         41.8556         -55.7906         41.8575       -0.0127949         147.062
0.561                   -1.01896        -153.011         -55.6569         39.5515         -55.6562         39.5533       -0.0129222         146.991
0.562                   -1.04352        -153.549         -55.5247         37.2433          -55.524          37.245       -0.0130511          146.92
0.563                    -1.0681        -154.089         -55.3945         34.9317         -55.3938         34.9333       -0.0131816         146.849
0.564                   -1.09269         -154.63         -55.2664         32.6173         -55.2657         32.6188       -0.0133137         146.777
0.565                   -1.11726        -155.173         -55.1404         30.3009         -55.1397         30.3022       -0.0134474         146.706
0.566                   -1.14181        -155.718         -55.0165         27.9831         -55.0158         27.9842       -0.0135827         146.634
0.567                   -1.16633        -156.265         -54.8946         25.6645          -54.894         25.6655       -0.0137196         146.562
0.568                   -1.19081        -156.814         -54.7748         23.3458         -54.7741         23.3467       -0.0138581          146.49
0.569                   -1.21527        -157.367         -54.6568         21.0276         -54.6562         21.0283       -0.0139981         146.418
0.57                     -1.2397        -157.922         -54.5408         18.7105         -54.5402          18.711       -0.0141397         146.346
0.571                    -1.2641        -158.481         -54.4266         16.3949          -54.426         16.3953       -0.0142828         146.273
0.572                    -1.2885        -159.043         -54.3143         14.0814         -54.3137         14.0816       -0.0144275         146.201
0.573                    -1.3129         -159.61         -54.2036         11.7704         -54.2031         11.7705       -0.0145737         146.128
0.574                   -1.33732         -160.18         -54.0947         9.46236         -54.0941         9.46233       -0.0147215         146.055
0.575                    -1.3618        -160.755         -53.9873         7.15765         -53.9868         7.15748       -0.0148709         145.982
0.576                   -1.38634        -161.335         -53.8815         4.85659          -53.881         4.85628       -0.0150218         145.909
0.577                   -1.41099         -161.92         -53.7771         2.55946         -53.7766         2.55903       -0.0151743         145.836
0.578                   -1.43577        -162.511         -53.6741        0.266506         -53.6736         0.26595       -0.0153284         145.763
0.579                   -1.46073        -163.107         -53.5724        -2.02208          -53.572        -2.02275       -0.0154841         145.689
0.58                     -1.4859        -163.708         -53.4719        -4.30614         -53.4715        -4.30691       -0.0156414         145.616
0.581                   -1.51133        -164.316         -53.3726        -6.58558         -53.3722        -6.58644       -0.0158004         145.542
0.582                   -1.53705         -164.93         -53.2744        -8.86032          -53.274        -8.86126        -0.015961         145.468
0.583                   -1.56313        -165.551         -53.1771        -11.1303         -53.1768        -11.1314       -0.0161233         145.394
0.584                    -1.5896        -166.178         -53.0809        -13.3956         -53.0806        -13.3967       -0.0162874         145.319
0.585                   -1.61653        -166.812         -52.9855        -15.6563         -52.9852        -15.6574       -0.0164531         145.245
0.586                   -1.64397        -167.453         -52.8909        -17.9124         -52.8906        -17.9136       -0.0166207          145.17
0.587                   -1.67197          -168.1          -52.797         -20.164         -52.7968        -20.1652       -0.0167901         145.096
0.588                   -1.70059        -168.755         -52.7039        -22.4113         -52.7037        -22.4125       -0.0169613         145.021
0.589                    -1.7299        -169.417         -52.6114        -24.6545         -52.6112        -24.6557       -0.0171345         144.946
0.59                    -1.75995        -170.086         -52.5195        -26.8937         -52.5194         -26.895       -0.0173096          144.87
0.591                    -1.7908        -170.763         -52.4282        -29.1292          -52.428        -29.1304       -0.0174866         144.795
0.592                   -1.82253        -171.446         -52.3373        -31.3612         -52.3372        -31.3624       -0.0176657         144.719
0.593                   -1.85518        -172.137          -52.247          -33.59         -52.2469        -33.5912       -0.0178469         144.643
0.594                   -1.88884        -172.835         -52.1572        -35.8158         -52.1571        -35.8169       -0.0180302         144.567
0.595                   -1.92356         -173.54         -52.0677        -38.0388         -52.0677        -38.0399       -0.0182157         144.491
0.596                   -1.95941        -174.252         -51.9787        -40.2595         -51.9787        -40.2605       -0.0184035         144.415
0.597                   -1.99644        -174.971         -51.8902        -42.4779         -51.8902        -42.4789       -0.0185936         144.338
0.598                   -2.03474        -175.696          -51.802        -44.6944          -51.802        -44.6954        -0.018786         144.262
0.599                   -2.07436        -176.428         -51.7143        -46.9093         -51.7143        -46.9102       -0.0189808         144.185
0.6                     -2.11537        -177.166         -51.6269        -49.1228         -51.6269        -49.1236       -0.0191781         144.108
0.601                   -2.15782        -177.911           -51.54        -51.3351           -51.54        -51.3359        -0.019378          144.03
0.602                   -2.20178        -178.661         -51.4536        -53.5465         -51.4536        -53.5472       -0.0195804         143.953
0.603                   -2.24732        -179.416         -51.3675        -55.7573         -51.3676        -55.7579       -0.0197855         143.875
0.604                   -2.29448         179.823          -51.282        -57.9675         -51.2821         -57.968       -0.0199933         143.797
0.605                   -2.34333         179.057          -51.197        -60.1774          -51.197        -60.1778       -0.0202039         143.719
0.606                   -2.39392         178.287         -51.1126         -62.387         -51.1126        -62.3874       -0.0204174         143.641
0.607                   -2.44631         177.512         -51.0287        -64.5966         -51.0287        -64.5969       -0.0206338         143.563
0.608                   -2.50053         176.734         -50.9454        -66.8063         -50.9454        -66.8065       -0.0208531         143.484
0.609                   -2.55665         175.953         -50.8628         -69.016         -50.8628        -69.0161       -0.0210755         143.405
0.61                    -2.61469         175.168         -50.7808        -71.2258         -50.7808        -71.2259        -0.021301         143.326
0.611                    -2.6747         174.382         -50.6996        -73.4357         -50.6996        -73.4357       -0.0215296         143.247
0.612                   -2.73672         173.593         -50.6192        -75.6456         -50.6192        -75.6456       -0.0217615         143.167
0.613                   -2.80077         172.804         -50.5396        -77.8556         -50.5396        -77.8556       -0.0219967         143.087
0.614                   -2.86689         172.013         -50.4609        -80.0655         -50.4608        -80.0654       -0.0222353         143.007
0.615                   -2.93508         171.222          -50.383        -82.2751          -50.383        -82.2749       -0.0224773         142.927
0.616                   -3.00537         170.432         -50.3061        -84.4842         -50.3061        -84.4841       -0.0227227         142.847
0.617                   -3.07777         169.643         -50.2302        -86.6928         -50.2302        -86.6926       -0.0229717         142.766
0.618                   -3.15228         168.855         -50.1553        -88.9004         -50.1553        -88.9002       -0.0232243         142.685
0.619                   -3.22889         168.069         -50.0815        -91.1069         -50.0814        -91.1067       -0.0234806         142.604
0.62                     -3.3076         167.286         -50.0087         -93.312         -50.0087        -93.3118       -0.0237406         142.523
0.621                   -3.38839         166.507         -49.9371        -95.5153         -49.9371        -95.5151       -0.0240044         142.441
0.622                   -3.47125         165.731         -49.8666        -97.7165         -49.8666        -97.7163        -0.024272         142.359
0.623                   -3.55613          164.96         -49.7973        -99.9152         -49.7972         -99.915       -0.0245435         142.277
0.624                   -3.64301         164.195         -49.7291        -102.111         -49.7291        -102.111        -0.024819         142.195
0.625                   -3.73184         163.434         -49.6622        -104.304         -49.6621        -104.303       -0.0250986         142.112
0.626                   -3.82258         162.681         -49.5964        -106.492         -49.5963        -106.492       -0.0253822         142.029
0.627                   -3.91516         161.934         -49.5318        -108.677         -49.5317        -108.677         -0.02567         141.946
0.628                   -4.00953         161.194         -49.4683        -110.857         -49.4683        -110.857       -0.0259619         141.863
0.629                   -4.10561         160.462         -49.4061        -113.032          -49.406        -113.032       -0.0262582         141.779
