! TOUCHSTONE file generated by CST MICROWAVE STUDIO
! Date and time: Mon Oct 26 12:24:42 2020
! Project name: Scenario_1_Circular_Tissue_out_of_Line.cst
! Parameters = {dy1=-346; L_HA=400; MT=2.54; Rad_Dielectric=30; Rad_Lower=7.3; Rad_Upper=30; a_HA=580; a_WG=246; b_HA=500; b_WG=121; c_HA=0; c_WG=187; d_feed=85; dx1=866; h_feed=15; h_lower=18; h_upper=40}
! Header version: 2018
! Port assignment regex: !\s*Touchstone port\s*([0-9]+)\s*=\s*(CST MWS port|CST DS port)\s*([0-9]+|Zmin|Zmax)\s*\(\"(.*)\"\)(\s*mode\s*([0-9]+))?.*
! Touchstone port assignment:
! Touchstone port 1 = CST MWS port 1 ("")
! Touchstone port 2 = CST MWS port 2 ("")
# GHz S DB R 50
0.5                    -0.152897        -122.348         -65.0245          74.408         -64.9668         74.0961      -0.00746583         151.143
0.501                  -0.155626        -122.781         -64.8715         72.2726         -64.8314         72.1669      -0.00753955         151.078
0.502                    -0.1586        -123.217         -64.7176         70.1245         -64.6945         70.2171      -0.00761371         151.013
0.503                  -0.161825        -123.655         -64.5626         67.9639         -64.5561         68.2467      -0.00768832         150.947
0.504                  -0.165304        -124.095         -64.4067         65.7907         -64.4162         66.2556      -0.00776338         150.882
0.505                  -0.169042        -124.537         -64.2499         63.6049         -64.2749          64.244      -0.00783891         150.816
0.506                  -0.173043        -124.983         -64.0923         61.4067         -64.1322         62.2117      -0.00791492         150.751
0.507                  -0.177312         -125.43          -63.934         59.1961         -63.9882         60.1588      -0.00799141         150.685
0.508                  -0.181853         -125.88          -63.775         56.9731         -63.8427         58.0853       -0.0080684         150.619
0.509                   -0.18667        -126.332         -63.6154         54.7379          -63.696         55.9914       -0.0081459         150.554
0.51                   -0.191769        -126.787         -63.4553         52.4905         -63.5479         53.8769      -0.00822392         150.488
0.511                  -0.197152        -127.244         -63.2947          50.231         -63.3986         51.7422      -0.00830246         150.422
0.512                  -0.202826        -127.703         -63.1337         47.9595         -63.2482         49.5871      -0.00838155         150.356
0.513                  -0.208793        -128.165         -62.9724         45.6761         -63.0966          47.412      -0.00846119         150.289
0.514                   -0.21506        -128.629         -62.8109          43.381         -62.9439         45.2169      -0.00854139         150.223
0.515                   -0.22163        -129.096         -62.6492         41.0744         -62.7902          43.002      -0.00862217         150.157
0.516                  -0.228507        -129.565         -62.4874         38.7563         -62.6356         40.7674      -0.00870353         150.091
0.517                  -0.235698        -130.036         -62.3257          36.427           -62.48         38.5135      -0.00878549         150.024
0.518                  -0.243205         -130.51          -62.164         34.0867         -62.3237         36.2404      -0.00886806         149.958
0.519                  -0.251033        -130.986         -62.0025         31.7356         -62.1666         33.9484      -0.00895125         149.891
0.52                   -0.259187        -131.464         -61.8413         29.3738         -62.0089         31.6378      -0.00903507         149.824
0.521                  -0.267672        -131.945         -61.6803         27.0018         -61.8505         29.3089      -0.00911954         149.758
0.522                  -0.276492        -132.428         -61.5198         24.6196         -61.6917         26.9621      -0.00920466         149.691
0.523                  -0.285652        -132.914         -61.3597         22.2277         -61.5325         24.5976      -0.00929046         149.624
0.524                  -0.295155        -133.402         -61.2003         19.8263          -61.373          22.216      -0.00937694         149.557
0.525                  -0.305007        -133.892         -61.0414         17.4157         -61.2133         19.8176      -0.00946411         149.489
0.526                  -0.315211        -134.384         -60.8832         14.9964         -61.0535         17.4029        -0.009552         149.422
0.527                  -0.325773        -134.879         -60.7259         12.5685         -60.8937         14.9724      -0.00964061         149.355
0.528                  -0.336697        -135.376         -60.5693         10.1326          -60.734         12.5265      -0.00972995         149.287
0.529                  -0.347987        -135.876         -60.4137         7.68902         -60.5744         10.0659      -0.00982004          149.22
0.53                   -0.359648        -136.377         -60.2591         5.23814         -60.4152         7.59111      -0.00991089         149.152
0.531                  -0.371683        -136.881         -60.1055         2.78042         -60.2564         5.10272       -0.0100025         149.085
0.532                  -0.384098        -137.387         -59.9531        0.316283          -60.098         2.60138       -0.0100949         149.017
0.533                  -0.396896        -137.896         -59.8018        -2.15381         -59.9403       0.0877478       -0.0101882         148.949
0.534                  -0.410082        -138.407         -59.6517        -4.62938         -59.7832        -2.43749       -0.0102822         148.881
0.535                   -0.42366         -138.92         -59.5028        -7.10998          -59.627        -4.97361       -0.0103771         148.813
0.536                  -0.437634        -139.435         -59.3553        -9.59509         -59.4716        -7.51987       -0.0104728         148.745
0.537                  -0.452008        -139.953         -59.2091        -12.0842         -59.3172        -10.0755       -0.0105694         148.676
0.538                  -0.466786        -140.472         -59.0643        -14.5769         -59.1639        -12.6398       -0.0106669         148.608
0.539                  -0.481973        -140.994         -58.9209        -17.0726         -59.0117        -15.2118       -0.0107653          148.54
0.54                   -0.497572        -141.518         -58.7789        -19.5709         -58.8608        -17.7909       -0.0108646         148.471
0.541                  -0.513588        -142.044         -58.6384        -22.0711         -58.7112         -20.376       -0.0109648         148.402
0.542                  -0.530023        -142.573         -58.4994        -24.5729          -58.563        -22.9665       -0.0110659         148.333
0.543                  -0.546882        -143.103         -58.3619        -27.0757         -58.4161        -25.5615        -0.011168         148.264
0.544                  -0.564169        -143.636         -58.2258        -29.5791         -58.2708          -28.16       -0.0112711         148.195
0.545                  -0.581887        -144.171         -58.0913        -32.0825         -58.1271        -30.7614       -0.0113752         148.126
0.546                   -0.60004        -144.708         -57.9582        -34.5854         -57.9849        -33.3646       -0.0114803         148.057
0.547                  -0.618632        -145.247         -57.8266        -37.0875         -57.8443        -35.9689       -0.0115864         147.988
0.548                  -0.637665        -145.788         -57.6966        -39.5883         -57.7054        -38.5734       -0.0116935         147.918
0.549                  -0.657144        -146.331         -57.5679        -42.0872         -57.5681        -41.1773       -0.0118018         147.849
0.55                   -0.677071        -146.876         -57.4407         -44.584         -57.4326        -43.7798       -0.0119111         147.779
0.551                   -0.69745        -147.423          -57.315        -47.0783         -57.2987        -46.3802       -0.0120215         147.709
0.552                  -0.718284        -147.972         -57.1906        -49.5695         -57.1666        -48.9776        -0.012133         147.639
0.553                  -0.739575        -148.524         -57.0676        -52.0575         -57.0361        -51.5714       -0.0122456         147.569
0.554                  -0.761328        -149.077         -56.9459        -54.5419         -56.9073        -54.1608       -0.0123594         147.499
0.555                  -0.783545        -149.632         -56.8255        -57.0223         -56.7802        -56.7453       -0.0124744         147.429
0.556                  -0.806229        -150.189         -56.7064        -59.4985         -56.6547        -59.3241       -0.0125906         147.359
0.557                  -0.829382        -150.748         -56.5884        -61.9702         -56.5308        -61.8966        -0.012708         147.288
0.558                  -0.853007        -151.309         -56.4717        -64.4372         -56.4085        -64.4624       -0.0128266         147.217
0.559                  -0.877107        -151.872         -56.3561        -66.8993         -56.2877        -67.0209       -0.0129465         147.147
0.56                   -0.901684        -152.437         -56.2415        -69.3564         -56.1685        -69.5716       -0.0130677         147.076
0.561                  -0.926741        -153.004          -56.128        -71.8082         -56.0506        -72.1142       -0.0131901         147.005
0.562                  -0.952279        -153.572         -56.0155        -74.2546         -55.9342        -74.6482       -0.0133139         146.934
0.563                  -0.978302        -154.143         -55.9039        -76.6956         -55.8191        -77.1734        -0.013439         146.862
0.564                   -1.00481        -154.715         -55.7932         -79.131         -55.7053        -79.6893       -0.0135655         146.791
0.565                   -1.03181        -155.289         -55.6833        -81.5608         -55.5927        -82.1959       -0.0136934         146.719
0.566                   -1.05929        -155.866         -55.5743        -83.9851         -55.4812        -84.6929       -0.0138227         146.648
0.567                   -1.08727        -156.443         -55.4659        -86.4038         -55.3709        -87.1801       -0.0139534         146.576
0.568                   -1.11574        -157.023         -55.3583        -88.8168         -55.2616        -89.6575       -0.0140855         146.504
0.569                   -1.14471        -157.605         -55.2513        -91.2244         -55.1533         -92.125       -0.0142192         146.432
0.57                    -1.17417        -158.188         -55.1449        -93.6265         -55.0459        -94.5825       -0.0143544          146.36
0.571                   -1.20413        -158.773          -55.039        -96.0232         -54.9393        -97.0301        -0.014491         146.287
0.572                   -1.23459         -159.36         -54.9337        -98.4147         -54.8335        -99.4678       -0.0146293         146.215
0.573                   -1.26556        -159.949         -54.8288        -100.801         -54.7284        -101.896       -0.0147691         146.142
0.574                   -1.29702         -160.54         -54.7243        -103.182          -54.624        -104.314       -0.0149106          146.07
0.575                   -1.32899        -161.132         -54.6202        -105.559         -54.5202        -106.723       -0.0150536         145.997
0.576                   -1.36146        -161.726         -54.5165        -107.931          -54.417        -109.122       -0.0151984         145.924
0.577                   -1.39443        -162.322          -54.413        -110.299         -54.3142        -111.513       -0.0153448          145.85
0.578                   -1.42792         -162.92         -54.3099        -112.662         -54.2119        -113.894       -0.0154929         145.777
0.579                   -1.46191        -163.519          -54.207        -115.021           -54.11        -116.267       -0.0156428         145.704
0.58                     -1.4964        -164.121         -54.1043        -117.377         -54.0084        -118.632       -0.0157945          145.63
0.581                   -1.53141        -164.724         -54.0018        -119.729         -53.9071        -120.988       -0.0159479         145.556
0.582                   -1.56693        -165.329         -53.8994        -122.078          -53.806        -123.337       -0.0161032         145.482
0.583                   -1.60295        -165.936         -53.7972        -124.423         -53.7052        -125.679       -0.0162604         145.408
0.584                   -1.63949        -166.545         -53.6951        -126.767         -53.6045        -128.014       -0.0164195         145.334
0.585                   -1.67654        -167.156         -53.5932        -129.107          -53.504        -130.342       -0.0165805         145.259
0.586                   -1.71411        -167.768         -53.4913        -131.445         -53.4035        -132.665       -0.0167434         145.185
0.587                   -1.75218        -168.383         -53.3895        -133.782         -53.3032        -134.981       -0.0169084          145.11
0.588                   -1.79078        -168.999         -53.2878        -136.117         -53.2029        -137.293       -0.0170754         145.035
0.589                   -1.82988        -169.618         -53.1861         -138.45         -53.1026        -139.599       -0.0172444          144.96
0.59                    -1.86951        -170.238         -53.0845        -140.783         -53.0024        -141.901       -0.0174156         144.885
0.591                   -1.90965        -170.861          -52.983        -143.115         -52.9022        -144.199       -0.0175889         144.809
0.592                   -1.95031        -171.485         -52.8815        -145.446         -52.8019        -146.493       -0.0177643         144.734
0.593                    -1.9915        -172.112         -52.7801        -147.777         -52.7016        -148.785       -0.0179419         144.658
0.594                    -2.0332        -172.741         -52.6788        -150.108         -52.6013        -151.073       -0.0181218         144.582
0.595                   -2.07543        -173.372         -52.5776        -152.439          -52.501        -153.359        -0.018304         144.506
0.596                   -2.11819        -174.006         -52.4764        -154.771         -52.4006        -155.644       -0.0184885         144.429
0.597                   -2.16147        -174.641         -52.3754        -157.104         -52.3002        -157.927       -0.0186754         144.353
0.598                   -2.20529         -175.28         -52.2745        -159.438         -52.1998        -160.209       -0.0188646         144.276
0.599                   -2.24964         -175.92         -52.1737        -161.773         -52.0994        -162.491       -0.0190563         144.199
0.6                     -2.29452        -176.564         -52.0731         -164.11          -51.999        -164.773       -0.0192505         144.122
0.601                   -2.33995         -177.21         -51.9727        -166.449         -51.8986        -167.055       -0.0194472         144.045
0.602                   -2.38593        -177.858         -51.8726         -168.79         -51.7982        -169.337       -0.0196465         143.967
0.603                   -2.43246         -178.51         -51.7726        -171.132         -51.6979        -171.621       -0.0198484          143.89
0.604                   -2.47954        -179.164          -51.673        -173.478         -51.5977        -173.906        -0.020053         143.812
0.605                   -2.52719        -179.822         -51.5736        -175.825         -51.4976        -176.193       -0.0202603         143.734
0.606                   -2.57541         179.518         -51.4746        -178.176         -51.3976        -178.482       -0.0204703         143.656
0.607                   -2.62422         178.854         -51.3759         179.471         -51.2978         179.227       -0.0206831         143.577
0.608                    -2.6736         178.187         -51.2777         177.115         -51.1982         176.933       -0.0208988         143.498
0.609                   -2.72359         177.516         -51.1799         174.755         -51.0989         174.636       -0.0211174         143.419
0.61                    -2.77419         176.842         -51.0826         172.393         -50.9998         172.335       -0.0213389          143.34
0.611                   -2.82542         176.164         -50.9858         170.028         -50.9011         170.031       -0.0215635         143.261
0.612                   -2.87728         175.481         -50.8896         167.659         -50.8027         167.723       -0.0217911         143.182
0.613                    -2.9298         174.795          -50.794         165.287         -50.7048         165.411       -0.0220218         143.102
0.614                   -2.98299         174.104          -50.699         162.912         -50.6073         163.095       -0.0222557         143.022
0.615                   -3.03688         173.409         -50.6048         160.534         -50.5103         160.775       -0.0224929         142.942
0.616                   -3.09149          172.71         -50.5112         158.152         -50.4139          158.45       -0.0227333         142.861
0.617                   -3.14684         172.005         -50.4185         155.768         -50.3181         156.121       -0.0229771          142.78
0.618                   -3.20296         171.295         -50.3266          153.38         -50.2229         153.787       -0.0232243         142.699
0.619                   -3.25988          170.58         -50.2355          150.99         -50.1285         151.449       -0.0234749         142.618
0.62                    -3.31765         169.859         -50.1453         148.596         -50.0348         149.106       -0.0237291         142.537
0.621                   -3.37629         169.133         -50.0561         146.201         -49.9419         146.758       -0.0239869         142.455
0.622                   -3.43585           168.4         -49.9678         143.803         -49.8499         144.406       -0.0242484         142.373
0.623                   -3.49638         167.661         -49.8805         141.402         -49.7588         142.049       -0.0245136         142.291
0.624                   -3.55793         166.916         -49.7943             139         -49.6687         139.688       -0.0247826         142.209
0.625                   -3.62057         166.163         -49.7092         136.596         -49.5796         137.322       -0.0250554         142.126
0.626                   -3.68435         165.404         -49.6252         134.191         -49.4916         134.952       -0.0253323         142.043
0.627                   -3.74935         164.637         -49.5424         131.784         -49.4046         132.579       -0.0256131          141.96
0.628                   -3.81565         163.863         -49.4607         129.376         -49.3189         130.202       -0.0258981         141.877
0.629                   -3.88333          163.08         -49.3802         126.968         -49.2343         127.821       -0.0261872         141.793
