! TOUCHSTONE file generated by CST MICROWAVE STUDIO
! Date and time: Sat Oct 24 11:42:27 2020
! Project name: Scenario_1_Circular_Tissue_out_of_Line.cst
! Parameters = {dy1=346; L_HA=400; MT=2.54; Rad_Dielectric=30; Rad_Lower=7.3; Rad_Upper=30; a_HA=580; a_WG=246; b_HA=500; b_WG=121; c_HA=0; c_WG=187; d_feed=85; dx1=1039; h_feed=15; h_lower=18; h_upper=40}
! Header version: 2018
! Port assignment regex: !\s*Touchstone port\s*([0-9]+)\s*=\s*(CST MWS port|CST DS port)\s*([0-9]+|Zmin|Zmax)\s*\(\"(.*)\"\)(\s*mode\s*([0-9]+))?.*
! Touchstone port assignment:
! Touchstone port 1 = CST MWS port 1 ("")
! Touchstone port 2 = CST MWS port 2 ("")
# GHz S DB R 50
0.5                    -0.141359        -122.235          -65.437        -27.0084          -65.446        -27.2461      -0.00756254         151.134
0.501                  -0.148408        -122.689         -65.3556        -29.8197         -65.3743        -30.0661      -0.00762346         151.069
0.502                  -0.155675        -123.144          -65.266        -32.6262         -65.2939        -32.8843      -0.00768523         151.004
0.503                  -0.163159        -123.601         -65.1686         -35.425         -65.2051        -35.6977      -0.00774786         150.938
0.504                  -0.170861        -124.059         -65.0636        -38.2137         -65.1081        -38.5034      -0.00781134         150.873
0.505                  -0.178781        -124.518         -64.9514          -40.99         -65.0033        -41.2986      -0.00787569         150.807
0.506                   -0.18692        -124.979         -64.8322         -43.752         -64.8908         -44.081      -0.00794091         150.742
0.507                  -0.195276        -125.441         -64.7065        -46.4978         -64.7712        -46.8484        -0.008007         150.676
0.508                   -0.20385        -125.904         -64.5747         -49.226         -64.6447        -49.5988      -0.00807395          150.61
0.509                  -0.212643        -126.369          -64.437        -51.9353         -64.5119        -52.3307      -0.00814179         150.544
0.51                   -0.221654        -126.835          -64.294        -54.6247          -64.373        -55.0427       -0.0082105         150.478
0.511                  -0.230884        -127.302         -64.1459        -57.2935         -64.2285        -57.7337       -0.0082801         150.412
0.512                  -0.240331        -127.771         -63.9933        -59.9411         -64.0787        -60.4029      -0.00835059         150.346
0.513                  -0.249997        -128.241         -63.8364        -62.5674         -63.9242        -63.0499      -0.00842198          150.28
0.514                  -0.259881        -128.712         -63.6756        -65.1722         -63.7654        -65.6742      -0.00849426         150.214
0.515                  -0.269983        -129.185         -63.5114        -67.7556         -63.6025        -68.2757      -0.00856745         150.147
0.516                  -0.280303        -129.659          -63.344        -70.3179          -63.436        -70.8546      -0.00864155         150.081
0.517                   -0.29084        -130.135         -63.1738        -72.8594         -63.2663        -73.4112      -0.00871656         150.014
0.518                  -0.301596        -130.612         -63.0012        -75.3809         -63.0937        -75.9458      -0.00879249         149.948
0.519                  -0.312569        -131.091         -62.8263        -77.8828         -62.9185        -78.4591      -0.00886934         149.881
0.52                   -0.323759        -131.571         -62.6496        -80.3661         -62.7411        -80.9518      -0.00894713         149.814
0.521                  -0.335167        -132.052         -62.4712        -82.8316         -62.5617        -83.4247      -0.00902585         149.747
0.522                  -0.346792        -132.535         -62.2914        -85.2802         -62.3807        -85.8787      -0.00910552         149.681
0.523                  -0.358634        -133.019         -62.1105        -87.7128         -62.1983        -88.3148      -0.00918614         149.614
0.524                  -0.370692        -133.505         -61.9287        -90.1306         -62.0148         -90.734      -0.00926772         149.546
0.525                  -0.382968        -133.993         -61.7462        -92.5346         -61.8304        -93.1375      -0.00935026         149.479
0.526                   -0.39546        -134.481         -61.5631        -94.9259         -61.6452        -95.5264      -0.00943377         149.412
0.527                  -0.408169        -134.972         -61.3797        -97.3056         -61.4595        -97.9018      -0.00951826         149.345
0.528                  -0.421095        -135.464         -61.1961        -99.6749         -61.2736        -100.265      -0.00960374         149.277
0.529                  -0.434237        -135.958         -61.0125        -102.035         -61.0874        -102.617      -0.00969022         149.209
0.53                   -0.447595        -136.453         -60.8289        -104.387         -60.9013        -104.959      -0.00977769         149.142
0.531                   -0.46117         -136.95         -60.6457        -106.731         -60.7153        -107.293      -0.00986618         149.074
0.532                  -0.474962        -137.448         -60.4627         -109.07         -60.5296        -109.619      -0.00995568         149.006
0.533                  -0.488971        -137.949         -60.2802        -111.404         -60.3443        -111.939       -0.0100462         148.938
0.534                  -0.503197        -138.451         -60.0983        -113.734         -60.1595        -114.253       -0.0101378          148.87
0.535                   -0.51764        -138.955          -59.917        -116.061         -59.9753        -116.563       -0.0102304         148.802
0.536                  -0.532301         -139.46         -59.7364        -118.387         -59.7918        -118.871       -0.0103241         148.734
0.537                  -0.547181        -139.967         -59.5567        -120.712         -59.6091        -121.177       -0.0104188         148.666
0.538                  -0.562279        -140.477         -59.3778        -123.037         -59.4273        -123.481       -0.0105147         148.597
0.539                  -0.577596        -140.988         -59.1999        -125.363         -59.2464        -125.786       -0.0106116         148.529
0.54                   -0.593135        -141.501         -59.0231        -127.691         -59.0665        -128.093       -0.0107096          148.46
0.541                  -0.608894        -142.016         -58.8473        -130.022         -58.8878        -130.401       -0.0108087         148.391
0.542                  -0.624876        -142.533         -58.6726        -132.357         -58.7102        -132.713       -0.0109089         148.322
0.543                  -0.641081        -143.051         -58.4991        -134.697         -58.5337        -135.028       -0.0110103         148.253
0.544                  -0.657512        -143.573         -58.3268        -137.042         -58.3585        -137.348       -0.0111128         148.184
0.545                  -0.674169        -144.096         -58.1558        -139.393         -58.1847        -139.674       -0.0112165         148.115
0.546                  -0.691055        -144.621         -57.9861         -141.75         -58.0121        -142.007       -0.0113213         148.046
0.547                  -0.708172        -145.149         -57.8178        -144.116          -57.841        -144.346       -0.0114273         147.977
0.548                  -0.725522        -145.678         -57.6509        -146.489         -57.6713        -146.693       -0.0115346         147.907
0.549                  -0.743108        -146.211         -57.4854        -148.871         -57.5031        -149.049        -0.011643         147.838
0.55                   -0.760932        -146.745         -57.3213        -151.262         -57.3363        -151.414       -0.0117526         147.768
0.551                  -0.778999        -147.282         -57.1588        -153.663         -57.1711        -153.789       -0.0118635         147.698
0.552                  -0.797311        -147.822         -56.9978        -156.074         -57.0075        -156.174       -0.0119757         147.628
0.553                  -0.815874        -148.364         -56.8383        -158.495         -56.8456         -158.57       -0.0120891         147.558
0.554                  -0.834691        -148.908         -56.6805        -160.928         -56.6852        -160.977       -0.0122038         147.488
0.555                  -0.853767        -149.456         -56.5242        -163.372         -56.5266        -163.396       -0.0123198         147.418
0.556                  -0.873107        -150.006         -56.3696        -165.827         -56.3696        -165.827       -0.0124371         147.347
0.557                  -0.892719        -150.559         -56.2167        -168.295         -56.2144        -168.271       -0.0125557         147.277
0.558                  -0.912608        -151.114         -56.0655        -170.774          -56.061        -170.727       -0.0126757         147.206
0.559                  -0.932782        -151.673          -55.916        -173.266         -55.9093        -173.196       -0.0127971         147.135
0.56                   -0.953249        -152.235         -55.7682        -175.771         -55.7595        -175.678       -0.0129198         147.064
0.561                  -0.974016          -152.8         -55.6223        -178.288         -55.6116        -178.173        -0.013044         146.993
0.562                  -0.995094        -153.368         -55.4781         179.183         -55.4655         179.318       -0.0131695         146.922
0.563                   -1.01649         -153.94         -55.3357          176.64         -55.3212         176.796       -0.0132966         146.851
0.564                   -1.03822        -154.514         -55.1951         174.085         -55.1789          174.26        -0.013425          146.78
0.565                    -1.0603        -155.093         -55.0564         171.518         -55.0386          171.71        -0.013555         146.708
0.566                   -1.08273        -155.675         -54.9195         168.938         -54.9002         169.148       -0.0136864         146.636
0.567                   -1.10554         -156.26         -54.7845         166.346         -54.7637         166.571       -0.0138194         146.565
0.568                   -1.12873        -156.849         -54.6513         163.741         -54.6292         163.982       -0.0139539         146.493
0.569                   -1.15232        -157.442         -54.5201         161.125         -54.4967         161.379         -0.01409         146.421
0.57                    -1.17634        -158.039         -54.3907         158.496         -54.3662         158.764       -0.0142277         146.348
0.571                    -1.2008         -158.64         -54.2632         155.857         -54.2377         156.136        -0.014367         146.276
0.572                   -1.22572        -159.245         -54.1376         153.206         -54.1112         153.496       -0.0145079         146.204
0.573                   -1.25112        -159.854         -54.0138         150.545         -53.9867         150.844       -0.0146505         146.131
0.574                   -1.27703        -160.467          -53.892         147.873         -53.8642          148.18       -0.0147947         146.058
0.575                   -1.30348        -161.084          -53.772         145.191         -53.7437         145.505       -0.0149407         145.985
0.576                   -1.33049        -161.706         -53.6539           142.5         -53.6251          142.82       -0.0150884         145.912
0.577                   -1.35808        -162.332         -53.5376         139.799         -53.5085         140.124       -0.0152379         145.839
0.578                    -1.3863        -162.963         -53.4232          137.09         -53.3939         137.419       -0.0153891         145.766
0.579                   -1.41517        -163.598         -53.3105         134.373         -53.2812         134.704       -0.0155422         145.692
0.58                    -1.44473        -164.238         -53.1996         131.649         -53.1704         131.981       -0.0156971         145.619
0.581                   -1.47502        -164.883         -53.0905         128.917         -53.0615          129.25       -0.0158539         145.545
0.582                   -1.50606        -165.531         -52.9832         126.179         -52.9544         126.511       -0.0160126         145.471
0.583                   -1.53792        -166.185         -52.8775         123.435         -52.8492         123.765       -0.0161732         145.397
0.584                   -1.57061        -166.843         -52.7735         120.686         -52.7457         121.013       -0.0163358         145.322
0.585                    -1.6042        -167.506         -52.6711         117.932         -52.6439         118.256       -0.0165004         145.248
0.586                   -1.63872        -168.173         -52.5703         115.174         -52.5439         115.493        -0.016667         145.173
0.587                   -1.67421        -168.844          -52.471         112.412         -52.4455         112.726       -0.0168357         145.099
0.588                   -1.71074         -169.52         -52.3732         109.647         -52.3487         109.955       -0.0170064         145.024
0.589                   -1.74833        -170.199         -52.2769          106.88         -52.2534         107.181       -0.0171793         144.949
0.59                    -1.78705        -170.883          -52.182         104.111         -52.1596         104.405       -0.0173543         144.873
0.591                   -1.82693         -171.57         -52.0884         101.341         -52.0673         101.626       -0.0175315         144.798
0.592                   -1.86803        -172.261         -51.9962           98.57         -51.9763         98.8466        -0.017711         144.722
0.593                   -1.91038        -172.955         -51.9052         95.7989         -51.8867         96.0664       -0.0178927         144.647
0.594                   -1.95404        -173.652         -51.8153         93.0282         -51.7983         93.2861       -0.0180767         144.571
0.595                   -1.99903        -174.352         -51.7266         90.2584         -51.7111         90.5063        -0.018263         144.495
0.596                    -2.0454        -175.053         -51.6391           87.49          -51.625         87.7276       -0.0184518         144.418
0.597                   -2.09319        -175.757         -51.5525         84.7235           -51.54         84.9505       -0.0186429         144.342
0.598                    -2.1424        -176.462         -51.4669         81.9593          -51.456         82.1756       -0.0188365         144.265
0.599                   -2.19307        -177.167         -51.3822         79.1978         -51.3729         79.4033       -0.0190325         144.188
0.6                     -2.24521        -177.873         -51.2984         76.4396         -51.2907         76.6341       -0.0192311         144.111
0.601                   -2.29881        -178.579         -51.2154         73.6849         -51.2094         73.8685       -0.0194323         144.034
0.602                   -2.35389        -179.284         -51.1332         70.9342         -51.1287         71.1068        -0.019636         143.957
0.603                   -2.41041        -179.987         -51.0516         68.1878         -51.0488         68.3496       -0.0198424         143.879
0.604                   -2.46836         179.311         -50.9708          65.446         -50.9695         65.5971       -0.0200515         143.801
0.605                   -2.52771         178.612         -50.8905         62.7092         -50.8908         62.8496       -0.0202633         143.723
0.606                    -2.5884         177.915         -50.8108         59.9775         -50.8126         60.1077       -0.0204779         143.645
0.607                   -2.65038         177.222         -50.7315         57.2513         -50.7349         57.3714       -0.0206953         143.566
0.608                   -2.71358         176.534         -50.6528         54.5308         -50.6576         54.6411       -0.0209156         143.488
0.609                   -2.77793         175.849         -50.5745         51.8162         -50.5807          51.917       -0.0211387         143.409
0.61                    -2.84333         175.169         -50.4965         49.1076          -50.504         49.1993       -0.0213648          143.33
0.611                    -2.9097         174.494         -50.4189         46.4052         -50.4277         46.4881       -0.0215938         143.251
0.612                   -2.97692         173.824         -50.3416         43.7091         -50.3516         43.7837       -0.0218259         143.171
0.613                    -3.0449         173.159         -50.2646         41.0195         -50.2756         41.0862        -0.022061         143.091
0.614                   -3.11353           172.5         -50.1877         38.3363         -50.1998         38.3956       -0.0222992         143.011
0.615                   -3.18269         171.846         -50.1111         35.6598         -50.1242         35.7121       -0.0225405         142.931
0.616                   -3.25227         171.197         -50.0347         32.9898         -50.0486         33.0356        -0.022785         142.851
0.617                   -3.32217         170.552         -49.9584         30.3265          -49.973         30.3662       -0.0230327          142.77
0.618                   -3.39229         169.912         -49.8822         27.6698         -49.8975          27.704       -0.0232837         142.689
0.619                   -3.46252         169.276         -49.8062         25.0197          -49.822         25.0488       -0.0235379         142.608
0.62                     -3.5328         168.643         -49.7302         22.3762         -49.7465         22.4006       -0.0237954         142.527
0.621                   -3.60303         168.012         -49.6543         19.7391          -49.671         19.7594       -0.0240563         142.446
0.622                   -3.67317         167.384         -49.5784         17.1085         -49.5953         17.1251       -0.0243206         142.364
0.623                   -3.74315         166.756         -49.5025         14.4843         -49.5196         14.4976       -0.0245883         142.282
0.624                   -3.81295         166.129         -49.4267         11.8662         -49.4439         11.8768       -0.0248594         142.199
0.625                   -3.88255         165.501         -49.3508         9.25432          -49.368         9.26245       -0.0251341         142.117
0.626                   -3.95195         164.872          -49.275          6.6484          -49.292         6.65452       -0.0254122         142.034
0.627                   -4.02115         164.241         -49.1992         4.04833          -49.216          4.0528        -0.025694         141.951
0.628                   -4.09018         163.606         -49.1233         1.45395         -49.1398         1.45712       -0.0259793         141.868
0.629                   -4.15908         162.967         -49.0474         -1.1349         -49.0635        -1.13272       -0.0262683         141.784
