! TOUCHSTONE file generated by CST MICROWAVE STUDIO
! Date and time: Mon Oct 26 12:07:26 2020
! Project name: Scenario_1_Circular_Tissue_out_of_Line_v2.cst
! Parameters = {dy1=-17.3; L_HA=400; MT=2.54; Rad_Dielectric=30; Rad_Lower=7.3; Rad_Upper=30; a_HA=580; a_WG=246; b_HA=500; b_WG=121; c_HA=0; c_WG=187; d_feed=85; dx1=173; h_feed=15; h_lower=18; h_upper=40}
! Header version: 2018
! Port assignment regex: !\s*Touchstone port\s*([0-9]+)\s*=\s*(CST MWS port|CST DS port)\s*([0-9]+|Zmin|Zmax)\s*\(\"(.*)\"\)(\s*mode\s*([0-9]+))?.*
! Touchstone port assignment:
! Touchstone port 1 = CST MWS port 1 ("")
! Touchstone port 2 = CST MWS port 2 ("")
# GHz S DB R 50
0.5                    -0.101641        -122.483          -56.532         130.888         -56.5317         130.888      -0.00731646         151.108
0.501                  -0.105276        -122.931         -56.3338             130         -56.3335             130      -0.00736734         151.042
0.502                  -0.109142        -123.383         -56.1343         129.099          -56.134         129.099      -0.00741869         150.977
0.503                  -0.113251        -123.838         -55.9335         128.185         -55.9332         128.184      -0.00747053         150.911
0.504                  -0.117619        -124.297         -55.7314         127.256         -55.7312         127.256       -0.0075229         150.846
0.505                   -0.12226        -124.759         -55.5281         126.314         -55.5278         126.314      -0.00757581          150.78
0.506                  -0.127192        -125.224         -55.3235         125.357         -55.3233         125.356       -0.0076293         150.714
0.507                   -0.13243        -125.694         -55.1178         124.385         -55.1175         124.384      -0.00768341         150.648
0.508                  -0.137992        -126.167         -54.9108         123.397         -54.9106         123.397      -0.00773815         150.583
0.509                  -0.143895        -126.643         -54.7027         122.394         -54.7024         122.394      -0.00779357         150.517
0.51                   -0.150158        -127.123         -54.4934         121.375         -54.4932         121.375      -0.00784972         150.451
0.511                  -0.156801        -127.607          -54.283          120.34         -54.2828         120.339      -0.00790663         150.384
0.512                  -0.163842        -128.094         -54.0716         119.287         -54.0714         119.287      -0.00796436         150.318
0.513                  -0.171302        -128.584         -53.8591         118.217         -53.8589         118.217      -0.00802294         150.252
0.514                  -0.179202        -129.079         -53.6457          117.13         -53.6455         117.129      -0.00808245         150.185
0.515                  -0.187564        -129.576         -53.4312         116.024          -53.431         116.023      -0.00814293         150.119
0.516                  -0.196411        -130.078         -53.2159         114.899         -53.2157         114.899      -0.00820446         150.052
0.517                  -0.205764        -130.582         -52.9998         113.756         -52.9996         113.755      -0.00826709         149.986
0.518                  -0.215647         -131.09         -52.7828         112.592         -52.7826         112.592       -0.0083309         149.919
0.519                  -0.226085        -131.601         -52.5652         111.409          -52.565         111.409      -0.00839597         149.852
0.52                     -0.2371        -132.116         -52.3469         110.205         -52.3467         110.205      -0.00846237         149.785
0.521                  -0.248719        -132.634          -52.128         108.981         -52.1278          108.98       -0.0085302         149.718
0.522                  -0.260965        -133.154         -51.9086         107.734         -51.9084         107.734      -0.00859956         149.651
0.523                  -0.273863        -133.678         -51.6887         106.466         -51.6886         106.466      -0.00867053         149.583
0.524                  -0.287439        -134.205         -51.4686         105.176         -51.4685         105.175      -0.00874321         149.516
0.525                  -0.301717        -134.734         -51.2483         103.862         -51.2481         103.862      -0.00881773         149.449
0.526                  -0.316722        -135.266         -51.0278         102.526         -51.0276         102.525      -0.00889419         149.381
0.527                  -0.332478          -135.8         -50.8073         101.166         -50.8071         101.165      -0.00897272         149.313
0.528                  -0.349007        -136.336         -50.5869         99.7813         -50.5868         99.7808      -0.00905343         149.246
0.529                  -0.366333        -136.874         -50.3668         98.3726         -50.3666         98.3721      -0.00913645         149.178
0.53                   -0.384477        -137.414          -50.147          96.939         -50.1469         96.9385      -0.00922192          149.11
0.531                  -0.403459        -137.956         -49.9278         95.4804         -49.9276         95.4799      -0.00930997         149.042
0.532                  -0.423296        -138.499         -49.7092         93.9964          -49.709         93.9959      -0.00940075         148.974
0.533                  -0.444004        -139.043         -49.4914         92.4867         -49.4913         92.4862      -0.00949438         148.905
0.534                  -0.465598        -139.588         -49.2746         90.9512         -49.2745         90.9507      -0.00959102         148.837
0.535                  -0.488087        -140.133          -49.059         89.3898         -49.0588         89.3893       -0.0096908         148.769
0.536                   -0.51148        -140.678         -48.8447         87.8023         -48.8445         87.8018      -0.00979386           148.7
0.537                   -0.53578        -141.223         -48.6318         86.1888         -48.6317         86.1882      -0.00990034         148.631
0.538                  -0.560986        -141.767         -48.4207         84.5492         -48.4206         84.5487       -0.0100104         148.562
0.539                  -0.587096        -142.311         -48.2115         82.8838         -48.2114         82.8833       -0.0101241         148.494
0.54                   -0.614098        -142.853         -48.0044         81.1928         -48.0043         81.1922       -0.0102416         148.425
0.541                  -0.641979        -143.393         -47.7996         79.4764         -47.7995         79.4758       -0.0103629         148.356
0.542                  -0.670719        -143.931         -47.5973         77.7351         -47.5972         77.7345       -0.0104883         148.286
0.543                   -0.70029        -144.467         -47.3977         75.9693         -47.3976         75.9687       -0.0106178         148.217
0.544                  -0.730662        -144.999          -47.201         74.1797         -47.2009         74.1791       -0.0107513         148.148
0.545                  -0.761795        -145.529         -47.0074          72.367         -47.0073         72.3664       -0.0108891         148.078
0.546                  -0.793643        -146.055         -46.8171          70.532          -46.817         70.5314        -0.011031         148.008
0.547                  -0.826156        -146.576         -46.6304         68.6756         -46.6303          68.675       -0.0111771         147.939
0.548                  -0.859274        -147.094         -46.4474         66.7988         -46.4473         66.7982       -0.0113274         147.869
0.549                  -0.892932        -147.606         -46.2682         64.9029         -46.2681         64.9023       -0.0114818         147.799
0.55                   -0.927059        -148.114         -46.0931          62.989          -46.093         62.9883       -0.0116402         147.729
0.551                  -0.961578        -148.617         -45.9222         61.0585         -45.9222         61.0578       -0.0118026         147.659
0.552                  -0.996407        -149.114         -45.7557         59.1129         -45.7557         59.1122       -0.0119688         147.589
0.553                   -1.03146        -149.606         -45.5938         57.1536         -45.5937         57.1529       -0.0121387         147.518
0.554                   -1.06664        -150.092         -45.4364         55.1823         -45.4363         55.1817        -0.012312         147.448
0.555                   -1.10186        -150.573         -45.2837         53.2008         -45.2836         53.2001       -0.0124887         147.378
0.556                   -1.13702        -151.048         -45.1358         51.2106         -45.1358           51.21       -0.0126684         147.307
0.557                   -1.17203        -151.518         -44.9928         49.2137         -44.9928          49.213        -0.012851         147.236
0.558                   -1.20679        -151.982         -44.8547         47.2118         -44.8547         47.2112       -0.0130362         147.165
0.559                   -1.24119        -152.442         -44.7215         45.2068         -44.7215         45.2061       -0.0132237         147.095
0.56                    -1.27516        -152.896         -44.5932         43.2005         -44.5931         43.1998       -0.0134132         147.024
0.561                    -1.3086        -153.346         -44.4698         41.1947         -44.4697          41.194       -0.0136046         146.953
0.562                   -1.34142        -153.793         -44.3512         39.1912         -44.3511         39.1906       -0.0137975         146.881
0.563                   -1.37355        -154.235         -44.2373         37.1919         -44.2373         37.1912       -0.0139916          146.81
0.564                   -1.40492        -154.675         -44.1281         35.1983         -44.1281         35.1977       -0.0141867         146.739
0.565                   -1.43546        -155.113         -44.0235         33.2122         -44.0235         33.2116       -0.0143825         146.667
0.566                   -1.46512        -155.548         -43.9234         31.2352         -43.9234         31.2345       -0.0145788         146.596
0.567                   -1.49385        -155.983         -43.8275         29.2686         -43.8275          29.268       -0.0147754         146.524
0.568                   -1.52162        -156.417         -43.7358          27.314         -43.7358         27.3134        -0.014972         146.452
0.569                    -1.5484        -156.852         -43.6481         25.3725         -43.6481         25.3719       -0.0151685          146.38
0.57                    -1.57417        -157.287         -43.5641         23.4454         -43.5641         23.4449       -0.0153647         146.308
0.571                   -1.59894        -157.724         -43.4838         21.5338         -43.4838         21.5333       -0.0155604         146.236
0.572                   -1.62269        -158.164         -43.4069         19.6386         -43.4069         19.6381       -0.0157555         146.163
0.573                   -1.64544        -158.607         -43.3332         17.7607         -43.3332         17.7602         -0.01595         146.091
0.574                   -1.66722        -159.053         -43.2625         15.9008         -43.2626         15.9003       -0.0161437         146.019
0.575                   -1.68806        -159.504         -43.1947         14.0596         -43.1947         14.0591       -0.0163366         145.946
0.576                   -1.70798         -159.96         -43.1294         12.2375         -43.1294         12.2371       -0.0165286         145.873
0.577                   -1.72703        -160.422         -43.0665          10.435         -43.0666         10.4346       -0.0167197           145.8
0.578                   -1.74527        -160.889         -43.0058         8.65245         -43.0059         8.65205       -0.0169099         145.727
0.579                   -1.76275        -161.364         -42.9471            6.89         -42.9472         6.88963       -0.0170993         145.654
0.58                    -1.77952        -161.846         -42.8902         5.14783         -42.8903         5.14747       -0.0172878          145.58
0.581                   -1.79564        -162.335         -42.8349         3.42596         -42.8349         3.42563       -0.0174755         145.507
0.582                    -1.8112        -162.833          -42.781         1.72439          -42.781         1.72408       -0.0176624         145.433
0.583                   -1.82624        -163.338         -42.7283       0.0430139         -42.7283       0.0427186       -0.0178487         145.359
0.584                   -1.84084        -163.853         -42.6766        -1.61834         -42.6767        -1.61861       -0.0180344         145.285
0.585                   -1.85508        -164.377         -42.6259        -3.25989         -42.6259        -3.26015       -0.0182195         145.211
0.586                   -1.86901         -164.91         -42.5758        -4.88192         -42.5759        -4.88215       -0.0184042         145.137
0.587                   -1.88272        -165.453         -42.5263        -6.48475         -42.5264        -6.48496       -0.0185886         145.062
0.588                   -1.89627        -166.005         -42.4773        -8.06875         -42.4773        -8.06895       -0.0187727         144.988
0.589                   -1.90974        -166.567         -42.4285        -9.63433         -42.4285        -9.63451       -0.0189567         144.913
0.59                    -1.92318         -167.14         -42.3798        -11.1819         -42.3799        -11.1821       -0.0191407         144.838
0.591                   -1.93668        -167.722         -42.3312         -12.712         -42.3313        -12.7122       -0.0193248         144.763
0.592                   -1.95029        -168.315         -42.2825        -14.2251         -42.2826        -14.2252       -0.0195091         144.687
0.593                   -1.96408        -168.918         -42.2336        -15.7216         -42.2337        -15.7217       -0.0196937         144.612
0.594                   -1.97811        -169.532         -42.1844        -17.2022         -42.1845        -17.2023       -0.0198787         144.536
0.595                   -1.99245        -170.156         -42.1348        -18.6673         -42.1349        -18.6674       -0.0200642          144.46
0.596                   -2.00715         -170.79         -42.0848        -20.1176         -42.0848        -20.1177       -0.0202505         144.384
0.597                   -2.02227        -171.436         -42.0341        -21.5535         -42.0342        -21.5536       -0.0204374         144.308
0.598                   -2.03788        -172.091         -41.9829        -22.9757         -41.9829        -22.9758       -0.0206253         144.231
0.599                   -2.05402        -172.757         -41.9309        -24.3847         -41.9309        -24.3847       -0.0208141         144.155
0.6                     -2.07076        -173.434         -41.8781        -25.7811         -41.8782        -25.7811        -0.021004         144.078
0.601                   -2.08813        -174.121         -41.8246        -27.1654         -41.8246        -27.1655       -0.0211951         144.001
0.602                    -2.1062        -174.819         -41.7701        -28.5383         -41.7702        -28.5383       -0.0213876         143.924
0.603                   -2.12502        -175.527         -41.7147        -29.9003         -41.7148        -29.9003       -0.0215814         143.846
0.604                   -2.14463        -176.246         -41.6584         -31.252         -41.6584         -31.252       -0.0217767         143.769
0.605                   -2.16508        -176.976          -41.601        -32.5939          -41.601        -32.5938       -0.0219737         143.691
0.606                   -2.18643        -177.715         -41.5426        -33.9265         -41.5426        -33.9265       -0.0221723         143.613
0.607                   -2.20872        -178.466         -41.4831        -35.2505         -41.4831        -35.2505       -0.0223728         143.535
0.608                   -2.23201        -179.227         -41.4225        -36.5664         -41.4225        -36.5664       -0.0225751         143.456
0.609                   -2.25633        -179.998         -41.3607        -37.8747         -41.3608        -37.8747       -0.0227795         143.377
0.61                    -2.28173          179.22         -41.2979        -39.1759         -41.2979        -39.1759        -0.022986         143.298
0.611                   -2.30827         178.428         -41.2338        -40.4706         -41.2339        -40.4706       -0.0231946         143.219
0.612                     -2.336         177.625         -41.1686        -41.7593         -41.1687        -41.7592       -0.0234055          143.14
0.613                   -2.36496         176.812         -41.1022        -43.0424         -41.1023        -43.0424       -0.0236188          143.06
0.614                   -2.39519         175.988         -41.0346        -44.3205         -41.0347        -44.3205       -0.0238346         142.981
0.615                   -2.42677         175.154         -40.9658        -45.5941         -40.9659         -45.594        -0.024053         142.901
0.616                   -2.45972         174.309         -40.8958        -46.8635         -40.8959        -46.8635        -0.024274          142.82
0.617                   -2.49411         173.454         -40.8247        -48.1294         -40.8247        -48.1294       -0.0244977          142.74
0.618                      -2.53         172.588         -40.7523        -49.3922         -40.7523        -49.3922       -0.0247243         142.659
0.619                   -2.56743         171.712         -40.6787        -50.6523         -40.6787        -50.6523       -0.0249538         142.578
0.62                    -2.60646         170.825         -40.6039        -51.9102         -40.6039        -51.9101       -0.0251863         142.497
0.621                   -2.64716         169.928          -40.528        -53.1662          -40.528        -53.1662       -0.0254219         142.415
0.622                   -2.68958          169.02         -40.4509        -54.4209         -40.4509        -54.4208       -0.0256608         142.334
0.623                   -2.73378         168.102         -40.3726        -55.6746         -40.3726        -55.6746       -0.0259029         142.252
0.624                   -2.77984         167.172         -40.2932        -56.9277         -40.2932        -56.9277       -0.0261485         142.169
0.625                   -2.82781         166.233         -40.2127        -58.1808         -40.2127        -58.1807       -0.0263975         142.087
0.626                   -2.87776         165.282         -40.1311         -59.434         -40.1311         -59.434       -0.0266501         142.004
0.627                   -2.92977         164.322         -40.0485        -60.6879         -40.0485        -60.6879       -0.0269065         141.921
0.628                   -2.98392          163.35         -39.9648        -61.9427         -39.9648        -61.9428       -0.0271666         141.838
0.629                   -3.04027         162.368           -39.88         -63.199           -39.88         -63.199       -0.0274306         141.754
