! TOUCHSTONE file generated by CST MICROWAVE STUDIO
! Date and time: Wed Oct 28 19:37:14 2020
! Project name: Scenario_1_Circular_Tissue_out_of_Line_v2.cst
! Parameters = {dy1=-17.3; L_HA=400; MT=2.54; Rad_Dielectric=30; Rad_Lower=7.3; Rad_Upper=30; a_HA=580; a_WG=246; b_HA=500; b_WG=121; c_HA=0; c_WG=187; d_feed=85; dx1=346; h_feed=15; h_lower=18; h_upper=40}
! Header version: 2018
! Port assignment regex: !\s*Touchstone port\s*([0-9]+)\s*=\s*(CST MWS port|CST DS port)\s*([0-9]+|Zmin|Zmax)\s*\(\"(.*)\"\)(\s*mode\s*([0-9]+))?.*
! Touchstone port assignment:
! Touchstone port 1 = CST MWS port 1 ("")
! Touchstone port 2 = CST MWS port 2 ("")
# GHz S DB R 50
0.5                    -0.177073        -122.321         -58.2292          33.848         -58.2292          33.848      -0.00777935          151.14
0.501                  -0.181725        -122.748         -58.1259          32.597         -58.1267         32.5924      -0.00785193         151.074
0.502                   -0.18647        -123.177         -58.0211         31.3408         -58.0228         31.3318      -0.00792481         151.009
0.503                  -0.191309        -123.609          -57.915         30.0797         -57.9174         30.0662      -0.00799799         150.944
0.504                  -0.196245        -124.043         -57.8075         28.8134         -57.8107         28.7956      -0.00807146         150.879
0.505                  -0.201281        -124.479         -57.6985         27.5422         -57.7024         27.5201      -0.00814523         150.813
0.506                  -0.206419        -124.917         -57.5882          26.266         -57.5928         26.2397      -0.00821928         150.748
0.507                  -0.211662        -125.357         -57.4764         24.9848         -57.4818         24.9544      -0.00829362         150.682
0.508                  -0.217014          -125.8         -57.3633         23.6986         -57.3693         23.6643      -0.00836824         150.616
0.509                  -0.222476        -126.245         -57.2487         22.4075         -57.2554         22.3693      -0.00844315          150.55
0.51                   -0.228052        -126.693         -57.1328         21.1115         -57.1401         21.0695      -0.00851833         150.485
0.511                  -0.233745        -127.143         -57.0155         19.8106         -57.0234         19.7649      -0.00859378         150.419
0.512                   -0.23956        -127.595         -56.8968         18.5047         -56.9053         18.4555      -0.00866952         150.353
0.513                  -0.245499         -128.05         -56.7768          17.194         -56.7859         17.1413      -0.00874552         150.287
0.514                  -0.251566        -128.507         -56.6554         15.8784          -56.665         15.8224       -0.0088218          150.22
0.515                  -0.257765        -128.967         -56.5327         14.5578         -56.5428         14.4986      -0.00889834         150.154
0.516                  -0.264101         -129.43         -56.4086         13.2323         -56.4193         13.1701      -0.00897515         150.088
0.517                  -0.270578        -129.895         -56.2832         11.9019         -56.2944         11.8368      -0.00905223         150.021
0.518                    -0.2772        -130.363         -56.1566         10.5666         -56.1682         10.4986      -0.00912958         149.955
0.519                  -0.283971        -130.833         -56.0286         9.22625         -56.0407         9.15568       -0.0092072         149.888
0.52                   -0.290898        -131.306         -55.8993         7.88092         -55.9118         7.80788      -0.00928508         149.822
0.521                  -0.297985        -131.783         -55.7688         6.53057         -55.7817          6.4552      -0.00936323         149.755
0.522                  -0.305237        -132.261         -55.6371         5.17516         -55.6503         5.09761      -0.00944164         149.688
0.523                  -0.312661        -132.743         -55.5041         3.81466         -55.5177          3.7351      -0.00952032         149.621
0.524                  -0.320261        -133.228         -55.3698         2.44902         -55.3838          2.3676      -0.00959928         149.554
0.525                  -0.328045        -133.715         -55.2344         1.07819         -55.2487        0.995093      -0.00967851         149.487
0.526                  -0.336019        -134.206         -55.0978       -0.297865         -55.1124       -0.382483      -0.00975801          149.42
0.527                  -0.344189          -134.7         -54.9601        -1.67921          -54.975        -1.76518      -0.00983778         149.353
0.528                  -0.352563        -135.197         -54.8212         -3.0659         -54.8363        -3.15304      -0.00991784         149.285
0.529                  -0.361149        -135.697         -54.6811        -4.45799         -54.6965        -4.54614      -0.00999818         149.218
0.53                   -0.369953          -136.2           -54.54        -5.85556         -54.5556        -5.94454       -0.0100788          149.15
0.531                  -0.378984        -136.706         -54.3978        -7.25868         -54.4136         -7.3483       -0.0101597         149.083
0.532                  -0.388251        -137.216         -54.2545        -8.66741         -54.2705         -8.7575        -0.010241         149.015
0.533                  -0.397762        -137.729         -54.1103        -10.0818         -54.1264        -10.1722       -0.0103225         148.947
0.534                  -0.407527        -138.245          -53.965         -11.502         -53.9812        -11.5925       -0.0104044         148.879
0.535                  -0.417555        -138.765         -53.8187        -12.9281         -53.8351        -13.0185       -0.0104865         148.811
0.536                  -0.427857        -139.288         -53.6714        -14.3601         -53.6879        -14.4503        -0.010569         148.743
0.537                  -0.438444        -139.815         -53.5233        -15.7982         -53.5398        -15.8879       -0.0106519         148.675
0.538                  -0.449326        -140.345         -53.3742        -17.2424         -53.3908        -17.3315       -0.0107351         148.606
0.539                  -0.460515        -140.879         -53.2243        -18.6928         -53.2409        -18.7811       -0.0108186         148.538
0.54                   -0.472024        -141.417         -53.0735        -20.1495         -53.0901        -20.2369       -0.0109026         148.469
0.541                  -0.483865        -141.958          -52.922        -21.6127         -52.9385        -21.6989       -0.0109869         148.401
0.542                  -0.496052        -142.503         -52.7696        -23.0824         -52.7861        -23.1672       -0.0110717         148.332
0.543                  -0.508598        -143.052         -52.6165        -24.5587          -52.633        -24.6421       -0.0111569         148.263
0.544                  -0.521517        -143.605         -52.4627        -26.0418         -52.4791        -26.1235       -0.0112425         148.194
0.545                  -0.534826        -144.162         -52.3083        -27.5317         -52.3245        -27.6115       -0.0113286         148.125
0.546                   -0.54854        -144.722         -52.1531        -29.0285         -52.1692        -29.1064       -0.0114151         148.056
0.547                  -0.562676        -145.287         -51.9974        -30.5324         -52.0133        -30.6081       -0.0115022         147.986
0.548                   -0.57725        -145.855         -51.8412        -32.0435         -51.8568        -32.1169       -0.0115899         147.917
0.549                  -0.592282        -146.428         -51.6844        -33.5618         -51.6998        -33.6328        -0.011678         147.847
0.55                   -0.607788        -147.005         -51.5271        -35.0875         -51.5422        -35.1558       -0.0117668         147.778
0.551                  -0.623791        -147.585         -51.3694        -36.6207         -51.3842        -36.6863       -0.0118562         147.708
0.552                  -0.640308         -148.17         -51.2113        -38.1614         -51.2258        -38.2241       -0.0119463         147.638
0.553                  -0.657363        -148.759         -51.0528        -39.7098         -51.0669        -39.7695        -0.012037         147.568
0.554                  -0.674976        -149.353         -50.8941         -41.266         -50.9077        -41.3225       -0.0121285         147.498
0.555                  -0.693172         -149.95         -50.7351        -42.8299         -50.7483        -42.8833       -0.0122207         147.427
0.556                  -0.711972        -150.552         -50.5758        -44.4018         -50.5885        -44.4518       -0.0123137         147.357
0.557                  -0.731404        -151.158         -50.4164        -45.9817         -50.4286        -46.0283       -0.0124076         147.287
0.558                  -0.751491        -151.768         -50.2569        -47.5697         -50.2685        -47.6128       -0.0125024         147.216
0.559                   -0.77226        -152.382         -50.0973        -49.1657         -50.1084        -49.2054       -0.0125982         147.145
0.56                   -0.793739        -153.001         -49.9378          -50.77         -49.9481         -50.806       -0.0126949         147.074
0.561                  -0.815957        -153.624         -49.7782        -52.3824         -49.7879        -52.4149       -0.0127927         147.003
0.562                  -0.838941        -154.251         -49.6188        -54.0032         -49.6277         -54.032       -0.0128916         146.932
0.563                  -0.862723        -154.882         -49.4595        -55.6322         -49.4676        -55.6574       -0.0129917         146.861
0.564                  -0.887334        -155.517         -49.3004        -57.2695         -49.3077        -57.2911        -0.013093         146.789
0.565                  -0.912805        -156.157         -49.1416        -58.9151          -49.148        -58.9332       -0.0131957         146.718
0.566                  -0.939168          -156.8         -48.9831         -60.569         -48.9886        -60.5836       -0.0132997         146.646
0.567                  -0.966457        -157.447          -48.825        -62.2311         -48.8295        -62.2423       -0.0134051         146.574
0.568                  -0.994705        -158.098         -48.6673        -63.9014         -48.6707        -63.9094       -0.0135121         146.502
0.569                   -1.02395        -158.753         -48.5102        -65.5799         -48.5125        -65.5848       -0.0136207          146.43
0.57                    -1.05422        -159.411         -48.3536        -67.2665         -48.3547        -67.2684       -0.0137309         146.357
0.571                   -1.08556        -160.072         -48.1976        -68.9611         -48.1975        -68.9602       -0.0138429         146.285
0.572                   -1.11799        -160.737         -48.0423        -70.6635          -48.041        -70.6601       -0.0139568         146.212
0.573                   -1.15156        -161.405         -47.8878        -72.3737         -47.8851         -72.368       -0.0140726          146.14
0.574                    -1.1863        -162.076          -47.734        -74.0914           -47.73        -74.0838       -0.0141905         146.067
0.575                   -1.22225         -162.75         -47.5811        -75.8166         -47.5756        -75.8073       -0.0143104         145.994
0.576                   -1.25944        -163.426         -47.4292         -77.549         -47.4222        -77.5385       -0.0144326          145.92
0.577                    -1.2979        -164.105         -47.2782        -79.2883         -47.2697         -79.277       -0.0145571         145.847
0.578                   -1.33766        -164.785         -47.1283        -81.0344         -47.1181        -81.0228       -0.0146841         145.774
0.579                   -1.37877        -165.467         -46.9795        -82.7869         -46.9676        -82.7756       -0.0148135           145.7
0.58                    -1.42124         -166.15         -46.8318        -84.5456         -46.8182        -84.5351       -0.0149456         145.626
0.581                   -1.46511        -166.835         -46.6853        -86.3101           -46.67        -86.3011       -0.0150804         145.552
0.582                    -1.5104         -167.52         -46.5401        -88.0801         -46.5229        -88.0733        -0.015218         145.478
0.583                   -1.55713        -168.205         -46.3963        -89.8552         -46.3772        -89.8513       -0.0153585         145.403
0.584                   -1.60532         -168.89         -46.2537        -91.6349         -46.2327        -91.6349       -0.0155021         145.329
0.585                     -1.655        -169.575         -46.1126        -93.4188         -46.0896        -93.4236       -0.0156488         145.254
0.586                   -1.70615        -170.258         -45.9729        -95.2065         -45.9479        -95.2171       -0.0157988         145.179
0.587                   -1.75881         -170.94         -45.8346        -96.9974         -45.8076        -97.0148       -0.0159521         145.104
0.588                   -1.81296        -171.619         -45.6979        -98.7909         -45.6688        -98.8165       -0.0161088         145.029
0.589                   -1.86861        -172.297         -45.5627        -100.586         -45.5316        -100.621        -0.016269         144.954
0.59                    -1.92573        -172.971          -45.429        -102.383         -45.3959        -102.429       -0.0164329         144.878
0.591                   -1.98432        -173.641         -45.2969        -104.181         -45.2617         -104.24       -0.0166005         144.803
0.592                   -2.04435        -174.307         -45.1663        -105.979         -45.1292        -106.051       -0.0167718         144.727
0.593                   -2.10579        -174.968         -45.0372        -107.776         -44.9982        -107.865       -0.0169471         144.651
0.594                   -2.16859        -175.624         -44.9097        -109.572         -44.8689        -109.678       -0.0171263         144.574
0.595                   -2.23271        -176.274         -44.7836        -111.366         -44.7411        -111.491       -0.0173094         144.498
0.596                    -2.2981        -176.918          -44.659        -113.156          -44.615        -113.304       -0.0174967         144.421
0.597                   -2.36468        -177.554         -44.5357        -114.943         -44.4904        -115.115       -0.0176881         144.345
0.598                   -2.43238        -178.184         -44.4137        -116.724         -44.3673        -116.923       -0.0178838         144.268
0.599                   -2.50112        -178.805         -44.2928          -118.5         -44.2458        -118.729       -0.0180836         144.191
0.6                      -2.5708        -179.417          -44.173        -120.269         -44.1256         -120.53       -0.0182878         144.113
0.601                   -2.64133         179.979          -44.054        -122.031         -44.0068        -122.326       -0.0184962         144.036
0.602                   -2.71259         179.384         -43.9355        -123.785         -43.8892        -124.117        -0.018709         143.958
0.603                   -2.78446         178.799         -43.8174        -125.529         -43.7727        -125.901       -0.0189262          143.88
0.604                   -2.85683         178.223         -43.6994        -127.265          -43.657        -127.678       -0.0191478         143.802
0.605                   -2.92957         177.657         -43.5809        -128.991         -43.5421        -129.446       -0.0193737         143.724
0.606                   -3.00253         177.101         -43.4618        -130.708         -43.4277        -131.206        -0.019604         143.645
0.607                   -3.07559         176.555         -43.3413        -132.416         -43.3133        -132.956       -0.0198388         143.566
0.608                    -3.1486         176.018         -43.2192        -134.118         -43.1988        -134.696       -0.0200779         143.487
0.609                   -3.22142         175.491         -43.0947        -135.817         -43.0836        -136.428       -0.0203213         143.408
0.61                     -3.2939         174.973         -42.9675        -137.515         -42.9672         -138.15       -0.0205691         143.329
0.611                   -3.36592         174.465         -42.8372        -139.219         -42.8492        -139.866       -0.0208212         143.249
0.612                   -3.43733         173.964         -42.7034        -140.936          -42.729        -141.578       -0.0210776          143.17
0.613                   -3.50801         173.471         -42.5663        -142.672          -42.606         -143.29       -0.0213383          143.09
0.614                   -3.57783         172.986         -42.4262        -144.437         -42.4799        -145.008       -0.0216032          143.01
0.615                   -3.64668         172.507         -42.2841         -146.24         -42.3502        -146.739       -0.0218722         142.929
0.616                   -3.71446         172.033         -42.1413        -148.087         -42.2172        -148.493       -0.0221454         142.849
0.617                   -3.78106         171.564         -41.9995        -149.983         -42.0814        -150.279       -0.0224227         142.768
0.618                   -3.84642         171.099         -41.8607        -151.928          -41.944        -152.107       -0.0227041         142.687
0.619                   -3.91046         170.637         -41.7269        -153.917         -41.8066        -153.984       -0.0229895         142.605
0.62                    -3.97312         170.176         -41.5998        -155.944         -41.6716        -155.913       -0.0232788         142.524
0.621                   -4.03438         169.715         -41.4806        -157.997         -41.5412        -157.891       -0.0235721         142.442
0.622                   -4.09421         169.254         -41.3698        -160.063         -41.4178        -159.911       -0.0238692          142.36
0.623                   -4.15259         168.792         -41.2674        -162.129         -41.3028        -161.959       -0.0241703         142.278
0.624                   -4.20955         168.326         -41.1729        -164.187          -41.197        -164.021       -0.0244751         142.196
0.625                   -4.26509         167.857         -41.0853        -166.226         -41.1002         -166.08       -0.0247838         142.113
0.626                   -4.31927         167.382         -41.0037        -168.241         -41.0118        -168.125       -0.0250962          142.03
0.627                   -4.37212         166.901         -40.9269        -170.228         -40.9305        -170.145       -0.0254124         141.947
0.628                   -4.42371         166.412         -40.8539        -172.187          -40.855        -172.136       -0.0257323         141.863
0.629                   -4.47412         165.916         -40.7839        -174.116         -40.7839        -174.093       -0.0260559         141.779
