! TOUCHSTONE file generated by CST MICROWAVE STUDIO
! Date and time: Fri Oct 30 07:55:35 2020
! Project name: Scenario_1_Circular_Tissue_out_of_Line.cst
! Parameters = {dy1=-16.521; L_HA=400; MT=2.54; Rad_Dielectric=30; Rad_Lower=7.3; Rad_Upper=30; a_HA=580; a_WG=246; b_HA=500; b_WG=121; c_HA=0; c_WG=187; d_feed=85; dx1=520; h_feed=15; h_lower=18; h_upper=40}
! Header version: 2018
! Port assignment regex: !\s*Touchstone port\s*([0-9]+)\s*=\s*(CST MWS port|CST DS port)\s*([0-9]+|Zmin|Zmax)\s*\(\"(.*)\"\)(\s*mode\s*([0-9]+))?.*
! Touchstone port assignment:
! Touchstone port 1 = CST MWS port 1 ("")
! Touchstone port 2 = CST MWS port 2 ("")
# GHz S DB R 50
0.5                     -0.13037        -122.471         -60.9069        -59.8513         -60.9817        -59.7906      -0.00739186         151.135
0.501                  -0.140575        -122.929         -60.9668        -60.5854         -60.9103        -61.2895      -0.00746258          151.07
0.502                   -0.15095        -123.387         -61.0254        -61.2942         -60.8344        -62.7939      -0.00753414         151.004
0.503                  -0.161492        -123.846         -61.0824        -61.9738         -60.7539        -64.3034      -0.00760656         150.939
0.504                  -0.172199        -124.305         -61.1373        -62.6199         -60.6688        -65.8179      -0.00767985         150.874
0.505                  -0.183067        -124.765         -61.1899        -63.2279          -60.579        -67.3369      -0.00775401         150.808
0.506                  -0.194094        -125.225         -61.2395        -63.7925         -60.4844        -68.8603      -0.00782904         150.742
0.507                  -0.205277        -125.686         -61.2854        -64.3081         -60.3851        -70.3877      -0.00790496         150.676
0.508                  -0.216613        -126.148          -61.327        -64.7685          -60.281        -71.9192      -0.00798178         150.611
0.509                    -0.2281         -126.61         -61.3632        -65.1671         -60.1719        -73.4546      -0.00805951         150.545
0.51                   -0.239735        -127.073         -61.3927        -65.4969          -60.058        -74.9939      -0.00813815         150.479
0.511                  -0.251515        -127.537         -61.4143        -65.7506         -59.9391        -76.5371       -0.0082177         150.413
0.512                  -0.263437        -128.002         -61.4261        -65.9208         -59.8152        -78.0844      -0.00829819         150.347
0.513                  -0.275499        -128.467          -61.426        -66.0003         -59.6863        -79.6361      -0.00837962          150.28
0.514                  -0.287698        -128.933         -61.4114        -65.9824         -59.5524        -81.1923        -0.008462         150.214
0.515                  -0.300032          -129.4         -61.3794        -65.8615         -59.4134        -82.7535      -0.00854534         150.148
0.516                  -0.312499        -129.868         -61.3263        -65.6341         -59.2694        -84.3203      -0.00862964         150.081
0.517                  -0.325096        -130.337         -61.2481        -65.2994         -59.1203        -85.8932      -0.00871492         150.015
0.518                  -0.337821        -130.806         -61.1398        -64.8611         -58.9661        -87.4731      -0.00880118         149.948
0.519                  -0.350671        -131.277         -60.9964        -64.3286         -58.8069        -89.0607      -0.00888844         149.881
0.52                   -0.363645        -131.748         -60.8119        -63.7187         -58.6427        -90.6571      -0.00897671         149.815
0.521                  -0.376741        -132.221         -60.5806        -63.0576         -58.4734        -92.2633      -0.00906598         149.748
0.522                  -0.389956        -132.694         -60.2965        -62.3824         -58.2993        -93.8808      -0.00915628         149.681
0.523                  -0.403289        -133.169         -59.9544        -61.7422         -58.1202        -95.5108      -0.00924761         149.614
0.524                  -0.416738        -133.645           -59.55        -61.1984         -57.9363         -97.155      -0.00933999         149.546
0.525                  -0.430302        -134.122         -59.0808        -60.8243         -57.7478        -98.8149      -0.00943341         149.479
0.526                  -0.443978          -134.6         -58.5463         -60.703         -57.5546        -100.493       -0.0095279         149.412
0.527                  -0.457766        -135.079         -57.9491        -60.9245         -57.3571         -102.19      -0.00962346         149.345
0.528                  -0.471664         -135.56         -57.2948        -61.5822         -57.1552        -103.909      -0.00972009         149.277
0.529                  -0.485671        -136.042         -56.5927        -62.7676         -56.9494        -105.651      -0.00981782         149.209
0.53                   -0.499787        -136.525         -55.8562        -64.5647         -56.7398         -107.42      -0.00991665         149.142
0.531                  -0.514009         -137.01         -55.1024        -67.0426         -56.5268        -109.218       -0.0100166         149.074
0.532                  -0.528338        -137.496         -54.3528        -70.2458         -56.3107        -111.046       -0.0101176         149.006
0.533                  -0.542774        -137.984         -53.6319        -74.1827         -56.0918        -112.907       -0.0102198         148.938
0.534                  -0.557314        -138.473         -52.9658        -78.8136         -55.8707        -114.804       -0.0103231          148.87
0.535                  -0.571961        -138.964         -52.3797        -84.0426         -55.6479        -116.738       -0.0104276         148.802
0.536                  -0.586713        -139.457         -51.8936        -89.7189          -55.424        -118.712       -0.0105332         148.734
0.537                   -0.60157        -139.951          -51.519         -95.653         -55.1995        -120.727         -0.01064         148.665
0.538                  -0.616534        -140.447         -51.2571        -101.644         -54.9752        -122.785       -0.0107479         148.597
0.539                  -0.631605        -140.945         -51.0989        -107.511         -54.7518        -124.887       -0.0108571         148.528
0.54                   -0.646783        -141.445         -51.0286        -113.116         -54.5301        -127.033       -0.0109674          148.46
0.541                   -0.66207        -141.947         -51.0267        -118.373         -54.3111        -129.223       -0.0110789         148.391
0.542                  -0.677468        -142.451         -51.0744        -123.244         -54.0954        -131.456       -0.0111916         148.322
0.543                  -0.692977        -142.957         -51.1547        -127.727          -53.884        -133.731       -0.0113055         148.253
0.544                    -0.7086        -143.465         -51.2539        -131.842         -53.6778        -136.046       -0.0114206         148.184
0.545                  -0.724338        -143.976         -51.3618        -135.623         -53.4776        -138.397        -0.011537         148.115
0.546                  -0.740196        -144.488         -51.4708        -139.109         -53.2842        -140.781       -0.0116545         148.046
0.547                  -0.756174        -145.004         -51.5757        -142.338         -53.0982        -143.194       -0.0117733         147.976
0.548                  -0.772277        -145.521         -51.6732        -145.346         -52.9205        -145.629       -0.0118933         147.907
0.549                  -0.788508        -146.041          -51.761        -148.165         -52.7513        -148.081       -0.0120146         147.837
0.55                   -0.804871        -146.564         -51.8381        -150.822         -52.5912        -150.544       -0.0121371         147.768
0.551                   -0.82137        -147.089         -51.9037        -153.343         -52.4403         -153.01       -0.0122609         147.698
0.552                   -0.83801        -147.618         -51.9577        -155.746         -52.2987        -155.474       -0.0123858         147.628
0.553                  -0.854796        -148.148         -52.0004        -158.049         -52.1663        -157.928       -0.0125121         147.558
0.554                  -0.871734        -148.682         -52.0319        -160.267          -52.043        -160.366       -0.0126395         147.488
0.555                  -0.888829        -149.219         -52.0529        -162.411         -51.9282        -162.781       -0.0127682         147.417
0.556                  -0.906089        -149.759         -52.0637        -164.493         -51.8217        -165.169       -0.0128982         147.347
0.557                   -0.92352        -150.302         -52.0649        -166.519         -51.7226        -167.525       -0.0130294         147.276
0.558                   -0.94113        -150.849          -52.057        -168.499         -51.6305        -169.843       -0.0131618         147.206
0.559                  -0.958927        -151.399         -52.0406        -170.437         -51.5444        -172.121       -0.0132954         147.135
0.56                   -0.976921        -151.952         -52.0161         -172.34         -51.4638        -174.356       -0.0134302         147.064
0.561                  -0.995119        -152.509         -51.9842        -174.212         -51.3877        -176.547       -0.0135662         146.993
0.562                   -1.01353        -153.069         -51.9452        -176.056         -51.3154        -178.693       -0.0137035         146.922
0.563                   -1.03217        -153.633         -51.8996        -177.876         -51.2461         179.208       -0.0138419         146.851
0.564                   -1.05105        -154.201         -51.8479        -179.675         -51.1792         177.154       -0.0139814          146.78
0.565                   -1.07018        -154.773         -51.7903         178.544         -51.1138         175.145       -0.0141221         146.708
0.566                   -1.08957        -155.349         -51.7273          176.78         -51.0495          173.18       -0.0142639         146.637
0.567                   -1.10924         -155.93         -51.6593         175.031         -50.9856         171.256       -0.0144069         146.565
0.568                   -1.12919        -156.514         -51.5865         173.294         -50.9215         169.372       -0.0145509         146.493
0.569                   -1.14946        -157.103         -51.5092         171.568          -50.857         167.526        -0.014696         146.421
0.57                    -1.17005        -157.696         -51.4278         169.852         -50.7914         165.716       -0.0148421         146.349
0.571                   -1.19098        -158.293         -51.3424         168.145         -50.7246         163.938       -0.0149892         146.277
0.572                   -1.21227        -158.895         -51.2534         166.445         -50.6562          162.19       -0.0151374         146.204
0.573                   -1.23394        -159.502          -51.161         164.751         -50.5859         160.471       -0.0152864         146.132
0.574                     -1.256        -160.114         -51.0653         163.064         -50.5137         158.777       -0.0154365         146.059
0.575                   -1.27849        -160.731         -50.9666         161.381         -50.4393         157.105       -0.0155874         145.986
0.576                   -1.30143        -161.353         -50.8652         159.702         -50.3625         155.455       -0.0157392         145.913
0.577                   -1.32483         -161.98          -50.761         158.026         -50.2835         153.822       -0.0158918          145.84
0.578                   -1.34872        -162.612         -50.6545         156.353          -50.202         152.206       -0.0160452         145.767
0.579                   -1.37314        -163.249         -50.5456         154.681          -50.118         150.604       -0.0161995         145.693
0.58                    -1.39811        -163.892         -50.4345         153.012         -50.0316         149.013       -0.0163545          145.62
0.581                   -1.42365        -164.541         -50.3215         151.343         -49.9427         147.433       -0.0165102         145.546
0.582                   -1.44981        -165.195         -50.2066         149.674         -49.8515         145.861       -0.0166666         145.472
0.583                    -1.4766        -165.854           -50.09         148.005         -49.7578         144.296       -0.0168237         145.398
0.584                   -1.50408        -166.519         -49.9717         146.336         -49.6618         142.736       -0.0169815         145.324
0.585                   -1.53226        -167.191          -49.852         144.665         -49.5636          141.18         -0.01714          145.25
0.586                    -1.5612        -167.868         -49.7309         142.993         -49.4632         139.626       -0.0172992         145.176
0.587                   -1.59092        -168.551         -49.6085         141.319         -49.3607         138.073       -0.0174589         145.101
0.588                   -1.62147         -169.24          -49.485         139.643         -49.2562          136.52       -0.0176194         145.026
0.589                    -1.6529        -169.935         -49.3604         137.965         -49.1497         134.967       -0.0177806         144.951
0.59                    -1.68524        -170.636         -49.2348         136.283         -49.0414         133.411       -0.0179424         144.876
0.591                   -1.71854        -171.343         -49.1084         134.598         -48.9314         131.852        -0.018105         144.801
0.592                   -1.75284        -172.056         -48.9811          132.91         -48.8197          130.29       -0.0182684         144.725
0.593                   -1.78821        -172.775         -48.8532         131.218         -48.7064         128.723       -0.0184327         144.649
0.594                   -1.82468          -173.5         -48.7247         129.522         -48.5917         127.151       -0.0185978         144.574
0.595                   -1.86232        -174.232         -48.5957         127.822         -48.4757         125.573       -0.0187639         144.498
0.596                   -1.90117        -174.969         -48.4662         126.117         -48.3584         123.989       -0.0189311         144.421
0.597                   -1.94129        -175.712         -48.3364         124.408         -48.2399         122.397       -0.0190994         144.345
0.598                   -1.98274        -176.461         -48.2063         122.693         -48.1204         120.799        -0.019269         144.268
0.599                   -2.02557        -177.216         -48.0759         120.974         -47.9999         119.192       -0.0194399         144.192
0.6                     -2.06985        -177.976         -47.9454         119.249         -47.8785         117.578       -0.0196124         144.114
0.601                   -2.11564        -178.742         -47.8148         117.519         -47.7564         115.955       -0.0197865         144.037
0.602                   -2.16299        -179.513         -47.6843         115.784         -47.6336         114.323       -0.0199624          143.96
0.603                   -2.21198         179.711         -47.5537         114.042         -47.5102         112.682       -0.0201403         143.882
0.604                   -2.26266          178.93         -47.4234         112.295         -47.3863         111.032       -0.0203202         143.804
0.605                    -2.3151         178.145         -47.2932         110.543         -47.2621         109.372       -0.0205024         143.726
0.606                   -2.36935         177.355         -47.1632         108.784         -47.1375         107.703        -0.020687         143.648
0.607                   -2.42549         176.561         -47.0336         107.019         -47.0127         106.024       -0.0208743          143.57
0.608                   -2.48358         175.764         -46.9043         105.249         -46.8878         104.336       -0.0210642         143.491
0.609                   -2.54367         174.963         -46.7755         103.473         -46.7628         102.638       -0.0212571         143.412
0.61                    -2.60583          174.16         -46.6472          101.69         -46.6379          100.93       -0.0214531         143.333
0.611                   -2.67012         173.354         -46.5194         99.9022          -46.513         99.2127       -0.0216524         143.254
0.612                   -2.73659         172.546         -46.3922         98.1082         -46.3884         97.4856       -0.0218551         143.174
0.613                   -2.80529         171.737         -46.2656         96.3084         -46.2641          95.749       -0.0220614         143.094
0.614                   -2.87628         170.927         -46.1397          94.503         -46.1401          94.003       -0.0222714         143.014
0.615                   -2.94959         170.118         -46.0146          92.692         -46.0165         92.2477       -0.0224853         142.934
0.616                   -3.02528         169.308         -45.8903         90.8755         -45.8934         90.4834       -0.0227032         142.853
0.617                   -3.10338           168.5         -45.7668         89.0537         -45.7709         88.7102       -0.0229252         142.773
0.618                   -3.18391         167.694         -45.6442         87.2268          -45.649         86.9284       -0.0231515         142.692
0.619                   -3.26691         166.891         -45.5225         85.3948         -45.5278         85.1382       -0.0233822          142.61
0.62                    -3.35238         166.091         -45.4017         83.5581         -45.4073         83.3398       -0.0236174         142.529
0.621                   -3.44035         165.295         -45.2819         81.7167         -45.2877         81.5337       -0.0238572         142.447
0.622                    -3.5308         164.504         -45.1632         79.8709         -45.1689           79.72       -0.0241017         142.365
0.623                   -3.62374         163.719         -45.0455          78.021          -45.051         77.8992       -0.0243509         142.283
0.624                   -3.71914         162.941         -44.9288         76.1672         -44.9341         76.0716        -0.024605         142.201
0.625                   -3.81698         162.171         -44.8133         74.3097         -44.8181         74.2375       -0.0248641         142.118
0.626                   -3.91721         161.409         -44.6989         72.4488         -44.7032         72.3974       -0.0251281         142.035
0.627                    -4.0198         160.657         -44.5856         70.5848         -44.5894         70.5516       -0.0253973         141.952
0.628                   -4.12468         159.915         -44.4735          68.718         -44.4767         68.7006       -0.0256715         141.868
0.629                   -4.23177         159.185         -44.3625         66.8486         -44.3651         66.8448        -0.025951         141.784
