! TOUCHSTONE file generated by CST MICROWAVE STUDIO
! Date and time: Wed Oct 28 19:17:16 2020
! Project name: Scenario_1_Circular_Tissue_out_of_Line.cst
! Parameters = {dy1=-16.521; L_HA=400; MT=2.54; Rad_Dielectric=30; Rad_Lower=7.3; Rad_Upper=30; a_HA=580; a_WG=246; b_HA=500; b_WG=121; c_HA=0; c_WG=187; d_feed=85; dx1=693; h_feed=15; h_lower=18; h_upper=40}
! Header version: 2018
! Port assignment regex: !\s*Touchstone port\s*([0-9]+)\s*=\s*(CST MWS port|CST DS port)\s*([0-9]+|Zmin|Zmax)\s*\(\"(.*)\"\)(\s*mode\s*([0-9]+))?.*
! Touchstone port assignment:
! Touchstone port 1 = CST MWS port 1 ("")
! Touchstone port 2 = CST MWS port 2 ("")
# GHz S DB R 50
0.5                    -0.155427        -122.269         -61.9479        -166.358         -61.9479        -166.358      -0.00770367         151.105
0.501                  -0.154536        -122.751         -61.8551        -168.264         -61.8551        -168.264      -0.00774263          151.04
0.502                  -0.154134        -123.234         -61.7584         -170.17         -61.7583         -170.17        -0.007783         150.974
0.503                  -0.154227         -123.72         -61.6577        -172.077         -61.6576        -172.077      -0.00782478         150.909
0.504                  -0.154816        -124.207         -61.5532        -173.984         -61.5531        -173.984      -0.00786797         150.844
0.505                  -0.155906        -124.696         -61.4451        -175.889          -61.445        -175.889      -0.00791259         150.778
0.506                    -0.1575        -125.187         -61.3333        -177.793         -61.3332        -177.793      -0.00795864         150.712
0.507                  -0.159601         -125.68          -61.218        -179.694         -61.2179        -179.694      -0.00800611         150.647
0.508                  -0.162212        -126.175         -61.0993         178.407         -61.0992         178.407      -0.00805502         150.581
0.509                  -0.165334        -126.671         -60.9774         176.512         -60.9772         176.512      -0.00810538         150.515
0.51                   -0.168971        -127.169         -60.8523          174.62         -60.8521          174.62      -0.00815717         150.449
0.511                  -0.173125        -127.668         -60.7241         172.732         -60.7239         172.732      -0.00821041         150.383
0.512                  -0.177796        -128.169         -60.5931         170.848         -60.5929         170.848      -0.00826511         150.317
0.513                  -0.182986        -128.672         -60.4592         168.968          -60.459         168.968      -0.00832127          150.25
0.514                  -0.188697        -129.176         -60.3228         167.092         -60.3225         167.092      -0.00837889         150.184
0.515                  -0.194928        -129.681         -60.1837         165.221         -60.1835         165.221      -0.00843797         150.118
0.516                  -0.201682        -130.188         -60.0423         163.354         -60.0421         163.355      -0.00849853         150.051
0.517                  -0.208957        -130.696         -59.8986         161.492         -59.8983         161.492      -0.00856056         149.984
0.518                  -0.216755        -131.205         -59.7527         159.634         -59.7525         159.635      -0.00862408         149.918
0.519                  -0.225073        -131.715         -59.6048         157.781         -59.6045         157.781      -0.00868908         149.851
0.52                   -0.233913        -132.227          -59.455         155.931         -59.4547         155.932      -0.00875557         149.784
0.521                  -0.243272        -132.739         -59.3034         154.086         -59.3031         154.086      -0.00882355         149.717
0.522                   -0.25315        -133.253         -59.1501         152.244         -59.1498         152.244      -0.00889304          149.65
0.523                  -0.263545        -133.768         -58.9952         150.405         -58.9949         150.406      -0.00896403         149.583
0.524                  -0.274455        -134.283         -58.8389          148.57         -58.8386          148.57      -0.00903653         149.516
0.525                  -0.285878          -134.8         -58.6813         146.737          -58.681         146.738      -0.00911054         149.449
0.526                  -0.297811        -135.317         -58.5224         144.907         -58.5221         144.907      -0.00918607         149.381
0.527                  -0.310251        -135.835         -58.3623         143.078          -58.362         143.079      -0.00926313         149.314
0.528                  -0.323196        -136.354         -58.2013         141.252          -58.201         141.252      -0.00934171         149.246
0.529                  -0.336641        -136.874         -58.0393         139.426          -58.039         139.427      -0.00942183         149.178
0.53                   -0.350584        -137.394         -57.8765         137.601         -57.8762         137.602      -0.00950348         149.111
0.531                   -0.36502        -137.915         -57.7129         135.777         -57.7126         135.778      -0.00958669         149.043
0.532                  -0.379944        -138.437         -57.5487         133.952         -57.5484         133.953      -0.00967144         148.975
0.533                  -0.395353        -138.959         -57.3839         132.127         -57.3836         132.128      -0.00975774         148.907
0.534                  -0.411242        -139.481         -57.2186           130.3         -57.2184         130.301       -0.0098456         148.839
0.535                  -0.427604        -140.005          -57.053         128.472         -57.0527         128.473      -0.00993503          148.77
0.536                  -0.444436        -140.529         -56.8871         126.642         -56.8868         126.643        -0.010026         148.702
0.537                   -0.46173        -141.053         -56.7209         124.809         -56.7206          124.81       -0.0101186         148.634
0.538                  -0.479482        -141.577         -56.5546         122.973         -56.5543         122.974       -0.0102128         148.565
0.539                  -0.497685        -142.102         -56.3882         121.133         -56.3879         121.134       -0.0103085         148.496
0.54                   -0.516332        -142.628         -56.2218         119.289         -56.2215         119.291       -0.0104058         148.428
0.541                  -0.535418        -143.154         -56.0555         117.441         -56.0552         117.442       -0.0105048         148.359
0.542                  -0.554935         -143.68         -55.8893         115.587         -55.8891         115.588       -0.0106053          148.29
0.543                  -0.574876        -144.206         -55.7234         113.728         -55.7232         113.729       -0.0107075         148.221
0.544                  -0.595234        -144.733         -55.5578         111.863         -55.5576         111.864       -0.0108112         148.152
0.545                  -0.616001         -145.26         -55.3926         109.991         -55.3924         109.992       -0.0109166         148.082
0.546                  -0.637171        -145.788         -55.2278         108.112         -55.2276         108.113       -0.0110237         148.013
0.547                  -0.658735        -146.316         -55.0636         106.225         -55.0633         106.226       -0.0111323         147.943
0.548                  -0.680686        -146.844         -54.8999         104.331         -54.8997         104.332       -0.0112426         147.874
0.549                  -0.703015        -147.372         -54.7369         102.428         -54.7366         102.429       -0.0113546         147.804
0.55                   -0.725715        -147.901         -54.5746         100.516         -54.5744         100.517       -0.0114682         147.734
0.551                  -0.748777         -148.43         -54.4131         98.5958         -54.4129         98.5969       -0.0115835         147.664
0.552                  -0.772194         -148.96         -54.2525         96.6657         -54.2523         96.6668       -0.0117004         147.594
0.553                  -0.795956         -149.49         -54.0928         94.7259         -54.0926         94.7269       -0.0118191         147.524
0.554                  -0.820056         -150.02         -53.9341         92.7759         -53.9339         92.7769       -0.0119394         147.454
0.555                  -0.844485         -150.55         -53.7765         90.8155         -53.7763         90.8165       -0.0120614         147.383
0.556                  -0.869235        -151.082           -53.62         88.8444         -53.6198         88.8454       -0.0121851         147.313
0.557                  -0.894299        -151.613         -53.4648         86.8624         -53.4646         86.8634       -0.0123106         147.242
0.558                  -0.919666        -152.145         -53.3108         84.8692         -53.3106         84.8702       -0.0124377         147.171
0.559                   -0.94533        -152.678         -53.1582         82.8647          -53.158         82.8657       -0.0125666           147.1
0.56                   -0.971283        -153.211          -53.007         80.8488         -53.0068         80.8497       -0.0126972         147.029
0.561                  -0.997515        -153.745         -52.8572         78.8212         -52.8571         78.8221       -0.0128296         146.958
0.562                   -1.02402         -154.28         -52.7091         76.7819         -52.7089         76.7828       -0.0129637         146.887
0.563                   -1.05079        -154.815         -52.5625         74.7309         -52.5624         74.7318       -0.0130996         146.815
0.564                   -1.07782        -155.352         -52.4176          72.668         -52.4175         72.6689       -0.0132373         146.744
0.565                    -1.1051        -155.889         -52.2745         70.5934         -52.2744         70.5943       -0.0133767         146.672
0.566                   -1.13262        -156.427         -52.1332         68.5071          -52.133         68.5079        -0.013518           146.6
0.567                   -1.16039        -156.966         -51.9937         66.4091         -51.9936         66.4099        -0.013661         146.528
0.568                   -1.18838        -157.506         -51.8561         64.2995          -51.856         64.3003       -0.0138059         146.456
0.569                    -1.2166        -158.048         -51.7205         62.1786         -51.7205         62.1794       -0.0139526         146.384
0.57                    -1.24503        -158.591          -51.587         60.0465         -51.5869         60.0472       -0.0141012         146.312
0.571                   -1.27369        -159.135         -51.4555         57.9034         -51.4554         57.9041       -0.0142516         146.239
0.572                   -1.30255        -159.681         -51.3261         55.7495         -51.3261         55.7502       -0.0144039         146.166
0.573                   -1.33162        -160.229         -51.1989         53.5853         -51.1989          53.586       -0.0145581         146.094
0.574                    -1.3609        -160.778         -51.0739         51.4109         -51.0739         51.4116       -0.0147141         146.021
0.575                   -1.39038        -161.329         -50.9512         49.2269         -50.9511         49.2275       -0.0148721         145.948
0.576                   -1.42005        -161.882         -50.8307         47.0334         -50.8307          47.034        -0.015032         145.874
0.577                   -1.44993        -162.437         -50.7125         44.8311         -50.7125         44.8316       -0.0151938         145.801
0.578                      -1.48        -162.995         -50.5966         42.6202         -50.5966         42.6207       -0.0153576         145.728
0.579                   -1.51027        -163.554          -50.483         40.4014          -50.483         40.4019       -0.0155233         145.654
0.58                    -1.54074        -164.117         -50.3718          38.175         -50.3718         38.1755        -0.015691          145.58
0.581                   -1.57141        -164.682          -50.263         35.9417         -50.2629         35.9421       -0.0158607         145.506
0.582                   -1.60229         -165.25         -50.1564          33.702         -50.1564         33.7024       -0.0160325         145.432
0.583                   -1.63338        -165.821         -50.0522         31.4563         -50.0522         31.4567       -0.0162062         145.358
0.584                   -1.66469        -166.395         -49.9504         29.2054         -49.9504         29.2058        -0.016382         145.283
0.585                   -1.69621        -166.972         -49.8508         26.9498         -49.8508         26.9501       -0.0165599         145.209
0.586                   -1.72797        -167.553         -49.7535           24.69         -49.7535         24.6903       -0.0167399         145.134
0.587                   -1.75998        -168.137         -49.6585         22.4268         -49.6585         22.4271       -0.0169219         145.059
0.588                   -1.79223        -168.726         -49.5657         20.1607         -49.5657         20.1609       -0.0171061         144.984
0.589                   -1.82475        -169.318         -49.4751         17.8922         -49.4751         17.8925       -0.0172925         144.909
0.59                    -1.85755        -169.915         -49.3866         15.6221         -49.3866         15.6223        -0.017481         144.833
0.591                   -1.89065        -170.516         -49.3002          13.351         -49.3002         13.3511       -0.0176717         144.758
0.592                   -1.92406        -171.122         -49.2158         11.0793         -49.2158         11.0795       -0.0178646         144.682
0.593                    -1.9578        -171.732         -49.1334         8.80781         -49.1334         8.80792       -0.0180597         144.606
0.594                   -1.99191        -172.348         -49.0528         6.53699         -49.0529         6.53708       -0.0182572          144.53
0.595                   -2.02639        -172.969         -48.9741         4.26745         -48.9742          4.2675       -0.0184568         144.454
0.596                   -2.06128        -173.595         -48.8972         1.99972         -48.8972         1.99976       -0.0186588         144.377
0.597                   -2.09661        -174.227         -48.8219       -0.265639          -48.822       -0.265633       -0.0188632         144.301
0.598                   -2.13241        -174.865         -48.7483        -2.52813         -48.7483        -2.52814       -0.0190698         144.224
0.599                   -2.16871        -175.508         -48.6761        -4.78723         -48.6761        -4.78728       -0.0192789         144.147
0.6                     -2.20555        -176.158         -48.6054        -7.04249         -48.6054        -7.04255       -0.0194904          144.07
0.601                   -2.24297        -176.815          -48.536        -9.29343          -48.536        -9.29352       -0.0197043         143.992
0.602                     -2.281        -177.478         -48.4679        -11.5396         -48.4679        -11.5397       -0.0199207         143.915
0.603                    -2.3197        -178.148         -48.4009        -13.7807         -48.4009        -13.7808       -0.0201397         143.837
0.604                   -2.35912        -178.824          -48.335        -16.0161          -48.335        -16.0163       -0.0203611         143.759
0.605                    -2.3993        -179.508           -48.27        -18.2457           -48.27        -18.2459       -0.0205851         143.681
0.606                   -2.44029           179.8          -48.206         -20.469          -48.206        -20.4692       -0.0208118         143.602
0.607                   -2.48216         179.102         -48.1427        -22.6858         -48.1427         -22.686        -0.021041         143.524
0.608                   -2.52497         178.395         -48.0801        -24.8957         -48.0801        -24.8959        -0.021273         143.445
0.609                   -2.56877         177.681         -48.0181        -27.0984         -48.0182        -27.0987       -0.0215076         143.366
0.61                    -2.61364         176.959         -47.9567        -29.2938         -47.9567        -29.2941        -0.021745         143.287
0.611                   -2.65965          176.23         -47.8957        -31.4816         -47.8957        -31.4818       -0.0219852         143.207
0.612                   -2.70687         175.492          -47.835        -33.6615          -47.835        -33.6618       -0.0222282         143.128
0.613                   -2.75537         174.746         -47.7746        -35.8335         -47.7746        -35.8338       -0.0224741         143.048
0.614                   -2.80523         173.992         -47.7143        -37.9973         -47.7143        -37.9976       -0.0227229         142.968
0.615                   -2.85654          173.23         -47.6542        -40.1528         -47.6542        -40.1531       -0.0229747         142.887
0.616                   -2.90938          172.46          -47.594        -42.2999          -47.594        -42.3002       -0.0232294         142.807
0.617                   -2.96383         171.682         -47.5338        -44.4384         -47.5338        -44.4388       -0.0234872         142.726
0.618                   -3.01999         170.896         -47.4735        -46.5684         -47.4735        -46.5687       -0.0237481         142.645
0.619                   -3.07795         170.103         -47.4129        -48.6896         -47.4129          -48.69       -0.0240121         142.564
0.62                     -3.1378         169.302         -47.3521        -50.8022         -47.3521        -50.8025       -0.0242794         142.482
0.621                   -3.19964         168.494          -47.291        -52.9059          -47.291        -52.9063       -0.0245498           142.4
0.622                   -3.26356         167.678         -47.2294        -55.0009         -47.2294        -55.0013       -0.0248236         142.318
0.623                   -3.32965         166.856         -47.1674         -57.087         -47.1674        -57.0874       -0.0251008         142.236
0.624                   -3.39801         166.027         -47.1049        -59.1644         -47.1049        -59.1648       -0.0253813         142.154
0.625                   -3.46875         165.192         -47.0418        -61.2329         -47.0418        -61.2333       -0.0256653         142.071
0.626                   -3.54194         164.352         -46.9781        -63.2927         -46.9781        -63.2931       -0.0259529         141.988
0.627                    -3.6177         163.506         -46.9138        -65.3438         -46.9137        -65.3442        -0.026244         141.905
0.628                    -3.6961         162.656         -46.8487        -67.3862         -46.8487        -67.3866       -0.0265388         141.821
0.629                   -3.77723         161.802          -46.783          -69.42         -46.7829        -69.4203       -0.0268373         141.737
