! TOUCHSTONE file generated by CST MICROWAVE STUDIO
! Date and time: Mon Oct 26 12:31:31 2020
! Project name: Scenario_1_Circular_Tissue_out_of_Line.cst
! Parameters = {dy1=-16.521; L_HA=400; MT=2.54; Rad_Dielectric=30; Rad_Lower=7.3; Rad_Upper=30; a_HA=580; a_WG=246; b_HA=500; b_WG=121; c_HA=0; c_WG=187; d_feed=85; dx1=866; h_feed=15; h_lower=18; h_upper=40}
! Header version: 2018
! Port assignment regex: !\s*Touchstone port\s*([0-9]+)\s*=\s*(CST MWS port|CST DS port)\s*([0-9]+|Zmin|Zmax)\s*\(\"(.*)\"\)(\s*mode\s*([0-9]+))?.*
! Touchstone port assignment:
! Touchstone port 1 = CST MWS port 1 ("")
! Touchstone port 2 = CST MWS port 2 ("")
# GHz S DB R 50
0.5                    -0.142712        -122.457         -62.5855          99.526         -62.5855          99.526      -0.00743506         151.134
0.501                  -0.148229        -122.924         -62.4997         98.3676         -62.4995         98.3667      -0.00749834         151.069
0.502                  -0.153988        -123.393         -62.4126         97.1905         -62.4121         97.1888      -0.00756251         151.003
0.503                  -0.159994        -123.863         -62.3242         95.9944         -62.3235         95.9918      -0.00762759         150.938
0.504                  -0.166248        -124.336         -62.2343          94.779         -62.2334         94.7755      -0.00769357         150.872
0.505                  -0.172754         -124.81         -62.1431         93.5439          -62.142         93.5395      -0.00776046         150.807
0.506                  -0.179515        -125.286         -62.0505         92.2887         -62.0491         92.2835      -0.00782826         150.741
0.507                  -0.186533        -125.764         -61.9564         91.0132         -61.9548         91.0071      -0.00789699         150.675
0.508                  -0.193813        -126.243         -61.8608          89.717         -61.8589         89.7101      -0.00796664         150.609
0.509                  -0.201357        -126.725         -61.7637         88.3996         -61.7616         88.3919      -0.00803722         150.544
0.51                   -0.209168        -127.208         -61.6649         87.0609         -61.6626         87.0524      -0.00810874         150.478
0.511                  -0.217249        -127.693         -61.5646         85.7004          -61.562          85.691      -0.00818119         150.411
0.512                  -0.225604        -128.179         -61.4626         84.3177         -61.4598         84.3075      -0.00825459         150.345
0.513                  -0.234236        -128.668          -61.359         82.9124          -61.356         82.9015      -0.00832895         150.279
0.514                  -0.243147        -129.158         -61.2536         81.4843         -61.2503         81.4727      -0.00840426         150.213
0.515                  -0.252342        -129.651         -61.1465         80.0329          -61.143         80.0205      -0.00848053         150.146
0.516                  -0.261823        -130.145         -61.0376         78.5579         -61.0338         78.5447      -0.00855777          150.08
0.517                  -0.271594        -130.641         -60.9269         77.0589         -60.9229          77.045      -0.00863599         150.013
0.518                  -0.281658        -131.138         -60.8142         75.5354           -60.81         75.5208      -0.00871519         149.947
0.519                  -0.292017        -131.638         -60.6998         73.9872         -60.6953         73.9719      -0.00879537          149.88
0.52                   -0.302677        -132.139         -60.5833         72.4138         -60.5787         72.3978      -0.00887655         149.813
0.521                  -0.313639        -132.642         -60.4649          70.815         -60.4601         70.7983      -0.00895873         149.746
0.522                  -0.324906        -133.147         -60.3446         69.1902         -60.3395         69.1728      -0.00904191         149.679
0.523                  -0.336483        -133.654         -60.2222         67.5391         -60.2168          67.521      -0.00912611         149.612
0.524                  -0.348373        -134.162         -60.0977         65.8613         -60.0922         65.8426      -0.00921133         149.545
0.525                  -0.360579        -134.672         -59.9712         64.1565         -59.9655         64.1372      -0.00929758         149.478
0.526                  -0.373103        -135.184         -59.8426         62.4243         -59.8366         62.4044      -0.00938486          149.41
0.527                  -0.385951        -135.698         -59.7119         60.6643         -59.7057         60.6438      -0.00947318         149.343
0.528                  -0.399124        -136.214          -59.579         58.8761         -59.5727          58.855      -0.00956255         149.275
0.529                  -0.412626        -136.731          -59.444         57.0594         -59.4375         57.0378      -0.00965298         149.208
0.53                   -0.426461        -137.251         -59.3069         55.2139         -59.3001         55.1917      -0.00974447          149.14
0.531                  -0.440632        -137.772         -59.1676         53.3391         -59.1606         53.3163      -0.00983702         149.072
0.532                  -0.455142        -138.295         -59.0261         51.4348          -59.019         51.4114      -0.00993065         149.004
0.533                  -0.469994        -138.819         -58.8825         49.5005         -58.8752         49.4767       -0.0100254         148.936
0.534                  -0.485193        -139.346         -58.7367          47.536         -58.7292         47.5116       -0.0101212         148.868
0.535                   -0.50074        -139.874         -58.5888         45.5409         -58.5811         45.5161       -0.0102181           148.8
0.536                  -0.516641        -140.404         -58.4388          43.515          -58.431         43.4897       -0.0103161         148.732
0.537                  -0.532897        -140.936         -58.2867          41.458         -58.2787         41.4322       -0.0104152         148.663
0.538                  -0.549512        -141.469         -58.1325         39.3695         -58.1244         39.3432       -0.0105154         148.595
0.539                   -0.56649        -142.005         -57.9763         37.2493         -57.9681         37.2226       -0.0106167         148.526
0.54                   -0.583834        -142.542         -57.8182         35.0973         -57.8099         35.0701       -0.0107191         148.458
0.541                  -0.601548        -143.081         -57.6582          32.913         -57.6497         32.8854       -0.0108226         148.389
0.542                  -0.619634        -143.621         -57.4963         30.6965         -57.4878         30.6684       -0.0109273          148.32
0.543                  -0.638095        -144.164         -57.3327         28.4474         -57.3241          28.419        -0.011033         148.251
0.544                  -0.656936        -144.708         -57.1674         26.1657         -57.1587         26.1369       -0.0111398         148.182
0.545                   -0.67616        -145.253         -57.0006         23.8513         -56.9918         23.8221       -0.0112478         148.113
0.546                  -0.695769        -145.801         -56.8322         21.5041         -56.8234         21.4745       -0.0113567         148.043
0.547                  -0.715767         -146.35         -56.6626         19.1241         -56.6537         19.0941       -0.0114667         147.974
0.548                  -0.736157        -146.902         -56.4917         16.7113         -56.4828          16.681       -0.0115777         147.904
0.549                  -0.756943        -147.454         -56.3197         14.2657         -56.3108         14.2351       -0.0116897         147.834
0.55                   -0.778128        -148.009         -56.1468         11.7876         -56.1379         11.7566       -0.0118026         147.765
0.551                  -0.799715        -148.565         -55.9731         9.27708         -55.9643         9.24582       -0.0119163         147.695
0.552                  -0.821707        -149.123         -55.7989         6.73441           -55.79         6.70286       -0.0120307         147.625
0.553                  -0.844108        -149.683         -55.6241         4.15993         -55.6154         4.12811       -0.0121457         147.554
0.554                   -0.86692        -150.244         -55.4492         1.55402         -55.4405         1.52197       -0.0122611         147.484
0.555                  -0.890147        -150.807         -55.2742        -1.08282         -55.2656        -1.11509       -0.0123767         147.414
0.556                  -0.913792        -151.372         -55.0994        -3.75003         -55.0908        -3.78248       -0.0124922         147.343
0.557                  -0.937858        -151.939         -54.9249        -6.44694         -54.9165        -6.47955       -0.0126073         147.272
0.558                  -0.962349        -152.507         -54.7511        -9.17279         -54.7428        -9.20553       -0.0127214         147.201
0.559                  -0.987266        -153.077         -54.5781        -11.9267         -54.5699        -11.9596        -0.012834          147.13
0.56                    -1.01261        -153.649         -54.4061        -14.7078          -54.398        -14.7407       -0.0129441         147.059
0.561                    -1.0384        -154.222         -54.2354         -17.515         -54.2275        -17.5478       -0.0130506         146.988
0.562                   -1.06462        -154.797         -54.0662         -20.347         -54.0585        -20.3798       -0.0131521         146.916
0.563                   -1.09127        -155.374         -53.8987        -23.2026         -53.8912        -23.2354       -0.0132465         146.845
0.564                   -1.11838        -155.952         -53.7332        -26.0805         -53.7259        -26.1131       -0.0133314         146.773
0.565                   -1.14592        -156.532         -53.5698        -28.9791         -53.5627        -29.0115       -0.0134032         146.701
0.566                   -1.17392        -157.114         -53.4088        -31.8968          -53.402         -31.929        -0.013458         146.629
0.567                   -1.20237        -157.698         -53.2504         -34.832         -53.2438        -34.8638        -0.013491         146.557
0.568                   -1.23127        -158.283         -53.0948        -37.7828         -53.0884        -37.8143       -0.0134976         146.484
0.569                   -1.26063         -158.87         -52.9421        -40.7474          -52.936        -40.7785       -0.0134745         146.412
0.57                    -1.29046        -159.458         -52.7925        -43.7239         -52.7866        -43.7544       -0.0134236          146.34
0.571                   -1.32075        -160.049         -52.6461        -46.7102         -52.6405        -46.7402        -0.013355         146.268
0.572                    -1.3515         -160.64         -52.5031        -49.7044         -52.4978        -49.7337       -0.0132906         146.196
0.573                   -1.38273        -161.234         -52.3636        -52.7043         -52.3585         -52.733       -0.0132609         146.125
0.574                   -1.41442        -161.829         -52.2276        -55.7079         -52.2228        -55.7358       -0.0132942         146.053
0.575                    -1.4466        -162.426         -52.0952        -58.7131         -52.0907        -58.7402       -0.0134039         145.982
0.576                   -1.47925        -163.025         -51.9664        -61.7177         -51.9622         -61.744       -0.0135835         145.911
0.577                   -1.51239        -163.625         -51.8413        -64.7198         -51.8374        -64.7451       -0.0138134         145.839
0.578                   -1.54601        -164.228         -51.7199        -67.7173         -51.7162        -67.7417       -0.0140717         145.766
0.579                   -1.58013        -164.831         -51.6021        -70.7083         -51.5986        -70.7317       -0.0143409         145.694
0.58                    -1.61473        -165.437         -51.4878        -73.6909         -51.4846        -73.7132       -0.0146099          145.62
0.581                   -1.64983        -166.044         -51.3771        -76.6632         -51.3741        -76.6844       -0.0148727         145.547
0.582                   -1.68543        -166.653         -51.2697        -79.6237          -51.267        -79.6438       -0.0151271         145.473
0.583                   -1.72153        -167.264         -51.1657        -82.5707         -51.1633        -82.5896       -0.0153727         145.399
0.584                   -1.75814        -167.877          -51.065        -85.5027         -51.0627        -85.5204         -0.01561         145.325
0.585                   -1.79525        -168.491         -50.9672        -88.4184         -50.9652        -88.4349       -0.0158401         145.251
0.586                   -1.83288        -169.107         -50.8725        -91.3165         -50.8706        -91.3318       -0.0160641         145.176
0.587                   -1.87102        -169.726         -50.7805         -94.196         -50.7789        -94.2101       -0.0162832         145.101
0.588                   -1.90968        -170.345         -50.6911        -97.0558         -50.6897        -97.0687       -0.0164983         145.026
0.589                   -1.94887        -170.967         -50.6042        -99.8952          -50.603        -99.9069       -0.0167104         144.951
0.59                    -1.98858        -171.591         -50.5197        -102.713         -50.5185        -102.724       -0.0169201         144.876
0.591                   -2.02883        -172.216         -50.4372         -105.51         -50.4362        -105.519       -0.0171282         144.801
0.592                   -2.06961        -172.843         -50.3567        -108.284         -50.3559        -108.292       -0.0173351         144.725
0.593                   -2.11093        -173.473          -50.278        -111.036         -50.2773        -111.043       -0.0175414         144.649
0.594                   -2.15279        -174.104         -50.2009        -113.765         -50.2003        -113.771       -0.0177474         144.573
0.595                    -2.1952        -174.737         -50.1252        -116.471         -50.1248        -116.476       -0.0179536         144.497
0.596                   -2.23817        -175.373         -50.0508        -119.154         -50.0505        -119.158       -0.0181601         144.421
0.597                    -2.2817         -176.01         -49.9776        -121.815         -49.9774        -121.817       -0.0183673         144.344
0.598                   -2.32579         -176.65         -49.9054        -124.452         -49.9052        -124.454       -0.0185753         144.267
0.599                   -2.37045        -177.291         -49.8339        -127.068         -49.8339        -127.068       -0.0187845         144.191
0.6                     -2.41568        -177.935         -49.7632        -129.661         -49.7632        -129.661       -0.0189949         144.114
0.601                    -2.4615        -178.581         -49.6931        -132.232         -49.6931        -132.231       -0.0192067         144.036
0.602                   -2.50791        -179.229         -49.6234        -134.782         -49.6235        -134.781       -0.0194201         143.959
0.603                   -2.55491         -179.88          -49.554        -137.312         -49.5542        -137.309       -0.0196351         143.881
0.604                   -2.60252         179.467         -49.4849        -139.821         -49.4851        -139.818        -0.019852         143.803
0.605                   -2.65073         178.812         -49.4158         -142.31         -49.4161        -142.307       -0.0200708         143.725
0.606                   -2.69956         178.154         -49.3468        -144.781         -49.3471        -144.776       -0.0202917         143.647
0.607                   -2.74903         177.493         -49.2777        -147.233         -49.2781        -147.228       -0.0205146         143.569
0.608                   -2.79912          176.83         -49.2085        -149.667         -49.2089        -149.661       -0.0207398          143.49
0.609                   -2.84987         176.165         -49.1391        -152.084         -49.1395        -152.078       -0.0209673         143.411
0.61                    -2.90127         175.496         -49.0695        -154.484         -49.0698        -154.478       -0.0211973         143.332
0.611                   -2.95334         174.825         -48.9995        -156.869         -48.9998        -156.862       -0.0214296         143.253
0.612                   -3.00609         174.151         -48.9291        -159.239         -48.9295        -159.232       -0.0216646         143.173
0.613                   -3.05954         173.474         -48.8583        -161.595         -48.8587        -161.587       -0.0219022         143.094
0.614                   -3.11369         172.794          -48.787        -163.936         -48.7874        -163.928       -0.0221425         143.014
0.615                   -3.16856          172.11         -48.7153        -166.265         -48.7157        -166.257       -0.0223855         142.934
0.616                   -3.22417         171.424          -48.643        -168.582         -48.6434        -168.574       -0.0226315         142.853
0.617                   -3.28054         170.734         -48.5702        -170.887         -48.5706        -170.879       -0.0228804         142.773
0.618                   -3.33767         170.041         -48.4969        -173.182         -48.4973        -173.173       -0.0231323         142.692
0.619                    -3.3956         169.344          -48.423        -175.466         -48.4234        -175.457       -0.0233873         142.611
0.62                    -3.45434         168.644         -48.3486        -177.741         -48.3489        -177.732       -0.0236455         142.529
0.621                   -3.51392          167.94         -48.2736         179.993         -48.2739        -179.998       -0.0239069         142.448
0.622                   -3.57436         167.232          -48.198         177.735         -48.1983         177.744       -0.0241716         142.366
0.623                   -3.63568          166.52         -48.1219         175.484         -48.1222         175.494       -0.0244397         142.284
0.624                   -3.69791         165.803         -48.0452         173.241         -48.0455          173.25       -0.0247113         142.202
0.625                   -3.76109         165.083         -47.9681         171.004         -47.9683         171.013       -0.0249864         142.119
0.626                   -3.82524         164.359         -47.8904         168.773         -47.8906         168.782       -0.0252652         142.036
0.627                    -3.8904         163.629         -47.8122         166.547         -47.8125         166.556       -0.0255476         141.953
0.628                   -3.95661         162.896         -47.7336         164.326         -47.7338         164.335       -0.0258339          141.87
0.629                    -4.0239         162.157         -47.6545         162.109         -47.6547         162.118        -0.026124         141.786
