! TOUCHSTONE file generated by CST MICROWAVE STUDIO
! Date and time: Sat Oct 24 11:46:50 2020
! Project name: Scenario_1_Circular_Tissue_out_of_Line.cst
! Parameters = {dy1=-16.521; L_HA=400; MT=2.54; Rad_Dielectric=30; Rad_Lower=7.3; Rad_Upper=30; a_HA=580; a_WG=246; b_HA=500; b_WG=121; c_HA=0; c_WG=187; d_feed=85; dx1=1039; h_feed=15; h_lower=18; h_upper=40}
! Header version: 2018
! Port assignment regex: !\s*Touchstone port\s*([0-9]+)\s*=\s*(CST MWS port|CST DS port)\s*([0-9]+|Zmin|Zmax)\s*\(\"(.*)\"\)(\s*mode\s*([0-9]+))?.*
! Touchstone port assignment:
! Touchstone port 1 = CST MWS port 1 ("")
! Touchstone port 2 = CST MWS port 2 ("")
# GHz S DB R 50
0.5                    -0.146686        -122.236         -63.1449        -2.62611         -63.1435        -2.62588      -0.00764418         151.132
0.501                  -0.154022        -122.705         -62.9987        -4.47846         -62.9973        -4.47808      -0.00769833         151.067
0.502                  -0.161607        -123.175         -62.8504        -6.35117         -62.8491        -6.35065       -0.0077536         151.002
0.503                  -0.169442        -123.646         -62.7001        -8.24451         -62.6989        -8.24385      -0.00781001         150.936
0.504                  -0.177526        -124.119         -62.5477        -10.1587         -62.5466         -10.158      -0.00786755         150.871
0.505                  -0.185858        -124.592         -62.3934        -12.0942         -62.3924        -12.0932      -0.00792623         150.805
0.506                   -0.19444        -125.066         -62.2372         -14.051         -62.2362          -14.05      -0.00798605         150.739
0.507                  -0.203269        -125.541          -62.079        -16.0296         -62.0781        -16.0285      -0.00804701         150.674
0.508                  -0.212345        -126.018         -61.9189        -18.0302         -61.9181         -18.029      -0.00810913         150.608
0.509                  -0.221668        -126.495         -61.7571        -20.0531         -61.7563        -20.0518       -0.0081724         150.542
0.51                   -0.231238        -126.973         -61.5934        -22.0986         -61.5927        -22.0972      -0.00823683         150.476
0.511                  -0.241052        -127.452         -61.4281         -24.167         -61.4274        -24.1655      -0.00830242          150.41
0.512                  -0.251111        -127.932         -61.2611        -26.2585         -61.2604        -26.2569      -0.00836917         150.344
0.513                  -0.261415        -128.414         -61.0925        -28.3734         -61.0919        -28.3717       -0.0084371         150.277
0.514                  -0.271961        -128.896         -60.9224        -30.5121         -60.9218        -30.5103       -0.0085062         150.211
0.515                  -0.282749        -129.379         -60.7508        -32.6746         -60.7503        -32.6728      -0.00857648         150.145
0.516                  -0.293778        -129.863         -60.5779        -34.8614         -60.5775        -34.8595      -0.00864795         150.078
0.517                  -0.305047        -130.349         -60.4038        -37.0725         -60.4034        -37.0706       -0.0087206         150.012
0.518                  -0.316556        -130.835         -60.2285        -39.3084         -60.2281        -39.3064      -0.00879445         149.945
0.519                  -0.328302        -131.322         -60.0522        -41.5691         -60.0519         -41.567       -0.0088695         149.878
0.52                   -0.340286         -131.81          -59.875        -43.8548         -59.8746        -43.8527      -0.00894576         149.811
0.521                  -0.352505          -132.3         -59.6969        -46.1657         -59.6966        -46.1635      -0.00902322         149.744
0.522                  -0.364958         -132.79         -59.5182        -48.5019          -59.518        -48.4997       -0.0091019         149.677
0.523                  -0.377645        -133.281          -59.339        -50.8635         -59.3387        -50.8613       -0.0091818          149.61
0.524                  -0.390564        -133.774         -59.1593        -53.2506         -59.1591        -53.2483      -0.00926293         149.543
0.525                  -0.403714        -134.267         -58.9795        -55.6631         -58.9793        -55.6609       -0.0093453         149.476
0.526                  -0.417092        -134.762         -58.7995        -58.1011         -58.7993        -58.0988       -0.0094289         149.409
0.527                  -0.430699        -135.258         -58.6196        -60.5644         -58.6194        -60.5622      -0.00951375         149.341
0.528                  -0.444531        -135.755           -58.44         -63.053         -58.4398        -63.0507      -0.00959986         149.274
0.529                  -0.458589        -136.252         -58.2607        -65.5665         -58.2606        -65.5643      -0.00968722         149.206
0.53                    -0.47287        -136.751         -58.0821        -68.1048          -58.082        -68.1026      -0.00977585         149.138
0.531                  -0.487373        -137.252         -57.9042        -70.6676         -57.9041        -70.6653      -0.00986575         149.071
0.532                  -0.502096        -137.753         -57.7273        -73.2543         -57.7272        -73.2521      -0.00995693         149.003
0.533                  -0.517037        -138.256         -57.5516        -75.8645         -57.5515        -75.8624       -0.0100494         148.935
0.534                  -0.532196        -138.759         -57.3771        -78.4978          -57.377        -78.4957       -0.0101432         148.867
0.535                  -0.547569        -139.264         -57.2042        -81.1533         -57.2041        -81.1513       -0.0102382         148.798
0.536                  -0.563157        -139.771          -57.033        -83.8305         -57.0328        -83.8285       -0.0103346          148.73
0.537                  -0.578956        -140.278         -56.8636        -86.5284         -56.8635        -86.5265       -0.0104323         148.662
0.538                  -0.594966        -140.787         -56.6963        -89.2463         -56.6962        -89.2445       -0.0105313         148.593
0.539                  -0.611185        -141.297         -56.5312         -91.983         -56.5311        -91.9813       -0.0106317         148.525
0.54                    -0.62761        -141.809         -56.3685        -94.7376         -56.3683         -94.736       -0.0107334         148.456
0.541                  -0.644241        -142.322         -56.2084         -97.509         -56.2081        -97.5074       -0.0108364         148.387
0.542                  -0.661076        -142.836         -56.0509        -100.296         -56.0506        -100.294       -0.0109408         148.318
0.543                  -0.678113        -143.352         -55.8962        -103.097         -55.8959        -103.095       -0.0110466         148.249
0.544                   -0.69535        -143.869         -55.7445        -105.911         -55.7442        -105.909       -0.0111537          148.18
0.545                  -0.712786        -144.388         -55.5958        -108.736         -55.5955        -108.735       -0.0112623         148.111
0.546                  -0.730421        -144.908         -55.4502        -111.571         -55.4499         -111.57       -0.0113722         148.042
0.547                  -0.748251         -145.43         -55.3078        -114.415         -55.3075        -114.414       -0.0114835         147.972
0.548                  -0.766276        -145.954         -55.1687        -117.266         -55.1683        -117.265       -0.0115962         147.903
0.549                  -0.784496         -146.48         -55.0329        -120.122         -55.0325        -120.122       -0.0117103         147.833
0.55                   -0.802908        -147.007         -54.9004        -122.982            -54.9        -122.982       -0.0118259         147.763
0.551                  -0.821511        -147.536         -54.7713        -125.844         -54.7708        -125.844       -0.0119429         147.693
0.552                  -0.840306        -148.067         -54.6454        -128.708          -54.645        -128.708       -0.0120613         147.623
0.553                  -0.859291          -148.6         -54.5229         -131.57         -54.5224        -131.571       -0.0121812         147.553
0.554                  -0.878467        -149.135         -54.4036        -134.431         -54.4031        -134.431       -0.0123025         147.483
0.555                  -0.897832        -149.672         -54.2874        -137.288         -54.2869        -137.288       -0.0124253         147.413
0.556                  -0.917387        -150.211         -54.1744         -140.14         -54.1739        -140.141       -0.0125496         147.342
0.557                  -0.937132        -150.752         -54.0644        -142.986         -54.0639        -142.987       -0.0126753         147.272
0.558                  -0.957069        -151.296         -53.9573        -145.825         -53.9567        -145.826       -0.0128025         147.201
0.559                  -0.977198        -151.842         -53.8529        -148.655         -53.8523        -148.656       -0.0129312          147.13
0.56                    -0.99752        -152.391         -53.7512        -151.476         -53.7506        -151.477       -0.0130614         147.059
0.561                   -1.01804        -152.942          -53.652        -154.286         -53.6514        -154.288        -0.013193         146.988
0.562                   -1.03875        -153.496         -53.5552        -157.085         -53.5546        -157.087       -0.0133262         146.917
0.563                   -1.05967        -154.053         -53.4606        -159.872           -53.46        -159.874       -0.0134608         146.846
0.564                   -1.08079        -154.612          -53.368        -162.647         -53.3674        -162.649        -0.013597         146.774
0.565                   -1.10213        -155.175         -53.2773        -165.408         -53.2767        -165.411       -0.0137346         146.703
0.566                   -1.12367        -155.741         -53.1884        -168.156         -53.1878        -168.159       -0.0138737         146.631
0.567                   -1.14544        -156.309          -53.101         -170.89         -53.1004        -170.893       -0.0140142         146.559
0.568                   -1.16743        -156.882          -53.015         -173.61         -53.0144        -173.613       -0.0141563         146.487
0.569                   -1.18966        -157.458         -52.9303        -176.316         -52.9297        -176.318       -0.0142997         146.415
0.57                    -1.21214        -158.037         -52.8466        -179.007          -52.846         -179.01       -0.0144447         146.343
0.571                   -1.23487         -158.62         -52.7639         178.316         -52.7633         178.313        -0.014591         146.271
0.572                   -1.25786        -159.207         -52.6819         175.653         -52.6813         175.651       -0.0147388         146.198
0.573                   -1.28114        -159.799         -52.6005         173.004         -52.5999         173.002       -0.0148879         146.126
0.574                   -1.30472        -160.394         -52.5196         170.369          -52.519         170.367       -0.0150384         146.053
0.575                   -1.32861        -160.994         -52.4391         167.748         -52.4385         167.745       -0.0151902          145.98
0.576                   -1.35283        -161.599         -52.3587         165.139         -52.3581         165.137       -0.0153433         145.907
0.577                    -1.3774        -162.208         -52.2785         162.544         -52.2779         162.541       -0.0154977         145.834
0.578                   -1.40236        -162.822         -52.1982          159.96         -52.1976         159.958       -0.0156533         145.761
0.579                   -1.42771        -163.442         -52.1178         157.388         -52.1172         157.386       -0.0158102         145.687
0.58                    -1.45351        -164.066         -52.0372         154.827         -52.0366         154.825       -0.0159681         145.613
0.581                   -1.47976        -164.696         -51.9563         152.277         -51.9557         152.274       -0.0161272          145.54
0.582                   -1.50653        -165.332          -51.875         149.736         -51.8744         149.734       -0.0162874         145.466
0.583                   -1.53383        -165.973         -51.7932         147.205         -51.7926         147.202       -0.0164486         145.392
0.584                   -1.56171        -166.621         -51.7109         144.682         -51.7103          144.68       -0.0166108         145.317
0.585                   -1.59023        -167.275          -51.628         142.167         -51.6274         142.165        -0.016774         145.243
0.586                   -1.61944        -167.935         -51.5445         139.659         -51.5439         139.657       -0.0169382         145.168
0.587                   -1.64938        -168.601         -51.4603         137.157         -51.4597         137.156       -0.0171033         145.094
0.588                   -1.68012        -169.274         -51.3754         134.662         -51.3748          134.66       -0.0172694         145.019
0.589                   -1.71172        -169.954         -51.2898         132.171         -51.2892         132.169       -0.0174365         144.944
0.59                    -1.74426         -170.64         -51.2034         129.684         -51.2029         129.683       -0.0176046         144.869
0.591                    -1.7778        -171.333         -51.1163         127.201         -51.1158           127.2       -0.0177737         144.793
0.592                   -1.81243        -172.033         -51.0285         124.721         -51.0279          124.72        -0.017944         144.718
0.593                   -1.84823         -172.74         -50.9399         122.243         -50.9394         122.242       -0.0181155         144.642
0.594                   -1.88529        -173.454         -50.8507         119.766         -50.8501         119.765       -0.0182883         144.566
0.595                    -1.9237        -174.174         -50.7607         117.291         -50.7602          117.29       -0.0184626          144.49
0.596                   -1.96355        -174.901         -50.6701         114.815         -50.6696         114.814       -0.0186385         144.413
0.597                   -2.00494        -175.633         -50.5789         112.339         -50.5783         112.338       -0.0188162         144.337
0.598                   -2.04797        -176.372         -50.4871         109.862         -50.4865         109.862       -0.0189959          144.26
0.599                   -2.09274        -177.116         -50.3948         107.384         -50.3942         107.383       -0.0191777         144.183
0.6                     -2.13933        -177.865          -50.302         104.903         -50.3014         104.903       -0.0193619         144.106
0.601                   -2.18785        -178.619         -50.2088          102.42         -50.2083         102.419       -0.0195486         144.029
0.602                   -2.23839        -179.376         -50.1153         99.9335         -50.1148         99.9331       -0.0197381         143.951
0.603                   -2.29102         179.863         -50.0216         97.4437          -50.021         97.4435       -0.0199305         143.874
0.604                   -2.34582         179.101         -49.9276         94.9502         -49.9271           94.95       -0.0201261         143.796
0.605                   -2.40285         178.337         -49.8336         92.4526          -49.833         92.4524       -0.0203249         143.718
0.606                   -2.46216         177.572         -49.7395         89.9506          -49.739         89.9505        -0.020527         143.639
0.607                   -2.52378         176.809         -49.6456          87.444          -49.645         87.4439       -0.0207328         143.561
0.608                   -2.58772         176.047         -49.5518         84.9326         -49.5512         84.9326       -0.0209421         143.482
0.609                   -2.65397         175.288         -49.4582         82.4164         -49.4577         82.4164       -0.0211552         143.403
0.61                     -2.7225         174.533          -49.365         79.8954         -49.3645         79.8954       -0.0213721         143.324
0.611                   -2.79327         173.783         -49.2723         77.3694         -49.2718         77.3694       -0.0215928         143.244
0.612                   -2.86619          173.04         -49.1801         74.8386         -49.1796         74.8386       -0.0218175         143.165
0.613                   -2.94116         172.305         -49.0885         72.3032          -49.088         72.3032       -0.0220461         143.085
0.614                   -3.01806         171.578         -48.9977         69.7632         -48.9971         69.7632       -0.0222786         143.005
0.615                   -3.09675          170.86         -48.9076         67.2189         -48.9071         67.2189       -0.0225152         142.924
0.616                   -3.17706         170.152         -48.8184         64.6707         -48.8179         64.6707       -0.0227557         142.844
0.617                   -3.25881         169.456         -48.7302         62.1189         -48.7297         62.1188       -0.0230002         142.763
0.618                   -3.34181          168.77         -48.6431         59.5638         -48.6426         59.5638       -0.0232487         142.682
0.619                   -3.42585         168.097          -48.557          57.006         -48.5565         57.0059       -0.0235012         142.601
0.62                    -3.51073         167.434         -48.4721         54.4458         -48.4717         54.4457       -0.0237578         142.519
0.621                   -3.59623         166.784         -48.3884         51.8839          -48.388         51.8838       -0.0240183         142.438
0.622                   -3.68215         166.145          -48.306         49.3208         -48.3056         49.3206       -0.0242829         142.356
0.623                   -3.76831         165.517         -48.2249          46.757         -48.2245         46.7568       -0.0245516         142.274
0.624                    -3.8545         164.899         -48.1451         44.1933         -48.1447          44.193       -0.0248242         142.191
0.625                   -3.94057          164.29         -48.0666         41.6301         -48.0663         41.6298        -0.025101         142.108
0.626                   -4.02637         163.691         -47.9895         39.0682         -47.9892         39.0679       -0.0253819         142.025
0.627                   -4.11176         163.098         -47.9137         36.5082         -47.9134         36.5078       -0.0256669         141.942
0.628                   -4.19663         162.513         -47.8393         33.9507          -47.839         33.9503       -0.0259561         141.859
0.629                   -4.28091         161.933         -47.7662         31.3963         -47.7659         31.3959       -0.0262495         141.775
