! TOUCHSTONE file generated by CST MICROWAVE STUDIO
! Date and time: Mon Oct 26 12:07:38 2020
! Project name: Scenario_1_Circular_Tissue_out_of_Line_v2.cst
! Parameters = {dy1=0; L_HA=400; MT=2.54; Rad_Dielectric=30; Rad_Lower=7.3; Rad_Upper=30; a_HA=580; a_WG=246; b_HA=500; b_WG=121; c_HA=0; c_WG=187; d_feed=85; dx1=173; h_feed=15; h_lower=18; h_upper=40}
! Header version: 2018
! Port assignment regex: !\s*Touchstone port\s*([0-9]+)\s*=\s*(CST MWS port|CST DS port)\s*([0-9]+|Zmin|Zmax)\s*\(\"(.*)\"\)(\s*mode\s*([0-9]+))?.*
! Touchstone port assignment:
! Touchstone port 1 = CST MWS port 1 ("")
! Touchstone port 2 = CST MWS port 2 ("")
# GHz S DB R 50
0.5                    -0.101236          -122.5         -56.5277         130.509         -56.5275          130.51      -0.00730497         151.115
0.501                  -0.103882        -122.958         -56.3302         129.606         -56.3301         129.606      -0.00735528          151.05
0.502                   -0.10686        -123.419         -56.1315         128.691         -56.1314         128.692      -0.00740618         150.984
0.503                   -0.11018        -123.884         -55.9315         127.764         -55.9314         127.765       -0.0074577         150.919
0.504                  -0.113857        -124.351         -55.7302         126.825         -55.7301         126.826      -0.00750984         150.853
0.505                  -0.117902        -124.822         -55.5277         125.873         -55.5276         125.874      -0.00756264         150.788
0.506                  -0.122329        -125.295         -55.3239         124.908         -55.3238         124.909       -0.0076161         150.722
0.507                  -0.127151        -125.772         -55.1189          123.93         -55.1188         123.931      -0.00767027         150.656
0.508                  -0.132382        -126.251         -54.9127         122.937         -54.9126         122.938      -0.00772516          150.59
0.509                  -0.138038        -126.734         -54.7054          121.93         -54.7052         121.932       -0.0077808         150.524
0.51                   -0.144131        -127.219         -54.4968         120.909         -54.4967          120.91      -0.00783722         150.458
0.511                  -0.150677        -127.708         -54.2871         119.872          -54.287         119.873      -0.00789446         150.392
0.512                  -0.157692          -128.2         -54.0764         118.819         -54.0762         118.821      -0.00795256         150.326
0.513                   -0.16519        -128.694         -53.8645          117.75         -53.8643         117.752      -0.00801154          150.26
0.514                  -0.173188        -129.191         -53.6516         116.665         -53.6515         116.666      -0.00807147         150.193
0.515                  -0.181702        -129.691         -53.4378         115.562         -53.4376         115.564      -0.00813238         150.127
0.516                  -0.190747        -130.194          -53.223         114.442         -53.2228         114.443      -0.00819432          150.06
0.517                   -0.20034          -130.7         -53.0073         113.303         -53.0071         113.305      -0.00825735         149.993
0.518                  -0.210498        -131.208         -52.7908         112.146         -52.7906         112.147      -0.00832153         149.927
0.519                  -0.221237        -131.719         -52.5734          110.97         -52.5733         110.971      -0.00838692          149.86
0.52                   -0.232574        -132.233         -52.3554         109.773         -52.3552         109.775      -0.00845359         149.793
0.521                  -0.244525        -132.748         -52.1368         108.557         -52.1366         108.558      -0.00852161         149.726
0.522                  -0.257106        -133.266         -51.9175          107.32         -51.9173         107.321      -0.00859107         149.659
0.523                  -0.270335        -133.787         -51.6978         106.061         -51.6976         106.062      -0.00866204         149.591
0.524                  -0.284225        -134.309         -51.4777         104.781         -51.4775         104.782      -0.00873463         149.524
0.525                  -0.298794        -134.833         -51.2573         103.478         -51.2571         103.479      -0.00880891         149.457
0.526                  -0.314055         -135.36         -51.0367         102.153         -51.0365         102.154        -0.008885         149.389
0.527                  -0.330024        -135.888          -50.816         100.804         -50.8159         100.805        -0.008963         149.322
0.528                  -0.346713        -136.417         -50.5954         99.4318         -50.5952         99.4324      -0.00904303         149.254
0.529                  -0.364135        -136.948         -50.3749         98.0351         -50.3747         98.0357       -0.0091252         149.186
0.53                   -0.382302         -137.48         -50.1547         96.6139         -50.1545         96.6143      -0.00920965         149.118
0.531                  -0.401223        -138.013         -49.9349         95.1676         -49.9348         95.1679      -0.00929651          149.05
0.532                  -0.420909        -138.547         -49.7158          93.696         -49.7156         93.6962       -0.0093859         148.982
0.533                  -0.441365        -139.081         -49.4973         92.1988         -49.4971         92.1989      -0.00947798         148.914
0.534                  -0.462597        -139.616         -49.2798         90.6756         -49.2796         90.6756      -0.00957288         148.845
0.535                  -0.484609        -140.151         -49.0633         89.1264         -49.0631         89.1263      -0.00967076         148.777
0.536                  -0.507402        -140.687         -48.8481         87.5508         -48.8479         87.5506      -0.00977176         148.708
0.537                  -0.530975        -141.221         -48.6343          85.949         -48.6342         85.9487      -0.00987603          148.64
0.538                  -0.555323        -141.756         -48.4221         84.3207          -48.422         84.3203      -0.00998372         148.571
0.539                  -0.580441        -142.289         -48.2118         82.6663         -48.2117         82.6658        -0.010095         148.502
0.54                   -0.606318        -142.821         -48.0035         80.9856         -48.0034         80.9851         -0.01021         148.433
0.541                  -0.632941        -143.352         -47.7975         79.2792         -47.7974         79.2785       -0.0103288         148.364
0.542                  -0.660293        -143.882         -47.5939         77.5471         -47.5938         77.5464       -0.0104515         148.295
0.543                  -0.688355        -144.409          -47.393         75.7901         -47.3929         75.7893       -0.0105784         148.226
0.544                  -0.717101        -144.934          -47.195         74.0085         -47.1949         74.0076       -0.0107094         148.156
0.545                  -0.746505        -145.457              -47          72.203              -47         72.2021       -0.0108447         148.087
0.546                  -0.776533        -145.978         -46.8084         70.3745         -46.8084         70.3735       -0.0109843         148.017
0.547                  -0.807149        -146.495         -46.6203         68.5238         -46.6203         68.5228       -0.0111283         147.947
0.548                  -0.838313        -147.009         -46.4359          66.652          -46.436         66.6509       -0.0112766         147.878
0.549                   -0.86998         -147.52         -46.2554         64.7601         -46.2555          64.759       -0.0114293         147.808
0.55                     -0.9021        -148.027         -46.0791         62.8495         -46.0791         62.8484       -0.0115863         147.738
0.551                  -0.934621         -148.53         -45.9069         60.9215          -45.907         60.9204       -0.0117475         147.668
0.552                  -0.967486         -149.03         -45.7392         58.9775         -45.7393         58.9764       -0.0119128         147.597
0.553                   -1.00063        -149.525         -45.5761         57.0191         -45.5762          57.018       -0.0120821         147.527
0.554                     -1.034        -150.017         -45.4176         55.0479         -45.4178         55.0468       -0.0122553         147.457
0.555                   -1.06752        -150.504          -45.264         53.0657         -45.2641         53.0647        -0.012432         147.386
0.556                   -1.10112        -150.986         -45.1152         51.0743         -45.1154         51.0733       -0.0126122         147.316
0.557                   -1.13474        -151.465         -44.9714         49.0754         -44.9716         49.0744       -0.0127955         147.245
0.558                   -1.16829        -151.939         -44.8326         47.0711         -44.8328         47.0701       -0.0129816         147.174
0.559                   -1.20171        -152.409         -44.6988          45.063          -44.699         45.0621       -0.0131703         147.103
0.56                    -1.23491        -152.876         -44.5701         43.0533         -44.5702         43.0524       -0.0133613         147.032
0.561                   -1.26784        -153.338         -44.4463         41.0437         -44.4465         41.0428       -0.0135542         146.961
0.562                   -1.30041        -153.797         -44.3275         39.0361         -44.3276         39.0353       -0.0137488          146.89
0.563                   -1.33255        -154.253         -44.2135         37.0324         -44.2137         37.0317       -0.0139446         146.819
0.564                   -1.36421        -154.706         -44.1044         35.0344         -44.1045         35.0337       -0.0141414         146.747
0.565                    -1.3953        -155.156         -43.9999         33.0437         -44.0001         33.0431       -0.0143389         146.676
0.566                   -1.42578        -155.604            -43.9          31.062         -43.9001         31.0615       -0.0145368         146.604
0.567                   -1.45558         -156.05         -43.8045         29.0909         -43.8046         29.0904       -0.0147348         146.533
0.568                   -1.48467        -156.495         -43.7132         27.1317         -43.7134         27.1313       -0.0149327         146.461
0.569                   -1.51298         -156.94          -43.626          25.186         -43.6262         25.1856       -0.0151303         146.389
0.57                    -1.54049        -157.384         -43.5427         23.2548         -43.5429         23.2545       -0.0153273         146.317
0.571                   -1.56717        -157.828         -43.4631         21.3393         -43.4633          21.339       -0.0155235         146.245
0.572                     -1.593        -158.274          -43.387         19.4405         -43.3872         19.4403        -0.015719         146.173
0.573                   -1.61795        -158.721         -43.3142         17.5593         -43.3144         17.5591       -0.0159134           146.1
0.574                   -1.64202        -159.171         -43.2445         15.6965         -43.2446         15.6963       -0.0161068         146.028
0.575                    -1.6652        -159.623         -43.1776         13.8527         -43.1777         13.8525       -0.0162991         145.955
0.576                   -1.68751        -160.079         -43.1134         12.0284         -43.1135         12.0283       -0.0164903         145.882
0.577                   -1.70896        -160.539         -43.0516         10.2241         -43.0517          10.224       -0.0166802         145.809
0.578                   -1.72957        -161.003          -42.992         8.44007          -42.992         8.43997       -0.0168691         145.736
0.579                   -1.74937        -161.473         -42.9344         6.67655         -42.9344         6.67645       -0.0170568         145.663
0.58                    -1.76839        -161.948         -42.8786         4.93367         -42.8786         4.93357       -0.0172435          145.59
0.581                   -1.78667         -162.43         -42.8243         3.21146         -42.8244         3.21136       -0.0174292         145.516
0.582                   -1.80425        -162.919         -42.7715         1.50989         -42.7716         1.50979        -0.017614         145.442
0.583                    -1.8212        -163.415         -42.7199       -0.171169           -42.72        -0.17128        -0.017798         145.369
0.584                   -1.83755        -163.919         -42.6694        -1.83189         -42.6694        -1.83202       -0.0179813         145.295
0.585                   -1.85338        -164.431         -42.6197        -3.47253         -42.6197        -3.47267       -0.0181639         145.221
0.586                   -1.86873        -164.951         -42.5707        -5.09337         -42.5707        -5.09353       -0.0183461         145.146
0.587                   -1.88369        -165.481         -42.5222        -6.69479         -42.5222        -6.69497       -0.0185279         145.072
0.588                    -1.8983         -166.02         -42.4741        -8.27716         -42.4741        -8.27737       -0.0187094         144.997
0.589                   -1.91265        -166.569         -42.4262        -9.84093         -42.4262        -9.84116       -0.0188909         144.922
0.59                     -1.9268        -167.128         -42.3785        -11.3866         -42.3784        -11.3868       -0.0190723         144.847
0.591                   -1.94082        -167.696         -42.3307        -12.9145         -42.3307        -12.9148       -0.0192539         144.772
0.592                   -1.95479        -168.276         -42.2828        -14.4254         -42.2828        -14.4257       -0.0194357         144.697
0.593                   -1.96877        -168.866         -42.2347        -15.9196         -42.2346          -15.92       -0.0196179         144.622
0.594                   -1.98283        -169.466         -42.1862        -17.3979         -42.1861        -17.3983       -0.0198006         144.546
0.595                   -1.99706        -170.078         -42.1372        -18.8606         -42.1372         -18.861        -0.019984          144.47
0.596                   -2.01151          -170.7         -42.0878        -20.3085         -42.0877        -20.3089       -0.0201681         144.394
0.597                   -2.02625        -171.333         -42.0377         -21.742         -42.0377        -21.7425       -0.0203531         144.318
0.598                   -2.04137        -171.978          -41.987        -23.1619         -41.9869        -23.1624        -0.020539         144.241
0.599                   -2.05691        -172.634         -41.9355        -24.5686         -41.9354        -24.5691       -0.0207261         144.165
0.6                     -2.07296        -173.301         -41.8831        -25.9627         -41.8831        -25.9633       -0.0209144         144.088
0.601                   -2.08957         -173.98         -41.8299        -27.3449         -41.8299        -27.3456        -0.021104         144.011
0.602                   -2.10681         -174.67         -41.7758        -28.7158         -41.7758        -28.7165        -0.021295         143.934
0.603                   -2.12474        -175.371         -41.7207        -30.0759         -41.7207        -30.0766       -0.0214875         143.856
0.604                   -2.14343        -176.083         -41.6646        -31.4258         -41.6645        -31.4265       -0.0216817         143.779
0.605                   -2.16293        -176.807         -41.6074        -32.7661         -41.6074        -32.7668       -0.0218775         143.701
0.606                    -2.1833        -177.542         -41.5492        -34.0973         -41.5491         -34.098       -0.0220752         143.623
0.607                   -2.20461        -178.289         -41.4898          -35.42         -41.4898        -35.4207       -0.0222749         143.544
0.608                   -2.22691        -179.046         -41.4293        -36.7347         -41.4293        -36.7355       -0.0224765         143.466
0.609                   -2.25025        -179.815         -41.3677        -38.0421         -41.3676        -38.0429       -0.0226802         143.387
0.61                     -2.2747         179.405         -41.3048        -39.3426         -41.3048        -39.3434       -0.0228861         143.308
0.611                   -2.30032         178.613         -41.2408        -40.6368         -41.2407        -40.6376       -0.0230943         143.229
0.612                   -2.32715         177.811         -41.1755        -41.9251         -41.1755        -41.9259       -0.0233049          143.15
0.613                   -2.35525         176.997         -41.1091        -43.2081          -41.109        -43.2089       -0.0235179          143.07
0.614                   -2.38468         176.173         -41.0414        -44.4863         -41.0414        -44.4871       -0.0237334         142.991
0.615                   -2.41549         175.337         -40.9725        -45.7601         -40.9725         -45.761       -0.0239516         142.911
0.616                   -2.44774         174.491         -40.9024        -47.0301         -40.9024         -47.031       -0.0241725          142.83
0.617                   -2.48149         173.634         -40.8311        -48.2967          -40.831        -48.2976       -0.0243961          142.75
0.618                    -2.5168         172.765         -40.7585        -49.5604         -40.7585        -49.5612       -0.0246227         142.669
0.619                   -2.55371         171.886         -40.6848        -50.8216         -40.6848        -50.8224       -0.0248522         142.588
0.62                     -2.5923         170.996         -40.6098        -52.0808         -40.6098        -52.0816       -0.0250848         142.507
0.621                   -2.63261         170.095         -40.5337        -53.3384         -40.5337        -53.3391       -0.0253205         142.425
0.622                   -2.67471         169.184         -40.4564        -54.5947         -40.4564        -54.5955       -0.0255595         142.344
0.623                   -2.71867         168.262          -40.378        -55.8503          -40.378        -55.8511       -0.0258018         142.262
0.624                   -2.76454         167.329         -40.2984        -57.1055         -40.2984        -57.1063       -0.0260475         142.179
0.625                   -2.81239         166.385         -40.2177        -58.3608         -40.2177        -58.3615       -0.0262967         142.097
0.626                   -2.86229         165.431         -40.1359        -59.6164         -40.1359        -59.6171       -0.0265496         142.014
0.627                   -2.91431         164.466          -40.053        -60.8728         -40.0531        -60.8735       -0.0268061         141.931
0.628                   -2.96851         163.491         -39.9691        -62.1304         -39.9692         -62.131       -0.0270664         141.848
0.629                   -3.02498         162.505         -39.8842        -63.3894         -39.8842          -63.39       -0.0273306         141.764
