! TOUCHSTONE file generated by CST MICROWAVE STUDIO
! Date and time: Wed Oct 28 19:37:24 2020
! Project name: Scenario_1_Circular_Tissue_out_of_Line_v2.cst
! Parameters = {dy1=0; L_HA=400; MT=2.54; Rad_Dielectric=30; Rad_Lower=7.3; Rad_Upper=30; a_HA=580; a_WG=246; b_HA=500; b_WG=121; c_HA=0; c_WG=187; d_feed=85; dx1=346; h_feed=15; h_lower=18; h_upper=40}
! Header version: 2018
! Port assignment regex: !\s*Touchstone port\s*([0-9]+)\s*=\s*(CST MWS port|CST DS port)\s*([0-9]+|Zmin|Zmax)\s*\(\"(.*)\"\)(\s*mode\s*([0-9]+))?.*
! Touchstone port assignment:
! Touchstone port 1 = CST MWS port 1 ("")
! Touchstone port 2 = CST MWS port 2 ("")
# GHz S DB R 50
0.5                    -0.177315        -122.372         -58.1952         33.6674         -58.1952         33.6674      -0.00779115          151.11
0.501                  -0.179085        -122.856         -58.1037         32.3455         -58.1037         32.3455      -0.00785206         151.045
0.502                  -0.181182        -123.341         -58.0105         31.0197         -58.0104         31.0197      -0.00791336          150.98
0.503                  -0.183607        -123.827         -57.9153           29.69         -57.9153           29.69      -0.00797507         150.915
0.504                  -0.186362        -124.316         -57.8184         28.3566         -57.8184         28.3566      -0.00803719         150.849
0.505                   -0.18945        -124.806         -57.7197         27.0196         -57.7196         27.0196      -0.00809973         150.784
0.506                  -0.192872        -125.297         -57.6191         25.6792         -57.6191         25.6792       -0.0081627         150.718
0.507                  -0.196629        -125.791         -57.5167         24.3354         -57.5167         24.3354      -0.00822612         150.653
0.508                  -0.200724        -126.286         -57.4126         22.9883         -57.4126         22.9883      -0.00828998         150.587
0.509                  -0.205158        -126.782         -57.3067         21.6381         -57.3066         21.6382      -0.00835431         150.521
0.51                   -0.209931         -127.28          -57.199         20.2849         -57.1989         20.2849      -0.00841911         150.455
0.511                  -0.215046         -127.78         -57.0895         18.9287         -57.0895         18.9288      -0.00848439          150.39
0.512                  -0.220504        -128.281         -56.9783         17.5697         -56.9783         17.5697      -0.00855016         150.324
0.513                  -0.226307        -128.784         -56.8654         16.2079         -56.8654         16.2079      -0.00861643         150.257
0.514                  -0.232454        -129.288         -56.7508         14.8433         -56.7507         14.8433      -0.00868321         150.191
0.515                  -0.238948        -129.794         -56.6344         13.4761         -56.6344         13.4761      -0.00875052         150.125
0.516                   -0.24579        -130.301         -56.5164         12.1063         -56.5164         12.1063      -0.00881836         150.059
0.517                  -0.252979         -130.81         -56.3968         10.7339         -56.3967          10.734      -0.00888675         149.992
0.518                  -0.260518         -131.32         -56.2755         9.35908         -56.2754         9.35912      -0.00895569         149.926
0.519                  -0.268407        -131.832         -56.1525         7.98174         -56.1525         7.98178       -0.0090252         149.859
0.52                   -0.276646        -132.345          -56.028         6.60194         -56.0279         6.60199      -0.00909529         149.792
0.521                  -0.285237         -132.86         -55.9019         5.21971         -55.9018         5.21976      -0.00916598         149.725
0.522                  -0.294179        -133.376         -55.7742         3.83505         -55.7741          3.8351      -0.00923727         149.659
0.523                  -0.303473        -133.893          -55.645         2.44796         -55.6449         2.44801      -0.00930918         149.592
0.524                   -0.31312        -134.413         -55.5142         1.05843         -55.5142         1.05849      -0.00938171         149.525
0.525                  -0.323119        -134.933          -55.382       -0.333548         -55.3819       -0.333488      -0.00945489         149.457
0.526                  -0.333471        -135.455         -55.2483          -1.728         -55.2483        -1.72794      -0.00952873          149.39
0.527                  -0.344175        -135.978         -55.1132        -3.12497         -55.1131        -3.12491      -0.00960323         149.323
0.528                  -0.355233        -136.503         -54.9766        -4.52449         -54.9766        -4.52442      -0.00967842         149.255
0.529                  -0.366643        -137.029         -54.8387         -5.9266         -54.8386        -5.92654       -0.0097543         149.188
0.53                   -0.378405        -137.557         -54.6994        -7.33138         -54.6993        -7.33131       -0.0098309          149.12
0.531                   -0.39052        -138.086         -54.5587        -8.73888         -54.5586        -8.73881      -0.00990822         149.052
0.532                  -0.402986        -138.616         -54.4167        -10.1492         -54.4167        -10.1491      -0.00998628         148.985
0.533                  -0.415803        -139.148         -54.2735        -11.5624         -54.2734        -11.5623       -0.0100651         148.917
0.534                   -0.42897        -139.681          -54.129        -12.9785         -54.1289        -12.9784       -0.0101447         148.849
0.535                  -0.442488        -140.216         -53.9832        -14.3977         -53.9832        -14.3976       -0.0102251          148.78
0.536                  -0.456354        -140.752         -53.8363        -15.8201         -53.8362          -15.82       -0.0103062         148.712
0.537                  -0.470568        -141.289         -53.6881        -17.2457         -53.6881        -17.2457       -0.0103883         148.644
0.538                   -0.48513        -141.828         -53.5389        -18.6748         -53.5388        -18.6747       -0.0104711         148.575
0.539                  -0.500037        -142.368         -53.3885        -20.1074         -53.3884        -20.1073       -0.0105548         148.507
0.54                   -0.515289        -142.909          -53.237        -21.5436          -53.237        -21.5435       -0.0106393         148.438
0.541                  -0.530884        -143.452         -53.0845        -22.9836         -53.0844        -22.9835       -0.0107248         148.369
0.542                  -0.546821        -143.997         -52.9309        -24.4276         -52.9309        -24.4275       -0.0108112         148.301
0.543                  -0.563099        -144.542         -52.7764        -25.8756         -52.7763        -25.8755       -0.0108984         148.232
0.544                  -0.579715         -145.09         -52.6209        -27.3279         -52.6208        -27.3278       -0.0109867         148.162
0.545                  -0.596669        -145.638         -52.4645        -28.7845         -52.4644        -28.7845       -0.0110759         148.093
0.546                  -0.613957        -146.189         -52.3071        -30.2458         -52.3071        -30.2457       -0.0111661         148.024
0.547                  -0.631579         -146.74         -52.1489        -31.7118         -52.1489        -31.7117       -0.0112573         147.955
0.548                  -0.649532        -147.293         -51.9899        -33.1826         -51.9899        -33.1826       -0.0113495         147.885
0.549                  -0.667814        -147.848         -51.8301        -34.6586         -51.8301        -34.6586       -0.0114428         147.815
0.55                   -0.686423        -148.404         -51.6696        -36.1399         -51.6695        -36.1398       -0.0115371         147.746
0.551                  -0.705356        -148.962         -51.5083        -37.6266         -51.5083        -37.6265       -0.0116326         147.676
0.552                  -0.724612        -149.522         -51.3463        -39.1189         -51.3463        -39.1189       -0.0117291         147.606
0.553                  -0.744186        -150.083         -51.1837        -40.6171         -51.1837         -40.617       -0.0118268         147.536
0.554                  -0.764077        -150.645         -51.0205        -42.1213         -51.0205        -42.1213       -0.0119257         147.465
0.555                  -0.784282         -151.21         -50.8567        -43.6317         -50.8567        -43.6317       -0.0120258         147.395
0.556                  -0.804798        -151.776         -50.6924        -45.1486         -50.6924        -45.1485       -0.0121271         147.324
0.557                  -0.825622        -152.344         -50.5276         -46.672         -50.5276         -46.672       -0.0122296         147.254
0.558                  -0.846751        -152.914         -50.3624        -48.2023         -50.3623        -48.2023       -0.0123334         147.183
0.559                  -0.868181        -153.485         -50.1967        -49.7396         -50.1967        -49.7396       -0.0124386         147.112
0.56                    -0.88991        -154.059         -50.0307        -51.2841         -50.0307        -51.2841        -0.012545         147.041
0.561                  -0.911934        -154.635         -49.8644         -52.836         -49.8644        -52.8359       -0.0126528          146.97
0.562                  -0.934249        -155.212         -49.6978        -54.3954         -49.6978        -54.3954        -0.012762         146.899
0.563                  -0.956852        -155.792          -49.531        -55.9626          -49.531        -55.9626       -0.0128727         146.827
0.564                  -0.979739        -156.374         -49.3641        -57.5378         -49.3641        -57.5378       -0.0129848         146.756
0.565                   -1.00291        -156.959          -49.197        -59.1211          -49.197        -59.1211       -0.0130984         146.684
0.566                   -1.02635        -157.545         -49.0299        -60.7127         -49.0299        -60.7127       -0.0132135         146.612
0.567                   -1.05007        -158.135         -48.8627        -62.3128         -48.8627        -62.3128       -0.0133302          146.54
0.568                   -1.07406        -158.727         -48.6956        -63.9215         -48.6956        -63.9215       -0.0134485         146.468
0.569                   -1.09831        -159.321         -48.5286         -65.539         -48.5286         -65.539       -0.0135685         146.396
0.57                    -1.12283        -159.919         -48.3617        -67.1654         -48.3617        -67.1654       -0.0136901         146.324
0.571                    -1.1476         -160.52          -48.195        -68.8009          -48.195        -68.8008       -0.0138135         146.251
0.572                   -1.17263        -161.123         -48.0286        -70.4455         -48.0286        -70.4455       -0.0139386         146.178
0.573                   -1.19791        -161.731         -47.8626        -72.0995         -47.8626        -72.0995       -0.0140656         146.106
0.574                   -1.22344        -162.341         -47.6969        -73.7628         -47.6969        -73.7628       -0.0141944         146.033
0.575                   -1.24922        -162.956         -47.5317        -75.4356         -47.5317        -75.4356       -0.0143251          145.96
0.576                   -1.27525        -163.574         -47.3669         -77.118         -47.3669         -77.118       -0.0144577         145.886
0.577                   -1.30151        -164.197         -47.2028          -78.81         -47.2028          -78.81       -0.0145924         145.813
0.578                   -1.32802        -164.824         -47.0393        -80.5116         -47.0393        -80.5116       -0.0147292         145.739
0.579                   -1.35478        -165.456         -46.8765        -82.2229         -46.8765        -82.2229        -0.014868         145.666
0.58                    -1.38179        -166.093         -46.7145        -83.9439         -46.7145        -83.9439        -0.015009         145.592
0.581                   -1.40904        -166.736         -46.5533        -85.6745         -46.5533        -85.6745       -0.0151523         145.518
0.582                   -1.43656        -167.384         -46.3931        -87.4148         -46.3931        -87.4148       -0.0152978         145.444
0.583                   -1.46434        -168.039         -46.2338        -89.1647         -46.2338        -89.1647       -0.0154457         145.369
0.584                    -1.4924        -168.701         -46.0756         -90.924         -46.0756         -90.924        -0.015596         145.295
0.585                   -1.52076         -169.37         -45.9184        -92.6927         -45.9185        -92.6927       -0.0157487          145.22
0.586                   -1.54944        -170.048         -45.7625        -94.4707         -45.7625        -94.4707       -0.0159041         145.145
0.587                   -1.57847        -170.734         -45.6078        -96.2579         -45.6078        -96.2579        -0.016062          145.07
0.588                   -1.60788        -171.429         -45.4545        -98.0539         -45.4545        -98.0539       -0.0162226         144.995
0.589                   -1.63774        -172.135         -45.3025        -99.8588         -45.3025        -99.8588        -0.016386          144.92
0.59                     -1.6681        -172.852         -45.1519        -101.672         -45.1519        -101.672       -0.0165522         144.844
0.591                   -1.69904        -173.582         -45.0029        -103.494         -45.0029        -103.494       -0.0167214         144.768
0.592                   -1.73066        -174.325         -44.8554        -105.324         -44.8554        -105.324       -0.0168935         144.692
0.593                    -1.7631        -175.083         -44.7096        -107.161         -44.7096        -107.161       -0.0170687         144.616
0.594                   -1.79652        -175.858         -44.5655        -109.006         -44.5655        -109.006       -0.0172471          144.54
0.595                   -1.83113        -176.651         -44.4231        -110.858         -44.4231        -110.858       -0.0174288         144.464
0.596                   -1.86721        -177.463         -44.2825        -112.717         -44.2825        -112.717       -0.0176138         144.387
0.597                   -1.90508        -178.298         -44.1437        -114.582         -44.1437        -114.582       -0.0178022          144.31
0.598                   -1.94518        -179.156         -44.0069        -116.453         -44.0069        -116.453       -0.0179942         144.233
0.599                   -1.98806          179.96          -43.872        -118.329          -43.872        -118.329       -0.0181897         144.156
0.6                     -2.03439         179.048          -43.739        -120.211          -43.739        -120.211        -0.018389         144.079
0.601                   -2.08506         178.105         -43.6081        -122.097         -43.6081        -122.097       -0.0185921         144.001
0.602                   -2.14114         177.132         -43.4792        -123.988         -43.4792        -123.988       -0.0187991         143.923
0.603                   -2.20398         176.127         -43.3524        -125.882         -43.3524        -125.882       -0.0190101         143.845
0.604                    -2.2752         175.091         -43.2277        -127.779         -43.2277        -127.779       -0.0192251         143.767
0.605                   -2.35674         174.029         -43.1051        -129.678         -43.1051        -129.678       -0.0194444         143.689
0.606                   -2.45081         172.947         -42.9846         -131.58         -42.9846         -131.58       -0.0196679          143.61
0.607                   -2.55982         171.857         -42.8663        -133.483         -42.8663        -133.483       -0.0198957         143.531
0.608                   -2.68607         170.781         -42.7501        -135.388         -42.7501        -135.388       -0.0201281         143.452
0.609                   -2.83142         169.744          -42.636        -137.292         -42.6361        -137.292       -0.0203649         143.373
0.61                    -2.99656         168.785         -42.5241        -139.197         -42.5241        -139.197       -0.0206063         143.294
0.611                   -3.18028         167.946         -42.4143          -141.1         -42.4144          -141.1       -0.0208524         143.214
0.612                   -3.37862         167.273         -42.3067        -143.003         -42.3067        -143.003       -0.0211032         143.134
0.613                   -3.58453         166.804          -42.201        -144.903          -42.201        -144.903       -0.0213589         143.054
0.614                   -3.78827         166.559         -42.0974        -146.802         -42.0974        -146.802       -0.0216193         142.974
0.615                   -3.97894         166.531         -41.9958        -148.697         -41.9958        -148.697       -0.0218846         142.893
0.616                   -4.14672         166.681         -41.8962        -150.589         -41.8962        -150.589       -0.0221549         142.812
0.617                   -4.28498         166.951         -41.7985        -152.478         -41.7985        -152.478         -0.02243         142.731
0.618                    -4.3914         167.272         -41.7026        -154.362         -41.7026        -154.362       -0.0227102          142.65
0.619                   -4.46771          167.58         -41.6086        -156.242         -41.6086        -156.242       -0.0229952         142.569
0.62                    -4.51842         167.828         -41.5163        -158.118         -41.5163        -158.118       -0.0232852         142.487
0.621                   -4.54932         167.985         -41.4258        -159.988         -41.4258        -159.988         -0.02358         142.405
0.622                   -4.56621         168.039          -41.337        -161.852          -41.337        -161.852       -0.0238797         142.323
0.623                   -4.57414         167.988         -41.2498        -163.711         -41.2498        -163.711       -0.0241843         142.241
0.624                   -4.57714         167.837         -41.1642        -165.564         -41.1642        -165.563       -0.0244936         142.158
0.625                    -4.5782         167.597         -41.0801        -167.409         -41.0801        -167.409       -0.0248075         142.075
0.626                   -4.57942         167.279         -40.9975        -169.248         -40.9975        -169.248       -0.0251261         141.992
0.627                   -4.58221         166.894         -40.9162         -171.08         -40.9162         -171.08       -0.0254491         141.909
0.628                   -4.58746         166.451         -40.8363        -172.905         -40.8363        -172.905       -0.0257766         141.825
0.629                   -4.59569          165.96         -40.7576        -174.722         -40.7576        -174.722       -0.0261083         141.742
