! TOUCHSTONE file generated by CST MICROWAVE STUDIO
! Date and time: Fri Oct 30 07:57:32 2020
! Project name: Scenario_1_Circular_Tissue_out_of_Line.cst
! Parameters = {dy1=0.82; L_HA=400; MT=2.54; Rad_Dielectric=30; Rad_Lower=7.3; Rad_Upper=30; a_HA=580; a_WG=246; b_HA=500; b_WG=121; c_HA=0; c_WG=187; d_feed=85; dx1=520; h_feed=15; h_lower=18; h_upper=40}
! Header version: 2018
! Port assignment regex: !\s*Touchstone port\s*([0-9]+)\s*=\s*(CST MWS port|CST DS port)\s*([0-9]+|Zmin|Zmax)\s*\(\"(.*)\"\)(\s*mode\s*([0-9]+))?.*
! Touchstone port assignment:
! Touchstone port 1 = CST MWS port 1 ("")
! Touchstone port 2 = CST MWS port 2 ("")
# GHz S DB R 50
0.5                    -0.130503        -122.488         -60.9498        -59.8856         -60.9499         -59.883      -0.00740834         151.115
0.501                   -0.13661        -122.942         -60.7565        -61.2804         -60.7566        -61.2771       -0.0074731         151.049
0.502                  -0.143012        -123.398         -60.5622        -62.6951         -60.5624        -62.6911      -0.00753877         150.984
0.503                  -0.149717        -123.856          -60.367          -64.13         -60.3672        -64.1252      -0.00760537         150.919
0.504                  -0.156729        -124.315         -60.1711        -65.5854         -60.1713        -65.5799      -0.00767291         150.853
0.505                  -0.164054        -124.777         -59.9744        -67.0615         -59.9747        -67.0555      -0.00774142         150.787
0.506                  -0.171698         -125.24         -59.7772        -68.5587         -59.7774        -68.5521      -0.00781092         150.722
0.507                  -0.179665        -125.705         -59.5794        -70.0772         -59.5797        -70.0702      -0.00788141         150.656
0.508                   -0.18796        -126.172         -59.3813        -71.6173         -59.3815        -71.6099      -0.00795293          150.59
0.509                  -0.196588         -126.64         -59.1829        -73.1793         -59.1831        -73.1715       -0.0080255         150.524
0.51                   -0.205552         -127.11         -58.9843        -74.7633         -58.9845        -74.7551      -0.00809913         150.458
0.511                  -0.214857        -127.582         -58.7856        -76.3695         -58.7858        -76.3611      -0.00817385         150.392
0.512                  -0.224505        -128.055          -58.587        -77.9981         -58.5872        -77.9894      -0.00824969         150.326
0.513                  -0.234499        -128.529         -58.3887        -79.6491         -58.3888        -79.6402      -0.00832667         150.259
0.514                  -0.244842        -129.005         -58.1906        -81.3227         -58.1907        -81.3136      -0.00840482         150.193
0.515                  -0.255535        -129.483          -57.993        -83.0188         -57.9931        -83.0097      -0.00848416         150.127
0.516                  -0.266579        -129.961         -57.7961        -84.7374         -57.7961        -84.7282      -0.00856471          150.06
0.517                  -0.277974        -130.441         -57.5999        -86.4785         -57.5999        -86.4693      -0.00864652         149.994
0.518                   -0.28972        -130.923         -57.4046        -88.2419         -57.4045        -88.2328      -0.00872961         149.927
0.519                  -0.301816        -131.405         -57.2104        -90.0274         -57.2103        -90.0185      -0.00881399          149.86
0.52                   -0.314259        -131.888         -57.0174        -91.8349         -57.0172         -91.826      -0.00889972         149.793
0.521                  -0.327047        -132.372         -56.8257        -93.6639         -56.8255        -93.6552      -0.00898681         149.726
0.522                  -0.340176        -132.858         -56.6356        -95.5141         -56.6354        -95.5057      -0.00907529         149.659
0.523                  -0.353641        -133.344         -56.4472        -97.3851         -56.4469        -97.3769      -0.00916519         149.592
0.524                  -0.367436        -133.831         -56.2606        -99.2763         -56.2603        -99.2684      -0.00925654         149.525
0.525                  -0.381556        -134.319          -56.076        -101.187         -56.0756         -101.18      -0.00934937         149.458
0.526                  -0.395991        -134.807         -55.8935        -103.117         -55.8932         -103.11       -0.0094437          149.39
0.527                  -0.410733        -135.296         -55.7134        -105.065         -55.7129        -105.058      -0.00953956         149.323
0.528                  -0.425772        -135.786         -55.5356         -107.03         -55.5352        -107.024      -0.00963696         149.255
0.529                  -0.441098        -136.276         -55.3604        -109.013         -55.3599        -109.007      -0.00973593         149.188
0.53                   -0.456699        -136.767         -55.1879         -111.01         -55.1874        -111.005      -0.00983648          149.12
0.531                  -0.472561        -137.258         -55.0182        -113.023         -55.0177        -113.018      -0.00993862         149.052
0.532                  -0.488672         -137.75         -54.8514        -115.048         -54.8508        -115.044       -0.0100424         148.984
0.533                  -0.505017        -138.242         -54.6876        -117.087          -54.687        -117.083       -0.0101477         148.916
0.534                   -0.52158        -138.735         -54.5269        -119.136         -54.5263        -119.133       -0.0102547         148.848
0.535                  -0.538345        -139.228         -54.3693        -121.195         -54.3688        -121.193       -0.0103632          148.78
0.536                  -0.555296        -139.721          -54.215        -123.264         -54.2144        -123.261       -0.0104734         148.712
0.537                  -0.572415        -140.215          -54.064        -125.339         -54.0634        -125.337       -0.0105851         148.643
0.538                  -0.589685         -140.71         -53.9162        -127.421         -53.9157         -127.42       -0.0106983         148.575
0.539                  -0.607089        -141.205         -53.7718        -129.508         -53.7713        -129.507        -0.010813         148.506
0.54                   -0.624607          -141.7         -53.6307        -131.598         -53.6302        -131.598       -0.0109293         148.437
0.541                  -0.642224        -142.196          -53.493         -133.69         -53.4925         -133.69       -0.0110469         148.369
0.542                  -0.659921        -142.693         -53.3585        -135.784         -53.3581        -135.784       -0.0111659           148.3
0.543                  -0.677681        -143.191         -53.2273        -137.877         -53.2269        -137.878       -0.0112862         148.231
0.544                  -0.695487         -143.69         -53.0993        -139.968         -53.0989        -139.969       -0.0114078         148.162
0.545                  -0.713325        -144.189         -52.9745        -142.057         -52.9741        -142.058       -0.0115306         148.093
0.546                  -0.731179         -144.69         -52.8527        -144.141         -52.8524        -144.143       -0.0116545         148.023
0.547                  -0.749035        -145.193         -52.7339        -146.221         -52.7336        -146.223       -0.0117795         147.954
0.548                  -0.766883        -145.696          -52.618        -148.294         -52.6177        -148.297       -0.0119054         147.884
0.549                  -0.784709        -146.201         -52.5048        -150.361         -52.5046        -150.363       -0.0120322         147.815
0.55                   -0.802507        -146.709         -52.3944        -152.419         -52.3942        -152.422       -0.0121598         147.745
0.551                  -0.820268        -147.218         -52.2864        -154.468         -52.2862        -154.471       -0.0122882         147.675
0.552                  -0.837988        -147.729         -52.1808        -156.508         -52.1807        -156.511       -0.0124173         147.605
0.553                  -0.855662        -148.243         -52.0775        -158.538         -52.0774        -158.541        -0.012547         147.535
0.554                   -0.87329        -148.759         -51.9763        -160.556         -51.9763         -160.56       -0.0126772         147.465
0.555                  -0.890874        -149.278         -51.8771        -162.564         -51.8771        -162.567        -0.012808         147.395
0.556                  -0.908416          -149.8         -51.7798        -164.559         -51.7798        -164.562       -0.0129392         147.325
0.557                  -0.925922        -150.325         -51.6841        -166.542         -51.6841        -166.545       -0.0130708         147.254
0.558                  -0.943401        -150.854         -51.5899        -168.512           -51.59        -168.516       -0.0132028         147.184
0.559                  -0.960863        -151.386         -51.4972         -170.47         -51.4973        -170.473       -0.0133352         147.113
0.56                   -0.978322        -151.922         -51.4057        -172.414         -51.4058        -172.418       -0.0134679         147.042
0.561                  -0.995793        -152.462         -51.3152        -174.346         -51.3154        -174.349       -0.0136009         146.971
0.562                   -1.01329        -153.007         -51.2258        -176.264          -51.226        -176.267       -0.0137343           146.9
0.563                   -1.03084        -153.556         -51.1372        -178.169         -51.1374        -178.172        -0.013868         146.829
0.564                   -1.04846        -154.109         -51.0492         179.938         -51.0494         179.935       -0.0140021         146.758
0.565                   -1.06618        -154.668         -50.9618         178.059         -50.9621         178.056       -0.0141366         146.686
0.566                   -1.08402        -155.232         -50.8749         176.193         -50.8751          176.19       -0.0142715         146.615
0.567                   -1.10201        -155.801         -50.7883         174.339         -50.7885         174.336       -0.0144068         146.543
0.568                   -1.12018        -156.375         -50.7019         172.497         -50.7021         172.495       -0.0145426         146.471
0.569                   -1.13857        -156.955         -50.6155         170.668         -50.6158         170.665       -0.0146789         146.399
0.57                     -1.1572        -157.541         -50.5292         168.849         -50.5294         168.847       -0.0148158         146.327
0.571                   -1.17611        -158.132         -50.4427         167.043          -50.443         167.041       -0.0149533         146.255
0.572                   -1.19533         -158.73         -50.3561         165.247         -50.3563         165.245       -0.0150915         146.183
0.573                   -1.21491        -159.334         -50.2692         163.461         -50.2694         163.459       -0.0152304          146.11
0.574                   -1.23488        -159.943         -50.1819         161.686         -50.1821         161.684       -0.0153701         146.037
0.575                   -1.25529         -160.56         -50.0941          159.92         -50.0943         159.918       -0.0155106         145.964
0.576                   -1.27617        -161.182         -50.0058         158.163         -50.0061         158.162        -0.015652         145.892
0.577                   -1.29756        -161.812          -49.917         156.415         -49.9172         156.414       -0.0157943         145.818
0.578                   -1.31951        -162.447         -49.8275         154.675         -49.8277         154.674       -0.0159377         145.745
0.579                   -1.34206         -163.09         -49.7374         152.943         -49.7375         152.942       -0.0160821         145.672
0.58                    -1.36525        -163.738         -49.6464         151.217         -49.6466         151.216       -0.0162276         145.598
0.581                   -1.38913        -164.394         -49.5548         149.499         -49.5549         149.498       -0.0163743         145.524
0.582                   -1.41374        -165.056         -49.4622         147.786         -49.4624         147.785       -0.0165222          145.45
0.583                   -1.43913        -165.725         -49.3689         146.079          -49.369         146.078       -0.0166714         145.376
0.584                   -1.46534        -166.401         -49.2746         144.377         -49.2747         144.376       -0.0168219         145.302
0.585                   -1.49242        -167.083         -49.1795         142.679         -49.1796         142.679       -0.0169738         145.228
0.586                   -1.52042        -167.772         -49.0834         140.986         -49.0835         140.985       -0.0171272         145.153
0.587                   -1.54938        -168.467         -48.9864         139.296         -48.9864         139.295       -0.0172821         145.079
0.588                   -1.57936        -169.169         -48.8884         137.609         -48.8884         137.608       -0.0174385         145.004
0.589                   -1.61039        -169.878         -48.7894         135.924         -48.7895         135.924       -0.0175966         144.929
0.59                    -1.64252        -170.592         -48.6895         134.241         -48.6895         134.241       -0.0177563         144.853
0.591                   -1.67581        -171.313         -48.5886          132.56         -48.5886          132.56       -0.0179177         144.778
0.592                    -1.7103        -172.041         -48.4868          130.88         -48.4868         130.879       -0.0180809         144.702
0.593                   -1.74605        -172.774          -48.384           129.2          -48.384           129.2       -0.0182459         144.627
0.594                   -1.78309        -173.513         -48.2803          127.52         -48.2802          127.52       -0.0184129         144.551
0.595                   -1.82148        -174.258         -48.1756          125.84         -48.1756          125.84       -0.0185817         144.475
0.596                   -1.86127        -175.009           -48.07         124.159           -48.07         124.158       -0.0187526         144.398
0.597                   -1.90251        -175.765         -47.9636         122.476         -47.9635         122.476       -0.0189255         144.322
0.598                   -1.94524        -176.526         -47.8563         120.792         -47.8562         120.792       -0.0191006         144.245
0.599                   -1.98952        -177.293         -47.7481         119.106         -47.7481         119.106       -0.0192778         144.168
0.6                     -2.03539        -178.064         -47.6392         117.417         -47.6391         117.417       -0.0194573         144.091
0.601                    -2.0829         -178.84         -47.5295         115.725         -47.5294         115.725        -0.019639         144.014
0.602                   -2.13211         -179.62          -47.419          114.03          -47.419          114.03       -0.0198232         143.937
0.603                   -2.18305         179.595         -47.3079         112.331         -47.3078         112.331       -0.0200098         143.859
0.604                   -2.23579         178.807         -47.1961         110.629          -47.196         110.628       -0.0201989         143.781
0.605                   -2.29035         178.016         -47.0837         108.921         -47.0836         108.921       -0.0203905         143.703
0.606                    -2.3468         177.221         -46.9708          107.21         -46.9707         107.209       -0.0205848         143.625
0.607                   -2.40516         176.423         -46.8573         105.493         -46.8572         105.493       -0.0207818         143.546
0.608                    -2.4655         175.623         -46.7434         103.772         -46.7433         103.771       -0.0209817         143.467
0.609                   -2.52785         174.821          -46.629         102.045         -46.6289         102.044       -0.0211844         143.389
0.61                    -2.59225         174.017         -46.5143         100.312         -46.5143         100.311         -0.02139         143.309
0.611                   -2.65874         173.213         -46.3993         98.5735         -46.3993          98.573       -0.0215987          143.23
0.612                   -2.72736         172.407         -46.2841         96.8291         -46.2841         96.8286       -0.0218105          143.15
0.613                   -2.79814         171.601         -46.1687         95.0786         -46.1687         95.0781       -0.0220255         143.071
0.614                   -2.87112         170.796         -46.0532         93.3219         -46.0531         93.3214       -0.0222438         142.991
0.615                   -2.94631         169.991         -45.9376         91.5588         -45.9376         91.5583       -0.0224655          142.91
0.616                   -3.02376         169.188          -45.822         89.7893          -45.822         89.7889       -0.0226907          142.83
0.617                   -3.10347         168.386         -45.7065         88.0134         -45.7065          88.013       -0.0229194         142.749
0.618                   -3.18548         167.587         -45.5912          86.231         -45.5911         86.2306       -0.0231518         142.668
0.619                   -3.26978         166.792          -45.476         84.4421          -45.476         84.4417       -0.0233879         142.587
0.62                    -3.35639             166         -45.3611         82.6468         -45.3611         82.6465       -0.0236279         142.506
0.621                   -3.44531         165.213         -45.2465         80.8452         -45.2465         80.8448       -0.0238719         142.424
0.622                   -3.53654         164.431         -45.1323         79.0372         -45.1323         79.0369       -0.0241199         142.342
0.623                   -3.63006         163.655         -45.0185         77.2231         -45.0185         77.2228        -0.024372          142.26
0.624                   -3.72587         162.886         -44.9052         75.4029         -44.9052         75.4026       -0.0246285         142.177
0.625                   -3.82393         162.124         -44.7925         73.5768         -44.7925         73.5766       -0.0248892         142.095
0.626                   -3.92422          161.37         -44.6804         71.7451         -44.6804          71.745       -0.0251544         142.012
0.627                    -4.0267         160.625          -44.569         69.9079          -44.569         69.9078       -0.0254242         141.928
0.628                   -4.13132         159.889         -44.4583         68.0655         -44.4583         68.0655       -0.0256986         141.845
0.629                   -4.23802         159.164         -44.3484         66.2182         -44.3484         66.2182       -0.0259778         141.761
