! TOUCHSTONE file generated by CST MICROWAVE STUDIO
! Date and time: Wed Oct 28 19:17:25 2020
! Project name: Scenario_1_Circular_Tissue_out_of_Line.cst
! Parameters = {dy1=0.82; L_HA=400; MT=2.54; Rad_Dielectric=30; Rad_Lower=7.3; Rad_Upper=30; a_HA=580; a_WG=246; b_HA=500; b_WG=121; c_HA=0; c_WG=187; d_feed=85; dx1=693; h_feed=15; h_lower=18; h_upper=40}
! Header version: 2018
! Port assignment regex: !\s*Touchstone port\s*([0-9]+)\s*=\s*(CST MWS port|CST DS port)\s*([0-9]+|Zmin|Zmax)\s*\(\"(.*)\"\)(\s*mode\s*([0-9]+))?.*
! Touchstone port assignment:
! Touchstone port 1 = CST MWS port 1 ("")
! Touchstone port 2 = CST MWS port 2 ("")
# GHz S DB R 50
0.5                    -0.155465        -122.302         -61.9557        -166.362         -61.9561        -166.361      -0.00769224          151.13
0.501                   -0.15582        -122.774         -61.8403        -167.843          -61.841        -167.843      -0.00774927         151.065
0.502                  -0.156587        -123.249         -61.7233        -169.336         -61.7242        -169.338      -0.00780692             151
0.503                  -0.157771        -123.725         -61.6045        -170.842         -61.6057        -170.845       -0.0078652         150.934
0.504                  -0.159375        -124.204         -61.4841         -172.36         -61.4855        -172.364      -0.00792411         150.869
0.505                  -0.161404        -124.684          -61.362         -173.89         -61.3636        -173.895      -0.00798366         150.803
0.506                  -0.163862        -125.167         -61.2382        -175.433           -61.24        -175.439      -0.00804386         150.738
0.507                  -0.166751        -125.651         -61.1127        -176.989         -61.1148        -176.996      -0.00810472         150.672
0.508                  -0.170077        -126.137         -60.9855        -178.557         -60.9878        -178.565      -0.00816624         150.607
0.509                  -0.173843        -126.626         -60.8567         179.862         -60.8592         179.853      -0.00822844         150.541
0.51                    -0.17805        -127.116         -60.7262         178.269         -60.7289         178.259      -0.00829133         150.475
0.511                  -0.182704        -127.607         -60.5941         176.663         -60.5969         176.652      -0.00835491         150.409
0.512                  -0.187807        -128.101         -60.4604         175.044         -60.4633         175.032      -0.00841919         150.343
0.513                  -0.193362        -128.596          -60.325         173.412         -60.3281           173.4       -0.0084842         150.277
0.514                  -0.199371        -129.093          -60.188         171.767         -60.1912         171.754      -0.00854992          150.21
0.515                  -0.205837        -129.592         -60.0495         170.109         -60.0528         170.096      -0.00861639         150.144
0.516                  -0.212763        -130.092         -59.9094         168.438         -59.9128         168.424      -0.00868361         150.078
0.517                   -0.22015        -130.594         -59.7677         166.754         -59.7712          166.74      -0.00875158         150.011
0.518                  -0.228001        -131.098         -59.6246         165.056         -59.6282         165.042      -0.00882033         149.945
0.519                  -0.236317        -131.603         -59.4799         163.346         -59.4836         163.331      -0.00888987         149.878
0.52                   -0.245101        -132.109         -59.3338         161.622         -59.3376         161.606      -0.00896021         149.811
0.521                  -0.254352        -132.617         -59.1863         159.884         -59.1901         159.869      -0.00903136         149.745
0.522                  -0.264074        -133.127         -59.0375         158.133         -59.0413         158.117      -0.00910333         149.678
0.523                  -0.274267        -133.638         -58.8872         156.368         -58.8911         156.352      -0.00917615         149.611
0.524                  -0.284931         -134.15         -58.7357          154.59         -58.7396         154.574      -0.00924982         149.544
0.525                  -0.296067        -134.663          -58.583         152.797         -58.5869         152.781      -0.00932437         149.477
0.526                  -0.307676        -135.178          -58.429         150.991         -58.4329         150.975      -0.00939981         149.409
0.527                  -0.319757        -135.694         -58.2739         149.171         -58.2778         149.155      -0.00947615         149.342
0.528                  -0.332311        -136.212         -58.1177         147.337         -58.1216         147.322      -0.00955342         149.274
0.529                  -0.345337         -136.73         -57.9605         145.489         -57.9643         145.474      -0.00963163         149.207
0.53                   -0.358835         -137.25         -57.8023         143.627         -57.8061         143.612       -0.0097108         149.139
0.531                  -0.372805         -137.77         -57.6431          141.75         -57.6469         141.735      -0.00979095         149.072
0.532                  -0.387244        -138.292         -57.4832          139.86         -57.4869         139.845      -0.00987211         149.004
0.533                  -0.402152        -138.815         -57.3224         137.955         -57.3261          137.94      -0.00995429         148.936
0.534                  -0.417527        -139.339          -57.161         136.035         -57.1646         136.021       -0.0100375         148.868
0.535                  -0.433367        -139.864         -56.9989         134.102         -57.0024         134.088       -0.0101218           148.8
0.536                  -0.449672         -140.39         -56.8362         132.154         -56.8397          132.14       -0.0102072         148.731
0.537                  -0.466437        -140.916         -56.6731         130.191         -56.6765         130.178       -0.0102937         148.663
0.538                  -0.483662        -141.444         -56.5096         128.214         -56.5129         128.202       -0.0103814         148.595
0.539                  -0.501342        -141.972         -56.3458         126.223          -56.349         126.211       -0.0104702         148.526
0.54                   -0.519476        -142.502         -56.1818         124.217         -56.1849         124.206       -0.0105603         148.457
0.541                   -0.53806        -143.032         -56.0177         122.197         -56.0206         122.186       -0.0106515         148.389
0.542                   -0.55709        -143.563         -55.8535         120.163         -55.8563         120.153       -0.0107441          148.32
0.543                  -0.576563        -144.094         -55.6894         118.115         -55.6921         118.105       -0.0108379         148.251
0.544                  -0.596475        -144.627         -55.5255         116.052         -55.5281         116.043       -0.0109331         148.182
0.545                  -0.616822         -145.16         -55.3618         113.976         -55.3643         113.967       -0.0110296         148.113
0.546                  -0.637599        -145.694         -55.1985         111.886         -55.2009         111.878       -0.0111275         148.043
0.547                  -0.658801        -146.228         -55.0357         109.782         -55.0379         109.775       -0.0112269         147.974
0.548                  -0.680425        -146.763         -54.8734         107.665         -54.8755         107.658       -0.0113277         147.904
0.549                  -0.702463        -147.299         -54.7118         105.535         -54.7137         105.528       -0.0114301         147.835
0.55                   -0.724912        -147.836          -54.551         103.391         -54.5528         103.386        -0.011534         147.765
0.551                  -0.747765        -148.373          -54.391         101.236         -54.3927         101.231       -0.0116395         147.695
0.552                  -0.771017         -148.91         -54.2321         99.0678         -54.2336         99.0633       -0.0117467         147.625
0.553                  -0.794662        -149.449         -54.0742          96.888         -54.0756          96.884       -0.0118556         147.555
0.554                  -0.818693        -149.988         -53.9175         94.6966         -53.9187         94.6931       -0.0119662         147.485
0.555                  -0.843105        -150.527         -53.7621         92.4942         -53.7632         92.4911       -0.0120786         147.415
0.556                   -0.86789        -151.067          -53.608         90.2811          -53.609         90.2785       -0.0121928         147.344
0.557                  -0.893041        -151.608         -53.4554         88.0579         -53.4562         88.0557       -0.0123089         147.273
0.558                  -0.918553        -152.149         -53.3044          85.825         -53.3051         85.8232       -0.0124269         147.203
0.559                  -0.944416        -152.691          -53.155          83.583         -53.1556         83.5817       -0.0125469         147.132
0.56                   -0.970626        -153.234         -53.0074         81.3326         -53.0078         81.3315       -0.0126689         147.061
0.561                  -0.997173        -153.778         -52.8615         79.0742         -52.8618         79.0734        -0.012793          146.99
0.562                   -1.02405        -154.322         -52.7175         76.8085         -52.7177          76.808       -0.0129192         146.919
0.563                   -1.05125        -154.866         -52.5755         74.5362         -52.5755         74.5359       -0.0130476         146.847
0.564                   -1.07877        -155.412         -52.4354         72.2579         -52.4353         72.2578       -0.0131782         146.776
0.565                   -1.10659        -155.958         -52.2974         69.9743         -52.2972         69.9744       -0.0133111         146.704
0.566                   -1.13471        -156.506         -52.1615         67.6861         -52.1612         67.6864       -0.0134463         146.633
0.567                   -1.16312        -157.054         -52.0278         65.3941         -52.0274         65.3945       -0.0135838         146.561
0.568                   -1.19182        -157.603         -51.8962          63.099         -51.8957         63.0995       -0.0137237         146.489
0.569                   -1.22079        -158.153         -51.7668         60.8014         -51.7662          60.802        -0.013866         146.417
0.57                    -1.25003        -158.704         -51.6397         58.5022          -51.639         58.5028       -0.0140108         146.344
0.571                   -1.27953        -159.256         -51.5148         56.2021          -51.514         56.2027        -0.014158         146.272
0.572                   -1.30928        -159.809         -51.3921         53.9018         -51.3913         53.9024       -0.0143077         146.199
0.573                   -1.33927        -160.363         -51.2717          51.602         -51.2708         51.6026       -0.0144599         146.127
0.574                   -1.36951        -160.919         -51.1535         49.3035         -51.1525          49.304       -0.0146146         146.054
0.575                   -1.39997        -161.476         -51.0375         47.0069         -51.0365         47.0073       -0.0147718         145.981
0.576                   -1.43065        -162.035         -50.9237         44.7129         -50.9227         44.7133       -0.0149315         145.908
0.577                   -1.46155        -162.595         -50.8121         42.4222         -50.8111         42.4225       -0.0150937         145.835
0.578                   -1.49266        -163.157         -50.7026         40.1355         -50.7015         40.1356       -0.0152585         145.761
0.579                   -1.52397        -163.721         -50.5952         37.8532         -50.5941         37.8533       -0.0154256         145.688
0.58                    -1.55548        -164.287         -50.4899         35.5761         -50.4888          35.576       -0.0155952         145.614
0.581                   -1.58719        -164.854         -50.3865         33.3046         -50.3854         33.3045       -0.0157672          145.54
0.582                   -1.61908        -165.424          -50.285         31.0394         -50.2839         31.0391       -0.0159416         145.466
0.583                   -1.65115        -165.996         -50.1854         28.7807         -50.1844         28.7803       -0.0161182         145.392
0.584                   -1.68341        -166.571         -50.0877         26.5292         -50.0866         26.5287       -0.0162972         145.318
0.585                   -1.71585        -167.148         -49.9916         24.2852         -49.9906         24.2845       -0.0164783         145.243
0.586                   -1.74846        -167.729         -49.8973          22.049         -49.8962         22.0483       -0.0166616         145.169
0.587                   -1.78125        -168.312         -49.8045         19.8211         -49.8035         19.8203        -0.016847         145.094
0.588                   -1.81421        -168.898         -49.7132         17.6017         -49.7123         17.6008       -0.0170345         145.019
0.589                   -1.84736        -169.487         -49.6233          15.391         -49.6225         15.3901       -0.0172239         144.944
0.59                    -1.88068        -170.081         -49.5348         13.1894          -49.534         13.1884       -0.0174153         144.869
0.591                   -1.91419        -170.677         -49.4476         10.9969         -49.4469         10.9959       -0.0176086         144.794
0.592                    -1.9479        -171.278         -49.3616         8.81367         -49.3609         8.81265       -0.0178037         144.718
0.593                    -1.9818        -171.883         -49.2767         6.63989          -49.276         6.63886       -0.0180005         144.642
0.594                   -2.01592        -172.493         -49.1928         4.47558         -49.1922         4.47457       -0.0181991         144.567
0.595                   -2.05026        -173.107         -49.1099          2.3208         -49.1094         2.31982       -0.0183995          144.49
0.596                   -2.08483        -173.726         -49.0279        0.175547         -49.0274        0.174616       -0.0186015         144.414
0.597                   -2.11965         -174.35         -48.9466         -1.9602         -48.9462        -1.96107       -0.0188051         144.338
0.598                   -2.15475         -174.98         -48.8661        -4.08651         -48.8658         -4.0873       -0.0190104         144.261
0.599                   -2.19014        -175.616         -48.7863        -6.20345          -48.786        -6.20415       -0.0192174         144.185
0.6                     -2.22584        -176.257          -48.707        -8.31113         -48.7068        -8.31172        -0.019426         144.108
0.601                   -2.26189        -176.905         -48.6282        -10.4097         -48.6281        -10.4102       -0.0196362          144.03
0.602                   -2.29832         -177.56         -48.5499        -12.4993         -48.5498        -12.4996       -0.0198482         143.953
0.603                   -2.33516        -178.221         -48.4719        -14.5801         -48.4719        -14.5803       -0.0200618         143.876
0.604                   -2.37246         -178.89         -48.3943        -16.6523         -48.3943        -16.6524       -0.0202771         143.798
0.605                   -2.41025        -179.566         -48.3169        -18.7162          -48.317        -18.7161       -0.0204943          143.72
0.606                   -2.44858          179.75         -48.2397        -20.7719         -48.2399        -20.7716       -0.0207132         143.642
0.607                   -2.48751         179.057         -48.1627        -22.8197         -48.1629        -22.8192        -0.020934         143.564
0.608                    -2.5271         178.356         -48.0858        -24.8599          -48.086        -24.8592       -0.0211568         143.485
0.609                    -2.5674         177.647         -48.0089        -26.8927         -48.0092        -26.8919       -0.0213815         143.406
0.61                    -2.60849         176.928         -47.9321        -28.9184         -47.9324        -28.9175       -0.0216083         143.327
0.611                   -2.65045           176.2         -47.8552        -30.9374         -47.8556        -30.9362       -0.0218373         143.248
0.612                   -2.69334         175.463         -47.7782        -32.9499         -47.7786        -32.9485       -0.0220684         143.169
0.613                   -2.73727         174.715         -47.7012        -34.9562         -47.7016        -34.9547       -0.0223019         143.089
0.614                   -2.78231         173.957          -47.624        -36.9566         -47.6244        -36.9549       -0.0225378          143.01
0.615                   -2.82858         173.189         -47.5466        -38.9515         -47.5471        -38.9496       -0.0227761          142.93
0.616                   -2.87618         172.411          -47.469        -40.9411         -47.4695        -40.9391       -0.0230171         142.849
0.617                   -2.92522         171.622         -47.3913        -42.9258         -47.3918        -42.9236       -0.0232606         142.769
0.618                   -2.97582         170.822         -47.3133        -44.9059         -47.3138        -44.9036        -0.023507         142.688
0.619                   -3.02811         170.011          -47.235        -46.8817         -47.2355        -46.8793       -0.0237562         142.607
0.62                    -3.08221          169.19         -47.1565        -48.8535          -47.157         -48.851       -0.0240083         142.526
0.621                   -3.13827         168.358         -47.0777        -50.8217         -47.0782         -50.819       -0.0242635         142.444
0.622                   -3.19643         167.515         -46.9986        -52.7865         -46.9991        -52.7837       -0.0245219         142.363
0.623                   -3.25683         166.662         -46.9192        -54.7482         -46.9197        -54.7454       -0.0247835         142.281
0.624                   -3.31962         165.799         -46.8395        -56.7072           -46.84        -56.7044       -0.0250485         142.198
0.625                   -3.38496         164.926         -46.7596        -58.6637         -46.7601        -58.6609       -0.0253169         142.116
0.626                     -3.453         164.044         -46.6793        -60.6181         -46.6798        -60.6152        -0.025589         142.033
0.627                   -3.52391         163.153         -46.5988        -62.5705         -46.5992        -62.5677       -0.0258647          141.95
0.628                   -3.59782         162.254          -46.518        -64.5213         -46.5184        -64.5185       -0.0261442         141.867
0.629                   -3.67491         161.347         -46.4369        -66.4707         -46.4372         -66.468       -0.0264275         141.784
