! TOUCHSTONE file generated by CST MICROWAVE STUDIO
! Date and time: Mon Oct 26 12:31:40 2020
! Project name: Scenario_1_Circular_Tissue_out_of_Line.cst
! Parameters = {dy1=0.82; L_HA=400; MT=2.54; Rad_Dielectric=30; Rad_Lower=7.3; Rad_Upper=30; a_HA=580; a_WG=246; b_HA=500; b_WG=121; c_HA=0; c_WG=187; d_feed=85; dx1=866; h_feed=15; h_lower=18; h_upper=40}
! Header version: 2018
! Port assignment regex: !\s*Touchstone port\s*([0-9]+)\s*=\s*(CST MWS port|CST DS port)\s*([0-9]+|Zmin|Zmax)\s*\(\"(.*)\"\)(\s*mode\s*([0-9]+))?.*
! Touchstone port assignment:
! Touchstone port 1 = CST MWS port 1 ("")
! Touchstone port 2 = CST MWS port 2 ("")
# GHz S DB R 50
0.5                    -0.142677        -122.439         -62.5851         99.5237         -62.5846         99.5252      -0.00744811         151.128
0.501                  -0.148715         -122.88         -62.3922         97.4909         -62.3915           97.49      -0.00751569         151.062
0.502                   -0.15498        -123.322         -62.1994         95.4327         -62.1987         95.4298      -0.00758478         150.997
0.503                  -0.161485        -123.767         -62.0071         93.3494         -62.0063         93.3447      -0.00765536         150.931
0.504                  -0.168246        -124.215         -61.8154         91.2409         -61.8146         91.2347      -0.00772739         150.866
0.505                  -0.175276        -124.664         -61.6244         89.1076         -61.6235         89.1003      -0.00780085           150.8
0.506                  -0.182591        -125.116         -61.4343         86.9498         -61.4335         86.9415      -0.00787572         150.735
0.507                  -0.190203         -125.57         -61.2453         84.7679         -61.2445         84.7589      -0.00795194         150.669
0.508                  -0.198124        -126.026         -61.0576         82.5623         -61.0568         82.5528       -0.0080295         150.603
0.509                  -0.206364        -126.484         -60.8713         80.3335         -60.8706         80.3239      -0.00810836         150.537
0.51                   -0.214931        -126.944         -60.6866         78.0822         -60.6859         78.0726      -0.00818849         150.471
0.511                   -0.22383        -127.405         -60.5037         75.8091         -60.5031         75.7997      -0.00826984         150.405
0.512                  -0.233064        -127.868         -60.3228          73.515         -60.3222          73.506      -0.00835238         150.339
0.513                  -0.242632        -128.332          -60.144         71.2007         -60.1435         71.1923      -0.00843607         150.273
0.514                  -0.252528        -128.798         -59.9674         68.8673          -59.967         68.8596      -0.00852088         150.207
0.515                  -0.262745        -129.265         -59.7933         66.5158          -59.793         66.5089      -0.00860675          150.14
0.516                  -0.273269        -129.732         -59.6218         64.1473         -59.6215         64.1413      -0.00869364         150.074
0.517                  -0.284084        -130.201         -59.4529          61.763         -59.4527          61.758      -0.00878153         150.008
0.518                   -0.29517         -130.67         -59.2868         59.3642         -59.2867         59.3603      -0.00887035         149.941
0.519                  -0.306505         -131.14         -59.1237         56.9522         -59.1235         56.9495      -0.00896008         149.874
0.52                   -0.318061        -131.611         -58.9635         54.5284         -58.9634         54.5268      -0.00905066         149.808
0.521                  -0.329812        -132.082         -58.8065         52.0942         -58.8064         52.0939      -0.00914205         149.741
0.522                  -0.341727        -132.553         -58.6525         49.6512         -58.6525          49.652      -0.00923422         149.674
0.523                  -0.353778        -133.026         -58.5018         47.2007         -58.5017         47.2026      -0.00932711         149.607
0.524                  -0.365935        -133.499         -58.3542         44.7443         -58.3541         44.7474      -0.00942069          149.54
0.525                  -0.378171        -133.972         -58.2098         42.2834         -58.2098         42.2876      -0.00951491         149.473
0.526                   -0.39046        -134.447         -58.0686         39.8197         -58.0686         39.8249      -0.00960974         149.406
0.527                  -0.402779        -134.922         -57.9306         37.3545         -57.9305         37.3606      -0.00970513         149.338
0.528                   -0.41511        -135.399         -57.7957         34.8893         -57.7956         34.8962      -0.00980106         149.271
0.529                  -0.427436        -135.878         -57.6639         32.4254         -57.6637         32.4331      -0.00989747         149.203
0.53                   -0.439747        -136.358          -57.535         29.9643         -57.5348         29.9727      -0.00999435         149.136
0.531                  -0.452036        -136.839          -57.409         27.5072         -57.4088         27.5161       -0.0100917         149.068
0.532                  -0.464298        -137.323         -57.2857         25.0552         -57.2855         25.0646       -0.0101894             149
0.533                  -0.476536        -137.809         -57.1652         22.6096         -57.1649         22.6193       -0.0102875         148.933
0.534                  -0.488755        -138.298         -57.0471         20.1714         -57.0468         20.1813       -0.0103859         148.865
0.535                  -0.500963         -138.79         -56.9314         17.7414         -56.9311         17.7515       -0.0104847         148.797
0.536                  -0.513172        -139.284          -56.818         15.3206         -56.8177         15.3307       -0.0105838         148.728
0.537                  -0.525396        -139.781         -56.7066         12.9097         -56.7063         12.9197       -0.0106831          148.66
0.538                  -0.537654        -140.282         -56.5972         10.5094         -56.5968         10.5192       -0.0107828         148.592
0.539                  -0.549963        -140.787         -56.4895         8.12019         -56.4891         8.12975       -0.0108828         148.523
0.54                   -0.562346        -141.294         -56.3833         5.74253         -56.3829         5.75174        -0.010983         148.455
0.541                  -0.574824        -141.806         -56.2786         3.37677         -56.2782         3.38555       -0.0110836         148.386
0.542                  -0.587422        -142.322         -56.1751         1.02317         -56.1747         1.03146       -0.0111844         148.318
0.543                  -0.600165        -142.841         -56.0727        -1.31812         -56.0723        -1.31037       -0.0112855         148.249
0.544                  -0.613078        -143.365         -55.9711        -3.64703         -55.9708        -3.63987       -0.0113869          148.18
0.545                  -0.626187        -143.893         -55.8704        -5.96358         -55.8701        -5.95706       -0.0114887         148.111
0.546                   -0.63952        -144.426         -55.7702        -8.26789         -55.7699        -8.26204       -0.0115908         148.042
0.547                  -0.653103        -144.962         -55.6704        -10.5601         -55.6702         -10.555       -0.0116932         147.972
0.548                  -0.666965        -145.504         -55.5709        -12.8406         -55.5707        -12.8361       -0.0117961         147.903
0.549                  -0.681133        -146.049         -55.4715        -15.1095         -55.4714        -15.1058       -0.0118993         147.833
0.55                   -0.695636          -146.6         -55.3721        -17.3674         -55.3721        -17.3643       -0.0120031         147.764
0.551                  -0.710502        -147.154         -55.2727        -19.6146         -55.2727        -19.6123       -0.0121073         147.694
0.552                   -0.72576        -147.714         -55.1729        -21.8517         -55.1731          -21.85        -0.012212         147.624
0.553                  -0.741438        -148.278         -55.0728        -24.0792         -55.0731        -24.0782       -0.0123174         147.554
0.554                  -0.757568        -148.847         -54.9723        -26.2977         -54.9726        -26.2973       -0.0124233         147.484
0.555                  -0.774178         -149.42         -54.8712        -28.5079         -54.8716         -28.508       -0.0125299         147.414
0.556                  -0.791298        -149.998         -54.7695        -30.7103           -54.77         -30.711       -0.0126372         147.344
0.557                  -0.808959        -150.581          -54.667        -32.9057         -54.6676        -32.9069       -0.0127453         147.273
0.558                  -0.827191        -151.168         -54.5638        -35.0948         -54.5645        -35.0965       -0.0128543         147.203
0.559                  -0.846026         -151.76         -54.4597        -37.2783         -54.4605        -37.2804       -0.0129641         147.132
0.56                   -0.865494        -152.356         -54.3548         -39.457         -54.3556        -39.4595       -0.0130748         147.061
0.561                  -0.885628        -152.957         -54.2489        -41.6317         -54.2498        -41.6344       -0.0131866          146.99
0.562                  -0.906459        -153.563          -54.142         -43.803          -54.143        -43.8061       -0.0132994         146.919
0.563                  -0.928018        -154.173         -54.0342        -45.9718         -54.0353        -45.9751       -0.0134134         146.848
0.564                  -0.950339        -154.787         -53.9253        -48.1389         -53.9265        -48.1423       -0.0135285         146.777
0.565                  -0.973453        -155.405         -53.8155         -50.305         -53.8167        -50.3085       -0.0136449         146.705
0.566                  -0.997392        -156.027         -53.7046        -52.4709         -53.7059        -52.4745       -0.0137626         146.633
0.567                   -1.02219        -156.653         -53.5927        -54.6373         -53.5941        -54.6409       -0.0138817         146.562
0.568                   -1.04787        -157.283         -53.4799        -56.8051         -53.4813        -56.8086       -0.0140023          146.49
0.569                   -1.07448        -157.917         -53.3661        -58.9748         -53.3676        -58.9783       -0.0141244         146.418
0.57                    -1.10203        -158.554         -53.2514        -61.1472         -53.2529        -61.1506        -0.014248         146.346
0.571                   -1.13056        -159.194         -53.1358         -63.323         -53.1374        -63.3263       -0.0143733         146.273
0.572                    -1.1601        -159.838         -53.0194        -65.5029          -53.021         -65.506       -0.0145004         146.201
0.573                   -1.19068        -160.484         -52.9022        -67.6875         -52.9038        -67.6903       -0.0146292         146.128
0.574                   -1.22231        -161.133         -52.7843        -69.8773         -52.7859        -69.8799       -0.0147599         146.055
0.575                   -1.25502        -161.785         -52.6658         -72.073         -52.6673        -72.0754       -0.0148925         145.982
0.576                   -1.28884        -162.438         -52.5467        -74.2751         -52.5482        -74.2772       -0.0150271         145.909
0.577                   -1.32378        -163.093         -52.4271         -76.484         -52.4286        -76.4858       -0.0151637         145.836
0.578                   -1.35985         -163.75          -52.307        -78.7002         -52.3085        -78.7017       -0.0153025         145.763
0.579                   -1.39707        -164.408         -52.1867        -80.9242         -52.1881        -80.9254       -0.0154434         145.689
0.58                    -1.43544        -165.066         -52.0661        -83.1561         -52.0675        -83.1571       -0.0155866         145.616
0.581                   -1.47497        -165.725         -51.9455        -85.3965         -51.9468        -85.3971       -0.0157321         145.542
0.582                   -1.51566        -166.385         -51.8248        -87.6455         -51.8261        -87.6458       -0.0158799         145.468
0.583                    -1.5575        -167.043         -51.7041        -89.9032         -51.7054        -89.9033       -0.0160302         145.394
0.584                   -1.60049        -167.702         -51.5837        -92.1699         -51.5849        -92.1698       -0.0161829         145.319
0.585                    -1.6446        -168.359         -51.4635        -94.4457         -51.4647        -94.4453       -0.0163381         145.245
0.586                   -1.68981        -169.015         -51.3438        -96.7304         -51.3448        -96.7298        -0.016496          145.17
0.587                   -1.73609        -169.669         -51.2246        -99.0242         -51.2255        -99.0235       -0.0166564         145.096
0.588                   -1.78342        -170.321          -51.106        -101.327         -51.1069        -101.326       -0.0168195         145.021
0.589                   -1.83175        -170.971         -50.9881        -103.638         -50.9889        -103.637       -0.0169854         144.945
0.59                    -1.88104        -171.618          -50.871        -105.959         -50.8718        -105.957        -0.017154          144.87
0.591                   -1.93123        -172.262         -50.7549        -108.287         -50.7556        -108.286       -0.0173255         144.795
0.592                   -1.98226        -172.902         -50.6398        -110.623         -50.6404        -110.622       -0.0174998         144.719
0.593                   -2.03408        -173.539         -50.5258        -112.967         -50.5263        -112.966        -0.017677         144.643
0.594                   -2.08662        -174.173          -50.413        -115.318         -50.4135        -115.317       -0.0178571         144.567
0.595                    -2.1398        -174.802         -50.3016        -117.676          -50.302        -117.675       -0.0180402         144.491
0.596                   -2.19354        -175.428         -50.1915         -120.04         -50.1918        -120.039       -0.0182262         144.415
0.597                   -2.24778        -176.049         -50.0828         -122.41          -50.083        -122.408       -0.0184153         144.338
0.598                   -2.30242        -176.667         -49.9756        -124.784         -49.9758        -124.783       -0.0186074         144.261
0.599                   -2.35739         -177.28           -49.87        -127.163         -49.8701        -127.162       -0.0188026         144.185
0.6                      -2.4126         -177.89          -49.766        -129.546         -49.7661        -129.545       -0.0190008         144.108
0.601                   -2.46797        -178.496         -49.6636        -131.932         -49.6636        -131.931       -0.0192021          144.03
0.602                   -2.52342        -179.099         -49.5628         -134.32         -49.5628        -134.319       -0.0194065         143.953
0.603                   -2.57888        -179.699         -49.4637         -136.71         -49.4637        -136.709       -0.0196141         143.875
0.604                   -2.63427         179.703         -49.3664        -139.101         -49.3663          -139.1       -0.0198247         143.797
0.605                   -2.68954         179.108         -49.2707        -141.492         -49.2706        -141.491       -0.0200385         143.719
0.606                   -2.74461         178.514         -49.1767        -143.882         -49.1766        -143.882       -0.0202555         143.641
0.607                   -2.79943         177.921         -49.0843        -146.272         -49.0842        -146.272       -0.0204755         143.563
0.608                   -2.85396         177.329         -48.9936         -148.66         -48.9935         -148.66       -0.0206987         143.484
0.609                   -2.90817         176.736         -48.9044        -151.045         -48.9043        -151.045       -0.0209251         143.405
0.61                    -2.96203         176.143         -48.8169        -153.428         -48.8168        -153.428       -0.0211546         143.326
0.611                   -3.01552         175.548         -48.7308        -155.807         -48.7307        -155.807       -0.0213872         143.247
0.612                   -3.06864          174.95         -48.6462        -158.182         -48.6461        -158.182        -0.021623         143.167
0.613                   -3.12139          174.35          -48.563        -160.553         -48.5629        -160.553       -0.0218619         143.088
0.614                   -3.17379         173.746         -48.4811        -162.918         -48.4811        -162.918       -0.0221041         143.008
0.615                   -3.22587         173.137         -48.4005        -165.278         -48.4005        -165.278       -0.0223493         142.927
0.616                   -3.27766         172.523         -48.3211        -167.632         -48.3211        -167.632       -0.0225978         142.847
0.617                   -3.32922         171.904         -48.2428         -169.98         -48.2428         -169.98       -0.0228495         142.767
0.618                   -3.38059         171.277         -48.1655        -172.322         -48.1655        -172.322       -0.0231043         142.686
0.619                   -3.43186         170.643         -48.0892        -174.657         -48.0893        -174.657       -0.0233624         142.605
0.62                    -3.48309         170.002         -48.0138        -176.986         -48.0139        -176.986       -0.0236238         142.523
0.621                   -3.53437         169.351         -47.9392        -179.307         -47.9393        -179.307       -0.0238885         142.442
0.622                   -3.58579         168.692         -47.8654         178.378         -47.8654         178.379       -0.0241564          142.36
0.623                   -3.63746         168.023         -47.7921         176.071         -47.7922         176.071       -0.0244277         142.278
0.624                   -3.68948         167.344         -47.7195          173.77         -47.7196         173.771       -0.0247025         142.196
0.625                   -3.74197         166.654         -47.6474         171.477         -47.6475         171.477       -0.0249806         142.113
0.626                   -3.79504         165.953         -47.5757          169.19         -47.5758         169.191       -0.0252623         142.031
0.627                   -3.84883         165.241         -47.5043          166.91         -47.5045         166.911       -0.0255475         141.948
0.628                   -3.90344         164.518         -47.4333         164.637         -47.4334         164.638       -0.0258363         141.864
0.629                   -3.95903         163.783         -47.3625          162.37         -47.3627         162.371       -0.0261288         141.781
