! TOUCHSTONE file generated by CST MICROWAVE STUDIO
! Date and time: Sat Oct 24 11:46:58 2020
! Project name: Scenario_1_Circular_Tissue_out_of_Line.cst
! Parameters = {dy1=0.82; L_HA=400; MT=2.54; Rad_Dielectric=30; Rad_Lower=7.3; Rad_Upper=30; a_HA=580; a_WG=246; b_HA=500; b_WG=121; c_HA=0; c_WG=187; d_feed=85; dx1=1039; h_feed=15; h_lower=18; h_upper=40}
! Header version: 2018
! Port assignment regex: !\s*Touchstone port\s*([0-9]+)\s*=\s*(CST MWS port|CST DS port)\s*([0-9]+|Zmin|Zmax)\s*\(\"(.*)\"\)(\s*mode\s*([0-9]+))?.*
! Touchstone port assignment:
! Touchstone port 1 = CST MWS port 1 ("")
! Touchstone port 2 = CST MWS port 2 ("")
# GHz S DB R 50
0.5                    -0.146763        -122.268         -63.1408        -2.71303         -63.1408        -2.71303      -0.00763375         151.134
0.501                  -0.163577        -122.646         -63.0044        -4.69837         -63.0044        -4.69829      -0.00769161         151.069
0.502                  -0.179943        -123.018         -62.8657        -6.69959         -62.8657        -6.69945      -0.00774988         151.003
0.503                  -0.195734        -123.385          -62.725         -8.7168          -62.725         -8.7166      -0.00780859         150.938
0.504                  -0.210795        -123.745         -62.5821        -10.7501         -62.5821        -10.7498      -0.00786776         150.873
0.505                  -0.224937        -124.099         -62.4371        -12.7996         -62.4371        -12.7993      -0.00792739         150.807
0.506                  -0.237929        -124.446         -62.2901        -14.8654         -62.2901         -14.865      -0.00798753         150.742
0.507                  -0.249493        -124.786          -62.141        -16.9476          -62.141        -16.9471      -0.00804819         150.676
0.508                  -0.259298        -125.119         -61.9899        -19.0463         -61.9899        -19.0459      -0.00810939          150.61
0.509                   -0.26695        -125.445          -61.837        -21.1618         -61.8369        -21.1613      -0.00817117         150.544
0.51                   -0.271993        -125.766         -61.6821        -23.2941         -61.6821        -23.2935      -0.00823355         150.478
0.511                  -0.273917        -126.084         -61.5254        -25.4433         -61.5253        -25.4427      -0.00829657         150.412
0.512                  -0.272176        -126.402         -61.3669        -27.6096         -61.3668         -27.609      -0.00836025         150.346
0.513                  -0.266231        -126.723         -61.2066        -29.7933         -61.2066        -29.7926      -0.00842464          150.28
0.514                  -0.255621        -127.055         -61.0447        -31.9943         -61.0447        -31.9937      -0.00848976         150.214
0.515                  -0.240079        -127.405         -60.8813         -34.213         -60.8812        -34.2123      -0.00855565         150.148
0.516                  -0.219679        -127.782         -60.7163        -36.4494         -60.7163        -36.4487      -0.00862236         150.081
0.517                  -0.195006        -128.199         -60.5498        -38.7038         -60.5498        -38.7031      -0.00868993         150.015
0.518                  -0.167294        -128.665          -60.382        -40.9763          -60.382        -40.9756       -0.0087584         149.948
0.519                  -0.138464        -129.188          -60.213        -43.2672          -60.213        -43.2664      -0.00882782         149.881
0.52                    -0.11099        -129.773         -60.0427        -45.5765         -60.0427        -45.5757      -0.00889824         149.814
0.521                 -0.0875552        -130.417         -59.8714        -47.9044         -59.8714        -47.9037      -0.00896971         149.748
0.522                 -0.0705828         -131.11         -59.6992        -50.2512         -59.6992        -50.2505      -0.00904228         149.681
0.523                 -0.0617825        -131.838         -59.5261        -52.6169         -59.5261        -52.6162      -0.00911602         149.614
0.524                 -0.0618879        -132.583         -59.3523        -55.0017         -59.3522         -55.001      -0.00919096         149.546
0.525                 -0.0706586         -133.33         -59.1778        -57.4055         -59.1778        -57.4048      -0.00926719         149.479
0.526                 -0.0871048        -134.065         -59.0029        -59.8286         -59.0029        -59.8279      -0.00934475         149.412
0.527                  -0.109812        -134.777         -58.8276        -62.2708         -58.8276        -62.2702       -0.0094237         149.344
0.528                  -0.137248        -135.463         -58.6521        -64.7323         -58.6521        -64.7317      -0.00950412         149.277
0.529                  -0.167978        -136.121         -58.4766        -67.2131         -58.4765        -67.2125      -0.00958605         149.209
0.53                   -0.200786        -136.751         -58.3011         -69.713          -58.301        -69.7124      -0.00966958         149.141
0.531                  -0.234711        -137.356         -58.1257        -72.2321         -58.1257        -72.2315      -0.00975475         149.074
0.532                  -0.269036        -137.938         -57.9508        -74.7702         -57.9508        -74.7697      -0.00984164         149.006
0.533                  -0.303252          -138.5         -57.7763        -77.3271         -57.7763        -77.3267      -0.00993029         148.938
0.534                  -0.337016        -139.046         -57.6025        -79.9028         -57.6025        -79.9024       -0.0100208          148.87
0.535                   -0.37011        -139.579         -57.4296         -82.497         -57.4295        -82.4966       -0.0101132         148.801
0.536                  -0.402406          -140.1         -57.2576        -85.1093         -57.2575        -85.1089       -0.0102075         148.733
0.537                  -0.433842        -140.613         -57.0867        -87.7394         -57.0867        -87.7391       -0.0103038         148.665
0.538                  -0.464398        -141.118         -56.9171         -90.387         -56.9171        -90.3867       -0.0104021         148.596
0.539                  -0.494083        -141.618          -56.749        -93.0515          -56.749        -93.0513       -0.0105025         148.527
0.54                   -0.522926        -142.114         -56.5825        -95.7325         -56.5825        -95.7323        -0.010605         148.459
0.541                  -0.550966        -142.607         -56.4178        -98.4293         -56.4178        -98.4292       -0.0107096          148.39
0.542                  -0.578248        -143.097          -56.255        -101.141          -56.255        -101.141       -0.0108164         148.321
0.543                   -0.60482        -143.587         -56.0942        -103.868         -56.0942        -103.868       -0.0109253         148.252
0.544                  -0.630732        -144.076         -55.9357        -106.608         -55.9357        -106.608       -0.0110363         148.183
0.545                  -0.656029        -144.564         -55.7795        -109.361         -55.7795        -109.361       -0.0111494         148.114
0.546                  -0.680759        -145.054         -55.6258        -112.126         -55.6258        -112.126       -0.0112647         148.044
0.547                  -0.704964        -145.544         -55.4747        -114.902         -55.4747        -114.902        -0.011382         147.975
0.548                  -0.728687        -146.035         -55.3263        -117.688         -55.3263        -117.688       -0.0115014         147.905
0.549                  -0.751965        -146.528         -55.1807        -120.483         -55.1807        -120.483       -0.0116228         147.835
0.55                   -0.774837        -147.023          -55.038        -123.285         -55.0381        -123.285        -0.011746         147.766
0.551                  -0.797335         -147.52         -54.8983        -126.094         -54.8983        -126.094       -0.0118712         147.696
0.552                  -0.819494         -148.02         -54.7616        -128.908         -54.7617        -128.909       -0.0119981         147.626
0.553                  -0.841343        -148.522          -54.628        -131.727         -54.6281        -131.727       -0.0121267         147.556
0.554                  -0.862913        -149.027         -54.4976        -134.548         -54.4976        -134.549       -0.0122569         147.485
0.555                  -0.884233        -149.535         -54.3702        -137.371         -54.3703        -137.372       -0.0123886         147.415
0.556                  -0.905328        -150.047          -54.246        -140.195         -54.2461        -140.195       -0.0125218         147.345
0.557                  -0.926227        -150.562          -54.125        -143.017          -54.125        -143.017       -0.0126563         147.274
0.558                  -0.946955        -151.081          -54.007        -145.838         -54.0071        -145.838        -0.012792         147.204
0.559                  -0.967537        -151.603         -53.8922        -148.654         -53.8922        -148.655       -0.0129289         147.133
0.56                      -0.988         -152.13         -53.7803        -151.467         -53.7804        -151.467       -0.0130668         147.062
0.561                   -1.00837        -152.661         -53.6714        -154.273         -53.6715        -154.273       -0.0132057         146.991
0.562                   -1.02867        -153.196         -53.5654        -157.073         -53.5655        -157.073       -0.0133455          146.92
0.563                   -1.04892        -153.735         -53.4622        -159.865         -53.4622        -159.865       -0.0134861         146.849
0.564                   -1.06917         -154.28         -53.3616        -162.648         -53.3616        -162.648       -0.0136274         146.777
0.565                   -1.08942        -154.829         -53.2635        -165.421         -53.2636        -165.421       -0.0137695         146.706
0.566                   -1.10971        -155.383         -53.1679        -168.183          -53.168        -168.183       -0.0139122         146.634
0.567                   -1.13007        -155.942         -53.0746        -170.934         -53.0746        -170.934       -0.0140555         146.562
0.568                   -1.15052        -156.507         -52.9833        -173.672         -52.9834        -173.672       -0.0141994          146.49
0.569                   -1.17111        -157.077         -52.8941        -176.398         -52.8941        -176.398       -0.0143438         146.418
0.57                    -1.19185        -157.653         -52.8066        -179.111         -52.8067        -179.111       -0.0144888         146.346
0.571                   -1.21279        -158.235         -52.7208          178.19         -52.7209          178.19       -0.0146343         146.274
0.572                   -1.23397        -158.822         -52.6365         175.505         -52.6366         175.505       -0.0147804         146.202
0.573                   -1.25541        -159.416         -52.5535         172.835         -52.5535         172.835       -0.0149271         146.129
0.574                   -1.27715        -160.015         -52.4716         170.179         -52.4717         170.179       -0.0150743         146.056
0.575                   -1.29925        -160.621         -52.3907         167.537         -52.3907         167.537       -0.0152222         145.983
0.576                   -1.32174        -161.234         -52.3106          164.91         -52.3106          164.91       -0.0153708          145.91
0.577                   -1.34466        -161.853          -52.231         162.297         -52.2311         162.297         -0.01552         145.837
0.578                   -1.36807        -162.479          -52.152         159.698          -52.152         159.698         -0.01567         145.764
0.579                     -1.392        -163.112         -52.0732         157.112         -52.0732         157.113       -0.0158209         145.691
0.58                    -1.41653        -163.751         -51.9946         154.541         -51.9946         154.541       -0.0159726         145.617
0.581                   -1.44169        -164.398         -51.9159         151.981         -51.9159         151.982       -0.0161253         145.543
0.582                   -1.46755        -165.051         -51.8371         149.435         -51.8371         149.435        -0.016279         145.469
0.583                   -1.49416        -165.712          -51.758         146.899          -51.758         146.899       -0.0164338         145.395
0.584                   -1.52158        -166.379         -51.6785         144.375         -51.6785         144.375       -0.0165898         145.321
0.585                   -1.54988        -167.054         -51.5985         141.861         -51.5985         141.861        -0.016747         145.247
0.586                   -1.57913        -167.735         -51.5179         139.357         -51.5179         139.357       -0.0169056         145.172
0.587                   -1.60938        -168.424         -51.4366          136.86         -51.4366          136.86       -0.0170656         145.097
0.588                   -1.64071        -169.119         -51.3545         134.372         -51.3545         134.372       -0.0172271         145.022
0.589                   -1.67319        -169.821         -51.2716          131.89         -51.2716          131.89       -0.0173902         144.947
0.59                    -1.70688         -170.53         -51.1878         129.415         -51.1878         129.415        -0.017555         144.872
0.591                   -1.74187        -171.246         -51.1031         126.944         -51.1031         126.944       -0.0177216         144.797
0.592                   -1.77821        -171.967         -51.0174         124.476         -51.0174         124.476       -0.0178901         144.721
0.593                   -1.81599        -172.695         -50.9308         122.012         -50.9308         122.012       -0.0180606         144.645
0.594                   -1.85528        -173.428         -50.8432          119.55         -50.8432          119.55       -0.0182331         144.569
0.595                   -1.89613        -174.166         -50.7547         117.089         -50.7547         117.089       -0.0184077         144.493
0.596                   -1.93864        -174.909         -50.6653         114.628         -50.6653         114.628       -0.0185846         144.417
0.597                   -1.98284        -175.657          -50.575         112.167          -50.575         112.167       -0.0187638          144.34
0.598                   -2.02882        -176.409          -50.484         109.704          -50.484         109.704       -0.0189454         144.264
0.599                   -2.07663        -177.164         -50.3922         107.239         -50.3922         107.239       -0.0191296         144.187
0.6                     -2.12632        -177.922         -50.2998         104.771         -50.2998         104.771       -0.0193164          144.11
0.601                   -2.17793        -178.683         -50.2067           102.3         -50.2067           102.3       -0.0195058         144.032
0.602                   -2.23151        -179.445         -50.1133          99.824         -50.1133          99.824       -0.0196981         143.955
0.603                   -2.28708         179.792         -50.0194         97.3438         -50.0194         97.3438       -0.0198932         143.877
0.604                   -2.34468         179.029         -49.9252         94.8586         -49.9252         94.8586       -0.0200912         143.799
0.605                    -2.4043         178.266         -49.8309         92.3681         -49.8309         92.3681       -0.0202923         143.721
0.606                   -2.46597         177.504         -49.7365         89.8719         -49.7365         89.8719       -0.0204966         143.643
0.607                   -2.52966         176.745         -49.6422           87.37         -49.6422           87.37        -0.020704         143.564
0.608                   -2.59537         175.989          -49.548         84.8622          -49.548         84.8622       -0.0209147         143.486
0.609                   -2.66304         175.236         -49.4541         82.3485         -49.4541         82.3485       -0.0211288         143.407
0.61                    -2.73265         174.488         -49.3606         79.8289         -49.3606         79.8289       -0.0213463         143.327
0.611                   -2.80414         173.745         -49.2676         77.3036         -49.2676         77.3036       -0.0215673         143.248
0.612                   -2.87743         173.008         -49.1752         74.7727         -49.1752         74.7727       -0.0217919         143.168
0.613                   -2.95243         172.278         -49.0835         72.2365         -49.0835         72.2365       -0.0220201         143.089
0.614                   -3.02907         171.555         -48.9926         69.6953         -48.9926         69.6953        -0.022252         143.009
0.615                   -3.10722          170.84         -48.9026         67.1495         -48.9026         67.1495       -0.0224877         142.928
0.616                   -3.18678         170.134         -48.8135         64.5994         -48.8135         64.5994       -0.0227273         142.848
0.617                   -3.26762         169.436         -48.7255         62.0457         -48.7255         62.0457       -0.0229706         142.767
0.618                   -3.34961         168.748         -48.6386         59.4887         -48.6386         59.4887        -0.023218         142.686
0.619                   -3.43259         168.069         -48.5528         56.9289         -48.5528         56.9289       -0.0234692         142.605
0.62                    -3.51644           167.4         -48.4683         54.3671         -48.4683         54.3671       -0.0237246         142.523
0.621                   -3.60099         166.741          -48.385         51.8036          -48.385         51.8036       -0.0239839         142.442
0.622                   -3.68611         166.091         -48.3029         49.2392         -48.3029         49.2392       -0.0242474          142.36
0.623                   -3.77164         165.451         -48.2222         46.6745         -48.2222         46.6745        -0.024515         142.278
0.624                   -3.85744          164.82         -48.1428         44.1101         -48.1428         44.1101       -0.0247868         142.195
0.625                   -3.94336         164.197         -48.0647         41.5465         -48.0647         41.5466       -0.0250628         142.113
0.626                   -4.02926         163.583          -47.988         38.9845          -47.988         38.9845        -0.025343          142.03
0.627                   -4.11503         162.977         -47.9125         36.4247         -47.9125         36.4247       -0.0256275         141.946
0.628                   -4.20055         162.377         -47.8384         33.8675         -47.8384         33.8675       -0.0259163         141.863
0.629                   -4.28571         161.784         -47.7655         31.3137         -47.7655         31.3137       -0.0262094         141.779
