! TOUCHSTONE file generated by CST MICROWAVE STUDIO
! Date and time: Wed Oct 28 19:37:36 2020
! Project name: Scenario_1_Circular_Tissue_out_of_Line_v2.cst
! Parameters = {dy1=17.3; L_HA=400; MT=2.54; Rad_Dielectric=30; Rad_Lower=7.3; Rad_Upper=30; a_HA=580; a_WG=246; b_HA=500; b_WG=121; c_HA=0; c_WG=187; d_feed=85; dx1=346; h_feed=15; h_lower=18; h_upper=40}
! Header version: 2018
! Port assignment regex: !\s*Touchstone port\s*([0-9]+)\s*=\s*(CST MWS port|CST DS port)\s*([0-9]+|Zmin|Zmax)\s*\(\"(.*)\"\)(\s*mode\s*([0-9]+))?.*
! Touchstone port assignment:
! Touchstone port 1 = CST MWS port 1 ("")
! Touchstone port 2 = CST MWS port 2 ("")
# GHz S DB R 50
0.5                    -0.176931        -122.312         -58.1991          33.491         -58.1991          33.491      -0.00779486         151.131
0.501                  -0.173192        -122.795         -58.1309         32.4226         -58.1284         32.4195      -0.00785384         151.066
0.502                  -0.169858         -123.28          -58.061         31.3441          -58.056         31.3381      -0.00791324         151.001
0.503                  -0.166932        -123.767         -57.9895         30.2554          -57.982         30.2467      -0.00797308         150.935
0.504                   -0.16442        -124.256         -57.9162         29.1565         -57.9063         29.1453      -0.00803335          150.87
0.505                  -0.162327        -124.747         -57.8412         28.0475         -57.8288         28.0339      -0.00809408         150.805
0.506                  -0.160657        -125.241         -57.7644         26.9283         -57.7496         26.9126      -0.00815527         150.739
0.507                  -0.159415        -125.737         -57.6857          25.799         -57.6686         25.7813      -0.00821694         150.673
0.508                  -0.158606        -126.235         -57.6052         24.6596         -57.5857         24.6401      -0.00827909         150.608
0.509                  -0.158234        -126.735         -57.5228           23.51          -57.501         23.4889      -0.00834174         150.542
0.51                   -0.158303        -127.237         -57.4385         22.3504         -57.4145         22.3277       -0.0084049         150.476
0.511                  -0.158819        -127.742         -57.3522         21.1806          -57.326         21.1567      -0.00846857          150.41
0.512                  -0.159786        -128.248          -57.264         20.0009         -57.2355         19.9758      -0.00853277         150.344
0.513                  -0.161207        -128.757         -57.1738         18.8111         -57.1431         18.7851      -0.00859752         150.278
0.514                  -0.163087        -129.267         -57.0815         17.6113         -57.0488         17.5845      -0.00866282         150.212
0.515                   -0.16543         -129.78         -56.9871         16.4016         -56.9523         16.3741      -0.00872869         150.146
0.516                   -0.16824        -130.294         -56.8907          15.182         -56.8539          15.154      -0.00879514         150.079
0.517                  -0.171521         -130.81         -56.7922         13.9525         -56.7534         13.9241      -0.00886218         150.013
0.518                  -0.175277        -131.329         -56.6915         12.7132         -56.6508         12.6845      -0.00892982         149.946
0.519                  -0.179512        -131.849         -56.5886         11.4641         -56.5461         11.4353      -0.00899808          149.88
0.52                   -0.184229        -132.371         -56.4836         10.2053         -56.4393         10.1764      -0.00906698         149.813
0.521                  -0.189432        -132.895         -56.3764         8.93673         -56.3303         8.90794      -0.00913651         149.746
0.522                  -0.195124        -133.421         -56.2669         7.65854         -56.2192         7.62992       -0.0092067          149.68
0.523                  -0.201309        -133.948         -56.1552         6.37075         -56.1059         6.34236      -0.00927756         149.613
0.524                  -0.207989        -134.478         -56.0413         5.07337         -55.9904         5.04531      -0.00934911         149.546
0.525                  -0.215169        -135.009         -55.9251         3.76647         -55.8728         3.73878      -0.00942136         149.478
0.526                  -0.222851        -135.542         -55.8066         2.45006         -55.7529         2.42281      -0.00949431         149.411
0.527                  -0.231037        -136.076         -55.6858         1.12419         -55.6308         1.09742        -0.009568         149.344
0.528                  -0.239732        -136.612         -55.5627       -0.211116         -55.5065       -0.237379      -0.00964243         149.276
0.529                  -0.248936         -137.15         -55.4374        -1.55583         -55.3799        -1.58157      -0.00971762         149.209
0.53                   -0.258654        -137.689         -55.3097        -2.90994         -55.2512        -2.93513      -0.00979357         149.141
0.531                  -0.268886         -138.23         -55.1797        -4.27343         -55.1202        -4.29807      -0.00987032         149.074
0.532                  -0.279637        -138.772         -55.0474        -5.64629          -54.987        -5.67039      -0.00994787         149.006
0.533                  -0.290907        -139.316         -54.9128        -7.02851         -54.8515        -7.05209       -0.0100262         148.938
0.534                  -0.302698        -139.861         -54.7759         -8.4201         -54.7139         -8.4432       -0.0101055          148.87
0.535                  -0.315014        -140.407         -54.6367        -9.82108          -54.574        -9.84372       -0.0101855         148.802
0.536                  -0.327855        -140.955         -54.4953        -11.2315          -54.432        -11.2537       -0.0102664         148.734
0.537                  -0.341223        -141.505         -54.3515        -12.6513         -54.2878        -12.6732       -0.0103483         148.665
0.538                   -0.35512        -142.056         -54.2055        -14.0806         -54.1414        -14.1022        -0.010431         148.597
0.539                  -0.369546        -142.608         -54.0573        -15.5194         -53.9929        -15.5408       -0.0105146         148.528
0.54                   -0.384504        -143.161         -53.9068        -16.9678         -53.8422         -16.989       -0.0105992          148.46
0.541                  -0.399995        -143.715         -53.7542        -18.4258         -53.6895         -18.447       -0.0106848         148.391
0.542                  -0.416019        -144.271         -53.5994        -19.8936         -53.5347        -19.9149       -0.0107713         148.322
0.543                  -0.432577        -144.828         -53.4424        -21.3713         -53.3778        -21.3926       -0.0108588         148.253
0.544                   -0.44967        -145.386         -53.2834        -22.8588         -53.2189        -22.8804       -0.0109473         148.184
0.545                  -0.467299        -145.945         -53.1222        -24.3564         -53.0581        -24.3783       -0.0110369         148.115
0.546                  -0.485464        -146.506         -52.9591        -25.8642         -52.8953        -25.8865       -0.0111275         148.046
0.547                  -0.504165        -147.067         -52.7939        -27.3823         -52.7306        -27.4051       -0.0112192         147.976
0.548                  -0.523403        -147.629         -52.6268        -28.9109         -52.5641        -28.9343        -0.011312         147.907
0.549                  -0.543178        -148.193         -52.4578        -30.4501         -52.3957        -30.4742       -0.0114059         147.837
0.55                    -0.56349        -148.757         -52.2869        -32.0001         -52.2256        -32.0249        -0.011501         147.767
0.551                  -0.584338        -149.322         -52.1142        -33.5612         -52.0538        -33.5868       -0.0115972         147.697
0.552                  -0.605723        -149.889         -51.9398        -35.1334         -51.8804        -35.1599       -0.0116946         147.627
0.553                  -0.627644        -150.456         -51.7637         -36.717         -51.7054        -36.7445       -0.0117932         147.557
0.554                    -0.6501        -151.024          -51.586        -38.3122         -51.5289        -38.3407       -0.0118931         147.487
0.555                  -0.673092        -151.593         -51.4068        -39.9192          -51.351        -39.9488       -0.0119942         147.417
0.556                  -0.696617        -152.163         -51.2261        -41.5384         -51.1716         -41.569       -0.0120966         147.346
0.557                  -0.720676        -152.733          -51.044        -43.1698          -50.991        -43.2015       -0.0122003         147.276
0.558                  -0.745268        -153.304         -50.8605        -44.8138         -50.8092        -44.8465       -0.0123053         147.205
0.559                  -0.770391        -153.877         -50.6759        -46.4706         -50.6263        -46.5043       -0.0124117         147.134
0.56                   -0.796045        -154.449         -50.4902        -48.1404         -50.4423         -48.175       -0.0125194         147.063
0.561                  -0.822228        -155.023         -50.3034        -49.8236         -50.2574         -49.859       -0.0126286         146.992
0.562                  -0.848938        -155.597         -50.1157        -51.5202         -50.0716        -51.5564       -0.0127392         146.921
0.563                  -0.876176        -156.172         -49.9271        -53.2307         -49.8851        -53.2674       -0.0128512          146.85
0.564                  -0.903938        -156.748         -49.7378        -54.9552          -49.698        -54.9923       -0.0129648         146.778
0.565                  -0.932224        -157.324          -49.548        -56.6939         -49.5104        -56.7312       -0.0130799         146.707
0.566                  -0.961032        -157.901         -49.3576        -58.4471         -49.3223        -58.4844       -0.0131965         146.635
0.567                  -0.990361        -158.479         -49.1669        -60.2149          -49.134        -60.2519       -0.0133148         146.563
0.568                   -1.02021        -159.057          -48.976        -61.9976         -48.9455         -62.034       -0.0134346         146.491
0.569                   -1.05057        -159.636         -48.7849        -63.7953          -48.757        -63.8308       -0.0135561         146.419
0.57                    -1.08145        -160.215         -48.5939        -65.6082         -48.5686        -65.6423       -0.0136793         146.346
0.571                   -1.11284        -160.795         -48.4031        -67.4362         -48.3805        -67.4686       -0.0138042         146.274
0.572                   -1.14475        -161.376         -48.2126        -69.2796         -48.1927        -69.3099       -0.0139308         146.201
0.573                   -1.17716        -161.957         -48.0226        -71.1384         -48.0055         -71.166       -0.0140592         146.129
0.574                   -1.21008        -162.538         -47.8333        -73.0125         -47.8189         -73.037       -0.0141895         146.056
0.575                   -1.24351        -163.121         -47.6447         -74.902         -47.6332        -74.9227       -0.0143216         145.983
0.576                   -1.27743        -163.704         -47.4571        -76.8066         -47.4484        -76.8232       -0.0144555         145.909
0.577                   -1.31187        -164.287         -47.2706        -78.7264         -47.2648         -78.738       -0.0145915         145.836
0.578                    -1.3468        -164.871         -47.0854         -80.661         -47.0825        -80.6672       -0.0147294         145.763
0.579                   -1.38222        -165.456         -46.9016        -82.6103         -46.9016        -82.6103       -0.0148693         145.689
0.58                    -1.41814        -166.041         -46.7195        -84.5739         -46.7224        -84.5671       -0.0150113         145.615
0.581                   -1.45456        -166.626         -46.5391        -86.5514         -46.5449        -86.5371       -0.0151554         145.541
0.582                   -1.49147        -167.213         -46.3607        -88.5424         -46.3693        -88.5199       -0.0153016         145.467
0.583                   -1.52886          -167.8         -46.1844        -90.5464         -46.1958         -90.515         -0.01545         145.393
0.584                   -1.56675        -168.387         -46.0104        -92.5628         -46.0244        -92.5218       -0.0156006         145.318
0.585                   -1.60512        -168.975         -45.8387        -94.5909         -45.8555        -94.5397       -0.0157535         145.244
0.586                   -1.64397        -169.564         -45.6697        -96.6301          -45.689        -96.5679       -0.0159088         145.169
0.587                   -1.68331        -170.153         -45.5034        -98.6795         -45.5252        -98.6057       -0.0160664         145.094
0.588                   -1.72312        -170.743         -45.3399        -100.738         -45.3641        -100.652       -0.0162265         145.019
0.589                   -1.76342        -171.334         -45.1794        -102.806         -45.2059        -102.707        -0.016389         144.944
0.59                    -1.80419        -171.926         -45.0219         -104.88         -45.0506        -104.768        -0.016554         144.868
0.591                   -1.84544        -172.518         -44.8677        -106.962         -44.8985        -106.835       -0.0167217         144.792
0.592                   -1.88716        -173.111         -44.7168        -109.048         -44.7494        -108.908        -0.016892         144.717
0.593                   -1.92936        -173.704         -44.5693        -111.139         -44.6037        -110.984        -0.017065         144.641
0.594                   -1.97203        -174.299         -44.4252        -113.233         -44.4612        -113.063       -0.0172408         144.564
0.595                   -2.01517        -174.894         -44.2846        -115.329          -44.322        -115.143       -0.0174193         144.488
0.596                   -2.05879         -175.49         -44.1476        -117.426         -44.1863        -117.224       -0.0176008         144.412
0.597                   -2.10287        -176.087         -44.0141        -119.522         -44.0539        -119.305       -0.0177852         144.335
0.598                   -2.14742        -176.685         -43.8843        -121.616          -43.925        -121.383       -0.0179726         144.258
0.599                   -2.19244        -177.284          -43.758        -123.707         -43.7995        -123.459       -0.0181631         144.181
0.6                     -2.23793        -177.884         -43.6353        -125.794         -43.6773         -125.53       -0.0183568         144.103
0.601                   -2.28389        -178.485         -43.5162        -127.876         -43.5586        -127.596       -0.0185536         144.026
0.602                   -2.33033        -179.087         -43.4005        -129.951         -43.4432        -129.656       -0.0187538         143.948
0.603                   -2.37723         -179.69         -43.2883        -132.018          -43.331        -131.709       -0.0189573          143.87
0.604                    -2.4246         179.705         -43.1795        -134.076          -43.222        -133.753       -0.0191642         143.792
0.605                   -2.47245           179.1          -43.074        -136.124         -43.1162        -135.787       -0.0193747         143.714
0.606                   -2.52077         178.493         -42.9716        -138.162         -43.0134        -137.812       -0.0195887         143.635
0.607                   -2.56956         177.885         -42.8723        -140.187         -42.9135        -139.825       -0.0198065         143.557
0.608                   -2.61883         177.275          -42.776          -142.2         -42.8165        -141.826       -0.0200279         143.478
0.609                   -2.66858         176.664         -42.6826          -144.2         -42.7221        -143.814       -0.0202532         143.399
0.61                    -2.71882         176.051         -42.5919        -146.185         -42.6304        -145.789       -0.0204825         143.319
0.611                   -2.76954         175.437         -42.5037        -148.155         -42.5411         -147.75       -0.0207157          143.24
0.612                   -2.82075         174.821          -42.418         -150.11         -42.4541        -149.697        -0.020953          143.16
0.613                   -2.87245         174.204         -42.3345        -152.049         -42.3693        -151.628       -0.0211945          143.08
0.614                   -2.92464         173.584         -42.2533        -153.972         -42.2866        -153.544       -0.0214403             143
0.615                   -2.97734         172.963          -42.174        -155.878         -42.2058        -155.445       -0.0216904         142.919
0.616                   -3.03054          172.34         -42.0965        -157.768         -42.1268        -157.329       -0.0219449         142.839
0.617                   -3.08426         171.714         -42.0207         -159.64         -42.0494        -159.197        -0.022204         142.758
0.618                   -3.13849         171.087         -41.9465        -161.495         -41.9735        -161.049       -0.0224677         142.676
0.619                   -3.19325         170.457         -41.8736        -163.332         -41.8989        -162.885       -0.0227361         142.595
0.62                    -3.24854         169.825         -41.8019        -165.153         -41.8256        -164.705       -0.0230092         142.513
0.621                   -3.30437         169.191         -41.7314        -166.956         -41.7533        -166.508       -0.0232873         142.431
0.622                   -3.36074         168.554         -41.6618        -168.742         -41.6819        -168.295       -0.0235702         142.349
0.623                   -3.41767         167.915          -41.593        -170.512         -41.6114        -170.066       -0.0238582         142.267
0.624                   -3.47517         167.273         -41.5249        -172.265         -41.5416        -171.822       -0.0241513         142.184
0.625                   -3.53325         166.628         -41.4574        -174.001         -41.4723        -173.562       -0.0244496         142.101
0.626                   -3.59192          165.98         -41.3902        -175.722         -41.4034        -175.287       -0.0247531         142.018
0.627                   -3.65118         165.329         -41.3234        -177.427          -41.335        -176.997       -0.0250619         141.935
0.628                   -3.71106         164.675         -41.2568        -179.118         -41.2667        -178.693        -0.025376         141.851
0.629                   -3.77157         164.018         -41.1902         179.207         -41.1986         179.626       -0.0256956         141.767
