! TOUCHSTONE file generated by CST MICROWAVE STUDIO
! Date and time: Fri Oct 30 07:57:46 2020
! Project name: Scenario_1_Circular_Tissue_out_of_Line.cst
! Parameters = {dy1=18.161; L_HA=400; MT=2.54; Rad_Dielectric=30; Rad_Lower=7.3; Rad_Upper=30; a_HA=580; a_WG=246; b_HA=500; b_WG=121; c_HA=0; c_WG=187; d_feed=85; dx1=520; h_feed=15; h_lower=18; h_upper=40}
! Header version: 2018
! Port assignment regex: !\s*Touchstone port\s*([0-9]+)\s*=\s*(CST MWS port|CST DS port)\s*([0-9]+|Zmin|Zmax)\s*\(\"(.*)\"\)(\s*mode\s*([0-9]+))?.*
! Touchstone port assignment:
! Touchstone port 1 = CST MWS port 1 ("")
! Touchstone port 2 = CST MWS port 2 ("")
# GHz S DB R 50
0.5                    -0.130615        -122.468         -60.9619        -60.0181         -60.9619        -60.0181      -0.00738015         151.115
0.501                  -0.136312        -122.914         -60.7715        -61.4384         -60.7716        -61.4378      -0.00744176         151.049
0.502                   -0.14224        -123.363         -60.5799        -62.8763         -60.5801        -62.8752      -0.00750403         150.984
0.503                   -0.14841        -123.814         -60.3873        -64.3323         -60.3876        -64.3307      -0.00756703         150.919
0.504                  -0.154835        -124.268         -60.1938        -65.8067         -60.1942        -65.8046      -0.00763082         150.853
0.505                  -0.161525        -124.724         -59.9995        -67.2998         -59.9999        -67.2973      -0.00769544         150.787
0.506                  -0.168494        -125.182         -59.8044        -68.8121         -59.8049        -68.8091      -0.00776098         150.722
0.507                  -0.175753        -125.643         -59.6087        -70.3438         -59.6092        -70.3404       -0.0078275         150.656
0.508                  -0.183315        -126.106         -59.4124        -71.8953         -59.4129        -71.8915      -0.00789506          150.59
0.509                  -0.191193        -126.572         -59.2157        -73.4668         -59.2162        -73.4627      -0.00796373         150.524
0.51                   -0.199399         -127.04         -59.0186        -75.0586         -59.0192        -75.0542      -0.00803359         150.458
0.511                  -0.207946         -127.51         -58.8213         -76.671         -58.8219        -76.6663       -0.0081047         150.392
0.512                  -0.216846        -127.982         -58.6239        -78.3041         -58.6245        -78.2992      -0.00817714         150.326
0.513                  -0.226111        -128.457         -58.4265        -79.9582         -58.4271         -79.953      -0.00825097          150.26
0.514                  -0.235752        -128.934         -58.2293        -81.6335         -58.2299        -81.6281      -0.00832627         150.193
0.515                  -0.245781        -129.412         -58.0325        -83.3299          -58.033        -83.3244      -0.00840309         150.127
0.516                  -0.256207        -129.893          -57.836        -85.0476         -57.8366        -85.0419       -0.0084815          150.06
0.517                   -0.26704        -130.375         -57.6401        -86.7866         -57.6407        -86.7809      -0.00856156         149.994
0.518                  -0.278289        -130.859          -57.445        -88.5469         -57.4455        -88.5411      -0.00864332         149.927
0.519                  -0.289959        -131.345         -57.2508        -90.3283         -57.2512        -90.3225      -0.00872682          149.86
0.52                   -0.302057        -131.832         -57.0576        -92.1308          -57.058        -92.1249      -0.00881212         149.793
0.521                  -0.314585        -132.321         -56.8656         -93.954          -56.866        -93.9482      -0.00889923         149.726
0.522                  -0.327547        -132.811         -56.6749        -95.7978         -56.6753        -95.7921       -0.0089882         149.659
0.523                  -0.340941        -133.302         -56.4858        -97.6618         -56.4861        -97.6562      -0.00907904         149.592
0.524                  -0.354766        -133.794         -56.2983        -99.5456         -56.2986        -99.5401      -0.00917176         149.525
0.525                  -0.369016        -134.286         -56.1127        -101.449         -56.1129        -101.443      -0.00926637         149.458
0.526                  -0.383685         -134.78          -55.929         -103.37         -55.9292        -103.365      -0.00936285          149.39
0.527                  -0.398762        -135.274         -55.7475         -105.31         -55.7476        -105.305       -0.0094612         149.323
0.528                  -0.414235        -135.768         -55.5682        -107.268         -55.5684        -107.263      -0.00956138         149.255
0.529                  -0.430089        -136.263         -55.3914        -109.241         -55.3915        -109.237      -0.00966338         149.188
0.53                   -0.446306        -136.758         -55.2172        -111.231         -55.2172        -111.227      -0.00976715          149.12
0.531                  -0.462865        -137.253         -55.0456        -113.236         -55.0456        -113.232      -0.00987264         149.052
0.532                  -0.479743        -137.747         -54.8768        -115.254         -54.8768         -115.25       -0.0099798         148.984
0.533                  -0.496915        -138.242          -54.711        -117.285         -54.7109        -117.282       -0.0100886         148.916
0.534                  -0.514354        -138.737         -54.5481        -119.328          -54.548        -119.325       -0.0101989         148.848
0.535                   -0.53203        -139.231         -54.3884        -121.381         -54.3882        -121.378       -0.0103107          148.78
0.536                  -0.549913        -139.725         -54.2318        -123.444         -54.2316        -123.441        -0.010424         148.712
0.537                  -0.567971        -140.219         -54.0784        -125.515         -54.0783        -125.513       -0.0105386         148.643
0.538                  -0.586173        -140.713         -53.9283        -127.592         -53.9282         -127.59       -0.0106545         148.575
0.539                  -0.604484        -141.206         -53.7816        -129.675         -53.7814        -129.674       -0.0107715         148.506
0.54                   -0.622875          -141.7         -53.6382        -131.763          -53.638        -131.761       -0.0108897         148.438
0.541                  -0.641312        -142.193         -53.4981        -133.853         -53.4978        -133.852        -0.011009         148.369
0.542                  -0.659767        -142.687         -53.3613        -135.945         -53.3611        -135.944       -0.0111293           148.3
0.543                  -0.678211        -143.181         -53.2278        -138.037         -53.2276        -138.037       -0.0112505         148.231
0.544                  -0.696617        -143.675         -53.0976        -140.128         -53.0974        -140.128       -0.0113725         148.162
0.545                  -0.714961         -144.17         -52.9706        -142.218         -52.9703        -142.218       -0.0114954         148.093
0.546                  -0.733224        -144.667         -52.8467        -144.303         -52.8465        -144.304        -0.011619         148.024
0.547                  -0.751388        -145.164         -52.7258        -146.385         -52.7256        -146.386       -0.0117434         147.954
0.548                  -0.769437        -145.662          -52.608        -148.461         -52.6078        -148.462       -0.0118684         147.885
0.549                  -0.787361        -146.162         -52.4929         -150.53         -52.4928        -150.531        -0.011994         147.815
0.55                   -0.805154        -146.664         -52.3807        -152.592         -52.3805        -152.593       -0.0121202         147.745
0.551                  -0.822812        -147.169         -52.2711        -154.646         -52.2709        -154.647        -0.012247         147.676
0.552                  -0.840335        -147.675         -52.1639         -156.69         -52.1638        -156.691       -0.0123742         147.606
0.553                  -0.857727        -148.185         -52.0592        -158.724          -52.059        -158.726       -0.0125021         147.536
0.554                  -0.874995        -148.697         -51.9566        -160.748         -51.9565        -160.749       -0.0126304         147.466
0.555                   -0.89215        -149.213         -51.8562         -162.76         -51.8561        -162.762       -0.0127591         147.396
0.556                  -0.909206        -149.732         -51.7577        -164.761         -51.7576        -164.763       -0.0128884         147.325
0.557                  -0.926181        -150.255          -51.661         -166.75         -51.6609        -166.751       -0.0130181         147.255
0.558                  -0.943092        -150.782         -51.5659        -168.726         -51.5659        -168.728       -0.0131484         147.184
0.559                  -0.959964        -151.313         -51.4723         -170.69         -51.4723        -170.691       -0.0132791         147.113
0.56                   -0.976819        -151.848         -51.3801         -172.64         -51.3801        -172.642       -0.0134102         147.043
0.561                  -0.993684        -152.388         -51.2891        -174.577         -51.2891        -174.579       -0.0135419         146.972
0.562                   -1.01059        -152.933         -51.1991        -176.502         -51.1991        -176.503       -0.0136741         146.901
0.563                   -1.02756        -153.484           -51.11        -178.413         -51.1101        -178.414       -0.0138069          146.83
0.564                   -1.04463        -154.039         -51.0217         179.689         -51.0218         179.688       -0.0139401         146.758
0.565                   -1.06184        -154.599         -50.9341         177.804         -50.9341         177.803        -0.014074         146.687
0.566                    -1.0792        -155.165          -50.847         175.932          -50.847         175.931       -0.0142085         146.615
0.567                   -1.09677        -155.737         -50.7602         174.073         -50.7602         174.072       -0.0143435         146.543
0.568                   -1.11457        -156.315         -50.6737         172.226         -50.6737         172.225       -0.0144793         146.472
0.569                   -1.13264        -156.898         -50.5874         170.391         -50.5874          170.39       -0.0146157           146.4
0.57                    -1.15102        -157.487         -50.5011         168.567         -50.5011         168.567       -0.0147528         146.328
0.571                   -1.16973        -158.082         -50.4147         166.756         -50.4147         166.755       -0.0148907         146.255
0.572                   -1.18883        -158.684         -50.3282         164.955         -50.3282         164.954       -0.0150294         146.183
0.573                   -1.20834        -159.291         -50.2414         163.165         -50.2415         163.164       -0.0151689          146.11
0.574                    -1.2283        -159.905         -50.1543         161.385         -50.1544         161.384       -0.0153093         146.038
0.575                   -1.24876        -160.525         -50.0668         159.614         -50.0668         159.614       -0.0154505         145.965
0.576                   -1.26974        -161.152         -49.9788         157.853         -49.9788         157.853       -0.0155927         145.892
0.577                   -1.29129        -161.785         -49.8902         156.101         -49.8903         156.101       -0.0157359         145.819
0.578                   -1.31344        -162.424         -49.8011         154.357         -49.8011         154.357       -0.0158801         145.746
0.579                   -1.33624        -163.069         -49.7112          152.62         -49.7112         152.621       -0.0160253         145.672
0.58                    -1.35973        -163.722         -49.6206         150.891         -49.6206         150.892       -0.0161717         145.599
0.581                   -1.38393         -164.38         -49.5293         149.169         -49.5293         149.169       -0.0163192         145.525
0.582                    -1.4089        -165.045         -49.4371         147.452         -49.4371         147.453        -0.016468         145.451
0.583                   -1.43467        -165.716         -49.3441         145.742         -49.3441         145.742       -0.0166179         145.377
0.584                   -1.46129        -166.394         -49.2502         144.036         -49.2502         144.037       -0.0167692         145.303
0.585                   -1.48879        -167.078         -49.1554         142.335         -49.1554         142.336       -0.0169218         145.228
0.586                   -1.51721        -167.769         -49.0597         140.638         -49.0597         140.639       -0.0170758         145.154
0.587                   -1.54661        -168.465          -48.963         138.944          -48.963         138.945       -0.0172313         145.079
0.588                   -1.57701        -169.168         -48.8654         137.253         -48.8653         137.254       -0.0173883         145.004
0.589                   -1.60848        -169.877         -48.7668         135.565         -48.7667         135.566       -0.0175468         144.929
0.59                    -1.64104        -170.593         -48.6672         133.879         -48.6672          133.88       -0.0177069         144.854
0.591                   -1.67474        -171.314         -48.5667         132.194         -48.5666         132.195       -0.0178687         144.779
0.592                   -1.70963        -172.041         -48.4652          130.51         -48.4651         130.511       -0.0180322         144.703
0.593                   -1.74576        -172.775         -48.3627         128.827         -48.3627         128.827       -0.0181975         144.627
0.594                   -1.78316        -173.514         -48.2593         127.143         -48.2593         127.144       -0.0183647         144.551
0.595                   -1.82189        -174.258          -48.155         125.459          -48.155          125.46       -0.0185337         144.475
0.596                     -1.862        -175.008         -48.0498         123.774         -48.0497         123.775       -0.0187047         144.399
0.597                   -1.90353        -175.764         -47.9437         122.088         -47.9436         122.088       -0.0188778         144.322
0.598                   -1.94652        -176.524         -47.8367         120.399         -47.8366           120.4       -0.0190529         144.246
0.599                   -1.99103         -177.29         -47.7288         118.709         -47.7288          118.71       -0.0192302         144.169
0.6                     -2.03711         -178.06         -47.6202         117.016         -47.6201         117.017       -0.0194097         144.092
0.601                   -2.08481        -178.835         -47.5108          115.32         -47.5107          115.32       -0.0195915         144.015
0.602                   -2.13417        -179.614         -47.4007          113.62         -47.4006         113.621       -0.0197757         143.937
0.603                   -2.18524         179.603         -47.2899         111.917         -47.2898         111.918       -0.0199623          143.86
0.604                   -2.23807         178.815         -47.1784         110.209         -47.1783          110.21       -0.0201515         143.782
0.605                   -2.29271         178.025         -47.0663         108.498         -47.0662         108.499       -0.0203432         143.704
0.606                    -2.3492         177.231         -46.9537         106.781         -46.9536         106.782       -0.0205376         143.625
0.607                    -2.4076         176.434         -46.8405          105.06         -46.8405         105.061       -0.0207348         143.547
0.608                   -2.46795         175.635          -46.727         103.333         -46.7269         103.334       -0.0209347         143.468
0.609                   -2.53029         174.834          -46.613         101.601         -46.6129         101.602       -0.0211376         143.389
0.61                    -2.59466         174.031         -46.4986         99.8636         -46.4986         99.8643       -0.0213434          143.31
0.611                   -2.66111         173.226          -46.384           98.12          -46.384         98.1207       -0.0215524         143.231
0.612                   -2.72968         172.421         -46.2692         96.3704         -46.2691         96.3711       -0.0217645         143.151
0.613                    -2.8004         171.615         -46.1542         94.6147         -46.1541         94.6154       -0.0219798         143.071
0.614                   -2.87331          170.81          -46.039         92.8527          -46.039         92.8533       -0.0221985         142.991
0.615                   -2.94844         170.005         -45.9239         91.0843         -45.9239          91.085       -0.0224205         142.911
0.616                   -3.02581         169.202         -45.8087         89.3095         -45.8087         89.3102       -0.0226461         142.831
0.617                   -3.10545         168.401         -45.6937         87.5283         -45.6937         87.5289       -0.0228753          142.75
0.618                   -3.18738         167.602         -45.5788         85.7406         -45.5788         85.7412       -0.0231082         142.669
0.619                   -3.27161         166.806         -45.4641         83.9464         -45.4641          83.947       -0.0233449         142.588
0.62                    -3.35815         166.014         -45.3496         82.1458         -45.3496         82.1464       -0.0235855         142.506
0.621                   -3.44701         165.226         -45.2356         80.3389         -45.2356         80.3395         -0.02383         142.425
0.622                   -3.53818         164.443         -45.1219         78.5257         -45.1219         78.5263       -0.0240787         142.343
0.623                   -3.63165         163.667         -45.0086         76.7064         -45.0086          76.707       -0.0243315         142.261
0.624                   -3.72741         162.897         -44.8959         74.8812         -44.8959         74.8817       -0.0245885         142.178
0.625                   -3.82544         162.134         -44.7838         73.0501         -44.7838         73.0507         -0.02485         142.096
0.626                    -3.9257         161.379         -44.6723         71.2135         -44.6723         71.2141       -0.0251159         142.013
0.627                   -4.02815         160.634         -44.5615         69.3715         -44.5615         69.3721       -0.0253863         141.929
0.628                   -4.13274         159.897         -44.4514         67.5244         -44.4514          67.525       -0.0256614         141.846
0.629                   -4.23942         159.172         -44.3421         65.6725         -44.3421          65.673       -0.0259413         141.762
