! TOUCHSTONE file generated by CST MICROWAVE STUDIO
! Date and time: Wed Oct 28 19:17:38 2020
! Project name: Scenario_1_Circular_Tissue_out_of_Line.cst
! Parameters = {dy1=18.161; L_HA=400; MT=2.54; Rad_Dielectric=30; Rad_Lower=7.3; Rad_Upper=30; a_HA=580; a_WG=246; b_HA=500; b_WG=121; c_HA=0; c_WG=187; d_feed=85; dx1=693; h_feed=15; h_lower=18; h_upper=40}
! Header version: 2018
! Port assignment regex: !\s*Touchstone port\s*([0-9]+)\s*=\s*(CST MWS port|CST DS port)\s*([0-9]+|Zmin|Zmax)\s*\(\"(.*)\"\)(\s*mode\s*([0-9]+))?.*
! Touchstone port assignment:
! Touchstone port 1 = CST MWS port 1 ("")
! Touchstone port 2 = CST MWS port 2 ("")
# GHz S DB R 50
0.5                    -0.155253        -122.255         -61.9531        -166.464         -61.9531        -166.464      -0.00768899         151.138
0.501                  -0.158842         -122.69         -61.8478        -168.101         -61.8472        -168.104        -0.007755         151.072
0.502                  -0.162582        -123.128         -61.7401        -169.744          -61.739         -169.75      -0.00782131         151.007
0.503                  -0.166478        -123.568         -61.6302        -171.392         -61.6286        -171.402      -0.00788792         150.942
0.504                  -0.170537        -124.011         -61.5181        -173.046          -61.516        -173.059      -0.00795482         150.876
0.505                  -0.174764        -124.457         -61.4037        -174.705         -61.4011        -174.721      -0.00802201         150.811
0.506                  -0.179166        -124.905         -61.2872        -176.371         -61.2841        -176.389      -0.00808948         150.745
0.507                   -0.18375        -125.356         -61.1684        -178.041          -61.165        -178.062      -0.00815724          150.68
0.508                  -0.188523         -125.81         -61.0475        -179.718         -61.0437        -179.741      -0.00822528         150.614
0.509                  -0.193491        -126.266         -60.9245           178.6         -60.9202         178.575      -0.00829361         150.548
0.51                   -0.198663        -126.725         -60.7994         176.912         -60.7948         176.885      -0.00836221         150.482
0.511                  -0.204047        -127.188         -60.6722         175.218         -60.6673          175.19       -0.0084311         150.416
0.512                  -0.209649        -127.653          -60.543         173.519         -60.5377         173.488      -0.00850028          150.35
0.513                   -0.21548         -128.12         -60.4118         171.813         -60.4062         171.781      -0.00856975         150.284
0.514                  -0.221548        -128.591         -60.2786         170.101         -60.2728         170.068      -0.00863951         150.218
0.515                  -0.227861        -129.065         -60.1435         168.383         -60.1374         168.348      -0.00870956         150.152
0.516                   -0.23443        -129.541         -60.0064         166.659         -60.0001         166.622      -0.00877992         150.085
0.517                  -0.241264        -130.021         -59.8676         164.927         -59.8611          164.89       -0.0088506         150.019
0.518                  -0.248374        -130.503         -59.7268          163.19         -59.7202         163.151      -0.00892159         149.952
0.519                   -0.25577        -130.989         -59.5844         161.445         -59.5775         161.406      -0.00899292         149.886
0.52                   -0.263462        -131.477         -59.4401         159.693         -59.4332         159.653       -0.0090646         149.819
0.521                  -0.271463        -131.969         -59.2942         157.934         -59.2872         157.893      -0.00913664         149.752
0.522                  -0.279784        -132.463         -59.1467         156.167         -59.1396         156.126      -0.00920906         149.685
0.523                  -0.288437        -132.961         -58.9975         154.393         -58.9904         154.351      -0.00928188         149.618
0.524                  -0.297435        -133.462         -58.8468         152.611         -58.8396         152.568      -0.00935512         149.551
0.525                   -0.30679        -133.965         -58.6946          150.82         -58.6874         150.778       -0.0094288         149.484
0.526                  -0.316515        -134.472          -58.541         149.021         -58.5338         148.978      -0.00950296         149.417
0.527                  -0.326624        -134.982          -58.386         147.214         -58.3788         147.171      -0.00957762         149.349
0.528                  -0.337131        -135.495         -58.2296         145.397         -58.2225         145.354      -0.00965282         149.282
0.529                   -0.34805         -136.01          -58.072         143.571          -58.065         143.528      -0.00972859         149.214
0.53                   -0.359395        -136.529         -57.9132         141.736         -57.9062         141.693      -0.00980496         149.147
0.531                  -0.371182        -137.051         -57.7533         139.891         -57.7464         139.848      -0.00988199         149.079
0.532                  -0.383425        -137.576         -57.5922         138.036         -57.5854         137.994      -0.00995971         149.011
0.533                  -0.396139        -138.103         -57.4302          136.17         -57.4235         136.129       -0.0100382         148.943
0.534                   -0.40934        -138.634         -57.2672         134.294         -57.2607         134.253       -0.0101174         148.875
0.535                  -0.423043        -139.167         -57.1034         132.407          -57.097         132.367       -0.0101975         148.807
0.536                  -0.437264        -139.703         -56.9388         130.509         -56.9325         130.469       -0.0102786         148.739
0.537                  -0.452018        -140.242         -56.7734           128.6         -56.7674          128.56       -0.0103605          148.67
0.538                  -0.467321        -140.784         -56.6075         126.679         -56.6016          126.64       -0.0104435         148.602
0.539                  -0.483188        -141.328          -56.441         124.746         -56.4354         124.708       -0.0105276         148.533
0.54                   -0.499633        -141.875         -56.2741         122.801         -56.2686         122.763       -0.0106129         148.465
0.541                  -0.516673        -142.424         -56.1068         120.843         -56.1015         120.807       -0.0106994         148.396
0.542                   -0.53432        -142.975         -55.9392         118.873         -55.9342         118.837       -0.0107872         148.327
0.543                  -0.552589        -143.529         -55.7715          116.89         -55.7667         116.855       -0.0108764         148.258
0.544                  -0.571491        -144.084         -55.6037         114.894         -55.5991          114.86       -0.0109671         148.189
0.545                   -0.59104        -144.642         -55.4359         112.884         -55.4315         112.852       -0.0110593          148.12
0.546                  -0.611246        -145.201         -55.2682         110.862         -55.2641         110.831       -0.0111531          148.05
0.547                  -0.632118        -145.762         -55.1008         108.826         -55.0969         108.796       -0.0112486         147.981
0.548                  -0.653666        -146.325         -54.9338         106.776         -54.9301         106.748       -0.0113458         147.911
0.549                  -0.675895        -146.889         -54.7672         104.713         -54.7637         104.686       -0.0114449         147.842
0.55                   -0.698811        -147.454         -54.6011         102.637         -54.5979         102.611        -0.011546         147.772
0.551                  -0.722417        -148.021         -54.4358         100.546         -54.4328         100.522        -0.011649         147.702
0.552                  -0.746714        -148.588         -54.2712         98.4428         -54.2685           98.42       -0.0117541         147.632
0.553                    -0.7717        -149.155         -54.1076         96.3257          -54.105         96.3044       -0.0118613         147.562
0.554                  -0.797373        -149.724          -53.945         94.1953         -53.9426         94.1755       -0.0119707         147.491
0.555                  -0.823724        -150.292         -53.7835         92.0519         -53.7813         92.0336       -0.0120823         147.421
0.556                  -0.850745        -150.861         -53.6233         89.8955         -53.6213         89.8788       -0.0121963          147.35
0.557                  -0.878423        -151.429         -53.4645         87.7266         -53.4627         87.7114       -0.0123126          147.28
0.558                  -0.906743        -151.997         -53.3071         85.5453         -53.3055         85.5317       -0.0124312         147.209
0.559                  -0.935687        -152.565         -53.1514         83.3521         -53.1499           83.34       -0.0125524         147.138
0.56                   -0.965231        -153.132         -52.9973         81.1474          -52.996         81.1369        -0.012676         147.067
0.561                  -0.995351        -153.698         -52.8451         78.9316         -52.8439         78.9226        -0.012802         146.996
0.562                   -1.02602        -154.263         -52.6948         76.7052         -52.6937         76.6977       -0.0129306         146.925
0.563                    -1.0572        -154.827         -52.5465         74.4688         -52.5455         74.4628       -0.0130617         146.853
0.564                   -1.08886         -155.39         -52.4003          72.223         -52.3994         72.2185       -0.0131953         146.782
0.565                   -1.12096        -155.951         -52.2562         69.9684         -52.2555         69.9654       -0.0133315          146.71
0.566                   -1.15346        -156.511         -52.1145         67.7058         -52.1138         67.7041       -0.0134702         146.638
0.567                   -1.18632        -157.069          -51.975         65.4357         -51.9744         65.4353       -0.0136114         146.566
0.568                   -1.21949        -157.625          -51.838         63.1591         -51.8375         63.1599        -0.013755         146.494
0.569                   -1.25293         -158.18         -51.7035         60.8766         -51.7029         60.8786       -0.0139012         146.422
0.57                    -1.28658        -158.734         -51.5714          58.589         -51.5709         58.5922       -0.0140498          146.35
0.571                   -1.32039        -159.286         -51.4419         56.2973         -51.4414         56.3016       -0.0142008         146.277
0.572                   -1.35432        -159.836         -51.3149         54.0022         -51.3144         54.0075       -0.0143542         146.205
0.573                   -1.38832        -160.386         -51.1905         51.7047         -51.1901         51.7109       -0.0145099         146.132
0.574                   -1.42234        -160.934         -51.0688         49.4055         -51.0683         49.4125        -0.014668         146.059
0.575                   -1.45632        -161.481         -50.9496         47.1056         -50.9491         47.1134       -0.0148283         145.986
0.576                   -1.49023        -162.028          -50.833         44.8059         -50.8325         44.8143       -0.0149908         145.913
0.577                   -1.52403        -162.574          -50.719         42.5071         -50.7185         42.5161       -0.0151555          145.84
0.578                   -1.55768        -163.121         -50.6076         40.2102          -50.607         40.2197       -0.0153223         145.766
0.579                   -1.59113        -163.668         -50.4986          37.916         -50.4981         37.9259       -0.0154913         145.693
0.58                    -1.62437        -164.215         -50.3921         35.6253         -50.3915         35.6355       -0.0156623         145.619
0.581                   -1.65736        -164.764          -50.288         33.3388         -50.2874         33.3492       -0.0158353         145.545
0.582                    -1.6901        -165.314         -50.1863         31.0573         -50.1856         31.0679       -0.0160102         145.471
0.583                   -1.72256        -165.866         -50.0868         28.7815         -50.0861         28.7922       -0.0161871         145.397
0.584                   -1.75474        -166.421         -49.9896          26.512         -49.9888         26.5227       -0.0163659         145.323
0.585                   -1.78664        -166.978         -49.8944         24.2496         -49.8936         24.2602       -0.0165466         145.248
0.586                   -1.81826        -167.539         -49.8012         21.9947         -49.8004         22.0052       -0.0167291         145.174
0.587                   -1.84961        -168.104           -49.71         19.7479         -49.7092         19.7583       -0.0169134         145.099
0.588                   -1.88072        -168.673         -49.6206         17.5097         -49.6198         17.5198       -0.0170995         145.024
0.589                   -1.91161        -169.247          -49.533         15.2805         -49.5321         15.2903       -0.0172873         144.949
0.59                     -1.9423        -169.826          -49.447         13.0606          -49.446         13.0701       -0.0174769         144.874
0.591                   -1.97285        -170.411         -49.3624         10.8504         -49.3615         10.8595       -0.0176683         144.798
0.592                   -2.00328        -171.003         -49.2793         8.65021         -49.2784         8.65886       -0.0178614         144.723
0.593                   -2.03364          -171.6         -49.1975         6.46016         -49.1966         6.46836       -0.0180562         144.647
0.594                   -2.06399        -172.205         -49.1169         4.28044          -49.116         4.28817       -0.0182527         144.571
0.595                   -2.09439        -172.817         -49.0374         2.11118         -49.0365         2.11842        -0.018451         144.495
0.596                   -2.12489        -173.437         -48.9588      -0.0475588         -48.9579      -0.0408244        -0.018651         144.419
0.597                   -2.15556        -174.065         -48.8812        -2.19576         -48.8803        -2.18953       -0.0188527         144.342
0.598                   -2.18647        -174.701         -48.8043        -4.33343         -48.8034        -4.32773       -0.0190563         144.265
0.599                   -2.21769        -175.346          -48.728        -6.46066         -48.7272        -6.45547       -0.0192616         144.189
0.6                     -2.24929        -175.999         -48.6523        -8.57753         -48.6515        -8.57286       -0.0194687         144.112
0.601                   -2.28134        -176.662         -48.5771        -10.6842         -48.5763          -10.68       -0.0196777         144.034
0.602                   -2.31393        -177.333         -48.5023        -12.7808         -48.5016        -12.7772       -0.0198885         143.957
0.603                   -2.34713        -178.014         -48.4278        -14.8677         -48.4271        -14.8645       -0.0201012         143.879
0.604                   -2.38102        -178.704         -48.3535        -16.9449         -48.3528        -16.9422       -0.0203159         143.802
0.605                   -2.41569        -179.404         -48.2793        -19.0129         -48.2787        -19.0106       -0.0205325         143.724
0.606                   -2.45121         179.887         -48.2052        -21.0719         -48.2046          -21.07       -0.0207512         143.645
0.607                   -2.48767         179.168          -48.131        -23.1221         -48.1305        -23.1206       -0.0209719         143.567
0.608                   -2.52515         178.439         -48.0568         -25.164         -48.0563        -25.1629       -0.0211948         143.488
0.609                   -2.56375         177.701         -47.9825         -27.198          -47.982        -27.1971       -0.0214198          143.41
0.61                    -2.60353         176.953         -47.9079        -29.2243         -47.9075        -29.2237       -0.0216471         143.331
0.611                   -2.64458         176.196         -47.8331        -31.2433         -47.8328        -31.2431       -0.0218766         143.251
0.612                     -2.687          175.43          -47.758        -33.2555         -47.7577        -33.2555       -0.0221086         143.172
0.613                   -2.73086         174.654         -47.6826        -35.2613         -47.6823        -35.2615       -0.0223429         143.092
0.614                   -2.77625         173.869         -47.6068         -37.261         -47.6066        -37.2614       -0.0225798         143.012
0.615                   -2.82326         173.075         -47.5306        -39.2551         -47.5304        -39.2557       -0.0228192         142.932
0.616                   -2.87196         172.272          -47.454         -41.244         -47.4539        -41.2447       -0.0230612         142.852
0.617                   -2.92245          171.46         -47.3769        -43.2281         -47.3768        -43.2289        -0.023306         142.771
0.618                   -2.97481         170.641         -47.2994        -45.2078         -47.2993        -45.2086       -0.0235536          142.69
0.619                   -3.02912         169.813         -47.2213        -47.1836         -47.2214        -47.1844       -0.0238041         142.609
0.62                    -3.08548         168.977         -47.1428        -49.1557         -47.1429        -49.1566       -0.0240575         142.528
0.621                   -3.14395         168.134         -47.0638        -51.1247         -47.0639        -51.1256        -0.024314         142.446
0.622                   -3.20463         167.283         -46.9844        -53.0909         -46.9845        -53.0917       -0.0245736         142.365
0.623                   -3.26761         166.426         -46.9044        -55.0546         -46.9045        -55.0555       -0.0248365         142.283
0.624                   -3.33295         165.562         -46.8239        -57.0164         -46.8241        -57.0171       -0.0251027           142.2
0.625                   -3.40076         164.692          -46.743        -58.9764         -46.7432        -58.9771       -0.0253723         142.118
0.626                   -3.47111         163.816         -46.6616         -60.935         -46.6618        -60.9357       -0.0256455         142.035
0.627                   -3.54409         162.936         -46.5798        -62.8926           -46.58        -62.8932       -0.0259223         141.952
0.628                   -3.61977          162.05         -46.4976        -64.8495         -46.4978        -64.8499       -0.0262029         141.868
0.629                   -3.69823         161.161          -46.415        -66.8059         -46.4152        -66.8063       -0.0264873         141.785
