! TOUCHSTONE file generated by CST MICROWAVE STUDIO
! Date and time: Sat Oct 24 11:47:08 2020
! Project name: Scenario_1_Circular_Tissue_out_of_Line.cst
! Parameters = {dy1=18.161; L_HA=400; MT=2.54; Rad_Dielectric=30; Rad_Lower=7.3; Rad_Upper=30; a_HA=580; a_WG=246; b_HA=500; b_WG=121; c_HA=0; c_WG=187; d_feed=85; dx1=1039; h_feed=15; h_lower=18; h_upper=40}
! Header version: 2018
! Port assignment regex: !\s*Touchstone port\s*([0-9]+)\s*=\s*(CST MWS port|CST DS port)\s*([0-9]+|Zmin|Zmax)\s*\(\"(.*)\"\)(\s*mode\s*([0-9]+))?.*
! Touchstone port assignment:
! Touchstone port 1 = CST MWS port 1 ("")
! Touchstone port 2 = CST MWS port 2 ("")
# GHz S DB R 50
0.5                    -0.146768        -122.228         -63.1605        -2.70507         -63.1605        -2.70507      -0.00761923         151.139
0.501                  -0.154395         -122.68         -62.4532        -9.36491         -62.4529        -9.36196      -0.00767693         151.074
0.502                  -0.162209        -123.135         -61.8121        -15.0253         -61.8117        -15.0202      -0.00773565         151.008
0.503                  -0.170214         -123.59         -61.2361        -19.9372         -61.2356        -19.9305      -0.00779539         150.943
0.504                  -0.178412        -124.048         -60.7197        -24.2797         -60.7191        -24.2721      -0.00785615         150.877
0.505                  -0.186803        -124.507         -60.2565        -28.1818         -60.2559        -28.1734      -0.00791792         150.812
0.506                   -0.19539        -124.967           -59.84        -31.7373         -59.8394        -31.7285      -0.00798073         150.746
0.507                  -0.204174         -125.43         -59.4644        -35.0162         -59.4639        -35.0072      -0.00804455          150.68
0.508                  -0.213159        -125.893         -59.1246        -38.0711          -59.124        -38.0621      -0.00810941         150.615
0.509                  -0.222345        -126.359          -58.816        -40.9428         -58.8154        -40.9338       -0.0081753         150.549
0.51                   -0.231735        -126.826         -58.5348        -43.6629         -58.5343         -43.654      -0.00824222         150.483
0.511                   -0.24133        -127.295         -58.2777        -46.2568         -58.2772         -46.248      -0.00831017         150.417
0.512                  -0.251133        -127.765          -58.042        -48.7446         -58.0415        -48.7361      -0.00837916         150.351
0.513                  -0.261145        -128.237          -57.825         -51.143         -57.8246        -51.1347       -0.0084492         150.284
0.514                  -0.271368         -128.71         -57.6249        -53.4655         -57.6245        -53.4575      -0.00852028         150.218
0.515                  -0.281804        -129.186         -57.4397        -55.7237         -57.4393        -55.7159       -0.0085924         150.152
0.516                  -0.292456        -129.663         -57.2678         -57.927         -57.2674        -57.9195      -0.00866558         150.085
0.517                  -0.303325        -130.141         -57.1079        -60.0836         -57.1075        -60.0765      -0.00873981         150.019
0.518                  -0.314414        -130.622         -56.9588        -62.2006         -56.9584        -62.1937      -0.00881509         149.952
0.519                  -0.325723        -131.104         -56.8193         -64.284          -56.819        -64.2774      -0.00889144         149.885
0.52                   -0.337256        -131.587         -56.6886         -66.339         -56.6883        -66.3327      -0.00896885         149.819
0.521                  -0.349013        -132.073         -56.5659        -68.3703         -56.5656        -68.3643      -0.00904733         149.752
0.522                  -0.360998         -132.56         -56.4503        -70.3818           -56.45        -70.3761      -0.00912689         149.685
0.523                  -0.373212        -133.049         -56.3412        -72.3773         -56.3409        -72.3719      -0.00920752         149.618
0.524                  -0.385657        -133.539          -56.238        -74.3599         -56.2377        -74.3547      -0.00928923         149.551
0.525                  -0.398335        -134.031         -56.1401        -76.3325         -56.1399        -76.3276      -0.00937203         149.483
0.526                  -0.411248        -134.525         -56.0472        -78.2977          -56.047         -78.293      -0.00945592         149.416
0.527                  -0.424398        -135.021         -55.9586        -80.2578         -55.9584        -80.2534      -0.00954091         149.349
0.528                  -0.437786        -135.519         -55.8741         -82.215         -55.8739        -82.2109        -0.009627         149.281
0.529                  -0.451416        -136.018         -55.7932        -84.1712          -55.793        -84.1673      -0.00971419         149.214
0.53                   -0.465289        -136.519         -55.7156        -86.1282         -55.7155        -86.1245       -0.0098025         149.146
0.531                  -0.479407        -137.022          -55.641        -88.0875         -55.6409         -88.084      -0.00989192         149.078
0.532                  -0.493771        -137.526         -55.5692        -90.0507          -55.569        -90.0475      -0.00998247          149.01
0.533                  -0.508385        -138.033         -55.4997        -92.0191         -55.4996        -92.0161       -0.0100741         148.942
0.534                  -0.523249        -138.541         -55.4324        -93.9941         -55.4323        -93.9913        -0.010167         148.874
0.535                  -0.538366        -139.051         -55.3671        -95.9767          -55.367        -95.9741       -0.0102609         148.806
0.536                  -0.553737        -139.563         -55.3035        -97.9681         -55.3034        -97.9656        -0.010356         148.738
0.537                  -0.569365        -140.077         -55.2414        -99.9692         -55.2413        -99.9669       -0.0104523          148.67
0.538                  -0.585252        -140.592         -55.1806        -101.981         -55.1805        -101.979       -0.0105497         148.601
0.539                  -0.601399         -141.11          -55.121        -104.004         -55.1209        -104.002       -0.0106483         148.533
0.54                   -0.617808        -141.629         -55.0623         -106.04         -55.0623        -106.038       -0.0107481         148.464
0.541                  -0.634481        -142.151         -55.0044        -108.088         -55.0044        -108.087        -0.010849         148.395
0.542                  -0.651421        -142.674         -54.9472        -110.151         -54.9472        -110.149       -0.0109512         148.327
0.543                  -0.668629        -143.199         -54.8905        -112.227         -54.8904        -112.226       -0.0110545         148.258
0.544                  -0.686106        -143.726         -54.8341        -114.319         -54.8341        -114.317       -0.0111591         148.189
0.545                  -0.703855        -144.255         -54.7779        -116.425         -54.7779        -116.424       -0.0112648         148.119
0.546                  -0.721877        -144.786         -54.7218        -118.548         -54.7218        -118.547       -0.0113719          148.05
0.547                  -0.740175        -145.319         -54.6657        -120.687         -54.6657        -120.686       -0.0114801         147.981
0.548                   -0.75875        -145.854         -54.6094        -122.842         -54.6094        -122.841       -0.0115896         147.911
0.549                  -0.777603        -146.391         -54.5528        -125.014         -54.5528        -125.014       -0.0117003         147.842
0.55                   -0.796737         -146.93         -54.4959        -127.204         -54.4958        -127.203       -0.0118123         147.772
0.551                  -0.816154        -147.471         -54.4384         -129.41         -54.4384         -129.41       -0.0119256         147.702
0.552                  -0.835855        -148.014         -54.3804        -131.635         -54.3803        -131.634       -0.0120402         147.632
0.553                  -0.855841         -148.56         -54.3216        -133.877         -54.3216        -133.876       -0.0121561         147.562
0.554                  -0.876115        -149.107         -54.2621        -136.136         -54.2621        -136.136       -0.0122732         147.492
0.555                  -0.896679        -149.657         -54.2018        -138.414         -54.2018        -138.414       -0.0123917         147.422
0.556                  -0.917533        -150.209         -54.1405        -140.709         -54.1405        -140.709       -0.0125116         147.351
0.557                   -0.93868        -150.763         -54.0782        -143.022         -54.0782        -143.022       -0.0126327         147.281
0.558                  -0.960121        -151.319         -54.0148        -145.353         -54.0148        -145.353       -0.0127553          147.21
0.559                  -0.981859        -151.878         -53.9503        -147.701         -53.9503        -147.702       -0.0128792          147.14
0.56                    -1.00389        -152.438         -53.8846        -150.067         -53.8846        -150.067       -0.0130044         147.069
0.561                   -1.02623        -153.002         -53.8176         -152.45         -53.8176         -152.45       -0.0131311         146.998
0.562                   -1.04886        -153.567         -53.7493         -154.85         -53.7493        -154.851       -0.0132592         146.927
0.563                    -1.0718        -154.136         -53.6797        -157.267         -53.6797        -157.267       -0.0133887         146.855
0.564                   -1.09505        -154.706         -53.6087          -159.7         -53.6087        -159.701       -0.0135196         146.784
0.565                    -1.1186        -155.279         -53.5363        -162.149         -53.5363         -162.15        -0.013652         146.713
0.566                   -1.14246        -155.855         -53.4625        -164.614         -53.4625        -164.615       -0.0137858         146.641
0.567                   -1.16662        -156.433         -53.3872        -167.095         -53.3872        -167.095       -0.0139211         146.569
0.568                   -1.19111        -157.014         -53.3105         -169.59         -53.3105         -169.59       -0.0140579         146.497
0.569                    -1.2159        -157.598         -53.2323          -172.1         -53.2324          -172.1       -0.0141963         146.425
0.57                    -1.24101        -158.185         -53.1527        -174.623         -53.1527        -174.624       -0.0143361         146.353
0.571                   -1.26645        -158.774         -53.0717        -177.161         -53.0717        -177.161       -0.0144775         146.281
0.572                    -1.2922        -159.367         -52.9892        -179.711         -52.9892        -179.711       -0.0146204         146.208
0.573                   -1.31828        -159.963         -52.9053         177.727         -52.9053         177.726       -0.0147649         146.136
0.574                   -1.34469        -160.561           -52.82         175.152           -52.82         175.152       -0.0149109         146.063
0.575                   -1.37143        -161.163         -52.7334         172.566         -52.7334         172.566       -0.0150586          145.99
0.576                    -1.3985        -161.769         -52.6454          169.97         -52.6455         169.969       -0.0152079         145.917
0.577                   -1.42592        -162.377         -52.5563         167.363         -52.5563         167.363       -0.0153588         145.844
0.578                   -1.45368         -162.99         -52.4659         164.747         -52.4659         164.746       -0.0155114         145.771
0.579                   -1.48179        -163.606         -52.3743         162.122         -52.3744         162.121       -0.0156656         145.697
0.58                    -1.51027        -164.225         -52.2817         159.488         -52.2817         159.488       -0.0158215         145.624
0.581                    -1.5391        -164.849         -52.1881         156.847         -52.1881         156.846       -0.0159791          145.55
0.582                   -1.56831        -165.477         -52.0935         154.198         -52.0935         154.198       -0.0161384         145.476
0.583                    -1.5979        -166.109          -51.998         151.543          -51.998         151.543       -0.0162994         145.402
0.584                   -1.62789        -166.746         -51.9017         148.882         -51.9017         148.882       -0.0164622         145.328
0.585                   -1.65829        -167.388         -51.8046         146.216         -51.8046         146.216       -0.0166267         145.253
0.586                   -1.68911        -168.034         -51.7069         143.545         -51.7069         143.545       -0.0167929         145.179
0.587                   -1.72038        -168.686         -51.6087          140.87         -51.6087          140.87       -0.0169608         145.104
0.588                    -1.7521        -169.342         -51.5099         138.191         -51.5099         138.191       -0.0171306         145.029
0.589                   -1.78432        -170.005         -51.4108         135.509         -51.4108         135.509        -0.017302         144.954
0.59                    -1.81705        -170.673         -51.3113         132.825         -51.3113         132.825       -0.0174753         144.879
0.591                   -1.85034        -171.348         -51.2116         130.139         -51.2116         130.139       -0.0176502         144.804
0.592                   -1.88421        -172.029         -51.1118         127.452         -51.1118         127.451       -0.0178269         144.728
0.593                   -1.91872        -172.718         -51.0118         124.763         -51.0118         124.763       -0.0180052         144.653
0.594                   -1.95392        -173.413          -50.912         122.075          -50.912         122.075       -0.0181853         144.577
0.595                   -1.98987        -174.116         -50.8122         119.387         -50.8122         119.386       -0.0183669         144.501
0.596                   -2.02665        -174.827         -50.7125         116.699         -50.7125         116.699       -0.0185501         144.424
0.597                   -2.06433        -175.546         -50.6132         114.012         -50.6132         114.012       -0.0187348         144.348
0.598                   -2.10302        -176.275         -50.5141         111.327         -50.5141         111.327       -0.0189209         144.271
0.599                   -2.14284        -177.012         -50.4155         108.645         -50.4155         108.644       -0.0191083         144.195
0.6                     -2.18391        -177.759         -50.3173         105.964         -50.3173         105.964       -0.0192969         144.118
0.601                   -2.22638        -178.516         -50.2196         103.287         -50.2196         103.287       -0.0194864         144.041
0.602                   -2.27043        -179.282         -50.1226         100.612         -50.1226         100.612       -0.0196769         143.963
0.603                   -2.31626         179.941         -50.0261         97.9417         -50.0261         97.9416        -0.019868         143.886
0.604                   -2.36408         179.153         -49.9304          95.275         -49.9304          95.275       -0.0200595         143.808
0.605                   -2.41415         178.356         -49.8354         92.6128         -49.8354         92.6127       -0.0202515          143.73
0.606                   -2.46674         177.549         -49.7412         89.9551         -49.7412         89.9551       -0.0204436         143.652
0.607                   -2.52214         176.733         -49.6478         87.3025         -49.6478         87.3025       -0.0206361         143.573
0.608                   -2.58067         175.909         -49.5553         84.6551         -49.5553         84.6551        -0.020829         143.495
0.609                   -2.64263         175.078         -49.4637         82.0132         -49.4637         82.0132        -0.021023         143.416
0.61                    -2.70836         174.243         -49.3729         79.3771         -49.3729         79.3771       -0.0212188         143.337
0.611                   -2.77815         173.406         -49.2832          76.747         -49.2832          76.747       -0.0214179         143.258
0.612                   -2.85224          172.57         -49.1943         74.1231         -49.1943         74.1231       -0.0216219         143.178
0.613                   -2.93081         171.739         -49.1065         71.5056         -49.1065         71.5057       -0.0218327         143.098
0.614                   -3.01395         170.918         -49.0196         68.8947         -49.0196         68.8948       -0.0220519         143.018
0.615                   -3.10159          170.11         -48.9337         66.2906         -48.9337         66.2906       -0.0222808         142.938
0.616                   -3.19352         169.321         -48.8488         63.6933         -48.8488         63.6934         -0.02252         142.857
0.617                   -3.28933         168.556         -48.7649          61.103         -48.7649         61.1031       -0.0227689         142.776
0.618                   -3.38844         167.819         -48.6819         58.5199         -48.6819         58.5199       -0.0230266         142.695
0.619                   -3.49009         167.113         -48.5999         55.9439         -48.5999         55.9439       -0.0232918         142.614
0.62                    -3.59338         166.442         -48.5189         53.3751         -48.5189         53.3752        -0.023563         142.533
0.621                   -3.69731         165.806         -48.4388         50.8136         -48.4388         50.8137       -0.0238389         142.451
0.622                   -3.80086         165.205         -48.3596         48.2594         -48.3596         48.2595       -0.0241187         142.369
0.623                   -3.90306         164.636         -48.2813         45.7125         -48.2813         45.7125       -0.0244015         142.287
0.624                   -4.00307         164.096         -48.2039         43.1728         -48.2039         43.1729        -0.024687         142.205
0.625                   -4.10019         163.579         -48.1274         40.6404         -48.1274         40.6405       -0.0249751         142.122
0.626                   -4.19393         163.082         -48.0516         38.1152         -48.0516         38.1152       -0.0252655         142.039
0.627                   -4.28403         162.598         -47.9767         35.5971         -47.9767         35.5971       -0.0255585         141.956
0.628                   -4.37039         162.121         -47.9025          33.086         -47.9025         33.0861        -0.025854         141.873
0.629                   -4.45313         161.646         -47.8291         30.5819         -47.8291         30.5819       -0.0261523         141.789
