! TOUCHSTONE file generated by CST MICROWAVE STUDIO
! Date and time: Wed Oct 28 19:37:46 2020
! Project name: Scenario_1_Circular_Tissue_out_of_Line_v2.cst
! Parameters = {dy1=34.6; L_HA=400; MT=2.54; Rad_Dielectric=30; Rad_Lower=7.3; Rad_Upper=30; a_HA=580; a_WG=246; b_HA=500; b_WG=121; c_HA=0; c_WG=187; d_feed=85; dx1=346; h_feed=15; h_lower=18; h_upper=40}
! Header version: 2018
! Port assignment regex: !\s*Touchstone port\s*([0-9]+)\s*=\s*(CST MWS port|CST DS port)\s*([0-9]+|Zmin|Zmax)\s*\(\"(.*)\"\)(\s*mode\s*([0-9]+))?.*
! Touchstone port assignment:
! Touchstone port 1 = CST MWS port 1 ("")
! Touchstone port 2 = CST MWS port 2 ("")
# GHz S DB R 50
0.5                     -0.17687        -122.339         -58.2146         32.8887         -58.2146         32.8887       -0.0077932         151.135
0.501                  -0.175232        -122.805         -58.1081         31.8497         -58.1082         31.8463      -0.00781648         151.069
0.502                  -0.173913        -123.273         -58.0005         30.8016         -58.0007         30.7948      -0.00784144         151.004
0.503                  -0.172916        -123.744         -57.8916         29.7441         -57.8919         29.7341      -0.00786808         150.939
0.504                  -0.172249        -124.218         -57.7816         28.6774          -57.782         28.6641      -0.00789639         150.874
0.505                  -0.171915        -124.694         -57.6704         27.6012         -57.6708         27.5847      -0.00792638         150.808
0.506                   -0.17192        -125.172         -57.5579         26.5156         -57.5585          26.496      -0.00795803         150.743
0.507                   -0.17227        -125.653         -57.4442         25.4203         -57.4449         25.3977      -0.00799134         150.677
0.508                  -0.172971        -126.137         -57.3293         24.3154         -57.3301         24.2898      -0.00802632         150.611
0.509                  -0.174026        -126.623         -57.2132         23.2008          -57.214         23.1722      -0.00806296         150.546
0.51                   -0.175442        -127.111         -57.0958         22.0764         -57.0967          22.045      -0.00810126          150.48
0.511                  -0.177224        -127.602         -56.9771         20.9422         -56.9782         20.9079      -0.00814121         150.414
0.512                  -0.179378        -128.095         -56.8573         19.7979         -56.8584         19.7609      -0.00818281         150.348
0.513                  -0.181908        -128.591         -56.7361         18.6436         -56.7373          18.604      -0.00822607         150.282
0.514                   -0.18482        -129.089         -56.6138         17.4792          -56.615          17.437      -0.00827097         150.216
0.515                  -0.188119         -129.59         -56.4901         16.3046         -56.4915         16.2598      -0.00831753         150.149
0.516                  -0.191811        -130.093         -56.3652         15.1197         -56.3667         15.0725      -0.00836573         150.083
0.517                  -0.195901        -130.598         -56.2391         13.9244         -56.2406         13.8749      -0.00841557         150.017
0.518                  -0.200393        -131.106         -56.1117         12.7187         -56.1133         12.6669      -0.00846706          149.95
0.519                  -0.205294        -131.616         -55.9831         11.5024         -55.9847         11.4484      -0.00852019         149.883
0.52                   -0.210608        -132.128         -55.8532         10.2754         -55.8549         10.2194      -0.00857497         149.817
0.521                   -0.21634        -132.643          -55.722         9.03781         -55.7238         8.97973      -0.00863138          149.75
0.522                  -0.222496         -133.16         -55.5896         7.78937         -55.5915         7.72937      -0.00868944         149.683
0.523                  -0.229081        -133.679          -55.456         6.53003          -55.458         6.46821      -0.00874914         149.616
0.524                  -0.236099        -134.201         -55.3212          5.2597         -55.3232         5.19615      -0.00881047         149.549
0.525                  -0.243555        -134.724         -55.1851          3.9783         -55.1872         3.91312      -0.00887345         149.482
0.526                  -0.251455         -135.25         -55.0479         2.68573           -55.05         2.61902      -0.00893807         149.415
0.527                  -0.259803        -135.779         -54.9094          1.3819         -54.9116         1.31376      -0.00900434         149.347
0.528                  -0.268604        -136.309         -54.7698       0.0667243         -54.7721     -0.00275201      -0.00907224          149.28
0.529                  -0.277862        -136.842          -54.629        -1.25989         -54.6314         -1.3306      -0.00914179         149.213
0.53                   -0.287583        -137.376         -54.4871        -2.59805         -54.4895        -2.66988      -0.00921298         149.145
0.531                   -0.29777        -137.913          -54.344        -3.94783         -54.3465        -4.02068      -0.00928581         149.077
0.532                  -0.308429        -138.452         -54.1998        -5.30933         -54.2023        -5.38309       -0.0093603         149.009
0.533                  -0.319563        -138.993         -54.0545        -6.68263         -54.0571         -6.7572      -0.00943643         148.942
0.534                  -0.331178        -139.536         -53.9082        -8.06784         -53.9108         -8.1431      -0.00951421         148.874
0.535                  -0.343276        -140.081         -53.7608        -9.46504         -53.7635        -9.54088      -0.00959364         148.805
0.536                  -0.355864        -140.628         -53.6124        -10.8743         -53.6152        -10.9506      -0.00967473         148.737
0.537                  -0.368943        -141.177          -53.463        -12.2958         -53.4658        -12.3724      -0.00975747         148.669
0.538                   -0.38252        -141.728         -53.3126        -13.7295         -53.3155        -13.8064      -0.00984188         148.601
0.539                  -0.396596        -142.281         -53.1613        -15.1755         -53.1643        -15.2525      -0.00992795         148.532
0.54                   -0.411177        -142.835         -53.0092        -16.6339         -53.0122         -16.711       -0.0100157         148.463
0.541                  -0.426266        -143.392         -52.8561        -18.1049         -52.8592        -18.1818       -0.0101051         148.395
0.542                  -0.441867         -143.95         -52.7023        -19.5884         -52.7054        -19.6651       -0.0101962         148.326
0.543                  -0.457983        -144.511         -52.5476        -21.0845         -52.5508        -21.1609       -0.0102889         148.257
0.544                  -0.474617        -145.073         -52.3922        -22.5933         -52.3954        -22.6692       -0.0103834         148.188
0.545                  -0.491773        -145.636         -52.2362        -24.1149         -52.2394        -24.1903       -0.0104795         148.119
0.546                  -0.509453        -146.202         -52.0794        -25.6493         -52.0827         -25.724       -0.0105773          148.05
0.547                  -0.527662        -146.769         -51.9221        -27.1965         -51.9254        -27.2704       -0.0106768          147.98
0.548                  -0.546402        -147.338         -51.7642        -28.7567         -51.7676        -28.8296        -0.010778         147.911
0.549                  -0.565675        -147.908         -51.6059        -30.3297         -51.6092        -30.4017       -0.0108809         147.841
0.55                   -0.585485        -148.481          -51.447        -31.9158         -51.4505        -31.9866       -0.0109856         147.771
0.551                  -0.605835        -149.054         -51.2878        -33.5147         -51.2913        -33.5843       -0.0110919         147.702
0.552                  -0.626725        -149.629         -51.1283        -35.1267         -51.1317        -35.1949          -0.0112         147.632
0.553                   -0.64816        -150.206         -50.9685        -36.7516         -50.9719        -36.8183       -0.0113098         147.562
0.554                  -0.670141        -150.784         -50.8085        -38.3894         -50.8119        -38.4545       -0.0114213         147.492
0.555                  -0.692671        -151.364         -50.6483        -40.0401         -50.6518        -40.1036       -0.0115346         147.421
0.556                  -0.715751        -151.945         -50.4881        -41.7036         -50.4915        -41.7653       -0.0116497         147.351
0.557                  -0.739383        -152.528         -50.3278          -43.38         -50.3312        -43.4398       -0.0117665          147.28
0.558                  -0.763569        -153.112         -50.1676         -45.069          -50.171        -45.1269       -0.0118851          147.21
0.559                  -0.788311        -153.697         -50.0076        -46.7706         -50.0109        -46.8265       -0.0120055         147.139
0.56                    -0.81361        -154.283         -49.8477        -48.4848          -49.851        -48.5384       -0.0121276         147.068
0.561                  -0.839468        -154.871         -49.6881        -50.2113         -49.6914        -50.2627       -0.0122516         146.997
0.562                  -0.865886         -155.46         -49.5288        -51.9499          -49.532        -51.9991       -0.0123773         146.926
0.563                  -0.892865        -156.051           -49.37        -53.7007         -49.3731        -53.7475       -0.0125049         146.855
0.564                  -0.920405        -156.642         -49.2116        -55.4632         -49.2147        -55.5076       -0.0126343         146.783
0.565                  -0.948509        -157.235         -49.0538        -57.2374         -49.0568        -57.2793       -0.0127656         146.712
0.566                  -0.977177        -157.829         -48.8967         -59.023         -48.8995        -59.0623       -0.0128987          146.64
0.567                   -1.00641        -158.424         -48.7402        -60.8197          -48.743        -60.8564       -0.0130337         146.568
0.568                   -1.03621         -159.02         -48.5846        -62.6272         -48.5872        -62.6613       -0.0131705         146.496
0.569                   -1.06657        -159.617         -48.4298        -64.4453         -48.4323        -64.4768       -0.0133093         146.424
0.57                     -1.0975        -160.215         -48.2759        -66.2736         -48.2782        -66.3024       -0.0134499         146.352
0.571                     -1.129        -160.814          -48.123        -68.1118         -48.1252        -68.1379       -0.0135925          146.28
0.572                   -1.16106        -161.415         -47.9712        -69.9595         -47.9732        -69.9828        -0.013737         146.207
0.573                   -1.19369        -162.016         -47.8205        -71.8163         -47.8224        -71.8369       -0.0138834         146.134
0.574                   -1.22688        -162.618         -47.6711        -73.6818         -47.6727        -73.6997       -0.0140318         146.062
0.575                   -1.26064        -163.221         -47.5229        -75.5556         -47.5243        -75.5707       -0.0141821         145.989
0.576                   -1.29497        -163.825          -47.376        -77.4371         -47.3772        -77.4496       -0.0143345         145.916
0.577                   -1.32987         -164.43         -47.2305         -79.326         -47.2314        -79.3358       -0.0144889         145.843
0.578                   -1.36533        -165.036         -47.0864        -81.2217         -47.0871        -81.2289       -0.0146453         145.769
0.579                   -1.40135        -165.643         -46.9438        -83.1238         -46.9442        -83.1284       -0.0148037         145.696
0.58                    -1.43794        -166.251         -46.8027        -85.0316         -46.8029        -85.0337       -0.0149642         145.622
0.581                   -1.47509        -166.859         -46.6632        -86.9448         -46.6631        -86.9444       -0.0151268         145.548
0.582                   -1.51281        -167.468         -46.5253        -88.8626         -46.5249        -88.8598       -0.0152914         145.474
0.583                   -1.55109        -168.078         -46.3891        -90.7846         -46.3884        -90.7795       -0.0154582           145.4
0.584                   -1.58993        -168.689         -46.2545        -92.7102         -46.2535        -92.7028       -0.0156271         145.326
0.585                   -1.62934        -169.301         -46.1216        -94.6388         -46.1202        -94.6293       -0.0157982         145.251
0.586                    -1.6693        -169.914         -45.9904        -96.5699         -45.9887        -96.5583       -0.0159715         145.177
0.587                   -1.70982        -170.527         -45.8609        -98.5029         -45.8589        -98.4893        -0.016147         145.102
0.588                   -1.75091        -171.141         -45.7331        -100.437         -45.7309        -100.422       -0.0163247         145.027
0.589                   -1.79255        -171.756         -45.6071        -102.372         -45.6045        -102.355       -0.0165046         144.952
0.59                    -1.83474        -172.371         -45.4829        -104.307         -45.4799        -104.288       -0.0166868         144.877
0.591                   -1.87749        -172.988         -45.3603        -106.242          -45.357        -106.222       -0.0168713         144.801
0.592                    -1.9208        -173.605         -45.2395        -108.176         -45.2359        -108.154       -0.0170582         144.725
0.593                   -1.96466        -174.223         -45.1204        -110.108         -45.1164        -110.085       -0.0172474          144.65
0.594                   -2.00908        -174.841          -45.003        -112.039         -44.9987        -112.014       -0.0174389         144.574
0.595                   -2.05405        -175.461         -44.8873        -113.966         -44.8826        -113.941       -0.0176329         144.498
0.596                   -2.09956        -176.081         -44.7732        -115.891         -44.7682        -115.865       -0.0178293         144.421
0.597                   -2.14563        -176.702         -44.6606        -117.813         -44.6553        -117.785       -0.0180282         144.345
0.598                   -2.19225        -177.324         -44.5497         -119.73         -44.5441        -119.702       -0.0182295         144.268
0.599                   -2.23942        -177.947         -44.4403        -121.644         -44.4343        -121.615       -0.0184334         144.191
0.6                     -2.28714         -178.57         -44.3324        -123.552         -44.3261        -123.523       -0.0186398         144.114
0.601                    -2.3354        -179.194         -44.2259        -125.455         -44.2194        -125.426       -0.0188489         144.037
0.602                   -2.38421         -179.82         -44.1209        -127.353          -44.114        -127.324       -0.0190605         143.959
0.603                   -2.43357         179.554         -44.0172        -129.246           -44.01        -129.216       -0.0192748         143.882
0.604                   -2.48348         178.927         -43.9148        -131.132         -43.9074        -131.102       -0.0194918         143.804
0.605                   -2.53393           178.3         -43.8136        -133.012         -43.8059        -132.982       -0.0197116         143.726
0.606                   -2.58493         177.671         -43.7136        -134.885         -43.7057        -134.856       -0.0199341         143.647
0.607                   -2.63648         177.041         -43.6148        -136.752         -43.6067        -136.723       -0.0201594         143.569
0.608                   -2.68857          176.41         -43.5171        -138.611         -43.5087        -138.583       -0.0203876          143.49
0.609                   -2.74122         175.778         -43.4204        -140.464         -43.4118        -140.436       -0.0206186         143.411
0.61                    -2.79441         175.145         -43.3246        -142.309         -43.3159        -142.281       -0.0208526         143.332
0.611                   -2.84814         174.511         -43.2298        -144.147         -43.2209         -144.12       -0.0210895         143.253
0.612                   -2.90243         173.876         -43.1358        -145.978         -43.1267        -145.951       -0.0213295         143.173
0.613                   -2.95727          173.24         -43.0426        -147.801         -43.0334        -147.775       -0.0215726         143.094
0.614                   -3.01267         172.602         -42.9502        -149.616         -42.9408        -149.591       -0.0218187         143.014
0.615                   -3.06862         171.963         -42.8585        -151.424          -42.849          -151.4        -0.022068         142.933
0.616                   -3.12512         171.323         -42.7674        -153.225         -42.7578        -153.202       -0.0223206         142.853
0.617                   -3.18218         170.681         -42.6769        -155.018         -42.6672        -154.996       -0.0225764         142.772
0.618                   -3.23981         170.038         -42.5869        -156.803         -42.5771        -156.782       -0.0228355         142.691
0.619                     -3.298         169.393         -42.4974        -158.582         -42.4876        -158.562       -0.0230979          142.61
0.62                    -3.35676         168.747         -42.4083        -160.353         -42.3985        -160.334       -0.0233638         142.529
0.621                   -3.41609         168.099         -42.3196        -162.117         -42.3098        -162.099       -0.0236332         142.447
0.622                     -3.476          167.45         -42.2313        -163.874         -42.2214        -163.857       -0.0239061         142.365
0.623                   -3.53649         166.799         -42.1432        -165.624         -42.1334        -165.608       -0.0241826         142.283
0.624                   -3.59756         166.145         -42.0555        -167.367         -42.0456        -167.352       -0.0244628         142.201
0.625                   -3.65923          165.49         -41.9679        -169.104         -41.9581         -169.09       -0.0247467         142.118
0.626                   -3.72149         164.833         -41.8805        -170.834         -41.8708        -170.822       -0.0250344         142.035
0.627                   -3.78435         164.174         -41.7933        -172.559         -41.7837        -172.547       -0.0253259         141.952
0.628                   -3.84783         163.513         -41.7062        -174.277         -41.6966        -174.267       -0.0256214         141.869
0.629                   -3.91193         162.849         -41.6192        -175.989         -41.6097         -175.98       -0.0259208         141.785
