! TOUCHSTONE file generated by CST MICROWAVE STUDIO
! Date and time: Fri Oct 30 07:57:57 2020
! Project name: Scenario_1_Circular_Tissue_out_of_Line.cst
! Parameters = {dy1=35.502; L_HA=400; MT=2.54; Rad_Dielectric=30; Rad_Lower=7.3; Rad_Upper=30; a_HA=580; a_WG=246; b_HA=500; b_WG=121; c_HA=0; c_WG=187; d_feed=85; dx1=520; h_feed=15; h_lower=18; h_upper=40}
! Header version: 2018
! Port assignment regex: !\s*Touchstone port\s*([0-9]+)\s*=\s*(CST MWS port|CST DS port)\s*([0-9]+|Zmin|Zmax)\s*\(\"(.*)\"\)(\s*mode\s*([0-9]+))?.*
! Touchstone port assignment:
! Touchstone port 1 = CST MWS port 1 ("")
! Touchstone port 2 = CST MWS port 2 ("")
# GHz S DB R 50
0.5                    -0.130932        -122.504         -60.9849        -60.4375         -60.9849        -60.4375      -0.00737941         151.129
0.501                   -0.13693        -122.948         -60.7935        -61.8537         -60.7935        -61.8498      -0.00744014         151.064
0.502                  -0.143124        -123.395          -60.601        -63.2882         -60.6011        -63.2807      -0.00750085         150.998
0.503                  -0.149525        -123.844         -60.4076        -64.7414         -60.4076        -64.7305      -0.00756167         150.933
0.504                  -0.156144        -124.296         -60.2133        -66.2135         -60.2133        -66.1996      -0.00762273         150.867
0.505                  -0.162995         -124.75         -60.0182         -67.705         -60.0182        -67.6883      -0.00768418         150.802
0.506                  -0.170088        -125.206         -59.8224        -69.2161         -59.8223        -69.1969      -0.00774618         150.736
0.507                  -0.177438        -125.665          -59.626        -70.7472         -59.6259        -70.7257      -0.00780888          150.67
0.508                  -0.185056        -126.127          -59.429        -72.2985         -59.4288        -72.2751      -0.00787247         150.605
0.509                  -0.192958         -126.59         -59.2317        -73.8703         -59.2314        -73.8451       -0.0079371         150.539
0.51                   -0.201155        -127.057          -59.034        -75.4629         -59.0337        -75.4363      -0.00800295         150.473
0.511                  -0.209663        -127.525         -58.8362        -77.0764         -58.8358        -77.0486       -0.0080702         150.407
0.512                  -0.218496        -127.996         -58.6383        -78.7111         -58.6378        -78.6823      -0.00813899         150.341
0.513                  -0.227667         -128.47         -58.4404        -80.3672         -58.4399        -80.3376      -0.00820949         150.274
0.514                  -0.237191        -128.945         -58.2428        -82.0446         -58.2422        -82.0145      -0.00828183         150.208
0.515                   -0.24708        -129.423         -58.0455        -83.7436         -58.0448        -83.7132      -0.00835614         150.142
0.516                   -0.25735        -129.903         -57.8487        -85.4642         -57.8479        -85.4337      -0.00843253         150.075
0.517                  -0.268011        -130.385         -57.6525        -87.2063         -57.6516        -87.1759      -0.00851109         150.008
0.518                  -0.279075        -130.868          -57.457        -88.9699         -57.4561        -88.9398       -0.0085919         149.942
0.519                  -0.290554        -131.354         -57.2625        -90.7549         -57.2615        -90.7253      -0.00867501         149.875
0.52                   -0.302457        -131.841          -57.069         -92.561          -57.068        -92.5322      -0.00876044         149.808
0.521                   -0.31479         -132.33         -56.8768        -94.3882         -56.8757        -94.3601      -0.00884822         149.741
0.522                  -0.327561        -132.821         -56.6859         -96.236         -56.6848        -96.2089      -0.00893833         149.674
0.523                  -0.340774        -133.312         -56.4966        -98.1041         -56.4954        -98.0781      -0.00903074         149.607
0.524                  -0.354428        -133.805          -56.309         -99.992         -56.3078        -99.9673      -0.00912542          149.54
0.525                  -0.368525        -134.299         -56.1232        -101.899          -56.122        -101.876       -0.0092223         149.472
0.526                   -0.38306        -134.794         -55.9394        -103.825         -55.9382        -103.804      -0.00932132         149.405
0.527                  -0.398026        -135.289         -55.7578         -105.77         -55.7566        -105.749       -0.0094224         149.338
0.528                  -0.413413        -135.785         -55.5785        -107.731         -55.5773        -107.712      -0.00952544          149.27
0.529                  -0.429209        -136.282         -55.4016        -109.709         -55.4004        -109.692      -0.00963035         149.202
0.53                   -0.445397        -136.778         -55.2272        -111.703         -55.2261        -111.688      -0.00973703         149.135
0.531                  -0.461957        -137.275         -55.0556        -113.712         -55.0545        -113.698      -0.00984539         149.067
0.532                  -0.478867        -137.771         -54.8867        -115.734         -54.8857        -115.723      -0.00995531         148.999
0.533                  -0.496099        -138.268         -54.7208         -117.77         -54.7199         -117.76       -0.0100667         148.931
0.534                  -0.513626        -138.764         -54.5578        -119.816         -54.5571        -119.808       -0.0101795         148.863
0.535                  -0.531416         -139.26          -54.398        -121.874         -54.3973        -121.867       -0.0102935         148.795
0.536                  -0.549436        -139.755         -54.2413         -123.94         -54.2408        -123.935       -0.0104087         148.727
0.537                   -0.56765         -140.25         -54.0878        -126.015         -54.0874        -126.011        -0.010525         148.658
0.538                  -0.586022        -140.745         -53.9376        -128.096         -53.9374        -128.094       -0.0106424          148.59
0.539                  -0.604515        -141.239         -53.7907        -130.183         -53.7906        -130.182       -0.0107606         148.521
0.54                   -0.623094        -141.733         -53.6471        -132.274         -53.6472        -132.275       -0.0108798         148.453
0.541                  -0.641721        -142.227         -53.5069        -134.368         -53.5071         -134.37       -0.0109997         148.384
0.542                  -0.660361        -142.721         -53.3699        -136.463         -53.3703        -136.467       -0.0111205         148.315
0.543                  -0.678982        -143.215         -53.2361        -138.559         -53.2367        -138.563       -0.0112419         148.246
0.544                  -0.697554         -143.71         -53.1057        -140.654         -53.1064        -140.659       -0.0113639         148.177
0.545                  -0.716048        -144.205         -52.9783        -142.746         -52.9792        -142.753       -0.0114866         148.108
0.546                  -0.734441          -144.7         -52.8541        -144.836         -52.8552        -144.843       -0.0116099         148.039
0.547                  -0.752713        -145.197          -52.733        -146.921         -52.7342        -146.928       -0.0117338         147.969
0.548                  -0.770846        -145.695         -52.6147            -149         -52.6161        -149.008       -0.0118581           147.9
0.549                  -0.788829        -146.194         -52.4993        -151.073         -52.5009        -151.082        -0.011983         147.831
0.55                   -0.806655        -146.696         -52.3866        -153.138         -52.3883        -153.148       -0.0121084         147.761
0.551                  -0.824319        -147.199         -52.2765        -155.195         -52.2784        -155.205       -0.0122343         147.691
0.552                  -0.841823        -147.705         -52.1689        -157.243         -52.1709        -157.253       -0.0123607         147.621
0.553                  -0.859172        -148.214         -52.0637        -159.282         -52.0658        -159.291       -0.0124876         147.551
0.554                  -0.876374        -148.726         -51.9606        -161.309         -51.9628        -161.319       -0.0126149         147.481
0.555                  -0.893443        -149.241         -51.8596        -163.326          -51.862        -163.336       -0.0127427         147.411
0.556                  -0.910395         -149.76         -51.7606        -165.331          -51.763        -165.341        -0.012871         147.341
0.557                  -0.927249        -150.282         -51.6633        -167.324         -51.6658        -167.333       -0.0129998          147.27
0.558                  -0.944028        -150.809         -51.5676        -169.305         -51.5702        -169.314       -0.0131291           147.2
0.559                  -0.960757         -151.34         -51.4734        -171.273          -51.476        -171.282        -0.013259         147.129
0.56                   -0.977463        -151.876         -51.3806        -173.228         -51.3832        -173.237       -0.0133893         147.058
0.561                  -0.994174        -152.416         -51.2889        -175.171         -51.2916        -175.179       -0.0135203         146.987
0.562                   -1.01092        -152.961         -51.1983          -177.1          -51.201        -177.108       -0.0136518         146.916
0.563                   -1.02774        -153.512         -51.1086        -179.016         -51.1113        -179.024       -0.0137838         146.845
0.564                   -1.04466        -154.068         -51.0197          179.08         -51.0224         179.073       -0.0139165         146.774
0.565                   -1.06171        -154.629         -50.9314         177.189         -50.9341         177.183       -0.0140499         146.702
0.566                   -1.07894        -155.196         -50.8436         175.311         -50.8463         175.306       -0.0141838         146.631
0.567                   -1.09638        -155.769         -50.7562         173.446         -50.7588         173.441       -0.0143185         146.559
0.568                   -1.11406        -156.347         -50.6691         171.593         -50.6716         171.588       -0.0144539         146.487
0.569                   -1.13201        -156.931         -50.5821         169.751         -50.5846         169.747         -0.01459         146.415
0.57                    -1.15029        -157.522         -50.4952         167.921         -50.4976         167.918       -0.0147269         146.343
0.571                   -1.16892        -158.118         -50.4082         166.103         -50.4106         166.099       -0.0148646         146.271
0.572                   -1.18794        -158.721         -50.3211         164.295         -50.3234         164.292       -0.0150031         146.199
0.573                   -1.20739         -159.33         -50.2337         162.498          -50.236         162.495       -0.0151425         146.126
0.574                   -1.22731        -159.945         -50.1461          160.71         -50.1482         160.708       -0.0152828         146.054
0.575                   -1.24773        -160.566          -50.058         158.933         -50.0601         158.931        -0.015424         145.981
0.576                   -1.26869        -161.194         -49.9695         157.164         -49.9715         157.163       -0.0155662         145.908
0.577                   -1.29023        -161.828         -49.8804         155.404         -49.8823         155.403       -0.0157094         145.835
0.578                   -1.31239        -162.468         -49.7907         153.652         -49.7925         153.651       -0.0158537         145.761
0.579                   -1.33521        -163.115         -49.7004         151.907         -49.7021         151.907        -0.015999         145.688
0.58                    -1.35872        -163.769         -49.6094          150.17          -49.611          150.17       -0.0161455         145.615
0.581                   -1.38296        -164.428         -49.5176         148.439         -49.5191         148.439       -0.0162931         145.541
0.582                   -1.40798        -165.095          -49.425         146.714         -49.4264         146.715        -0.016442         145.467
0.583                   -1.43382        -165.767         -49.3316         144.995         -49.3329         144.995       -0.0165921         145.393
0.584                    -1.4605        -166.446         -49.2374          143.28         -49.2386         143.281       -0.0167436         145.319
0.585                   -1.48808        -167.131         -49.1422          141.57         -49.1433         141.571       -0.0168964         145.244
0.586                    -1.5166        -167.823         -49.0462         139.864         -49.0472         139.865       -0.0170505          145.17
0.587                   -1.54609         -168.52         -48.9493         138.161         -48.9502         138.162       -0.0172062         145.095
0.588                   -1.57661        -169.224         -48.8514         136.461         -48.8522         136.462       -0.0173633          145.02
0.589                   -1.60818        -169.934         -48.7526         134.764         -48.7533         134.765       -0.0175221         144.945
0.59                    -1.64086        -170.651         -48.6529         133.068         -48.6535         133.069       -0.0176824          144.87
0.591                   -1.67469        -171.373         -48.5522         131.374         -48.5527         131.375       -0.0178444         144.795
0.592                   -1.70972        -172.101         -48.4506          129.68          -48.451         129.681       -0.0180081         144.719
0.593                   -1.74599        -172.835          -48.348         127.987         -48.3484         127.988       -0.0181736         144.644
0.594                   -1.78354        -173.574         -48.2446         126.293         -48.2449         126.294        -0.018341         144.568
0.595                   -1.82242        -174.319         -48.1403         124.599         -48.1405           124.6       -0.0185103         144.492
0.596                   -1.86268         -175.07          -48.035         122.904         -48.0352         122.905       -0.0186815         144.415
0.597                   -1.90437        -175.826          -47.929         121.208         -47.9291         121.208       -0.0188548         144.339
0.598                   -1.94753        -176.587         -47.8221         119.509         -47.8221          119.51       -0.0190302         144.262
0.599                   -1.99222        -177.353         -47.7144         117.809         -47.7144         117.809       -0.0192077         144.185
0.6                     -2.03847        -178.123         -47.6059         116.105         -47.6058         116.106       -0.0193875         144.108
0.601                   -2.08634        -178.898         -47.4967         114.399         -47.4966         114.399       -0.0195696         144.031
0.602                   -2.13588        -179.677         -47.3868         112.689         -47.3867         112.689       -0.0197541         143.954
0.603                   -2.18714         179.539         -47.2763         110.975         -47.2761         110.975       -0.0199411         143.876
0.604                   -2.24015         178.752         -47.1651         109.258         -47.1649         109.258       -0.0201306         143.798
0.605                   -2.29498         177.962         -47.0534         107.535         -47.0532         107.535       -0.0203227          143.72
0.606                   -2.35166         177.168         -46.9412         105.809         -46.9409         105.808       -0.0205175         143.642
0.607                   -2.41025         176.372         -46.8285         104.077         -46.8282         104.076        -0.020715         143.563
0.608                   -2.47079         175.573         -46.7153          102.34         -46.7151         102.339       -0.0209154         143.485
0.609                   -2.53332         174.772         -46.6019         100.597         -46.6016         100.597       -0.0211188         143.406
0.61                    -2.59788          173.97         -46.4881         98.8492         -46.4878         98.8485       -0.0213252         143.327
0.611                   -2.66451         173.166         -46.3741         97.0953         -46.3738         97.0944       -0.0215346         143.247
0.612                   -2.73326         172.362         -46.2599         95.3353         -46.2596         95.3345       -0.0217473         143.168
0.613                   -2.80416         171.558         -46.1455         93.5693         -46.1452         93.5684       -0.0219632         143.088
0.614                   -2.87723         170.754         -46.0311         91.7971         -46.0308         91.7961       -0.0221826         143.008
0.615                   -2.95251          169.95         -45.9167         90.0186         -45.9164         90.0176       -0.0224053         142.928
0.616                   -3.03003         169.148         -45.8024         88.2338         -45.8021         88.2327       -0.0226317         142.847
0.617                   -3.10981         168.348         -45.6881         86.4426         -45.6879         86.4415       -0.0228616         142.767
0.618                   -3.19185         167.551         -45.5741          84.645         -45.5739          84.644       -0.0230953         142.686
0.619                   -3.27619         166.757         -45.4603         82.8411         -45.4601         82.8401       -0.0233328         142.605
0.62                    -3.36282         165.967         -45.3468         81.0309         -45.3466         81.0299       -0.0235743         142.523
0.621                   -3.45174         165.181         -45.2337         79.2146         -45.2336         79.2135       -0.0238197         142.442
0.622                   -3.54295         164.401         -45.1211         77.3921         -45.1209         77.3911       -0.0240693          142.36
0.623                   -3.63644         163.626         -45.0089         75.5636         -45.0088         75.5627        -0.024323         142.278
0.624                   -3.73219         162.859         -44.8973         73.7294         -44.8971         73.7285       -0.0245811         142.195
0.625                   -3.83017         162.099         -44.7863         71.8896         -44.7862         71.8888       -0.0248435         142.112
0.626                   -3.93035         161.346         -44.6759         70.0444         -44.6758         70.0436       -0.0251104          142.03
0.627                   -4.03269         160.603         -44.5663          68.194         -44.5662         68.1933        -0.025382         141.946
0.628                   -4.13714          159.87         -44.4574         66.3387         -44.4574         66.3382       -0.0256581         141.863
0.629                   -4.24363         159.147         -44.3494         64.4789         -44.3493         64.4784       -0.0259391         141.779
