! TOUCHSTONE file generated by CST MICROWAVE STUDIO
! Date and time: Wed Oct 28 19:17:47 2020
! Project name: Scenario_1_Circular_Tissue_out_of_Line.cst
! Parameters = {dy1=35.502; L_HA=400; MT=2.54; Rad_Dielectric=30; Rad_Lower=7.3; Rad_Upper=30; a_HA=580; a_WG=246; b_HA=500; b_WG=121; c_HA=0; c_WG=187; d_feed=85; dx1=693; h_feed=15; h_lower=18; h_upper=40}
! Header version: 2018
! Port assignment regex: !\s*Touchstone port\s*([0-9]+)\s*=\s*(CST MWS port|CST DS port)\s*([0-9]+|Zmin|Zmax)\s*\(\"(.*)\"\)(\s*mode\s*([0-9]+))?.*
! Touchstone port assignment:
! Touchstone port 1 = CST MWS port 1 ("")
! Touchstone port 2 = CST MWS port 2 ("")
# GHz S DB R 50
0.5                    -0.155275        -122.252         -61.9544        -166.689         -61.9544        -166.689      -0.00770639         151.132
0.501                  -0.162714        -122.695         -61.8521        -168.292         -61.8522        -168.292      -0.00777682         151.067
0.502                  -0.170265         -123.14         -61.7474        -169.904         -61.7476        -169.904      -0.00784711         151.002
0.503                  -0.177928        -123.587         -61.6403        -171.524         -61.6406        -171.524      -0.00791725         150.936
0.504                    -0.1857        -124.034         -61.5308        -173.153         -61.5312        -173.153      -0.00798723         150.871
0.505                  -0.193582        -124.484         -61.4189         -174.79         -61.4194        -174.791      -0.00805706         150.806
0.506                  -0.201573        -124.935         -61.3047        -176.435         -61.3052        -176.436      -0.00812673          150.74
0.507                  -0.209671        -125.387         -61.1882        -178.089         -61.1887         -178.09      -0.00819624         150.674
0.508                  -0.217876        -125.841         -61.0693        -179.751         -61.0699        -179.752      -0.00826559         150.609
0.509                  -0.226187        -126.296         -60.9481         178.579         -60.9488         178.578      -0.00833479         150.543
0.51                   -0.234604        -126.753         -60.8247         176.901         -60.8254         176.899      -0.00840386         150.477
0.511                  -0.243127        -127.212          -60.699         175.215         -60.6997         175.213      -0.00847281         150.411
0.512                  -0.251755        -127.673         -60.5711          173.52         -60.5719         173.518      -0.00854165         150.345
0.513                  -0.260488        -128.135         -60.4411         171.817         -60.4419         171.815      -0.00861041         150.279
0.514                  -0.269325        -128.599         -60.3089         170.106         -60.3097         170.104       -0.0086791         150.213
0.515                  -0.278268        -129.065         -60.1746         168.387         -60.1754         168.385      -0.00874777         150.147
0.516                  -0.287317        -129.533         -60.0382          166.66         -60.0391         166.658      -0.00881645          150.08
0.517                  -0.296472        -130.004         -59.8998         164.924         -59.9007         164.922      -0.00888516         150.014
0.518                  -0.305733        -130.476         -59.7595         163.179         -59.7604         163.177      -0.00895394         149.947
0.519                  -0.315103         -130.95         -59.6172         161.427         -59.6181         161.424      -0.00902285         149.881
0.52                   -0.324583        -131.426          -59.473         159.665         -59.4739         159.663      -0.00909193         149.814
0.521                  -0.334175        -131.905          -59.327         157.895         -59.3279         157.892      -0.00916122         149.747
0.522                   -0.34388        -132.386         -59.1792         156.116         -59.1801         156.113      -0.00923078          149.68
0.523                  -0.353703        -132.869         -59.0297         154.327         -59.0306         154.325      -0.00930066         149.613
0.524                  -0.363646        -133.355         -58.8785          152.53         -58.8794         152.528      -0.00937093         149.546
0.525                  -0.373714        -133.843         -58.7257         150.723         -58.7266         150.721      -0.00944164         149.479
0.526                  -0.383911        -134.334         -58.5714         148.907         -58.5722         148.905      -0.00951286         149.412
0.527                  -0.394243        -134.828         -58.4156         147.081         -58.4164         147.079      -0.00958466         149.344
0.528                  -0.404717        -135.325         -58.2584         145.245         -58.2591         145.243       -0.0096571         149.277
0.529                   -0.41534        -135.825         -58.0998           143.4         -58.1005         143.398      -0.00973025         149.209
0.53                   -0.426121        -136.327         -57.9399         141.544         -57.9407         141.542      -0.00980418         149.141
0.531                  -0.437071        -136.833         -57.7789         139.677         -57.7796         139.675      -0.00987896         149.074
0.532                  -0.448201        -137.343         -57.6167           137.8         -57.6174         137.798      -0.00995467         149.006
0.533                  -0.459524        -137.855         -57.4535         135.912         -57.4542         135.911       -0.0100314         148.938
0.534                  -0.471055        -138.371         -57.2894         134.013           -57.29         134.012       -0.0101092          148.87
0.535                  -0.482812        -138.891         -57.1243         132.103         -57.1249         132.102       -0.0101881         148.802
0.536                  -0.494815        -139.415         -56.9585         130.182          -56.959          130.18       -0.0102682         148.733
0.537                  -0.507085        -139.942          -56.792         128.248         -56.7925         128.247       -0.0103497         148.665
0.538                  -0.519647        -140.474         -56.6248         126.303         -56.6253         126.302       -0.0104325         148.596
0.539                   -0.53253         -141.01         -56.4572         124.346         -56.4576         124.345       -0.0105167         148.528
0.54                   -0.545764         -141.55         -56.2891         122.377         -56.2895         122.376       -0.0106024         148.459
0.541                  -0.559385        -142.094         -56.1207         120.395          -56.121         120.394       -0.0106897          148.39
0.542                  -0.573431        -142.643         -55.9521         118.401         -55.9524           118.4       -0.0107786         148.321
0.543                  -0.587947        -143.196         -55.7834         116.394         -55.7836         116.394       -0.0108692         148.252
0.544                  -0.602979        -143.755         -55.6147         114.375         -55.6149         114.374       -0.0109615         148.183
0.545                   -0.61858        -144.317         -55.4461         112.343         -55.4462         112.342       -0.0110557         148.114
0.546                  -0.634806        -144.885         -55.2776         110.298         -55.2777         110.297       -0.0111517         148.045
0.547                  -0.651719        -145.458         -55.1095          108.24         -55.1096         108.239       -0.0112496         147.975
0.548                  -0.669385        -146.035         -54.9419         106.169         -54.9419         106.168       -0.0113495         147.905
0.549                  -0.687873        -146.616         -54.7748         104.085         -54.7747         104.084       -0.0114514         147.836
0.55                   -0.707257        -147.202         -54.6083         101.988         -54.6082         101.988       -0.0115553         147.766
0.551                  -0.727611        -147.792         -54.4427         99.8786         -54.4425         99.8784       -0.0116613         147.696
0.552                  -0.749013        -148.387         -54.2779         97.7565         -54.2777         97.7563       -0.0117694         147.626
0.553                  -0.771537        -148.984         -54.1141         95.6219         -54.1139         95.6218       -0.0118797         147.556
0.554                  -0.795256        -149.584         -53.9515          93.475         -53.9512         93.4749       -0.0119921         147.485
0.555                  -0.820237        -150.187         -53.7901          91.316         -53.7898         91.3159       -0.0121067         147.415
0.556                  -0.846539        -150.792         -53.6301         89.1453         -53.6297         89.1451       -0.0122236         147.344
0.557                  -0.874205        -151.397         -53.4715          86.963         -53.4711         86.9628       -0.0123427         147.274
0.558                  -0.903267        -152.002         -53.3145         84.7697          -53.314         84.7695        -0.012464         147.203
0.559                  -0.933733        -152.606         -53.1591         82.5656         -53.1587         82.5653       -0.0125876         147.132
0.56                   -0.965589        -153.209         -53.0056         80.3513         -53.0051          80.351       -0.0127135         147.061
0.561                  -0.998794        -153.808         -52.8539         78.1272         -52.8533         78.1268       -0.0128417          146.99
0.562                   -1.03328        -154.403         -52.7041         75.8938         -52.7036         75.8934       -0.0129721         146.919
0.563                   -1.06894        -154.993         -52.5565         73.6518         -52.5559         73.6513       -0.0131048         146.847
0.564                   -1.10565        -155.576         -52.4109         71.4017         -52.4103         71.4011       -0.0132398         146.776
0.565                   -1.14325        -156.153         -52.2676         69.1441          -52.267         69.1435       -0.0133771         146.704
0.566                   -1.18156        -156.722         -52.1266         66.8799         -52.1259         66.8791       -0.0135166         146.632
0.567                   -1.22036        -157.284         -51.9878         64.6095         -51.9872         64.6087       -0.0136583          146.56
0.568                   -1.25946        -157.837         -51.8515         62.3338         -51.8509         62.3329       -0.0138024         146.488
0.569                   -1.29863        -158.382         -51.7176         60.0535          -51.717         60.0525       -0.0139486         146.416
0.57                    -1.33766         -158.92         -51.5862         57.7695         -51.5855         57.7683        -0.014097         146.344
0.571                   -1.37635        -159.451         -51.4573         55.4824         -51.4566         55.4811       -0.0142477         146.271
0.572                   -1.41452        -159.975         -51.3309          53.193         -51.3302         53.1917       -0.0144005         146.199
0.573                   -1.45201        -160.494          -51.207         50.9023         -51.2063         50.9008       -0.0145555         146.126
0.574                   -1.48869        -161.009         -51.0857         48.6109          -51.085         48.6093       -0.0147126         146.053
0.575                   -1.52447        -161.521         -50.9669         46.3196         -50.9662         46.3179       -0.0148718          145.98
0.576                   -1.55929        -162.032         -50.8505         44.0293         -50.8499         44.0276       -0.0150331         145.907
0.577                   -1.59313        -162.542         -50.7367         41.7408          -50.736         41.7389       -0.0151965         145.834
0.578                   -1.62597        -163.053         -50.6253         39.4547         -50.6246         39.4527        -0.015362          145.76
0.579                   -1.65784        -163.566         -50.5163         37.1718         -50.5157         37.1698       -0.0155295         145.687
0.58                    -1.68879        -164.082         -50.4097         34.8929          -50.409         34.8907       -0.0156989         145.613
0.581                   -1.71888        -164.602         -50.3054         32.6185         -50.3047         32.6163       -0.0158704         145.539
0.582                   -1.74819        -165.126         -50.2032         30.3494         -50.2026         30.3472       -0.0160438         145.465
0.583                   -1.77682        -165.657         -50.1033         28.0862         -50.1027         28.0839       -0.0162192         145.391
0.584                   -1.80484        -166.194         -50.0055         25.8294         -50.0049          25.827       -0.0163964         145.317
0.585                   -1.83236        -166.738         -49.9096         23.5796         -49.9091         23.5772       -0.0165756         145.242
0.586                   -1.85949        -167.289         -49.8157         21.3372         -49.8152         21.3348       -0.0167567         145.168
0.587                   -1.88631        -167.848         -49.7236         19.1027         -49.7231         19.1003       -0.0169396         145.093
0.588                   -1.91293        -168.415         -49.6332         16.8766         -49.6328         16.8741       -0.0171244         145.018
0.589                   -1.93944         -168.99         -49.5445          14.659         -49.5441         14.6566       -0.0173111         144.943
0.59                    -1.96593        -169.574         -49.4574         12.4505         -49.4569          12.448       -0.0174995         144.867
0.591                   -1.99248        -170.166         -49.3717         10.2512         -49.3712         10.2487       -0.0176898         144.792
0.592                   -2.01919        -170.766         -49.2873         8.06125         -49.2869          8.0588       -0.0178819         144.716
0.593                   -2.04612        -171.376         -49.2041         5.88095         -49.2038         5.87852       -0.0180759         144.641
0.594                   -2.07336        -171.994         -49.1221         3.71038         -49.1218         3.70798       -0.0182716         144.565
0.595                   -2.10097        -172.621         -49.0412         1.54961         -49.0409         1.54725       -0.0184691         144.489
0.596                   -2.12903        -173.257         -48.9612       -0.601308         -48.9609       -0.603627       -0.0186685         144.412
0.597                   -2.15759        -173.901          -48.882        -2.74239         -48.8817        -2.74466       -0.0188697         144.336
0.598                   -2.18673        -174.554         -48.8036        -4.87367         -48.8033        -4.87589       -0.0190728         144.259
0.599                    -2.2165        -175.216         -48.7259        -6.99523         -48.7256        -6.99739       -0.0192777         144.182
0.6                     -2.24696        -175.887         -48.6487        -9.10718         -48.6484        -9.10928       -0.0194845         144.105
0.601                   -2.27817        -176.566          -48.572        -11.2097         -48.5717        -11.2117       -0.0196931         144.028
0.602                   -2.31019        -177.254         -48.4957        -13.3029         -48.4954        -13.3048       -0.0199037         143.951
0.603                   -2.34307        -177.951         -48.4196         -15.387         -48.4194        -15.3889       -0.0201162         143.873
0.604                   -2.37687        -178.656         -48.3439        -17.4623         -48.3437        -17.4641       -0.0203307         143.795
0.605                   -2.41165         -179.37         -48.2683        -19.5289         -48.2681        -19.5307       -0.0205472         143.717
0.606                   -2.44746         179.907         -48.1928        -21.5873         -48.1926         -21.589       -0.0207658         143.639
0.607                   -2.48436         179.177         -48.1173        -23.6376         -48.1171        -23.6392       -0.0209864          143.56
0.608                   -2.52241         178.437         -48.0417        -25.6802         -48.0416        -25.6818       -0.0212092         143.482
0.609                   -2.56166         177.689         -47.9661        -27.7155          -47.966        -27.7169       -0.0214342         143.403
0.61                    -2.60219         176.933         -47.8904        -29.7437         -47.8902        -29.7451       -0.0216614         143.324
0.611                   -2.64404         176.169         -47.8144        -31.7652         -47.8143        -31.7666        -0.021891         143.245
0.612                   -2.68729         175.396         -47.7382        -33.7804         -47.7381        -33.7817       -0.0221228         143.165
0.613                   -2.73199         174.615         -47.6618        -35.7897         -47.6617        -35.7909       -0.0223571         143.086
0.614                   -2.77821         173.826          -47.585        -37.7934         -47.5849        -37.7945       -0.0225939         143.006
0.615                   -2.82603         173.029         -47.5079        -39.7919         -47.5078         -39.793       -0.0228333         142.925
0.616                   -2.87551         172.224         -47.4304        -41.7856         -47.4303        -41.7866       -0.0230753         142.845
0.617                   -2.92672         171.411         -47.3526        -43.7749         -47.3525        -43.7758         -0.02332         142.764
0.618                   -2.97974         170.591         -47.2743        -45.7601         -47.2742         -45.761       -0.0235675         142.684
0.619                   -3.03464         169.763         -47.1956        -47.7416         -47.1955        -47.7425       -0.0238179         142.603
0.62                    -3.09149         168.929         -47.1165        -49.7199         -47.1164        -49.7207       -0.0240713         142.521
0.621                   -3.15039         168.086          -47.037        -51.6952         -47.0369         -51.696       -0.0243277          142.44
0.622                   -3.21141         167.238          -46.957        -53.6679         -46.9569        -53.6687       -0.0245872         142.358
0.623                   -3.27463         166.382         -46.8766        -55.6385         -46.8765        -55.6392         -0.02485         142.276
0.624                   -3.34013         165.521         -46.7957        -57.6071         -46.7957        -57.6078       -0.0251162         142.193
0.625                   -3.40801         164.653         -46.7145        -59.5742         -46.7144        -59.5748       -0.0253858         142.111
0.626                   -3.47834          163.78         -46.6328          -61.54         -46.6328        -61.5407        -0.025659         142.028
0.627                   -3.55121         162.901         -46.5508        -63.5049         -46.5507        -63.5055       -0.0259358         141.945
0.628                   -3.62672         162.018         -46.4684        -65.4692         -46.4683        -65.4698       -0.0262164         141.861
0.629                   -3.70495         161.131         -46.3856         -67.433         -46.3856        -67.4336       -0.0265008         141.778
