! TOUCHSTONE file generated by CST MICROWAVE STUDIO
! Date and time: Mon Oct 26 12:32:04 2020
! Project name: Scenario_1_Circular_Tissue_out_of_Line.cst
! Parameters = {dy1=35.502; L_HA=400; MT=2.54; Rad_Dielectric=30; Rad_Lower=7.3; Rad_Upper=30; a_HA=580; a_WG=246; b_HA=500; b_WG=121; c_HA=0; c_WG=187; d_feed=85; dx1=866; h_feed=15; h_lower=18; h_upper=40}
! Header version: 2018
! Port assignment regex: !\s*Touchstone port\s*([0-9]+)\s*=\s*(CST MWS port|CST DS port)\s*([0-9]+|Zmin|Zmax)\s*\(\"(.*)\"\)(\s*mode\s*([0-9]+))?.*
! Touchstone port assignment:
! Touchstone port 1 = CST MWS port 1 ("")
! Touchstone port 2 = CST MWS port 2 ("")
# GHz S DB R 50
0.5                    -0.142542        -122.422         -62.7825         101.193         -62.5865         98.9805      -0.00746237         151.112
0.501                  -0.148107        -122.842         -62.5765          99.308         -62.4947         97.0656      -0.00754032         151.046
0.502                  -0.153825        -123.265         -62.3698         97.3891            -62.4         95.1324      -0.00761874         150.981
0.503                    -0.1597        -123.691         -62.1628          95.436         -62.3024          93.181      -0.00769762         150.916
0.504                  -0.165735        -124.119         -61.9555         93.4483         -62.2019         91.2118      -0.00777697          150.85
0.505                  -0.171935         -124.55         -61.7483         91.4258         -62.0985         89.2247       -0.0078568         150.784
0.506                  -0.178303        -124.983         -61.5413         89.3682         -61.9921         87.2202      -0.00793711         150.719
0.507                  -0.184842        -125.419         -61.3348         87.2757         -61.8828         85.1982      -0.00801789         150.653
0.508                  -0.191556        -125.857         -61.1291         85.1482         -61.7706         83.1592      -0.00809917         150.587
0.509                  -0.198449        -126.298         -60.9244         82.9859         -61.6554         81.1032      -0.00818093         150.521
0.51                   -0.205525        -126.741          -60.721         80.7891         -61.5374         79.0305      -0.00826318         150.455
0.511                  -0.212785        -127.187         -60.5192         78.5584         -61.4165         76.9412      -0.00834593         150.389
0.512                  -0.220235        -127.636         -60.3192         76.2943         -61.2927         74.8356      -0.00842919         150.323
0.513                  -0.227877        -128.087         -60.1214         73.9976         -61.1662         72.7139      -0.00851295         150.257
0.514                  -0.235715         -128.54          -59.926         71.6693         -61.0369         70.5763      -0.00859722         150.191
0.515                  -0.243752        -128.996         -59.7333         69.3105         -60.9049         68.4229        -0.008682         150.124
0.516                  -0.251992        -129.454         -59.5435         66.9225         -60.7703          66.254       -0.0087673         150.058
0.517                  -0.260437        -129.915          -59.357         64.5067         -60.6331         64.0697      -0.00885313         149.992
0.518                  -0.269091        -130.379          -59.174         62.0648         -60.4935         61.8702      -0.00893948         149.925
0.519                  -0.277958        -130.845         -58.9946         59.5985         -60.3515         59.6557      -0.00902637         149.858
0.52                    -0.28704        -131.314         -58.8192         57.1099         -60.2071         57.4262      -0.00911379         149.791
0.521                  -0.296341        -131.785         -58.6479         54.6009         -60.0606          55.182      -0.00920176         149.725
0.522                  -0.305864        -132.259         -58.4808         52.0739         -59.9119         52.9232      -0.00929027         149.658
0.523                  -0.315612        -132.735         -58.3181         49.5312         -59.7613         50.6499      -0.00937934         149.591
0.524                  -0.325589        -133.214         -58.1599          46.975         -59.6088         48.3623      -0.00946896         149.524
0.525                  -0.335797        -133.695         -58.0063          44.408         -59.4546         46.0605      -0.00955915         149.456
0.526                   -0.34624        -134.179         -57.8573         41.8325         -59.2988         43.7446       -0.0096499         149.389
0.527                  -0.356921        -134.665         -57.7129         39.2511         -59.1416         41.4148      -0.00974123         149.322
0.528                  -0.367844        -135.155          -57.573         36.6663         -58.9831         39.0711      -0.00983314         149.254
0.529                  -0.379012        -135.646         -57.4377         34.0805         -58.8234         36.7138      -0.00992564         149.187
0.53                   -0.390427        -136.141         -57.3068         31.4961         -58.6627         34.3429       -0.0100187         149.119
0.531                  -0.402095        -136.638         -57.1802         28.9154         -58.5013         31.9587       -0.0101124         149.051
0.532                  -0.414017        -137.137         -57.0577         26.3405         -58.3392         29.5614       -0.0102067         148.983
0.533                  -0.426198         -137.64         -56.9392         23.7735         -58.1767         27.1511       -0.0103016         148.915
0.534                  -0.438641        -138.145         -56.8244         21.2162         -58.0139         24.7281       -0.0103971         148.847
0.535                  -0.451351        -138.652         -56.7131         18.6704          -57.851         22.2926       -0.0104933         148.779
0.536                   -0.46433        -139.163         -56.6052         16.1375         -57.6883         19.8451         -0.01059         148.711
0.537                  -0.477583        -139.676         -56.5002          13.619         -57.5259         17.3857       -0.0106874         148.643
0.538                  -0.491115        -140.191          -56.398          11.116          -57.364          14.915       -0.0107855         148.574
0.539                  -0.504929         -140.71         -56.2983         8.62953         -57.2029         12.4333       -0.0108842         148.506
0.54                   -0.519029        -141.232         -56.2008         6.16032         -57.0427         9.94121       -0.0109836         148.437
0.541                  -0.533422        -141.756         -56.1052         3.70898         -56.8836         7.43927       -0.0110836         148.368
0.542                  -0.548111        -142.283         -56.0113         1.27596         -56.7259         4.92813       -0.0111843         148.299
0.543                  -0.563102        -142.813         -55.9188         -1.1385         -56.5697          2.4085       -0.0112857         148.231
0.544                    -0.5784        -143.346         -55.8273        -3.53429         -56.4152       -0.118833       -0.0113878         148.161
0.545                  -0.594011        -143.882         -55.7367        -5.91149         -56.2627          -2.653       -0.0114906         148.092
0.546                  -0.609942        -144.421         -55.6467        -8.27028         -56.1122        -5.19304       -0.0115941         148.023
0.547                  -0.626199        -144.962          -55.557         -10.611         -55.9641        -7.73791       -0.0116984         147.954
0.548                  -0.642788        -145.507         -55.4675        -12.9341         -55.8184        -10.2865       -0.0118033         147.884
0.549                  -0.659718        -146.055         -55.3779        -15.2401         -55.6753        -12.8376       -0.0119091         147.815
0.55                   -0.676997        -146.607          -55.288        -17.5297          -55.535        -15.3899       -0.0120156         147.745
0.551                  -0.694632        -147.161         -55.1976        -19.8036         -55.3975         -17.942       -0.0121228         147.675
0.552                  -0.712632        -147.718         -55.1066        -22.0626          -55.263        -20.4925       -0.0122309         147.605
0.553                  -0.731009        -148.279         -55.0147        -24.3076         -55.1316        -23.0399       -0.0123397         147.535
0.554                  -0.749772        -148.844          -54.922        -26.5396         -55.0033        -25.5825       -0.0124494         147.465
0.555                  -0.768932        -149.411         -54.8282        -28.7594         -54.8782        -28.1187         -0.01256         147.394
0.556                  -0.788501        -149.982         -54.7332        -30.9681         -54.7563        -30.6468       -0.0126713         147.324
0.557                  -0.808493        -150.556         -54.6369        -33.1667         -54.6376         -33.165       -0.0127836         147.254
0.558                  -0.828922        -151.134         -54.5393        -35.3564         -54.5221        -35.6717       -0.0128967         147.183
0.559                  -0.849802        -151.716         -54.4402         -37.538         -54.4096         -38.165       -0.0130108         147.112
0.56                   -0.871149        -152.301         -54.3397        -39.7129         -54.3002        -40.6432       -0.0131258         147.041
0.561                  -0.892981         -152.89         -54.2376        -41.8819         -54.1936        -43.1046       -0.0132418          146.97
0.562                  -0.915316        -153.482         -54.1341        -44.0462         -54.0897        -45.5475       -0.0133588         146.899
0.563                  -0.938175        -154.078         -54.0289         -46.207         -53.9883        -47.9704       -0.0134768         146.828
0.564                  -0.961579        -154.678         -53.9222        -48.3651         -53.8892        -50.3717       -0.0135959         146.756
0.565                   -0.98555        -155.282         -53.8139        -50.5217         -53.7922        -52.7501        -0.013716         146.685
0.566                   -1.01011        -155.889         -53.7041        -52.6778         -53.6968        -55.1045       -0.0138373         146.613
0.567                   -1.03529        -156.501         -53.5928        -54.8344         -53.6028        -57.4338       -0.0139598         146.541
0.568                   -1.06112        -157.116           -53.48        -56.9925         -53.5099        -59.7374       -0.0140835         146.469
0.569                   -1.08762        -157.736         -53.3658        -59.1529         -53.4176        -62.0146       -0.0142084         146.397
0.57                    -1.11483        -158.359         -53.2502        -61.3167         -53.3255        -64.2654       -0.0143347         146.325
0.571                   -1.14278        -158.986         -53.1334        -63.4846         -53.2333        -66.4898       -0.0144623         146.252
0.572                    -1.1715        -159.616         -53.0153        -65.6575         -53.1403        -68.6884       -0.0145913          146.18
0.573                   -1.20103        -160.251         -52.8961        -67.8361         -53.0463         -70.862       -0.0147218         146.107
0.574                   -1.23141        -160.889         -52.7759        -70.0212         -52.9508         -73.012       -0.0148539         146.034
0.575                   -1.26268        -161.531         -52.6547        -72.2135         -52.8533          -75.14       -0.0149875         145.961
0.576                   -1.29488        -162.177         -52.5327        -74.4135         -52.7535        -77.2482       -0.0151229         145.888
0.577                   -1.32805        -162.826           -52.41        -76.6219         -52.6508        -79.3392         -0.01526         145.815
0.578                   -1.36223        -163.478         -52.2867        -78.8392         -52.5451         -81.416       -0.0153989         145.741
0.579                   -1.39746        -164.133         -52.1629        -81.0657         -52.4361        -83.4819       -0.0155397         145.668
0.58                    -1.43379        -164.791         -52.0388        -83.3019         -52.3235        -85.5406       -0.0156825         145.594
0.581                   -1.47125        -165.451         -51.9145        -85.5481         -52.2071        -87.5959       -0.0158274          145.52
0.582                   -1.50989        -166.113         -51.7901        -87.8046         -52.0871        -89.6521       -0.0159745         145.446
0.583                   -1.54974        -166.777         -51.6657        -90.0714         -51.9633        -91.7132       -0.0161238         145.372
0.584                   -1.59084        -167.443         -51.5415        -92.3488          -51.836        -93.7833       -0.0162754         145.297
0.585                    -1.6332        -168.109         -51.4176        -94.6367         -51.7053        -95.8665       -0.0164295         145.223
0.586                   -1.67685        -168.776         -51.2942        -96.9351         -51.5717        -97.9663       -0.0165861         145.148
0.587                   -1.72181        -169.443         -51.1714         -99.244         -51.4354        -100.086       -0.0167454         145.073
0.588                   -1.76808        -170.109         -51.0494        -101.563         -51.2971        -102.229       -0.0169073         144.998
0.589                   -1.81565        -170.774         -50.9281        -103.892         -51.1572        -104.397        -0.017072         144.923
0.59                    -1.86451        -171.437         -50.8079        -106.231         -51.0162        -106.592       -0.0172396         144.847
0.591                   -1.91462        -172.097         -50.6887        -108.579          -50.875        -108.815       -0.0174101         144.772
0.592                   -1.96594        -172.755         -50.5708        -110.936         -50.7339        -111.067       -0.0175836         144.696
0.593                   -2.01842        -173.408         -50.4542        -113.301         -50.5937        -113.347       -0.0177602          144.62
0.594                   -2.07197        -174.057          -50.339        -115.674         -50.4549        -115.654       -0.0179399         144.544
0.595                   -2.12652        -174.701         -50.2253        -118.054          -50.318        -117.987       -0.0181228         144.467
0.596                   -2.18195         -175.34         -50.1132         -120.44         -50.1835        -120.344       -0.0183089         144.391
0.597                   -2.23815        -175.973         -50.0027        -122.833         -50.0519        -122.723       -0.0184982         144.314
0.598                   -2.29499          -176.6          -49.894         -125.23         -49.9235        -125.122       -0.0186908         144.237
0.599                   -2.35234        -177.221         -49.7871        -127.632         -49.7985        -127.537       -0.0188868          144.16
0.6                     -2.41004        -177.835          -49.682        -130.037         -49.6771        -129.967        -0.019086         144.083
0.601                   -2.46795        -178.443         -49.5787        -132.445         -49.5596        -132.407       -0.0192886         144.006
0.602                   -2.52591        -179.045         -49.4774        -134.855         -49.4458        -134.855       -0.0194944         143.928
0.603                   -2.58379        -179.642         -49.3779        -137.266          -49.336        -137.309       -0.0197036          143.85
0.604                   -2.64143         179.766         -49.2803        -139.677         -49.2299        -139.765        -0.019916         143.772
0.605                   -2.69872         179.179         -49.1845        -142.088         -49.1276        -142.222       -0.0201318         143.694
0.606                   -2.75554         178.595         -49.0906        -144.498         -49.0288        -144.677       -0.0203507         143.616
0.607                   -2.81178         178.014         -48.9985        -146.906         -48.9334        -147.129       -0.0205729         143.537
0.608                   -2.86738         177.435         -48.9082        -149.311         -48.8412        -149.575       -0.0207984         143.458
0.609                   -2.92228         176.856         -48.8197        -151.713          -48.752        -152.014        -0.021027         143.379
0.61                    -2.97645         176.276         -48.7327         -154.11         -48.6656        -154.445       -0.0212588           143.3
0.611                   -3.02987         175.695         -48.6475        -156.504         -48.5818        -156.867       -0.0214937         143.221
0.612                   -3.08255         175.111         -48.5637        -158.892         -48.5003        -159.279       -0.0217318         143.141
0.613                   -3.13452         174.523         -48.4814        -161.275         -48.4209        -161.681       -0.0219729         143.061
0.614                   -3.18584          173.93         -48.4005        -163.651         -48.3433        -164.071       -0.0222173         142.981
0.615                   -3.23658         173.331         -48.3209        -166.021         -48.2675        -166.451       -0.0224647         142.901
0.616                   -3.28681         172.726         -48.2425        -168.385         -48.1931        -168.819       -0.0227152          142.82
0.617                   -3.33663         172.112         -48.1652        -170.741           -48.12        -171.176       -0.0229689         142.739
0.618                   -3.38616          171.49          -48.089        -173.091          -48.048        -173.521       -0.0232257         142.658
0.619                   -3.43551         170.858         -48.0137        -175.432         -47.9769        -175.856       -0.0234857         142.577
0.62                    -3.48481         170.217         -47.9393        -177.767         -47.9066         -178.18       -0.0237489         142.496
0.621                   -3.53418         169.565         -47.8656         179.907         -47.8369         179.507       -0.0240153         142.414
0.622                   -3.58375         168.902         -47.7927         177.588         -47.7677         177.203        -0.024285         142.332
0.623                   -3.63367         168.228         -47.7203         175.276         -47.6989         174.909       -0.0245579          142.25
0.624                   -3.68408         167.543         -47.6485         172.973         -47.6303         172.624       -0.0248342         142.168
0.625                   -3.73509         166.846         -47.5771         170.676         -47.5619         170.348        -0.025114         142.085
0.626                   -3.78687         166.137         -47.5061         168.387         -47.4936          168.08       -0.0253971         142.002
0.627                   -3.83953         165.416         -47.4353         166.105         -47.4254          165.82       -0.0256839         141.919
0.628                   -3.89322         164.683         -47.3649          163.83          -47.357         163.567       -0.0259742         141.835
0.629                   -3.94807         163.937         -47.2945         161.562         -47.2886         161.321       -0.0262682         141.752
