! TOUCHSTONE file generated by CST MICROWAVE STUDIO
! Date and time: Sat Oct 24 11:47:16 2020
! Project name: Scenario_1_Circular_Tissue_out_of_Line.cst
! Parameters = {dy1=35.502; L_HA=400; MT=2.54; Rad_Dielectric=30; Rad_Lower=7.3; Rad_Upper=30; a_HA=580; a_WG=246; b_HA=500; b_WG=121; c_HA=0; c_WG=187; d_feed=85; dx1=1039; h_feed=15; h_lower=18; h_upper=40}
! Header version: 2018
! Port assignment regex: !\s*Touchstone port\s*([0-9]+)\s*=\s*(CST MWS port|CST DS port)\s*([0-9]+|Zmin|Zmax)\s*\(\"(.*)\"\)(\s*mode\s*([0-9]+))?.*
! Touchstone port assignment:
! Touchstone port 1 = CST MWS port 1 ("")
! Touchstone port 2 = CST MWS port 2 ("")
# GHz S DB R 50
0.5                    -0.146812        -122.209         -63.1807        -2.80698         -63.1808        -2.80523      -0.00760438          151.14
0.501                  -0.151075        -122.645         -63.0597        -4.93981         -63.0576        -4.94543      -0.00766319         151.075
0.502                  -0.155465        -123.084         -62.9353        -7.08291         -62.9312        -7.09481      -0.00772236         151.009
0.503                   -0.15999        -123.526         -62.8075        -9.23603         -62.8017        -9.25319      -0.00778192         150.944
0.504                  -0.164658        -123.971         -62.6764        -11.3989         -62.6691        -11.4204      -0.00784187         150.879
0.505                  -0.169479        -124.418         -62.5421        -13.5714         -62.5336        -13.5963      -0.00790224         150.813
0.506                  -0.174461        -124.868         -62.4047        -15.7533         -62.3951        -15.7809      -0.00796305         150.747
0.507                  -0.179614         -125.32         -62.2642        -17.9445         -62.2537        -17.9741      -0.00802433         150.682
0.508                  -0.184951        -125.776         -62.1207        -20.1449         -62.1096        -20.1758       -0.0080861         150.616
0.509                  -0.190482        -126.235         -61.9744        -22.3545         -61.9628        -22.3861      -0.00814839          150.55
0.51                   -0.196219        -126.696         -61.8253        -24.5732         -61.8134         -24.605      -0.00821123         150.484
0.511                  -0.202177        -127.161         -61.6734        -26.8011         -61.6615        -26.8326      -0.00827465         150.418
0.512                  -0.208367        -127.628          -61.519        -29.0383         -61.5072        -29.0691      -0.00833868         150.352
0.513                  -0.214806        -128.099         -61.3622        -31.2848         -61.3505        -31.3145      -0.00840336         150.286
0.514                  -0.221508        -128.573         -61.2029        -33.5407         -61.1917        -33.5691      -0.00846871          150.22
0.515                  -0.228489         -129.05         -61.0414        -35.8064         -61.0307        -35.8331       -0.0085348         150.154
0.516                  -0.235767         -129.53         -60.8778        -38.0819         -60.8677        -38.1067      -0.00860164         150.087
0.517                  -0.243359        -130.013         -60.7121        -40.3675         -60.7028        -40.3901      -0.00866929         150.021
0.518                  -0.251284        -130.499         -60.5445        -42.6634          -60.536        -42.6838      -0.00873779         149.954
0.519                  -0.259561        -130.989         -60.3751          -44.97         -60.3676         -44.988       -0.0088072         149.887
0.52                   -0.268209        -131.481         -60.2041        -47.2876         -60.1976        -47.3029      -0.00887756         149.821
0.521                   -0.27725        -131.977         -60.0316        -49.6164         -60.0262        -49.6291      -0.00894892         149.754
0.522                  -0.286704        -132.475         -59.8577         -51.957         -59.8534        -51.9669      -0.00902134         149.687
0.523                  -0.296592        -132.977         -59.6825        -54.3095         -59.6794        -54.3166      -0.00909488          149.62
0.524                  -0.306936        -133.482         -59.5062        -56.6745         -59.5042        -56.6786      -0.00916959         149.553
0.525                  -0.317758        -133.989         -59.3289        -59.0523         -59.3281        -59.0535      -0.00924555         149.485
0.526                  -0.329079        -134.499         -59.1508        -61.4432         -59.1512        -61.4414       -0.0093228         149.418
0.527                  -0.340919        -135.012          -58.972        -63.8478         -58.9735         -63.843      -0.00940143         149.351
0.528                    -0.3533        -135.528         -58.7927        -66.2664         -58.7953        -66.2586      -0.00948148         149.283
0.529                   -0.36624        -136.046          -58.613        -68.6993         -58.6166        -68.6885      -0.00956303         149.216
0.53                   -0.379759        -136.566          -58.433         -71.147         -58.4377        -71.1333      -0.00964615         149.148
0.531                  -0.393871        -137.088          -58.253        -73.6098         -58.2586        -73.5932       -0.0097309          149.08
0.532                  -0.408593        -137.613         -58.0731         -76.088         -58.0795        -76.0686      -0.00981735         149.012
0.533                  -0.423936        -138.139         -57.8934         -78.582         -57.9006        -78.5599      -0.00990557         148.944
0.534                  -0.439908        -138.666         -57.7141         -81.092          -57.722        -81.0674       -0.0099956         148.876
0.535                  -0.456517        -139.195         -57.5354        -83.6183         -57.5438        -83.5913       -0.0100875         148.808
0.536                  -0.473763        -139.725         -57.3575         -86.161         -57.3663        -86.1318       -0.0101814         148.739
0.537                  -0.491645        -140.255         -57.1805        -88.7204         -57.1897        -88.6892       -0.0102772         148.671
0.538                  -0.510156        -140.786         -57.0047        -91.2964          -57.014        -91.2635       -0.0103751         148.603
0.539                  -0.529284        -141.317         -56.8301        -93.8892         -56.8394        -93.8549       -0.0104751         148.534
0.54                   -0.549012        -141.849          -56.657        -96.4987         -56.6663        -96.4634       -0.0105772         148.465
0.541                  -0.569319         -142.38         -56.4855        -99.1248         -56.4946        -99.0888       -0.0106814         148.396
0.542                  -0.590176         -142.91         -56.3158        -101.767         -56.3246        -101.731       -0.0107878         148.327
0.543                  -0.611549         -143.44         -56.1482        -104.426         -56.1565         -104.39       -0.0108963         148.258
0.544                  -0.633401        -143.969         -55.9827        -107.101         -55.9905        -107.066        -0.011007         148.189
0.545                  -0.655687        -144.496         -55.8195        -109.791         -55.8267        -109.757       -0.0111199          148.12
0.546                  -0.678359        -145.023         -55.6588        -112.496         -55.6653        -112.464       -0.0112348         148.051
0.547                  -0.701365        -145.548         -55.5008        -115.215         -55.5065        -115.186       -0.0113519         147.981
0.548                  -0.724648        -146.071         -55.3456        -117.948         -55.3504        -117.922        -0.011471         147.912
0.549                  -0.748151        -146.593         -55.1934        -120.694         -55.1973        -120.672       -0.0115921         147.842
0.55                   -0.771814        -147.114         -55.0443        -123.452         -55.0472        -123.434       -0.0117151         147.772
0.551                  -0.795576        -147.633         -54.8984        -126.221         -54.9004        -126.208         -0.01184         147.703
0.552                  -0.819379        -148.151         -54.7558            -129         -54.7569        -128.992       -0.0119666         147.633
0.553                  -0.843164        -148.668         -54.6167        -131.788         -54.6169        -131.786        -0.012095         147.562
0.554                  -0.866877        -149.185         -54.4812        -134.584         -54.4805        -134.588       -0.0122249         147.492
0.555                  -0.890467        -149.701         -54.3492        -137.386         -54.3477        -137.397       -0.0123564         147.422
0.556                  -0.913888        -150.216         -54.2209        -140.194         -54.2187        -140.211       -0.0124892         147.352
0.557                  -0.937099        -150.732         -54.0964        -143.005         -54.0936        -143.029       -0.0126234         147.281
0.558                  -0.960069        -151.249         -53.9755        -145.819         -53.9722         -145.85       -0.0127588          147.21
0.559                  -0.982769        -151.767         -53.8584        -148.634         -53.8547        -148.671       -0.0128952          147.14
0.56                    -1.00518        -152.286          -53.745        -151.448         -53.7411         -151.49       -0.0130327         147.069
0.561                    -1.0273        -152.807         -53.6353         -154.26         -53.6313        -154.308       -0.0131712         146.998
0.562                   -1.04911        -153.331         -53.5292        -157.068         -53.5252         -157.12       -0.0133104         146.927
0.563                   -1.07063        -153.858         -53.4267        -159.872         -53.4228        -159.927       -0.0134505         146.856
0.564                   -1.09186        -154.388         -53.3276        -162.669          -53.324        -162.726       -0.0135912         146.784
0.565                   -1.11283        -154.923         -53.2318        -165.458         -53.2286        -165.516       -0.0137326         146.713
0.566                   -1.13357        -155.462         -53.1392        -168.238         -53.1365        -168.294       -0.0138747         146.641
0.567                    -1.1541        -156.005         -53.0497        -171.007         -53.0475        -171.061       -0.0140172         146.569
0.568                   -1.17447        -156.554          -52.963        -173.764         -52.9614        -173.814       -0.0141604         146.498
0.569                   -1.19472        -157.109          -52.879        -176.508         -52.8779        -176.552        -0.014304         146.426
0.57                     -1.2149        -157.669         -52.7975        -179.239         -52.7968        -179.274       -0.0144482         146.353
0.571                   -1.23507        -158.236         -52.7182         178.046         -52.7179         178.021       -0.0145929         146.281
0.572                   -1.25529         -158.81         -52.6409         175.347         -52.6409         175.334       -0.0147381         146.209
0.573                   -1.27561        -159.391         -52.5654         172.664         -52.5654         172.664       -0.0148839         146.136
0.574                    -1.2961        -159.979         -52.4914         169.998         -52.4913         170.014       -0.0150303         146.064
0.575                   -1.31682        -160.574         -52.4186          167.35         -52.4182         167.382       -0.0151773         145.991
0.576                   -1.33785        -161.177         -52.3468          164.72         -52.3457         164.769       -0.0153249         145.918
0.577                   -1.35926        -161.788         -52.2757         162.108         -52.2736         162.175       -0.0154733         145.845
0.578                   -1.38111        -162.406          -52.205         159.514         -52.2016         159.599       -0.0156225         145.771
0.579                   -1.40349        -163.032         -52.1345         156.938         -52.1295          157.04       -0.0157725         145.698
0.58                    -1.42645        -163.667         -52.0638         154.379         -52.0569         154.498       -0.0159235         145.624
0.581                   -1.45008        -164.309         -51.9928         151.837         -51.9835         151.972       -0.0160754         145.551
0.582                   -1.47446         -164.96         -51.9211         149.312         -51.9093         149.461       -0.0162283         145.477
0.583                   -1.49965        -165.618         -51.8485         146.801         -51.8339         146.963       -0.0163825         145.403
0.584                   -1.52573        -166.285         -51.7747         144.306         -51.7571         144.477       -0.0165378         145.329
0.585                   -1.55277        -166.959         -51.6996         141.823         -51.6789             142       -0.0166944         145.254
0.586                   -1.58086        -167.641         -51.6229         139.352         -51.5991         139.533       -0.0168525          145.18
0.587                   -1.61006         -168.33         -51.5445         136.891         -51.5177         137.073        -0.017012         145.105
0.588                   -1.64045        -169.027         -51.4643         134.439         -51.4345         134.618        -0.017173          145.03
0.589                   -1.67211        -169.731          -51.382         131.994         -51.3495         132.166       -0.0173357         144.955
0.59                     -1.7051        -170.442         -51.2977         129.554         -51.2628         129.716       -0.0175002          144.88
0.591                    -1.7395        -171.159         -51.2113         127.117         -51.1745         127.267       -0.0176665         144.804
0.592                   -1.77537        -171.883         -51.1228         124.681         -51.0845         124.817       -0.0178348         144.729
0.593                   -1.81279        -172.613         -51.0321         122.245          -50.993         122.363        -0.018005         144.653
0.594                   -1.85182        -173.349         -50.9395         119.807         -50.9001         119.907       -0.0181773         144.577
0.595                   -1.89252        -174.089          -50.845         117.364         -50.8059         117.445       -0.0183519         144.501
0.596                   -1.93496        -174.835         -50.7486         114.916         -50.7107         114.977       -0.0185287         144.425
0.597                   -1.97919        -175.584         -50.6507          112.46         -50.6145         112.503       -0.0187079         144.348
0.598                   -2.02526        -176.338         -50.5514         109.996         -50.5176         110.021       -0.0188896         144.271
0.599                   -2.07322        -177.094         -50.4509         107.521         -50.4201         107.531       -0.0190738         144.195
0.6                     -2.12312        -177.853         -50.3495         105.036         -50.3223         105.034       -0.0192606         144.118
0.601                     -2.175        -178.614         -50.2475          102.54         -50.2243         102.528       -0.0194502          144.04
0.602                   -2.22887        -179.377          -50.145         100.032         -50.1262         100.014       -0.0196425         143.963
0.603                   -2.28477          179.86         -50.0425         97.5113         -50.0283         97.4921       -0.0198378         143.885
0.604                   -2.34271         179.098         -49.9402         94.9792         -49.9308         94.9624        -0.020036         143.807
0.605                   -2.40269         178.336         -49.8383         92.4357         -49.8337         92.4253       -0.0202372         143.729
0.606                   -2.46471         177.575          -49.737         89.8812         -49.7372         89.8813       -0.0204416         143.651
0.607                   -2.52876         176.817         -49.6367         87.3166         -49.6415          87.331       -0.0206492         143.572
0.608                   -2.59482         176.062         -49.5376         84.7428         -49.5466         84.7749       -0.0208601         143.494
0.609                   -2.66284         175.312         -49.4397         82.1609         -49.4526         82.2139       -0.0210743         143.415
0.61                    -2.73278         174.565         -49.3433         79.5721         -49.3597         79.6484       -0.0212919         143.336
0.611                   -2.80459         173.824         -49.2484         76.9777         -49.2678         77.0794        -0.021513         143.256
0.612                   -2.87819          173.09         -49.1553         74.3789         -49.1771         74.5074       -0.0217377         143.177
0.613                    -2.9535         172.362         -49.0638         71.7771         -49.0876         71.9333        -0.021966         143.097
0.614                   -3.03042         171.641         -48.9742         69.1736         -48.9993         69.3577       -0.0221979         143.017
0.615                   -3.10886         170.928         -48.8863         66.5698         -48.9122         66.7813       -0.0224336         142.937
0.616                    -3.1887         170.224         -48.8002         63.9667         -48.8263         64.2048       -0.0226731         142.856
0.617                   -3.26981         169.529         -48.7159         61.3656         -48.7417         61.6289       -0.0229165         142.776
0.618                   -3.35207         168.843         -48.6332         58.7674         -48.6582         59.0541       -0.0231637         142.695
0.619                   -3.43532         168.167         -48.5522         56.1731          -48.576          56.481       -0.0234149         142.614
0.62                    -3.51944           167.5         -48.4727         53.5836         -48.4949         53.9101       -0.0236701         142.532
0.621                   -3.60426         166.843         -48.3947         50.9997          -48.415          51.342       -0.0239294          142.45
0.622                   -3.68964         166.196          -48.318         48.4218         -48.3362         48.7771       -0.0241927         142.369
0.623                   -3.77542         165.559         -48.2426         45.8505         -48.2584         46.2157       -0.0244602         142.286
0.624                   -3.86146          164.93         -48.1684         43.2864         -48.1817         43.6583       -0.0247318         142.204
0.625                    -3.9476         164.311         -48.0953         40.7296          -48.106         41.1052       -0.0250077         142.121
0.626                   -4.03372           163.7         -48.0231         38.1805         -48.0312         38.5566       -0.0252877         142.039
0.627                   -4.11967         163.096         -47.9519         35.6392         -47.9573         36.0129       -0.0255721         141.955
0.628                   -4.20534           162.5         -47.8814         33.1057         -47.8843         33.4743       -0.0258607         141.872
0.629                   -4.29061          161.91         -47.8115         30.5802         -47.8121         30.9409       -0.0261537         141.788
