! TOUCHSTONE file generated by CST MICROWAVE STUDIO
! Date and time: Mon Oct 26 12:08:06 2020
! Project name: Scenario_1_Circular_Tissue_out_of_Line_v2.cst
! Parameters = {dy1=51.9; L_HA=400; MT=2.54; Rad_Dielectric=30; Rad_Lower=7.3; Rad_Upper=30; a_HA=580; a_WG=246; b_HA=500; b_WG=121; c_HA=0; c_WG=187; d_feed=85; dx1=173; h_feed=15; h_lower=18; h_upper=40}
! Header version: 2018
! Port assignment regex: !\s*Touchstone port\s*([0-9]+)\s*=\s*(CST MWS port|CST DS port)\s*([0-9]+|Zmin|Zmax)\s*\(\"(.*)\"\)(\s*mode\s*([0-9]+))?.*
! Touchstone port assignment:
! Touchstone port 1 = CST MWS port 1 ("")
! Touchstone port 2 = CST MWS port 2 ("")
# GHz S DB R 50
0.5                    -0.103929        -122.566         -56.8263         129.636         -56.8263         129.636      -0.00717509         151.139
0.501                  -0.109692        -123.072         -56.6281         128.778         -56.6281         128.779      -0.00721691         151.073
0.502                  -0.115935        -123.579         -56.4284         127.906         -56.4284         127.907      -0.00726053         151.008
0.503                  -0.122657        -124.087         -56.2273         127.018         -56.2273         127.019      -0.00730594         150.942
0.504                   -0.12986        -124.596         -56.0248         126.115         -56.0248         126.116      -0.00735315         150.876
0.505                  -0.137546        -125.106         -55.8208         125.195         -55.8209         125.197      -0.00740217         150.811
0.506                  -0.145713        -125.617         -55.6156         124.259         -55.6156         124.261        -0.007453         150.745
0.507                  -0.154364        -126.128          -55.409         123.306         -55.4091         123.308      -0.00750564         150.679
0.508                  -0.163498        -126.641         -55.2011         122.336         -55.2012         122.338       -0.0075601         150.613
0.509                  -0.173115        -127.153          -54.992         121.348          -54.992         121.351      -0.00761639         150.547
0.51                   -0.183215        -127.667         -54.7816         120.342         -54.7817         120.345      -0.00767451          150.48
0.511                  -0.193798        -128.181         -54.5701         119.318         -54.5702         119.322      -0.00773445         150.414
0.512                  -0.204861        -128.696         -54.3574         118.276         -54.3575         118.279      -0.00779624         150.348
0.513                  -0.216406        -129.211         -54.1437         117.214         -54.1438         117.218      -0.00785986         150.281
0.514                  -0.228429        -129.727         -53.9289         116.133          -53.929         116.136      -0.00792533         150.215
0.515                   -0.24093        -130.243         -53.7132         115.032         -53.7133         115.035      -0.00799265         150.148
0.516                  -0.253906        -130.759         -53.4966          113.91         -53.4966         113.914      -0.00806182         150.082
0.517                  -0.267356        -131.276         -53.2791         112.768         -53.2792         112.772      -0.00813285         150.015
0.518                  -0.281277        -131.793         -53.0609         111.605         -53.0609         111.609      -0.00820574         149.948
0.519                  -0.295666         -132.31         -52.8419          110.42          -52.842         110.424       -0.0082805         149.881
0.52                   -0.310521        -132.828         -52.6224         109.214         -52.6224         109.218      -0.00835712         149.814
0.521                  -0.325837        -133.345         -52.4023         107.985         -52.4023         107.989      -0.00843562         149.747
0.522                  -0.341612        -133.863         -52.1817         106.733         -52.1817         106.737        -0.008516          149.68
0.523                  -0.357841         -134.38         -51.9608         105.458         -51.9608         105.462      -0.00859826         149.613
0.524                  -0.374521        -134.898         -51.7397          104.16         -51.7397         104.164       -0.0086824         149.546
0.525                  -0.391645        -135.415         -51.5184         102.838         -51.5184         102.842      -0.00876844         149.478
0.526                   -0.40921        -135.932         -51.2971         101.491         -51.2971         101.495      -0.00885636         149.411
0.527                   -0.42721        -136.449         -51.0759          100.12         -51.0759         100.124      -0.00894618         149.343
0.528                   -0.44564        -136.966          -50.855         98.7245         -50.8549         98.7284       -0.0090379         149.275
0.529                  -0.464493        -137.483         -50.6343         97.3037         -50.6343         97.3075      -0.00913152         149.208
0.53                   -0.483764        -137.999         -50.4142         95.8575         -50.4141         95.8612      -0.00922704          149.14
0.531                  -0.503445        -138.515         -50.1947         94.3858         -50.1946         94.3893      -0.00932447         149.072
0.532                   -0.52353        -139.031          -49.976         92.8883         -49.9759         92.8918       -0.0094238         149.004
0.533                  -0.544011        -139.546         -49.7583         91.3651         -49.7582         91.3684      -0.00952505         148.936
0.534                   -0.56488         -140.06         -49.5416         89.8159         -49.5415         89.8191      -0.00962821         148.868
0.535                  -0.586129        -140.575         -49.3263         88.2408         -49.3262         88.2438      -0.00973329         148.799
0.536                   -0.60775        -141.088         -49.1124         86.6399         -49.1123         86.6428      -0.00984028         148.731
0.537                  -0.629733        -141.601         -48.9002         85.0133            -48.9         85.0159      -0.00994919         148.662
0.538                   -0.65207        -142.114         -48.6898         83.3611         -48.6896         83.3636         -0.01006         148.594
0.539                  -0.674751        -142.625         -48.4813         81.6836         -48.4812         81.6859       -0.0101728         148.525
0.54                   -0.697765        -143.136         -48.2751         79.9812          -48.275         79.9833       -0.0102874         148.456
0.541                  -0.721102        -143.647         -48.0713         78.2543         -48.0712         78.2562        -0.010404         148.387
0.542                   -0.74475        -144.156         -47.8701         76.5034         -47.8699         76.5052       -0.0105225         148.318
0.543                    -0.7687        -144.665         -47.6716         74.7291         -47.6715         74.7307        -0.010643         148.249
0.544                  -0.792938        -145.174         -47.4761         72.9322         -47.4759         72.9336       -0.0107653          148.18
0.545                  -0.817454        -145.681         -47.2837         71.1134         -47.2836         71.1146       -0.0108896         148.111
0.546                  -0.842233        -146.188         -47.0947         69.2736         -47.0945         69.2746       -0.0110158         148.041
0.547                  -0.867264        -146.693         -46.9091         67.4139          -46.909         67.4147       -0.0111438         147.972
0.548                  -0.892532        -147.198         -46.7272         65.5352         -46.7271         65.5359       -0.0112738         147.902
0.549                  -0.918025        -147.703         -46.5492         63.6388         -46.5491         63.6393       -0.0114057         147.833
0.55                   -0.943727        -148.206         -46.3751          61.726          -46.375         61.7263       -0.0115396         147.763
0.551                  -0.969624        -148.708         -46.2051         59.7981          -46.205         59.7983       -0.0116753         147.693
0.552                  -0.995702         -149.21         -46.0393         57.8565         -46.0392         57.8565       -0.0118129         147.623
0.553                   -1.02194        -149.711         -45.8778         55.9027         -45.8778         55.9025       -0.0119523         147.553
0.554                   -1.04833        -150.211         -45.7208         53.9382         -45.7208         53.9379       -0.0120937         147.482
0.555                   -1.07486        -150.711         -45.5683         51.9647         -45.5683         51.9643        -0.012237         147.412
0.556                    -1.1015         -151.21         -45.4203         49.9837         -45.4203         49.9832       -0.0123821         147.342
0.557                   -1.12824        -151.708         -45.2769          47.997         -45.2769         47.9964       -0.0125291         147.271
0.558                   -1.15506        -152.205         -45.1381         46.0062         -45.1381         46.0055       -0.0126779           147.2
0.559                   -1.18194        -152.702         -45.0038          44.013         -45.0039         44.0122       -0.0128286         147.129
0.56                    -1.20887        -153.198         -44.8742         42.0191         -44.8743         42.0182       -0.0129811         147.058
0.561                   -1.23583        -153.694         -44.7491          40.026         -44.7492         40.0251       -0.0131354         146.987
0.562                    -1.2628        -154.189         -44.6285         38.0355         -44.6286         38.0345       -0.0132916         146.916
0.563                   -1.28976        -154.684         -44.5123          36.049         -44.5124          36.048       -0.0134496         146.845
0.564                    -1.3167        -155.178         -44.4004         34.0682         -44.4006         34.0671       -0.0136093         146.774
0.565                   -1.34358        -155.673         -44.2927         32.0943         -44.2929         32.0933       -0.0137708         146.702
0.566                    -1.3704        -156.167         -44.1892          30.129         -44.1894         30.1279       -0.0139341          146.63
0.567                   -1.39714        -156.661         -44.0896         28.1733         -44.0898         28.1722       -0.0140991         146.559
0.568                   -1.42377        -157.156         -43.9938         26.2285          -43.994         26.2275       -0.0142659         146.487
0.569                   -1.45028         -157.65         -43.9016         24.2959         -43.9018         24.2948       -0.0144344         146.415
0.57                    -1.47665        -158.145          -43.813         22.3762         -43.8132         22.3752       -0.0146046         146.342
0.571                   -1.50285        -158.641         -43.7277         20.4706         -43.7279         20.4696       -0.0147764          146.27
0.572                   -1.52888        -159.137         -43.6455         18.5798         -43.6457         18.5788         -0.01495         146.198
0.573                   -1.55471        -159.634         -43.5663         16.7046         -43.5665         16.7036       -0.0151252         146.125
0.574                   -1.58032        -160.132         -43.4899         14.8455         -43.4901         14.8446        -0.015302         146.052
0.575                    -1.6057        -160.631          -43.416         13.0032         -43.4163         13.0024       -0.0154804          145.98
0.576                   -1.63083        -161.132         -43.3446          11.178         -43.3449         11.1773       -0.0156604         145.907
0.577                   -1.65569        -161.634         -43.2755         9.37039         -43.2757         9.36968       -0.0158419         145.834
0.578                   -1.68028        -162.138         -43.2083         7.58055         -43.2086          7.5799        -0.016025          145.76
0.579                   -1.70457        -162.644         -43.1431          5.8087         -43.1434         5.80811       -0.0162096         145.687
0.58                    -1.72855        -163.152         -43.0795         4.05493         -43.0798          4.0544       -0.0163958         145.613
0.581                   -1.75222        -163.663         -43.0175          2.3193         -43.0178         2.31882       -0.0165834          145.54
0.582                   -1.77555        -164.177         -42.9568         0.60176         -42.9571        0.601349       -0.0167724         145.466
0.583                   -1.79855        -164.694         -42.8973        -1.09776         -42.8976        -1.09812       -0.0169629         145.392
0.584                    -1.8212        -165.214         -42.8389        -2.77942         -42.8391        -2.77972       -0.0171548         145.318
0.585                    -1.8435        -165.738         -42.7813        -4.44342         -42.7816        -4.44365       -0.0173481         145.244
0.586                   -1.86545        -166.267         -42.7245        -6.08999         -42.7247        -6.09017       -0.0175428         145.169
0.587                   -1.88704        -166.799         -42.6683        -7.71943         -42.6685        -7.71956       -0.0177389         145.095
0.588                   -1.90828        -167.336         -42.6125        -9.33206         -42.6128        -9.33214       -0.0179363          145.02
0.589                   -1.92917        -167.879         -42.5572        -10.9282         -42.5574        -10.9283        -0.018135         144.945
0.59                    -1.94973        -168.427          -42.502        -12.5084         -42.5023        -12.5083       -0.0183351          144.87
0.591                   -1.96995        -168.981         -42.4471        -14.0728         -42.4473        -14.0727       -0.0185364         144.795
0.592                   -1.98985        -169.541         -42.3921        -15.6221         -42.3923        -15.6219       -0.0187392         144.719
0.593                   -2.00945        -170.107         -42.3371        -17.1565         -42.3373        -17.1564       -0.0189432         144.644
0.594                   -2.02877        -170.681         -42.2819        -18.6767         -42.2821        -18.6765       -0.0191486         144.568
0.595                   -2.04783        -171.262         -42.2264         -20.183         -42.2266        -20.1828       -0.0193554         144.492
0.596                   -2.06666        -171.852         -42.1707        -21.6761         -42.1709        -21.6758       -0.0195635         144.416
0.597                    -2.0853        -172.449         -42.1145        -23.1562         -42.1147        -23.1559       -0.0197731          144.34
0.598                   -2.10377        -173.055         -42.0579        -24.6241         -42.0581        -24.6238       -0.0199842         144.264
0.599                   -2.12213        -173.671         -42.0008        -26.0801         -42.0009        -26.0798       -0.0201968         144.187
0.6                      -2.1404        -174.296          -41.943        -27.5248         -41.9432        -27.5244       -0.0204111          144.11
0.601                   -2.15865        -174.931         -41.8847        -28.9587         -41.8848        -28.9583        -0.020627         144.034
0.602                   -2.17693        -175.576         -41.8256        -30.3823         -41.8258        -30.3819       -0.0208448         143.956
0.603                   -2.19529        -176.233         -41.7659        -31.7961          -41.766        -31.7957       -0.0210646         143.879
0.604                    -2.2138          -176.9         -41.7053        -33.2006         -41.7055        -33.2002       -0.0212864         143.802
0.605                   -2.23253        -177.579          -41.644        -34.5963         -41.6441        -34.5959       -0.0215106         143.724
0.606                   -2.25155         -178.27         -41.5818        -35.9837         -41.5819        -35.9833       -0.0217371         143.646
0.607                   -2.27094        -178.974         -41.5188        -37.3634         -41.5189        -37.3629       -0.0219663         143.568
0.608                   -2.29077         -179.69         -41.4549        -38.7357          -41.455        -38.7353       -0.0221983          143.49
0.609                   -2.31114         179.581         -41.3901        -40.1012         -41.3901        -40.1008       -0.0224334         143.411
0.61                    -2.33214         178.839         -41.3243        -41.4603         -41.3244        -41.4599       -0.0226716         143.333
0.611                   -2.35385         178.083         -41.2577        -42.8136         -41.2577        -42.8132       -0.0229132         143.254
0.612                   -2.37638         177.314           -41.19        -44.1614         -41.1901         -44.161       -0.0231582         143.175
0.613                   -2.39983          176.53         -41.1214        -45.5043         -41.1215        -45.5039       -0.0234067         143.095
0.614                   -2.42431         175.733         -41.0519        -46.8426         -41.0519        -46.8422       -0.0236588         143.016
0.615                   -2.44991         174.921         -40.9814        -48.1768         -40.9814        -48.1765       -0.0239143         142.936
0.616                   -2.47675         174.095         -40.9099        -49.5074         -40.9099        -49.5071       -0.0241731         142.856
0.617                   -2.50494         173.254         -40.8374        -50.8348         -40.8374        -50.8344       -0.0244349         142.775
0.618                   -2.53459         172.399          -40.764        -52.1593          -40.764         -52.159       -0.0246995         142.695
0.619                   -2.56583          171.53         -40.6896        -53.4815         -40.6896        -53.4812       -0.0249664         142.614
0.62                    -2.59876         170.646         -40.6142        -54.8016         -40.6142        -54.8013       -0.0252354         142.533
0.621                    -2.6335         169.748         -40.5379        -56.1201         -40.5379        -56.1198        -0.025506         142.451
0.622                   -2.67017         168.835         -40.4607        -57.4374         -40.4607        -57.4371        -0.025778          142.37
0.623                   -2.70888         167.909         -40.3826        -58.7538         -40.3825        -58.7536       -0.0260511         142.288
0.624                   -2.74975         166.968         -40.3035        -60.0698         -40.3035        -60.0696       -0.0263251         142.206
0.625                    -2.7929         166.014         -40.2236        -61.3856         -40.2236        -61.3854       -0.0265999         142.123
0.626                   -2.83843         165.046         -40.1428        -62.7016         -40.1428        -62.7015       -0.0268757          142.04
0.627                   -2.88647         164.066         -40.0612        -64.0182         -40.0611        -64.0181       -0.0271524         141.957
0.628                   -2.93712         163.072         -39.9787        -65.3357         -39.9787        -65.3356       -0.0274303         141.874
0.629                   -2.99049         162.066         -39.8955        -66.6545         -39.8954        -66.6544       -0.0277095         141.791
