! TOUCHSTONE file generated by CST MICROWAVE STUDIO
! Date and time: Wed Oct 28 19:37:59 2020
! Project name: Scenario_1_Circular_Tissue_out_of_Line_v2.cst
! Parameters = {dy1=51.9; L_HA=400; MT=2.54; Rad_Dielectric=30; Rad_Lower=7.3; Rad_Upper=30; a_HA=580; a_WG=246; b_HA=500; b_WG=121; c_HA=0; c_WG=187; d_feed=85; dx1=346; h_feed=15; h_lower=18; h_upper=40}
! Header version: 2018
! Port assignment regex: !\s*Touchstone port\s*([0-9]+)\s*=\s*(CST MWS port|CST DS port)\s*([0-9]+|Zmin|Zmax)\s*\(\"(.*)\"\)(\s*mode\s*([0-9]+))?.*
! Touchstone port assignment:
! Touchstone port 1 = CST MWS port 1 ("")
! Touchstone port 2 = CST MWS port 2 ("")
# GHz S DB R 50
0.5                    -0.176212         -122.32         -58.2463         31.9546         -58.2463         31.9546      -0.00781929         151.128
0.501                  -0.181375        -122.743         -58.0959         30.3929         -58.0959         30.3915       -0.0078913         151.062
0.502                  -0.186595        -123.169         -57.9474         28.8339         -57.9474         28.8313       -0.0079635         150.997
0.503                  -0.191875        -123.597         -57.8008         27.2781         -57.8008         27.2745       -0.0080359         150.932
0.504                  -0.197216        -124.027         -57.6561         25.7259         -57.6561         25.7214       -0.0081085         150.867
0.505                  -0.202622         -124.46         -57.5129         24.1777          -57.513         24.1725      -0.00818129         150.801
0.506                  -0.208097        -124.895         -57.3714         22.6338         -57.3715         22.6279       -0.0082543         150.736
0.507                  -0.213643        -125.332         -57.2314         21.0946         -57.2315         21.0881      -0.00832752          150.67
0.508                  -0.219263        -125.771         -57.0928         19.5602         -57.0929         19.5534      -0.00840095         150.604
0.509                  -0.224962        -126.213         -56.9555          18.031         -56.9556         18.0238       -0.0084746         150.538
0.51                   -0.230742        -126.657         -56.8194          16.507         -56.8196         16.4996      -0.00854847         150.473
0.511                  -0.236609        -127.104         -56.6844         14.9886         -56.6846          14.981      -0.00862258         150.407
0.512                  -0.242565        -127.553         -56.5505         13.4757         -56.5507         13.4681      -0.00869692         150.341
0.513                  -0.248616        -128.005         -56.4175         11.9686         -56.4177         11.9609       -0.0087715         150.275
0.514                  -0.254766         -128.46         -56.2853         10.4672         -56.2856         10.4596      -0.00884632         150.208
0.515                   -0.26102        -128.917         -56.1539         8.97156         -56.1542          8.9641      -0.00892139         150.142
0.516                  -0.267382        -129.377         -56.0231         7.48174         -56.0234         7.47443      -0.00899673         150.076
0.517                  -0.273859        -129.839         -55.8929         5.99768         -55.8932         5.99057      -0.00907232         150.009
0.518                  -0.280454        -130.305         -55.7632         4.51933         -55.7635         4.51246      -0.00914819         149.943
0.519                  -0.287176        -130.773          -55.634         3.04663         -55.6343         3.04002      -0.00922433         149.876
0.52                   -0.294028        -131.244          -55.505         1.57946         -55.5053         1.57314      -0.00930075          149.81
0.521                  -0.301018        -131.718         -55.3763        0.117705         -55.3766         0.11169      -0.00937747         149.743
0.522                  -0.308152        -132.195         -55.2477        -1.33877         -55.2481        -1.34447      -0.00945448         149.676
0.523                  -0.315438        -132.675         -55.1193        -2.79014         -55.1196         -2.7955       -0.0095318         149.609
0.524                  -0.322882        -133.158         -54.9909        -4.23658         -54.9912        -4.24159      -0.00960943         149.542
0.525                  -0.330492        -133.645         -54.8625        -5.67828         -54.8628        -5.68294      -0.00968739         149.475
0.526                  -0.338277        -134.134          -54.734        -7.11546         -54.7343        -7.11977      -0.00976568         149.408
0.527                  -0.346243        -134.627         -54.6053        -8.54834         -54.6056        -8.55231      -0.00984431         149.341
0.528                  -0.354401        -135.123         -54.4764        -9.97717         -54.4766         -9.9808      -0.00992329         149.273
0.529                  -0.362758        -135.622         -54.3472        -11.4022         -54.3475        -11.4055       -0.0100026         149.206
0.53                   -0.371326        -136.125         -54.2177        -12.8237          -54.218        -12.8267       -0.0100824         149.138
0.531                  -0.380112        -136.631         -54.0879        -14.2419         -54.0881        -14.2446       -0.0101625          149.07
0.532                  -0.389129        -137.141         -53.9576        -15.6572         -53.9578        -15.6595        -0.010243         149.003
0.533                  -0.398386        -137.654         -53.8268        -17.0698          -53.827        -17.0718       -0.0103239         148.935
0.534                  -0.407895        -138.171         -53.6956          -18.48         -53.6957        -18.4818       -0.0104052         148.867
0.535                  -0.417668        -138.691         -53.5638        -19.8882         -53.5639        -19.8896       -0.0104869         148.799
0.536                  -0.427716        -139.215         -53.4314        -21.2946         -53.4315        -21.2958       -0.0105692         148.731
0.537                  -0.438054        -139.743         -53.2984        -22.6996         -53.2984        -22.7005       -0.0106518         148.662
0.538                  -0.448693        -140.275         -53.1647        -24.1035         -53.1647        -24.1042        -0.010735         148.594
0.539                  -0.459648         -140.81         -53.0304        -25.5066         -53.0304        -25.5071       -0.0108186         148.525
0.54                   -0.470933        -141.349         -52.8953        -26.9093         -52.8953        -26.9097       -0.0109028         148.457
0.541                  -0.482563        -141.893         -52.7596         -28.312         -52.7595        -28.3121       -0.0109875         148.388
0.542                  -0.494554         -142.44         -52.6231        -29.7149          -52.623        -29.7149       -0.0110727         148.319
0.543                  -0.506923        -142.991         -52.4858        -31.1184         -52.4857        -31.1183       -0.0111585          148.25
0.544                  -0.519685        -143.546         -52.3477        -32.5229         -52.3476        -32.5226        -0.011245         148.181
0.545                  -0.532859        -144.105         -52.2089        -33.9288         -52.2087        -33.9284        -0.011332         148.112
0.546                  -0.546462        -144.668         -52.0692        -35.3363          -52.069        -35.3358       -0.0114196         148.043
0.547                  -0.560514        -145.236         -51.9287        -36.7459         -51.9285        -36.7453       -0.0115079         147.974
0.548                  -0.575034        -145.807         -51.7874        -38.1579         -51.7872        -38.1572        -0.011597         147.904
0.549                  -0.590042        -146.383         -51.6453        -39.5726         -51.6451        -39.5719       -0.0116867         147.835
0.55                    -0.60556        -146.963         -51.5023        -40.9905         -51.5021        -40.9898       -0.0117771         147.765
0.551                  -0.621609        -147.547         -51.3585         -42.412         -51.3583        -42.4111       -0.0118684         147.695
0.552                  -0.638211        -148.136         -51.2139        -43.8372         -51.2137        -43.8364       -0.0119604         147.625
0.553                   -0.65539        -148.728         -51.0685        -45.2667         -51.0683        -45.2658       -0.0120533         147.555
0.554                  -0.673169        -149.325         -50.9223        -46.7008         -50.9221        -46.6999        -0.012147         147.485
0.555                  -0.691573        -149.926         -50.7753        -48.1399          -50.775         -48.139       -0.0122416         147.415
0.556                  -0.710628        -150.531         -50.6275        -49.5842         -50.6272        -49.5833       -0.0123372         147.344
0.557                  -0.730359        -151.141         -50.4789        -51.0343         -50.4787        -51.0334       -0.0124338         147.274
0.558                  -0.750792        -151.754         -50.3296        -52.4903         -50.3294        -52.4894       -0.0125314         147.203
0.559                  -0.771957        -152.372         -50.1796        -53.9528         -50.1793        -53.9519         -0.01263         147.132
0.56                   -0.793879        -152.994         -50.0288         -55.422         -50.0286        -55.4211       -0.0127298         147.061
0.561                  -0.816588         -153.62         -49.8774        -56.8982         -49.8772        -56.8974       -0.0128307          146.99
0.562                  -0.840113         -154.25         -49.7254        -58.3819         -49.7251        -58.3811       -0.0129328         146.919
0.563                  -0.864484        -154.884         -49.5727        -59.8734         -49.5725        -59.8726       -0.0130362         146.848
0.564                   -0.88973        -155.522         -49.4195        -61.3729         -49.4192        -61.3722        -0.013141         146.776
0.565                  -0.915882        -156.163         -49.2657        -62.8809         -49.2655        -62.8802        -0.013247         146.705
0.566                  -0.942971        -156.808         -49.1114        -64.3976         -49.1112         -64.397       -0.0133546         146.633
0.567                  -0.971027        -157.457         -48.9567        -65.9233         -48.9564        -65.9227       -0.0134636         146.561
0.568                   -1.00008        -158.109         -48.8015        -67.4584         -48.8013        -67.4579       -0.0135741         146.489
0.569                   -1.03017        -158.765          -48.646        -69.0031         -48.6458        -69.0026       -0.0136863         146.417
0.57                    -1.06131        -159.423         -48.4902        -70.5577           -48.49        -70.5573       -0.0138002         146.344
0.571                   -1.09355        -160.085         -48.3341        -72.1225         -48.3339        -72.1221       -0.0139159         146.272
0.572                    -1.1269        -160.749         -48.1778        -73.6978         -48.1777        -73.6974       -0.0140334         146.199
0.573                   -1.16141        -161.416         -48.0214        -75.2836         -48.0212        -75.2833       -0.0141528         146.127
0.574                    -1.1971        -162.085         -47.8649        -76.8804         -47.8648        -76.8801       -0.0142742         146.054
0.575                   -1.23399        -162.757         -47.7084        -78.4883         -47.7083         -78.488       -0.0143977         145.981
0.576                   -1.27212         -163.43          -47.552        -80.1075         -47.5518        -80.1072       -0.0145233         145.907
0.577                   -1.31151        -164.104         -47.3956        -81.7381         -47.3955        -81.7378       -0.0146512         145.834
0.578                   -1.35217         -164.78         -47.2395        -83.3802         -47.2394          -83.38       -0.0147814         145.761
0.579                   -1.39414        -165.457         -47.0837        -85.0341         -47.0836         -85.034       -0.0149141         145.687
0.58                    -1.43744        -166.135         -46.9282        -86.6999         -46.9281        -86.6997       -0.0150493         145.613
0.581                   -1.48207        -166.813         -46.7731        -88.3774         -46.7731        -88.3773        -0.015187         145.539
0.582                   -1.52805        -167.491         -46.6186         -90.067         -46.6185        -90.0668       -0.0153275         145.465
0.583                    -1.5754        -168.168         -46.4646        -91.7684         -46.4646        -91.7683       -0.0154708         145.391
0.584                   -1.62411        -168.845         -46.3113        -93.4818         -46.3113        -93.4817       -0.0156169         145.316
0.585                    -1.6742        -169.521         -46.1588        -95.2071         -46.1588         -95.207       -0.0157661         145.241
0.586                   -1.72566        -170.194         -46.0072        -96.9442         -46.0072        -96.9441       -0.0159183         145.167
0.587                   -1.77848        -170.866         -45.8565         -98.693         -45.8565        -98.6929       -0.0160737         145.092
0.588                   -1.83266        -171.536         -45.7068        -100.453         -45.7068        -100.453       -0.0162324         145.016
0.589                   -1.88818        -172.202         -45.5582        -102.225         -45.5582        -102.225       -0.0163944         144.941
0.59                    -1.94502        -172.865         -45.4108        -104.008         -45.4109        -104.008       -0.0165599         144.866
0.591                   -2.00316        -173.524         -45.2647        -105.802         -45.2648        -105.802       -0.0167289          144.79
0.592                   -2.06255        -174.179           -45.12        -107.606           -45.12        -107.606       -0.0169015         144.714
0.593                   -2.12316        -174.829         -44.9767        -109.421         -44.9767        -109.421       -0.0170778         144.638
0.594                   -2.18495        -175.473         -44.8349        -111.246          -44.835        -111.246       -0.0172579         144.562
0.595                   -2.24787        -176.113         -44.6948         -113.08         -44.6948         -113.08       -0.0174419         144.485
0.596                   -2.31185        -176.746         -44.5563        -114.924         -44.5564        -114.923       -0.0176297         144.409
0.597                   -2.37684        -177.373         -44.4196        -116.776         -44.4197        -116.776       -0.0178216         144.332
0.598                   -2.44276        -177.993         -44.2847        -118.636         -44.2848        -118.636       -0.0180174         144.255
0.599                   -2.50954        -178.606         -44.1517        -120.504         -44.1517        -120.504       -0.0182173         144.178
0.6                     -2.57709        -179.212         -44.0206        -122.379         -44.0207        -122.379       -0.0184214         144.101
0.601                   -2.64532         -179.81         -43.8915        -124.261         -43.8916         -124.26       -0.0186296         144.023
0.602                   -2.71415           179.6         -43.7645        -126.148         -43.7646        -126.148       -0.0188419         143.945
0.603                   -2.78347         179.018         -43.6395        -128.041         -43.6396        -128.041       -0.0190585         143.868
0.604                   -2.85319         178.444         -43.5167        -129.938         -43.5168        -129.938       -0.0192793         143.789
0.605                   -2.92318         177.878          -43.396         -131.84         -43.3961        -131.839       -0.0195043         143.711
0.606                   -2.99336          177.32         -43.2775        -133.744         -43.2776        -133.744       -0.0197336         143.633
0.607                    -3.0636          176.77         -43.1612        -135.652         -43.1613        -135.651        -0.019967         143.554
0.608                    -3.1338         176.228         -43.0471        -137.561         -43.0472         -137.56       -0.0202046         143.475
0.609                   -3.20384         175.694         -42.9352        -139.471         -42.9353        -139.471       -0.0204464         143.396
0.61                    -3.27362         175.167         -42.8255        -141.382         -42.8256        -141.381       -0.0206924         143.317
0.611                   -3.34303         174.647          -42.718        -143.292          -42.718        -143.292       -0.0209424         143.237
0.612                   -3.41195         174.134         -42.6126        -145.202         -42.6127        -145.202       -0.0211966         143.157
0.613                    -3.4803         173.627         -42.5094         -147.11         -42.5095         -147.11       -0.0214547         143.078
0.614                   -3.54797         173.126         -42.4084        -149.016         -42.4084        -149.016       -0.0217169         142.997
0.615                   -3.61488         172.629         -42.3094         -150.92         -42.3094        -150.919        -0.021983         142.917
0.616                   -3.68095         172.137         -42.2124        -152.819         -42.2125        -152.819        -0.022253         142.837
0.617                   -3.74609         171.649         -42.1175        -154.715         -42.1175        -154.715       -0.0225268         142.756
0.618                   -3.81026         171.163         -42.0244        -156.606         -42.0245        -156.606       -0.0228044         142.675
0.619                   -3.87338         170.679         -41.9333        -158.492         -41.9333        -158.492       -0.0230857         142.593
0.62                    -3.93543         170.196         -41.8439        -160.372          -41.844        -160.372       -0.0233707         142.512
0.621                   -3.99635         169.714         -41.7564        -162.246         -41.7564        -162.246       -0.0236594          142.43
0.622                   -4.05615          169.23         -41.6705        -164.114         -41.6705        -164.114       -0.0239516         142.348
0.623                   -4.11479         168.745         -41.5861        -165.975         -41.5862        -165.974       -0.0242474         142.266
0.624                   -4.17229         168.258         -41.5034        -167.828         -41.5034        -167.828       -0.0245467         142.184
0.625                   -4.22866         167.767          -41.422        -169.673         -41.4221        -169.673       -0.0248495         142.101
0.626                   -4.28391         167.271         -41.3421        -171.511         -41.3421        -171.511       -0.0251557         142.018
0.627                    -4.3381          166.77         -41.2634         -173.34         -41.2634         -173.34       -0.0254653         141.935
0.628                   -4.39126         166.262         -41.1859        -175.161          -41.186        -175.161       -0.0257784         141.852
0.629                   -4.44345         165.747         -41.1096        -176.973         -41.1096        -176.973       -0.0260948         141.768
