! TOUCHSTONE file generated by CST MICROWAVE STUDIO
! Date and time: Mon Oct 26 12:32:15 2020
! Project name: Scenario_1_Circular_Tissue_out_of_Line.cst
! Parameters = {dy1=52.843; L_HA=400; MT=2.54; Rad_Dielectric=30; Rad_Lower=7.3; Rad_Upper=30; a_HA=580; a_WG=246; b_HA=500; b_WG=121; c_HA=0; c_WG=187; d_feed=85; dx1=866; h_feed=15; h_lower=18; h_upper=40}
! Header version: 2018
! Port assignment regex: !\s*Touchstone port\s*([0-9]+)\s*=\s*(CST MWS port|CST DS port)\s*([0-9]+|Zmin|Zmax)\s*\(\"(.*)\"\)(\s*mode\s*([0-9]+))?.*
! Touchstone port assignment:
! Touchstone port 1 = CST MWS port 1 ("")
! Touchstone port 2 = CST MWS port 2 ("")
# GHz S DB R 50
0.5                    -0.142616        -122.388         -62.6638         99.0617         -62.6638         99.0617      -0.00746486         151.123
0.501                  -0.145865        -122.783         -63.1705         104.131         -63.1703         104.128      -0.00753886         151.058
0.502                  -0.149208        -123.181         -63.6391         109.735         -63.6387         109.729      -0.00761327         150.993
0.503                  -0.152651        -123.582         -64.0496          115.87         -64.0491          115.86      -0.00768808         150.928
0.504                  -0.156198        -123.986         -64.3801         122.488         -64.3796         122.475      -0.00776332         150.863
0.505                  -0.159857        -124.393         -64.6097         129.489         -64.6094         129.472      -0.00783899         150.797
0.506                  -0.163633        -124.803         -64.7225         136.719         -64.7224         136.699       -0.0079151         150.732
0.507                  -0.167532        -125.217         -64.7107         143.989          -64.711         143.965      -0.00799165         150.666
0.508                  -0.171561        -125.633         -64.5775         151.101         -64.5782         151.075      -0.00806867         150.601
0.509                  -0.175726        -126.053         -64.3356         157.884         -64.3368         157.857      -0.00814615         150.535
0.51                   -0.180034        -126.476         -64.0043         164.213         -64.0059         164.186      -0.00822412         150.469
0.511                  -0.184491        -126.902         -63.6054         170.019         -63.6075         169.992      -0.00830257         150.403
0.512                  -0.189105        -127.331           -63.16         175.279         -63.1624         175.253      -0.00838152         150.337
0.513                  -0.193883        -127.763         -62.6861        -179.991         -62.6889         179.983      -0.00846099         150.271
0.514                  -0.198831        -128.199         -62.1983        -175.756         -62.2012        -175.781      -0.00854097         150.205
0.515                  -0.203958        -128.638         -61.7071         -171.97         -61.7103        -171.993      -0.00862149         150.139
0.516                  -0.209271         -129.08         -61.2205        -168.581         -61.2237        -168.604      -0.00870255         150.073
0.517                  -0.214778        -129.526         -60.7436        -165.542         -60.7469        -165.564      -0.00878417         150.006
0.518                  -0.220487        -129.975         -60.2799        -162.809         -60.2832        -162.829      -0.00886635          149.94
0.519                  -0.226405        -130.428         -59.8314        -160.341         -59.8348        -160.361       -0.0089491         149.873
0.52                   -0.232542        -130.884         -59.3992        -158.106         -59.4026        -158.124      -0.00903245         149.806
0.521                  -0.238906        -131.343         -58.9839        -156.072         -58.9873         -156.09       -0.0091164          149.74
0.522                  -0.245505        -131.806         -58.5855        -154.214         -58.5888        -154.231      -0.00920096         149.673
0.523                  -0.252348        -132.272         -58.2036        -152.511         -58.2069        -152.528      -0.00928614         149.606
0.524                  -0.259445        -132.742         -57.8378        -150.945         -57.8411        -150.961      -0.00937196         149.539
0.525                  -0.266804        -133.215         -57.4875        -149.499         -57.4908        -149.514      -0.00945844         149.472
0.526                  -0.274435        -133.692         -57.1522         -148.16         -57.1554        -148.174      -0.00954557         149.404
0.527                  -0.282348        -134.172         -56.8311        -146.916         -56.8343         -146.93      -0.00963339         149.337
0.528                  -0.290552        -134.656         -56.5235        -145.757         -56.5266        -145.771      -0.00972189          149.27
0.529                  -0.299056        -135.144         -56.2289        -144.676         -56.2319        -144.689       -0.0098111         149.202
0.53                   -0.307872        -135.635         -55.9465        -143.664         -55.9495        -143.677      -0.00990102         149.135
0.531                   -0.31701        -136.129         -55.6758        -142.715         -55.6787        -142.727      -0.00999168         149.067
0.532                  -0.326479        -136.627         -55.4161        -141.823          -55.419        -141.835       -0.0100831         148.999
0.533                  -0.336291        -137.129         -55.1669        -140.984         -55.1697        -140.996       -0.0101752         148.931
0.534                  -0.346456        -137.635         -54.9277        -140.193         -54.9305        -140.205       -0.0102682         148.863
0.535                  -0.356986        -138.144         -54.6981        -139.447         -54.7007        -139.458       -0.0103619         148.795
0.536                   -0.36789        -138.657         -54.4774        -138.742           -54.48        -138.753       -0.0104564         148.727
0.537                  -0.379182        -139.173         -54.2654        -138.075         -54.2679        -138.086       -0.0105518         148.658
0.538                  -0.390871        -139.693         -54.0615        -137.443          -54.064        -137.454        -0.010648          148.59
0.539                   -0.40297        -140.217         -53.8655        -136.846         -53.8679        -136.856        -0.010745         148.521
0.54                    -0.41549        -140.744         -53.6769        -136.279         -53.6793        -136.289       -0.0108429         148.453
0.541                  -0.428444        -141.275         -53.4955        -135.742         -53.4978        -135.752       -0.0109417         148.384
0.542                  -0.441842        -141.809         -53.3208        -135.232         -53.3231        -135.242       -0.0110414         148.315
0.543                  -0.455698        -142.348         -53.1527        -134.749         -53.1549        -134.759        -0.011142         148.246
0.544                  -0.470024        -142.889         -52.9908        -134.291          -52.993          -134.3       -0.0112435         148.177
0.545                  -0.484832        -143.435         -52.8349        -133.856          -52.837        -133.866        -0.011346         148.108
0.546                  -0.500135        -143.984         -52.6847        -133.444         -52.6868        -133.454       -0.0114495         148.039
0.547                  -0.515945        -144.536         -52.5401        -133.054         -52.5421        -133.063        -0.011554         147.969
0.548                  -0.532275        -145.092         -52.4007        -132.684         -52.4026        -132.693       -0.0116594           147.9
0.549                  -0.549138        -145.652         -52.2664        -132.334         -52.2683        -132.343       -0.0117659          147.83
0.55                   -0.566546        -146.215          -52.137        -132.004         -52.1388        -132.012       -0.0118734          147.76
0.551                  -0.584514        -146.782         -52.0123        -131.691         -52.0141          -131.7        -0.011982          147.69
0.552                  -0.603053        -147.352         -51.8921        -131.397         -51.8939        -131.405       -0.0120917          147.62
0.553                  -0.622178        -147.926         -51.7764        -131.119          -51.778        -131.127       -0.0122025          147.55
0.554                    -0.6419        -148.503         -51.6648        -130.859         -51.6664        -130.866       -0.0123144          147.48
0.555                  -0.662234        -149.084         -51.5573        -130.614         -51.5589        -130.622       -0.0124275         147.409
0.556                  -0.683193        -149.667         -51.4538        -130.385         -51.4553        -130.393       -0.0125417         147.339
0.557                   -0.70479        -150.255         -51.3541        -130.172         -51.3555        -130.179       -0.0126571         147.268
0.558                  -0.727038        -150.845          -51.258        -129.973         -51.2595         -129.98       -0.0127738         147.198
0.559                   -0.74995        -151.439         -51.1656        -129.789          -51.167        -129.796       -0.0128916         147.127
0.56                   -0.773541        -152.036         -51.0766        -129.619         -51.0779        -129.625       -0.0130108         147.056
0.561                  -0.797822        -152.636          -50.991        -129.463         -50.9923        -129.469       -0.0131311         146.985
0.562                  -0.822807        -153.239         -50.9086         -129.32         -50.9098        -129.326       -0.0132528         146.913
0.563                   -0.84851        -153.845         -50.8294        -129.191         -50.8306        -129.197       -0.0133759         146.842
0.564                  -0.874943        -154.455         -50.7533        -129.075         -50.7544        -129.081       -0.0135002          146.77
0.565                  -0.902119        -155.067         -50.6801        -128.972         -50.6812        -128.977        -0.013626         146.699
0.566                  -0.930051        -155.682         -50.6099        -128.881          -50.611        -128.887       -0.0137531         146.627
0.567                  -0.958752          -156.3         -50.5425        -128.803         -50.5436        -128.808       -0.0138817         146.555
0.568                  -0.988234        -156.921         -50.4779        -128.737         -50.4789        -128.742       -0.0140117         146.483
0.569                   -1.01851        -157.544          -50.416        -128.683          -50.417        -128.688       -0.0141433         146.411
0.57                    -1.04959         -158.17         -50.3567        -128.641         -50.3576        -128.646       -0.0142763         146.338
0.571                   -1.08149        -158.799            -50.3        -128.611         -50.3009        -128.616       -0.0144108         146.266
0.572                   -1.11422         -159.43         -50.2458        -128.593         -50.2466        -128.598       -0.0145469         146.193
0.573                   -1.14779        -160.064          -50.194        -128.586         -50.1949        -128.591       -0.0146846          146.12
0.574                   -1.18222          -160.7         -50.1447        -128.591         -50.1455        -128.595       -0.0148239         146.047
0.575                   -1.21751        -161.338         -50.0977        -128.606         -50.0985        -128.611       -0.0149649         145.974
0.576                   -1.25367        -161.978         -50.0531        -128.633         -50.0538        -128.637       -0.0151075         145.901
0.577                   -1.29073        -162.621         -50.0107        -128.672         -50.0113        -128.675       -0.0152519         145.828
0.578                   -1.32867        -163.265         -49.9705        -128.721         -49.9711        -128.725       -0.0153979         145.754
0.579                   -1.36753        -163.911         -49.9325        -128.781         -49.9331        -128.785       -0.0155458          145.68
0.58                     -1.4073         -164.56         -49.8966        -128.852         -49.8972        -128.855       -0.0156955         145.606
0.581                     -1.448        -165.209         -49.8629        -128.934         -49.8635        -128.937        -0.015847         145.532
0.582                   -1.48963        -165.861         -49.8313        -129.027         -49.8318         -129.03       -0.0160003         145.458
0.583                    -1.5322        -166.514         -49.8017         -129.13         -49.8022        -129.133       -0.0161556         145.384
0.584                   -1.57573        -167.168         -49.7741        -129.244         -49.7746        -129.247       -0.0163128         145.309
0.585                   -1.62022        -167.824         -49.7486        -129.369          -49.749        -129.372        -0.016472         145.235
0.586                   -1.66568        -168.481          -49.725        -129.505         -49.7254        -129.507       -0.0166332          145.16
0.587                   -1.71211        -169.139         -49.7034        -129.651         -49.7037        -129.653       -0.0167964         145.085
0.588                   -1.75952        -169.798         -49.6837        -129.807          -49.684        -129.809       -0.0169617          145.01
0.589                   -1.80793        -170.458         -49.6659        -129.975         -49.6662        -129.977       -0.0171292         144.934
0.59                    -1.85733        -171.119         -49.6501        -130.153         -49.6503        -130.155       -0.0172988         144.859
0.591                   -1.90772         -171.78         -49.6361        -130.341         -49.6363        -130.343       -0.0174706         144.783
0.592                   -1.95913        -172.442          -49.624        -130.541         -49.6242        -130.542       -0.0176446         144.707
0.593                   -2.01154        -173.104         -49.6137        -130.751         -49.6139        -130.752        -0.017821         144.631
0.594                   -2.06497        -173.767         -49.6054        -130.971         -49.6055        -130.973       -0.0179996         144.555
0.595                   -2.11942         -174.43         -49.5988        -131.203          -49.599        -131.204       -0.0181806         144.479
0.596                   -2.17488        -175.093         -49.5942        -131.445         -49.5943        -131.446       -0.0183641         144.402
0.597                   -2.23138        -175.756         -49.5913        -131.698         -49.5914        -131.699       -0.0185499         144.325
0.598                   -2.28889        -176.419         -49.5903        -131.962         -49.5904        -131.963       -0.0187383         144.248
0.599                   -2.34744        -177.082         -49.5912        -132.237         -49.5912        -132.237       -0.0189292         144.171
0.6                     -2.40702        -177.744         -49.5939        -132.523         -49.5939        -132.523       -0.0191228         144.094
0.601                   -2.46763        -178.406         -49.5984         -132.82         -49.5984         -132.82       -0.0193189         144.016
0.602                   -2.52927        -179.067         -49.6048        -133.128         -49.6048        -133.128       -0.0195178         143.939
0.603                   -2.59195        -179.727          -49.613        -133.448          -49.613        -133.447       -0.0197193         143.861
0.604                   -2.65565         179.613         -49.6231        -133.779         -49.6231        -133.778       -0.0199237         143.783
0.605                   -2.72039         178.954         -49.6351        -134.121         -49.6351         -134.12       -0.0201309         143.704
0.606                   -2.78615         178.297          -49.649        -134.475         -49.6489        -134.474        -0.020341         143.626
0.607                   -2.85295          177.64         -49.6648        -134.841         -49.6647         -134.84       -0.0205541         143.547
0.608                   -2.92077         176.985         -49.6825        -135.219         -49.6824        -135.217       -0.0207701         143.468
0.609                   -2.98962         176.332         -49.7022        -135.608          -49.702        -135.607       -0.0209892         143.389
0.61                    -3.05948          175.68         -49.7238         -136.01         -49.7236        -136.009       -0.0212114         143.309
0.611                   -3.13037         175.029         -49.7474        -136.424         -49.7472        -136.423       -0.0214368          143.23
0.612                   -3.20226          174.38         -49.7731        -136.851         -49.7728         -136.85       -0.0216655          143.15
0.613                   -3.27517         173.733         -49.8007        -137.291         -49.8005        -137.289       -0.0218974          143.07
0.614                   -3.34908         173.088         -49.8305        -137.743         -49.8302        -137.741       -0.0221326          142.99
0.615                     -3.424         172.446         -49.8623        -138.209          -49.862        -138.207       -0.0223713         142.909
0.616                   -3.49991         171.805         -49.8963        -138.688          -49.896        -138.686       -0.0226135         142.828
0.617                   -3.57681         171.167         -49.9324        -139.181         -49.9321        -139.179       -0.0228592         142.747
0.618                    -3.6547         170.531         -49.9708        -139.688         -49.9704        -139.685       -0.0231085         142.666
0.619                   -3.73356         169.897         -50.0114        -140.209         -50.0111        -140.206       -0.0233615         142.585
0.62                     -3.8134         169.266         -50.0543        -140.745          -50.054        -140.742       -0.0236183         142.503
0.621                    -3.8942         168.638         -50.0996        -141.295         -50.0992        -141.292       -0.0238788         142.421
0.622                   -3.97597         168.013         -50.1473        -141.861         -50.1469        -141.858       -0.0241433         142.339
0.623                   -4.05869          167.39         -50.1974        -142.443          -50.197        -142.439       -0.0244117         142.256
0.624                   -4.14235          166.77         -50.2501         -143.04         -50.2496        -143.036       -0.0246842         142.174
0.625                   -4.22695         166.154         -50.3053        -143.654         -50.3049         -143.65       -0.0249608         142.091
0.626                   -4.31248          165.54         -50.3632        -144.285         -50.3627        -144.281       -0.0252416         142.008
0.627                   -4.39893          164.93         -50.4238        -144.933         -50.4233        -144.929       -0.0255267         141.924
0.628                    -4.4863         164.324         -50.4872        -145.599         -50.4866        -145.595       -0.0258162          141.84
0.629                   -4.57458          163.72         -50.5534        -146.284         -50.5529        -146.279       -0.0261101         141.756
