! TOUCHSTONE file generated by CST MICROWAVE STUDIO
! Date and time: Sat Oct 24 11:47:23 2020
! Project name: Scenario_1_Circular_Tissue_out_of_Line.cst
! Parameters = {dy1=52.843; L_HA=400; MT=2.54; Rad_Dielectric=30; Rad_Lower=7.3; Rad_Upper=30; a_HA=580; a_WG=246; b_HA=500; b_WG=121; c_HA=0; c_WG=187; d_feed=85; dx1=1039; h_feed=15; h_lower=18; h_upper=40}
! Header version: 2018
! Port assignment regex: !\s*Touchstone port\s*([0-9]+)\s*=\s*(CST MWS port|CST DS port)\s*([0-9]+|Zmin|Zmax)\s*\(\"(.*)\"\)(\s*mode\s*([0-9]+))?.*
! Touchstone port assignment:
! Touchstone port 1 = CST MWS port 1 ("")
! Touchstone port 2 = CST MWS port 2 ("")
# GHz S DB R 50
0.5                      -0.1467        -122.229          -63.225        -2.94643         -63.2248        -2.94487      -0.00760075         151.138
0.501                  -0.150878        -122.665         -63.0891        -5.16464         -63.0891        -5.16073      -0.00765974         151.073
0.502                  -0.155189        -123.104         -62.9515        -7.38416         -62.9517        -7.37828      -0.00771908         151.008
0.503                  -0.159643        -123.545         -62.8124        -9.60511         -62.8127         -9.5976      -0.00777881         150.942
0.504                  -0.164248        -123.989         -62.6716        -11.8276          -62.672        -11.8188      -0.00783894         150.877
0.505                  -0.169012        -124.437         -62.5293        -14.0518         -62.5297         -14.042      -0.00789948         150.811
0.506                  -0.173945        -124.886         -62.3853        -16.2778         -62.3857        -16.2674      -0.00796046         150.746
0.507                  -0.179058        -125.339         -62.2397         -18.506         -62.2401        -18.4953      -0.00802189          150.68
0.508                  -0.184362        -125.795         -62.0925        -20.7365         -62.0929        -20.7258       -0.0080838         150.614
0.509                  -0.189867        -126.253         -61.9437        -22.9697         -61.9441        -22.9592      -0.00814622         150.549
0.51                   -0.195586        -126.715         -61.7934        -25.2059         -61.7937        -25.1958      -0.00820917         150.483
0.511                  -0.201533         -127.18         -61.6415        -27.4454         -61.6417        -27.4361      -0.00827268         150.417
0.512                   -0.20772        -127.647          -61.488        -29.6887         -61.4882        -29.6803      -0.00833678         150.351
0.513                  -0.214161        -128.118         -61.3329        -31.9361         -61.3331        -31.9288      -0.00840151         150.284
0.514                  -0.220872        -128.592         -61.1764        -34.1881         -61.1764        -34.1822      -0.00846691         150.218
0.515                  -0.227869        -129.069         -61.0182        -36.4453         -61.0182        -36.4409        -0.008533         150.152
0.516                  -0.235167        -129.549         -60.8586        -38.7082         -60.8585        -38.7053      -0.00859984         150.085
0.517                  -0.242785        -130.032         -60.6975        -40.9773         -60.6973        -40.9762      -0.00866746         150.019
0.518                  -0.250739        -130.518         -60.5349        -43.2532         -60.5347        -43.2539      -0.00873591         149.952
0.519                  -0.259048        -131.007         -60.3708        -45.5366         -60.3706        -45.5392      -0.00880525         149.886
0.52                   -0.267732        -131.499         -60.2053        -47.8282         -60.2051        -47.8327      -0.00887552         149.819
0.521                  -0.276809        -131.995         -60.0385        -50.1286         -60.0383         -50.135      -0.00894677         149.752
0.522                    -0.2863        -132.493         -59.8703        -52.4385         -59.8702        -52.4468      -0.00901907         149.685
0.523                  -0.296225        -132.995         -59.7009        -54.7587         -59.7008        -54.7689      -0.00909247         149.618
0.524                  -0.306605        -133.499         -59.5302        -57.0899         -59.5302        -57.1019      -0.00916703         149.551
0.525                   -0.31746        -134.006         -59.3584         -59.433         -59.3584        -59.4467      -0.00924282         149.484
0.526                  -0.328811        -134.516         -59.1856        -61.7886         -59.1857        -61.8039      -0.00931991         149.416
0.527                  -0.340677        -135.029         -59.0117        -64.1576         -59.0119        -64.1744      -0.00939836         149.349
0.528                  -0.353078        -135.544         -58.8369        -66.5407         -58.8372        -66.5589      -0.00947825         149.281
0.529                  -0.366034        -136.062         -58.6614        -68.9388         -58.6618        -68.9582      -0.00955963         149.214
0.53                    -0.37956        -136.581         -58.4851        -71.3526         -58.4857        -71.3729      -0.00964258         149.146
0.531                  -0.393674        -137.103         -58.3084        -73.7828         -58.3091        -73.8039      -0.00972718         149.078
0.532                  -0.408389        -137.627         -58.1312        -76.2301         -58.1321        -76.2518      -0.00981348          149.01
0.533                  -0.423718        -138.153         -57.9538        -78.6952         -57.9548        -78.7174      -0.00990156         148.942
0.534                  -0.439669         -138.68         -57.7762        -81.1788         -57.7775        -81.2011      -0.00999149         148.874
0.535                  -0.456248        -139.208         -57.5988        -83.6813         -57.6002        -83.7036       -0.0100833         148.806
0.536                  -0.473459        -139.738         -57.4216        -86.2033         -57.4232        -86.2253       -0.0101771         148.738
0.537                    -0.4913        -140.268         -57.2449        -88.7452         -57.2466        -88.7667       -0.0102729         148.669
0.538                  -0.509765        -140.799         -57.0689        -91.3072         -57.0707        -91.3281       -0.0103707         148.601
0.539                  -0.528844         -141.33         -56.8938        -93.8896         -56.8956        -93.9097       -0.0104707         148.532
0.54                   -0.548522        -141.862         -56.7198        -96.4925         -56.7217        -96.5116       -0.0105727         148.463
0.541                  -0.568778        -142.393         -56.5471        -99.1158         -56.5491        -99.1337        -0.010677         148.395
0.542                  -0.589585        -142.923          -56.376        -101.759          -56.378        -101.776       -0.0107833         148.326
0.543                  -0.610914        -143.453         -56.2067        -104.423         -56.2087        -104.438       -0.0108919         148.257
0.544                  -0.632726        -143.982         -56.0394        -107.106         -56.0414         -107.12       -0.0110026         148.188
0.545                   -0.65498         -144.51         -55.8744        -109.808         -55.8764         -109.82       -0.0111154         148.118
0.546                  -0.677629        -145.037         -55.7119        -112.528         -55.7138        -112.539       -0.0112303         148.049
0.547                  -0.700622        -145.562         -55.5522        -115.265          -55.554        -115.274       -0.0113473          147.98
0.548                  -0.723904        -146.086         -55.3953        -118.018          -55.397        -118.026       -0.0114663          147.91
0.549                  -0.747416        -146.609         -55.2416        -120.786         -55.2432        -120.793       -0.0115873          147.84
0.55                   -0.771101         -147.13         -55.0913        -123.568         -55.0927        -123.573       -0.0117102         147.771
0.551                  -0.794896        -147.649         -54.9443        -126.362         -54.9455        -126.366       -0.0118348         147.701
0.552                  -0.818741        -148.168          -54.801        -129.166          -54.802        -129.169       -0.0119612         147.631
0.553                  -0.842577        -148.685         -54.6614        -131.979         -54.6622        -131.981       -0.0120893         147.561
0.554                  -0.866348        -149.202         -54.5256        -134.798         -54.5262          -134.8       -0.0122188         147.491
0.555                      -0.89        -149.718         -54.3936        -137.623          -54.394        -137.624       -0.0123499          147.42
0.556                  -0.913486        -150.234         -54.2655        -140.451         -54.2658        -140.451       -0.0124822          147.35
0.557                  -0.936762         -150.75         -54.1414         -143.28         -54.1414         -143.28       -0.0126159         147.279
0.558                  -0.959793        -151.267          -54.021        -146.109         -54.0209        -146.109       -0.0127507         147.209
0.559                  -0.982549        -151.784         -53.9045        -148.935         -53.9042        -148.935       -0.0128865         147.138
0.56                    -1.00501        -152.304         -53.7917        -151.757         -53.7912        -151.757       -0.0130234         147.067
0.561                   -1.02716        -152.825         -53.6825        -154.573         -53.6818        -154.573       -0.0131612         146.996
0.562                   -1.04901        -153.349         -53.5768        -157.381          -53.576        -157.381       -0.0132997         146.925
0.563                   -1.07054        -153.875         -53.4744         -160.18         -53.4735        -160.181       -0.0134391         146.854
0.564                   -1.09178        -154.405         -53.3751        -162.969         -53.3741         -162.97       -0.0135792         146.782
0.565                   -1.11274         -154.94         -53.2787        -165.746         -53.2777        -165.748       -0.0137199         146.711
0.566                   -1.13346        -155.478         -53.1851        -168.511          -53.184        -168.513       -0.0138612         146.639
0.567                   -1.15397        -156.022          -53.094        -171.262         -53.0929        -171.264       -0.0140032         146.568
0.568                    -1.1743        -156.571         -53.0051        -173.998         -53.0041            -174       -0.0141457         146.496
0.569                   -1.19451        -157.125         -52.9184        -176.719         -52.9173        -176.722       -0.0142887         146.424
0.57                    -1.21465        -157.686         -52.8334        -179.425         -52.8324        -179.428       -0.0144324         146.352
0.571                   -1.23478        -158.253           -52.75         177.886          -52.749         177.882       -0.0145766         146.279
0.572                   -1.25495        -158.827         -52.6679         175.212          -52.667         175.208       -0.0147213         146.207
0.573                   -1.27523        -159.408          -52.587         172.554         -52.5862         172.551       -0.0148667         146.134
0.574                   -1.29569        -159.997          -52.507         169.912         -52.5062         169.909       -0.0150127         146.062
0.575                    -1.3164        -160.593         -52.4277         167.286          -52.427         167.283       -0.0151594         145.989
0.576                   -1.33743        -161.196         -52.3488         164.675         -52.3482         164.672       -0.0153068         145.916
0.577                   -1.35884        -161.807         -52.2702         162.079         -52.2697         162.076        -0.015455         145.843
0.578                   -1.38072        -162.427         -52.1918         159.497         -52.1914         159.494        -0.015604          145.77
0.579                   -1.40313        -163.054         -52.1133         156.928          -52.113         156.926       -0.0157538         145.696
0.58                    -1.42616        -163.689         -52.0346         154.373         -52.0344         154.371       -0.0159046         145.623
0.581                   -1.44986        -164.332         -51.9556          151.83         -51.9554         151.829       -0.0160564         145.549
0.582                   -1.47433        -164.983         -51.8761         149.298          -51.876         149.297       -0.0162093         145.475
0.583                   -1.49963        -165.642          -51.796         146.776          -51.796         146.776       -0.0163634         145.401
0.584                   -1.52583        -166.308         -51.7153         144.265         -51.7153         144.265       -0.0165187         145.327
0.585                   -1.55301        -166.983         -51.6338         141.762         -51.6339         141.763       -0.0166753         145.252
0.586                   -1.58124        -167.665         -51.5515         139.266         -51.5516         139.268       -0.0168333         145.178
0.587                   -1.61059        -168.354         -51.4683         136.778         -51.4685          136.78       -0.0169927         145.103
0.588                   -1.64114         -169.05         -51.3842         134.295         -51.3844         134.298       -0.0171538         145.028
0.589                   -1.67294        -169.754         -51.2992         131.818         -51.2994         131.821       -0.0173164         144.953
0.59                    -1.70607        -170.464         -51.2132         129.344         -51.2134         129.348       -0.0174808         144.878
0.591                    -1.7406        -171.181         -51.1263         126.874         -51.1265         126.879       -0.0176471         144.803
0.592                   -1.77659        -171.904         -51.0384         124.406         -51.0386         124.411       -0.0178152         144.727
0.593                   -1.81411        -172.632         -50.9496          121.94         -50.9497         121.945       -0.0179854         144.651
0.594                   -1.85321        -173.367         -50.8599         119.474           -50.86          119.48       -0.0181576         144.575
0.595                   -1.89395        -174.106         -50.7693         117.008         -50.7694         117.014       -0.0183321         144.499
0.596                    -1.9364        -174.849         -50.6778         114.542         -50.6779         114.548       -0.0185088         144.423
0.597                    -1.9806        -175.597         -50.5856         112.073         -50.5857         112.079       -0.0186879         144.346
0.598                    -2.0266        -176.349         -50.4927         109.603         -50.4928         109.609       -0.0188694          144.27
0.599                   -2.07444        -177.103         -50.3992          107.13         -50.3992         107.136       -0.0190535         144.193
0.6                     -2.12418        -177.861         -50.3051         104.653         -50.3051         104.659       -0.0192402         144.116
0.601                   -2.17583         -178.62         -50.2106         102.172         -50.2105         102.179       -0.0194296         144.038
0.602                   -2.22944        -179.381         -50.1156         99.6874         -50.1155         99.6936       -0.0196219         143.961
0.603                   -2.28503         179.858         -50.0204         97.1979         -50.0203         97.2039        -0.019817         143.883
0.604                   -2.34261         179.097         -49.9249         94.7033         -49.9248         94.7091       -0.0200152         143.805
0.605                   -2.40219         178.336         -49.8294         92.2033         -49.8293          92.209       -0.0202164         143.727
0.606                   -2.46377         177.576         -49.7338         89.6979         -49.7337         89.7033       -0.0204208         143.649
0.607                   -2.52735         176.819         -49.6384         87.1868         -49.6383          87.192       -0.0206284         143.571
0.608                   -2.59291         176.064         -49.5432           84.67         -49.5431         84.6749       -0.0208393         143.492
0.609                   -2.66042         175.313         -49.4483         82.1474         -49.4482          82.152       -0.0210536         143.413
0.61                    -2.72984         174.566         -49.3538         79.6191         -49.3537         79.6235       -0.0212713         143.334
0.611                   -2.80113         173.823         -49.2599         77.0852         -49.2598         77.0893       -0.0214926         143.254
0.612                   -2.87422         173.087         -49.1666         74.5459         -49.1665         74.5497       -0.0217175         143.175
0.613                   -2.94905         172.357          -49.074         72.0014         -49.0739          72.005        -0.021946         143.095
0.614                   -3.02553         171.633         -48.9822         69.4521         -48.9821         69.4554       -0.0221783         143.015
0.615                   -3.10358         170.918         -48.8913         66.8981         -48.8913         66.9012       -0.0224143         142.935
0.616                   -3.18308          170.21         -48.8014           64.34         -48.8014         64.3429       -0.0226542         142.854
0.617                   -3.26393         169.511         -48.7126         61.7783         -48.7126         61.7809       -0.0228979         142.774
0.618                     -3.346         168.821         -48.6249         59.2133         -48.6249         59.2157       -0.0231456         142.693
0.619                   -3.42916         168.141         -48.5384         56.6456         -48.5385         56.6479       -0.0233973         142.612
0.62                    -3.51327          167.47         -48.4532         54.0759         -48.4532          54.078       -0.0236529          142.53
0.621                   -3.59819         166.808         -48.3692         51.5046         -48.3693         51.5066       -0.0239126         142.449
0.622                   -3.68375         166.157         -48.2866         48.9325         -48.2867         48.9343       -0.0241764         142.367
0.623                   -3.76982         165.516         -48.2053         46.3601         -48.2055         46.3618       -0.0244444         142.285
0.624                   -3.85623         164.884         -48.1255         43.7882         -48.1256         43.7898       -0.0247164         142.202
0.625                   -3.94284         164.261          -48.047         41.2174         -48.0471         41.2189       -0.0249927          142.12
0.626                   -4.02948         163.647         -47.9699         38.6483           -47.97         38.6497       -0.0252731         142.037
0.627                   -4.11603         163.042         -47.8941         36.0816         -47.8943         36.0829       -0.0255578         141.954
0.628                   -4.20233         162.444         -47.8198          33.518         -47.8199         33.5192       -0.0258467          141.87
0.629                   -4.28826         161.854         -47.7467         30.9581         -47.7468         30.9592       -0.0261399         141.787
