! TOUCHSTONE file generated by CST MICROWAVE STUDIO
! Date and time: Mon Oct 26 12:08:15 2020
! Project name: Scenario_1_Circular_Tissue_out_of_Line_v2.cst
! Parameters = {dy1=69.2; L_HA=400; MT=2.54; Rad_Dielectric=30; Rad_Lower=7.3; Rad_Upper=30; a_HA=580; a_WG=246; b_HA=500; b_WG=121; c_HA=0; c_WG=187; d_feed=85; dx1=173; h_feed=15; h_lower=18; h_upper=40}
! Header version: 2018
! Port assignment regex: !\s*Touchstone port\s*([0-9]+)\s*=\s*(CST MWS port|CST DS port)\s*([0-9]+|Zmin|Zmax)\s*\(\"(.*)\"\)(\s*mode\s*([0-9]+))?.*
! Touchstone port assignment:
! Touchstone port 1 = CST MWS port 1 ("")
! Touchstone port 2 = CST MWS port 2 ("")
# GHz S DB R 50
0.5                    -0.105727        -122.553         -57.0396         129.287         -57.0396         129.287      -0.00711955         151.123
0.501                  -0.109855        -123.008         -56.8394         128.398         -56.8397         128.401      -0.00716666         151.058
0.502                  -0.114229        -123.466         -56.6379         127.494         -56.6384         127.501      -0.00721481         150.993
0.503                   -0.11886        -123.927         -56.4352         126.576         -56.4358         126.585        -0.007264         150.927
0.504                   -0.12376        -124.391         -56.2311         125.642         -56.2319         125.654      -0.00731426         150.861
0.505                  -0.128941        -124.858         -56.0258         124.693         -56.0267         124.708      -0.00736561         150.796
0.506                  -0.134416        -125.328         -55.8193         123.729         -55.8204         123.746      -0.00741804          150.73
0.507                  -0.140198        -125.801         -55.6116         122.749         -55.6128         122.768       -0.0074716         150.664
0.508                  -0.146301        -126.276         -55.4028         121.752          -55.404         121.774      -0.00752628         150.598
0.509                  -0.152738        -126.755         -55.1928         120.739         -55.1941         120.763      -0.00758212         150.532
0.51                   -0.159525        -127.237         -54.9818         119.709         -54.9831         119.734      -0.00763913         150.466
0.511                  -0.166678        -127.722         -54.7697         118.662         -54.7711         118.688      -0.00769734           150.4
0.512                  -0.174212        -128.209         -54.5567         117.597          -54.558         117.625      -0.00775678         150.334
0.513                  -0.182143          -128.7         -54.3427         116.514          -54.344         116.543      -0.00781746         150.267
0.514                   -0.19049        -129.194         -54.1277         115.412          -54.129         115.442      -0.00787941         150.201
0.515                   -0.19927        -129.691          -53.912         114.292         -53.9132         114.323      -0.00794267         150.134
0.516                  -0.208501        -130.191         -53.6954         113.153         -53.6966         113.184      -0.00800726         150.068
0.517                  -0.218203        -130.694         -53.4781         111.994         -53.4793         112.026      -0.00807322         150.001
0.518                  -0.228394        -131.199         -53.2602         110.815         -53.2613         110.848      -0.00814059         149.934
0.519                  -0.239094        -131.708         -53.0417         109.616         -53.0427         109.649       -0.0082094         149.867
0.52                   -0.250324        -132.219         -52.8226         108.396         -52.8235         108.429       -0.0082797           149.8
0.521                  -0.262105        -132.733         -52.6031         107.155         -52.6039         107.188      -0.00835152         149.733
0.522                  -0.274456         -133.25         -52.3832         105.893          -52.384         105.926      -0.00842491         149.666
0.523                    -0.2874        -133.769         -52.1631         104.609         -52.1638         104.641      -0.00849993         149.599
0.524                  -0.300958        -134.291         -51.9427         103.303         -51.9433         103.334      -0.00857663         149.532
0.525                  -0.315151        -134.815         -51.7223         101.974         -51.7229         102.005      -0.00865505         149.464
0.526                  -0.329999        -135.341          -51.502         100.622         -51.5024         100.653      -0.00873526         149.397
0.527                  -0.345524         -135.87         -51.2817         99.2474         -51.2821         99.2772      -0.00881733         149.329
0.528                  -0.361746        -136.401         -51.0617         97.8492          -51.062         97.8781      -0.00890131         149.261
0.529                  -0.378684        -136.933         -50.8421         96.4272         -50.8423         96.4553      -0.00898728         149.194
0.53                   -0.396358        -137.467          -50.623         94.9814         -50.6231         95.0084      -0.00907531         149.126
0.531                  -0.414785        -138.003         -50.4046         93.5114         -50.4046         93.5372      -0.00916548         149.058
0.532                  -0.433981         -138.54         -50.1869          92.017         -50.1868         92.0417      -0.00925787          148.99
0.533                  -0.453961        -139.077         -49.9701         90.4983           -49.97         90.5217      -0.00935256         148.921
0.534                  -0.474737        -139.616         -49.7545          88.955         -49.7543         88.9771      -0.00944965         148.853
0.535                  -0.496321        -140.155           -49.54         87.3872         -49.5398          87.408      -0.00954921         148.785
0.536                  -0.518721        -140.695          -49.327         85.7949         -49.3267         85.8143      -0.00965136         148.716
0.537                   -0.54194        -141.234         -49.1155         84.1782         -49.1152         84.1961      -0.00975618         148.648
0.538                  -0.565981        -141.773         -48.9057         82.5371         -48.9054         82.5536      -0.00986377         148.579
0.539                  -0.590842        -142.312         -48.6979          80.872         -48.6975          80.887      -0.00997424          148.51
0.54                   -0.616517         -142.85         -48.4921         79.1832         -48.4918         79.1966       -0.0100877         148.441
0.541                  -0.642996        -143.386         -48.2886         77.4709         -48.2882         77.4828       -0.0102042         148.372
0.542                  -0.670264        -143.921         -48.0875         75.7356         -48.0872         75.7461       -0.0103239         148.303
0.543                    -0.6983        -144.453          -47.889         73.9779         -47.8887         73.9869       -0.0104469         148.234
0.544                  -0.727079        -144.984         -47.6933         72.1984          -47.693          72.206       -0.0105732         148.164
0.545                  -0.756571        -145.512         -47.5006         70.3978         -47.5003         70.4039        -0.010703         148.095
0.546                  -0.786738        -146.037          -47.311         68.5768         -47.3108         68.5816       -0.0108363         148.025
0.547                  -0.817538        -146.558         -47.1246         66.7364         -47.1245         66.7398       -0.0109733         147.956
0.548                  -0.848923        -147.076         -46.9418         64.8775         -46.9418         64.8796       -0.0111139         147.886
0.549                  -0.880839        -147.591         -46.7625         63.0012         -46.7626          63.002       -0.0112582         147.816
0.55                   -0.913225        -148.101          -46.587         61.1085         -46.5871         61.1082       -0.0114063         147.746
0.551                  -0.946016        -148.606         -46.4154         59.2008         -46.4156         59.1994       -0.0115582         147.676
0.552                  -0.979143        -149.108         -46.2477         57.2792          -46.248         57.2768       -0.0117139         147.606
0.553                   -1.01253        -149.604         -46.0842         55.3451         -46.0846         55.3418       -0.0118733         147.535
0.554                    -1.0461        -150.096         -45.9248            53.4         -45.9253         53.3958       -0.0120364         147.465
0.555                   -1.07977        -150.583         -45.7697         51.4453         -45.7704         51.4403       -0.0122032         147.394
0.556                   -1.11345        -151.066          -45.619         49.4824         -45.6197         49.4768       -0.0123735         147.324
0.557                   -1.14706        -151.543         -45.4726          47.513         -45.4734         47.5068       -0.0125473         147.253
0.558                   -1.18051        -152.016         -45.3306         45.5386         -45.3316         45.5319       -0.0127244         147.182
0.559                   -1.21372        -152.485         -45.1931         43.5607         -45.1941         43.5536       -0.0129046         147.111
0.56                     -1.2466        -152.949         -45.0599         41.5809         -45.0611         41.5735       -0.0130877          147.04
0.561                   -1.27906        -153.409         -44.9311         39.6008         -44.9324         39.5931       -0.0132736         146.969
0.562                   -1.31104        -153.866         -44.8067         37.6219         -44.8081          37.614       -0.0134619         146.898
0.563                   -1.34245         -154.32         -44.6866         35.6456          -44.688         35.6376       -0.0136525         146.827
0.564                   -1.37324        -154.771         -44.5707         33.6734         -44.5722         33.6655       -0.0138451         146.755
0.565                   -1.40332        -155.219         -44.4589         31.7068         -44.4605         31.6989       -0.0140395         146.684
0.566                   -1.43266        -155.667         -44.3511         29.7471         -44.3528         29.7393       -0.0142352         146.612
0.567                   -1.46121        -156.113         -44.2472         27.7956          -44.249         27.7879       -0.0144321          146.54
0.568                   -1.48891        -156.558         -44.1472         25.8533          -44.149         25.8459         -0.01463         146.468
0.569                   -1.51576        -157.004         -44.0507         23.9216         -44.0526         23.9144       -0.0148284         146.396
0.57                    -1.54172         -157.45         -43.9578         22.0013         -43.9596         21.9944       -0.0150273         146.324
0.571                   -1.56679        -157.898         -43.8682         20.0935         -43.8701         20.0869       -0.0152263         146.252
0.572                   -1.59095        -158.349         -43.7817          18.199         -43.7836         18.1928       -0.0154252          146.18
0.573                   -1.61422        -158.801         -43.6983         16.3186         -43.7002         16.3127       -0.0156239         146.107
0.574                   -1.63661        -159.258         -43.6177         14.4529         -43.6197         14.4474       -0.0158221         146.035
0.575                   -1.65814        -159.718         -43.5398         12.6026         -43.5417         12.5975       -0.0160198         145.962
0.576                   -1.67884        -160.183         -43.4644         10.7681         -43.4663         10.7634       -0.0162169         145.889
0.577                   -1.69874        -160.653         -43.3912         8.94985         -43.3932         8.94558       -0.0164131         145.816
0.578                    -1.7179        -161.129         -43.3203         7.14819         -43.3222         7.14431       -0.0166086         145.743
0.579                   -1.73634        -161.611         -43.2513         5.36335         -43.2531         5.35986       -0.0168032          145.67
0.58                    -1.75413        -162.099         -43.1841         3.59551         -43.1859          3.5924        -0.016997         145.596
0.581                   -1.77132        -162.595         -43.1185         1.84477         -43.1203         1.84203       -0.0171899         145.523
0.582                   -1.78797        -163.099         -43.0544        0.111167         -43.0561        0.108778       -0.0173821         145.449
0.583                   -1.80413         -163.61         -42.9916        -1.60533         -42.9933        -1.60738       -0.0175735         145.375
0.584                   -1.81989         -164.13           -42.93        -3.30481         -42.9316        -3.30655       -0.0177642         145.301
0.585                   -1.83529        -164.658         -42.8694        -4.98741         -42.8709        -4.98886       -0.0179543         145.227
0.586                    -1.8504        -165.195         -42.8096        -6.65332         -42.8111         -6.6545        -0.018144         145.152
0.587                    -1.8653        -165.742         -42.7506        -8.30278          -42.752        -8.30371       -0.0183333         145.078
0.588                   -1.88004        -166.298         -42.6922        -9.93607         -42.6935        -9.93676       -0.0185223         145.003
0.589                    -1.8947        -166.863         -42.6343        -11.5535         -42.6355         -11.554       -0.0187112         144.928
0.59                    -1.90933        -167.438         -42.5767        -13.1554         -42.5779        -13.1557       -0.0189001         144.853
0.591                   -1.92402        -168.023         -42.5193        -14.7421         -42.5205        -14.7423       -0.0190892         144.778
0.592                   -1.93881        -168.618         -42.4622        -16.3141         -42.4632        -16.3141       -0.0192785         144.703
0.593                   -1.95377        -169.223          -42.405        -17.8717          -42.406        -17.8716       -0.0194682         144.627
0.594                   -1.96897        -169.838         -42.3478        -19.4155         -42.3487        -19.4153       -0.0196585         144.552
0.595                   -1.98447        -170.463         -42.2905        -20.9458         -42.2913        -20.9455       -0.0198494         144.476
0.596                   -2.00032        -171.099         -42.2329        -22.4631         -42.2337        -22.4628       -0.0200411           144.4
0.597                   -2.01658        -171.745         -42.1751        -23.9679         -42.1758        -23.9675       -0.0202338         144.323
0.598                   -2.03332        -172.401         -42.1168        -25.4606         -42.1175        -25.4603       -0.0204275         144.247
0.599                   -2.05058        -173.068         -42.0582        -26.9419         -42.0588        -26.9415       -0.0206224          144.17
0.6                     -2.06843        -173.745          -41.999        -28.4121         -41.9996        -28.4117       -0.0208186         144.093
0.601                   -2.08691        -174.433         -41.9394        -29.8717         -41.9398        -29.8714       -0.0210163         144.016
0.602                   -2.10608        -175.131         -41.8791        -31.3213         -41.8795         -31.321       -0.0212155         143.939
0.603                   -2.12599        -175.839         -41.8181        -32.7613         -41.8185        -32.7611       -0.0214163         143.862
0.604                    -2.1467        -176.558         -41.7565        -34.1923         -41.7568        -34.1921       -0.0216189         143.784
0.605                   -2.16825        -177.288         -41.6942        -35.6148         -41.6944        -35.6146       -0.0218234         143.706
0.606                    -2.1907        -178.028         -41.6311        -37.0292         -41.6313        -37.0291       -0.0220299         143.628
0.607                   -2.21409        -178.778         -41.5672         -38.436         -41.5674        -38.4359       -0.0222384          143.55
0.608                   -2.23848        -179.539         -41.5025        -39.8357         -41.5027        -39.8357       -0.0224491         143.471
0.609                   -2.26392          179.69          -41.437        -41.2288         -41.4371        -41.2289       -0.0226621         143.393
0.61                    -2.29046         178.908         -41.3706        -42.6158         -41.3707         -42.616       -0.0228774         143.314
0.611                   -2.31814         178.115         -41.3033        -43.9971         -41.3034        -43.9974       -0.0230953         143.234
0.612                   -2.34703         177.313         -41.2352        -45.3732         -41.2352        -45.3736       -0.0233156         143.155
0.613                   -2.37717         176.499         -41.1662        -46.7446         -41.1662        -46.7451       -0.0235387         143.076
0.614                   -2.40862         175.676         -41.0962        -48.1117         -41.0962        -48.1122       -0.0237645         142.996
0.615                   -2.44143         174.842         -41.0254        -49.4749         -41.0254        -49.4755       -0.0239931         142.916
0.616                   -2.47566         173.997         -40.9537        -50.8348         -40.9536        -50.8354       -0.0242247         142.835
0.617                   -2.51135         173.142          -40.881        -52.1916          -40.881        -52.1923       -0.0244593         142.755
0.618                   -2.54858         172.276         -40.8075        -53.5459         -40.8075        -53.5466       -0.0246971         142.674
0.619                   -2.58739           171.4         -40.7331         -54.898          -40.733        -54.8988       -0.0249381         142.593
0.62                    -2.62785         170.514         -40.6578        -56.2483         -40.6577        -56.2492       -0.0251823         142.512
0.621                   -2.67002         169.617         -40.5816        -57.5973         -40.5815        -57.5982         -0.02543          142.43
0.622                   -2.71397         168.709         -40.5046        -58.9453         -40.5045        -58.9462       -0.0256813         142.348
0.623                   -2.75976         167.791         -40.4267        -60.2926         -40.4266        -60.2936       -0.0259361         142.266
0.624                   -2.80746         166.863          -40.348        -61.6398         -40.3479        -61.6408       -0.0261946         142.184
0.625                   -2.85713         165.924         -40.2685        -62.9871         -40.2684        -62.9881        -0.026457         142.102
0.626                   -2.90886         164.975         -40.1882        -64.3348         -40.1881        -64.3358       -0.0267233         142.019
0.627                   -2.96271         164.015         -40.1072        -65.6833         -40.1071        -65.6844       -0.0269936         141.936
0.628                   -3.01877         163.045         -40.0254         -67.033         -40.0253         -67.034       -0.0272681         141.852
0.629                   -3.07712         162.065         -39.9429        -68.3841         -39.9428        -68.3851       -0.0275468         141.769
