! TOUCHSTONE file generated by CST MICROWAVE STUDIO
! Date and time: Wed Oct 28 19:38:10 2020
! Project name: Scenario_1_Circular_Tissue_out_of_Line_v2.cst
! Parameters = {dy1=69.2; L_HA=400; MT=2.54; Rad_Dielectric=30; Rad_Lower=7.3; Rad_Upper=30; a_HA=580; a_WG=246; b_HA=500; b_WG=121; c_HA=0; c_WG=187; d_feed=85; dx1=346; h_feed=15; h_lower=18; h_upper=40}
! Header version: 2018
! Port assignment regex: !\s*Touchstone port\s*([0-9]+)\s*=\s*(CST MWS port|CST DS port)\s*([0-9]+|Zmin|Zmax)\s*\(\"(.*)\"\)(\s*mode\s*([0-9]+))?.*
! Touchstone port assignment:
! Touchstone port 1 = CST MWS port 1 ("")
! Touchstone port 2 = CST MWS port 2 ("")
# GHz S DB R 50
0.5                    -0.175137        -122.301         -58.3118         30.6415         -58.3118         30.6415      -0.00784949         151.131
0.501                  -0.174864        -122.766         -58.2158         29.2225         -58.2157         29.2227      -0.00790895         151.065
0.502                  -0.174873        -123.234          -58.118         27.8019         -58.1179         27.8022      -0.00796869             151
0.503                  -0.175168        -123.704         -58.0184         26.3798         -58.0183         26.3802      -0.00802874         150.935
0.504                  -0.175753        -124.176         -57.9171         24.9562         -57.9169         24.9568      -0.00808912          150.87
0.505                  -0.176635        -124.651          -57.814         23.5314         -57.8138         23.5322      -0.00814984         150.804
0.506                  -0.177817        -125.128         -57.7092         22.1054          -57.709         22.1064      -0.00821091         150.739
0.507                  -0.179305        -125.607         -57.6028         20.6784         -57.6025         20.6795      -0.00827235         150.673
0.508                  -0.181105        -126.089         -57.4947         19.2505         -57.4944         19.2517      -0.00833418         150.608
0.509                  -0.183221        -126.573         -57.3849         17.8217         -57.3846         17.8231      -0.00839641         150.542
0.51                   -0.185658        -127.059         -57.2735         16.3922         -57.2732         16.3938      -0.00845907         150.476
0.511                  -0.188422        -127.547         -57.1606         14.9621         -57.1602         14.9638      -0.00852216          150.41
0.512                  -0.191517        -128.038          -57.046         13.5314         -57.0456         13.5331      -0.00858571         150.345
0.513                  -0.194949        -128.531         -56.9299         12.1001         -56.9294          12.102      -0.00864974         150.278
0.514                  -0.198724        -129.026         -56.8122         10.6683         -56.8118         10.6704      -0.00871425         150.212
0.515                  -0.202845        -129.523         -56.6931         9.23614         -56.6926          9.2383      -0.00877927         150.146
0.516                  -0.207318        -130.023         -56.5725         7.80356          -56.572         7.80583      -0.00884482          150.08
0.517                  -0.212149        -130.525         -56.4504          6.3706         -56.4499         6.37298      -0.00891091         150.013
0.518                  -0.217342        -131.029         -56.3269         4.93728         -56.3264         4.93977      -0.00897757         149.947
0.519                  -0.222903        -131.536          -56.202         3.50361         -56.2015         3.50619       -0.0090448          149.88
0.52                   -0.228836        -132.044         -56.0758         2.06958         -56.0752         2.07226      -0.00911264         149.814
0.521                  -0.235147        -132.555         -55.9482        0.635185         -55.9476        0.637949      -0.00918109         149.747
0.522                  -0.241841        -133.068         -55.8193       -0.799597         -55.8187       -0.796753      -0.00925018          149.68
0.523                  -0.248923        -133.583         -55.6891        -2.23479         -55.6884        -2.23188      -0.00931993         149.613
0.524                  -0.256397        -134.101         -55.5576        -3.67045          -55.557        -3.66746      -0.00939035         149.546
0.525                  -0.264269         -134.62         -55.4249        -5.10659         -55.4243        -5.10355      -0.00946147         149.479
0.526                  -0.272543        -135.142          -55.291         -6.5433         -55.2904        -6.54019       -0.0095333         149.412
0.527                  -0.281225        -135.665          -55.156        -7.98061         -55.1553        -7.97746      -0.00960587         149.345
0.528                  -0.290319        -136.191         -55.0197        -9.41861         -55.0191        -9.41541       -0.0096792         149.277
0.529                  -0.299831        -136.719         -54.8824        -10.8574         -54.8817        -10.8541       -0.0097533          149.21
0.53                   -0.309764        -137.249          -54.744         -12.297         -54.7433        -12.2937       -0.0098282         149.142
0.531                  -0.320124        -137.781         -54.6045        -13.7375         -54.6038        -13.7342      -0.00990392         149.074
0.532                  -0.330915        -138.315          -54.464        -15.1791         -54.4633        -15.1758      -0.00998047         149.007
0.533                  -0.342142        -138.851         -54.3224        -16.6218         -54.3218        -16.6185       -0.0100579         148.939
0.534                  -0.353809        -139.389         -54.1799        -18.0658         -54.1792        -18.0625       -0.0101362         148.871
0.535                  -0.365921        -139.929         -54.0364        -19.5111         -54.0358        -19.5078       -0.0102154         148.803
0.536                  -0.378482        -140.471          -53.892         -20.958         -53.8914        -20.9547       -0.0102955         148.735
0.537                  -0.391497        -141.015         -53.7468        -22.4064         -53.7461        -22.4032       -0.0103766         148.666
0.538                   -0.40497         -141.56         -53.6006        -23.8567            -53.6        -23.8534       -0.0104587         148.598
0.539                  -0.418904        -142.108         -53.4536        -25.3088          -53.453        -25.3056       -0.0105417         148.529
0.54                   -0.433305        -142.657         -53.3058         -26.763         -53.3052        -26.7598       -0.0106258         148.461
0.541                  -0.448176        -143.209         -53.1572        -28.2194         -53.1566        -28.2162       -0.0107109         148.392
0.542                  -0.463521        -143.762         -53.0078        -29.6781         -53.0072         -29.675       -0.0107971         148.323
0.543                  -0.479343        -144.317         -52.8577        -31.1394         -52.8571        -31.1363       -0.0108843         148.254
0.544                  -0.495648        -144.874          -52.707        -32.6033         -52.7063        -32.6003       -0.0109727         148.185
0.545                  -0.512438        -145.432         -52.5555        -34.0701         -52.5549        -34.0671       -0.0110622         148.116
0.546                  -0.529717        -145.992         -52.4034        -35.5399         -52.4028         -35.537       -0.0111529         148.047
0.547                  -0.547488        -146.554         -52.2506        -37.0129         -52.2501          -37.01       -0.0112448         147.977
0.548                  -0.565755        -147.118         -52.0973        -38.4893         -52.0968        -38.4865       -0.0113379         147.908
0.549                  -0.584522        -147.683         -51.9434        -39.9692         -51.9429        -39.9665       -0.0114322         147.838
0.55                   -0.603791         -148.25          -51.789        -41.4529         -51.7885        -41.4502       -0.0115278         147.768
0.551                  -0.623565        -148.818         -51.6341        -42.9404         -51.6336        -42.9379       -0.0116247         147.699
0.552                  -0.643848        -149.388         -51.4787        -44.4321         -51.4782        -44.4296       -0.0117229         147.629
0.553                  -0.664642         -149.96         -51.3229        -45.9281         -51.3224        -45.9257       -0.0118225         147.559
0.554                   -0.68595        -150.533         -51.1667        -47.4285         -51.1662        -47.4262       -0.0119234         147.488
0.555                  -0.707775        -151.108         -51.0101        -48.9336         -51.0096        -48.9314       -0.0120258         147.418
0.556                   -0.73012        -151.684         -50.8531        -50.4436         -50.8526        -50.4415       -0.0121296         147.348
0.557                  -0.752986        -152.261         -50.6958        -51.9586         -50.6954        -51.9566       -0.0122348         147.277
0.558                  -0.776376         -152.84         -50.5382        -53.4789         -50.5378         -53.477       -0.0123415         147.206
0.559                  -0.800293         -153.42         -50.3804        -55.0046           -50.38        -55.0028       -0.0124498         147.135
0.56                   -0.824739        -154.002         -50.2224        -56.5359          -50.222        -56.5342       -0.0125596         147.064
0.561                  -0.849715        -154.585         -50.0641         -58.073         -50.0638        -58.0714        -0.012671         146.993
0.562                  -0.875223         -155.17         -49.9058        -59.6161         -49.9054        -59.6146        -0.012784         146.922
0.563                  -0.901266        -155.755         -49.7473        -61.1653          -49.747        -61.1639       -0.0128986         146.851
0.564                  -0.927844        -156.342         -49.5887        -62.7209         -49.5884        -62.7196       -0.0130149         146.779
0.565                   -0.95496        -156.931         -49.4301         -64.283         -49.4298        -64.2818       -0.0131329         146.708
0.566                  -0.982616         -157.52         -49.2715        -65.8518         -49.2713        -65.8508       -0.0132526         146.636
0.567                   -1.01081        -158.111          -49.113        -67.4275         -49.1127        -67.4265       -0.0133741         146.564
0.568                   -1.03955        -158.703         -48.9545        -69.0102         -48.9543        -69.0093       -0.0134974         146.492
0.569                   -1.06883        -159.296         -48.7961           -70.6         -48.7959        -70.5993       -0.0136226          146.42
0.57                    -1.09865         -159.89         -48.6379        -72.1972         -48.6378        -72.1965       -0.0137496         146.348
0.571                   -1.12902        -160.485         -48.4799        -73.8018         -48.4798        -73.8013       -0.0138785         146.275
0.572                   -1.15993        -161.081         -48.3222        -75.4141         -48.3221        -75.4136       -0.0140093         146.203
0.573                   -1.19139        -161.679         -48.1648         -77.034         -48.1647        -77.0336       -0.0141421          146.13
0.574                    -1.2234        -162.277         -48.0076        -78.6618         -48.0076        -78.6615       -0.0142769         146.057
0.575                   -1.25596        -162.877         -47.8509        -80.2976         -47.8509        -80.2974       -0.0144138         145.984
0.576                   -1.28906        -163.478         -47.6946        -81.9413         -47.6946        -81.9413       -0.0145527         145.911
0.577                   -1.32271        -164.079         -47.5388        -83.5933         -47.5388        -83.5933       -0.0146937         145.837
0.578                   -1.35691        -164.682         -47.3836        -85.2534         -47.3836        -85.2535       -0.0148369         145.764
0.579                   -1.39166        -165.286         -47.2289        -86.9218         -47.2289         -86.922       -0.0149823          145.69
0.58                    -1.42696         -165.89         -47.0748        -88.5986         -47.0749        -88.5988       -0.0151299         145.616
0.581                   -1.46281        -166.496         -46.9214        -90.2837         -46.9215         -90.284       -0.0152797         145.543
0.582                    -1.4992        -167.102         -46.7688        -91.9772         -46.7689        -91.9775       -0.0154318         145.468
0.583                   -1.53615         -167.71         -46.6169         -93.679         -46.6171        -93.6795       -0.0155863         145.394
0.584                   -1.57365        -168.318         -46.4659        -95.3893         -46.4661        -95.3898       -0.0157431          145.32
0.585                    -1.6117        -168.928         -46.3158        -97.1079          -46.316        -97.1085       -0.0159024         145.245
0.586                   -1.65029        -169.538         -46.1666        -98.8348         -46.1668        -98.8354       -0.0160641          145.17
0.587                   -1.68944        -170.149         -46.0184         -100.57         -46.0187        -100.571       -0.0162283         145.096
0.588                   -1.72913        -170.761         -45.8713        -102.313         -45.8715        -102.314        -0.016395          145.02
0.589                   -1.76938        -171.374         -45.7253        -104.065         -45.7255        -104.065       -0.0165643         144.945
0.59                    -1.81017        -171.988         -45.5804        -105.824         -45.5807        -105.825       -0.0167362          144.87
0.591                   -1.85151        -172.603         -45.4367        -107.591         -45.4371        -107.592       -0.0169107         144.794
0.592                    -1.8934        -173.219         -45.2943        -109.366         -45.2947        -109.367       -0.0170879         144.718
0.593                   -1.93584        -173.835         -45.1533        -111.149         -45.1536        -111.149       -0.0172679         144.642
0.594                   -1.97883        -174.453         -45.0135        -112.938         -45.0139        -112.939       -0.0174506         144.566
0.595                   -2.02236        -175.071         -44.8752        -114.735         -44.8757        -114.736       -0.0176362          144.49
0.596                   -2.06645        -175.691         -44.7384        -116.539         -44.7388        -116.539       -0.0178246         144.414
0.597                   -2.11108        -176.311          -44.603        -118.349         -44.6035         -118.35       -0.0180159         144.337
0.598                   -2.15626        -176.933         -44.4692        -120.165         -44.4697        -120.166       -0.0182101          144.26
0.599                   -2.20199        -177.555          -44.337        -121.988         -44.3376        -121.989       -0.0184073         144.183
0.6                     -2.24827        -178.178         -44.2065        -123.816          -44.207        -123.817       -0.0186075         144.106
0.601                    -2.2951        -178.803         -44.0776         -125.65         -44.0781        -125.651       -0.0188108         144.028
0.602                   -2.34248        -179.428         -43.9504        -127.489         -43.9509        -127.489       -0.0190171         143.951
0.603                   -2.39041         179.945         -43.8249        -129.332         -43.8255        -129.333       -0.0192267         143.873
0.604                   -2.43889         179.318         -43.7012         -131.18         -43.7018         -131.18       -0.0194394         143.795
0.605                   -2.48793         178.689         -43.5793        -133.032         -43.5799        -133.032       -0.0196553         143.717
0.606                   -2.53751         178.059         -43.4591        -134.887         -43.4598        -134.887       -0.0198745         143.638
0.607                   -2.58766         177.428         -43.3409        -136.745         -43.3415        -136.745        -0.020097          143.56
0.608                   -2.63836         176.796         -43.2244        -138.606         -43.2251        -138.606       -0.0203229         143.481
0.609                   -2.68961         176.163         -43.1099        -140.469         -43.1105        -140.469       -0.0205521         143.402
0.61                    -2.74143         175.528         -42.9971        -142.334         -42.9978        -142.334       -0.0207848         143.323
0.611                   -2.79381         174.892         -42.8863          -144.2          -42.887          -144.2        -0.021021         143.243
0.612                   -2.84676         174.254         -42.7773        -146.068          -42.778        -146.067       -0.0212606         143.164
0.613                   -2.90027         173.615         -42.6703        -147.935         -42.6709        -147.935       -0.0215038         143.084
0.614                   -2.95436         172.975          -42.565        -149.803         -42.5657        -149.803       -0.0217507         143.004
0.615                   -3.00902         172.333         -42.4616         -151.67         -42.4623         -151.67       -0.0220011         142.923
0.616                   -3.06426          171.69         -42.3601        -153.536         -42.3608        -153.536       -0.0222552         142.843
0.617                   -3.12008         171.044         -42.2604        -155.401          -42.261        -155.401        -0.022513         142.762
0.618                   -3.17649         170.398         -42.1624        -157.264         -42.1631        -157.264       -0.0227746         142.681
0.619                   -3.23349         169.749         -42.0663        -159.125         -42.0669        -159.124       -0.0230399           142.6
0.62                    -3.29109         169.098         -41.9718        -160.983         -41.9725        -160.983       -0.0233091         142.518
0.621                    -3.3493         168.446         -41.8791        -162.839         -41.8797        -162.838       -0.0235821         142.436
0.622                   -3.40811         167.792          -41.788         -164.69         -41.7887        -164.689       -0.0238591         142.354
0.623                   -3.46755         167.135         -41.6986        -166.538         -41.6992        -166.537       -0.0241399         142.272
0.624                   -3.52761         166.477         -41.6107        -168.381         -41.6114         -168.38       -0.0244247          142.19
0.625                   -3.58831         165.816         -41.5244         -170.22         -41.5251        -170.219       -0.0247135         142.107
0.626                   -3.64965         165.153         -41.4396        -172.054         -41.4402        -172.053       -0.0250064         142.024
0.627                   -3.71165         164.487         -41.3562        -173.883         -41.3568        -173.882       -0.0253033         141.941
0.628                   -3.77431         163.819         -41.2742        -175.706         -41.2748        -175.705       -0.0256043         141.857
0.629                   -3.83764         163.148         -41.1935        -177.524         -41.1941        -177.522       -0.0259095         141.774
