! TOUCHSTONE file generated by CST MICROWAVE STUDIO
! Date and time: Sat Oct 24 11:47:31 2020
! Project name: Scenario_1_Circular_Tissue_out_of_Line.cst
! Parameters = {dy1=70.184; L_HA=400; MT=2.54; Rad_Dielectric=30; Rad_Lower=7.3; Rad_Upper=30; a_HA=580; a_WG=246; b_HA=500; b_WG=121; c_HA=0; c_WG=187; d_feed=85; dx1=1039; h_feed=15; h_lower=18; h_upper=40}
! Header version: 2018
! Port assignment regex: !\s*Touchstone port\s*([0-9]+)\s*=\s*(CST MWS port|CST DS port)\s*([0-9]+|Zmin|Zmax)\s*\(\"(.*)\"\)(\s*mode\s*([0-9]+))?.*
! Touchstone port assignment:
! Touchstone port 1 = CST MWS port 1 ("")
! Touchstone port 2 = CST MWS port 2 ("")
# GHz S DB R 50
0.5                    -0.146849        -122.243         -63.2755        -3.13997         -63.2755        -3.13997      -0.00763448         151.128
0.501                  -0.149388        -122.676         -63.1526        -5.27683         -63.1525         -5.2768      -0.00769425         151.063
0.502                  -0.152233        -123.112         -63.0264        -7.42472         -63.0262        -7.42463      -0.00775422         150.998
0.503                  -0.155391        -123.551         -62.8968        -9.58338         -62.8965        -9.58323      -0.00781443         150.932
0.504                   -0.15887        -123.994          -62.764        -11.7526         -62.7636        -11.7524      -0.00787491         150.867
0.505                  -0.162681        -124.441          -62.628        -13.9323         -62.6275         -13.932      -0.00793569         150.802
0.506                   -0.16683        -124.891         -62.4889        -16.1222         -62.4884        -16.1218      -0.00799682         150.736
0.507                  -0.171326        -125.344         -62.3468        -18.3222         -62.3462        -18.3217      -0.00805833          150.67
0.508                  -0.176179        -125.801         -62.2017        -20.5323         -62.2011        -20.5317      -0.00812027         150.605
0.509                  -0.181395        -126.261         -62.0538        -22.7524         -62.0531        -22.7518      -0.00818267         150.539
0.51                   -0.186984        -126.724         -61.9032        -24.9825         -61.9024        -24.9818      -0.00824557         150.473
0.511                  -0.192953        -127.191         -61.7499        -27.2226         -61.7491        -27.2218      -0.00830903         150.407
0.512                  -0.199311         -127.66         -61.5941        -29.4728         -61.5932        -29.4719      -0.00837309         150.341
0.513                  -0.206066        -128.133         -61.4358        -31.7331         -61.4348        -31.7321       -0.0084378         150.275
0.514                  -0.213225        -128.609         -61.2752        -34.0036         -61.2742        -34.0025       -0.0085032         150.208
0.515                  -0.220797        -129.087         -61.1124        -36.2845         -61.1113        -36.2833      -0.00856935         150.142
0.516                  -0.228788        -129.569         -60.9474        -38.5759         -60.9464        -38.5747       -0.0086363         150.076
0.517                  -0.237207        -130.054         -60.7806        -40.8781         -60.7795        -40.8768      -0.00870411         150.009
0.518                   -0.24606        -130.541         -60.6118        -43.1912         -60.6107        -43.1898      -0.00877282         149.942
0.519                  -0.255353        -131.031         -60.4414        -45.5155         -60.4403        -45.5141      -0.00884249         149.876
0.52                   -0.265095        -131.524         -60.2694        -47.8512         -60.2682        -47.8497      -0.00891319         149.809
0.521                   -0.27529        -132.019         -60.0959        -50.1985         -60.0948         -50.197      -0.00898496         149.742
0.522                  -0.285944        -132.516         -59.9212        -52.5579           -59.92        -52.5563      -0.00905786         149.675
0.523                  -0.297064        -133.016         -59.7453        -54.9294          -59.744        -54.9279      -0.00913196         149.608
0.524                  -0.308653        -133.519         -59.5683        -57.3136         -59.5671         -57.312      -0.00920731         149.541
0.525                  -0.320717        -134.024         -59.3905        -59.7105         -59.3893         -59.709      -0.00928397         149.474
0.526                  -0.333259         -134.53          -59.212        -62.1206         -59.2108        -62.1191      -0.00936199         149.406
0.527                  -0.346283        -135.039         -59.0329        -64.5441         -59.0317        -64.5426      -0.00944144         149.339
0.528                  -0.359791         -135.55         -58.8534        -66.9812         -58.8522        -66.9798      -0.00952237         149.271
0.529                  -0.373786        -136.063         -58.6737        -69.4324         -58.6725         -69.431      -0.00960483         149.204
0.53                   -0.388269        -136.577         -58.4939        -71.8977         -58.4927        -71.8964      -0.00968888         149.136
0.531                   -0.40324        -137.093         -58.3141        -74.3774          -58.313        -74.3762      -0.00977456         149.068
0.532                    -0.4187        -137.611         -58.1347        -76.8718         -58.1335        -76.8706      -0.00986194             149
0.533                  -0.434645         -138.13         -57.9556        -79.3809         -57.9545        -79.3798      -0.00995104         148.932
0.534                  -0.451076         -138.65         -57.7771         -81.905          -57.776        -81.9039       -0.0100419         148.864
0.535                  -0.467988        -139.172         -57.5994         -84.444         -57.5983        -84.4431       -0.0101346         148.796
0.536                  -0.485376        -139.695         -57.4226        -86.9981         -57.4215        -86.9972       -0.0102292         148.728
0.537                  -0.503235        -140.219         -57.2468        -89.5672         -57.2459        -89.5664       -0.0103256         148.659
0.538                  -0.521558        -140.744         -57.0724        -92.1512         -57.0714        -92.1505        -0.010424         148.591
0.539                  -0.540336        -141.269         -56.8994        -94.7501         -56.8985        -94.7495       -0.0105242         148.522
0.54                    -0.55956        -141.795          -56.728        -97.3636         -56.7271        -97.3631       -0.0106264         148.453
0.541                  -0.579218        -142.322         -56.5583        -99.9916         -56.5575        -99.9912       -0.0107306         148.384
0.542                  -0.599296         -142.85         -56.3906        -102.634         -56.3898        -102.633       -0.0108368         148.316
0.543                   -0.61978        -143.377         -56.2249        -105.289         -56.2242        -105.289       -0.0109449         148.247
0.544                  -0.640653        -143.905         -56.0615        -107.959         -56.0608        -107.958        -0.011055         148.177
0.545                  -0.661896        -144.433         -55.9004         -110.64         -55.8998         -110.64        -0.011167         148.108
0.546                  -0.683489        -144.962         -55.7419        -113.335         -55.7413        -113.335       -0.0112809         148.039
0.547                   -0.70541         -145.49          -55.586         -116.04         -55.5855         -116.04       -0.0113968         147.969
0.548                  -0.727633        -146.018         -55.4329        -118.757         -55.4324        -118.757       -0.0115145           147.9
0.549                  -0.750131        -146.546         -55.2827        -121.483         -55.2822        -121.483        -0.011634          147.83
0.55                   -0.772877        -147.074         -55.1354        -124.219          -55.135        -124.219       -0.0117553          147.76
0.551                  -0.795839        -147.602         -54.9912        -126.963         -54.9909        -126.963       -0.0118784         147.691
0.552                  -0.818985         -148.13         -54.8502        -129.715         -54.8499        -129.715       -0.0120031         147.621
0.553                  -0.842279        -148.657         -54.7124        -132.472         -54.7121        -132.473       -0.0121294          147.55
0.554                  -0.865686        -149.184         -54.5778        -135.236         -54.5776        -135.236       -0.0122573          147.48
0.555                  -0.889168        -149.712         -54.4466        -138.003         -54.4464        -138.003       -0.0123867          147.41
0.556                  -0.912687        -150.239         -54.3186        -140.774         -54.3185        -140.774       -0.0125175          147.34
0.557                  -0.936201        -150.766          -54.194        -143.547         -54.1939        -143.547       -0.0126497         147.269
0.558                  -0.959672        -151.294         -54.0727         -146.32         -54.0727         -146.32       -0.0127831         147.198
0.559                  -0.983059        -151.822         -53.9547        -149.094         -53.9547        -149.094       -0.0129177         147.128
0.56                    -1.00632        -152.351         -53.8399        -151.866           -53.84        -151.866       -0.0130534         147.057
0.561                   -1.02943        -152.881         -53.7284        -154.636         -53.7285        -154.636       -0.0131901         146.986
0.562                   -1.05233        -153.412           -53.62        -157.403           -53.62        -157.403       -0.0133279         146.915
0.563                   -1.07501        -153.945         -53.5146        -160.165         -53.5147        -160.165       -0.0134665         146.843
0.564                   -1.09743         -154.48         -53.4121        -162.922         -53.4123        -162.921        -0.013606         146.772
0.565                   -1.11956        -155.017         -53.3125        -165.672         -53.3127        -165.671       -0.0137463         146.701
0.566                    -1.1414        -155.557         -53.2157        -168.415         -53.2158        -168.414       -0.0138873         146.629
0.567                   -1.16293        -156.101         -53.1214         -171.15         -53.1215        -171.149        -0.014029         146.557
0.568                   -1.18415        -156.649         -53.0295        -173.876         -53.0297        -173.875       -0.0141713         146.485
0.569                   -1.20507        -157.201           -52.94        -176.592         -52.9402        -176.591       -0.0143143         146.413
0.57                     -1.2257        -157.758         -52.8526        -179.297         -52.8527        -179.296       -0.0144578         146.341
0.571                   -1.24608        -158.322         -52.7671         178.008         -52.7673         178.009        -0.014602         146.269
0.572                   -1.26625        -158.891         -52.6835         175.324         -52.6836         175.326       -0.0147467         146.197
0.573                   -1.28625        -159.468         -52.6014         172.653         -52.6016         172.654        -0.014892         146.124
0.574                   -1.30617        -160.052         -52.5209         169.993          -52.521         169.995       -0.0150379         146.051
0.575                   -1.32607        -160.644         -52.4415         167.346         -52.4417         167.348       -0.0151844         145.978
0.576                   -1.34604        -161.244         -52.3633         164.712         -52.3634         164.714       -0.0153316         145.905
0.577                   -1.36619        -161.854          -52.286          162.09          -52.286         162.092       -0.0154794         145.832
0.578                   -1.38663        -162.473         -52.2093         159.482         -52.2094         159.483        -0.015628         145.759
0.579                   -1.40748        -163.101         -52.1332         156.886         -52.1332         156.888       -0.0157774         145.686
0.58                    -1.42887        -163.739         -52.0574         154.303         -52.0574         154.305       -0.0159277         145.612
0.581                   -1.45091        -164.387         -51.9817         151.732         -51.9817         151.734        -0.016079         145.538
0.582                   -1.47376        -165.045          -51.906         149.174          -51.906         149.176       -0.0162312         145.464
0.583                   -1.49752        -165.712         -51.8301         146.628         -51.8301         146.629       -0.0163846          145.39
0.584                   -1.52234        -166.389         -51.7539         144.093         -51.7537         144.095       -0.0165392         145.316
0.585                   -1.54834        -167.075          -51.677         141.569         -51.6769         141.571       -0.0166951         145.242
0.586                   -1.57563        -167.769         -51.5995         139.056         -51.5993         139.058       -0.0168524         145.167
0.587                   -1.60431        -168.471          -51.521         136.553         -51.5208         136.555       -0.0170112         145.093
0.588                   -1.63448        -169.181         -51.4415          134.06         -51.4413         134.061       -0.0171716         145.018
0.589                   -1.66623        -169.897         -51.3608         131.574         -51.3606         131.575       -0.0173338         144.943
0.59                    -1.69961         -170.62         -51.2788         129.097         -51.2785         129.098       -0.0174978         144.867
0.591                   -1.73469        -171.348         -51.1953         126.626          -51.195         126.627       -0.0176637         144.792
0.592                   -1.77151        -172.081         -51.1102         124.162         -51.1099         124.162       -0.0178316         144.716
0.593                   -1.81009        -172.817         -51.0234         121.701          -51.023         121.702       -0.0180017         144.641
0.594                   -1.85046        -173.557         -50.9347         119.245         -50.9344         119.245       -0.0181741         144.565
0.595                   -1.89261        -174.299         -50.8441         116.791         -50.8437         116.791       -0.0183488         144.488
0.596                   -1.93653        -175.043         -50.7514         114.338         -50.7511         114.338       -0.0185259         144.412
0.597                   -1.98221        -175.788         -50.6567         111.884         -50.6563         111.884       -0.0187056         144.336
0.598                   -2.02962        -176.534         -50.5597         109.429         -50.5594         109.428        -0.018888         144.259
0.599                   -2.07872        -177.279         -50.4606          106.97         -50.4603         106.969        -0.019073         144.182
0.6                     -2.12948        -178.024         -50.3593         104.505          -50.359         104.505       -0.0192609         144.105
0.601                   -2.18184        -178.768         -50.2557         102.033         -50.2555         102.033       -0.0194517         144.028
0.602                   -2.23577         -179.51           -50.15         99.5525         -50.1499         99.5519       -0.0196454          143.95
0.603                    -2.2912         179.749         -50.0422         97.0603         -50.0421         97.0598       -0.0198422         143.872
0.604                   -2.34807         179.011         -49.9324         94.5546         -49.9324         94.5543        -0.020042         143.795
0.605                   -2.40635         178.275         -49.8208         92.0334         -49.8208         92.0334       -0.0202451         143.717
0.606                   -2.46596         177.542         -49.7075         89.4943         -49.7076         89.4947       -0.0204513         143.638
0.607                   -2.52686         176.812         -49.5929         86.9352          -49.593         86.9361       -0.0206608          143.56
0.608                   -2.58899         176.084         -49.4773          84.354         -49.4775         84.3556       -0.0208737         143.481
0.609                   -2.65229          175.36          -49.361         81.7486         -49.3612         81.7509         -0.02109         143.402
0.61                    -2.71672         174.639         -49.2445         79.1172         -49.2447         79.1204       -0.0213096         143.323
0.611                   -2.78223         173.921         -49.1283         76.4583         -49.1286         76.4626       -0.0215328         143.244
0.612                   -2.84876         173.206         -49.0131         73.7708         -49.0134         73.7763       -0.0217594         143.164
0.613                   -2.91628         172.494         -48.8995         71.0542         -48.8997         71.0608       -0.0219896         143.084
0.614                   -2.98475         171.786         -48.7882         68.3084         -48.7884         68.3164       -0.0222234         143.004
0.615                   -3.05412         171.081           -48.68         65.5343         -48.6801         65.5437       -0.0224608         142.924
0.616                   -3.12436         170.378         -48.5756         62.7337         -48.5756         62.7446       -0.0227018         142.844
0.617                   -3.19544         169.679         -48.4759         59.9093         -48.4757         59.9216       -0.0229466         142.763
0.618                   -3.26732         168.983         -48.3815         57.0649         -48.3811         57.0784        -0.023195         142.682
0.619                   -3.33997         168.289         -48.2932         54.2052         -48.2925         54.2197       -0.0234473         142.601
0.62                    -3.41338         167.598         -48.2114         51.3358         -48.2105         51.3512       -0.0237033          142.52
0.621                   -3.48751         166.909         -48.1367         48.4635         -48.1354         48.4794       -0.0239631         142.438
0.622                   -3.56235         166.223         -48.0691         45.5952         -48.0675         45.6113       -0.0242268         142.356
0.623                   -3.63788         165.538         -48.0087         42.7385         -48.0067         42.7544       -0.0244943         142.274
0.624                   -3.71407         164.856         -47.9553         39.9007          -47.953          39.916       -0.0247658         142.192
0.625                   -3.79093         164.176         -47.9085          37.089         -47.9058         37.1033       -0.0250413         142.109
0.626                   -3.86843         163.497         -47.8676         34.3099         -47.8646         34.3228       -0.0253208         142.026
0.627                   -3.94656          162.82         -47.8318         31.5688         -47.8286           31.58       -0.0256043         141.943
0.628                   -4.02532         162.145         -47.8003         28.8701         -47.7968         28.8792        -0.025892         141.859
0.629                   -4.10471          161.47         -47.7719         26.2167         -47.7682         26.2237       -0.0261838         141.776
