! TOUCHSTONE file generated by CST MICROWAVE STUDIO
! Date and time: Mon Oct 26 12:08:25 2020
! Project name: Scenario_1_Circular_Tissue_out_of_Line_v2.cst
! Parameters = {dy1=86.5; L_HA=400; MT=2.54; Rad_Dielectric=30; Rad_Lower=7.3; Rad_Upper=30; a_HA=580; a_WG=246; b_HA=500; b_WG=121; c_HA=0; c_WG=187; d_feed=85; dx1=173; h_feed=15; h_lower=18; h_upper=40}
! Header version: 2018
! Port assignment regex: !\s*Touchstone port\s*([0-9]+)\s*=\s*(CST MWS port|CST DS port)\s*([0-9]+|Zmin|Zmax)\s*\(\"(.*)\"\)(\s*mode\s*([0-9]+))?.*
! Touchstone port assignment:
! Touchstone port 1 = CST MWS port 1 ("")
! Touchstone port 2 = CST MWS port 2 ("")
# GHz S DB R 50
0.5                    -0.107949         -122.51         -57.3031         128.871         -57.3031         128.871      -0.00702396         151.143
0.501                  -0.112396         -122.96         -57.1049         127.963         -57.1048         127.963       -0.0070749         151.078
0.502                   -0.11705        -123.413         -56.9052         127.042         -56.9051         127.042       -0.0071263         151.012
0.503                  -0.121921         -123.87         -56.7041         126.107          -56.704         126.107      -0.00717819         150.947
0.504                  -0.127023        -124.329         -56.5017         125.158         -56.5015         125.158      -0.00723058         150.881
0.505                  -0.132368        -124.791         -56.2978         124.194         -56.2976         124.194      -0.00728348         150.816
0.506                  -0.137969        -125.256         -56.0926         123.216         -56.0923         123.216      -0.00733692          150.75
0.507                  -0.143842        -125.725         -55.8861         122.223         -55.8858         122.222      -0.00739093         150.684
0.508                  -0.150002        -126.196         -55.6784         121.214          -55.678         121.214      -0.00744553         150.619
0.509                  -0.156463        -126.671         -55.4694         120.189          -55.469         120.189      -0.00750076         150.553
0.51                   -0.163242        -127.149         -55.2592         119.148         -55.2588         119.148      -0.00755665         150.487
0.511                  -0.170356         -127.63         -55.0478          118.09         -55.0474          118.09      -0.00761323         150.421
0.512                  -0.177824        -128.115         -54.8354         117.015         -54.8349         117.015      -0.00767056         150.354
0.513                  -0.185663        -128.602         -54.6219         115.923         -54.6214         115.922      -0.00772867         150.288
0.514                  -0.193893        -129.093         -54.4074         114.812         -54.4069         114.812      -0.00778763         150.222
0.515                  -0.202534        -129.587          -54.192         113.683         -54.1915         113.683      -0.00784749         150.155
0.516                  -0.211606        -130.084         -53.9757         112.536         -53.9751         112.536      -0.00790832         150.089
0.517                   -0.22113        -130.584         -53.7585         111.369          -53.758         111.369      -0.00797017         150.022
0.518                  -0.231129        -131.087         -53.5406         110.183         -53.5401         110.183      -0.00803314         149.955
0.519                  -0.241624        -131.593         -53.3221         108.977         -53.3215         108.977      -0.00809729         149.889
0.52                   -0.252639        -132.103         -53.1029          107.75         -53.1024          107.75      -0.00816272         149.822
0.521                  -0.264196        -132.615         -52.8833         106.502         -52.8827         106.502      -0.00822951         149.755
0.522                  -0.276319         -133.13         -52.6632         105.234         -52.6626         105.234      -0.00829777         149.688
0.523                  -0.289032        -133.648         -52.4428         103.943         -52.4422         103.944       -0.0083676          149.62
0.524                  -0.302359        -134.169         -52.2221         102.631         -52.2215         102.631      -0.00843912         149.553
0.525                  -0.316324        -134.692         -52.0013         101.297         -52.0007         101.297      -0.00851244         149.486
0.526                  -0.330949        -135.218         -51.7805         99.9395         -51.7799         99.9396      -0.00858768         149.418
0.527                  -0.346259        -135.746         -51.5598         98.5593         -51.5593         98.5594      -0.00866498         149.351
0.528                  -0.362275        -136.276         -51.3393         97.1558         -51.3388          97.156      -0.00874446         149.283
0.529                   -0.37902        -136.808         -51.1192         95.7288         -51.1186          95.729      -0.00882626         149.215
0.53                   -0.396512        -137.342         -50.8996          94.278          -50.899         94.2783      -0.00891052         149.147
0.531                  -0.414773        -137.877         -50.6805         92.8033           -50.68         92.8035      -0.00899739         149.079
0.532                  -0.433818        -138.414         -50.4622         91.3044         -50.4617         91.3047      -0.00908701         149.011
0.533                  -0.453663        -138.951         -50.2449         89.7812         -50.2443         89.7815      -0.00917951         148.943
0.534                  -0.474321         -139.49         -50.0285         88.2338          -50.028         88.2341      -0.00927504         148.875
0.535                  -0.495801        -140.029         -49.8135          86.662         -49.8129         86.6623      -0.00937373         148.806
0.536                  -0.518111        -140.568         -49.5998         85.0659         -49.5992         85.0662      -0.00947572         148.738
0.537                  -0.541255        -141.108         -49.3876         83.4455         -49.3871         83.4459      -0.00958113         148.669
0.538                   -0.56523        -141.646         -49.1772         81.8012         -49.1767         81.8016      -0.00969007         148.601
0.539                  -0.590033        -142.184         -48.9686         80.1331         -48.9682         80.1334      -0.00980265         148.532
0.54                   -0.615654        -142.721         -48.7622         78.4415         -48.7617         78.4418      -0.00991896         148.463
0.541                  -0.642078        -143.257          -48.558         76.7267         -48.5575         76.7271       -0.0100391         148.394
0.542                  -0.669285        -143.791         -48.3562         74.9894         -48.3557         74.9897        -0.010163         148.325
0.543                   -0.69725        -144.323          -48.157         73.2299         -48.1565         73.2303       -0.0102909         148.255
0.544                  -0.725942        -144.852         -47.9605          71.449         -47.9601         71.4494       -0.0104227         148.186
0.545                  -0.755323        -145.378          -47.767         69.6474         -47.7667         69.6477       -0.0105585         148.117
0.546                   -0.78535        -145.901         -47.5767         67.8258         -47.5763         67.8261       -0.0106981         148.047
0.547                  -0.815975        -146.421         -47.3895         65.9852         -47.3892         65.9855       -0.0108416         147.978
0.548                  -0.847141        -146.937         -47.2058         64.1265         -47.2055         64.1268       -0.0109889         147.908
0.549                  -0.878789        -147.449         -47.0257         62.2508         -47.0254         62.2511         -0.01114         147.838
0.55                   -0.910854        -147.957         -46.8493         60.3592          -46.849         60.3594       -0.0112946         147.768
0.551                  -0.943263        -148.461         -46.6766         58.4529         -46.6764         58.4531       -0.0114528         147.698
0.552                  -0.975944         -148.96          -46.508         56.5332         -46.5077         56.5334       -0.0116143         147.628
0.553                   -1.00882        -149.455         -46.3433         54.6014         -46.3431         54.6016       -0.0117791         147.558
0.554                    -1.0418        -149.944         -46.1828         52.6589         -46.1826         52.6591       -0.0119468         147.487
0.555                   -1.07481         -150.43         -46.0264         50.7071         -46.0262         50.7073       -0.0121174         147.417
0.556                   -1.10777         -150.91         -45.8743         48.7476         -45.8742         48.7478       -0.0122907         147.346
0.557                   -1.14059        -151.387         -45.7265         46.7817         -45.7264         46.7819       -0.0124664         147.276
0.558                   -1.17319        -151.859          -45.583          44.811         -45.5829         44.8112       -0.0126443         147.205
0.559                   -1.20548        -152.327         -45.4438          42.837         -45.4437         42.8372       -0.0128244         147.134
0.56                    -1.23739        -152.791         -45.3088         40.8612         -45.3088         40.8614       -0.0130062         147.063
0.561                   -1.26885        -153.252         -45.1782         38.8851         -45.1781         38.8854       -0.0131898         146.992
0.562                   -1.29979         -153.71         -45.0518         36.9102         -45.0517         36.9105       -0.0133748         146.921
0.563                   -1.33013        -154.166         -44.9295         34.9379         -44.9295         34.9381        -0.013561          146.85
0.564                   -1.35984        -154.619         -44.8113         32.9695         -44.8113         32.9698       -0.0137484         146.779
0.565                   -1.38885        -155.071         -44.6971         31.0065         -44.6972         31.0068       -0.0139367         146.707
0.566                   -1.41713        -155.523         -44.5868           29.05         -44.5869         29.0504       -0.0141257         146.636
0.567                   -1.44463        -155.973         -44.4803         27.1013         -44.4804         27.1017       -0.0143154         146.564
0.568                   -1.47134        -156.424         -44.3775         25.1615         -44.3776          25.162       -0.0145057         146.492
0.569                   -1.49724        -156.876         -44.2781         23.2317         -44.2783         23.2322       -0.0146963          146.42
0.57                    -1.52231        -157.329         -44.1822         21.3128         -44.1823         21.3133       -0.0148872         146.348
0.571                   -1.54655        -157.785         -44.0895         19.4057         -44.0896         19.4062       -0.0150783         146.276
0.572                   -1.56998        -158.242         -43.9998         17.5112              -44         17.5118       -0.0152695         146.204
0.573                   -1.59259        -158.703          -43.913           15.63         -43.9132         15.6307       -0.0154609         146.131
0.574                   -1.61442        -159.168          -43.829         13.7628         -43.8292         13.7635       -0.0156522         146.059
0.575                   -1.63549        -159.637         -43.7476           11.91         -43.7478         11.9107       -0.0158436         145.986
0.576                   -1.65582        -160.111         -43.6686         10.0721         -43.6688          10.073        -0.016035         145.913
0.577                   -1.67546        -160.591         -43.5918          8.2496          -43.592         8.25046       -0.0162263          145.84
0.578                   -1.69445        -161.076         -43.5171         6.44265         -43.5174         6.44356       -0.0164175         145.767
0.579                   -1.71284        -161.567         -43.4443         4.65151         -43.4446         4.65247       -0.0166088         145.694
0.58                    -1.73067        -162.065         -43.3733         2.87633         -43.3736         2.87733          -0.0168          145.62
0.581                   -1.74799         -162.57         -43.3039         1.11718         -43.3041         1.11823       -0.0169913         145.547
0.582                   -1.76487        -163.083         -43.2359       -0.625912         -43.2362       -0.624814       -0.0171826         145.473
0.583                   -1.78135        -163.603         -43.1692        -2.35299         -43.1695        -2.35185        -0.017374         145.399
0.584                    -1.7975        -164.132         -43.1036        -4.06416         -43.1039        -4.06298       -0.0175655         145.325
0.585                   -1.81337        -164.668         -43.0391        -5.75957         -43.0394        -5.75835       -0.0177572         145.251
0.586                   -1.82902        -165.214         -42.9754         -7.4394         -42.9757        -7.43814       -0.0179492         145.177
0.587                   -1.84452        -165.768         -42.9125        -9.10389         -42.9128         -9.1026       -0.0181414         145.102
0.588                   -1.85992        -166.331         -42.8502        -10.7533         -42.8505         -10.752        -0.018334         145.028
0.589                   -1.87528        -166.903         -42.7884         -12.388         -42.7887        -12.3866        -0.018527         144.953
0.59                    -1.89066        -167.485          -42.727        -14.0082         -42.7273        -14.0068       -0.0187206         144.878
0.591                   -1.90613        -168.076         -42.6659        -15.6143         -42.6661         -15.613       -0.0189146         144.803
0.592                   -1.92174        -168.677          -42.605        -17.2068         -42.6052        -17.2054       -0.0191094         144.727
0.593                   -1.93754        -169.288         -42.5441         -18.786         -42.5444        -18.7846       -0.0193048         144.652
0.594                    -1.9536        -169.908         -42.4833        -20.3523         -42.4836        -20.3509        -0.019501         144.576
0.595                   -1.96997        -170.538         -42.4225        -21.9062         -42.4227        -21.9048       -0.0196981           144.5
0.596                    -1.9867        -171.178         -42.3615        -23.4481         -42.3617        -23.4467       -0.0198962         144.424
0.597                   -2.00386        -171.828         -42.3002        -24.9784         -42.3004         -24.977       -0.0200953         144.348
0.598                   -2.02149        -172.489         -42.2387        -26.4977         -42.2389        -26.4963       -0.0202955         144.272
0.599                   -2.03964        -173.159         -42.1769        -28.0064         -42.1771         -28.005       -0.0204969         144.195
0.6                     -2.05838         -173.84         -42.1146        -29.5049         -42.1148        -29.5036       -0.0206996         144.118
0.601                   -2.07776         -174.53          -42.052        -30.9938         -42.0521        -30.9925       -0.0209036         144.041
0.602                   -2.09782        -175.231         -41.9888        -32.4735          -41.989        -32.4721       -0.0211092         143.964
0.603                   -2.11861        -175.943         -41.9251        -33.9444         -41.9252        -33.9431       -0.0213163         143.887
0.604                    -2.1402        -176.664         -41.8608        -35.4071          -41.861        -35.4058        -0.021525         143.809
0.605                   -2.16262        -177.396         -41.7959         -36.862         -41.7961        -36.8608       -0.0217355         143.731
0.606                   -2.18594        -178.139         -41.7304        -38.3096         -41.7306        -38.3084       -0.0219478         143.653
0.607                   -2.21021        -178.891         -41.6642        -39.7504         -41.6644        -39.7492       -0.0221621         143.575
0.608                   -2.23546        -179.655         -41.5974        -41.1847         -41.5975        -41.1836       -0.0223783         143.497
0.609                   -2.26177         179.572         -41.5299        -42.6131           -41.53         -42.612       -0.0225967         143.418
0.61                    -2.28918         178.788         -41.4616         -44.036         -41.4617        -44.0349       -0.0228173         143.339
0.611                   -2.31774         177.994         -41.3926        -45.4538         -41.3927        -45.4528       -0.0230402          143.26
0.612                   -2.34752         177.189         -41.3229        -46.8669          -41.323         -46.866       -0.0232656         143.181
0.613                   -2.37855         176.373         -41.2524        -48.2759         -41.2525         -48.275       -0.0234934         143.101
0.614                   -2.41091         175.548         -41.1812        -49.6811         -41.1812        -49.6803       -0.0237238         143.022
0.615                   -2.44465         174.711         -41.1092        -51.0829         -41.1093        -51.0821        -0.023957         142.942
0.616                   -2.47982         173.865         -41.0365        -52.4817         -41.0365         -52.481        -0.024193         142.862
0.617                   -2.51649         173.007          -40.963        -53.8779          -40.963        -53.8773        -0.024432         142.781
0.618                   -2.55472          172.14         -40.8888        -55.2719         -40.8888        -55.2714        -0.024674           142.7
0.619                   -2.59457         171.261         -40.8138        -56.6641         -40.8139        -56.6636       -0.0249191          142.62
0.62                    -2.63611         170.372         -40.7382        -58.0549         -40.7382        -58.0544       -0.0251675         142.538
0.621                    -2.6794         169.473         -40.6618        -59.4445         -40.6618        -59.4441       -0.0254194         142.457
0.622                   -2.72451         168.564         -40.5847        -60.8334         -40.5847        -60.8331       -0.0256747         142.375
0.623                   -2.77151         167.643          -40.507         -62.222          -40.507        -62.2217       -0.0259336         142.293
0.624                   -2.82047         166.713         -40.4286        -63.6104         -40.4286        -63.6102       -0.0261962         142.211
0.625                   -2.87147         165.772         -40.3495        -64.9991         -40.3495         -64.999       -0.0264627         142.129
0.626                   -2.92459         164.821         -40.2699        -66.3884         -40.2699        -66.3883       -0.0267332         142.046
0.627                    -2.9799         163.859         -40.1896        -67.7785         -40.1896        -67.7785       -0.0270078         141.963
0.628                   -3.03749         162.888         -40.1088        -69.1698         -40.1088        -69.1698       -0.0272867          141.88
0.629                   -3.09744         161.906         -40.0274        -70.5626         -40.0274        -70.5626       -0.0275698         141.796
