! TOUCHSTONE file generated by CST MICROWAVE STUDIO
! Date and time: Wed Oct 28 19:38:24 2020
! Project name: Scenario_1_Circular_Tissue_out_of_Line_v2.cst
! Parameters = {dy1=86.5; L_HA=400; MT=2.54; Rad_Dielectric=30; Rad_Lower=7.3; Rad_Upper=30; a_HA=580; a_WG=246; b_HA=500; b_WG=121; c_HA=0; c_WG=187; d_feed=85; dx1=346; h_feed=15; h_lower=18; h_upper=40}
! Header version: 2018
! Port assignment regex: !\s*Touchstone port\s*([0-9]+)\s*=\s*(CST MWS port|CST DS port)\s*([0-9]+|Zmin|Zmax)\s*\(\"(.*)\"\)(\s*mode\s*([0-9]+))?.*
! Touchstone port assignment:
! Touchstone port 1 = CST MWS port 1 ("")
! Touchstone port 2 = CST MWS port 2 ("")
# GHz S DB R 50
0.5                    -0.174075        -122.305         -58.3892         28.9999         -58.3892         28.9999      -0.00788365         151.135
0.501                  -0.179516        -122.729         -58.2838         27.5075         -58.2836         27.5093      -0.00795104          151.07
0.502                  -0.184997        -123.154         -58.1771         26.0181         -58.1767         26.0216      -0.00801867         151.004
0.503                  -0.190523        -123.582          -58.069         24.5316         -58.0685         24.5368      -0.00808655         150.939
0.504                  -0.196095        -124.012         -57.9597         23.0481         -57.9589         23.0549       -0.0081547         150.874
0.505                  -0.201718        -124.445          -57.849         21.5676         -57.8481         21.5758      -0.00822312         150.808
0.506                  -0.207396        -124.879         -57.7371           20.09         -57.7361         20.0996      -0.00829181         150.743
0.507                  -0.213131        -125.316         -57.6239         18.6153         -57.6228         18.6261       -0.0083608         150.677
0.508                  -0.218928        -125.756         -57.5095         17.1435         -57.5082         17.1554      -0.00843009         150.612
0.509                   -0.22479        -126.197         -57.3939         15.6744         -57.3926         15.6874      -0.00849968         150.546
0.51                   -0.230723        -126.642         -57.2772          14.208         -57.2757         14.2221      -0.00856959          150.48
0.511                   -0.23673        -127.088         -57.1593         12.7443         -57.1577         12.7593      -0.00863983         150.414
0.512                  -0.242816        -127.538         -57.0403         11.2832         -57.0386          11.299       -0.0087104         150.348
0.513                  -0.248987         -127.99         -56.9201         9.82458         -56.9184         9.84115      -0.00878132         150.282
0.514                  -0.255246        -128.445         -56.7989         8.36835         -56.7971          8.3856       -0.0088526         150.216
0.515                  -0.261601        -128.902         -56.6766         6.91442         -56.6747         6.93228      -0.00892425          150.15
0.516                  -0.268056        -129.362         -56.5533         5.46269         -56.5513         5.48109      -0.00899628         150.083
0.517                  -0.274618        -129.825         -56.4289         4.01305         -56.4269          4.0319      -0.00906869         150.017
0.518                  -0.281292        -130.291         -56.3035         2.56537         -56.3015         2.58462      -0.00914151         149.951
0.519                  -0.288085         -130.76         -56.1771         1.11954         -56.1751         1.13912      -0.00921473         149.884
0.52                   -0.295005        -131.231         -56.0498       -0.324578         -56.0477       -0.304723      -0.00928838         149.817
0.521                  -0.302057        -131.706         -55.9215        -1.76711         -55.9194        -1.74705      -0.00936246         149.751
0.522                  -0.309251        -132.184         -55.7922        -3.20821         -55.7901          -3.188      -0.00943699         149.684
0.523                  -0.316592        -132.665         -55.6621        -4.64801         -55.6599         -4.6277      -0.00951197         149.617
0.524                   -0.32409        -133.149          -55.531        -6.08666         -55.5288        -6.06632      -0.00958743          149.55
0.525                  -0.331753        -133.636          -55.399        -7.52433         -55.3969        -7.50399      -0.00966336         149.483
0.526                  -0.339591        -134.126         -55.2662        -8.96117          -55.264        -8.94089      -0.00973979         149.416
0.527                  -0.347611         -134.62         -55.1325        -10.3973         -55.1303        -10.3772      -0.00981672         149.348
0.528                  -0.355824        -135.117          -54.998         -11.833         -54.9958         -11.813      -0.00989418         149.281
0.529                   -0.36424        -135.618         -54.8626        -13.2684         -54.8605        -13.2485      -0.00997217         149.213
0.53                   -0.372869        -136.122         -54.7264        -14.7036         -54.7243         -14.684       -0.0100507         149.146
0.531                  -0.381723        -136.629         -54.5894        -16.1388         -54.5873        -16.1195       -0.0101298         149.078
0.532                  -0.390813         -137.14         -54.4517        -17.5743         -54.4496        -17.5553       -0.0102095          149.01
0.533                  -0.400151        -137.655         -54.3131        -19.0102          -54.311        -18.9915       -0.0102897         148.942
0.534                  -0.409749        -138.173         -54.1738        -20.4467         -54.1718        -20.4283       -0.0103706         148.875
0.535                  -0.419619        -138.695         -54.0338         -21.884         -54.0317         -21.866       -0.0104521         148.806
0.536                  -0.429777         -139.22          -53.893        -23.3223          -53.891        -23.3047       -0.0105342         148.738
0.537                  -0.440234         -139.75         -53.7515        -24.7618         -53.7495        -24.7446       -0.0106169          148.67
0.538                  -0.451007        -140.283         -53.6093        -26.2027         -53.6074         -26.186       -0.0107004         148.602
0.539                  -0.462109         -140.82         -53.4664        -27.6452         -53.4645        -27.6289       -0.0107845         148.533
0.54                   -0.473557        -141.361         -53.3228        -29.0896          -53.321        -29.0738       -0.0108693         148.465
0.541                  -0.485367        -141.906         -53.1786        -30.5359         -53.1768        -30.5207       -0.0109549         148.396
0.542                  -0.497556        -142.455         -53.0338        -31.9846          -53.032        -31.9698       -0.0110411         148.327
0.543                   -0.51014        -143.008         -52.8883        -33.4357         -52.8865        -33.4215       -0.0111282         148.258
0.544                  -0.523139        -143.565         -52.7422        -34.8896         -52.7405        -34.8758        -0.011216         148.189
0.545                  -0.536571        -144.126         -52.5955        -36.3464         -52.5938        -36.3331       -0.0113046          148.12
0.546                  -0.550455        -144.691         -52.4482        -37.8063         -52.4466        -37.7936        -0.011394         148.051
0.547                  -0.564811         -145.26         -52.3003        -39.2696         -52.2988        -39.2574       -0.0114843         147.981
0.548                  -0.579659        -145.833         -52.1519        -40.7365         -52.1504        -40.7249       -0.0115754         147.912
0.549                  -0.595022        -146.411          -52.003        -42.2072         -52.0016        -42.1962       -0.0116674         147.842
0.55                   -0.610921        -146.992         -51.8535        -43.6821         -51.8522        -43.6715       -0.0117603         147.773
0.551                  -0.627378        -147.578         -51.7036        -45.1612         -51.7023        -45.1512       -0.0118542         147.703
0.552                  -0.644416        -148.168         -51.5532        -46.6449          -51.552        -46.6354        -0.011949         147.633
0.553                   -0.66206        -148.762         -51.4024        -48.1334         -51.4012        -48.1244       -0.0120448         147.563
0.554                  -0.680334         -149.36         -51.2511        -49.6268           -51.25        -49.6184       -0.0121416         147.493
0.555                  -0.699263        -149.962         -51.0994        -51.1256         -51.0983        -51.1176       -0.0122395         147.422
0.556                  -0.718872        -150.568         -50.9474        -52.6297         -50.9463        -52.6223       -0.0123384         147.352
0.557                  -0.739188        -151.179          -50.795        -54.1397          -50.794        -54.1327       -0.0124385         147.281
0.558                  -0.760237        -151.793         -50.6423        -55.6555         -50.6413         -55.649       -0.0125397         147.211
0.559                  -0.782045        -152.411         -50.4892        -57.1776         -50.4883        -57.1715        -0.012642          147.14
0.56                   -0.804641        -153.033         -50.3359         -58.706         -50.3351        -58.7004       -0.0127456         147.069
0.561                  -0.828053        -153.659         -50.1824        -60.2411         -50.1816        -60.2359       -0.0128504         146.998
0.562                  -0.852307        -154.289         -50.0287         -61.783         -50.0279        -61.7782       -0.0129566         146.927
0.563                  -0.877432        -154.922         -49.8747         -63.332         -49.8741        -63.3276        -0.013064         146.856
0.564                  -0.903457        -155.558         -49.7207        -64.8883         -49.7201        -64.8842       -0.0131729         146.784
0.565                   -0.93041        -156.198         -49.5665         -66.452          -49.566        -66.4483       -0.0132831         146.713
0.566                  -0.958319        -156.842         -49.4123        -68.0235         -49.4118        -68.0202       -0.0133948         146.641
0.567                  -0.987212        -157.488         -49.2581        -69.6028         -49.2577        -69.5998       -0.0135081         146.569
0.568                   -1.01712        -158.137         -49.1039        -71.1903         -49.1035        -71.1876       -0.0136229         146.497
0.569                   -1.04806         -158.79         -48.9497         -72.786         -48.9494        -72.7836       -0.0137394         146.425
0.57                    -1.08007        -159.444         -48.7957        -74.3901         -48.7954         -74.388       -0.0138575         146.352
0.571                   -1.11317        -160.102         -48.6418        -76.0029         -48.6415         -76.001       -0.0139773          146.28
0.572                   -1.14738        -160.761         -48.4881        -77.6244         -48.4879        -77.6227        -0.014099         146.207
0.573                   -1.18273        -161.423         -48.3347        -79.2547         -48.3345        -79.2533       -0.0142226         146.135
0.574                   -1.21925        -162.086         -48.1815        -80.8941         -48.1814        -80.8929        -0.014348         146.062
0.575                   -1.25695         -162.75         -48.0288        -82.5426         -48.0287        -82.5415       -0.0144755         145.989
0.576                   -1.29584        -163.416         -47.8764        -84.2004         -47.8763        -84.1995       -0.0146051         145.916
0.577                   -1.33596        -164.083         -47.7245        -85.8674         -47.7245        -85.8666       -0.0147368         145.842
0.578                    -1.3773         -164.75         -47.5731        -87.5439         -47.5731        -87.5432       -0.0148707         145.769
0.579                   -1.41989        -165.418         -47.4223        -89.2297         -47.4224        -89.2292        -0.015007         145.695
0.58                    -1.46373        -166.086         -47.2722         -90.925         -47.2723        -90.9246       -0.0151456         145.621
0.581                   -1.50883        -166.753         -47.1228        -92.6298         -47.1229        -92.6294       -0.0152868         145.547
0.582                   -1.55519         -167.42         -46.9741        -94.3439         -46.9742        -94.3437       -0.0154304         145.473
0.583                   -1.60281        -168.085         -46.8263        -96.0675         -46.8264        -96.0673       -0.0155768         145.399
0.584                   -1.65169         -168.75         -46.6793        -97.8005         -46.6795        -97.8003       -0.0157258         145.325
0.585                   -1.70181        -169.412         -46.5334        -99.5427         -46.5335        -99.5425       -0.0158777          145.25
0.586                   -1.75317        -170.072         -46.3884        -101.294         -46.3886        -101.294       -0.0160325         145.175
0.587                   -1.80574         -170.73         -46.2446        -103.054         -46.2447        -103.054       -0.0161903           145.1
0.588                   -1.85951        -171.385         -46.1019        -104.824          -46.102        -104.824       -0.0163511         145.025
0.589                   -1.91444        -172.036         -45.9604        -106.602         -45.9605        -106.601       -0.0165152          144.95
0.59                    -1.97052        -172.684         -45.8202        -108.388         -45.8203        -108.388       -0.0166825         144.874
0.591                   -2.02769        -173.327         -45.6813        -110.182         -45.6815        -110.182       -0.0168531         144.799
0.592                   -2.08591        -173.967         -45.5438        -111.985          -45.544        -111.985       -0.0170272         144.723
0.593                   -2.14515        -174.601         -45.4078        -113.795          -45.408        -113.795       -0.0172048         144.647
0.594                   -2.20535        -175.231         -45.2734        -115.613         -45.2735        -115.612       -0.0173859         144.571
0.595                   -2.26644        -175.855         -45.1405        -117.437         -45.1406        -117.437       -0.0175707         144.494
0.596                   -2.32838        -176.474         -45.0092        -119.268         -45.0093        -119.268       -0.0177591         144.418
0.597                   -2.39108        -177.086         -44.8796        -121.105         -44.8797        -121.105       -0.0179513         144.341
0.598                   -2.45449        -177.693         -44.7517        -122.948         -44.7518        -122.948       -0.0181473         144.264
0.599                   -2.51852        -178.293         -44.6256        -124.796         -44.6257        -124.796       -0.0183471         144.187
0.6                     -2.58311        -178.887         -44.5012         -126.65         -44.5013         -126.65       -0.0185507          144.11
0.601                   -2.64815        -179.475         -44.3787        -128.507         -44.3788        -128.507       -0.0187582         144.033
0.602                   -2.71359         179.944         -44.2581        -130.368         -44.2582        -130.369       -0.0189696         143.955
0.603                   -2.77931          179.37         -44.1394        -132.233         -44.1394        -132.233       -0.0191849         143.877
0.604                   -2.84525         178.802         -44.0226          -134.1         -44.0226        -134.101       -0.0194041         143.799
0.605                    -2.9113          178.24         -43.9077         -135.97         -43.9077         -135.97       -0.0196272         143.721
0.606                   -2.97739         177.685         -43.7947        -137.841         -43.7947        -137.842       -0.0198541         143.642
0.607                   -3.04341         177.135         -43.6837        -139.714         -43.6836        -139.714       -0.0200848         143.564
0.608                    -3.1093         176.592         -43.5746        -141.587         -43.5745        -141.587       -0.0203193         143.485
0.609                   -3.17496         176.054         -43.4674         -143.46         -43.4673         -143.46       -0.0205575         143.406
0.61                     -3.2403         175.521         -43.3621        -145.332         -43.3621        -145.333       -0.0207995         143.327
0.611                   -3.30527         174.992         -43.2588        -147.203         -43.2587        -147.204       -0.0210451         143.247
0.612                   -3.36977         174.468         -43.1573        -149.073         -43.1572        -149.074       -0.0212943         143.168
0.613                   -3.43375         173.948         -43.0577         -150.94         -43.0576        -150.941       -0.0215471         143.088
0.614                   -3.49713         173.431         -42.9599        -152.805         -42.9598        -152.806       -0.0218033         143.008
0.615                   -3.55987         172.916         -42.8639        -154.666         -42.8638        -154.667        -0.022063         142.927
0.616                   -3.62192         172.403         -42.7696        -156.523         -42.7695        -156.524        -0.022326         142.847
0.617                   -3.68324         171.892          -42.677        -158.376         -42.6769        -158.378       -0.0225924         142.766
0.618                   -3.74379         171.381          -42.586        -160.225         -42.5859        -160.226       -0.0228621         142.685
0.619                   -3.80355          170.87         -42.4967        -162.068         -42.4965        -162.069        -0.023135         142.604
0.62                     -3.8625         170.358         -42.4088        -163.906         -42.4086        -163.907       -0.0234111         142.523
0.621                   -3.92063         169.845         -42.3224        -165.737         -42.3222        -165.739       -0.0236904         142.441
0.622                   -3.97796         169.329         -42.2374        -167.563         -42.2372        -167.564       -0.0239728         142.359
0.623                   -4.03448          168.81         -42.1537        -169.381         -42.1535        -169.383       -0.0242584         142.277
0.624                   -4.09022         168.287         -42.0713        -171.193         -42.0711        -171.195       -0.0245471         142.195
0.625                   -4.14521         167.759           -41.99        -172.998         -41.9899            -173       -0.0248389         142.112
0.626                   -4.19948         167.226         -41.9099        -174.796         -41.9097        -174.798       -0.0251339         142.029
0.627                   -4.25308         166.687         -41.8308        -176.585         -41.8306        -176.587        -0.025432         141.946
0.628                   -4.30606         166.141         -41.7526        -178.367         -41.7525         -178.37       -0.0257333         141.863
0.629                   -4.35848         165.587         -41.6754         179.858         -41.6752         179.856       -0.0260378         141.779
