! TOUCHSTONE file generated by CST MICROWAVE STUDIO
! Date and time: Fri Oct 30 08:08:49 2020
! Project name: Scenario_1_Circular_Tissue_out_of_Line.cst
! Parameters = {dy1=87.525; L_HA=400; MT=2.54; Rad_Dielectric=30; Rad_Lower=7.3; Rad_Upper=30; a_HA=580; a_WG=246; b_HA=500; b_WG=121; c_HA=0; c_WG=187; d_feed=85; dx1=520; h_feed=15; h_lower=18; h_upper=40}
! Header version: 2018
! Port assignment regex: !\s*Touchstone port\s*([0-9]+)\s*=\s*(CST MWS port|CST DS port)\s*([0-9]+|Zmin|Zmax)\s*\(\"(.*)\"\)(\s*mode\s*([0-9]+))?.*
! Touchstone port assignment:
! Touchstone port 1 = CST MWS port 1 ("")
! Touchstone port 2 = CST MWS port 2 ("")
# GHz S DB R 50
0.5                    -0.131961        -122.447         -61.2263        -62.3765         -61.2263        -62.3765      -0.00736302         151.147
0.501                  -0.137467        -122.893         -61.0331        -63.7989         -61.0345         -63.788      -0.00742506         151.082
0.502                  -0.143228        -123.342         -60.8389        -65.2395         -60.8415        -65.2184      -0.00748792         151.017
0.503                  -0.149255        -123.794         -60.6437        -66.6984         -60.6474        -66.6679       -0.0075516         150.951
0.504                   -0.15556        -124.248         -60.4476        -68.1762         -60.4523         -68.137      -0.00761616         150.886
0.505                  -0.162154        -124.704         -60.2507        -69.6731         -60.2562         -69.626      -0.00768162          150.82
0.506                  -0.169049        -125.163         -60.0531        -71.1895         -60.0592        -71.1352      -0.00774802         150.754
0.507                  -0.176256        -125.624         -59.8549        -72.7258         -59.8615        -72.6649      -0.00781539         150.689
0.508                  -0.183788        -126.087         -59.6561        -74.2821         -59.6632        -74.2155      -0.00788378         150.623
0.509                  -0.191656        -126.553         -59.4569        -75.8589         -59.4643        -75.7872      -0.00795322         150.557
0.51                   -0.199871        -127.021         -59.2573        -77.4563          -59.265        -77.3802      -0.00802376         150.491
0.511                  -0.208444        -127.491         -59.0576        -79.0747         -59.0654        -78.9948      -0.00809545         150.425
0.512                  -0.217387        -127.963         -58.8578        -80.7142         -58.8656        -80.6313      -0.00816832         150.359
0.513                  -0.226708        -128.437         -58.6581        -82.3749         -58.6659        -82.2896      -0.00824243         150.293
0.514                  -0.236418        -128.913         -58.4586        -84.0571         -58.4662        -83.9701      -0.00831782         150.226
0.515                  -0.246525        -129.391         -58.2593        -85.7609         -58.2668        -85.6727      -0.00839454          150.16
0.516                  -0.257036        -129.871         -58.0606        -87.4862         -58.0678        -87.3975      -0.00847264         150.093
0.517                  -0.267958        -130.352         -57.8624        -89.2331         -57.8693        -89.1445      -0.00855215         150.027
0.518                  -0.279296        -130.835          -57.665        -91.0015         -57.6715        -90.9136      -0.00863314          149.96
0.519                  -0.291054         -131.32         -57.4685        -92.7914         -57.4747        -92.7047      -0.00871563         149.893
0.52                   -0.303234        -131.806         -57.2731        -94.6026         -57.2788        -94.5176      -0.00879968         149.827
0.521                  -0.315836        -132.293         -57.0788        -96.4349         -57.0841         -96.352      -0.00888533          149.76
0.522                  -0.328857        -132.781         -56.8859        -98.2879         -56.8908        -98.2077       -0.0089726         149.693
0.523                  -0.342296         -133.27         -56.6946        -100.161          -56.699        -100.084      -0.00906154         149.626
0.524                  -0.356145        -133.759         -56.5049        -102.055         -56.5088        -101.981      -0.00915216         149.559
0.525                  -0.370397         -134.25         -56.3171        -103.968         -56.3205        -103.898       -0.0092445         149.491
0.526                  -0.385041        -134.741         -56.1312          -105.9         -56.1342        -105.834      -0.00933856         149.424
0.527                  -0.400065        -135.232         -55.9475         -107.85         -55.9501        -107.789      -0.00943437         149.356
0.528                  -0.415452        -135.724          -55.766        -109.818         -55.7682        -109.761      -0.00953192         149.289
0.529                  -0.431186        -136.216         -55.5869        -111.802         -55.5888         -111.75      -0.00963121         149.221
0.53                   -0.447247        -136.709         -55.4104        -113.803         -55.4119        -113.756      -0.00973224         149.154
0.531                  -0.463612        -137.201         -55.2366        -115.818         -55.2377        -115.777      -0.00983498         149.086
0.532                  -0.480259        -137.693         -55.0655        -117.848         -55.0664        -117.812      -0.00993941         149.018
0.533                  -0.497161        -138.185         -54.8974        -119.891          -54.898        -119.859       -0.0100455          148.95
0.534                  -0.514292        -138.678         -54.7322        -121.945         -54.7326        -121.919       -0.0101532         148.882
0.535                  -0.531624         -139.17         -54.5701         -124.01         -54.5703         -123.99       -0.0102625         148.814
0.536                  -0.549127        -139.662         -54.4111        -126.085         -54.4111         -126.07       -0.0103733         148.745
0.537                  -0.566772        -140.154         -54.2553        -128.169         -54.2553        -128.158       -0.0104856         148.677
0.538                  -0.584529        -140.645         -54.1028        -130.259         -54.1026        -130.253       -0.0105993         148.609
0.539                   -0.60237        -141.137         -53.9535        -132.355         -53.9533        -132.354       -0.0107144          148.54
0.54                   -0.620265         -141.63         -53.8075        -134.456         -53.8074        -134.459       -0.0108307         148.471
0.541                  -0.638188        -142.122         -53.6648         -136.56         -53.6647        -136.567       -0.0109483         148.403
0.542                  -0.656113        -142.615         -53.5254        -138.666         -53.5253        -138.677        -0.011067         148.334
0.543                  -0.674016        -143.109         -53.3892        -140.773         -53.3892        -140.787       -0.0111868         148.265
0.544                  -0.691874        -143.603         -53.2563        -142.879         -53.2564        -142.897       -0.0113075         148.196
0.545                  -0.709669        -144.098         -53.1264        -144.984         -53.1267        -145.004       -0.0114292         148.127
0.546                  -0.727385        -144.595         -52.9997        -147.086         -53.0001        -147.109       -0.0115518         148.058
0.547                  -0.745008        -145.093          -52.876        -149.183         -52.8765        -149.209       -0.0116752         147.988
0.548                  -0.762528        -145.593         -52.7552        -151.276         -52.7559        -151.304       -0.0117994         147.919
0.549                  -0.779937        -146.094         -52.6372        -153.363         -52.6381        -153.393       -0.0119243         147.849
0.55                   -0.797232        -146.598         -52.5219        -155.444          -52.523        -155.474       -0.0120498          147.78
0.551                  -0.814413        -147.104         -52.4093        -157.516         -52.4104        -157.547        -0.012176          147.71
0.552                  -0.831483        -147.613          -52.299         -159.58         -52.3004        -159.612       -0.0123027          147.64
0.553                  -0.848448        -148.125         -52.1912        -161.634         -52.1927        -161.667         -0.01243          147.57
0.554                  -0.865317         -148.64         -52.0855        -163.679         -52.0871        -163.712       -0.0125578           147.5
0.555                  -0.882102        -149.158         -51.9818        -165.713         -51.9836        -165.746       -0.0126862          147.43
0.556                  -0.898819         -149.68         -51.8801        -167.737          -51.882        -167.769        -0.012815         147.359
0.557                  -0.915487        -150.206         -51.7802        -169.749         -51.7822         -169.78       -0.0129444         147.289
0.558                  -0.932124        -150.737         -51.6819        -171.749          -51.684         -171.78       -0.0130742         147.218
0.559                  -0.948754        -151.271         -51.5851        -173.737         -51.5873        -173.767       -0.0132045         147.148
0.56                   -0.965401         -151.81         -51.4896        -175.714         -51.4919        -175.743       -0.0133353         147.077
0.561                  -0.982093        -152.354         -51.3954        -177.678         -51.3976        -177.706       -0.0134667         147.006
0.562                  -0.998857        -152.903         -51.3022         -179.63         -51.3044        -179.656       -0.0135986         146.935
0.563                   -1.01572        -153.457         -51.2099         178.431         -51.2122         178.406        -0.013731         146.864
0.564                   -1.03272        -154.016         -51.1184         176.504         -51.1206          176.48        -0.013864         146.792
0.565                   -1.04989         -154.58         -51.0276         174.588         -51.0298         174.566       -0.0139976         146.721
0.566                   -1.06726        -155.151         -50.9373         172.685         -50.9395         172.664       -0.0141319         146.649
0.567                   -1.08485        -155.726         -50.8474         170.794         -50.8495         170.774       -0.0142668         146.578
0.568                   -1.10272        -156.308         -50.7579         168.914         -50.7599         168.896       -0.0144024         146.506
0.569                   -1.12089        -156.896         -50.6685         167.045         -50.6705         167.029       -0.0145387         146.434
0.57                    -1.13941        -157.489         -50.5792         165.187         -50.5811         165.172       -0.0146759         146.362
0.571                    -1.1583        -158.089           -50.49         163.339         -50.4917         163.326       -0.0148138          146.29
0.572                   -1.17761        -158.694         -50.4006         161.502         -50.4023          161.49       -0.0149526         146.217
0.573                   -1.19737        -159.306         -50.3111         159.674         -50.3126         159.664       -0.0150923         146.145
0.574                   -1.21762        -159.924         -50.2213         157.856         -50.2227         157.847       -0.0152329         146.072
0.575                    -1.2384        -160.549         -50.1311         156.046         -50.1324         156.038       -0.0153745         145.999
0.576                   -1.25975        -161.179         -50.0406         154.245         -50.0418         154.238       -0.0155172         145.926
0.577                   -1.28171        -161.816         -49.9496         152.451         -49.9506         152.446       -0.0156609         145.853
0.578                   -1.30432         -162.46         -49.8581         150.665          -49.859         150.661       -0.0158058          145.78
0.579                   -1.32761         -163.11          -49.766         148.886         -49.7668         148.882       -0.0159518         145.706
0.58                    -1.35164        -163.766         -49.6733         147.113          -49.674          147.11       -0.0160991         145.633
0.581                   -1.37643        -164.429         -49.5799         145.346         -49.5805         145.344       -0.0162477         145.559
0.582                   -1.40204        -165.098         -49.4859         143.585         -49.4864         143.583       -0.0163976         145.485
0.583                   -1.42849        -165.773         -49.3911         141.828         -49.3915         141.827       -0.0165488         145.411
0.584                   -1.45585        -166.454         -49.2956         140.075         -49.2959         140.075       -0.0167015         145.337
0.585                   -1.48413        -167.142         -49.1993         138.326         -49.1995         138.326       -0.0168557         145.262
0.586                    -1.5134        -167.836         -49.1023         136.581         -49.1024         136.581       -0.0170115         145.188
0.587                    -1.5437        -168.536         -49.0044         134.838         -49.0044         134.838       -0.0171688         145.113
0.588                   -1.57505        -169.242         -48.9058         133.097         -48.9057         133.098       -0.0173278         145.038
0.589                   -1.60752        -169.955         -48.8063         131.358         -48.8062         131.359       -0.0174885         144.963
0.59                    -1.64115        -170.673         -48.7061         129.621         -48.7059         129.622        -0.017651         144.888
0.591                   -1.67598        -171.396         -48.6051         127.884         -48.6049         127.885       -0.0178154         144.812
0.592                   -1.71205        -172.126         -48.5033         126.148          -48.503         126.149       -0.0179816         144.737
0.593                   -1.74941        -172.861         -48.4007         124.411         -48.4004         124.412       -0.0181497         144.661
0.594                   -1.78811        -173.601         -48.2973         122.674         -48.2971         122.675       -0.0183199         144.585
0.595                   -1.82819        -174.347         -48.1933         120.936          -48.193         120.937       -0.0184922         144.509
0.596                   -1.86971        -175.097         -48.0885         119.196         -48.0883         119.197       -0.0186666         144.433
0.597                   -1.91269        -175.853         -47.9831         117.455         -47.9829         117.456       -0.0188432         144.356
0.598                    -1.9572        -176.613          -47.877         115.712         -47.8768         115.712       -0.0190221          144.28
0.599                   -2.00328        -177.377         -47.7703         113.965         -47.7702         113.966       -0.0192034         144.203
0.6                     -2.05097        -178.146         -47.6631         112.216          -47.663         112.217       -0.0193871         144.126
0.601                   -2.10032        -178.918         -47.5553         110.464         -47.5552         110.465       -0.0195732         144.048
0.602                   -2.15137        -179.695          -47.447         108.709          -47.447         108.709       -0.0197619         143.971
0.603                   -2.20417         179.526         -47.3383         106.949         -47.3383         106.949       -0.0199533         143.893
0.604                   -2.25876         178.743         -47.2292         105.185         -47.2293         105.185       -0.0201474         143.815
0.605                   -2.31518         177.958         -47.1197         103.417         -47.1199         103.417       -0.0203442         143.737
0.606                   -2.37348         177.171         -47.0099         101.645         -47.0101         101.644        -0.020544         143.659
0.607                   -2.43368         176.381         -46.8999         99.8672         -46.9002         99.8668       -0.0207466          143.58
0.608                   -2.49583          175.59         -46.7897         98.0849         -46.7901         98.0843       -0.0209523         143.502
0.609                   -2.55997         174.798         -46.6794         96.2974         -46.6798         96.2968       -0.0211611         143.423
0.61                    -2.62612         174.006          -46.569         94.5047         -46.5694         94.5041       -0.0213731         143.344
0.611                   -2.69432         173.213         -46.4585         92.7066         -46.4591          92.706       -0.0215884         143.264
0.612                   -2.76459          172.42         -46.3481         90.9031         -46.3487         90.9025        -0.021807         143.185
0.613                   -2.83695         171.629         -46.2378         89.0941         -46.2385         89.0936       -0.0220291         143.105
0.614                   -2.91143         170.838         -46.1277         87.2795         -46.1284         87.2791       -0.0222546         143.025
0.615                   -2.98804          170.05         -46.0178         85.4595         -46.0185         85.4592       -0.0224838         142.944
0.616                   -3.06679         169.264         -45.9082          83.634         -45.9089         83.6337       -0.0227167         142.864
0.617                   -3.14768         168.481         -45.7989          81.803         -45.7997         81.8029       -0.0229534         142.783
0.618                   -3.23072         167.702           -45.69         79.9667         -45.6908         79.9667       -0.0231939         142.702
0.619                   -3.31591         166.927         -45.5815         78.1251         -45.5824         78.1253       -0.0234384         142.621
0.62                    -3.40323         166.157         -45.4736         76.2784         -45.4745         76.2787        -0.023687         142.539
0.621                   -3.49266         165.393         -45.3662         74.4267         -45.3671         74.4272       -0.0239397         142.458
0.622                   -3.58418         164.635         -45.2595         72.5703         -45.2604         72.5709       -0.0241966         142.376
0.623                   -3.67777         163.884         -45.1534         70.7093         -45.1543         70.7101       -0.0244578         142.294
0.624                   -3.77337          163.14         -45.0481          68.844         -45.0489         68.8449       -0.0247235         142.211
0.625                   -3.87096         162.405         -44.9435         66.9745         -44.9443         66.9756       -0.0249936         142.128
0.626                   -3.97047         161.679         -44.8397         65.1013         -44.8405         65.1025       -0.0252683         142.045
0.627                   -4.07185         160.961         -44.7368         63.2246         -44.7376         63.2259       -0.0255476         141.962
0.628                   -4.17503         160.254         -44.6348         61.3446         -44.6355          61.346       -0.0258317         141.879
0.629                   -4.27992         159.558         -44.5337         59.4618         -44.5343         59.4633       -0.0261206         141.795
