! TOUCHSTONE file generated by CST MICROWAVE STUDIO
! Date and time: Wed Oct 28 19:18:18 2020
! Project name: Scenario_1_Circular_Tissue_out_of_Line.cst
! Parameters = {dy1=87.525; L_HA=400; MT=2.54; Rad_Dielectric=30; Rad_Lower=7.3; Rad_Upper=30; a_HA=580; a_WG=246; b_HA=500; b_WG=121; c_HA=0; c_WG=187; d_feed=85; dx1=693; h_feed=15; h_lower=18; h_upper=40}
! Header version: 2018
! Port assignment regex: !\s*Touchstone port\s*([0-9]+)\s*=\s*(CST MWS port|CST DS port)\s*([0-9]+|Zmin|Zmax)\s*\(\"(.*)\"\)(\s*mode\s*([0-9]+))?.*
! Touchstone port assignment:
! Touchstone port 1 = CST MWS port 1 ("")
! Touchstone port 2 = CST MWS port 2 ("")
# GHz S DB R 50
0.5                    -0.154564        -122.279         -62.0523        -168.097         -62.0523        -168.097      -0.00771846         151.133
0.501                  -0.158643        -122.715         -61.9522        -169.867         -61.9523        -169.866      -0.00778256         151.068
0.502                  -0.162867        -123.154         -61.8489        -171.637         -61.8492        -171.636      -0.00784697         151.003
0.503                   -0.16724        -123.595         -61.7426        -173.409         -61.7431        -173.407       -0.0079117         150.938
0.504                  -0.171768        -124.039         -61.6334        -175.181          -61.634        -175.178      -0.00797675         150.872
0.505                  -0.176454        -124.485         -61.5213        -176.953          -61.522        -176.951      -0.00804213         150.807
0.506                  -0.181305        -124.933         -61.4064        -178.727         -61.4072        -178.723      -0.00810784         150.741
0.507                  -0.186324        -125.384         -61.2887           179.5         -61.2896         179.503      -0.00817389         150.675
0.508                  -0.191518        -125.837         -61.1684         177.726         -61.1694         177.729      -0.00824028          150.61
0.509                  -0.196893        -126.294         -61.0455         175.951         -61.0465         175.955      -0.00830703         150.544
0.51                   -0.202455        -126.752         -60.9201         174.176         -60.9212          174.18      -0.00837414         150.478
0.511                  -0.208209        -127.214         -60.7922         172.399         -60.7934         172.403      -0.00844162         150.412
0.512                  -0.214163        -127.677          -60.662         170.622         -60.6632         170.626      -0.00850948         150.346
0.513                  -0.220325        -128.144         -60.5294         168.844         -60.5307         168.848      -0.00857774          150.28
0.514                    -0.2267        -128.613         -60.3947         167.064         -60.3959         167.068       -0.0086464         150.213
0.515                  -0.233298        -129.086         -60.2577         165.283          -60.259         165.287      -0.00871548         150.147
0.516                  -0.240127        -129.561         -60.1187           163.5           -60.12         163.504      -0.00878499         150.081
0.517                  -0.247194        -130.038         -59.9777         161.715          -59.979         161.719      -0.00885496         150.014
0.518                  -0.254509        -130.519         -59.8347         159.927          -59.836         159.932      -0.00892538         149.948
0.519                  -0.262082        -131.002         -59.6899         158.137         -59.6912         158.142       -0.0089963         149.881
0.52                   -0.269922        -131.489         -59.5433         156.344         -59.5445         156.348      -0.00906771         149.814
0.521                   -0.27804        -131.978         -59.3949         154.548         -59.3961         154.552      -0.00913966         149.747
0.522                  -0.286447         -132.47         -59.2448         152.748         -59.2461         152.752      -0.00921214         149.681
0.523                  -0.295154        -132.966         -59.0932         150.944         -59.0944         150.948       -0.0092852         149.614
0.524                  -0.304172        -133.464           -58.94         149.135         -58.9412         149.139      -0.00935885         149.546
0.525                  -0.313514        -133.965         -58.7854         147.322         -58.7865         147.326      -0.00943312         149.479
0.526                  -0.323194        -134.469         -58.6294         145.503         -58.6305         145.507      -0.00950805         149.412
0.527                  -0.333224        -134.977         -58.4721         143.679         -58.4731         143.683      -0.00958365         149.345
0.528                  -0.343619        -135.487         -58.3135         141.849         -58.3145         141.853      -0.00965997         149.277
0.529                  -0.354392        -136.001         -58.1537         140.013         -58.1547         140.016      -0.00973703          149.21
0.53                   -0.365559        -136.517         -57.9929         138.169         -57.9938         138.172      -0.00981487         149.142
0.531                  -0.377136        -137.037         -57.8309         136.319         -57.8318         136.322      -0.00989352         149.074
0.532                  -0.389138        -137.559         -57.6681          134.46         -57.6689         134.463      -0.00997304         149.006
0.533                  -0.401582        -138.085         -57.5043         132.594         -57.5051         132.597       -0.0100534         148.938
0.534                  -0.414485        -138.614         -57.3398         130.719         -57.3405         130.722       -0.0101348          148.87
0.535                  -0.427864        -139.145         -57.1745         128.835         -57.1751         128.838       -0.0102171         148.802
0.536                  -0.441736         -139.68         -57.0085         126.942         -57.0091         126.944       -0.0103005         148.734
0.537                  -0.456121        -140.218          -56.842         125.039         -56.8425         125.041       -0.0103849         148.665
0.538                  -0.471035        -140.758          -56.675         123.126         -56.6754         123.128       -0.0104705         148.597
0.539                  -0.486498        -141.301         -56.5075         121.202         -56.5079         121.204       -0.0105572         148.528
0.54                   -0.502528        -141.847         -56.3397         119.268         -56.3401          119.27       -0.0106452          148.46
0.541                  -0.519143        -142.396         -56.1717         117.322         -56.1721         117.324       -0.0107344         148.391
0.542                  -0.536361        -142.947         -56.0036         115.365         -56.0038         115.367        -0.010825         148.322
0.543                    -0.5542        -143.501         -55.8354         113.396         -55.8356         113.398       -0.0109169         148.253
0.544                  -0.572677        -144.057         -55.6672         111.415         -55.6674         111.417       -0.0110103         148.184
0.545                   -0.59181        -144.615         -55.4991         109.421         -55.4993         109.423       -0.0111052         148.114
0.546                  -0.611613        -145.175         -55.3313         107.415         -55.3314         107.417       -0.0112017         148.045
0.547                  -0.632101        -145.738         -55.1639         105.396         -55.1639         105.398       -0.0112998         147.976
0.548                  -0.653287        -146.302         -54.9968         103.365         -54.9968         103.366       -0.0113995         147.906
0.549                  -0.675183        -146.867         -54.8303          101.32         -54.8303         101.321        -0.011501         147.836
0.55                   -0.697799        -147.434         -54.6644         99.2614         -54.6644         99.2626       -0.0116043         147.766
0.551                  -0.721141        -148.003         -54.4993           97.19         -54.4992         97.1911       -0.0117094         147.696
0.552                  -0.745216        -148.572          -54.335         95.1052         -54.3349         95.1062       -0.0118164         147.626
0.553                  -0.770024        -149.142         -54.1717         93.0072         -54.1716         93.0081       -0.0119254         147.556
0.554                  -0.795566        -149.713         -54.0095         90.8959         -54.0093         90.8967       -0.0120363         147.486
0.555                  -0.821837        -150.284         -53.8484         88.7716         -53.8483         88.7723       -0.0121493         147.415
0.556                  -0.848828        -150.855         -53.6887         86.6343         -53.6885         86.6349       -0.0122644         147.345
0.557                  -0.876529        -151.425         -53.5303         84.4843         -53.5301         84.4848       -0.0123816         147.274
0.558                  -0.904922        -151.996         -53.3734         82.3218         -53.3732         82.3222        -0.012501         147.203
0.559                  -0.933988        -152.566         -53.2182         80.1471         -53.2179         80.1475       -0.0126227         147.133
0.56                   -0.963702        -153.134         -53.0646         77.9606         -53.0644         77.9609       -0.0127465         147.062
0.561                  -0.994035        -153.702         -52.9129         75.7628         -52.9126          75.763       -0.0128726          146.99
0.562                   -1.02495        -154.269          -52.763          73.554         -52.7627         73.5541        -0.013001         146.919
0.563                   -1.05641        -154.834         -52.6151         71.3348         -52.6149         71.3348       -0.0131317         146.848
0.564                   -1.08838        -155.397         -52.4693         69.1056         -52.4691         69.1057       -0.0132648         146.776
0.565                    -1.1208        -155.958         -52.3257         66.8673         -52.3254         66.8672       -0.0134002         146.704
0.566                   -1.15363        -156.518         -52.1843         64.6203          -52.184         64.6202       -0.0135379         146.633
0.567                   -1.18682        -157.075         -52.0451         62.3653         -52.0449         62.3652       -0.0136779         146.561
0.568                   -1.22029        -157.631         -51.9084         60.1031         -51.9081         60.1029       -0.0138203         146.489
0.569                   -1.25401        -158.184          -51.774         57.8345         -51.7738         57.8343        -0.013965         146.416
0.57                    -1.28791        -158.736          -51.642         55.5601         -51.6418         55.5599       -0.0141121         146.344
0.571                   -1.32192        -159.286         -51.5126         53.2809         -51.5124         53.2806       -0.0142614         146.272
0.572                   -1.35599        -159.833         -51.3856         50.9976         -51.3855         50.9974        -0.014413         146.199
0.573                   -1.39006         -160.38         -51.2612         48.7111          -51.261         48.7109       -0.0145669         146.126
0.574                   -1.42408        -160.925         -51.1393         46.4223         -51.1391          46.422        -0.014723         146.053
0.575                   -1.45799        -161.469         -51.0199         44.1319         -51.0198         44.1317       -0.0148812          145.98
0.576                   -1.49174        -162.012          -50.903         41.8409         -50.9029         41.8407       -0.0150417         145.907
0.577                   -1.52528        -162.556         -50.7887         39.5502         -50.7886         39.5499       -0.0152043         145.834
0.578                   -1.55859        -163.099         -50.6768         37.2604         -50.6767         37.2602       -0.0153689          145.76
0.579                   -1.59161        -163.642         -50.5673         34.9725         -50.5672         34.9723       -0.0155357         145.687
0.58                    -1.62434        -164.187         -50.4602         32.6873         -50.4601         32.6871       -0.0157044         145.613
0.581                   -1.65674        -164.733         -50.3554         30.4055         -50.3553         30.4053       -0.0158751         145.539
0.582                    -1.6888        -165.281         -50.2528         28.1278         -50.2528         28.1277       -0.0160478         145.465
0.583                   -1.72053        -165.832         -50.1525          25.855         -50.1525         25.8549       -0.0162224         145.391
0.584                   -1.75192        -166.386         -50.0542         23.5877         -50.0543         23.5877       -0.0163989         145.317
0.585                   -1.78298        -166.943          -49.958         21.3266          -49.958         21.3266       -0.0165772         145.242
0.586                   -1.81373        -167.504         -49.8637         19.0722         -49.8638         19.0722       -0.0167573         145.167
0.587                    -1.8442         -168.07         -49.7713          16.825         -49.7713         16.8251       -0.0169393         145.093
0.588                   -1.87441        -168.641         -49.6805         14.5856         -49.6806         14.5857        -0.017123         145.018
0.589                   -1.90441        -169.217         -49.5915         12.3543         -49.5916         12.3544       -0.0173084         144.943
0.59                    -1.93423          -169.8         -49.5039         10.1315          -49.504         10.1317       -0.0174956         144.867
0.591                   -1.96393        -170.388         -49.4178         7.91758         -49.4179         7.91779       -0.0176845         144.792
0.592                   -1.99356        -170.984          -49.333         5.71275         -49.3332           5.713       -0.0178752         144.716
0.593                   -2.02317        -171.587         -49.2495         3.51725         -49.2496         3.51753       -0.0180675          144.64
0.594                   -2.05283        -172.197          -49.167         1.33124         -49.1671         1.33155       -0.0182616         144.564
0.595                    -2.0826        -172.816         -49.0855       -0.845159         -49.0857       -0.844828       -0.0184574         144.488
0.596                   -2.11256        -173.442          -49.005        -3.01189         -49.0051        -3.01153       -0.0186549         144.412
0.597                   -2.14276        -174.077         -48.9252        -5.16893         -48.9253        -5.16855       -0.0188541         144.335
0.598                   -2.17328         -174.72         -48.8461         -7.3163         -48.8463        -7.31591       -0.0190552         144.259
0.599                   -2.20421        -175.372         -48.7676        -9.45408         -48.7678        -9.45367        -0.019258         144.182
0.6                      -2.2356        -176.034         -48.6896        -11.5824         -48.6898        -11.5819       -0.0194626         144.105
0.601                   -2.26754        -176.704          -48.612        -13.7013         -48.6122        -13.7009       -0.0196691         144.027
0.602                    -2.3001        -177.383         -48.5347        -15.8112         -48.5349        -15.8107       -0.0198774          143.95
0.603                   -2.33337        -178.072         -48.4576         -17.912         -48.4578        -17.9116       -0.0200877         143.872
0.604                   -2.36742        -178.771         -48.3807        -20.0042         -48.3809        -20.0038          -0.0203         143.794
0.605                   -2.40232        -179.479         -48.3039         -22.088          -48.304        -22.0876       -0.0205143         143.716
0.606                   -2.43816         179.804          -48.227        -24.1637         -48.2272        -24.1633       -0.0207306         143.638
0.607                   -2.47503         179.077         -48.1501        -26.2317         -48.1503        -26.2312       -0.0209491          143.56
0.608                   -2.51298         178.341         -48.0731        -28.2922         -48.0732        -28.2917       -0.0211698         143.481
0.609                   -2.55212         177.595         -47.9958        -30.3457          -47.996        -30.3452       -0.0213928         143.402
0.61                    -2.59251          176.84         -47.9184        -32.3924         -47.9185         -32.392        -0.021618         143.323
0.611                   -2.63424         176.076         -47.8407        -34.4329         -47.8408        -34.4325       -0.0218457         143.244
0.612                   -2.67739         175.302         -47.7626        -36.4675         -47.7628        -36.4671       -0.0220758         143.164
0.613                   -2.72204         174.519         -47.6842        -38.4967         -47.6844        -38.4962       -0.0223084         143.084
0.614                   -2.76827         173.728         -47.6054        -40.5208         -47.6056        -40.5203       -0.0225437         143.004
0.615                   -2.81617         172.928         -47.5263        -42.5402         -47.5264        -42.5398       -0.0227817         142.924
0.616                   -2.86581         172.119         -47.4467        -44.5555         -47.4468         -44.555       -0.0230225         142.844
0.617                   -2.91729         171.301         -47.3666        -46.5669         -47.3668        -46.5664       -0.0232661         142.763
0.618                   -2.97068         170.476         -47.2862        -48.5749         -47.2863        -48.5745       -0.0235127         142.682
0.619                   -3.02607         169.643         -47.2052          -50.58         -47.2054        -50.5796       -0.0237624         142.601
0.62                    -3.08354         168.802         -47.1239        -52.5825          -47.124        -52.5821       -0.0240151         142.519
0.621                   -3.14318         167.954         -47.0421        -54.5828         -47.0422        -54.5824       -0.0242712         142.438
0.622                   -3.20508         167.098         -46.9598        -56.5813         -46.9599        -56.5809       -0.0245305         142.356
0.623                   -3.26931         166.237         -46.8772        -58.5784         -46.8772        -58.5779       -0.0247933         142.274
0.624                   -3.33597         165.369         -46.7941        -60.5743         -46.7941        -60.5739       -0.0250597         142.191
0.625                   -3.40514         164.495         -46.7106        -62.5696         -46.7107        -62.5691       -0.0253296         142.109
0.626                   -3.47691         163.616         -46.6268        -64.5643         -46.6269        -64.5639       -0.0256034         142.026
0.627                   -3.55135         162.732         -46.5427        -66.5589         -46.5428        -66.5585       -0.0258809         141.942
0.628                   -3.62857         161.843         -46.4583        -68.5537         -46.4583        -68.5533       -0.0261624         141.859
0.629                   -3.70863         160.951         -46.3736        -70.5488         -46.3736        -70.5484        -0.026448         141.775
