! TOUCHSTONE file generated by CST MICROWAVE STUDIO
! Date and time: Mon Oct 26 12:32:35 2020
! Project name: Scenario_1_Circular_Tissue_out_of_Line.cst
! Parameters = {dy1=87.525; L_HA=400; MT=2.54; Rad_Dielectric=30; Rad_Lower=7.3; Rad_Upper=30; a_HA=580; a_WG=246; b_HA=500; b_WG=121; c_HA=0; c_WG=187; d_feed=85; dx1=866; h_feed=15; h_lower=18; h_upper=40}
! Header version: 2018
! Port assignment regex: !\s*Touchstone port\s*([0-9]+)\s*=\s*(CST MWS port|CST DS port)\s*([0-9]+|Zmin|Zmax)\s*\(\"(.*)\"\)(\s*mode\s*([0-9]+))?.*
! Touchstone port assignment:
! Touchstone port 1 = CST MWS port 1 ("")
! Touchstone port 2 = CST MWS port 2 ("")
# GHz S DB R 50
0.5                    -0.143144        -122.489         -62.7997         98.1997         -62.7997         98.1997      -0.00746746         151.121
0.501                  -0.147629        -122.903         -62.7423         95.5489         -62.7423         95.5489      -0.00754634         151.056
0.502                   -0.15227        -123.319         -62.6776         92.8971         -62.6776         92.8971      -0.00762551         150.991
0.503                  -0.157071        -123.737         -62.6056         90.2469         -62.6056         90.2469      -0.00770497         150.925
0.504                  -0.162037        -124.159         -62.5265         87.6007         -62.5265         87.6007      -0.00778475          150.86
0.505                  -0.167173        -124.583         -62.4406         84.9609         -62.4406         84.9609      -0.00786484         150.794
0.506                  -0.172484         -125.01         -62.3481         82.3294         -62.3481         82.3294      -0.00794526         150.729
0.507                  -0.177975         -125.44         -62.2491         79.7084         -62.2491         79.7084      -0.00802602         150.663
0.508                  -0.183651        -125.872          -62.144         77.0996          -62.144         77.0996      -0.00810713         150.597
0.509                  -0.189517        -126.308         -62.0331         74.5045         -62.0331         74.5045       -0.0081886         150.531
0.51                   -0.195578        -126.746         -61.9167         71.9246         -61.9167         71.9247      -0.00827044         150.465
0.511                   -0.20184        -127.187          -61.795         69.3612          -61.795         69.3612      -0.00835265         150.399
0.512                  -0.208307        -127.631         -61.6684         66.8151         -61.6684         66.8151      -0.00843526         150.333
0.513                  -0.214986        -128.077         -61.5373         64.2872         -61.5373         64.2872      -0.00851826         150.267
0.514                  -0.221882        -128.527         -61.4018         61.7782         -61.4018         61.7782      -0.00860168         150.201
0.515                     -0.229        -128.979         -61.2625         59.2884         -61.2625         59.2884      -0.00868552         150.134
0.516                  -0.236346        -129.435         -61.1195         56.8183         -61.1195         56.8183      -0.00876979         150.068
0.517                  -0.243926        -129.893         -60.9731         54.3679         -60.9731         54.3679       -0.0088545         150.002
0.518                  -0.251746        -130.354         -60.8238         51.9372         -60.8238         51.9372      -0.00893967         149.935
0.519                  -0.259812        -130.818         -60.6717         49.5261         -60.6717         49.5261      -0.00902531         149.868
0.52                   -0.268129        -131.285         -60.5171         47.1343         -60.5171         47.1344      -0.00911142         149.802
0.521                  -0.276704        -131.755         -60.3604         44.7616         -60.3604         44.7616      -0.00919802         149.735
0.522                  -0.285543        -132.228         -60.2017         42.4074         -60.2017         42.4074      -0.00928512         149.668
0.523                  -0.294653        -132.704         -60.0413         40.0711         -60.0413         40.0712      -0.00937274         149.601
0.524                  -0.304038        -133.182         -59.8795         37.7523         -59.8795         37.7524      -0.00946088         149.534
0.525                  -0.313707        -133.664         -59.7164         35.4503         -59.7163         35.4503      -0.00954956         149.466
0.526                  -0.323665        -134.149         -59.5522         33.1643         -59.5522         33.1643      -0.00963878         149.399
0.527                  -0.333919        -134.636         -59.3872         30.8936         -59.3872         30.8936      -0.00972857         149.332
0.528                  -0.344476        -135.127         -59.2215         28.6374         -59.2215         28.6374      -0.00981893         149.264
0.529                  -0.355342         -135.62         -59.0553         26.3949         -59.0553         26.3949      -0.00990987         149.197
0.53                   -0.366524        -136.117         -58.8887         24.1653         -58.8887         24.1653       -0.0100014         149.129
0.531                  -0.378029        -136.616         -58.7219         21.9477         -58.7219         21.9477       -0.0100936         149.061
0.532                  -0.389863        -137.119          -58.555         19.7414          -58.555         19.7414       -0.0101864         148.994
0.533                  -0.402034        -137.625         -58.3882         17.5454         -58.3882         17.5454       -0.0102798         148.926
0.534                  -0.414549        -138.133         -58.2215         15.3589         -58.2215          15.359       -0.0103738         148.858
0.535                  -0.427415        -138.645         -58.0551         13.1812         -58.0551         13.1812       -0.0104686         148.789
0.536                  -0.440639        -139.159         -57.8891         11.0113          -57.889         11.0113        -0.010564         148.721
0.537                  -0.454228        -139.677         -57.7235          8.8485         -57.7235         8.84852       -0.0106601         148.653
0.538                   -0.46819        -140.197         -57.5584         6.69195         -57.5584         6.69197       -0.0107569         148.584
0.539                  -0.482531        -140.721          -57.394         4.54089         -57.3939         4.54091       -0.0108545         148.516
0.54                    -0.49726        -141.247         -57.2302         2.39457         -57.2302         2.39459       -0.0109527         148.447
0.541                  -0.512383        -141.777         -57.0672        0.252235         -57.0672        0.252255       -0.0110518         148.379
0.542                  -0.527909        -142.309          -56.905        -1.88682          -56.905         -1.8868       -0.0111516          148.31
0.543                  -0.543844        -142.844         -56.7437         -4.0233         -56.7437        -4.02328       -0.0112521         148.241
0.544                  -0.560197        -143.383         -56.5833        -6.15786         -56.5833        -6.15785       -0.0113535         148.172
0.545                  -0.576975        -143.924         -56.4238        -8.29116         -56.4238        -8.29115       -0.0114557         148.103
0.546                  -0.594186        -144.469         -56.2654        -10.4238         -56.2654        -10.4238       -0.0115587         148.033
0.547                  -0.611838        -145.016          -56.108        -12.5564          -56.108        -12.5564       -0.0116626         147.964
0.548                  -0.629937        -145.566         -55.9517        -14.6896         -55.9517        -14.6896       -0.0117673         147.894
0.549                  -0.648493        -146.119         -55.7965        -16.8238         -55.7965        -16.8238       -0.0118729         147.825
0.55                   -0.667514        -146.675         -55.6425        -18.9596         -55.6425        -18.9596       -0.0119794         147.755
0.551                  -0.687006        -147.234         -55.4897        -21.0974         -55.4897        -21.0974       -0.0120868         147.685
0.552                  -0.706978        -147.796         -55.3381        -23.2379         -55.3381        -23.2379       -0.0121951         147.615
0.553                  -0.727439        -148.361         -55.1877        -25.3813         -55.1877        -25.3813       -0.0123044         147.545
0.554                  -0.748396        -148.929         -55.0385        -27.5281         -55.0385        -27.5281       -0.0124147         147.475
0.555                  -0.769857        -149.499         -54.8907        -29.6787         -54.8907        -29.6787       -0.0125259         147.405
0.556                   -0.79183        -150.073         -54.7441        -31.8335         -54.7441        -31.8335       -0.0126382         147.334
0.557                  -0.814325        -150.649         -54.5989        -33.9927         -54.5989        -33.9927       -0.0127514         147.264
0.558                  -0.837348        -151.228          -54.455        -36.1568          -54.455        -36.1568       -0.0128658         147.193
0.559                  -0.860908         -151.81         -54.3124        -38.3259         -54.3124        -38.3259       -0.0129812         147.122
0.56                   -0.885014        -152.394         -54.1712        -40.5004         -54.1712        -40.5004       -0.0130977         147.051
0.561                  -0.909674        -152.982         -54.0314        -42.6805         -54.0314        -42.6805       -0.0132153          146.98
0.562                  -0.934897        -153.572          -53.893        -44.8664          -53.893        -44.8664       -0.0133341         146.909
0.563                  -0.960691        -154.165          -53.756        -47.0582          -53.756        -47.0582        -0.013454         146.838
0.564                  -0.987064         -154.76         -53.6203        -49.2562         -53.6203        -49.2562       -0.0135751         146.766
0.565                   -1.01403        -155.359         -53.4861        -51.4605         -53.4861        -51.4605       -0.0136975         146.695
0.566                   -1.04158         -155.96         -53.3533        -53.6712         -53.3533        -53.6712       -0.0138211         146.623
0.567                   -1.06975        -156.563          -53.222        -55.8883          -53.222        -55.8883       -0.0139459         146.551
0.568                   -1.09853        -157.169          -53.092         -58.112          -53.092         -58.112       -0.0140721         146.479
0.569                   -1.12793        -157.778         -52.9635        -60.3423         -52.9635        -60.3423       -0.0141996         146.407
0.57                    -1.15797         -158.39         -52.8364        -62.5792         -52.8364        -62.5792       -0.0143285         146.335
0.571                   -1.18865        -159.004         -52.7108        -64.8227         -52.7108        -64.8227       -0.0144588         146.263
0.572                   -1.21998         -159.62         -52.5866        -67.0728         -52.5866        -67.0728       -0.0145905          146.19
0.573                   -1.25197         -160.24         -52.4638        -69.3295         -52.4638        -69.3295       -0.0147237         146.117
0.574                   -1.28463        -160.861         -52.3425        -71.5926         -52.3425        -71.5926       -0.0148585         146.045
0.575                   -1.31798        -161.485         -52.2226        -73.8622         -52.2226        -73.8622       -0.0149948         145.972
0.576                   -1.35202        -162.112         -52.1041        -76.1381         -52.1041        -76.1381       -0.0151327         145.898
0.577                   -1.38676        -162.741          -51.987        -78.4202          -51.987        -78.4202       -0.0152723         145.825
0.578                   -1.42221        -163.372         -51.8714        -80.7083         -51.8714        -80.7083       -0.0154136         145.752
0.579                   -1.45838        -164.006         -51.7571        -83.0024         -51.7571        -83.0024       -0.0155567         145.678
0.58                     -1.4953        -164.642         -51.6442        -85.3022         -51.6442        -85.3022       -0.0157016         145.604
0.581                   -1.53296         -165.28         -51.5327        -87.6076         -51.5327        -87.6076       -0.0158484         145.531
0.582                   -1.57138         -165.92         -51.4226        -89.9184         -51.4226        -89.9184       -0.0159972         145.457
0.583                   -1.61057        -166.563         -51.3138        -92.2343         -51.3138        -92.2343        -0.016148         145.382
0.584                   -1.65055        -167.208         -51.2063        -94.5552         -51.2063        -94.5552       -0.0163009         145.308
0.585                   -1.69134        -167.855         -51.1001        -96.8808         -51.1001        -96.8808        -0.016456         145.233
0.586                   -1.73294        -168.505         -50.9953        -99.2109         -50.9953        -99.2109       -0.0166133         145.159
0.587                   -1.77537        -169.156         -50.8917        -101.545         -50.8917        -101.545        -0.016773         145.084
0.588                   -1.81866         -169.81         -50.7894        -103.884         -50.7894        -103.884       -0.0169351         145.009
0.589                   -1.86281        -170.465         -50.6882        -106.226         -50.6882        -106.226       -0.0170997         144.934
0.59                    -1.90785        -171.123         -50.5883        -108.571         -50.5883        -108.571        -0.017267         144.858
0.591                    -1.9538        -171.782         -50.4896         -110.92         -50.4896         -110.92       -0.0174369         144.783
0.592                   -2.00068        -172.443          -50.392        -113.271          -50.392        -113.271       -0.0176097         144.707
0.593                   -2.04852        -173.106         -50.2956        -115.625         -50.2956        -115.625       -0.0177853         144.631
0.594                   -2.09734        -173.771         -50.2003        -117.982         -50.2003        -117.982        -0.017964         144.555
0.595                   -2.14717        -174.437          -50.106         -120.34          -50.106         -120.34       -0.0181457         144.479
0.596                   -2.19804        -175.105         -50.0127          -122.7         -50.0128          -122.7       -0.0183306         144.402
0.597                   -2.24999        -175.774         -49.9205        -125.062         -49.9205        -125.062       -0.0185188         144.326
0.598                   -2.30305        -176.445         -49.8293        -127.425         -49.8293        -127.425       -0.0187103         144.249
0.599                   -2.35728        -177.117          -49.739        -129.789          -49.739        -129.789       -0.0189052         144.172
0.6                      -2.4127        -177.789         -49.6496        -132.153         -49.6496        -132.153       -0.0191035         144.095
0.601                   -2.46938        -178.463         -49.5611        -134.518         -49.5611        -134.518       -0.0193054         144.017
0.602                   -2.52737        -179.137         -49.4735        -136.882         -49.4735        -136.882       -0.0195107          143.94
0.603                   -2.58672        -179.811         -49.3867        -139.247         -49.3867        -139.247       -0.0197197         143.862
0.604                   -2.64752         179.515         -49.3006        -141.611         -49.3006        -141.611       -0.0199321         143.784
0.605                   -2.70984         178.842         -49.2153        -143.975         -49.2153        -143.975       -0.0201481         143.706
0.606                   -2.77376          178.17         -49.1308        -146.337         -49.1308        -146.337       -0.0203676         143.627
0.607                   -2.83938           177.5         -49.0469        -148.698         -49.0469        -148.698       -0.0205906         143.549
0.608                   -2.90679         176.833         -48.9636        -151.058         -48.9636        -151.058       -0.0208171          143.47
0.609                    -2.9761          176.17          -48.881        -153.416          -48.881        -153.416       -0.0210469         143.391
0.61                    -3.04744         175.512          -48.799        -155.773          -48.799        -155.773         -0.02128         143.312
0.611                   -3.12091         174.861         -48.7176        -158.127         -48.7176        -158.127       -0.0215164         143.232
0.612                   -3.19663         174.219         -48.6366        -160.479         -48.6366        -160.479       -0.0217559         143.153
0.613                   -3.27471          173.59         -48.5562        -162.829         -48.5562        -162.829       -0.0219986         143.073
0.614                   -3.35521         172.975         -48.4762        -165.176         -48.4762        -165.176       -0.0222444         142.993
0.615                   -3.43812         172.381         -48.3966         -167.52         -48.3966         -167.52       -0.0224931         142.913
0.616                   -3.52335         171.812         -48.3175        -169.862         -48.3175        -169.862       -0.0227449         142.832
0.617                   -3.61058         171.275         -48.2388          -172.2         -48.2388          -172.2       -0.0229996         142.752
0.618                    -3.6992         170.778         -48.1604        -174.535         -48.1604        -174.535       -0.0232572         142.671
0.619                   -3.78813         170.331         -48.0823        -176.867         -48.0823        -176.867       -0.0235177          142.59
0.62                    -3.87555         169.944         -48.0045        -179.196         -48.0045        -179.196       -0.0237811         142.508
0.621                   -3.95867         169.626          -47.927          178.48          -47.927          178.48       -0.0240475         142.426
0.622                   -4.03347          169.38         -47.8498         176.158         -47.8498         176.158       -0.0243169         142.345
0.623                   -4.09472         169.201         -47.7728         173.841         -47.7728         173.841       -0.0245893         142.262
0.624                   -4.13658         169.064         -47.6959         171.527         -47.6959         171.527       -0.0248647          142.18
0.625                   -4.15418         168.925         -47.6193         169.216         -47.6193         169.216       -0.0251433         142.098
0.626                   -4.14608         168.715         -47.5428          166.91         -47.5428          166.91       -0.0254251         142.015
0.627                   -4.11648         168.361         -47.4665         164.607         -47.4665         164.607       -0.0257102         141.931
0.628                   -4.07521          167.81         -47.3904         162.308         -47.3904         162.308       -0.0259988         141.848
0.629                   -4.03488         167.049         -47.3143         160.012         -47.3143         160.012       -0.0262908         141.764
