! TOUCHSTONE file generated by CST MICROWAVE STUDIO
! Date and time: Sat Oct 24 11:47:41 2020
! Project name: Scenario_1_Circular_Tissue_out_of_Line.cst
! Parameters = {dy1=87.525; L_HA=400; MT=2.54; Rad_Dielectric=30; Rad_Lower=7.3; Rad_Upper=30; a_HA=580; a_WG=246; b_HA=500; b_WG=121; c_HA=0; c_WG=187; d_feed=85; dx1=1039; h_feed=15; h_lower=18; h_upper=40}
! Header version: 2018
! Port assignment regex: !\s*Touchstone port\s*([0-9]+)\s*=\s*(CST MWS port|CST DS port)\s*([0-9]+|Zmin|Zmax)\s*\(\"(.*)\"\)(\s*mode\s*([0-9]+))?.*
! Touchstone port assignment:
! Touchstone port 1 = CST MWS port 1 ("")
! Touchstone port 2 = CST MWS port 2 ("")
# GHz S DB R 50
0.5                    -0.146842        -122.264         -63.3483        -3.30602         -63.3483        -3.30602      -0.00764281         151.136
0.501                  -0.150728        -122.704         -63.2216        -5.49386         -63.2215        -5.49376      -0.00770174         151.071
0.502                  -0.154815        -123.147         -63.0917        -7.68652         -63.0916        -7.68631       -0.0077611         151.006
0.503                  -0.159105        -123.593         -62.9589          -9.884         -62.9587        -9.88367      -0.00782091          150.94
0.504                  -0.163605        -124.041         -62.8231        -12.0863         -62.8229        -12.0859      -0.00788118         150.875
0.505                  -0.168319        -124.491         -62.6846        -14.2936         -62.6843         -14.293      -0.00794193          150.81
0.506                  -0.173253        -124.944         -62.5432         -16.506          -62.543        -16.5052      -0.00800319         150.744
0.507                  -0.178412        -125.399         -62.3992        -18.7235         -62.3989        -18.7227      -0.00806497         150.678
0.508                  -0.183802        -125.857         -62.2526        -20.9464         -62.2523        -20.9455      -0.00812729         150.613
0.509                   -0.18943        -126.317         -62.1036         -23.175         -62.1032        -23.1739      -0.00819018         150.547
0.51                   -0.195302         -126.78         -61.9521        -25.4094         -61.9517        -25.4082      -0.00825367         150.481
0.511                  -0.201426        -127.245         -61.7983          -27.65         -61.7979        -27.6487      -0.00831778         150.415
0.512                  -0.207808        -127.713         -61.6423        -29.8971         -61.6419        -29.8956      -0.00838253         150.349
0.513                  -0.214457        -128.184         -61.4841         -32.151         -61.4837        -32.1494      -0.00844797         150.283
0.514                  -0.221382        -128.657         -61.3239        -34.4122         -61.3235        -34.4104      -0.00851411         150.216
0.515                  -0.228591        -129.133         -61.1618        -36.6809         -61.1614         -36.679        -0.008581          150.15
0.516                  -0.236093        -129.612         -60.9978        -38.9576         -60.9974        -38.9557      -0.00864867         150.084
0.517                    -0.2439        -130.094         -60.8321        -41.2429         -60.8317        -41.2408      -0.00871716         150.017
0.518                  -0.252023        -130.578         -60.6647         -43.537         -60.6643        -43.5349       -0.0087865          149.95
0.519                  -0.260471        -131.065         -60.4958        -45.8406         -60.4954        -45.8384      -0.00885674         149.884
0.52                    -0.26926        -131.555         -60.3255        -48.1541         -60.3251        -48.1518      -0.00892792         149.817
0.521                    -0.2784        -132.047         -60.1538         -50.478         -60.1534        -50.4757       -0.0090001          149.75
0.522                  -0.287907        -132.543         -59.9809        -52.8129         -59.9805        -52.8105      -0.00907331         149.683
0.523                  -0.297796        -133.041         -59.8069        -55.1592         -59.8066        -55.1567      -0.00914762         149.616
0.524                  -0.308082        -133.542         -59.6319        -57.5174         -59.6316        -57.5149      -0.00922306         149.549
0.525                  -0.318782        -134.045         -59.4561        -59.8881         -59.4558        -59.8856       -0.0092997         149.482
0.526                  -0.329914        -134.552         -59.2795        -62.2718         -59.2792        -62.2692       -0.0093776         149.414
0.527                  -0.341496        -135.061         -59.1024         -64.669         -59.1021        -64.6664       -0.0094568         149.347
0.528                  -0.353548        -135.573         -58.9247        -67.0802         -58.9244        -67.0776      -0.00953738         149.279
0.529                  -0.366091        -136.087         -58.7467        -69.5058         -58.7464        -69.5032       -0.0096194         149.212
0.53                   -0.379143        -136.604         -58.5685        -71.9463         -58.5682        -71.9437       -0.0097029         149.144
0.531                  -0.392728        -137.124         -58.3902        -74.4021           -58.39        -74.3995      -0.00978797         149.076
0.532                  -0.406866        -137.645          -58.212        -76.8736         -58.2118         -76.871      -0.00987465         149.008
0.533                  -0.421578         -138.17         -58.0341        -79.3612         -58.0338        -79.3586      -0.00996301          148.94
0.534                  -0.436886        -138.696         -57.8565         -81.865         -57.8563        -81.8625       -0.0100531         148.872
0.535                  -0.452808        -139.224         -57.6795        -84.3855         -57.6793         -84.383        -0.010145         148.804
0.536                  -0.469363        -139.754         -57.5032        -86.9227          -57.503        -86.9203       -0.0102387         148.736
0.537                  -0.486567        -140.285         -57.3278        -89.4769         -57.3276        -89.4745       -0.0103344         148.667
0.538                  -0.504433        -140.818         -57.1535         -92.048         -57.1533        -92.0457        -0.010432         148.599
0.539                  -0.522968        -141.351         -56.9804        -94.6362         -56.9802        -94.6339       -0.0105316          148.53
0.54                   -0.542177        -141.886         -56.8086        -97.2413         -56.8085        -97.2391       -0.0106332         148.461
0.541                  -0.562057         -142.42         -56.6385        -99.8631         -56.6384         -99.861       -0.0107368         148.393
0.542                  -0.582598        -142.955         -56.4701        -102.501           -56.47        -102.499       -0.0108425         148.324
0.543                  -0.603783        -143.489         -56.3036        -105.156         -56.3035        -105.154       -0.0109503         148.255
0.544                  -0.625584        -144.022         -56.1392        -107.826         -56.1391        -107.825       -0.0110602         148.186
0.545                  -0.647966        -144.555         -55.9771        -110.512          -55.977         -110.51       -0.0111722         148.116
0.546                   -0.67088        -145.086         -55.8173        -113.212         -55.8172         -113.21       -0.0112862         148.047
0.547                   -0.69427        -145.615         -55.6602        -115.926         -55.6601        -115.925       -0.0114022         147.977
0.548                  -0.718068        -146.143         -55.5058        -118.653         -55.5057        -118.652       -0.0115202         147.908
0.549                  -0.742197        -146.668         -55.3542        -121.392         -55.3541        -121.391       -0.0116401         147.838
0.55                   -0.766574        -147.191         -55.2056        -124.143         -55.2055        -124.142       -0.0117619         147.768
0.551                  -0.791108        -147.712         -55.0601        -126.904           -55.06        -126.903       -0.0118855         147.699
0.552                  -0.815708         -148.23         -54.9178        -129.673         -54.9177        -129.672       -0.0120108         147.629
0.553                  -0.840281        -148.747         -54.7788         -132.45         -54.7787         -132.45       -0.0121378         147.559
0.554                  -0.864738        -149.262         -54.6431        -135.234          -54.643        -135.233       -0.0122663         147.488
0.555                  -0.888996        -149.776         -54.5108        -138.022         -54.5107        -138.022       -0.0123963         147.418
0.556                  -0.912982        -150.288          -54.382        -140.814         -54.3819        -140.814       -0.0125277         147.348
0.557                  -0.936634        -150.801         -54.2566        -143.609         -54.2565        -143.609       -0.0126603         147.277
0.558                  -0.959906        -151.314         -54.1346        -146.404         -54.1345        -146.404       -0.0127941         147.206
0.559                  -0.982765        -151.828         -54.0161        -149.198          -54.016        -149.198       -0.0129291         147.136
0.56                     -1.0052        -152.344         -53.9009         -151.99         -53.9008         -151.99        -0.013065         147.065
0.561                    -1.0272        -152.862         -53.7889        -154.778         -53.7889        -154.779       -0.0132018         146.994
0.562                   -1.04879        -153.383         -53.6802        -157.562         -53.6802        -157.563       -0.0133396         146.923
0.563                   -1.06999        -153.908         -53.5746        -160.339         -53.5746         -160.34       -0.0134781         146.851
0.564                   -1.09085        -154.437          -53.472        -163.109         -53.4719         -163.11       -0.0136173          146.78
0.565                   -1.11141        -154.971         -53.3721         -165.87         -53.3721        -165.871       -0.0137572         146.709
0.566                   -1.13173        -155.511          -53.275        -168.621          -53.275        -168.622       -0.0138978         146.637
0.567                   -1.15188        -156.056         -53.1803        -171.361         -53.1803        -171.362       -0.0140389         146.565
0.568                   -1.17192        -156.608          -53.088         -174.09          -53.088        -174.091       -0.0141807         146.493
0.569                   -1.19192        -157.166         -52.9977        -176.806         -52.9978        -176.807       -0.0143231         146.421
0.57                    -1.21195         -157.73         -52.9094        -179.508         -52.9095         -179.51        -0.014466         146.349
0.571                   -1.23209        -158.302         -52.8229         177.802         -52.8229         177.801       -0.0146096         146.277
0.572                   -1.25238         -158.88         -52.7378         175.127         -52.7378         175.125       -0.0147538         146.204
0.573                   -1.27292        -159.466          -52.654         172.466          -52.654         172.465       -0.0148986         146.132
0.574                   -1.29375        -160.058         -52.5712          169.82         -52.5713         169.818       -0.0150441         146.059
0.575                   -1.31493        -160.658         -52.4894         167.188         -52.4895         167.187       -0.0151903         145.986
0.576                   -1.33654        -161.265         -52.4082         164.571         -52.4083         164.569       -0.0153373         145.913
0.577                   -1.35863         -161.88         -52.3274         161.968         -52.3275         161.966       -0.0154852          145.84
0.578                   -1.38125        -162.502         -52.2469         159.379          -52.247         159.377       -0.0156339         145.767
0.579                   -1.40447        -163.131         -52.1665         156.803         -52.1666         156.801       -0.0157835         145.693
0.58                    -1.42832        -163.767          -52.086          154.24         -52.0861         154.238       -0.0159342          145.62
0.581                   -1.45288        -164.411         -52.0052         151.689         -52.0053         151.688        -0.016086         145.546
0.582                   -1.47818        -165.062          -51.924          149.15         -51.9242         149.149       -0.0162389         145.472
0.583                   -1.50429         -165.72         -51.8423         146.622         -51.8424         146.621        -0.016393         145.398
0.584                   -1.53126        -166.386         -51.7598         144.104           -51.76         144.102       -0.0165485         145.324
0.585                   -1.55915        -167.058         -51.6766         141.594         -51.6768         141.593       -0.0167054         145.249
0.586                   -1.58801        -167.738         -51.5925         139.093         -51.5927         139.092       -0.0168637         145.175
0.587                    -1.6179        -168.424         -51.5075         136.599         -51.5076         136.598       -0.0170236           145.1
0.588                   -1.64888        -169.118         -51.4214         134.111         -51.4215          134.11       -0.0171851         145.025
0.589                   -1.68101        -169.818         -51.3342         131.628         -51.3344         131.627       -0.0173484          144.95
0.59                    -1.71436        -170.525          -51.246         129.149         -51.2462         129.148       -0.0175134         144.875
0.591                   -1.74899        -171.239         -51.1567         126.673         -51.1568         126.672       -0.0176804         144.799
0.592                   -1.78497        -171.959         -51.0662         124.199         -51.0664         124.199       -0.0178493         144.724
0.593                   -1.82237        -172.685         -50.9747         121.726         -50.9749         121.726       -0.0180203         144.648
0.594                   -1.86126        -173.417         -50.8822         119.254         -50.8823         119.253       -0.0181935         144.572
0.595                   -1.90171        -174.155         -50.7886          116.78         -50.7887         116.779       -0.0183689         144.496
0.596                   -1.94379        -174.898         -50.6941         114.304         -50.6942         114.304       -0.0185467         144.419
0.597                   -1.98758        -175.646         -50.5987         111.826         -50.5988         111.826       -0.0187268         144.343
0.598                   -2.03314        -176.398         -50.5026         109.345         -50.5027         109.345       -0.0189095         144.266
0.599                   -2.08054        -177.155         -50.4057          106.86         -50.4058          106.86       -0.0190948         144.189
0.6                     -2.12984        -177.915         -50.3083          104.37         -50.3084         104.371       -0.0192828         144.112
0.601                   -2.18111        -178.677         -50.2104         101.876         -50.2105         101.876       -0.0194735         144.035
0.602                    -2.2344        -179.442         -50.1122         99.3753         -50.1123         99.3756       -0.0196671         143.957
0.603                   -2.28975         179.791         -50.0137         96.8692         -50.0138         96.8696       -0.0198636          143.88
0.604                   -2.34721         179.024         -49.9151          94.357         -49.9152         94.3574       -0.0200631         143.802
0.605                   -2.40679         178.257         -49.8166         91.8385         -49.8166          91.839       -0.0202658         143.724
0.606                   -2.46852         177.491         -49.7182         89.3136         -49.7182         89.3142       -0.0204716         143.645
0.607                   -2.53239         176.726         -49.6201         86.7824         -49.6201          86.783       -0.0206808         143.567
0.608                   -2.59839         175.965         -49.5224         84.2448         -49.5224         84.2455       -0.0208932         143.488
0.609                   -2.66649         175.207         -49.4252         81.7012         -49.4252         81.7019       -0.0211091         143.409
0.61                    -2.73665         174.455         -49.3286         79.1518         -49.3286         79.1525       -0.0213285          143.33
0.611                   -2.80879         173.707         -49.2329         76.5968         -49.2329         76.5975       -0.0215515          143.25
0.612                   -2.88285         172.966          -49.138         74.0366          -49.138         74.0374       -0.0217781         143.171
0.613                   -2.95871         172.233          -49.044         71.4718          -49.044         71.4726       -0.0220084         143.091
0.614                   -3.03626         171.508         -48.9511         68.9028         -48.9511         68.9036       -0.0222425         143.011
0.615                   -3.11538         170.791         -48.8594         66.3302         -48.8594         66.3309       -0.0224804         142.931
0.616                   -3.19591         170.084         -48.7688         63.7545         -48.7688         63.7553       -0.0227222          142.85
0.617                   -3.27769         169.387         -48.6795         61.1764         -48.6795         61.1772       -0.0229679         142.769
0.618                   -3.36057           168.7         -48.5916         58.5966         -48.5915         58.5973       -0.0232176         142.688
0.619                   -3.44437         168.023         -48.5049         56.0157         -48.5048         56.0164       -0.0234713         142.607
0.62                    -3.52891         167.356         -48.4196         53.4344         -48.4196         53.4351       -0.0237291         142.526
0.621                   -3.61402           166.7         -48.3358         50.8534         -48.3357          50.854        -0.023991         142.444
0.622                   -3.69953         166.054         -48.2533         48.2733         -48.2532         48.2739        -0.024257         142.362
0.623                   -3.78526         165.418         -48.1722         45.6948         -48.1721         45.6953       -0.0245271          142.28
0.624                   -3.87107          164.79         -48.0924         43.1185         -48.0924          43.119       -0.0248015         142.198
0.625                    -3.9568         164.171         -48.0141          40.545          -48.014         40.5455         -0.02508         142.115
0.626                   -4.04233          163.56          -47.937          37.975         -47.9369         37.9754       -0.0253628         142.032
0.627                   -4.12754         162.955         -47.8612          35.409         -47.8612         35.4093       -0.0256498         141.949
0.628                   -4.21233         162.357         -47.7867         32.8474         -47.7866         32.8477        -0.025941         141.865
0.629                   -4.29663         161.763         -47.7134         30.2909         -47.7133          30.291       -0.0262366         141.782
