! TOUCHSTONE file generated by CST MICROWAVE STUDIO
! Date and time: Mon Oct 26 12:08:33 2020
! Project name: Scenario_1_Circular_Tissue_out_of_Line_v2.cst
! Parameters = {dy1=103.8; L_HA=400; MT=2.54; Rad_Dielectric=30; Rad_Lower=7.3; Rad_Upper=30; a_HA=580; a_WG=246; b_HA=500; b_WG=121; c_HA=0; c_WG=187; d_feed=85; dx1=173; h_feed=15; h_lower=18; h_upper=40}
! Header version: 2018
! Port assignment regex: !\s*Touchstone port\s*([0-9]+)\s*=\s*(CST MWS port|CST DS port)\s*([0-9]+|Zmin|Zmax)\s*\(\"(.*)\"\)(\s*mode\s*([0-9]+))?.*
! Touchstone port assignment:
! Touchstone port 1 = CST MWS port 1 ("")
! Touchstone port 2 = CST MWS port 2 ("")
# GHz S DB R 50
0.5                    -0.110612        -122.526         -57.5865         128.202         -57.5865         128.202      -0.00698934          151.12
0.501                  -0.116922        -123.047         -57.3773         127.208         -57.3773         127.208      -0.00702578         151.054
0.502                  -0.123692        -123.567         -57.1675         126.204         -57.1675         126.204      -0.00706387         150.989
0.503                  -0.130917        -124.087         -56.9571         125.189          -56.957          125.19      -0.00710362         150.923
0.504                  -0.138591        -124.606         -56.7461         124.163          -56.746         124.164      -0.00714506         150.858
0.505                  -0.146708        -125.125         -56.5345         123.126         -56.5344         123.127      -0.00718821         150.792
0.506                  -0.155261        -125.643         -56.3223         122.077         -56.3222         122.078       -0.0072331         150.726
0.507                  -0.164245        -126.161         -56.1096         121.016         -56.1095         121.017      -0.00727974          150.66
0.508                  -0.173652        -126.678         -55.8963         119.942         -55.8962         119.944      -0.00732816         150.594
0.509                  -0.183477        -127.194         -55.6825         118.856         -55.6824         118.858      -0.00737838         150.528
0.51                   -0.193711        -127.709         -55.4682         117.757         -55.4681         117.758      -0.00743043         150.462
0.511                   -0.20435        -128.224         -55.2534         116.644         -55.2533         116.646      -0.00748433         150.396
0.512                  -0.215385        -128.738         -55.0382         115.518          -55.038          115.52       -0.0075401         150.329
0.513                  -0.226809        -129.251         -54.8225         114.377         -54.8223         114.379      -0.00759777         150.263
0.514                  -0.238615        -129.764         -54.6064         113.222         -54.6062         113.224      -0.00765736         150.196
0.515                  -0.250796        -130.275         -54.3899         112.052         -54.3898         112.054      -0.00771889          150.13
0.516                  -0.263345        -130.786         -54.1731         110.867          -54.173         110.869      -0.00778239         150.063
0.517                  -0.276254        -131.296         -53.9561         109.666         -53.9559         109.668      -0.00784789         149.996
0.518                  -0.289516        -131.806         -53.7387         108.449         -53.7385         108.451       -0.0079154         149.929
0.519                  -0.303123        -132.314         -53.5212         107.215          -53.521         107.217      -0.00798495         149.862
0.52                   -0.317067        -132.822         -53.3034         105.965         -53.3033         105.967      -0.00805657         149.795
0.521                  -0.331342        -133.329         -53.0856         104.698         -53.0854           104.7      -0.00813028         149.728
0.522                  -0.345939        -133.835         -52.8678         103.413         -52.8676         103.415      -0.00820611         149.661
0.523                   -0.36085         -134.34         -52.6499          102.11         -52.6497         102.112      -0.00828407         149.594
0.524                  -0.376069        -134.844         -52.4321         100.789         -52.4319         100.791       -0.0083642         149.526
0.525                  -0.391587        -135.348         -52.2145         99.4496         -52.2143         99.4515      -0.00844652         149.459
0.526                  -0.407396        -135.851         -51.9971         98.0911         -51.9969          98.093      -0.00853104         149.391
0.527                  -0.423489        -136.353           -51.78         96.7133         -51.7798         96.7151       -0.0086178         149.324
0.528                  -0.439859        -136.855         -51.5633          95.316         -51.5631         95.3178      -0.00870682         149.256
0.529                  -0.456497        -137.355         -51.3471         93.8988         -51.3469         93.9005      -0.00879812         149.188
0.53                   -0.473395        -137.855         -51.1314         92.4615         -51.1313         92.4631      -0.00889172          149.12
0.531                  -0.490547        -138.355         -50.9165         91.0038         -50.9163         91.0054      -0.00898765         149.052
0.532                  -0.507945        -138.853         -50.7023         89.5256         -50.7021         89.5271      -0.00908593         148.984
0.533                   -0.52558        -139.351          -50.489         88.0265         -50.4888         88.0279      -0.00918657         148.916
0.534                  -0.543446        -139.849         -50.2767         86.5065         -50.2765         86.5079       -0.0092896         148.847
0.535                  -0.561535        -140.346         -50.0655         84.9655         -50.0653         84.9667      -0.00939504         148.779
0.536                   -0.57984        -140.842         -49.8556         83.4033         -49.8554         83.4044      -0.00950291          148.71
0.537                  -0.598354        -141.338          -49.647         81.8199         -49.6468          81.821      -0.00961322         148.642
0.538                  -0.617068        -141.834         -49.4399         80.2154         -49.4398         80.2163      -0.00972599         148.573
0.539                  -0.635977        -142.329         -49.2345         78.5897         -49.2344         78.5906      -0.00984123         148.504
0.54                   -0.655073        -142.823         -49.0309         76.9431         -49.0308         76.9438      -0.00995897         148.435
0.541                  -0.674348        -143.317         -48.8291         75.2756         -48.8291         75.2763       -0.0100792         148.366
0.542                  -0.693797        -143.812         -48.6295         73.5875         -48.6294         73.5881        -0.010202         148.297
0.543                  -0.713413        -144.305          -48.432         71.8792          -48.432         71.8796       -0.0103273         148.228
0.544                  -0.733188        -144.799         -48.2369         70.1509         -48.2369         70.1512       -0.0104551         148.158
0.545                  -0.753116        -145.292         -48.0443         68.4031         -48.0443         68.4033       -0.0105854         148.089
0.546                  -0.773191        -145.786         -47.8543         66.6363         -47.8543         66.6365       -0.0107183         148.019
0.547                  -0.793408        -146.279         -47.6671          64.851         -47.6671         64.8511       -0.0108538          147.95
0.548                  -0.813758        -146.773         -47.4828          63.048         -47.4828          63.048       -0.0109918          147.88
0.549                  -0.834237        -147.266         -47.3015         61.2279         -47.3016         61.2279       -0.0111323          147.81
0.55                   -0.854839         -147.76         -47.1234         59.3915         -47.1235         59.3915       -0.0112754          147.74
0.551                  -0.875559        -148.254         -46.9487         57.5397         -46.9488         57.5396        -0.011421          147.67
0.552                   -0.89639        -148.748         -46.7773         55.6735         -46.7774         55.6733       -0.0115692           147.6
0.553                  -0.917327        -149.243         -46.6095         53.7937         -46.6096         53.7935       -0.0117198         147.529
0.554                  -0.938366        -149.738         -46.4452         51.9015         -46.4454         51.9012        -0.011873         147.459
0.555                  -0.959501        -150.233         -46.2847         49.9979         -46.2849         49.9976       -0.0120286         147.388
0.556                  -0.980728         -150.73          -46.128         48.0841         -46.1282         48.0839       -0.0121867         147.318
0.557                   -1.00204        -151.227         -45.9751         46.1614         -45.9754         46.1611       -0.0123472         147.247
0.558                   -1.02344        -151.724         -45.8262         44.2309         -45.8264         44.2307       -0.0125102         147.176
0.559                   -1.04492        -152.223         -45.6811          42.294         -45.6814         42.2937       -0.0126755         147.105
0.56                    -1.06647        -152.723         -45.5401         40.3519         -45.5404         40.3516       -0.0128431         147.034
0.561                   -1.08809        -153.223          -45.403         38.4059         -45.4033         38.4057       -0.0130131         146.963
0.562                   -1.10978        -153.725         -45.2699         36.4573         -45.2702         36.4572       -0.0131853         146.891
0.563                   -1.13154        -154.228         -45.1408         34.5076         -45.1411         34.5074       -0.0133597          146.82
0.564                   -1.15336        -154.732         -45.0156         32.5578          -45.016         32.5577       -0.0135363         146.748
0.565                   -1.17524        -155.238         -44.8943         30.6094         -44.8947         30.6094        -0.013715         146.677
0.566                   -1.19718        -155.746         -44.7768         28.6636         -44.7772         28.6636       -0.0138958         146.605
0.567                   -1.21918        -156.255         -44.6631         26.7215         -44.6635         26.7216       -0.0140785         146.533
0.568                   -1.24123        -156.765         -44.5531         24.7844         -44.5535         24.7846       -0.0142632         146.461
0.569                   -1.26333        -157.278         -44.4467         22.8534         -44.4471         22.8537       -0.0144498         146.388
0.57                    -1.28549        -157.793         -44.3437         20.9295         -44.3442         20.9299       -0.0146382         146.316
0.571                    -1.3077         -158.31         -44.2441         19.0138         -44.2446         19.0142       -0.0148283         146.244
0.572                   -1.32997        -158.829         -44.1478         17.1072         -44.1483         17.1077       -0.0150201         146.171
0.573                   -1.35228         -159.35         -44.0546         15.2105         -44.0551          15.211       -0.0152135         146.098
0.574                   -1.37466        -159.874         -43.9644         13.3245         -43.9649         13.3252       -0.0154084         146.026
0.575                   -1.39708        -160.401          -43.877         11.4501         -43.8775         11.4508       -0.0156048         145.953
0.576                   -1.41957         -160.93         -43.7923         9.58771         -43.7928         9.58852       -0.0158025          145.88
0.577                   -1.44212        -161.463         -43.7102         7.73807         -43.7107         7.73895       -0.0160015         145.806
0.578                   -1.46473        -161.998         -43.6305         5.90162         -43.6309         5.90258       -0.0162018         145.733
0.579                   -1.48741        -162.537          -43.553          4.0788         -43.5534         4.07983       -0.0164031         145.659
0.58                    -1.51015        -163.079         -43.4776         2.26997          -43.478         2.27107       -0.0166056         145.586
0.581                   -1.53298        -163.624         -43.4041        0.475398         -43.4046        0.476564        -0.016809         145.512
0.582                   -1.55588        -164.173         -43.3324        -1.30468         -43.3329        -1.30346       -0.0170134         145.438
0.583                   -1.57888        -164.726         -43.2624        -3.07013         -43.2628        -3.06884       -0.0172187         145.364
0.584                   -1.60196        -165.283         -43.1938        -4.82084         -43.1942         -4.8195       -0.0174247          145.29
0.585                   -1.62515        -165.844         -43.1266        -6.55679          -43.127        -6.55541       -0.0176316         145.215
0.586                   -1.64845         -166.41         -43.0606        -8.27801          -43.061        -8.27658       -0.0178391         145.141
0.587                   -1.67187         -166.98         -42.9956        -9.98455          -42.996        -9.98309       -0.0180472         145.066
0.588                   -1.69542        -167.554         -42.9316        -11.6766          -42.932        -11.6751        -0.018256         144.991
0.589                    -1.7191        -168.134         -42.8684        -13.3542         -42.8687        -13.3527       -0.0184654         144.916
0.59                    -1.74294        -168.719         -42.8058        -15.0176         -42.8062        -15.0161       -0.0186753         144.841
0.591                   -1.76695        -169.308         -42.7438        -16.6672         -42.7442        -16.6656       -0.0188858         144.765
0.592                   -1.79113        -169.904         -42.6823        -18.3031         -42.6826        -18.3015       -0.0190968          144.69
0.593                   -1.81551        -170.505         -42.6211        -19.9256         -42.6214        -19.9241       -0.0193083         144.614
0.594                   -1.84009        -171.111         -42.5602        -21.5352         -42.5605        -21.5336       -0.0195204         144.538
0.595                   -1.86491        -171.724         -42.4994        -23.1321         -42.4996        -23.1305        -0.019733         144.462
0.596                   -1.88997        -172.343         -42.4386        -24.7167         -42.4389        -24.7152       -0.0199462         144.386
0.597                    -1.9153        -172.968         -42.3778        -26.2895         -42.3781         -26.288       -0.0201601          144.31
0.598                   -1.94092        -173.601         -42.3169        -27.8509         -42.3172        -27.8494       -0.0203746         144.233
0.599                   -1.96685         -174.24         -42.2559        -29.4013         -42.2561        -29.3998       -0.0205898         144.156
0.6                     -1.99311        -174.886         -42.1945         -30.941         -42.1947        -30.9396       -0.0208058         144.079
0.601                   -2.01974        -175.539         -42.1329        -32.4707          -42.133        -32.4693       -0.0210226         144.002
0.602                   -2.04676          -176.2         -42.0708        -33.9907          -42.071        -33.9894       -0.0212404         143.925
0.603                    -2.0742        -176.869         -42.0084        -35.5016         -42.0085        -35.5003       -0.0214592         143.847
0.604                   -2.10209        -177.545         -41.9454        -37.0037         -41.9455        -37.0025       -0.0216791         143.769
0.605                   -2.13047         -178.23         -41.8819        -38.4976         -41.8821        -38.4964       -0.0219003         143.691
0.606                   -2.15937        -178.924         -41.8179        -39.9837          -41.818        -39.9826       -0.0221228         143.613
0.607                   -2.18883        -179.626         -41.7532        -41.4626         -41.7533        -41.4615       -0.0223467         143.535
0.608                   -2.21889         179.663          -41.688        -42.9346          -41.688        -42.9336       -0.0225722         143.456
0.609                    -2.2496         178.943          -41.622        -44.4003         -41.6221        -44.3994       -0.0227994         143.377
0.61                    -2.28099         178.213         -41.5554        -45.8601         -41.5554        -45.8593       -0.0230285         143.298
0.611                   -2.31313         177.474          -41.488        -47.3146         -41.4881        -47.3138       -0.0232595         143.219
0.612                   -2.34605         176.724           -41.42        -48.7641           -41.42        -48.7634       -0.0234927         143.139
0.613                   -2.37982         175.965         -41.3512        -50.2091         -41.3512        -50.2085       -0.0237281          143.06
0.614                   -2.41448         175.195         -41.2816        -51.6501         -41.2816        -51.6496       -0.0239659          142.98
0.615                    -2.4501         174.415         -41.2113        -53.0876         -41.2113        -53.0871       -0.0242064         142.899
0.616                   -2.48675         173.624         -41.1403        -54.5219         -41.1403        -54.5216       -0.0244495         142.819
0.617                   -2.52448         172.821         -41.0685        -55.9536         -41.0685        -55.9533       -0.0246955         142.738
0.618                   -2.56338         172.008         -40.9959        -57.3829         -40.9959        -57.3827       -0.0249446         142.657
0.619                    -2.6035         171.183         -40.9227        -58.8104         -40.9226        -58.8103       -0.0251969         142.576
0.62                    -2.64494         170.346         -40.8487        -60.2365         -40.8486        -60.2365       -0.0254525         142.495
0.621                   -2.68776         169.498         -40.7739        -61.6615         -40.7739        -61.6615       -0.0257117         142.413
0.622                   -2.73207         168.638         -40.6985        -63.0859         -40.6985         -63.086       -0.0259745         142.331
0.623                   -2.77793         167.765         -40.6224        -64.5099         -40.6224        -64.5101       -0.0262411         142.249
0.624                   -2.82546          166.88         -40.5457         -65.934         -40.5456        -65.9343       -0.0265118         142.166
0.625                   -2.87474         165.982         -40.4683        -67.3586         -40.4682        -67.3589       -0.0267865         142.083
0.626                   -2.92588         165.072         -40.3903        -68.7839         -40.3902        -68.7843       -0.0270656             142
0.627                   -2.97898          164.15         -40.3117        -70.2103         -40.3117        -70.2108       -0.0273491         141.917
0.628                   -3.03416         163.214         -40.2326        -71.6381         -40.2325        -71.6387       -0.0276372         141.834
0.629                   -3.09153         162.266          -40.153        -73.0676         -40.1529        -73.0683         -0.02793          141.75
