! TOUCHSTONE file generated by CST MICROWAVE STUDIO
! Date and time: Wed Oct 28 19:38:35 2020
! Project name: Scenario_1_Circular_Tissue_out_of_Line_v2.cst
! Parameters = {dy1=103.8; L_HA=400; MT=2.54; Rad_Dielectric=30; Rad_Lower=7.3; Rad_Upper=30; a_HA=580; a_WG=246; b_HA=500; b_WG=121; c_HA=0; c_WG=187; d_feed=85; dx1=346; h_feed=15; h_lower=18; h_upper=40}
! Header version: 2018
! Port assignment regex: !\s*Touchstone port\s*([0-9]+)\s*=\s*(CST MWS port|CST DS port)\s*([0-9]+|Zmin|Zmax)\s*\(\"(.*)\"\)(\s*mode\s*([0-9]+))?.*
! Touchstone port assignment:
! Touchstone port 1 = CST MWS port 1 ("")
! Touchstone port 2 = CST MWS port 2 ("")
# GHz S DB R 50
0.5                    -0.172124        -122.278         -58.5113         26.9951         -58.5113         26.9951      -0.00793667         151.118
0.501                  -0.177077        -122.703         -58.3629         25.4434         -58.3625         25.4435       -0.0080083         151.053
0.502                  -0.182093         -123.13         -58.2167         23.8903          -58.216         23.8902      -0.00808009         150.988
0.503                  -0.187175         -123.56         -58.0727         22.3366         -58.0716         22.3362      -0.00815203         150.922
0.504                  -0.192326        -123.992         -57.9307         20.7833         -57.9294         20.7825      -0.00822414         150.857
0.505                   -0.19755        -124.426         -57.7907         19.2311         -57.7891         19.2299      -0.00829641         150.791
0.506                  -0.202849        -124.862         -57.6524         17.6808         -57.6507         17.6791      -0.00836886         150.726
0.507                  -0.208229        -125.301         -57.5159         16.1331          -57.514         16.1309      -0.00844149          150.66
0.508                  -0.213692        -125.742         -57.3809         14.5885          -57.379         14.5857       -0.0085143         150.595
0.509                  -0.219242        -126.186         -57.2475         13.0475         -57.2455         13.0442       -0.0085873         150.529
0.51                   -0.224885        -126.632         -57.1154         11.5106         -57.1134         11.5069       -0.0086605         150.463
0.511                  -0.230624        -127.081         -56.9846         9.97822         -56.9825         9.97402       -0.0087339         150.397
0.512                  -0.236464        -127.532         -56.8549         8.45065         -56.8529         8.44603       -0.0088075         150.331
0.513                   -0.24241        -127.986         -56.7262         6.92815         -56.7242         6.92318      -0.00888133         150.265
0.514                  -0.248467        -128.443         -56.5984         5.41094         -56.5965         5.40567      -0.00895537         150.199
0.515                  -0.254642        -128.902         -56.4714         3.89917         -56.4696         3.89366      -0.00902964         150.132
0.516                  -0.260938        -129.364         -56.3451         2.39295         -56.3434         2.38725      -0.00910415         150.066
0.517                  -0.267362        -129.829         -56.2194        0.892318         -56.2177        0.886499      -0.00917891             150
0.518                  -0.273921        -130.297         -56.0942       -0.602705         -56.0926       -0.608587      -0.00925392         149.933
0.519                  -0.280621        -130.767         -55.9693        -2.09215         -55.9678        -2.09804      -0.00932919         149.867
0.52                   -0.287469        -131.241         -55.8447         -3.5761         -55.8434        -3.58194      -0.00940474           149.8
0.521                  -0.294471        -131.717         -55.7203        -5.05465         -55.7191        -5.06038      -0.00948057         149.733
0.522                  -0.301636        -132.197          -55.596        -6.52794         -55.5949        -6.53352      -0.00955669         149.666
0.523                  -0.308971        -132.679         -55.4718        -7.99613         -55.4707        -8.00152      -0.00963311         149.599
0.524                  -0.316483        -133.165         -55.3474        -9.45943         -55.3465        -9.46459      -0.00970985         149.532
0.525                  -0.324183        -133.654          -55.223        -10.9181         -55.2222        -10.9229      -0.00978692         149.465
0.526                  -0.332077        -134.146         -55.0983        -12.3722         -55.0976        -12.3768      -0.00986432         149.398
0.527                  -0.340176        -134.642         -54.9734        -13.8222         -54.9728        -13.8265      -0.00994208         149.331
0.528                   -0.34849         -135.14         -54.8481        -15.2683         -54.8476        -15.2723       -0.0100202         149.263
0.529                  -0.357027        -135.643         -54.7225        -16.7109          -54.722        -16.7144       -0.0100987         149.196
0.53                   -0.365799        -136.148         -54.5964        -18.1501          -54.596        -18.1532       -0.0101776         149.128
0.531                  -0.374816        -136.657         -54.4698        -19.5863         -54.4695        -19.5891       -0.0102569          149.06
0.532                  -0.384091        -137.169         -54.3426        -21.0199         -54.3425        -21.0222       -0.0103366         148.992
0.533                  -0.393633        -137.685         -54.2149        -22.4511         -54.2148        -22.4531       -0.0104168         148.925
0.534                  -0.403457        -138.205         -54.0866        -23.8804         -54.0866         -23.882       -0.0104974         148.857
0.535                  -0.413574        -138.728         -53.9576        -25.3081         -53.9576        -25.3093       -0.0105785         148.788
0.536                  -0.423998        -139.255          -53.828        -26.7346          -53.828        -26.7354       -0.0106601          148.72
0.537                  -0.434742        -139.785         -53.6976        -28.1601         -53.6977        -28.1605       -0.0107423         148.652
0.538                  -0.445821        -140.319         -53.5665        -29.5851         -53.5667        -29.5852       -0.0108249         148.584
0.539                   -0.45725        -140.857         -53.4346          -31.01         -53.4348        -31.0097       -0.0109081         148.515
0.54                   -0.469044        -141.399          -53.302        -32.4351         -53.3022        -32.4345       -0.0109919         148.446
0.541                  -0.481219        -141.944         -53.1686        -33.8608         -53.1689        -33.8598       -0.0110763         148.378
0.542                  -0.493791        -142.494         -53.0344        -35.2874         -53.0347        -35.2862       -0.0111613         148.309
0.543                  -0.506779        -143.047         -52.8994        -36.7154         -52.8997        -36.7139        -0.011247          148.24
0.544                  -0.520198        -143.604         -52.7636        -38.1451         -52.7639        -38.1433       -0.0113334         148.171
0.545                  -0.534068        -144.166         -52.6269        -39.5769         -52.6272        -39.5748       -0.0114205         148.102
0.546                  -0.548408        -144.731         -52.4895        -41.0111         -52.4898        -41.0088       -0.0115083         148.032
0.547                  -0.563236          -145.3         -52.3512        -42.4481         -52.3516        -42.4457       -0.0115969         147.963
0.548                  -0.578574        -145.873         -52.2122        -43.8883         -52.2125        -43.8857       -0.0116862         147.894
0.549                  -0.594441         -146.45         -52.0723        -45.3321         -52.0727        -45.3294       -0.0117765         147.824
0.55                   -0.610859         -147.03         -51.9317        -46.7798          -51.932        -46.7769       -0.0118675         147.754
0.551                   -0.62785        -147.615         -51.7903        -48.2317         -51.7906        -48.2288       -0.0119595         147.684
0.552                  -0.645436        -148.204         -51.6481        -49.6883         -51.6484        -49.6852       -0.0120524         147.614
0.553                  -0.663641        -148.797         -51.5053        -51.1498         -51.5056        -51.1467       -0.0121463         147.544
0.554                  -0.682486        -149.394         -51.3617        -52.6167         -51.3619        -52.6135       -0.0122413         147.474
0.555                  -0.701997        -149.994         -51.2174        -54.0892         -51.2177         -54.086       -0.0123372         147.404
0.556                  -0.722198        -150.599         -51.0724        -55.5676         -51.0727        -55.5644       -0.0124343         147.333
0.557                  -0.743114        -151.207         -50.9268        -57.0524         -50.9271        -57.0492       -0.0125325         147.263
0.558                  -0.764769        -151.819         -50.7807        -58.5438         -50.7809        -58.5406        -0.012632         147.192
0.559                  -0.787189        -152.434         -50.6339        -60.0421         -50.6342         -60.039       -0.0127326         147.121
0.56                   -0.810401        -153.054         -50.4867        -61.5476         -50.4869        -61.5446       -0.0128346          147.05
0.561                   -0.83443        -153.676         -50.3389        -63.0607         -50.3391        -63.0577       -0.0129378         146.979
0.562                  -0.859301        -154.302         -50.1907        -64.5816         -50.1909        -64.5787       -0.0130425         146.908
0.563                  -0.885042        -154.932          -50.042        -66.1105         -50.0422        -66.1077       -0.0131486         146.836
0.564                  -0.911679        -155.565         -49.8931        -67.6479         -49.8932        -67.6452       -0.0132563         146.765
0.565                  -0.939236        -156.201         -49.7438        -69.1938         -49.7439        -69.1912       -0.0133655         146.693
0.566                   -0.96774        -156.839         -49.5942        -70.7485         -49.5943         -70.746       -0.0134763         146.621
0.567                  -0.997216        -157.481         -49.4444        -72.3123         -49.4445          -72.31       -0.0135887         146.549
0.568                   -1.02769        -158.125         -49.2945        -73.8853         -49.2946        -73.8832        -0.013703         146.477
0.569                   -1.05918        -158.772         -49.1445        -75.4678         -49.1446        -75.4658        -0.013819         146.405
0.57                    -1.09172        -159.421         -48.9944          -77.06         -48.9945        -77.0581       -0.0139369         146.333
0.571                   -1.12532        -160.072         -48.8444        -78.6619         -48.8445        -78.6602       -0.0140567          146.26
0.572                   -1.16001        -160.725         -48.6944        -80.2738         -48.6945        -80.2722       -0.0141785         146.188
0.573                   -1.19581         -161.38         -48.5446        -81.8957         -48.5447        -81.8943       -0.0143024         146.115
0.574                   -1.23273        -162.036          -48.395        -83.5278         -48.3951        -83.5266       -0.0144285         146.042
0.575                   -1.27079        -162.693         -48.2457        -85.1702         -48.2458         -85.169       -0.0145567         145.969
0.576                      -1.31        -163.351         -48.0968        -86.8228         -48.0968        -86.8218       -0.0146872         145.896
0.577                   -1.35039         -164.01         -47.9483        -88.4858         -47.9483        -88.4849       -0.0148201         145.822
0.578                   -1.39194        -164.668         -47.8002        -90.1591         -47.8003        -90.1584       -0.0149554         145.749
0.579                   -1.43469        -165.327         -47.6528        -91.8427         -47.6528        -91.8421       -0.0150931         145.675
0.58                    -1.47861        -165.986         -47.5059        -93.5366          -47.506        -93.5362       -0.0152335         145.601
0.581                   -1.52373        -166.644         -47.3598        -95.2407         -47.3599        -95.2404       -0.0153764         145.527
0.582                   -1.57003        -167.301         -47.2145        -96.9549         -47.2146        -96.9547       -0.0155221         145.453
0.583                   -1.61752        -167.957         -47.0701        -98.6791         -47.0702        -98.6791       -0.0156705         145.379
0.584                   -1.66617        -168.611         -46.9266        -100.413         -46.9267        -100.413       -0.0158218         145.304
0.585                   -1.71598        -169.264         -46.7841        -102.157         -46.7842        -102.157       -0.0159759          145.23
0.586                   -1.76692        -169.913         -46.6426         -103.91         -46.6427         -103.91       -0.0161331         145.155
0.587                   -1.81898        -170.561         -46.5024        -105.672         -46.5025        -105.673       -0.0162932          145.08
0.588                   -1.87214        -171.205         -46.3633        -107.444         -46.3634        -107.444       -0.0164564         145.005
0.589                   -1.92635        -171.846         -46.2256        -109.224         -46.2257        -109.224       -0.0166228         144.929
0.59                    -1.98158        -172.483         -46.0891        -111.012         -46.0893        -111.012       -0.0167923         144.854
0.591                    -2.0378        -173.117         -45.9541        -112.808         -45.9543        -112.808       -0.0169651         144.778
0.592                   -2.09496        -173.746         -45.8206        -114.612         -45.8207        -114.612       -0.0171412         144.702
0.593                     -2.153         -174.37         -45.6886        -116.422         -45.6887        -116.423       -0.0173206         144.626
0.594                   -2.21189         -174.99         -45.5582         -118.24         -45.5583        -118.241       -0.0175034          144.55
0.595                   -2.27155        -175.605         -45.4294        -120.064         -45.4296        -120.064       -0.0176895         144.474
0.596                   -2.33193        -176.215         -45.3023        -121.893         -45.3024        -121.894       -0.0178791         144.397
0.597                   -2.39296        -176.819         -45.1769        -123.728         -45.1771        -123.729       -0.0180722          144.32
0.598                   -2.45458        -177.418         -45.0533        -125.568         -45.0534        -125.569       -0.0182687         144.243
0.599                   -2.51671        -178.011         -44.9314        -127.412         -44.9315        -127.413       -0.0184688         144.166
0.6                     -2.57928        -178.599         -44.8113         -129.26         -44.8115         -129.26       -0.0186723         144.089
0.601                   -2.64221         -179.18         -44.6931         -131.11         -44.6933        -131.111       -0.0188794         144.011
0.602                   -2.70543        -179.757         -44.5767        -132.964         -44.5769        -132.964       -0.0190899         143.934
0.603                   -2.76886         179.673         -44.4622        -134.819         -44.4623         -134.82        -0.019304         143.856
0.604                   -2.83241         179.108         -44.3495        -136.676         -44.3496        -136.676       -0.0195216         143.778
0.605                   -2.89602         178.548         -44.2386        -138.534         -44.2388        -138.534       -0.0197427           143.7
0.606                    -2.9596         177.994         -44.1297        -140.392         -44.1298        -140.392       -0.0199673         143.621
0.607                   -3.02308         177.444         -44.0225        -142.249         -44.0227         -142.25       -0.0201954         143.542
0.608                   -3.08638         176.899         -43.9172        -144.106         -43.9173        -144.107        -0.020427         143.464
0.609                   -3.14944         176.358         -43.8137        -145.962         -43.8138        -145.962       -0.0206619         143.384
0.61                    -3.21218         175.821         -43.7119        -147.816          -43.712        -147.816       -0.0209003         143.305
0.611                   -3.27455         175.288         -43.6119        -149.667          -43.612        -149.667       -0.0211422         143.226
0.612                   -3.33648         174.757         -43.5135        -151.516         -43.5137        -151.516       -0.0213873         143.146
0.613                   -3.39793         174.229         -43.4169        -153.361          -43.417        -153.361       -0.0216359         143.066
0.614                   -3.45885         173.703         -43.3218        -155.202         -43.3219        -155.202       -0.0218877         142.986
0.615                    -3.5192         173.178         -43.2283        -157.039         -43.2284        -157.039       -0.0221429         142.906
0.616                   -3.57894         172.653         -43.1363        -158.871         -43.1364        -158.871       -0.0224013         142.825
0.617                   -3.63805         172.129         -43.0457        -160.699         -43.0458        -160.699       -0.0226631         142.744
0.618                   -3.69651         171.605         -42.9566        -162.521         -42.9567        -162.521        -0.022928         142.663
0.619                   -3.75432         171.079         -42.8688        -164.337         -42.8688        -164.337       -0.0231962         142.582
0.62                    -3.81146         170.551         -42.7822        -166.147         -42.7823        -166.147       -0.0234676         142.501
0.621                   -3.86794          170.02         -42.6969        -167.951         -42.6969        -167.951       -0.0237422         142.419
0.622                   -3.92378         169.487         -42.6126        -169.748         -42.6127        -169.748         -0.02402         142.337
0.623                     -3.979         168.949         -42.5295        -171.539         -42.5295        -171.539       -0.0243011         142.255
0.624                   -4.03362         168.407         -42.4473        -173.323         -42.4474        -173.322       -0.0245853         142.172
0.625                   -4.08767          167.86         -42.3661        -175.099         -42.3661        -175.099       -0.0248727         142.089
0.626                   -4.14121         167.306         -42.2857        -176.869         -42.2857        -176.869       -0.0251634         142.006
0.627                   -4.19428         166.746         -42.2061        -178.631         -42.2061        -178.631       -0.0254574         141.923
0.628                   -4.24694         166.179         -42.1272         179.614         -42.1273         179.614       -0.0257546          141.84
0.629                   -4.29926         165.605          -42.049         177.866          -42.049         177.867       -0.0260551         141.756
