! TOUCHSTONE file generated by CST MICROWAVE STUDIO
! Date and time: Fri Oct 30 08:08:40 2020
! Project name: Scenario_1_Circular_Tissue_out_of_Line.cst
! Parameters = {dy1=104.866; L_HA=400; MT=2.54; Rad_Dielectric=30; Rad_Lower=7.3; Rad_Upper=30; a_HA=580; a_WG=246; b_HA=500; b_WG=121; c_HA=0; c_WG=187; d_feed=85; dx1=520; h_feed=15; h_lower=18; h_upper=40}
! Header version: 2018
! Port assignment regex: !\s*Touchstone port\s*([0-9]+)\s*=\s*(CST MWS port|CST DS port)\s*([0-9]+|Zmin|Zmax)\s*\(\"(.*)\"\)(\s*mode\s*([0-9]+))?.*
! Touchstone port assignment:
! Touchstone port 1 = CST MWS port 1 ("")
! Touchstone port 2 = CST MWS port 2 ("")
# GHz S DB R 50
0.5                    -0.132815        -122.491         -61.3429        -63.3876         -61.3429        -63.3876      -0.00736529         151.137
0.501                  -0.137406        -122.944         -61.1493        -64.8073         -61.1493        -64.8063      -0.00741935         151.071
0.502                  -0.142378          -123.4         -60.9546        -66.2456         -60.9546        -66.2437      -0.00747497         151.006
0.503                  -0.147744        -123.858         -60.7588         -67.703         -60.7588        -67.7002       -0.0075322         150.941
0.504                  -0.153512        -124.318          -60.562        -69.1798         -60.5621        -69.1762      -0.00759106         150.875
0.505                  -0.159691        -124.781         -60.3644        -70.6763         -60.3645        -70.6721      -0.00765157         150.809
0.506                   -0.16629        -125.245          -60.166         -72.193         -60.1661        -72.1881      -0.00771375         150.744
0.507                  -0.173315        -125.712          -59.967          -73.73          -59.967        -73.7245      -0.00777763         150.678
0.508                  -0.180774        -126.181         -59.7673        -75.2877         -59.7674        -75.2817      -0.00784323         150.612
0.509                  -0.188671        -126.652         -59.5672        -76.8664         -59.5673          -76.86      -0.00791055         150.546
0.51                   -0.197012        -127.124         -59.3668        -78.4664         -59.3668        -78.4595      -0.00797961          150.48
0.511                  -0.205798        -127.598         -59.1661        -80.0878         -59.1661        -80.0806      -0.00805042         150.414
0.512                  -0.215033        -128.074         -58.9653        -81.7308         -58.9653        -81.7233      -0.00812298         150.348
0.513                  -0.224716        -128.551         -58.7646        -83.3957         -58.7645         -83.388      -0.00819729         150.282
0.514                  -0.234846         -129.03          -58.564        -85.0825         -58.5639        -85.0746      -0.00827336         150.215
0.515                  -0.245422        -129.509         -58.3638        -86.7913         -58.3636        -86.7833      -0.00835117         150.149
0.516                   -0.25644         -129.99         -58.1639        -88.5221         -58.1638        -88.5142      -0.00843074         150.083
0.517                  -0.267893        -130.472         -57.9647         -90.275         -57.9645        -90.2671      -0.00851204         150.016
0.518                  -0.279775        -130.955         -57.7663        -92.0498          -57.766         -92.042      -0.00859506         149.949
0.519                  -0.292078        -131.438         -57.5687        -93.8465         -57.5684        -93.8388       -0.0086798         149.883
0.52                    -0.30479        -131.922         -57.3722        -95.6649         -57.3719        -95.6573      -0.00876623         149.816
0.521                  -0.317902        -132.407         -57.1769        -97.5047         -57.1766        -97.4973      -0.00885433         149.749
0.522                  -0.331398        -132.892          -56.983        -99.3655         -56.9826        -99.3585      -0.00894409         149.682
0.523                  -0.345265        -133.378         -56.7906        -101.247         -56.7902         -101.24      -0.00903548         149.615
0.524                  -0.359487        -133.863            -56.6        -103.149         -56.5995        -103.143      -0.00912847         149.548
0.525                  -0.374046         -134.35         -56.4112        -105.071         -56.4107        -105.065      -0.00922304          149.48
0.526                  -0.388924        -134.836         -56.2243        -107.011         -56.2239        -107.006      -0.00931916         149.413
0.527                    -0.4041        -135.322         -56.0397        -108.971         -56.0392        -108.965       -0.0094168         149.346
0.528                  -0.419556        -135.809         -55.8573        -110.948         -55.8568        -110.943      -0.00951592         149.278
0.529                  -0.435269        -136.296         -55.6774        -112.941         -55.6769        -112.937       -0.0096165         149.211
0.53                   -0.451217        -136.782            -55.5        -114.951         -55.4995        -114.948       -0.0097185         149.143
0.531                  -0.467379        -137.269         -55.3253        -116.977         -55.3248        -116.973      -0.00982188         149.075
0.532                  -0.483733        -137.756         -55.1535        -119.016          -55.153        -119.013      -0.00992661         149.007
0.533                  -0.500255        -138.243         -54.9845        -121.068          -54.984        -121.065       -0.0100327         148.939
0.534                  -0.516923         -138.73         -54.8186        -123.132         -54.8181         -123.13         -0.01014         148.871
0.535                  -0.533716        -139.218         -54.6557        -125.207         -54.6553        -125.205       -0.0102485         148.803
0.536                  -0.550612        -139.706          -54.496        -127.291         -54.4956         -127.29       -0.0103583         148.735
0.537                   -0.56759        -140.194         -54.3395        -129.384         -54.3391        -129.383       -0.0104692         148.667
0.538                  -0.584632        -140.683         -54.1863        -131.483         -54.1859        -131.483       -0.0105813         148.598
0.539                  -0.601718        -141.172         -54.0363        -133.589         -54.0359        -133.589       -0.0106945          148.53
0.54                   -0.618831        -141.663         -53.8896        -135.699         -53.8893        -135.699       -0.0108087         148.461
0.541                  -0.635956        -142.154         -53.7462        -137.812          -53.746        -137.813       -0.0109239         148.392
0.542                  -0.653077        -142.646         -53.6061        -139.927         -53.6059        -139.928       -0.0110402         148.324
0.543                  -0.670183        -143.139         -53.4693        -142.043         -53.4691        -142.044       -0.0111574         148.255
0.544                  -0.687262        -143.634         -53.3356        -144.158         -53.3354         -144.16       -0.0112755         148.186
0.545                  -0.704306         -144.13         -53.2051        -146.271          -53.205        -146.273       -0.0113945         148.117
0.546                  -0.721307        -144.629         -53.0776        -148.382         -53.0776        -148.384       -0.0115144         148.047
0.547                  -0.738261        -145.129         -52.9532        -150.488         -52.9532        -150.491       -0.0116352         147.978
0.548                  -0.755164        -145.631         -52.8316         -152.59         -52.8316        -152.592       -0.0117568         147.909
0.549                  -0.772016        -146.135         -52.7129        -154.685         -52.7129        -154.688       -0.0118792         147.839
0.55                   -0.788818        -146.642         -52.5968        -156.774         -52.5969        -156.777       -0.0120023         147.769
0.551                  -0.805572        -147.152         -52.4833        -158.855         -52.4835        -158.858       -0.0121263           147.7
0.552                  -0.822285        -147.664         -52.3723        -160.927         -52.3725         -160.93       -0.0122509          147.63
0.553                  -0.838964         -148.18         -52.2636        -162.991         -52.2638        -162.993       -0.0123763          147.56
0.554                  -0.855617        -148.699          -52.157        -165.044         -52.1572        -165.047       -0.0125024          147.49
0.555                  -0.872257        -149.222         -52.0525        -167.087         -52.0528         -167.09       -0.0126292          147.42
0.556                  -0.888896        -149.748         -51.9499         -169.12         -51.9502        -169.122       -0.0127568         147.349
0.557                   -0.90555        -150.278         -51.8491        -171.141         -51.8493        -171.144        -0.012885         147.279
0.558                  -0.922236        -150.812         -51.7498        -173.151         -51.7501        -173.153       -0.0130139         147.208
0.559                  -0.938971        -151.351          -51.652        -175.149         -51.6523        -175.151       -0.0131435         147.138
0.56                   -0.955776        -151.893         -51.5556        -177.135         -51.5559        -177.137       -0.0132737         147.067
0.561                  -0.972673        -152.441         -51.4603        -179.109         -51.4606        -179.111       -0.0134047         146.996
0.562                  -0.989685        -152.993         -51.3661         178.928         -51.3664         178.927       -0.0135364         146.925
0.563                   -1.00684         -153.55         -51.2728         176.978         -51.2731         176.977       -0.0136687         146.854
0.564                   -1.02416        -154.113         -51.1803          175.04         -51.1806         175.039       -0.0138018         146.782
0.565                   -1.04167         -154.68         -51.0885         173.113         -51.0888         173.112       -0.0139356         146.711
0.566                    -1.0594        -155.253         -50.9971         171.199         -50.9974         171.198       -0.0140702         146.639
0.567                   -1.07738        -155.831         -50.9063         169.295         -50.9065         169.294       -0.0142055         146.568
0.568                   -1.09565        -156.415         -50.8157         167.403          -50.816         167.402       -0.0143416         146.496
0.569                   -1.11424        -157.004         -50.7253         165.521         -50.7256         165.521       -0.0144785         146.424
0.57                    -1.13317          -157.6         -50.6351          163.65         -50.6353          163.65       -0.0146162         146.352
0.571                   -1.15248        -158.201         -50.5448         161.789          -50.545         161.789       -0.0147548          146.28
0.572                   -1.17221        -158.808         -50.4545         159.938         -50.4547         159.938       -0.0148942         146.207
0.573                   -1.19239        -159.422          -50.364         158.096         -50.3642         158.096       -0.0150346         146.135
0.574                   -1.21307        -160.041         -50.2733         156.263         -50.2734         156.263       -0.0151759         146.062
0.575                   -1.23427        -160.667         -50.1823         154.438         -50.1824         154.439       -0.0153182         145.989
0.576                   -1.25604        -161.299         -50.0909         152.622          -50.091         152.622       -0.0154616         145.916
0.577                   -1.27841        -161.937         -49.9991         150.812         -49.9992         150.813       -0.0156059         145.843
0.578                   -1.30143        -162.581         -49.9068          149.01         -49.9068         149.011       -0.0157514          145.77
0.579                   -1.32513        -163.232          -49.814         147.214          -49.814         147.215       -0.0158981         145.697
0.58                    -1.34956        -163.889         -49.7206         145.425         -49.7206         145.425       -0.0160459         145.623
0.581                   -1.37477        -164.553         -49.6267          143.64         -49.6266         143.641        -0.016195         145.549
0.582                   -1.40078        -165.223          -49.532         141.861         -49.5319         141.862       -0.0163454         145.475
0.583                   -1.42765        -165.899         -49.4367         140.086         -49.4366         140.087       -0.0164971         145.401
0.584                   -1.45542        -166.581         -49.3407         138.315         -49.3406         138.316       -0.0166502         145.327
0.585                   -1.48414         -167.27         -49.2441         136.547         -49.2438         136.548       -0.0168048         145.253
0.586                   -1.51384        -167.965         -49.1467         134.782         -49.1464         134.783       -0.0169608         145.178
0.587                   -1.54458        -168.666         -49.0485          133.02         -49.0483         133.021       -0.0171185         145.104
0.588                   -1.57641        -169.374         -48.9497          131.26         -48.9494         131.261       -0.0172778         145.029
0.589                   -1.60936        -170.087         -48.8501         129.501         -48.8498         129.502       -0.0174387         144.954
0.59                    -1.64348        -170.806         -48.7498         127.743         -48.7495         127.744       -0.0176015         144.879
0.591                   -1.67883        -171.531         -48.6488         125.986         -48.6484         125.986        -0.017766         144.803
0.592                   -1.71544        -172.261         -48.5471         124.229         -48.5467         124.229       -0.0179324         144.728
0.593                   -1.75337        -172.997         -48.4447         122.471         -48.4443         122.471       -0.0181008         144.652
0.594                   -1.79266        -173.738         -48.3416         120.712         -48.3412         120.713       -0.0182712         144.576
0.595                   -1.83337        -174.484         -48.2379         118.953         -48.2375         118.953       -0.0184437           144.5
0.596                   -1.87553        -175.236         -48.1336         117.192         -48.1332         117.192       -0.0186183         144.424
0.597                   -1.91919        -175.992         -48.0287         115.429         -48.0283         115.429       -0.0187952         144.347
0.598                   -1.96441        -176.752         -47.9233         113.663         -47.9228         113.663       -0.0189744         144.271
0.599                   -2.01122        -177.517         -47.8173         111.895         -47.8168         111.895        -0.019156         144.194
0.6                     -2.05967        -178.285         -47.7109         110.124         -47.7104         110.124       -0.0193401         144.117
0.601                   -2.10981        -179.057          -47.604          108.35         -47.6035         108.349       -0.0195266         144.039
0.602                   -2.16167        -179.833         -47.4968         106.572         -47.4963         106.571       -0.0197158         143.962
0.603                    -2.2153         179.389         -47.3892          104.79         -47.3887         104.789       -0.0199077         143.884
0.604                   -2.27075         178.607         -47.2813         103.004         -47.2808         103.003       -0.0201023         143.807
0.605                   -2.32804         177.824         -47.1731         101.214         -47.1727         101.213       -0.0202998         143.728
0.606                   -2.38722         177.038         -47.0648         99.4192         -47.0644         99.4182       -0.0205002          143.65
0.607                   -2.44832         176.251         -46.9563         97.6199         -46.9559         97.6188       -0.0207036         143.572
0.608                   -2.51137         175.463         -46.8478         95.8158         -46.8474         95.8146       -0.0209101         143.493
0.609                    -2.5764         174.675         -46.7392         94.0067         -46.7388         94.0055       -0.0211197         143.414
0.61                    -2.64344         173.886         -46.6307         92.1926         -46.6303         92.1913       -0.0213326         143.335
0.611                   -2.71251         173.098         -46.5222         90.3734         -46.5218         90.3721       -0.0215488         143.256
0.612                   -2.78362          172.31         -46.4139         88.5491         -46.4135         88.5477       -0.0217683         143.176
0.613                   -2.85681         171.524         -46.3058         86.7196         -46.3054         86.7181       -0.0219914         143.097
0.614                   -2.93207         170.739         -46.1979         84.8849         -46.1976         84.8834        -0.022218         143.017
0.615                   -3.00941         169.958         -46.0904         83.0452         -46.0901         83.0436       -0.0224483         142.936
0.616                   -3.08885         169.179         -45.9832         81.2003         -45.9829         81.1987       -0.0226823         142.856
0.617                   -3.17036         168.404         -45.8765         79.3505         -45.8762         79.3489         -0.02292         142.775
0.618                   -3.25395         167.633         -45.7702         77.4958           -45.77         77.4942       -0.0231617         142.694
0.619                    -3.3396         166.867         -45.6646         75.6364         -45.6643         75.6348       -0.0234073         142.613
0.62                    -3.42729         166.106         -45.5595         73.7725         -45.5593         73.7709       -0.0236569         142.532
0.621                     -3.517         165.352          -45.455         71.9042         -45.4548         71.9026       -0.0239107          142.45
0.622                   -3.60869         164.604         -45.3513         70.0317         -45.3511         70.0301       -0.0241686         142.368
0.623                   -3.70232         163.863         -45.2483         68.1553         -45.2481         68.1538       -0.0244308         142.286
0.624                   -3.79785          163.13          -45.146         66.2753         -45.1459         66.2738       -0.0246973         142.204
0.625                   -3.89522         162.406         -45.0447         64.3919         -45.0446         64.3904       -0.0249682         142.121
0.626                   -3.99437         161.691         -44.9441         62.5054         -44.9441          62.504       -0.0252437         142.038
0.627                   -4.09524         160.985         -44.8445         60.6161         -44.8445         60.6148       -0.0255237         141.955
0.628                   -4.19775         160.289         -44.7458         58.7245         -44.7458         58.7232       -0.0258083         141.872
0.629                   -4.30181         159.605         -44.6481         56.8307         -44.6481         56.8296       -0.0260977         141.788
