! TOUCHSTONE file generated by CST MICROWAVE STUDIO
! Date and time: Mon Oct 26 12:32:44 2020
! Project name: Scenario_1_Circular_Tissue_out_of_Line.cst
! Parameters = {dy1=104.866; L_HA=400; MT=2.54; Rad_Dielectric=30; Rad_Lower=7.3; Rad_Upper=30; a_HA=580; a_WG=246; b_HA=500; b_WG=121; c_HA=0; c_WG=187; d_feed=85; dx1=866; h_feed=15; h_lower=18; h_upper=40}
! Header version: 2018
! Port assignment regex: !\s*Touchstone port\s*([0-9]+)\s*=\s*(CST MWS port|CST DS port)\s*([0-9]+|Zmin|Zmax)\s*\(\"(.*)\"\)(\s*mode\s*([0-9]+))?.*
! Touchstone port assignment:
! Touchstone port 1 = CST MWS port 1 ("")
! Touchstone port 2 = CST MWS port 2 ("")
# GHz S DB R 50
0.5                    -0.142428        -122.256          -62.944         97.6613          -62.944         97.6613      -0.00743462         151.138
0.501                  -0.148269         -122.64         -62.9904         97.3509         -62.9904         97.3508      -0.00751786         151.073
0.502                  -0.154119        -123.027         -63.0385         97.0383         -63.0384          97.038      -0.00760128         151.007
0.503                  -0.159985        -123.417         -63.0883         96.7233         -63.0882         96.7229      -0.00768488         150.942
0.504                  -0.165873        -123.809         -63.1399          96.406         -63.1398         96.4055      -0.00776867         150.877
0.505                  -0.171789        -124.205         -63.1934         96.0864         -63.1932         96.0857      -0.00785267         150.811
0.506                  -0.177739        -124.604         -63.2489         95.7644         -63.2487         95.7635      -0.00793687         150.746
0.507                   -0.18373        -125.006         -63.3064         95.4398         -63.3062         95.4389       -0.0080213          150.68
0.508                  -0.189768        -125.411          -63.366         95.1128         -63.3658         95.1117      -0.00810595         150.614
0.509                  -0.195862        -125.819         -63.4279         94.7833         -63.4277          94.782      -0.00819084         150.549
0.51                   -0.202017        -126.231         -63.4922         94.4511         -63.4919         94.4496      -0.00827597         150.483
0.511                  -0.208242        -126.646         -63.5589         94.1163         -63.5585         94.1146      -0.00836136         150.417
0.512                  -0.214543        -127.064         -63.6281         93.7787         -63.6277         93.7769      -0.00844702         150.351
0.513                  -0.220928        -127.485         -63.7001         93.4384         -63.6996         93.4364      -0.00853296         150.285
0.514                  -0.227405         -127.91         -63.7748         93.0953         -63.7743          93.093      -0.00861918         150.219
0.515                  -0.233983        -128.338         -63.8525         92.7492          -63.852         92.7467      -0.00870569         150.153
0.516                  -0.240668         -128.77         -63.9333         92.4001         -63.9328         92.3975      -0.00879252         150.086
0.517                  -0.247471        -129.205         -64.0174          92.048         -64.0168         92.0452      -0.00887966          150.02
0.518                  -0.254398        -129.643         -64.1049         91.6928         -64.1042         91.6897      -0.00896713         149.953
0.519                   -0.26146        -130.085          -64.196         91.3344         -64.1953         91.3311      -0.00905494         149.887
0.52                   -0.268665         -130.53         -64.2909         90.9727         -64.2902         90.9691      -0.00914311          149.82
0.521                  -0.276022         -130.98         -64.3899         90.6075          -64.389         90.6037      -0.00923164         149.753
0.522                   -0.28354        -131.432          -64.493         90.2389         -64.4922         90.2348      -0.00932054         149.687
0.523                   -0.29123        -131.888         -64.6007         89.8667         -64.5998         89.8623      -0.00940983          149.62
0.524                  -0.299101        -132.348         -64.7131         89.4908         -64.7121          89.486      -0.00949952         149.553
0.525                  -0.307163        -132.812         -64.8306          89.111         -64.8295         89.1059      -0.00958962         149.486
0.526                  -0.315426        -133.279         -64.9534         88.7272         -64.9523         88.7218      -0.00968015         149.419
0.527                  -0.323901         -133.75         -65.0819         88.3393         -65.0807         88.3336      -0.00977112         149.351
0.528                  -0.332599        -134.225         -65.2165         87.9471         -65.2152          87.941      -0.00986254         149.284
0.529                   -0.34153        -134.703         -65.3575         87.5504         -65.3561          87.544      -0.00995442         149.217
0.53                   -0.350705        -135.186         -65.5054         87.1491          -65.504         87.1423       -0.0100468         149.149
0.531                  -0.360136        -135.672         -65.6607         86.7429         -65.6592         86.7357       -0.0101396         149.081
0.532                  -0.369834        -136.162          -65.824         86.3316         -65.8224         86.3239        -0.010233         149.014
0.533                  -0.379811        -136.655         -65.9957         85.9149          -65.994         85.9068       -0.0103269         148.946
0.534                  -0.390079        -137.153         -66.1766         85.4926         -66.1748         85.4839       -0.0104213         148.878
0.535                  -0.400649        -137.654         -66.3674         85.0643         -66.3655          85.055       -0.0105163          148.81
0.536                  -0.411535         -138.16         -66.5689         84.6296         -66.5669         84.6198       -0.0106118         148.742
0.537                  -0.422748        -138.669          -66.782         84.1881         -66.7799         84.1776        -0.010708         148.674
0.538                  -0.434303        -139.182         -67.0078         83.7393         -67.0055         83.7282       -0.0108047         148.606
0.539                   -0.44621        -139.699         -67.2473         83.2826         -67.2449         83.2708        -0.010902         148.537
0.54                   -0.458484         -140.22         -67.5019         82.8175         -67.4993         82.8049           -0.011         148.469
0.541                  -0.471138        -140.745         -67.7731         82.3431         -67.7704         82.3296       -0.0110986           148.4
0.542                  -0.484185        -141.274         -68.0626         81.8585         -68.0597         81.8441       -0.0111979         148.331
0.543                   -0.49764        -141.806         -68.3724         81.3626         -68.3693         81.3472       -0.0112979         148.263
0.544                  -0.511515        -142.343         -68.7048         80.8541         -68.7014         80.8376       -0.0113985         148.194
0.545                  -0.525825        -142.883         -69.0625         80.3315         -69.0589         80.3137       -0.0114999         148.125
0.546                  -0.540584        -143.428         -69.4486         79.7926         -69.4448         79.7735       -0.0116021         148.056
0.547                  -0.555807        -143.976         -69.8671         79.2351         -69.8629         79.2145       -0.0117049         147.987
0.548                  -0.571507        -144.529         -70.3226         78.6557          -70.318         78.6333       -0.0118086         147.917
0.549                    -0.5877        -145.085         -70.8206         78.0503         -70.8157         78.0259        -0.011913         147.848
0.55                     -0.6044        -145.645         -71.3683         77.4135         -71.3628         77.3868       -0.0120183         147.778
0.551                  -0.621623        -146.209         -71.9744         76.7377         -71.9683         76.7083       -0.0121244         147.709
0.552                  -0.639382        -146.777         -72.6502         76.0127         -72.6435         75.9801       -0.0122314         147.639
0.553                  -0.657694        -147.348         -73.4108         75.2235         -73.4033         75.1872       -0.0123392         147.569
0.554                  -0.676572        -147.923         -74.2762          74.348         -74.2676         74.3071       -0.0124479         147.499
0.555                  -0.696034        -148.503         -75.2745         73.3515         -75.2646         73.3048       -0.0125576         147.429
0.556                  -0.716093        -149.085         -76.4467         72.1764          -76.435         72.1223       -0.0126682         147.359
0.557                  -0.736765        -149.672         -77.8556         70.7199         -77.8413         70.6561       -0.0127797         147.288
0.558                  -0.758066        -150.262         -79.6043         68.7788         -79.5861         68.7015       -0.0128923         147.218
0.559                  -0.780011        -150.856         -81.8805         65.8883         -81.8557         65.7917       -0.0130058         147.147
0.56                   -0.802615        -151.454         -85.0753         60.7134          -85.037         60.5901       -0.0131204         147.077
0.561                  -0.825893        -152.055         -90.1649         47.5133         -90.0888         47.3931       -0.0132361         147.006
0.562                  -0.849862        -152.659         -96.8277        -15.0961         -96.7125        -14.2521       -0.0133528         146.935
0.563                  -0.874536        -153.267         -89.9246         -79.004         -89.9538        -78.5111       -0.0134706         146.864
0.564                  -0.899931        -153.878         -84.4526        -92.4652         -84.4772         -92.227       -0.0135896         146.793
0.565                  -0.926061        -154.493         -80.8976        -97.7282         -80.9162        -97.5759       -0.0137097         146.721
0.566                  -0.952943        -155.111         -78.2695        -100.686         -78.2842        -100.574        -0.013831          146.65
0.567                   -0.98059        -155.732          -76.172        -102.696         -76.1841        -102.609       -0.0139535         146.578
0.568                   -1.00902        -156.357         -74.4157        -104.232          -74.426         -104.16       -0.0140773         146.506
0.569                   -1.03824        -156.984         -72.8964        -105.497         -72.9053        -105.436       -0.0142023         146.435
0.57                    -1.06827        -157.615         -71.5508        -106.597         -71.5586        -106.544       -0.0143286         146.363
0.571                   -1.09913        -158.248         -70.3374        -107.589         -70.3444        -107.543       -0.0144562          146.29
0.572                   -1.13083        -158.884          -69.228        -108.509         -69.2342        -108.467       -0.0145852         146.218
0.573                   -1.16338        -159.523         -68.2021        -109.379         -68.2078        -109.342       -0.0147156         146.146
0.574                   -1.19679        -160.165         -67.2447        -110.215         -67.2498         -110.18       -0.0148473         146.073
0.575                   -1.23108        -160.809          -66.344        -111.027         -66.3487        -110.995       -0.0149806             146
0.576                   -1.26627        -161.456         -65.4912        -111.822         -65.4955        -111.793       -0.0151153         145.928
0.577                   -1.30236        -162.105          -64.679        -112.608          -64.683        -112.581       -0.0152514         145.855
0.578                   -1.33937        -162.757         -63.9016        -113.388         -63.9053        -113.363       -0.0153892         145.782
0.579                   -1.37731        -163.411         -63.1542        -114.167         -63.1576        -114.143       -0.0155285         145.708
0.58                    -1.41619        -164.066         -62.4327        -114.947         -62.4359        -114.925       -0.0156694         145.635
0.581                   -1.45602        -164.724         -61.7338         -115.73         -61.7367         -115.71       -0.0158119         145.561
0.582                   -1.49682        -165.384         -61.0544         -116.52         -61.0571        -116.501       -0.0159561         145.488
0.583                   -1.53859        -166.046         -60.3922        -117.319         -60.3947        -117.301       -0.0161021         145.414
0.584                   -1.58135        -166.709         -59.7448        -118.127         -59.7471        -118.111       -0.0162497          145.34
0.585                    -1.6251        -167.374         -59.1104        -118.948         -59.1125        -118.932       -0.0163992         145.265
0.586                   -1.66986         -168.04         -58.4871        -119.783         -58.4891        -119.768       -0.0165505         145.191
0.587                   -1.71563        -168.708         -57.8734        -120.633         -57.8753        -120.619       -0.0167036         145.116
0.588                   -1.76242        -169.377         -57.2679        -121.501         -57.2696        -121.488       -0.0168586         145.042
0.589                   -1.81023        -170.047         -56.6693        -122.388         -56.6709        -122.377       -0.0170155         144.967
0.59                    -1.85909        -170.718         -56.0764        -123.297         -56.0778        -123.286       -0.0171745         144.892
0.591                   -1.90898         -171.39         -55.4879         -124.23         -55.4892         -124.22       -0.0173354         144.817
0.592                   -1.95993        -172.063          -54.903        -125.188         -54.9041        -125.179       -0.0174984         144.741
0.593                   -2.01193        -172.736         -54.3204        -126.174         -54.3214        -126.166       -0.0176635         144.666
0.594                   -2.06499         -173.41         -53.7393        -127.192         -53.7402        -127.185       -0.0178307          144.59
0.595                   -2.11911        -174.084         -53.1588        -128.243         -53.1595        -128.237       -0.0180002         144.514
0.596                   -2.17431        -174.758         -52.5779        -129.332         -52.5785        -129.327       -0.0181718         144.438
0.597                   -2.23057        -175.432         -51.9957        -130.462         -51.9962        -130.458       -0.0183457         144.362
0.598                   -2.28791        -176.107         -51.4113        -131.637         -51.4117        -131.633        -0.018522         144.286
0.599                   -2.34633        -176.781         -50.8239        -132.861         -50.8242        -132.859       -0.0187006         144.209
0.6                     -2.40582        -177.455         -50.2326         -134.14         -50.2327        -134.139       -0.0188816         144.132
0.601                    -2.4664        -178.128         -49.6365        -135.481         -49.6365        -135.481       -0.0190651         144.055
0.602                   -2.52806        -178.801         -49.0348        -136.889         -49.0347         -136.89       -0.0192511         143.978
0.603                    -2.5908        -179.473         -48.4266        -138.372         -48.4263        -138.375       -0.0194397         143.901
0.604                   -2.65462         179.856          -47.811         -139.94         -47.8106        -139.944       -0.0196309         143.823
0.605                   -2.71952         179.186         -47.1872        -141.602         -47.1867        -141.608       -0.0198248         143.745
0.606                    -2.7855         178.517         -46.5544        -143.372         -46.5538        -143.379       -0.0200213         143.667
0.607                   -2.85255         177.849          -45.912        -145.261         -45.9113         -145.27       -0.0202207         143.589
0.608                   -2.92068         177.182         -45.2591        -147.287         -45.2583        -147.298       -0.0204229         143.511
0.609                   -2.98988         176.517         -44.5955        -149.469         -44.5946        -149.481       -0.0206279         143.432
0.61                    -3.06015         175.854         -43.9207        -151.827         -43.9198        -151.842       -0.0208359         143.353
0.611                   -3.13149         175.192          -43.235        -154.388          -43.234        -154.406       -0.0210469         143.275
0.612                   -3.20388         174.532         -42.5389        -157.181         -42.5379        -157.201       -0.0212609         143.195
0.613                   -3.27733         173.874         -41.8338        -160.238         -41.8328        -160.262       -0.0214781         143.116
0.614                   -3.35182         173.218         -41.1218        -163.599         -41.1209        -163.626       -0.0216983         143.036
0.615                   -3.42736         172.565         -40.4067        -167.304         -40.4059        -167.335       -0.0219218         142.956
0.616                   -3.50394         171.913          -39.694        -171.399         -39.6935        -171.433       -0.0221485         142.876
0.617                   -3.58155         171.265         -38.9916        -175.928         -38.9914        -175.966       -0.0223786         142.796
0.618                   -3.66018         170.618         -38.3102         179.071         -38.3104         179.028        -0.022612         142.715
0.619                   -3.73983         169.975         -37.6637         173.568         -37.6646         173.522       -0.0228489         142.635
0.62                    -3.82049         169.334         -37.0692          167.56         -37.0709         167.511       -0.0230894         142.554
0.621                   -3.90215         168.696         -36.5458         161.077         -36.5485         161.025       -0.0233336         142.472
0.622                    -3.9848         168.061         -36.1129          154.19         -36.1166         154.138       -0.0235817         142.391
0.623                   -4.06843          167.43         -35.7868         147.022         -35.7916         146.971       -0.0238338         142.309
0.624                   -4.15303         166.801         -35.5777         139.732         -35.5836         139.682         -0.02409         142.227
0.625                   -4.23859         166.176          -35.487         132.495         -35.4938          132.45       -0.0243505         142.145
0.626                   -4.32512         165.554         -35.5071         125.481         -35.5147         125.441        -0.024615         142.063
0.627                   -4.41259         164.935         -35.6233         118.824         -35.6313          118.79       -0.0248837          141.98
0.628                   -4.50101          164.32         -35.8166         112.614          -35.825         112.586       -0.0251566         141.897
0.629                   -4.59036         163.709         -36.0674         106.894          -36.076         106.871       -0.0254335         141.814
