! TOUCHSTONE file generated by CST MICROWAVE STUDIO
! Date and time: Sat Oct 24 11:47:51 2020
! Project name: Scenario_1_Circular_Tissue_out_of_Line.cst
! Parameters = {dy1=104.866; L_HA=400; MT=2.54; Rad_Dielectric=30; Rad_Lower=7.3; Rad_Upper=30; a_HA=580; a_WG=246; b_HA=500; b_WG=121; c_HA=0; c_WG=187; d_feed=85; dx1=1039; h_feed=15; h_lower=18; h_upper=40}
! Header version: 2018
! Port assignment regex: !\s*Touchstone port\s*([0-9]+)\s*=\s*(CST MWS port|CST DS port)\s*([0-9]+|Zmin|Zmax)\s*\(\"(.*)\"\)(\s*mode\s*([0-9]+))?.*
! Touchstone port assignment:
! Touchstone port 1 = CST MWS port 1 ("")
! Touchstone port 2 = CST MWS port 2 ("")
# GHz S DB R 50
0.5                    -0.146821        -122.311         -63.4415          -3.606         -63.4415          -3.606      -0.00762566         151.127
0.501                  -0.152748        -122.784         -63.2823        -5.54318          -63.284        -5.52828      -0.00768059         151.061
0.502                  -0.158986        -123.258         -63.1216        -7.49859          -63.125        -7.46937      -0.00773658         150.996
0.503                  -0.165534        -123.733         -62.9596        -9.47247         -62.9645        -9.42952      -0.00779364          150.93
0.504                  -0.172391        -124.209         -62.7962        -11.4651         -62.8025         -11.409      -0.00785177         150.865
0.505                  -0.179556        -124.686         -62.6315        -13.4767         -62.6392         -13.408      -0.00791099         150.799
0.506                  -0.187028        -125.164         -62.4655        -15.5075         -62.4745        -15.4268      -0.00797128         150.734
0.507                  -0.194805        -125.643         -62.2983        -17.5577         -62.3085        -17.4657      -0.00803266         150.668
0.508                  -0.202886        -126.123         -62.1299        -19.6277         -62.1412        -19.5249      -0.00809513         150.602
0.509                   -0.21127        -126.603         -61.9605        -21.7176         -61.9727        -21.6046      -0.00815869         150.536
0.51                   -0.219954        -127.085           -61.79        -23.8276         -61.8031         -23.705      -0.00822335          150.47
0.511                  -0.228939        -127.568         -61.6185         -25.958         -61.6324        -25.8265      -0.00828911         150.404
0.512                  -0.238221        -128.052         -61.4461         -28.109         -61.4607        -27.9691      -0.00835598         150.338
0.513                    -0.2478        -128.536         -61.2728        -30.2808          -61.288        -30.1331      -0.00842395         150.272
0.514                  -0.257673        -129.022         -61.0988        -32.4735         -61.1145        -32.3187      -0.00849304         150.206
0.515                  -0.267838        -129.508         -60.9241        -34.6874         -60.9402         -34.526      -0.00856325         150.139
0.516                  -0.278294        -129.996         -60.7488        -36.9225         -60.7652        -36.7552      -0.00863459         150.073
0.517                  -0.289038        -130.484          -60.573         -39.179         -60.5896        -39.0065      -0.00870705         150.006
0.518                  -0.300067        -130.973         -60.3968        -41.4571         -60.4135        -41.2799      -0.00878065          149.94
0.519                  -0.311381        -131.464         -60.2203        -43.7567          -60.237        -43.5756      -0.00885538         149.873
0.52                   -0.322977        -131.955         -60.0435        -46.0781         -60.0602        -45.8935      -0.00893126         149.806
0.521                  -0.334851        -132.447         -59.8667        -48.4211         -59.8833        -48.2338      -0.00900829         149.739
0.522                  -0.347002         -132.94         -59.6899        -50.7858         -59.7062        -50.5965      -0.00908648         149.672
0.523                  -0.359428        -133.434         -59.5132        -53.1721         -59.5292        -52.9814      -0.00916582         149.605
0.524                  -0.372125        -133.928         -59.3367          -55.58         -59.3524        -55.3885      -0.00924634         149.538
0.525                  -0.385091        -134.424         -59.1606        -58.0094         -59.1759        -57.8177      -0.00932803         149.471
0.526                  -0.398324        -134.921          -58.985          -60.46         -58.9998        -60.2689      -0.00941089         149.403
0.527                   -0.41182        -135.419           -58.81        -62.9317         -58.8242        -62.7418      -0.00949494         149.336
0.528                  -0.425577        -135.918         -58.6358        -65.4243         -58.6494        -65.2361      -0.00958019         149.268
0.529                  -0.439592        -136.417         -58.4624        -67.9373         -58.4754        -67.7516      -0.00966663         149.201
0.53                   -0.453862        -136.918         -58.2901        -70.4706         -58.3023        -70.2878      -0.00975428         149.133
0.531                  -0.468385         -137.42         -58.1188        -73.0235         -58.1304        -72.8444      -0.00984315         149.065
0.532                  -0.483156        -137.922         -57.9489        -75.5958         -57.9597        -75.4209      -0.00993323         148.997
0.533                  -0.498174        -138.426         -57.7803        -78.1868         -57.7904        -78.0167       -0.0100245         148.929
0.534                  -0.513435        -138.931         -57.6133        -80.7959         -57.6226        -80.6312       -0.0101171         148.861
0.535                  -0.528936        -139.437         -57.4479        -83.4226         -57.4564        -83.2637       -0.0102109         148.793
0.536                  -0.544674        -139.944         -57.2843        -86.0661          -57.292        -85.9136       -0.0103059         148.725
0.537                  -0.560647        -140.453         -57.1225        -88.7257         -57.1295          -88.58       -0.0104022         148.657
0.538                  -0.576851        -140.962         -56.9628        -91.4006          -56.969        -91.2621       -0.0104998         148.588
0.539                  -0.593283        -141.473         -56.8051        -94.0899         -56.8106        -93.9591       -0.0105986          148.52
0.54                    -0.60994        -141.985         -56.6497        -96.7927         -56.6545        -96.6699       -0.0106988         148.451
0.541                  -0.626819        -142.498         -56.4965        -99.5081         -56.5006        -99.3936       -0.0108002         148.382
0.542                  -0.643918        -143.013         -56.3457        -102.235         -56.3492        -102.129       -0.0109029         148.313
0.543                  -0.661233        -143.528         -56.1973        -104.972         -56.2002        -104.875       -0.0110069         148.244
0.544                  -0.678762        -144.046         -56.0515        -107.719         -56.0538        -107.631       -0.0111123         148.175
0.545                  -0.696502        -144.564         -55.9081        -110.475         -55.9099        -110.396        -0.011219         148.106
0.546                   -0.71445        -145.085         -55.7674        -113.237         -55.7688        -113.168        -0.011327         148.037
0.547                  -0.732604        -145.606         -55.6293        -116.006         -55.6302        -115.946       -0.0114364         147.967
0.548                  -0.750961         -146.13         -55.4938         -118.78         -55.4944        -118.729       -0.0115471         147.898
0.549                   -0.76952        -146.655         -55.3609        -121.558         -55.3613        -121.515       -0.0116592         147.828
0.55                   -0.788277        -147.181         -55.2307        -124.338         -55.2309        -124.305       -0.0117727         147.758
0.551                  -0.807232         -147.71         -55.1031         -127.12         -55.1031        -127.096       -0.0118875         147.689
0.552                  -0.826382         -148.24         -54.9781        -129.903          -54.978        -129.887       -0.0120038         147.619
0.553                  -0.845727        -148.772         -54.8557        -132.686         -54.8555        -132.678       -0.0121215         147.548
0.554                  -0.865264        -149.306         -54.7357        -135.467         -54.7355        -135.467       -0.0122405         147.478
0.555                  -0.884994        -149.842         -54.6182        -138.245         -54.6181        -138.253       -0.0123611         147.408
0.556                  -0.904914         -150.38          -54.503         -141.02          -54.503        -141.036        -0.012483         147.338
0.557                  -0.925027        -150.921         -54.3902        -143.791         -54.3903        -143.814       -0.0126064         147.267
0.558                   -0.94533        -151.463         -54.2795        -146.557         -54.2798        -146.586       -0.0127313         147.196
0.559                  -0.965826        -152.009          -54.171        -149.317         -54.1715        -149.352       -0.0128576         147.126
0.56                   -0.986515        -152.556         -54.0644        -152.071         -54.0652        -152.111       -0.0129854         147.055
0.561                    -1.0074        -153.106         -53.9598        -154.817         -53.9609        -154.863       -0.0131147         146.984
0.562                   -1.02848        -153.659          -53.857        -157.556         -53.8584        -157.606       -0.0132455         146.912
0.563                   -1.04976        -154.215         -53.7559        -160.286         -53.7576         -160.34       -0.0133778         146.841
0.564                   -1.07125        -154.773         -53.6563        -163.008         -53.6583        -163.065       -0.0135116          146.77
0.565                   -1.09294        -155.335         -53.5582         -165.72         -53.5606        -165.781       -0.0136469         146.698
0.566                   -1.11485          -155.9         -53.4614        -168.423         -53.4641        -168.486       -0.0137837         146.627
0.567                   -1.13698        -156.468         -53.3658        -171.116         -53.3689        -171.181        -0.013922         146.555
0.568                   -1.15933        -157.039         -53.2714          -173.8         -53.2748        -173.866       -0.0140619         146.483
0.569                   -1.18192        -157.614         -53.1779        -176.473         -53.1816        -176.541       -0.0142033         146.411
0.57                    -1.20476        -158.193         -53.0853        -179.137         -53.0893        -179.205       -0.0143462         146.339
0.571                   -1.22786        -158.775         -52.9934         178.209         -52.9978         178.141       -0.0144906         146.266
0.572                   -1.25122        -159.362         -52.9021         175.566         -52.9068         175.498       -0.0146365         146.194
0.573                   -1.27487        -159.952         -52.8114         172.932         -52.8163         172.865       -0.0147839         146.121
0.574                   -1.29882        -160.547         -52.7212         170.308         -52.7263         170.242       -0.0149329         146.048
0.575                   -1.32309        -161.147         -52.6312         167.694         -52.6365         167.628       -0.0150832         145.975
0.576                   -1.34769        -161.751         -52.5415         165.088          -52.547         165.025       -0.0152351         145.902
0.577                   -1.37266         -162.36         -52.4519         162.492         -52.4576          162.43       -0.0153884         145.829
0.578                   -1.39801        -162.973         -52.3624         159.904         -52.3682         159.845       -0.0155431         145.756
0.579                   -1.42377        -163.592         -52.2729         157.325         -52.2787         157.267       -0.0156991         145.682
0.58                    -1.44998        -164.217         -52.1833         154.753         -52.1892         154.698       -0.0158566         145.609
0.581                   -1.47666        -164.847         -52.0935         152.189         -52.0994         152.137       -0.0160153         145.535
0.582                   -1.50385        -165.482         -52.0036         149.632         -52.0094         149.582       -0.0161753         145.461
0.583                    -1.5316        -166.124         -51.9133         147.081         -51.9191         147.035       -0.0163365         145.387
0.584                   -1.55994        -166.771         -51.8228         144.536         -51.8285         144.493       -0.0164989         145.313
0.585                   -1.58892        -167.425         -51.7318         141.997         -51.7375         141.957       -0.0166624         145.238
0.586                   -1.61859        -168.084         -51.6405         139.463          -51.646         139.426        -0.016827         145.164
0.587                   -1.64901        -168.751         -51.5488         136.934         -51.5541           136.9       -0.0169927         145.089
0.588                   -1.68024        -169.423         -51.4566         134.408         -51.4617         134.377       -0.0171594         145.014
0.589                   -1.71233        -170.103          -51.364         131.886         -51.3689         131.858        -0.017327         144.939
0.59                    -1.74536        -170.789         -51.2709         129.367         -51.2755         129.341       -0.0174957         144.864
0.591                    -1.7794        -171.482         -51.1773          126.85         -51.1816         126.827       -0.0176654         144.789
0.592                   -1.81452        -172.181         -51.0832         124.335         -51.0873         124.315       -0.0178361         144.713
0.593                    -1.8508        -172.888         -50.9887         121.821         -50.9925         121.804       -0.0180079         144.637
0.594                   -1.88833          -173.6         -50.8937         119.308         -50.8972         119.293       -0.0181809         144.561
0.595                    -1.9272         -174.32         -50.7983         116.796         -50.8015         116.783       -0.0183552         144.485
0.596                   -1.96748        -175.045         -50.7026         114.283         -50.7054         114.272        -0.018531         144.409
0.597                   -2.00928        -175.777         -50.6064         111.769         -50.6089          111.76       -0.0187084         144.333
0.598                   -2.05269        -176.515         -50.5099         109.254         -50.5121         109.247       -0.0188876         144.256
0.599                   -2.09779        -177.258         -50.4132         106.738          -50.415         106.733        -0.019069         144.179
0.6                     -2.14468        -178.006         -50.3162          104.22         -50.3177         104.216       -0.0192527         144.102
0.601                   -2.19345        -178.758          -50.219         101.699         -50.2203         101.696        -0.019439         144.025
0.602                   -2.24418        -179.514         -50.1217         99.1757         -50.1227         99.1741       -0.0196282         143.947
0.603                   -2.29695         179.726         -50.0244         96.6493          -50.025         96.6485       -0.0198205         143.869
0.604                   -2.35183         178.964         -49.9271         94.1196         -49.9274         94.1195       -0.0200161         143.792
0.605                   -2.40889         178.201         -49.8298         91.5863         -49.8299         91.5868       -0.0202153         143.713
0.606                   -2.46816         177.437         -49.7327         89.0493         -49.7326         89.0502       -0.0204182         143.635
0.607                    -2.5297         176.673         -49.6359         86.5083         -49.6355         86.5095       -0.0206249         143.557
0.608                   -2.59351         175.911         -49.5393         83.9633         -49.5388         83.9646       -0.0208356         143.478
0.609                   -2.65959         175.151         -49.4431         81.4143         -49.4424         81.4156       -0.0210503         143.399
0.61                    -2.72793         174.395         -49.3475         78.8611         -49.3466         78.8623       -0.0212691          143.32
0.611                   -2.79849         173.643         -49.2523         76.3038         -49.2514         76.3049        -0.021492          143.24
0.612                    -2.8712         172.897         -49.1578         73.7425         -49.1568         73.7434       -0.0217189         143.161
0.613                   -2.94598         172.158         -49.0641         71.1773          -49.063         71.1779         -0.02195         143.081
0.614                   -3.02272         171.427         -48.9711         68.6084         -48.9699         68.6088       -0.0221852         143.001
0.615                   -3.10129         170.705          -48.879          66.036         -48.8778         66.0362       -0.0224244         142.921
0.616                   -3.18155         169.992         -48.7879         63.4605         -48.7867         63.4604       -0.0226677          142.84
0.617                   -3.26332          169.29         -48.6978         60.8821         -48.6966         60.8817       -0.0229149         142.759
0.618                   -3.34643         168.599         -48.6087         58.3012         -48.6077         58.3007        -0.023166         142.678
0.619                   -3.43067          167.92         -48.5209         55.7183         -48.5199         55.7176       -0.0234211         142.597
0.62                    -3.51584         167.252         -48.4342         53.1338         -48.4333          53.133       -0.0236802         142.516
0.621                   -3.60174         166.595         -48.3488         50.5482          -48.348         50.5475       -0.0239431         142.434
0.622                   -3.68815         165.951         -48.2647          47.962          -48.264         47.9614       -0.0242099         142.352
0.623                   -3.77487         165.317         -48.1819         45.3759         -48.1814         45.3755       -0.0244807          142.27
0.624                   -3.86171         164.694         -48.1005         42.7904         -48.1001         42.7902       -0.0247553         142.188
0.625                   -3.94847         164.082         -48.0205         40.2061         -48.0202         40.2063       -0.0250339         142.105
0.626                     -4.035         163.478         -47.9419         37.6237         -47.9417         37.6243       -0.0253164         142.022
0.627                   -4.12112         162.884         -47.8646         35.0438         -47.8645         35.0449        -0.025603         141.939
0.628                   -4.20672         162.296         -47.7887         32.4669         -47.7888         32.4687       -0.0258935         141.856
0.629                   -4.29168         161.714         -47.7142         29.8939         -47.7143         29.8963       -0.0261881         141.772
