! TOUCHSTONE file generated by CST MICROWAVE STUDIO
! Date and time: Mon Oct 26 12:08:41 2020
! Project name: Scenario_1_Circular_Tissue_out_of_Line_v2.cst
! Parameters = {dy1=121.1; L_HA=400; MT=2.54; Rad_Dielectric=30; Rad_Lower=7.3; Rad_Upper=30; a_HA=580; a_WG=246; b_HA=500; b_WG=121; c_HA=0; c_WG=187; d_feed=85; dx1=173; h_feed=15; h_lower=18; h_upper=40}
! Header version: 2018
! Port assignment regex: !\s*Touchstone port\s*([0-9]+)\s*=\s*(CST MWS port|CST DS port)\s*([0-9]+|Zmin|Zmax)\s*\(\"(.*)\"\)(\s*mode\s*([0-9]+))?.*
! Touchstone port assignment:
! Touchstone port 1 = CST MWS port 1 ("")
! Touchstone port 2 = CST MWS port 2 ("")
# GHz S DB R 50
0.5                    -0.113665        -122.516         -57.9417         127.295         -57.9417         127.295      -0.00688847         151.128
0.501                  -0.121211        -123.016         -57.7309         126.209         -57.7309          126.21      -0.00693265         151.063
0.502                  -0.129156        -123.517         -57.5197         125.117         -57.5197         125.118      -0.00697808         150.997
0.503                  -0.137497        -124.018         -57.3081         124.017         -57.3081         124.018       -0.0070248         150.932
0.504                  -0.146231        -124.519         -57.0961          122.91         -57.0961         122.911      -0.00707281         150.866
0.505                  -0.155355        -125.021         -56.8837         121.794         -56.8837         121.796      -0.00712214           150.8
0.506                  -0.164865        -125.523          -56.671          120.67          -56.671         120.672      -0.00717282         150.735
0.507                  -0.174758        -126.026         -56.4579         119.537         -56.4579         119.539      -0.00722486         150.669
0.508                   -0.18503        -126.529         -56.2445         118.395         -56.2444         118.398       -0.0072783         150.603
0.509                  -0.195677        -127.031         -56.0307         117.244         -56.0307         117.246      -0.00733316         150.537
0.51                   -0.206696        -127.535         -55.8166         116.082         -55.8166         116.085      -0.00738946         150.471
0.511                  -0.218081        -128.038         -55.6023         114.911         -55.6022         114.913      -0.00744723         150.405
0.512                  -0.229829        -128.541         -55.3876         113.728         -55.3876         113.731      -0.00750649         150.338
0.513                  -0.241935        -129.045         -55.1727         112.535         -55.1727         112.538      -0.00756728         150.272
0.514                  -0.254395        -129.549         -54.9576          111.33         -54.9575         111.333      -0.00762961         150.206
0.515                  -0.267203        -130.053         -54.7422         110.113         -54.7422         110.116      -0.00769353         150.139
0.516                  -0.280355        -130.557         -54.5267         108.884         -54.5267         108.887      -0.00775904         150.072
0.517                  -0.293846        -131.061         -54.3111         107.642          -54.311         107.646      -0.00782619         150.006
0.518                  -0.307671        -131.565         -54.0953         106.388         -54.0952         106.391      -0.00789501         149.939
0.519                  -0.321823        -132.069         -53.8794          105.12         -53.8793         105.123      -0.00796552         149.872
0.52                   -0.336299        -132.574         -53.6635         103.838         -53.6634         103.842      -0.00803775         149.805
0.521                  -0.351092        -133.078         -53.4476         102.542         -53.4475         102.546      -0.00811174         149.738
0.522                  -0.366197        -133.582         -53.2318         101.232         -53.2317         101.236      -0.00818752         149.671
0.523                  -0.381608        -134.086         -53.0161         99.9069         -53.0159         99.9104      -0.00826511         149.604
0.524                  -0.397319        -134.591         -52.8005         98.5665         -52.8004         98.5699      -0.00834456         149.536
0.525                  -0.413324        -135.095         -52.5852         97.2105          -52.585         97.2139       -0.0084259         149.469
0.526                  -0.429618        -135.599         -52.3701         95.8385         -52.3699         95.8419      -0.00850916         149.402
0.527                  -0.446194        -136.104         -52.1553         94.4503         -52.1552         94.4535      -0.00859437         149.334
0.528                  -0.463045        -136.608          -51.941         93.0454         -51.9408         93.0486      -0.00868158         149.266
0.529                  -0.480167        -137.112         -51.7272         91.6236          -51.727         91.6267      -0.00877081         149.199
0.53                   -0.497553        -137.617         -51.5139         90.1846         -51.5137         90.1876       -0.0088621         149.131
0.531                  -0.515195        -138.121         -51.3012         88.7281          -51.301          88.731      -0.00895549         149.063
0.532                  -0.533089        -138.626         -51.0893         87.2538         -51.0891         87.2566      -0.00905102         148.995
0.533                  -0.551227         -139.13         -50.8782         85.7615          -50.878         85.7642      -0.00914872         148.926
0.534                  -0.569604        -139.635         -50.6681         84.2511         -50.6678         84.2536      -0.00924863         148.858
0.535                  -0.588212        -140.139         -50.4589         82.7222         -50.4587         82.7246      -0.00935078          148.79
0.536                  -0.607045        -140.644         -50.2509         81.1749         -50.2506         81.1771      -0.00945522         148.721
0.537                  -0.626098        -141.149          -50.044         79.6089         -50.0438         79.6109      -0.00956198         148.653
0.538                  -0.645362        -141.654         -49.8386         78.0242         -49.8383          78.026       -0.0096711         148.584
0.539                  -0.664832        -142.159         -49.6345         76.4207         -49.6343         76.4224      -0.00978261         148.515
0.54                   -0.684502        -142.664          -49.432         74.7986         -49.4318            74.8      -0.00989656         148.446
0.541                  -0.704365         -143.17         -49.2312         73.1577          -49.231         73.1589        -0.010013         148.377
0.542                  -0.724414        -143.676         -49.0322         71.4983          -49.032         71.4993       -0.0101319         148.308
0.543                  -0.744644        -144.182         -48.8352         69.8204         -48.8349         69.8212       -0.0102533         148.239
0.544                  -0.765047        -144.688         -48.6402         68.1244         -48.6399         68.1249       -0.0103774          148.17
0.545                  -0.785618        -145.195         -48.4473         66.4103         -48.4471         66.4106        -0.010504         148.101
0.546                  -0.806351        -145.702         -48.2568         64.6787         -48.2566         64.6788       -0.0106333         148.031
0.547                  -0.827239        -146.209         -48.0687         62.9298         -48.0685         62.9296       -0.0107652         147.961
0.548                  -0.848276        -146.717         -47.8831         61.1641         -47.8829         61.1637       -0.0108998         147.892
0.549                  -0.869456        -147.226         -47.7003         59.3822         -47.7001         59.3815       -0.0110371         147.822
0.55                   -0.890774        -147.735         -47.5202         57.5845           -47.52         57.5836       -0.0111772         147.752
0.551                  -0.912224        -148.244          -47.343         55.7717         -47.3429         55.7705         -0.01132         147.682
0.552                  -0.933801        -148.754         -47.1689         53.9445         -47.1687         53.9431       -0.0114656         147.612
0.553                  -0.955498        -149.265         -46.9978         52.1037         -46.9977          52.102        -0.011614         147.542
0.554                   -0.97731        -149.777         -46.8301           50.25           -46.83         50.2482       -0.0117652         147.471
0.555                  -0.999232         -150.29         -46.6656         48.3844         -46.6655         48.3823       -0.0119191         147.401
0.556                   -1.02126        -150.803         -46.5045         46.5077         -46.5045         46.5054       -0.0120759          147.33
0.557                   -1.04339        -151.318         -46.3469         44.6209         -46.3469         44.6184       -0.0122354         147.259
0.558                   -1.06561        -151.833         -46.1929         42.7251         -46.1929         42.7224       -0.0123977         147.189
0.559                   -1.08793         -152.35         -46.0424         40.8212         -46.0425         40.8184       -0.0125628         147.118
0.56                    -1.11033        -152.868         -45.8956         38.9104         -45.8957         38.9074       -0.0127306         147.047
0.561                   -1.13282        -153.387         -45.7525         36.9938         -45.7526         36.9906       -0.0129011         146.976
0.562                   -1.15538        -153.907         -45.6131         35.0725         -45.6132         35.0691       -0.0130742         146.904
0.563                   -1.17802        -154.429         -45.4774         33.1476         -45.4776          33.144         -0.01325         146.833
0.564                   -1.20073        -154.953         -45.3454         31.2202         -45.3456         31.2166       -0.0134284         146.761
0.565                   -1.22352        -155.478         -45.2171         29.2916         -45.2173         29.2878       -0.0136093          146.69
0.566                   -1.24637        -156.004         -45.0925         27.3628         -45.0928          27.359       -0.0137926         146.618
0.567                   -1.26928        -156.533         -44.9715         25.4351         -44.9718         25.4311       -0.0139783         146.546
0.568                   -1.29226        -157.063         -44.8541         23.5094         -44.8544         23.5054       -0.0141663         146.474
0.569                    -1.3153        -157.596         -44.7402         21.5868         -44.7406         21.5828       -0.0143565         146.402
0.57                     -1.3384         -158.13         -44.6298         19.6685         -44.6302         19.6644       -0.0145488          146.33
0.571                   -1.36156        -158.667         -44.5228         17.7553         -44.5232         17.7512       -0.0147431         146.257
0.572                   -1.38478        -159.206          -44.419         15.8483         -44.4195         15.8441       -0.0149393         146.185
0.573                   -1.40805        -159.747         -44.3185         13.9483          -44.319         13.9441       -0.0151372         146.112
0.574                   -1.43139        -160.291          -44.221         12.0562         -44.2215          12.052       -0.0153369          146.04
0.575                   -1.45479        -160.838         -44.1265         10.1727          -44.127         10.1686        -0.015538         145.967
0.576                   -1.47825        -161.387         -44.0348         8.29865         -44.0354         8.29456       -0.0157406         145.894
0.577                   -1.50177         -161.94         -43.9458         6.43466         -43.9465         6.43062       -0.0159444         145.821
0.578                   -1.52536        -162.495         -43.8595         4.58134         -43.8601         4.57736       -0.0161494         145.747
0.579                   -1.54902        -163.054         -43.7756         2.73921         -43.7762         2.73531       -0.0163553         145.674
0.58                    -1.57276        -163.616          -43.694        0.908769         -43.6947        0.904941       -0.0165622         145.601
0.581                   -1.59657        -164.181         -43.6146       -0.909589         -43.6153       -0.913329       -0.0167698         145.527
0.582                   -1.62047        -164.751         -43.5373        -2.71551          -43.538        -2.71916       -0.0169781         145.453
0.583                   -1.64445        -165.323         -43.4618        -4.50872         -43.4626        -4.51227       -0.0171869         145.379
0.584                   -1.66854          -165.9         -43.3882        -6.28899         -43.3889        -6.29243       -0.0173961         145.305
0.585                   -1.69273        -166.481         -43.3162        -8.05616         -43.3169        -8.05948       -0.0176056         145.231
0.586                   -1.71703        -167.066         -43.2457        -9.81011         -43.2464        -9.81331       -0.0178154         145.157
0.587                   -1.74146        -167.656         -43.1765        -11.5508         -43.1773        -11.5539       -0.0180253         145.082
0.588                   -1.76602         -168.25         -43.1086        -13.2782         -43.1094        -13.2812       -0.0182353         145.007
0.589                   -1.79072        -168.849         -43.0418        -14.9924         -43.0426        -14.9952       -0.0184453         144.932
0.59                    -1.81558        -169.453          -42.976        -16.6934         -42.9768        -16.6961       -0.0186554         144.857
0.591                   -1.84061        -170.062         -42.9111        -18.3815         -42.9119         -18.384       -0.0188654         144.782
0.592                   -1.86583        -170.676         -42.8469        -20.0567         -42.8477        -20.0591       -0.0190754         144.707
0.593                   -1.89125        -171.296         -42.7833        -21.7192         -42.7842        -21.7215       -0.0192854         144.631
0.594                   -1.91689        -171.922         -42.7203        -23.3694         -42.7212        -23.3715       -0.0194954         144.556
0.595                   -1.94276        -172.553         -42.6578        -25.0074         -42.6586        -25.0094       -0.0197055          144.48
0.596                   -1.96889         -173.19         -42.5956        -26.6336         -42.5964        -26.6355       -0.0199157         144.404
0.597                    -1.9953        -173.834         -42.5336        -28.2483         -42.5344        -28.2501        -0.020126         144.328
0.598                   -2.02202        -174.484         -42.4718        -29.8519         -42.4726        -29.8535       -0.0203367         144.251
0.599                   -2.04906        -175.141         -42.4101        -31.4446         -42.4109        -31.4461       -0.0205477         144.175
0.6                     -2.07645        -175.805         -42.3484        -33.0269         -42.3492        -33.0283       -0.0207593         144.098
0.601                   -2.10422        -176.476         -42.2866        -34.5992         -42.2874        -34.6005       -0.0209714         144.021
0.602                   -2.13241        -177.154         -42.2247        -36.1619         -42.2254         -36.163       -0.0211843         143.944
0.603                   -2.16103        -177.839         -42.1625        -37.7154         -42.1633        -37.7164        -0.021398         143.866
0.604                   -2.19014        -178.533         -42.1002        -39.2601         -42.1009         -39.261       -0.0216129         143.789
0.605                   -2.21976        -179.234         -42.0375        -40.7965         -42.0382        -40.7973       -0.0218289         143.711
0.606                   -2.24993        -179.944         -41.9745         -42.325         -41.9752        -42.3257       -0.0220462         143.633
0.607                    -2.2807         179.338          -41.911         -43.846         -41.9118        -43.8466       -0.0222651         143.555
0.608                    -2.3121         178.612         -41.8472        -45.3601         -41.8479        -45.3606       -0.0224857         143.476
0.609                   -2.34418         177.876         -41.7829        -46.8676         -41.7835        -46.8681       -0.0227082         143.398
0.61                      -2.377         177.132          -41.718         -48.369         -41.7187        -48.3694       -0.0229327         143.319
0.611                    -2.4106         176.378         -41.6527        -49.8649         -41.6533        -49.8652       -0.0231594          143.24
0.612                   -2.44503         175.615         -41.5868        -51.3555         -41.5874        -51.3557       -0.0233885         143.161
0.613                   -2.48035         174.842         -41.5203        -52.8414         -41.5209        -52.8415       -0.0236202         143.081
0.614                   -2.51663          174.06         -41.4532        -54.3229         -41.4538         -54.323       -0.0238547         143.001
0.615                   -2.55393         173.267         -41.3856        -55.8007         -41.3862        -55.8007        -0.024092         142.921
0.616                   -2.59231         172.464         -41.3174         -57.275         -41.3179        -57.2749       -0.0243324         142.841
0.617                   -2.63184          171.65         -41.2485        -58.7463         -41.2491        -58.7462        -0.024576         142.761
0.618                    -2.6726         170.826         -41.1791         -60.215         -41.1796        -60.2149        -0.024823          142.68
0.619                   -2.71466         169.991          -41.109        -61.6816         -41.1095        -61.6814       -0.0250736         142.599
0.62                    -2.75811         169.145         -41.0384        -63.1464         -41.0389        -63.1461       -0.0253278         142.518
0.621                   -2.80303         168.288         -40.9672        -64.6098         -40.9676        -64.6095        -0.025586         142.436
0.622                    -2.8495          167.42         -40.8954        -66.0722         -40.8958        -66.0719       -0.0258481         142.355
0.623                   -2.89763          166.54         -40.8231         -67.534         -40.8235        -67.5337       -0.0261143         142.273
0.624                   -2.94749         165.649         -40.7502        -68.9955         -40.7506        -68.9952       -0.0263848          142.19
0.625                   -2.99921         164.747         -40.6768        -70.4572         -40.6772        -70.4568       -0.0266597         142.108
0.626                   -3.05288         163.832          -40.603        -71.9192         -40.6033        -71.9189       -0.0269391         142.025
0.627                    -3.1086         162.907         -40.5286         -73.382          -40.529        -73.3816       -0.0272232         141.942
0.628                    -3.1665         161.969         -40.4539        -74.8459         -40.4542        -74.8455       -0.0275121         141.859
0.629                   -3.22668         161.021         -40.3787        -76.3111         -40.3791        -76.3107       -0.0278058         141.775
