! TOUCHSTONE file generated by CST MICROWAVE STUDIO
! Date and time: Fri Oct 30 08:08:30 2020
! Project name: Scenario_1_Circular_Tissue_out_of_Line.cst
! Parameters = {dy1=122.207; L_HA=400; MT=2.54; Rad_Dielectric=30; Rad_Lower=7.3; Rad_Upper=30; a_HA=580; a_WG=246; b_HA=500; b_WG=121; c_HA=0; c_WG=187; d_feed=85; dx1=520; h_feed=15; h_lower=18; h_upper=40}
! Header version: 2018
! Port assignment regex: !\s*Touchstone port\s*([0-9]+)\s*=\s*(CST MWS port|CST DS port)\s*([0-9]+|Zmin|Zmax)\s*\(\"(.*)\"\)(\s*mode\s*([0-9]+))?.*
! Touchstone port assignment:
! Touchstone port 1 = CST MWS port 1 ("")
! Touchstone port 2 = CST MWS port 2 ("")
# GHz S DB R 50
0.5                    -0.133511        -122.475         -61.4689        -64.5672         -61.4677        -64.5638      -0.00736263         151.134
0.501                  -0.139092        -122.923         -61.2743        -65.9943         -61.2731        -65.9905       -0.0074257         151.068
0.502                  -0.144943        -123.374         -61.0786          -67.44         -61.0773        -67.4359      -0.00748934         151.003
0.503                  -0.151073        -123.826         -60.8818        -68.9046         -60.8805        -68.9002      -0.00755359         150.937
0.504                  -0.157492        -124.281          -60.684        -70.3885         -60.6827        -70.3838      -0.00761847         150.872
0.505                  -0.164209        -124.738         -60.4854         -71.892         -60.4841        -71.8871      -0.00768405         150.806
0.506                  -0.171235        -125.197          -60.286        -73.4155         -60.2847        -73.4105      -0.00775035         150.741
0.507                  -0.178577        -125.658         -60.0859        -74.9593         -60.0846        -74.9542      -0.00781743         150.675
0.508                  -0.186246        -126.122         -59.8852        -76.5238         -59.8839        -76.5186      -0.00788534         150.609
0.509                  -0.194252        -126.587         -59.6841        -78.1091         -59.6827        -78.1039      -0.00795415         150.543
0.51                   -0.202602        -127.055         -59.4826        -79.7156         -59.4812        -79.7104      -0.00802391         150.477
0.511                  -0.211306        -127.525         -59.2808        -81.3434         -59.2795        -81.3383       -0.0080947         150.411
0.512                  -0.220372        -127.996          -59.079        -82.9929         -59.0777        -82.9879      -0.00816657         150.345
0.513                  -0.229808         -128.47         -58.8772        -84.6642         -58.8759        -84.6592      -0.00823961         150.278
0.514                   -0.23962        -128.945         -58.6755        -86.3573         -58.6743        -86.3525      -0.00831387         150.212
0.515                  -0.249814        -129.422         -58.4742        -88.0724          -58.473        -88.0678      -0.00838944         150.146
0.516                  -0.260396        -129.901         -58.2733        -89.8096         -58.2721        -89.8052      -0.00846639         150.079
0.517                  -0.271371        -130.381          -58.073        -91.5688         -58.0718        -91.5646      -0.00854479         150.013
0.518                   -0.28274        -130.862         -57.8734          -93.35         -57.8723        -93.3459       -0.0086247         149.946
0.519                  -0.294507        -131.345         -57.6747         -95.153         -57.6736        -95.1492       -0.0087062         149.879
0.52                   -0.306671         -131.83         -57.4771        -96.9777         -57.4761        -96.9741      -0.00878935         149.812
0.521                  -0.319232        -132.315         -57.2807        -98.8238         -57.2797        -98.8205      -0.00887419         149.745
0.522                  -0.332186        -132.801         -57.0857        -100.691         -57.0847        -100.688      -0.00896079         149.678
0.523                  -0.345529        -133.288         -56.8921        -102.579         -56.8913        -102.576      -0.00904917         149.611
0.524                  -0.359255        -133.776         -56.7003        -104.488         -56.6995        -104.485      -0.00913938         149.544
0.525                  -0.373356        -134.265         -56.5104        -106.416         -56.5096        -106.413      -0.00923143         149.477
0.526                  -0.387821        -134.755         -56.3224        -108.363         -56.3217        -108.361      -0.00932534         149.409
0.527                  -0.402637        -135.245         -56.1366        -110.329         -56.1359        -110.327       -0.0094211         149.342
0.528                  -0.417791        -135.735          -55.953        -112.313         -55.9524        -112.311      -0.00951872         149.274
0.529                  -0.433267        -136.225         -55.7719        -114.314         -55.7714        -114.312      -0.00961817         149.207
0.53                   -0.449045        -136.716         -55.5934        -116.331         -55.5929        -116.329      -0.00971942         149.139
0.531                  -0.465105        -137.207         -55.4176        -118.363         -55.4171        -118.362      -0.00982243         149.071
0.532                  -0.481427        -137.699         -55.2445        -120.409         -55.2442        -120.408      -0.00992717         149.003
0.533                  -0.497986         -138.19         -55.0744        -122.469         -55.0741        -122.468       -0.0100336         148.935
0.534                  -0.514757        -138.681         -54.9072         -124.54          -54.907        -124.539       -0.0101416         148.867
0.535                  -0.531716        -139.173         -54.7432        -126.623          -54.743        -126.622       -0.0102511         148.799
0.536                  -0.548835        -139.664         -54.5823        -128.715         -54.5822        -128.714       -0.0103621          148.73
0.537                  -0.566087        -140.156         -54.4246        -130.815         -54.4245        -130.815       -0.0104745         148.662
0.538                  -0.583445        -140.648         -54.2702        -132.923         -54.2701        -132.922       -0.0105882         148.594
0.539                  -0.600883         -141.14          -54.119        -135.036          -54.119        -135.036       -0.0107032         148.525
0.54                   -0.618373        -141.633         -53.9711        -137.155         -53.9712        -137.154       -0.0108193         148.456
0.541                  -0.635891        -142.126         -53.8266        -139.276         -53.8267        -139.275       -0.0109366         148.387
0.542                  -0.653413        -142.619         -53.6853          -141.4         -53.6854        -141.399       -0.0110548         148.319
0.543                  -0.670915        -143.114         -53.5472        -143.524         -53.5473        -143.523       -0.0111741          148.25
0.544                  -0.688379        -143.609         -53.4123        -145.648         -53.4125        -145.647       -0.0112942         148.181
0.545                  -0.705786        -144.105         -53.2806        -147.771         -53.2808         -147.77       -0.0114151         148.111
0.546                   -0.72312        -144.603          -53.152         -149.89         -53.1522        -149.889       -0.0115369         148.042
0.547                   -0.74037        -145.103         -53.0263        -152.006         -53.0265        -152.005       -0.0116594         147.973
0.548                  -0.757525        -145.604         -52.9036        -154.117         -52.9038        -154.117       -0.0117826         147.903
0.549                   -0.77458        -146.108         -52.7836        -156.223         -52.7839        -156.222       -0.0119065         147.834
0.55                   -0.791532        -146.613         -52.6663        -158.321         -52.6666         -158.32        -0.012031         147.764
0.551                  -0.808381        -147.122         -52.5517        -160.413         -52.5519        -160.412       -0.0121561         147.694
0.552                  -0.825131        -147.633         -52.4394        -162.496         -52.4397        -162.495       -0.0122818         147.624
0.553                  -0.841788        -148.147         -52.3295         -164.57         -52.3297        -164.568        -0.012408         147.554
0.554                  -0.858364        -148.665         -52.2217        -166.634          -52.222        -166.633       -0.0125349         147.484
0.555                  -0.874871        -149.186          -52.116        -168.688         -52.1162        -168.687       -0.0126622         147.414
0.556                  -0.891325        -149.711         -52.0122        -170.732         -52.0124        -170.731       -0.0127902         147.344
0.557                  -0.907746         -150.24         -51.9101        -172.765         -51.9103        -172.764       -0.0129187         147.273
0.558                  -0.924156        -150.773         -51.8097        -174.787         -51.8099        -174.786       -0.0130477         147.202
0.559                  -0.940578        -151.311         -51.7107        -176.797         -51.7109        -176.796       -0.0131773         147.132
0.56                   -0.957039        -151.854         -51.6131        -178.795         -51.6132        -178.795       -0.0133075         147.061
0.561                  -0.973567        -152.401         -51.5166         179.218         -51.5168         179.218       -0.0134383          146.99
0.562                  -0.990191        -152.954         -51.4212         177.242         -51.4213         177.243       -0.0135698         146.919
0.563                   -1.00694        -153.511         -51.3268         175.279         -51.3269         175.279       -0.0137018         146.848
0.564                   -1.02386        -154.075         -51.2331         173.327         -51.2332         173.327       -0.0138346         146.776
0.565                   -1.04097        -154.643         -51.1401         171.386         -51.1401         171.387        -0.013968         146.705
0.566                   -1.05831        -155.218         -51.0476         169.457         -51.0477         169.457       -0.0141021         146.633
0.567                   -1.07592        -155.798         -50.9556         167.539         -50.9556         167.539        -0.014237         146.561
0.568                   -1.09384        -156.384         -50.8639         165.632         -50.8639         165.632       -0.0143727         146.489
0.569                    -1.1121        -156.976         -50.7725         163.735         -50.7724         163.735       -0.0145092         146.417
0.57                    -1.13073        -157.575         -50.6811         161.848         -50.6811         161.848       -0.0146465         146.345
0.571                   -1.14979        -158.179         -50.5898         159.971         -50.5898          159.97       -0.0147848         146.273
0.572                   -1.16931        -158.789         -50.4985         158.103         -50.4984         158.103       -0.0149239           146.2
0.573                   -1.18932        -159.406          -50.407         156.244         -50.4069         156.244       -0.0150641         146.128
0.574                   -1.20987        -160.029         -50.3153         154.394         -50.3152         154.393       -0.0152053         146.055
0.575                     -1.231        -160.659         -50.2233         152.552         -50.2232         152.551       -0.0153475         145.982
0.576                   -1.25274        -161.294          -50.131         150.717         -50.1309         150.716       -0.0154908         145.909
0.577                   -1.27515        -161.936         -50.0383         148.889         -50.0382         148.888       -0.0156353         145.836
0.578                   -1.29825        -162.585         -49.9452         147.068         -49.9451         147.067        -0.015781         145.763
0.579                    -1.3221         -163.24         -49.8516         145.254         -49.8514         145.252       -0.0159279         145.689
0.58                    -1.34672        -163.901         -49.7574         143.444         -49.7573         143.443       -0.0160761         145.616
0.581                   -1.37217        -164.568         -49.6627          141.64         -49.6626         141.638       -0.0162257         145.542
0.582                   -1.39848        -165.241         -49.5674          139.84         -49.5673         139.838       -0.0163767         145.468
0.583                    -1.4257        -165.921         -49.4715         138.045         -49.4714         138.043       -0.0165291         145.394
0.584                   -1.45387        -166.607          -49.375         136.252         -49.3748          136.25       -0.0166831         145.319
0.585                   -1.48304        -167.299         -49.2778         134.463         -49.2776         134.461       -0.0168387         145.245
0.586                   -1.51323        -167.997         -49.1799         132.677         -49.1798         132.675       -0.0169958          145.17
0.587                   -1.54451        -168.701         -49.0814         130.892         -49.0813          130.89       -0.0171547         145.096
0.588                    -1.5769         -169.41         -48.9823          129.11         -48.9821         129.107       -0.0173153         145.021
0.589                   -1.61046        -170.126         -48.8825         127.328         -48.8823         127.325       -0.0174778         144.946
0.59                    -1.64523        -170.846          -48.782         125.547         -48.7819         125.544       -0.0176421          144.87
0.591                   -1.68125        -171.573         -48.6809         123.766         -48.6808         123.764       -0.0178083         144.795
0.592                   -1.71856        -172.304         -48.5792         121.985         -48.5791         121.982       -0.0179766         144.719
0.593                   -1.75722        -173.041         -48.4769         120.203         -48.4768         120.201        -0.018147         144.643
0.594                   -1.79726        -173.783          -48.374         118.421         -48.3739         118.418       -0.0183195         144.567
0.595                   -1.83873        -174.529         -48.2706         116.637         -48.2705         116.634       -0.0184942         144.491
0.596                   -1.88168         -175.28         -48.1666         114.851         -48.1666         114.848       -0.0186712         144.415
0.597                   -1.92614        -176.035         -48.0622         113.063         -48.0621          113.06       -0.0188505         144.338
0.598                   -1.97216        -176.795         -47.9573         111.272         -47.9573          111.27       -0.0190323         144.261
0.599                   -2.01978        -177.558          -47.852         109.479          -47.852         109.476       -0.0192166         144.184
0.6                     -2.06904        -178.325         -47.7464         107.682         -47.7464          107.68       -0.0194034         144.107
0.601                      -2.12        -179.095         -47.6404         105.883         -47.6404          105.88       -0.0195929          144.03
0.602                   -2.17268        -179.868         -47.5342         104.079         -47.5341         104.077       -0.0197851         143.952
0.603                   -2.22712         179.356         -47.4277         102.272         -47.4277          102.27       -0.0199801         143.875
0.604                   -2.28336         178.578          -47.321         100.461          -47.321         100.458        -0.020178         143.797
0.605                   -2.34145         177.799         -47.2142         98.6449         -47.2142         98.6429       -0.0203788         143.719
0.606                    -2.4014         177.017         -47.1073          96.825         -47.1074         96.8231       -0.0205826          143.64
0.607                   -2.46326         176.235         -47.0005         95.0005         -47.0005         94.9987       -0.0207896         143.562
0.608                   -2.52704         175.452         -46.8936         93.1714         -46.8936         93.1697       -0.0209997         143.483
0.609                   -2.59279         174.669         -46.7868         91.3375         -46.7869          91.336        -0.021213         143.404
0.61                    -2.66052         173.886         -46.6802         89.4989         -46.6803         89.4975       -0.0214297         143.325
0.611                   -2.73024         173.104         -46.5738         87.6555         -46.5739         87.6542       -0.0216498         143.245
0.612                   -2.80199         172.323         -46.4677         85.8073         -46.4677         85.8061       -0.0218734         143.166
0.613                   -2.87575         171.544         -46.3618         83.9543         -46.3619         83.9533       -0.0221005         143.086
0.614                   -2.95156         170.767         -46.2564         82.0966         -46.2565         82.0957       -0.0223312         143.006
0.615                   -3.02939         169.993         -46.1514         80.2342         -46.1514         80.2334       -0.0225657         142.925
0.616                   -3.10926         169.223         -46.0468         78.3673         -46.0469         78.3667       -0.0228039         142.845
0.617                   -3.19116         168.457         -45.9429          76.496         -45.9429         76.4955        -0.023046         142.764
0.618                   -3.27506         167.695         -45.8395         74.6204         -45.8395           74.62        -0.023292         142.683
0.619                   -3.36095         166.939         -45.7367         72.7408         -45.7367         72.7405        -0.023542         142.602
0.62                     -3.4488         166.188         -45.6346         70.8573         -45.6347         70.8571       -0.0237961          142.52
0.621                   -3.53858         165.444         -45.5333         68.9701         -45.5333         68.9701       -0.0240543         142.439
0.622                   -3.63025         164.707         -45.4328         67.0795         -45.4328         67.0796       -0.0243167         142.357
0.623                   -3.72376         163.978          -45.333         65.1858         -45.3331          65.186       -0.0245835         142.274
0.624                   -3.81905         163.257         -45.2342         63.2893         -45.2342         63.2896       -0.0248546         142.192
0.625                   -3.91606         162.545         -45.1362         61.3903         -45.1362         61.3907       -0.0251301         142.109
0.626                   -4.01472         161.842         -45.0391          59.489         -45.0391         59.4895       -0.0254101         142.026
0.627                   -4.11497         161.149          -44.943         57.5859          -44.943         57.5865       -0.0256947         141.943
0.628                    -4.2167         160.466         -44.8479         55.6813         -44.8479         55.6819       -0.0259839         141.859
0.629                   -4.31984         159.794         -44.7538         53.7756         -44.7538         53.7763       -0.0262778         141.775
