! TOUCHSTONE file generated by CST MICROWAVE STUDIO
! Date and time: Wed Oct 28 19:18:42 2020
! Project name: Scenario_1_Circular_Tissue_out_of_Line.cst
! Parameters = {dy1=122.207; L_HA=400; MT=2.54; Rad_Dielectric=30; Rad_Lower=7.3; Rad_Upper=30; a_HA=580; a_WG=246; b_HA=500; b_WG=121; c_HA=0; c_WG=187; d_feed=85; dx1=693; h_feed=15; h_lower=18; h_upper=40}
! Header version: 2018
! Port assignment regex: !\s*Touchstone port\s*([0-9]+)\s*=\s*(CST MWS port|CST DS port)\s*([0-9]+|Zmin|Zmax)\s*\(\"(.*)\"\)(\s*mode\s*([0-9]+))?.*
! Touchstone port assignment:
! Touchstone port 1 = CST MWS port 1 ("")
! Touchstone port 2 = CST MWS port 2 ("")
# GHz S DB R 50
0.5                    -0.153824        -122.233         -62.1798        -169.693         -62.1798        -169.693      -0.00771968         151.121
0.501                  -0.154732        -122.684         -62.0625        -171.283         -62.0623        -171.282      -0.00777693         151.055
0.502                  -0.155972        -123.139         -61.9435        -172.884          -61.943        -172.881      -0.00783486          150.99
0.503                  -0.157551        -123.595         -61.8228        -174.495         -61.8221        -174.492      -0.00789349         150.925
0.504                  -0.159475        -124.054         -61.7003        -176.119         -61.6994        -176.114       -0.0079528         150.859
0.505                  -0.161749        -124.516         -61.5762        -177.753         -61.5751        -177.747      -0.00801282         150.794
0.506                   -0.16438         -124.98         -61.4504        -179.398         -61.4491        -179.392      -0.00807355         150.728
0.507                  -0.167373        -125.447         -61.3229         178.945         -61.3214         178.953      -0.00813499         150.663
0.508                  -0.170734        -125.915         -61.1937         177.278         -61.1921         177.286      -0.00819715         150.597
0.509                  -0.174469        -126.387         -61.0629         175.599         -61.0611         175.608      -0.00826004         150.531
0.51                   -0.178583         -126.86         -60.9304         173.909         -60.9285         173.918      -0.00832367         150.465
0.511                  -0.183082        -127.336         -60.7964         172.208         -60.7943         172.218      -0.00838805         150.399
0.512                  -0.187971        -127.815         -60.6607         170.495         -60.6585         170.506      -0.00845319         150.333
0.513                  -0.193256        -128.296         -60.5234         168.771         -60.5212         168.783      -0.00851908         150.267
0.514                  -0.198942        -128.778         -60.3847         167.036         -60.3823         167.048      -0.00858575         150.201
0.515                  -0.205034        -129.264         -60.2444          165.29         -60.2419         165.302       -0.0086532         150.134
0.516                  -0.211538        -129.751         -60.1026         163.532            -60.1         163.545      -0.00872144         150.068
0.517                  -0.218458        -130.241         -59.9594         161.763         -59.9567         161.776      -0.00879048         150.001
0.518                  -0.225799        -130.733         -59.8147         159.983          -59.812         159.996      -0.00886033         149.935
0.519                  -0.233567        -131.227         -59.6687         158.191          -59.666         158.204        -0.008931         149.868
0.52                   -0.241764        -131.723         -59.5213         156.387         -59.5186         156.401       -0.0090025         149.801
0.521                  -0.250397        -132.221         -59.3726         154.573         -59.3699         154.586      -0.00907485         149.735
0.522                  -0.259469        -132.721         -59.2227         152.746         -59.2199          152.76      -0.00914804         149.668
0.523                  -0.268984        -133.223         -59.0716         150.908         -59.0688         150.922      -0.00922211         149.601
0.524                  -0.278946        -133.727         -58.9193         149.059         -58.9165         149.072      -0.00929705         149.534
0.525                   -0.28936        -134.234         -58.7659         147.197         -58.7631         147.211      -0.00937287         149.466
0.526                  -0.300228        -134.742         -58.6114         145.325         -58.6086         145.338      -0.00944961         149.399
0.527                  -0.311553        -135.252         -58.4559          143.44         -58.4532         143.453      -0.00952725         149.332
0.528                   -0.32334        -135.763         -58.2995         141.544         -58.2968         141.556      -0.00960583         149.264
0.529                   -0.33559        -136.277         -58.1422         139.635         -58.1396         139.648      -0.00968536         149.197
0.53                   -0.348307        -136.792         -57.9841         137.715         -57.9815         137.728      -0.00976584         149.129
0.531                  -0.361493        -137.309         -57.8253         135.783         -57.8227         135.795       -0.0098473         149.061
0.532                   -0.37515        -137.828         -57.6657          133.84         -57.6632         133.851      -0.00992975         148.993
0.533                   -0.38928        -138.348         -57.5055         131.884         -57.5031         131.895       -0.0100132         148.925
0.534                  -0.403884         -138.87         -57.3448         129.916         -57.3425         129.927       -0.0100977         148.857
0.535                  -0.418964        -139.393         -57.1836         127.937         -57.1814         127.947       -0.0101832         148.789
0.536                  -0.434521        -139.918         -57.0221         125.946         -57.0199         125.955       -0.0102698         148.721
0.537                  -0.450555        -140.445         -56.8602         123.942         -56.8581         123.952       -0.0103575         148.652
0.538                  -0.467067        -140.973          -56.698         121.927         -56.6961         121.936       -0.0104463         148.584
0.539                  -0.484058        -141.502         -56.5357           119.9         -56.5339         119.908       -0.0105362         148.515
0.54                   -0.501526        -142.032         -56.3734         117.862         -56.3716         117.869       -0.0106273         148.447
0.541                  -0.519471        -142.564          -56.211         115.811         -56.2094         115.818       -0.0107195         148.378
0.542                  -0.537893        -143.097         -56.0487         113.749         -56.0472         113.756       -0.0108129         148.309
0.543                   -0.55679        -143.632         -55.8866         111.676         -55.8853         111.681       -0.0109076          148.24
0.544                   -0.57616        -144.167         -55.7248         109.591         -55.7236         109.596       -0.0110035         148.171
0.545                  -0.596001        -144.704         -55.5634         107.494         -55.5622         107.499       -0.0111007         148.102
0.546                  -0.616311        -145.241         -55.4023         105.387         -55.4014         105.391       -0.0111992         148.032
0.547                  -0.637088         -145.78         -55.2418         103.269          -55.241         103.272       -0.0112991         147.963
0.548                  -0.658327         -146.32          -55.082          101.14         -55.0813         101.143       -0.0114003         147.894
0.549                  -0.680026        -146.861         -54.9228         98.9999         -54.9223         99.0028       -0.0115029         147.824
0.55                   -0.702179        -147.402         -54.7644           96.85          -54.764         96.8524        -0.011607         147.754
0.551                  -0.724784        -147.945         -54.6069         94.6901         -54.6067          94.692       -0.0117125         147.684
0.552                  -0.747835        -148.488         -54.4504         92.5204         -54.4503         92.5219       -0.0118196         147.614
0.553                  -0.771326        -149.033          -54.295         90.3412          -54.295         90.3424       -0.0119282         147.544
0.554                  -0.795253        -149.578         -54.1406         88.1529         -54.1408         88.1538       -0.0120385         147.474
0.555                  -0.819609        -150.124         -53.9875         85.9559         -53.9878         85.9564       -0.0121503         147.403
0.556                  -0.844387        -150.671         -53.8356         83.7505         -53.8361         83.7507       -0.0122639         147.333
0.557                   -0.86958        -151.218         -53.6852         81.5371         -53.6858         81.5371       -0.0123792         147.262
0.558                  -0.895182        -151.767         -53.5361         79.3161         -53.5369         79.3159       -0.0124963         147.192
0.559                  -0.921184        -152.316         -53.3886         77.0881         -53.3895         77.0877       -0.0126152         147.121
0.56                   -0.947578        -152.865         -53.2426         74.8534         -53.2436         74.8529       -0.0127359          147.05
0.561                  -0.974355        -153.416         -53.0983         72.6125         -53.0994         72.6119       -0.0128586         146.979
0.562                   -1.00151        -153.967         -52.9556         70.3659         -52.9569         70.3653       -0.0129833         146.907
0.563                   -1.02902        -154.519         -52.8147         68.1142          -52.816         68.1136         -0.01311         146.836
0.564                    -1.0569        -155.071         -52.6755         65.8579          -52.677         65.8573       -0.0132388         146.765
0.565                   -1.08511        -155.625         -52.5382         63.5975         -52.5398         63.5969       -0.0133697         146.693
0.566                   -1.11366        -156.179         -52.4027         61.3336         -52.4044         61.3331       -0.0135028         146.621
0.567                   -1.14253        -156.733         -52.2691         59.0667         -52.2709         59.0663       -0.0136381         146.549
0.568                   -1.17172        -157.289         -52.1375         56.7974         -52.1393         56.7972       -0.0137757         146.477
0.569                   -1.20121        -157.845         -52.0077         54.5263         -52.0097         54.5262       -0.0139156         146.405
0.57                    -1.23098        -158.403         -51.8799         52.2539          -51.882         52.2541       -0.0140578         146.333
0.571                   -1.26103        -158.961         -51.7541         49.9808         -51.7562         49.9812       -0.0142025          146.26
0.572                   -1.29134         -159.52         -51.6302         47.7076         -51.6324         47.7082       -0.0143495         146.188
0.573                   -1.32191         -160.08         -51.5083         45.4348         -51.5105         45.4357       -0.0144989         146.115
0.574                   -1.35271        -160.642         -51.3883          43.163         -51.3906         43.1642       -0.0146508         146.042
0.575                   -1.38375        -161.204         -51.2703         40.8926         -51.2726         40.8941       -0.0148052         145.969
0.576                   -1.41499        -161.768         -51.1541         38.6243         -51.1565         38.6261        -0.014962         145.896
0.577                   -1.44644        -162.333         -51.0399         36.3585         -51.0422         36.3607       -0.0151212         145.823
0.578                   -1.47807          -162.9         -50.9275         34.0958         -50.9299         34.0982       -0.0152829         145.749
0.579                   -1.50988        -163.468          -50.817         31.8365         -50.8193         31.8393        -0.015447         145.676
0.58                    -1.54186        -164.038         -50.7082         29.5811         -50.7105         29.5842       -0.0156134         145.602
0.581                   -1.57399         -164.61         -50.6012         27.3301         -50.6035         27.3335       -0.0157822         145.528
0.582                   -1.60626        -165.184         -50.4959         25.0839         -50.4982         25.0876       -0.0159533         145.454
0.583                   -1.63866         -165.76         -50.3923         22.8427         -50.3945         22.8467       -0.0161266          145.38
0.584                   -1.67118        -166.339         -50.2902          20.607         -50.2924         20.6113        -0.016302         145.306
0.585                   -1.70382         -166.92         -50.1897         18.3771         -50.1918         18.3817       -0.0164796         145.231
0.586                   -1.73657        -167.504         -50.0907         16.1533         -50.0928         16.1581       -0.0166591         145.157
0.587                   -1.76942        -168.091         -49.9931         13.9358         -49.9951         13.9408       -0.0168407         145.082
0.588                   -1.80236        -168.681         -49.8969         11.7248         -49.8988           11.73       -0.0170241         145.007
0.589                   -1.83539        -169.275          -49.802         9.52062         -49.8039         9.52599       -0.0172093         144.932
0.59                    -1.86852        -169.873         -49.7083         7.32335         -49.7101         7.32885       -0.0173963         144.856
0.591                   -1.90175        -170.474         -49.6158         5.13314         -49.6176         5.13876        -0.017585         144.781
0.592                   -1.93507        -171.081         -49.5244         2.95012         -49.5261         2.95581       -0.0177753         144.705
0.593                    -1.9685        -171.692         -49.4341        0.774365         -49.4357        0.780112       -0.0179673          144.63
0.594                   -2.00204        -172.308         -49.3448        -1.39406         -49.3462        -1.38829       -0.0181608         144.554
0.595                   -2.03571        -172.929         -49.2563        -3.55512         -49.2577        -3.54937       -0.0183558         144.478
0.596                   -2.06953        -173.557         -49.1688        -5.70881           -49.17        -5.70311       -0.0185524         144.401
0.597                   -2.10353         -174.19          -49.082        -7.85515         -49.0832        -7.84953       -0.0187505         144.325
0.598                   -2.13772         -174.83         -48.9959        -9.99418          -48.997        -9.98868       -0.0189502         144.248
0.599                   -2.17213        -175.478         -48.9105         -12.126         -48.9115        -12.1206       -0.0191514         144.171
0.6                     -2.20682        -176.132         -48.8258        -14.2506         -48.8267        -14.2454       -0.0193542         144.094
0.601                   -2.24182        -176.795         -48.7415        -16.3682         -48.7423        -16.3632       -0.0195587         144.017
0.602                   -2.27718        -177.466         -48.6578        -18.4788         -48.6585        -18.4741       -0.0197648          143.94
0.603                   -2.31296        -178.145         -48.5745        -20.5827         -48.5751        -20.5783       -0.0199727         143.862
0.604                   -2.34923        -178.834         -48.4916        -22.6799         -48.4921        -22.6758       -0.0201825         143.784
0.605                   -2.38606        -179.532          -48.409        -24.7707         -48.4095         -24.767       -0.0203941         143.706
0.606                   -2.42353         179.759         -48.3268        -26.8552         -48.3271        -26.8519       -0.0206076         143.628
0.607                   -2.46174         179.041         -48.2447        -28.9337          -48.245        -28.9307       -0.0208232          143.55
0.608                   -2.50078         178.311         -48.1629        -31.0063         -48.1631        -31.0038        -0.021041         143.471
0.609                   -2.54077          177.57         -48.0812        -33.0734         -48.0813        -33.0713        -0.021261         143.392
0.61                    -2.58182         176.818         -47.9997         -35.135         -47.9997        -35.1334       -0.0214833         143.313
0.611                   -2.62406         176.054         -47.9182        -37.1915         -47.9182        -37.1904       -0.0217081         143.234
0.612                   -2.66764         175.278         -47.8368        -39.2431         -47.8367        -39.2425       -0.0219354         143.154
0.613                   -2.71269         174.489         -47.7554        -41.2901         -47.7553          -41.29       -0.0221653         143.075
0.614                   -2.75939         173.689         -47.6741        -43.3328         -47.6738        -43.3332       -0.0223979         142.995
0.615                   -2.80788         172.876         -47.5927        -45.3713         -47.5924        -45.3723       -0.0226334         142.915
0.616                   -2.85835         172.051         -47.5112         -47.406         -47.5109        -47.4075       -0.0228718         142.834
0.617                   -2.91097         171.214         -47.4297        -49.4372         -47.4293        -49.4393       -0.0231132         142.754
0.618                   -2.96593         170.366         -47.3481         -51.465         -47.3477        -51.4677       -0.0233577         142.673
0.619                    -3.0234         169.506         -47.2664        -53.4898         -47.2659        -53.4931       -0.0236055         142.592
0.62                    -3.08359         168.636         -47.1845        -55.5119         -47.1841        -55.5157       -0.0238565          142.51
0.621                   -3.14667         167.756         -47.1026        -57.5315         -47.1021        -57.5359       -0.0241111         142.429
0.622                   -3.21282         166.866         -47.0205        -59.5489         -47.0201        -59.5539       -0.0243691         142.347
0.623                   -3.28222         165.968         -46.9383        -61.5644         -46.9379        -61.5699       -0.0246307         142.265
0.624                   -3.35505         165.063          -46.856        -63.5781         -46.8555        -63.5842       -0.0248961         142.182
0.625                   -3.43144         164.152         -46.7735        -65.5904         -46.7731         -65.597       -0.0251653           142.1
0.626                   -3.51156         163.237         -46.6909        -67.6015         -46.6905        -67.6086       -0.0254384         142.017
0.627                    -3.5955         162.318         -46.6082        -69.6117         -46.6078        -69.6193       -0.0257155         141.934
0.628                    -3.6834         161.398         -46.5253        -71.6211          -46.525        -71.6292       -0.0259967          141.85
0.629                   -3.77531         160.478         -46.4424          -73.63          -46.442        -73.6385       -0.0262822         141.767
