! TOUCHSTONE file generated by CST MICROWAVE STUDIO
! Date and time: Mon Oct 26 12:30:52 2020
! Project name: Scenario_1_Circular_Tissue_out_of_Line.cst
! Parameters = {dy1=122.207; L_HA=400; MT=2.54; Rad_Dielectric=30; Rad_Lower=7.3; Rad_Upper=30; a_HA=580; a_WG=246; b_HA=500; b_WG=121; c_HA=0; c_WG=187; d_feed=85; dx1=866; h_feed=15; h_lower=18; h_upper=40}
! Header version: 2018
! Port assignment regex: !\s*Touchstone port\s*([0-9]+)\s*=\s*(CST MWS port|CST DS port)\s*([0-9]+|Zmin|Zmax)\s*\(\"(.*)\"\)(\s*mode\s*([0-9]+))?.*
! Touchstone port assignment:
! Touchstone port 1 = CST MWS port 1 ("")
! Touchstone port 2 = CST MWS port 2 ("")
# GHz S DB R 50
0.5                    -0.143595        -122.441         -63.0219         97.1724         -63.0219         97.1724      -0.00745294         151.135
0.501                  -0.151605        -122.874          -62.743          94.965         -62.7504         94.8985      -0.00752611          151.07
0.502                  -0.159703        -123.308         -62.4723         92.7216         -62.4871         92.5981      -0.00759995         151.004
0.503                  -0.167892        -123.744         -62.2099         90.4454         -62.2318         90.2736      -0.00767445         150.939
0.504                   -0.17617        -124.181         -61.9558         88.1393         -61.9845         87.9276      -0.00774962         150.874
0.505                  -0.184538         -124.62         -61.7097         85.8064         -61.7449         85.5623      -0.00782546         150.808
0.506                  -0.192998         -125.06         -61.4716         83.4497          -61.513         83.1802      -0.00790197         150.742
0.507                  -0.201548        -125.502         -61.2415         81.0721         -61.2886         80.7836      -0.00797915         150.677
0.508                  -0.210191        -125.946          -61.019         78.6763         -61.0714         78.3746        -0.008057         150.611
0.509                  -0.218927        -126.391         -60.8041         76.2651         -60.8613         75.9555      -0.00813553         150.545
0.51                   -0.227756        -126.838         -60.5966          73.841         -60.6581         73.5281      -0.00821473         150.479
0.511                   -0.23668        -127.286         -60.3962         71.4066         -60.4615         71.0946      -0.00829461         150.413
0.512                  -0.245701        -127.737         -60.2028         68.9643         -60.2713         68.6567      -0.00837516         150.347
0.513                  -0.254818        -128.189         -60.0161         66.5162         -60.0874         66.2162       -0.0084564         150.281
0.514                  -0.264033        -128.643         -59.8359         64.0646         -59.9093         63.7747      -0.00853831         150.215
0.515                  -0.273349        -129.099         -59.6618         61.6114          -59.737         61.3337       -0.0086209         150.148
0.516                  -0.282767        -129.557         -59.4937         59.1583         -59.5701         58.8947      -0.00870418         150.082
0.517                  -0.292287        -130.017         -59.3312         56.7071         -59.4083         56.4588      -0.00878814         150.015
0.518                  -0.301914        -130.479          -59.174         54.2593         -59.2515         54.0274      -0.00887278         149.949
0.519                  -0.311647        -130.943         -59.0219         51.8162         -59.0993         51.6013      -0.00895811         149.882
0.52                   -0.321491         -131.41         -58.8746          49.379         -58.9515         49.1816      -0.00904412         149.816
0.521                  -0.331447        -131.878         -58.7317         46.9489         -58.8077          46.769      -0.00913081         149.749
0.522                  -0.341518        -132.348         -58.5931         44.5267         -58.6678         44.3643      -0.00921819         149.682
0.523                  -0.351708        -132.821         -58.4583         42.1133         -58.5315          41.968      -0.00930626         149.615
0.524                  -0.362018        -133.296         -58.3271         39.7092         -58.3986         39.5806      -0.00939502         149.548
0.525                  -0.372453        -133.773         -58.1992         37.3151         -58.2687         37.2026      -0.00948446         149.481
0.526                  -0.383017        -134.253         -58.0744         34.9312         -58.1417         34.8341       -0.0095746         149.413
0.527                  -0.393713        -134.735         -57.9524         32.5581         -58.0172         32.4755      -0.00966542         149.346
0.528                  -0.404545         -135.22         -57.8329         30.1957         -57.8952         30.1268      -0.00975692         149.279
0.529                  -0.415519        -135.707         -57.7157         27.8443         -57.7753         27.7882      -0.00984912         149.211
0.53                   -0.426639        -136.197         -57.6006         25.5039         -57.6573         25.4595        -0.009942         149.143
0.531                   -0.43791        -136.689         -57.4873         23.1744         -57.5411         23.1408       -0.0100356         149.076
0.532                  -0.449338        -137.184         -57.3755         20.8557         -57.4265         20.8318       -0.0101298         149.008
0.533                  -0.460928        -137.682         -57.2652         18.5476         -57.3132         18.5325       -0.0102248          148.94
0.534                  -0.472688        -138.183         -57.1561         16.2498         -57.2011         16.2425       -0.0103204         148.872
0.535                  -0.484624        -138.686          -57.048         13.9621           -57.09         13.9616       -0.0104167         148.804
0.536                  -0.496744        -139.192         -56.9407         11.6841         -56.9798         11.6895       -0.0105137         148.736
0.537                  -0.509054        -139.702         -56.8342         9.41546         -56.8703         9.42575       -0.0106114         148.668
0.538                  -0.521563        -140.214         -56.7281         7.15571         -56.7614         7.17011       -0.0107098         148.599
0.539                  -0.534281         -140.73         -56.6225         4.90442         -56.6529          4.9221       -0.0108089         148.531
0.54                   -0.547216        -141.249         -56.5171         2.66113         -56.5448         2.68133       -0.0109087         148.462
0.541                  -0.560378        -141.771         -56.4118        0.425336         -56.4369        0.447327       -0.0110091         148.393
0.542                  -0.573778        -142.296         -56.3066        -1.80346         -56.3291        -1.78035       -0.0111102         148.325
0.543                  -0.587427        -142.824         -56.2012        -4.02578         -56.2213        -4.00218        -0.011212         148.256
0.544                  -0.601337        -143.356         -56.0957        -6.24215         -56.1134        -6.21863       -0.0113146         148.187
0.545                  -0.615519        -143.892           -55.99        -8.45313         -56.0053        -8.43021       -0.0114178         148.118
0.546                  -0.629989        -144.431         -55.8838        -10.6593         -55.8971        -10.6374       -0.0115217         148.048
0.547                  -0.644759        -144.974         -55.7773        -12.8611         -55.7885        -12.8407       -0.0116263         147.979
0.548                  -0.659844         -145.52         -55.6703        -15.0591         -55.6795        -15.0407       -0.0117316          147.91
0.549                   -0.67526         -146.07         -55.5628         -17.254         -55.5702        -17.2377       -0.0118376          147.84
0.55                   -0.691024        -146.623         -55.4547        -19.4462         -55.4604        -19.4324       -0.0119443         147.771
0.551                  -0.707153        -147.181          -55.346        -21.6363         -55.3501        -21.6252       -0.0120517         147.701
0.552                  -0.723665        -147.742         -55.2366        -23.8248         -55.2392        -23.8167       -0.0121599         147.631
0.553                  -0.740579        -148.308         -55.1265        -26.0123         -55.1278        -26.0072       -0.0122688         147.561
0.554                  -0.757917        -148.877         -55.0158        -28.1992         -55.0158        -28.1974       -0.0123785         147.491
0.555                  -0.775698         -149.45         -54.9043        -30.3862         -54.9031        -30.3877        -0.012489         147.421
0.556                  -0.793945        -150.027         -54.7921        -32.5737         -54.7899        -32.5785       -0.0126002          147.35
0.557                  -0.812682        -150.609         -54.6791        -34.7622          -54.676        -34.7704       -0.0127122          147.28
0.558                  -0.831932        -151.194         -54.5654        -36.9522         -54.5615        -36.9637       -0.0128251         147.209
0.559                  -0.851721        -151.784          -54.451        -39.1442         -54.4464         -39.159       -0.0129388         147.138
0.56                   -0.872076        -152.377         -54.3359        -41.3387         -54.3306        -41.3567       -0.0130534         147.068
0.561                  -0.893022        -152.975         -54.2201         -43.536         -54.2143        -43.5572       -0.0131689         146.997
0.562                  -0.914589        -153.577         -54.1036        -45.7367         -54.0973        -45.7609       -0.0132854         146.925
0.563                  -0.936806        -154.182         -53.9865        -47.9411         -53.9798        -47.9682       -0.0134028         146.854
0.564                  -0.959703        -154.792         -53.8687        -50.1497         -53.8617        -50.1796       -0.0135213         146.783
0.565                   -0.98331        -155.406         -53.7503        -52.3629         -53.7432        -52.3953       -0.0136409         146.711
0.566                   -1.00766        -156.024         -53.6314         -54.581         -53.6241        -54.6157       -0.0137616          146.64
0.567                   -1.03278        -156.645          -53.512        -56.8043         -53.5046        -56.8412       -0.0138836         146.568
0.568                   -1.05871        -157.271         -53.3921        -59.0332         -53.3847        -59.0721       -0.0140068         146.496
0.569                   -1.08547          -157.9         -53.2718        -61.2681         -53.2645        -61.3087       -0.0141313         146.424
0.57                    -1.11311        -158.532         -53.1512        -63.5091         -53.1439        -63.5512       -0.0142572         146.352
0.571                   -1.14165        -159.168         -53.0303        -65.7566         -53.0231        -65.7999       -0.0143846         146.279
0.572                   -1.17113        -159.808         -52.9091        -68.0108         -52.9021        -68.0551       -0.0145136         146.207
0.573                   -1.20157         -160.45         -52.7877        -70.2719          -52.781        -70.3169       -0.0146443         146.134
0.574                   -1.23302        -161.095         -52.6662        -72.5401         -52.6598        -72.5856       -0.0147766         146.061
0.575                   -1.26548        -161.743         -52.5447        -74.8155         -52.5385        -74.8613       -0.0149108         145.989
0.576                   -1.29901        -162.393         -52.4232        -77.0983         -52.4173        -77.1441        -0.015047         145.915
0.577                   -1.33361        -163.046         -52.3018        -79.3886         -52.2962        -79.4341       -0.0151851         145.842
0.578                   -1.36931          -163.7         -52.1805        -81.6864         -52.1754        -81.7315       -0.0153254         145.769
0.579                   -1.40613        -164.356         -52.0596        -83.9918         -52.0547        -84.0362       -0.0154679         145.695
0.58                    -1.44409        -165.012         -51.9389        -86.3048         -51.9344        -86.3483       -0.0156127         145.622
0.581                    -1.4832         -165.67         -51.8186        -88.6253         -51.8145        -88.6677       -0.0157598         145.548
0.582                   -1.52347        -166.328         -51.6988        -90.9534         -51.6951        -90.9943       -0.0159095         145.474
0.583                   -1.56489        -166.987         -51.5796        -93.2888         -51.5762        -93.3282       -0.0160617           145.4
0.584                   -1.60746        -167.645          -51.461        -95.6314         -51.4579        -95.6692       -0.0162166         145.325
0.585                   -1.65119        -168.302         -51.3431        -97.9812         -51.3404        -98.0171       -0.0163741         145.251
0.586                   -1.69604        -168.958         -51.2259        -100.338         -51.2236        -100.372       -0.0165345         145.176
0.587                   -1.74199        -169.613         -51.1096        -102.701         -51.1076        -102.733       -0.0166976         145.101
0.588                   -1.78903        -170.265         -50.9943        -105.071         -50.9925          -105.1       -0.0168637         145.026
0.589                    -1.8371        -170.916         -50.8799        -107.446         -50.8784        -107.474       -0.0170327         144.951
0.59                    -1.88617        -171.563         -50.7666        -109.828         -50.7654        -109.853       -0.0172046         144.876
0.591                   -1.93618        -172.208         -50.6544        -112.215         -50.6534        -112.237       -0.0173795           144.8
0.592                   -1.98708        -172.849         -50.5434        -114.606         -50.5426        -114.627       -0.0175574         144.725
0.593                   -2.03879        -173.487         -50.4336        -117.003          -50.433         -117.02       -0.0177384         144.649
0.594                   -2.09125        -174.121         -50.3251        -119.403         -50.3246        -119.418       -0.0179223         144.573
0.595                   -2.14437         -174.75         -50.2179        -121.807         -50.2175         -121.82       -0.0181092         144.497
0.596                   -2.19808        -175.375          -50.112        -124.214         -50.1118        -124.225       -0.0182992          144.42
0.597                   -2.25228        -175.997         -50.0076        -126.624         -50.0074        -126.632       -0.0184922         144.344
0.598                   -2.30689        -176.613         -49.9045        -129.036         -49.9045        -129.042       -0.0186881         144.267
0.599                   -2.36181        -177.226          -49.803        -131.449         -49.8029        -131.453        -0.018887          144.19
0.6                     -2.41695        -177.834         -49.7028        -133.864         -49.7028        -133.866       -0.0190889         144.113
0.601                   -2.47221        -178.439         -49.6042        -136.279         -49.6042        -136.279       -0.0192937         144.036
0.602                   -2.52751         -179.04          -49.507        -138.693          -49.507        -138.692       -0.0195014         143.958
0.603                   -2.58276        -179.638         -49.4113        -141.108         -49.4112        -141.104       -0.0197121          143.88
0.604                   -2.63788         179.767          -49.317        -143.521         -49.3169        -143.516       -0.0199255         143.803
0.605                    -2.6928         179.174         -49.2242        -145.932          -49.224        -145.926       -0.0201419         143.724
0.606                   -2.74744         178.583         -49.1328        -148.341         -49.1325        -148.334       -0.0203611         143.646
0.607                   -2.80175         177.993         -49.0428        -150.747         -49.0424        -150.739       -0.0205832         143.568
0.608                   -2.85569         177.403         -48.9541         -153.15         -48.9537        -153.141       -0.0208081         143.489
0.609                   -2.90922         176.813         -48.8668         -155.55         -48.8663         -155.54       -0.0210358          143.41
0.61                    -2.96231         176.222         -48.7807        -157.945         -48.7801        -157.935       -0.0212664         143.331
0.611                   -3.01494         175.629         -48.6959        -160.336         -48.6952        -160.326       -0.0214998         143.252
0.612                   -3.06713         175.033         -48.6122        -162.722         -48.6115        -162.711        -0.021736         143.172
0.613                   -3.11888         174.434         -48.5297        -165.103         -48.5289        -165.092       -0.0219752         143.093
0.614                   -3.17021          173.83         -48.4483        -167.478         -48.4473        -167.467       -0.0222172         143.013
0.615                   -3.22117         173.221         -48.3678        -169.848         -48.3668        -169.837       -0.0224621         142.933
0.616                   -3.27179         172.606         -48.2883        -172.211         -48.2872        -172.201       -0.0227099         142.852
0.617                   -3.32215         171.984         -48.2096        -174.568         -48.2085        -174.558       -0.0229608         142.772
0.618                   -3.37231         171.355         -48.1317        -176.919         -48.1306        -176.909       -0.0232146         142.691
0.619                   -3.42234         170.718         -48.0546        -179.263         -48.0534        -179.254       -0.0234714          142.61
0.62                    -3.47235         170.073         -47.9781         178.399         -47.9769         178.408       -0.0237314         142.528
0.621                   -3.52243         169.417         -47.9023         176.069         -47.9011         176.077       -0.0239945         142.447
0.622                   -3.57267         168.752         -47.8269         173.745         -47.8257         173.752       -0.0242607         142.365
0.623                    -3.6232         168.077          -47.752         171.427         -47.7508         171.434       -0.0245302         142.283
0.624                   -3.67414         167.391         -47.6775         169.116         -47.6764         169.123       -0.0248031         142.201
0.625                   -3.72561         166.693         -47.6034         166.812         -47.6022         166.818       -0.0250792         142.118
0.626                   -3.77773         165.984         -47.5295         164.514         -47.5284         164.519       -0.0253589         142.035
0.627                   -3.83064         165.263         -47.4558         162.223         -47.4547         162.227        -0.025642         141.952
0.628                   -3.88448          164.53         -47.3822         159.938         -47.3813         159.941       -0.0259287         141.869
0.629                   -3.93938         163.784         -47.3088         157.658         -47.3079         157.661       -0.0262191         141.785
