! TOUCHSTONE file generated by CST MICROWAVE STUDIO
! Date and time: Sat Oct 24 11:48:04 2020
! Project name: Scenario_1_Circular_Tissue_out_of_Line.cst
! Parameters = {dy1=122.207; L_HA=400; MT=2.54; Rad_Dielectric=30; Rad_Lower=7.3; Rad_Upper=30; a_HA=580; a_WG=246; b_HA=500; b_WG=121; c_HA=0; c_WG=187; d_feed=85; dx1=1039; h_feed=15; h_lower=18; h_upper=40}
! Header version: 2018
! Port assignment regex: !\s*Touchstone port\s*([0-9]+)\s*=\s*(CST MWS port|CST DS port)\s*([0-9]+|Zmin|Zmax)\s*\(\"(.*)\"\)(\s*mode\s*([0-9]+))?.*
! Touchstone port assignment:
! Touchstone port 1 = CST MWS port 1 ("")
! Touchstone port 2 = CST MWS port 2 ("")
# GHz S DB R 50
0.5                    -0.146518        -122.243         -63.5389        -3.94757         -63.5389        -3.94757      -0.00764708         151.137
0.501                  -0.149785        -122.686         -63.4056        -5.92953         -63.4057        -5.92722      -0.00770335         151.072
0.502                  -0.153289        -123.132         -63.2699         -7.9287           -63.27        -7.92419      -0.00776034         151.007
0.503                  -0.157039         -123.58         -63.1317        -9.94515          -63.132        -9.93859      -0.00781805         150.941
0.504                  -0.161045        -124.032         -62.9911         -11.979         -62.9915        -11.9705      -0.00787651         150.876
0.505                  -0.165315        -124.486         -62.8482        -14.0303         -62.8486          -14.02      -0.00793574          150.81
0.506                  -0.169858        -124.943          -62.703        -16.0992         -62.7035        -16.0872      -0.00799574         150.745
0.507                  -0.174685        -125.403         -62.5555        -18.1857          -62.556        -18.1722      -0.00805655         150.679
0.508                  -0.179805        -125.865         -62.4057          -20.29         -62.4062        -20.2751      -0.00811818         150.613
0.509                  -0.185227         -126.33         -62.2538        -22.4122         -62.2543         -22.396      -0.00818065         150.547
0.51                   -0.190963        -126.798         -62.0997        -24.5524         -62.1002        -24.5351      -0.00824398         150.481
0.511                   -0.19702        -127.268         -61.9435        -26.7107         -61.9441        -26.6924      -0.00830819         150.415
0.512                  -0.203411        -127.741         -61.7854        -28.8873         -61.7859        -28.8681       -0.0083733         150.349
0.513                  -0.210145        -128.217         -61.6253        -31.0823         -61.6258        -31.0623      -0.00843934         150.283
0.514                  -0.217232        -128.695         -61.4633        -33.2957         -61.4638         -33.275      -0.00850632         150.217
0.515                  -0.224682        -129.176         -61.2996        -35.5278            -61.3        -35.5066      -0.00857427          150.15
0.516                  -0.232507         -129.66         -61.1342        -37.7786         -61.1345         -37.757      -0.00864321         150.084
0.517                  -0.240715        -130.146         -60.9672        -40.0482         -60.9675        -40.0263      -0.00871317         150.017
0.518                  -0.249318        -130.634         -60.7987        -42.3368         -60.7989        -42.3148      -0.00878417         149.951
0.519                  -0.258324        -131.125         -60.6288        -44.6445         -60.6289        -44.6225      -0.00885624         149.884
0.52                   -0.267744        -131.619         -60.4576        -46.9714         -60.4576        -46.9494      -0.00892939         149.817
0.521                  -0.277587        -132.114         -60.2853        -49.3175         -60.2852        -49.2957      -0.00900367          149.75
0.522                  -0.287863        -132.612         -60.1119        -51.6829         -60.1117        -51.6614      -0.00907909         149.683
0.523                   -0.29858        -133.113         -59.9376        -54.0677         -59.9373        -54.0466      -0.00915568         149.616
0.524                  -0.309746        -133.615         -59.7625        -56.4719         -59.7622        -56.4513      -0.00923347         149.549
0.525                  -0.321369        -134.119         -59.5868        -58.8955         -59.5863        -58.8755      -0.00931249         149.482
0.526                  -0.333457        -134.626         -59.4106        -61.3385           -59.41        -61.3192      -0.00939277         149.415
0.527                  -0.346015        -135.134          -59.234        -63.8008         -59.2333        -63.7823      -0.00947433         149.347
0.528                  -0.359051        -135.644         -59.0572        -66.2824         -59.0564        -66.2648      -0.00955721          149.28
0.529                  -0.372568        -136.156         -58.8804        -68.7831         -58.8794        -68.7664      -0.00964143         149.212
0.53                   -0.386571        -136.669         -58.7036        -71.3027         -58.7026        -71.2871      -0.00972703         149.144
0.531                  -0.401062        -137.184         -58.5272        -73.8411          -58.526        -73.8266      -0.00981404         149.076
0.532                  -0.416043        -137.701         -58.3511         -76.398         -58.3499        -76.3847      -0.00990248         149.008
0.533                  -0.431516        -138.218         -58.1757        -78.9731         -58.1744         -78.961      -0.00999239          148.94
0.534                  -0.447478        -138.737          -58.001        -81.5661         -57.9996        -81.5552       -0.0100838         148.872
0.535                  -0.463927        -139.257         -57.8272        -84.1764         -57.8257        -84.1669       -0.0101767         148.804
0.536                   -0.48086        -139.778         -57.6545        -86.8037          -57.653        -86.7956       -0.0102712         148.736
0.537                  -0.498271          -140.3         -57.4831        -89.4474         -57.4815        -89.4407       -0.0103673         148.667
0.538                  -0.516153        -140.823         -57.3131         -92.107         -57.3115        -92.1017        -0.010465         148.599
0.539                  -0.534496        -141.346         -57.1447        -94.7818          -57.143        -94.7778       -0.0105644          148.53
0.54                   -0.553289         -141.87         -56.9779         -97.471         -56.9762        -97.4685       -0.0106654         148.462
0.541                  -0.572519        -142.394         -56.8131        -100.174         -56.8113        -100.173       -0.0107681         148.393
0.542                  -0.592172        -142.918         -56.6502         -102.89         -56.6485         -102.89       -0.0108725         148.324
0.543                  -0.612229        -143.443         -56.4895        -105.617         -56.4877        -105.619       -0.0109786         148.255
0.544                  -0.632672        -143.968          -56.331        -108.356         -56.3293        -108.359       -0.0110865         148.186
0.545                  -0.653479        -144.493         -56.1749        -111.105         -56.1732        -111.109       -0.0111962         148.116
0.546                  -0.674628        -145.018         -56.0213        -113.863         -56.0196        -113.868       -0.0113076         148.047
0.547                  -0.696092        -145.542         -55.8702        -116.629         -55.8686        -116.635       -0.0114208         147.978
0.548                  -0.717846        -146.067         -55.7217        -119.402         -55.7202        -119.409       -0.0115358         147.908
0.549                  -0.739861        -146.592          -55.576         -122.18         -55.5745        -122.189       -0.0116526         147.838
0.55                   -0.762106        -147.116          -55.433        -124.963         -55.4316        -124.973       -0.0117711         147.768
0.551                  -0.784551        -147.641         -55.2928         -127.75         -55.2915         -127.76       -0.0118914         147.699
0.552                  -0.807163        -148.165         -55.1555        -130.538         -55.1543        -130.549       -0.0120135         147.629
0.553                   -0.82991        -148.689         -55.0209        -133.328         -55.0198         -133.34       -0.0121372         147.558
0.554                  -0.852758        -149.214         -54.8892        -136.118         -54.8882         -136.13       -0.0122626         147.488
0.555                  -0.875676        -149.738         -54.7603        -138.907         -54.7594        -138.919       -0.0123897         147.418
0.556                  -0.898629        -150.264         -54.6341        -141.693         -54.6333        -141.706       -0.0125183         147.347
0.557                  -0.921588        -150.789         -54.5107        -144.476           -54.51        -144.489       -0.0126485         147.277
0.558                  -0.944521        -151.315         -54.3899        -147.255         -54.3893        -147.268       -0.0127802         147.206
0.559                  -0.967402        -151.843         -54.2717        -150.028         -54.2713        -150.042       -0.0129133         147.135
0.56                   -0.990203        -152.371         -54.1561        -152.796         -54.1557        -152.809       -0.0130477         147.064
0.561                    -1.0129        -152.901         -54.0429        -155.556         -54.0426        -155.569       -0.0131835         146.993
0.562                   -1.03548        -153.433          -53.932        -158.308         -53.9318        -158.321       -0.0133204         146.922
0.563                   -1.05793        -153.967         -53.8233        -161.052         -53.8232        -161.065       -0.0134585         146.851
0.564                   -1.08023        -154.504         -53.7167        -163.787         -53.7167        -163.799       -0.0135977         146.779
0.565                   -1.10238        -155.043         -53.6121        -166.512         -53.6122        -166.524       -0.0137378         146.708
0.566                   -1.12437        -155.586         -53.5093        -169.227         -53.5095        -169.238       -0.0138789         146.636
0.567                   -1.14622        -156.132         -53.4083        -171.931         -53.4085        -171.942       -0.0140209         146.564
0.568                   -1.16794        -156.683         -53.3089        -174.625         -53.3091        -174.634       -0.0141636         146.492
0.569                   -1.18953        -157.238         -53.2109        -177.307         -53.2112        -177.316       -0.0143071          146.42
0.57                    -1.21104        -157.798         -53.1142        -179.978         -53.1145        -179.986       -0.0144512         146.348
0.571                   -1.23248        -158.363         -53.0188         177.363         -53.0191         177.355       -0.0145961         146.276
0.572                   -1.25389        -158.933         -52.9243         174.715         -52.9247         174.708       -0.0147415         146.203
0.573                   -1.27532         -159.51         -52.8308         172.079         -52.8312         172.072       -0.0148876         146.131
0.574                   -1.29682        -160.094         -52.7381         169.453         -52.7384         169.448       -0.0150343         146.058
0.575                   -1.31844        -160.684          -52.646         166.839         -52.6464         166.835       -0.0151817         145.985
0.576                   -1.34024        -161.281         -52.5545         164.236         -52.5548         164.232       -0.0153297         145.912
0.577                   -1.36229        -161.886         -52.4634         161.644         -52.4637          161.64       -0.0154785         145.839
0.578                   -1.38466        -162.498         -52.3727         159.061         -52.3729         159.059        -0.015628         145.765
0.579                   -1.40742        -163.118         -52.2821         156.489         -52.2823         156.487       -0.0157783         145.692
0.58                    -1.43066        -163.747         -52.1916         153.926         -52.1918         153.924       -0.0159295         145.618
0.581                   -1.45446        -164.383         -52.1012         151.372         -52.1013         151.371       -0.0160817         145.544
0.582                   -1.47889        -165.028         -52.0107         148.826         -52.0107         148.826       -0.0162349          145.47
0.583                   -1.50406        -165.681           -51.92         146.289           -51.92         146.288       -0.0163893         145.396
0.584                   -1.53005        -166.342         -51.8291         143.758          -51.829         143.758        -0.016545         145.322
0.585                   -1.55695        -167.012         -51.7379         141.235         -51.7378         141.235        -0.016702         145.248
0.586                   -1.58485         -167.69         -51.6463         138.717         -51.6462         138.718       -0.0168605         145.173
0.587                   -1.61384        -168.376         -51.5544         136.205         -51.5542         136.206       -0.0170206         145.098
0.588                     -1.644        -169.069          -51.462         133.698         -51.4618         133.699       -0.0171824         145.023
0.589                   -1.67543        -169.771         -51.3692         131.194         -51.3689         131.196        -0.017346         144.948
0.59                     -1.7082        -170.479         -51.2759         128.695         -51.2755         128.696       -0.0175116         144.873
0.591                   -1.74241        -171.195          -51.182         126.198         -51.1816         126.199       -0.0176791         144.797
0.592                   -1.77812        -171.917         -51.0876         123.703         -51.0872         123.705       -0.0178489         144.721
0.593                   -1.81541        -172.645         -50.9927          121.21         -50.9923         121.211       -0.0180208         144.646
0.594                   -1.85436        -173.379         -50.8973         118.718         -50.8968         118.719       -0.0181952          144.57
0.595                   -1.89502        -174.118         -50.8014         116.225         -50.8009         116.227       -0.0183719         144.493
0.596                   -1.93745        -174.862          -50.705         113.733         -50.7045         113.734       -0.0185512         144.417
0.597                   -1.98172         -175.61         -50.6081         111.239         -50.6076          111.24       -0.0187331          144.34
0.598                   -2.02785        -176.362         -50.5108         108.744         -50.5103         108.745       -0.0189178         144.263
0.599                   -2.07591        -177.116         -50.4131         106.247         -50.4126         106.247       -0.0191052         144.186
0.6                      -2.1259        -177.873         -50.3151         103.746         -50.3147         103.747       -0.0192955         144.109
0.601                   -2.17787        -178.631         -50.2169         101.243         -50.2164         101.243       -0.0194888         144.032
0.602                   -2.23182         -179.39         -50.1184         98.7362          -50.118          98.736       -0.0196851         143.954
0.603                   -2.28777          179.85         -50.0197         96.2253         -50.0194         96.2248       -0.0198844         143.877
0.604                   -2.34572         179.092          -49.921         93.7099         -49.9207         93.7093        -0.020087         143.799
0.605                   -2.40566         178.334         -49.8223         91.1897         -49.8221         91.1889       -0.0202927          143.72
0.606                   -2.46756         177.578         -49.7237         88.6646         -49.7236         88.6637       -0.0205017         143.642
0.607                   -2.53141         176.825         -49.6253         86.1342         -49.6252         86.1332       -0.0207141         143.563
0.608                   -2.59717         176.075         -49.5271         83.5984         -49.5271         83.5973       -0.0209298         143.485
0.609                   -2.66479          175.33         -49.4293         81.0571         -49.4294          81.056        -0.021149         143.405
0.61                    -2.73423         174.588          -49.332         78.5103         -49.3321         78.5091       -0.0213716         143.326
0.611                   -2.80541         173.852         -49.2351         75.9579         -49.2354         75.9568       -0.0215978         143.247
0.612                   -2.87827         173.122          -49.139            73.4         -49.1393          73.399       -0.0218276         143.167
0.613                   -2.95273         172.399         -49.0435         70.8368         -49.0439          70.836        -0.022061         143.087
0.614                    -3.0287         171.682         -48.9489         68.2685         -48.9494         68.2678       -0.0222981         143.007
0.615                   -3.10608         170.972         -48.8552         65.6953         -48.8557         65.6949       -0.0225389         142.927
0.616                   -3.18477          170.27         -48.7624         63.1175         -48.7631         63.1174       -0.0227834         142.846
0.617                   -3.26467         169.577         -48.6708         60.5356         -48.6715         60.5358       -0.0230318         142.765
0.618                   -3.34566         168.891         -48.5803         57.9499         -48.5811         57.9505        -0.023284         142.684
0.619                   -3.42763         168.214          -48.491          55.361         -48.4919         55.3621         -0.02354         142.603
0.62                    -3.51044         167.546         -48.4031         52.7694          -48.404         52.7709          -0.0238         142.521
0.621                   -3.59397         166.887         -48.3164         50.1756         -48.3174         50.1776        -0.024064          142.44
0.622                    -3.6781         166.236         -48.2312         47.5804         -48.2322         47.5828       -0.0243319         142.358
0.623                    -3.7627         165.593         -48.1474         44.9843         -48.1484         44.9872       -0.0246039         142.275
0.624                   -3.84764         164.959          -48.065          42.388          -48.066         42.3914       -0.0248799         142.193
0.625                   -3.93281         164.333         -47.9841         39.7922         -47.9851         39.7962         -0.02516          142.11
0.626                   -4.01807         163.714         -47.9047         37.1976         -47.9057         37.2021       -0.0254443         142.027
0.627                   -4.10331         163.103         -47.8267          34.605         -47.8278           34.61       -0.0257328         141.944
0.628                   -4.18843         162.498         -47.7502         32.0151         -47.7512         32.0205       -0.0260255          141.86
0.629                   -4.27332         161.899         -47.6752         29.4286         -47.6762         29.4344       -0.0263225         141.776
