! TOUCHSTONE file generated by CST MICROWAVE STUDIO
! Date and time: Mon Oct 26 12:08:49 2020
! Project name: Scenario_1_Circular_Tissue_out_of_Line_v2.cst
! Parameters = {dy1=138.4; L_HA=400; MT=2.54; Rad_Dielectric=30; Rad_Lower=7.3; Rad_Upper=30; a_HA=580; a_WG=246; b_HA=500; b_WG=121; c_HA=0; c_WG=187; d_feed=85; dx1=173; h_feed=15; h_lower=18; h_upper=40}
! Header version: 2018
! Port assignment regex: !\s*Touchstone port\s*([0-9]+)\s*=\s*(CST MWS port|CST DS port)\s*([0-9]+|Zmin|Zmax)\s*\(\"(.*)\"\)(\s*mode\s*([0-9]+))?.*
! Touchstone port assignment:
! Touchstone port 1 = CST MWS port 1 ("")
! Touchstone port 2 = CST MWS port 2 ("")
# GHz S DB R 50
0.5                    -0.116753          -122.5         -58.3215         126.089         -58.3215         126.089      -0.00685155         151.115
0.501                  -0.121447        -122.967         -58.1137         125.042         -58.1137         125.042      -0.00690918          151.05
0.502                  -0.126471        -123.434         -57.9054         123.989         -57.9054         123.989      -0.00696738         150.984
0.503                  -0.131825        -123.904         -57.6965         122.929         -57.6965         122.929      -0.00702613         150.919
0.504                  -0.137511        -124.375         -57.4871         121.861         -57.4871         121.862      -0.00708542         150.853
0.505                  -0.143531        -124.847         -57.2772         120.787         -57.2772         120.787      -0.00714523         150.787
0.506                  -0.149887        -125.321         -57.0666         119.704         -57.0666         119.704      -0.00720556         150.722
0.507                  -0.156579        -125.796         -56.8556         118.612         -56.8556         118.612      -0.00726638         150.656
0.508                  -0.163608        -126.273          -56.644         117.512          -56.644         117.512      -0.00732767          150.59
0.509                  -0.170977        -126.751         -56.4319         116.403         -56.4318         116.403      -0.00738942         150.524
0.51                   -0.178684         -127.23         -56.2192         115.284         -56.2192         115.284       -0.0074516         150.458
0.511                  -0.186732        -127.711          -56.006         114.156          -56.006         114.156      -0.00751418         150.391
0.512                  -0.195121        -128.193         -55.7924         113.016         -55.7924         113.016      -0.00757714         150.325
0.513                  -0.203851        -128.677         -55.5782         111.866         -55.5782         111.866      -0.00764045         150.259
0.514                  -0.212922        -129.161         -55.3636         110.705         -55.3636         110.705      -0.00770407         150.192
0.515                  -0.222335        -129.648         -55.1486         109.531         -55.1486         109.531      -0.00776797         150.126
0.516                   -0.23209        -130.135         -54.9331         108.346         -54.9331         108.346       -0.0078321         150.059
0.517                  -0.242186        -130.623         -54.7172         107.148         -54.7172         107.148      -0.00789641         149.993
0.518                  -0.252624        -131.113          -54.501         105.937          -54.501         105.937      -0.00796086         149.926
0.519                  -0.263402        -131.604         -54.2844         104.712         -54.2844         104.712      -0.00802539         149.859
0.52                   -0.274521        -132.096         -54.0675         103.473         -54.0675         103.473      -0.00808993         149.792
0.521                  -0.285979        -132.589         -53.8503          102.22         -53.8503          102.22      -0.00815441         149.725
0.522                  -0.297775        -133.083         -53.6329         100.951         -53.6329         100.951      -0.00821876         149.658
0.523                  -0.309909        -133.579         -53.4153         99.6678         -53.4153         99.6678      -0.00828287         149.591
0.524                   -0.32238        -134.075         -53.1976         98.3683         -53.1976         98.3683      -0.00834666         149.523
0.525                  -0.335185        -134.573         -52.9798         97.0524         -52.9798         97.0524         -0.00841         149.456
0.526                  -0.348324        -135.072          -52.762         95.7198          -52.762         95.7198      -0.00847276         149.389
0.527                  -0.361794        -135.571         -52.5442         94.3699         -52.5442         94.3699       -0.0085348         149.321
0.528                  -0.375594        -136.072         -52.3265         93.0024         -52.3265         93.0023      -0.00859595         149.253
0.529                  -0.389723        -136.574          -52.109         91.6168          -52.109         91.6167      -0.00865602         149.186
0.53                   -0.404177        -137.077         -51.8917         90.2126         -51.8918         90.2125      -0.00871479         149.118
0.531                  -0.418954         -137.58         -51.6748         88.7896         -51.6748         88.7895      -0.00877199          149.05
0.532                  -0.434053        -138.085         -51.4583         87.3472         -51.4583         87.3471      -0.00882735         148.982
0.533                   -0.44947        -138.591         -51.2424         85.8852         -51.2424         85.8851      -0.00888051         148.914
0.534                  -0.465203        -139.097          -51.027         84.4031          -51.027          84.403      -0.00893109         148.846
0.535                  -0.481248        -139.605         -50.8123         82.9007         -50.8124         82.9006      -0.00897861         148.777
0.536                  -0.497604        -140.113         -50.5985         81.3777         -50.5986         81.3776      -0.00902253         148.709
0.537                  -0.514266        -140.623         -50.3857         79.8338         -50.3857         79.8337      -0.00906218          148.64
0.538                  -0.531231        -141.133         -50.1739         78.2688         -50.1739         78.2686      -0.00909679         148.572
0.539                  -0.548496        -141.644         -49.9632         76.6825         -49.9633         76.6823      -0.00912542         148.503
0.54                   -0.566058        -142.156         -49.7539         75.0748          -49.754         75.0746      -0.00914692         148.434
0.541                  -0.583912        -142.669         -49.5461         73.4456         -49.5462         73.4454      -0.00915989         148.365
0.542                  -0.602055        -143.183         -49.3399         71.7948         -49.3399         71.7946      -0.00916261         148.296
0.543                  -0.620482        -143.698         -49.1354         70.1226         -49.1354         70.1223      -0.00915292         148.227
0.544                  -0.639191        -144.214         -48.9328         68.4289         -48.9328         68.4286      -0.00912811         148.158
0.545                  -0.658176        -144.731         -48.7322         66.7139         -48.7323         66.7136       -0.0090847         148.089
0.546                  -0.677433        -145.248         -48.5339         64.9778         -48.5339         64.9775      -0.00901825          148.02
0.547                  -0.696958        -145.767         -48.3379         63.2209         -48.3379         63.2207      -0.00892289          147.95
0.548                  -0.716747        -146.287         -48.1444         61.4437         -48.1444         61.4434      -0.00879092         147.881
0.549                  -0.736795        -146.807         -47.9535         59.6465         -47.9536         59.6462      -0.00861203         147.812
0.55                   -0.757097        -147.329         -47.7655         57.8298         -47.7656         57.8295      -0.00837239         147.743
0.551                  -0.777649        -147.851         -47.5804         55.9943         -47.5805          55.994      -0.00805355         147.674
0.552                  -0.798445        -148.375         -47.3985         54.1406         -47.3985         54.1404      -0.00763187         147.605
0.553                  -0.819481        -148.899         -47.2198         52.2696         -47.2199         52.2693      -0.00708084         147.538
0.554                  -0.840753        -149.425         -47.0445          50.382         -47.0446         50.3817      -0.00638582         147.472
0.555                  -0.862255        -149.952         -46.8727         48.4787         -46.8728         48.4785      -0.00560313          147.41
0.556                  -0.883982         -150.48         -46.7046         46.5608         -46.7047         46.5605      -0.00505412         147.353
0.557                   -0.90593        -151.009         -46.5402         44.6292         -46.5403          44.629      -0.00572145         147.304
0.558                  -0.928093        -151.539         -46.3797         42.6851         -46.3798         42.6849      -0.00886936         147.252
0.559                  -0.950467        -152.071         -46.2231           40.73         -46.2232         40.7298       -0.0132465         147.181
0.56                   -0.973047        -152.604         -46.0705         38.7652         -46.0706          38.765       -0.0160754         147.096
0.561                  -0.995827        -153.138          -45.922         36.7919         -45.9221         36.7917       -0.0171516         147.011
0.562                    -1.0188        -153.673         -45.7777         34.8112         -45.7778         34.8111       -0.0173752         146.929
0.563                   -1.04197         -154.21         -45.6375         32.8247         -45.6377         32.8246       -0.0172981          146.85
0.564                   -1.06532        -154.749         -45.5016         30.8337         -45.5017         30.8335       -0.0171438         146.773
0.565                   -1.08886        -155.289         -45.3698         28.8395           -45.37         28.8394       -0.0169919         146.698
0.566                   -1.11257         -155.83         -45.2423         26.8436         -45.2424         26.8435       -0.0168673         146.623
0.567                   -1.13646        -156.373         -45.1189         24.8474          -45.119         24.8474       -0.0167754         146.549
0.568                   -1.16051        -156.918         -44.9996         22.8523         -44.9997         22.8523       -0.0167149         146.476
0.569                   -1.18473        -157.465         -44.8843         20.8597         -44.8844         20.8596       -0.0166822         146.402
0.57                    -1.20911        -158.014          -44.773         18.8708         -44.7732         18.8707       -0.0166737         146.329
0.571                   -1.23365        -158.564         -44.6657         16.8868         -44.6658         16.8868       -0.0166859         146.256
0.572                   -1.25835        -159.117         -44.5621         14.9091         -44.5622         14.9092       -0.0167161         146.183
0.573                   -1.28319        -159.672         -44.4621         12.9388         -44.4622         12.9389       -0.0167617         146.109
0.574                   -1.30818        -160.229         -44.3658         10.9769         -44.3659          10.977       -0.0168208         146.036
0.575                   -1.33332        -160.788         -44.2728          9.0245         -44.2729         9.02459       -0.0168916         145.963
0.576                   -1.35859         -161.35         -44.1831         7.08245         -44.1832         7.08256       -0.0169729         145.889
0.577                   -1.38402        -161.914         -44.0966         5.15164         -44.0967         5.15176       -0.0170635         145.815
0.578                   -1.40958        -162.481          -44.013         3.23282         -44.0131         3.23296       -0.0171625         145.742
0.579                   -1.43528         -163.05         -43.9322         1.32668         -43.9323         1.32684        -0.017269         145.668
0.58                    -1.46112        -163.623          -43.854        -0.56618         -43.8541       -0.566007       -0.0173825         145.594
0.581                   -1.48709        -164.198         -43.7784        -2.44525         -43.7785        -2.44506       -0.0175024          145.52
0.582                   -1.51321        -164.777          -43.705         -4.3101         -43.7051         -4.3099       -0.0176281         145.446
0.583                   -1.53947        -165.359         -43.6338        -6.16039         -43.6339        -6.16018       -0.0177594         145.371
0.584                   -1.56587        -165.944         -43.5646        -7.99584         -43.5647        -7.99561       -0.0178958         145.297
0.585                   -1.59241        -166.533         -43.4972        -9.81626         -43.4973        -9.81603       -0.0180371         145.222
0.586                   -1.61911        -167.126         -43.4314        -11.6215         -43.4315        -11.6213       -0.0181831         145.147
0.587                   -1.64595        -167.722         -43.3671        -13.4116         -43.3672        -13.4114       -0.0183335         145.072
0.588                   -1.67296        -168.322         -43.3041        -15.1865         -43.3042        -15.1862       -0.0184882         144.997
0.589                   -1.70012        -168.927         -43.2423        -16.9463         -43.2424         -16.946        -0.018647         144.922
0.59                    -1.72746        -169.536         -43.1815        -18.6911         -43.1816        -18.6908       -0.0188098         144.846
0.591                   -1.75498        -170.149         -43.1217        -20.4211         -43.1217        -20.4208       -0.0189765         144.771
0.592                   -1.78268        -170.768         -43.0625        -22.1365         -43.0626        -22.1363       -0.0191469         144.695
0.593                   -1.81059        -171.391          -43.004        -23.8377         -43.0041        -23.8374       -0.0193211         144.619
0.594                    -1.8387        -172.019          -42.946        -25.5249         -42.9461        -25.5246       -0.0194989         144.543
0.595                   -1.86704        -172.653         -42.8884        -27.1985         -42.8884        -27.1982       -0.0196803         144.467
0.596                   -1.89561        -173.292          -42.831        -28.8589         -42.8311        -28.8586       -0.0198652          144.39
0.597                   -1.92444        -173.937         -42.7738        -30.5064         -42.7739        -30.5062       -0.0200536         144.314
0.598                   -1.95353        -174.587         -42.7167        -32.1416         -42.7167        -32.1414       -0.0202455         144.237
0.599                   -1.98292        -175.244         -42.6595        -33.7649         -42.6596        -33.7647       -0.0204409          144.16
0.6                     -2.01262        -175.908         -42.6023        -35.3767         -42.6023        -35.3765       -0.0206397         144.083
0.601                   -2.04266        -176.578         -42.5448        -36.9777         -42.5448        -36.9774        -0.020842         144.005
0.602                   -2.07306        -177.254         -42.4871        -38.5682         -42.4871        -38.5679       -0.0210477         143.928
0.603                   -2.10384        -177.938          -42.429        -40.1487         -42.4291        -40.1485       -0.0212568          143.85
0.604                   -2.13505         -178.63         -42.3706        -41.7199         -42.3706        -41.7197       -0.0214694         143.772
0.605                    -2.1667        -179.329         -42.3117        -43.2823         -42.3117        -43.2821       -0.0216855         143.694
0.606                   -2.19885         179.964         -42.2523        -44.8363         -42.2524        -44.8361        -0.021905         143.616
0.607                   -2.23151         179.249         -42.1924        -46.3826         -42.1925        -46.3824        -0.022128         143.537
0.608                   -2.26474         178.526          -42.132        -47.9216          -42.132        -47.9215       -0.0223546         143.458
0.609                   -2.29858         177.794         -42.0709         -49.454         -42.0709        -49.4538       -0.0225847         143.379
0.61                    -2.33308         177.053         -42.0092        -50.9801         -42.0092          -50.98       -0.0228183           143.3
0.611                   -2.36828         176.303         -41.9468        -52.5007         -41.9468        -52.5005       -0.0230556         143.221
0.612                   -2.40424         175.543         -41.8838        -54.0161         -41.8838         -54.016       -0.0232965         143.141
0.613                   -2.44101         174.774         -41.8201        -55.5269         -41.8201        -55.5268       -0.0235411         143.061
0.614                   -2.47867         173.994         -41.7557        -57.0336         -41.7557        -57.0335       -0.0237894         142.981
0.615                   -2.51727         173.205         -41.6906        -58.5368         -41.6906        -58.5367       -0.0240415         142.901
0.616                   -2.55689         172.405         -41.6248        -60.0368         -41.6248        -60.0367       -0.0242974         142.821
0.617                   -2.59759         171.594         -41.5584        -61.5342         -41.5584        -61.5342       -0.0245572          142.74
0.618                   -2.63946         170.773         -41.4912        -63.0295         -41.4912        -63.0295       -0.0248208         142.659
0.619                   -2.68258          169.94         -41.4234        -64.5231         -41.4234         -64.523       -0.0250884         142.578
0.62                    -2.72703         169.096          -41.355        -66.0154          -41.355        -66.0153         -0.02536         142.496
0.621                   -2.77292          168.24         -41.2859        -67.5068         -41.2859        -67.5068       -0.0256357         142.415
0.622                   -2.82033         167.373         -41.2162        -68.9979         -41.2162        -68.9978       -0.0259155         142.333
0.623                   -2.86938         166.493          -41.146        -70.4888          -41.146        -70.4888       -0.0261995         142.251
0.624                   -2.92016         165.602         -41.0752        -71.9802         -41.0752        -71.9802       -0.0264877         142.168
0.625                   -2.97279         164.699         -41.0039        -73.4722         -41.0039        -73.4722       -0.0267802         142.086
0.626                   -3.02739         163.783         -40.9321        -74.9652         -40.9321        -74.9652       -0.0270771         142.003
0.627                   -3.08409         162.855         -40.8599        -76.4596         -40.8599        -76.4596       -0.0273785          141.92
0.628                   -3.14301         161.915         -40.7873        -77.9556         -40.7873        -77.9556       -0.0276844         141.836
0.629                   -3.20428         160.963         -40.7143        -79.4536         -40.7143        -79.4536       -0.0279948         141.753
