! TOUCHSTONE file generated by CST MICROWAVE STUDIO
! Date and time: Wed Oct 28 19:39:02 2020
! Project name: Scenario_1_Circular_Tissue_out_of_Line_v2.cst
! Parameters = {dy1=138.4; L_HA=400; MT=2.54; Rad_Dielectric=30; Rad_Lower=7.3; Rad_Upper=30; a_HA=580; a_WG=246; b_HA=500; b_WG=121; c_HA=0; c_WG=187; d_feed=85; dx1=346; h_feed=15; h_lower=18; h_upper=40}
! Header version: 2018
! Port assignment regex: !\s*Touchstone port\s*([0-9]+)\s*=\s*(CST MWS port|CST DS port)\s*([0-9]+|Zmin|Zmax)\s*\(\"(.*)\"\)(\s*mode\s*([0-9]+))?.*
! Touchstone port assignment:
! Touchstone port 1 = CST MWS port 1 ("")
! Touchstone port 2 = CST MWS port 2 ("")
# GHz S DB R 50
0.5                    -0.168116        -122.254         -58.8724         22.2684         -58.8724         22.2684      -0.00800866         151.139
0.501                  -0.172828        -122.684         -58.7816          20.911         -58.7815         20.9134      -0.00807357         151.074
0.502                  -0.177635        -123.117         -58.6891         19.5491         -58.6889         19.5539      -0.00813866         151.008
0.503                   -0.18254        -123.551         -58.5948         18.1829         -58.5945           18.19      -0.00820394         150.943
0.504                  -0.187544        -123.988         -58.4987         16.8125         -58.4983         16.8219      -0.00826944         150.878
0.505                  -0.192653        -124.426         -58.4009          15.438         -58.4004         15.4495      -0.00833516         150.812
0.506                  -0.197868        -124.868         -58.3013         14.0595         -58.3008         14.0731      -0.00840112         150.747
0.507                  -0.203194        -125.311            -58.2         12.6771         -58.1994         12.6926      -0.00846732         150.682
0.508                  -0.208634        -125.757          -58.097         11.2909         -58.0964         11.3082      -0.00853378         150.616
0.509                  -0.214192        -126.205         -57.9923          9.9009         -57.9916         9.92004      -0.00860052          150.55
0.51                   -0.219872        -126.656         -57.8859         8.50723         -57.8852         8.52807      -0.00866756         150.484
0.511                  -0.225678        -127.109         -57.7778         7.10995         -57.7771          7.1324      -0.00873489         150.419
0.512                  -0.231614        -127.565         -57.6681         5.70912         -57.6673          5.7331      -0.00880255         150.353
0.513                  -0.237686        -128.023         -57.5568          4.3048          -57.556          4.3302      -0.00887054         150.287
0.514                  -0.243897        -128.484         -57.4438         2.89702          -57.443         2.92377      -0.00893888          150.22
0.515                  -0.250253        -128.948         -57.3293         1.48583         -57.3284         1.51383      -0.00900759         150.154
0.516                   -0.25676        -129.414         -57.2132       0.0712567         -57.2123        0.100427      -0.00907667         150.088
0.517                  -0.263422        -129.883         -57.0955        -1.34667         -57.0947        -1.31642      -0.00914616         150.022
0.518                  -0.270246        -130.355         -56.9764        -2.76794         -56.9755         -2.7367      -0.00921606         149.955
0.519                  -0.277238        -130.829         -56.8557        -4.19254         -56.8549         -4.1604       -0.0092864         149.889
0.52                   -0.284403        -131.306         -56.7336        -5.62046         -56.7328        -5.58751      -0.00935718         149.822
0.521                  -0.291749        -131.787         -56.6101        -7.05172         -56.6093        -7.01805      -0.00942843         149.755
0.522                  -0.299283         -132.27         -56.4851        -8.48633         -56.4843        -8.45201      -0.00950017         149.689
0.523                  -0.307012        -132.756         -56.3588         -9.9243          -56.358        -9.88943      -0.00957241         149.622
0.524                  -0.314942        -133.245         -56.2311        -11.3657         -56.2304        -11.3303      -0.00964517         149.555
0.525                  -0.323084        -133.737         -56.1021        -12.8105         -56.1014        -12.7747      -0.00971848         149.488
0.526                  -0.331443        -134.232         -55.9718        -14.2587         -55.9711        -14.2227      -0.00979235          149.42
0.527                   -0.34003         -134.73         -55.8403        -15.7105         -55.8396        -15.6742       -0.0098668         149.353
0.528                  -0.348853        -135.232         -55.7075        -17.1659         -55.7068        -17.1294      -0.00994185         149.286
0.529                  -0.357922        -135.737         -55.5736        -18.6249         -55.5729        -18.5883       -0.0100175         149.218
0.53                   -0.367247        -136.245         -55.4384        -20.0876         -55.4378         -20.051       -0.0100939         149.151
0.531                  -0.376837        -136.756         -55.3022         -21.554         -55.3016        -21.5175       -0.0101708         149.083
0.532                  -0.386704         -137.27         -55.1648        -23.0243         -55.1642         -22.988       -0.0102485         149.015
0.533                  -0.396858        -137.788         -55.0264        -24.4986         -55.0258        -24.4625       -0.0103269         148.947
0.534                  -0.407311        -138.309          -54.887        -25.9769         -54.8864         -25.941        -0.010406         148.879
0.535                  -0.418076        -138.834         -54.7466        -27.4593          -54.746        -27.4238       -0.0104859         148.811
0.536                  -0.429165        -139.362         -54.6052         -28.946         -54.6047        -28.9108       -0.0105666         148.743
0.537                  -0.440591        -139.894          -54.463        -30.4369         -54.4625        -30.4022       -0.0106481         148.675
0.538                  -0.452367        -140.429         -54.3198        -31.9324         -54.3193        -31.8982       -0.0107304         148.607
0.539                  -0.464508        -140.968         -54.1758        -33.4323         -54.1754        -33.3987       -0.0108136         148.538
0.54                   -0.477029         -141.51          -54.031        -34.9369         -54.0306        -34.9039       -0.0108976          148.47
0.541                  -0.489944        -142.056         -53.8855        -36.4463         -53.8851         -36.414       -0.0109826         148.401
0.542                   -0.50327        -142.606         -53.7393        -37.9606         -53.7389         -37.929       -0.0110685         148.332
0.543                  -0.517023        -143.159         -53.5923          -39.48          -53.592        -39.4491       -0.0111553         148.263
0.544                  -0.531219        -143.716         -53.4448        -41.0044         -53.4444        -40.9744       -0.0112432         148.194
0.545                  -0.545877        -144.277         -53.2966        -42.5342         -53.2963        -42.5049       -0.0113321         148.125
0.546                  -0.561014        -144.841          -53.148        -44.0693         -53.1476        -44.0409        -0.011422         148.056
0.547                  -0.576649        -145.409         -52.9988        -45.6099         -52.9984        -45.5825        -0.011513         147.986
0.548                  -0.592801        -145.981         -52.8491        -47.1562         -52.8488        -47.1297       -0.0116051         147.917
0.549                   -0.60949        -146.557          -52.699        -48.7082         -52.6987        -48.6827       -0.0116984         147.847
0.55                   -0.626737        -147.136         -52.5486        -50.2661         -52.5483        -50.2416       -0.0117928         147.778
0.551                  -0.644562        -147.719         -52.3978          -51.83         -52.3975        -51.8065       -0.0118885         147.708
0.552                  -0.662986        -148.305         -52.2468        -53.3999         -52.2465        -53.3776       -0.0119854         147.638
0.553                  -0.682032        -148.896         -52.0955        -54.9761         -52.0953        -54.9549       -0.0120835         147.568
0.554                  -0.701721        -149.489         -51.9441        -56.5587         -51.9438        -56.5385       -0.0121829         147.498
0.555                  -0.722076        -150.087         -51.7925        -58.1476         -51.7922        -58.1286       -0.0122837         147.427
0.556                  -0.743121        -150.688         -51.6408        -59.7431         -51.6406        -59.7252       -0.0123859         147.357
0.557                  -0.764879        -151.292         -51.4891        -61.3451         -51.4889        -61.3284       -0.0124894         147.287
0.558                  -0.787373          -151.9         -51.3374        -62.9539         -51.3372        -62.9383       -0.0125944         147.216
0.559                  -0.810628        -152.511         -51.1858        -64.5694         -51.1856         -64.555       -0.0127008         147.145
0.56                   -0.834666        -153.126         -51.0343        -66.1917         -51.0342        -66.1785       -0.0128088         147.074
0.561                  -0.859513        -153.744          -50.883         -67.821         -50.8829        -67.8089       -0.0129183         147.003
0.562                  -0.885192        -154.364         -50.7319        -69.4571         -50.7318        -69.4463       -0.0130293         146.932
0.563                  -0.911727        -154.988         -50.5811        -71.1003          -50.581        -71.0906        -0.013142         146.861
0.564                  -0.939141        -155.614         -50.4306        -72.7504         -50.4305        -72.7419       -0.0132564         146.789
0.565                  -0.967457        -156.244         -50.2805        -74.4076         -50.2804        -74.4002       -0.0133724         146.718
0.566                  -0.996697        -156.875         -50.1308        -76.0717         -50.1308        -76.0655       -0.0134901         146.646
0.567                   -1.02688        -157.509         -49.9816        -77.7429         -49.9816        -77.7378       -0.0136097         146.574
0.568                   -1.05804        -158.146          -49.833        -79.4211          -49.833        -79.4171        -0.013731         146.502
0.569                   -1.09018        -158.784         -49.6849        -81.1062          -49.685        -81.1033       -0.0138541          146.43
0.57                    -1.12333        -159.424         -49.5375        -82.7982         -49.5377        -82.7964       -0.0139791         146.358
0.571                    -1.1575        -160.066         -49.3908        -84.4971          -49.391        -84.4964       -0.0141061         146.285
0.572                   -1.19271        -160.709         -49.2449        -86.2027         -49.2451         -86.203       -0.0142349         146.213
0.573                   -1.22897        -161.353         -49.0998         -87.915            -49.1        -87.9164       -0.0143658          146.14
0.574                   -1.26629        -161.999         -48.9555        -89.6338         -48.9558        -89.6362       -0.0144987         146.067
0.575                   -1.30469        -162.645         -48.8121        -91.3591         -48.8124        -91.3625       -0.0146337         145.994
0.576                   -1.34418        -163.291         -48.6697        -93.0907           -48.67         -93.095       -0.0147708         145.921
0.577                   -1.38474        -163.937         -48.5283        -94.8284         -48.5287        -94.8336         -0.01491         145.848
0.578                   -1.42639        -164.583         -48.3879        -96.5721         -48.3883        -96.5782       -0.0150513         145.775
0.579                   -1.46913        -165.229         -48.2486        -98.3216         -48.2491        -98.3285       -0.0151949         145.701
0.58                    -1.51295        -165.874         -48.1105        -100.077          -48.111        -100.084       -0.0153408         145.627
0.581                   -1.55785        -166.518         -47.9735        -101.837         -47.9741        -101.845       -0.0154889         145.553
0.582                    -1.6038         -167.16         -47.8378        -103.603         -47.8384        -103.612       -0.0156393         145.479
0.583                    -1.6508        -167.801         -47.7033        -105.373          -47.704        -105.383       -0.0157921         145.405
0.584                   -1.69882         -168.44         -47.5701        -107.148         -47.5709        -107.158       -0.0159473         145.331
0.585                   -1.74785        -169.077         -47.4383        -108.927          -47.439        -108.938       -0.0161049         145.256
0.586                   -1.79785        -169.711         -47.3077        -110.711         -47.3086        -110.722        -0.016265         145.182
0.587                   -1.84879        -170.342         -47.1786        -112.498         -47.1795         -112.51       -0.0164276         145.107
0.588                   -1.90065         -170.97         -47.0509        -114.289         -47.0519        -114.301       -0.0165926         145.032
0.589                   -1.95336        -171.595         -46.9246        -116.083         -46.9256        -116.095       -0.0167603         144.956
0.59                    -2.00691        -172.216         -46.7998        -117.879         -46.8008        -117.892       -0.0169305         144.881
0.591                   -2.06123        -172.834         -46.6764        -119.678         -46.6775        -119.692       -0.0171033         144.806
0.592                   -2.11627        -173.447         -46.5546         -121.48         -46.5557        -121.493       -0.0172788          144.73
0.593                   -2.17199        -174.057         -46.4342        -123.283         -46.4354        -123.297       -0.0174569         144.654
0.594                   -2.22832        -174.662         -46.3153        -125.087         -46.3165        -125.101       -0.0176378         144.578
0.595                   -2.28521        -175.263         -46.1979        -126.893         -46.1992        -126.907       -0.0178213         144.502
0.596                   -2.34259        -175.859          -46.082        -128.699         -46.0834        -128.713       -0.0180076         144.425
0.597                    -2.4004        -176.451         -45.9676        -130.506          -45.969         -130.52       -0.0181967         144.349
0.598                   -2.45857        -177.038         -45.8548        -132.313         -45.8562        -132.327       -0.0183886         144.272
0.599                   -2.51705        -177.621         -45.7434        -134.119         -45.7448        -134.133       -0.0185833         144.195
0.6                     -2.57575        -178.199         -45.6334        -135.925         -45.6349        -135.939       -0.0187808         144.118
0.601                   -2.63462        -178.774          -45.525        -137.729         -45.5265        -137.744       -0.0189812         144.041
0.602                   -2.69359        -179.344          -45.418        -139.533         -45.4195        -139.547       -0.0191844         143.963
0.603                    -2.7526         -179.91         -45.3124        -141.335         -45.3139        -141.349       -0.0193906         143.885
0.604                   -2.81159         179.527         -45.2082        -143.134         -45.2097        -143.148       -0.0195997         143.808
0.605                   -2.87049         178.967         -45.1053        -144.932         -45.1069        -144.945       -0.0198117         143.729
0.606                   -2.92926         178.411         -45.0038        -146.727         -45.0054         -146.74       -0.0200267         143.651
0.607                   -2.98783         177.857         -44.9036        -148.519         -44.9053        -148.532       -0.0202446         143.573
0.608                   -3.04617         177.305         -44.8047        -150.308         -44.8063         -150.32       -0.0204655         143.494
0.609                   -3.10423         176.755          -44.707        -152.093         -44.7087        -152.106       -0.0206894         143.415
0.61                    -3.16198         176.207         -44.6105        -153.875         -44.6122        -153.887       -0.0209164         143.336
0.611                   -3.21937         175.659         -44.5152        -155.653         -44.5168        -155.665       -0.0211463         143.257
0.612                   -3.27638         175.112          -44.421        -157.427         -44.4226        -157.439       -0.0213794         143.177
0.613                     -3.333         174.565         -44.3278        -159.197         -44.3294        -159.208       -0.0216154         143.097
0.614                    -3.3892         174.017         -44.2357        -160.962         -44.2373        -160.973       -0.0218546         143.017
0.615                   -3.44499         173.467         -44.1446        -162.723         -44.1461        -162.733       -0.0220969         142.937
0.616                   -3.50035         172.917         -44.0543        -164.479         -44.0559        -164.489       -0.0223422         142.857
0.617                    -3.5553         172.363          -43.965         -166.23         -43.9666        -166.239       -0.0225908         142.776
0.618                   -3.60984         171.807         -43.8765        -167.976          -43.878        -167.985       -0.0228424         142.695
0.619                     -3.664         171.248         -43.7888        -169.717         -43.7903        -169.726       -0.0230973         142.614
0.62                    -3.71779         170.685         -43.7019        -171.453         -43.7033        -171.461       -0.0233554         142.533
0.621                   -3.77124         170.117         -43.6156        -173.184          -43.617        -173.192       -0.0236166         142.451
0.622                    -3.8244         169.544         -43.5299         -174.91         -43.5313        -174.917       -0.0238812         142.369
0.623                   -3.87729         168.966         -43.4449         -176.63         -43.4463        -176.637        -0.024149         142.287
0.624                   -3.92998         168.381         -43.3604        -178.345         -43.3617        -178.351       -0.0244201         142.205
0.625                   -3.98251          167.79         -43.2764         179.945         -43.2777         179.939       -0.0246946         142.122
0.626                   -4.03493         167.192         -43.1928         178.241         -43.1941         178.235       -0.0249725         142.039
0.627                   -4.08731         166.587         -43.1097         176.541         -43.1109         176.536       -0.0252538         141.956
0.628                   -4.13971         165.974         -43.0269         174.847          -43.028         174.842       -0.0255386         141.873
0.629                   -4.19221         165.352         -42.9444         173.158         -42.9455         173.153       -0.0258268         141.789
