! TOUCHSTONE file generated by CST MICROWAVE STUDIO
! Date and time: Fri Oct 30 08:08:17 2020
! Project name: Scenario_1_Circular_Tissue_out_of_Line.cst
! Parameters = {dy1=139.548; L_HA=400; MT=2.54; Rad_Dielectric=30; Rad_Lower=7.3; Rad_Upper=30; a_HA=580; a_WG=246; b_HA=500; b_WG=121; c_HA=0; c_WG=187; d_feed=85; dx1=520; h_feed=15; h_lower=18; h_upper=40}
! Header version: 2018
! Port assignment regex: !\s*Touchstone port\s*([0-9]+)\s*=\s*(CST MWS port|CST DS port)\s*([0-9]+|Zmin|Zmax)\s*\(\"(.*)\"\)(\s*mode\s*([0-9]+))?.*
! Touchstone port assignment:
! Touchstone port 1 = CST MWS port 1 ("")
! Touchstone port 2 = CST MWS port 2 ("")
# GHz S DB R 50
0.5                    -0.134397        -122.433         -61.6316        -65.8487         -61.6319        -65.8504      -0.00734037         151.123
0.501                  -0.141539        -122.889         -61.4379        -67.2364         -61.4393        -67.2502      -0.00740116         151.058
0.502                  -0.148935        -123.345         -61.2427        -68.6462         -61.2452        -68.6708      -0.00746315         150.992
0.503                  -0.156586        -123.803         -61.0462        -70.0783         -61.0497        -70.1126      -0.00752637         150.927
0.504                  -0.164493        -124.262         -60.8483        -71.5331         -60.8529         -71.576       -0.0075908         150.861
0.505                  -0.172656        -124.722         -60.6494         -73.011         -60.6549        -73.0613      -0.00765647         150.795
0.506                  -0.181076        -125.184         -60.4494        -74.5123         -60.4558         -74.569      -0.00772336          150.73
0.507                  -0.189753        -125.647         -60.2484        -76.0373         -60.2557        -76.0993      -0.00779151         150.664
0.508                  -0.198687        -126.111         -60.0467        -77.5862         -60.0548        -77.6526       -0.0078609         150.598
0.509                  -0.207879        -126.577         -59.8444        -79.1594         -59.8531        -79.2291      -0.00793154         150.532
0.51                   -0.217327        -127.044         -59.6415        -80.7569         -59.6509        -80.8291      -0.00800345         150.466
0.511                  -0.227033        -127.512         -59.4382        -82.3791         -59.4482        -82.4529      -0.00807662           150.4
0.512                  -0.236994        -127.981         -59.2347         -84.026         -59.2452        -84.1005      -0.00815106         150.334
0.513                  -0.247211        -128.452         -59.0312        -85.6977         -59.0421        -85.7723      -0.00822679         150.267
0.514                  -0.257683        -128.923         -58.8277        -87.3942          -58.839        -87.4682      -0.00830379         150.201
0.515                  -0.268408        -129.396         -58.6245        -89.1157          -58.636        -89.1883      -0.00838209         150.135
0.516                  -0.279385         -129.87         -58.4217        -90.8619         -58.4334        -90.9326      -0.00846167         150.068
0.517                  -0.290613        -130.345         -58.2196        -92.6327         -58.2313         -92.701      -0.00854256         150.001
0.518                  -0.302091        -130.822         -58.0181        -94.4281         -58.0299        -94.4935      -0.00862475         149.935
0.519                  -0.313815        -131.299         -57.8177        -96.2476         -57.8293        -96.3098      -0.00870824         149.868
0.52                   -0.325785        -131.778         -57.6183        -98.0911         -57.6298        -98.1496      -0.00879304         149.801
0.521                  -0.337997        -132.258         -57.4203         -99.958         -57.4315        -100.013      -0.00887915         149.734
0.522                  -0.350449        -132.739         -57.2237        -101.848         -57.2346        -101.898      -0.00896658         149.667
0.523                  -0.363139        -133.221         -57.0288         -103.76         -57.0393        -103.807      -0.00905532           149.6
0.524                  -0.376063        -133.704         -56.8358        -105.695         -56.8458        -105.736      -0.00914538         149.533
0.525                  -0.389217        -134.188         -56.6447         -107.65         -56.6541        -107.687      -0.00923676         149.465
0.526                  -0.402599        -134.673         -56.4558        -109.626         -56.4646        -109.659      -0.00932946         149.398
0.527                  -0.416205         -135.16         -56.2693        -111.621         -56.2774        -111.649      -0.00942348         149.331
0.528                   -0.43003        -135.647         -56.0852        -113.634         -56.0925        -113.659      -0.00951882         149.263
0.529                  -0.444071        -136.136         -55.9037        -115.665         -55.9103        -115.686      -0.00961547         149.195
0.53                   -0.458322        -136.626          -55.725        -117.713         -55.7307        -117.729      -0.00971344         149.128
0.531                  -0.472779        -137.117         -55.5492        -119.775          -55.554        -119.789      -0.00981273          149.06
0.532                  -0.487437        -137.609         -55.3763        -121.852         -55.3802        -121.862      -0.00991332         148.992
0.533                  -0.502291        -138.102         -55.2066        -123.942         -55.2095        -123.949       -0.0100152         148.924
0.534                  -0.517336        -138.597           -55.04        -126.042          -55.042        -126.047       -0.0101184         148.856
0.535                  -0.532566        -139.092         -54.8766        -128.154         -54.8777        -128.156       -0.0102229         148.788
0.536                  -0.547974        -139.589         -54.7166        -130.273         -54.7167        -130.274       -0.0103287         148.719
0.537                  -0.563557        -140.087         -54.5598        -132.401          -54.559          -132.4       -0.0104357         148.651
0.538                  -0.579306        -140.586         -54.4065        -134.534         -54.4047        -134.532        -0.010544         148.582
0.539                  -0.595217        -141.087         -54.2564        -136.672         -54.2538         -136.67       -0.0106536         148.514
0.54                   -0.611282        -141.589         -54.1098        -138.813         -54.1062         -138.81       -0.0107644         148.445
0.541                  -0.627496        -142.093         -53.9665        -140.956         -53.9621        -140.954       -0.0108765         148.376
0.542                  -0.643853        -142.598         -53.8264          -143.1         -53.8213        -143.098       -0.0109898         148.307
0.543                  -0.660345        -143.104         -53.6896        -145.243         -53.6837        -145.241       -0.0111043         148.238
0.544                  -0.676966        -143.612          -53.556        -147.384         -53.5494        -147.383         -0.01122         148.169
0.545                  -0.693711        -144.122         -53.4255        -149.522         -53.4183        -149.523       -0.0113369           148.1
0.546                  -0.710574        -144.633          -53.298        -151.656         -53.2902        -151.658       -0.0114549         148.031
0.547                  -0.727548        -145.146         -53.1734        -153.784         -53.1651        -153.788       -0.0115741         147.961
0.548                  -0.744628        -145.661         -53.0516        -155.906         -53.0428        -155.912       -0.0116944         147.892
0.549                  -0.761808        -146.178         -52.9325        -158.022         -52.9233        -158.029       -0.0118158         147.822
0.55                   -0.779084        -146.697         -52.8159        -160.129         -52.8064        -160.138       -0.0119383         147.752
0.551                  -0.796452        -147.218         -52.7018        -162.228          -52.692        -162.239       -0.0120619         147.683
0.552                  -0.813907        -147.741         -52.5899        -164.317           -52.58         -164.33       -0.0121865         147.613
0.553                  -0.831447        -148.267         -52.4802        -166.396         -52.4701        -166.412       -0.0123121         147.542
0.554                  -0.849068        -148.795         -52.3725        -168.465         -52.3623        -168.483       -0.0124388         147.472
0.555                   -0.86677        -149.326         -52.2667        -170.524         -52.2565        -170.543       -0.0125664         147.402
0.556                  -0.884551         -149.86         -52.1625        -172.571         -52.1524        -172.592        -0.012695         147.332
0.557                  -0.902412        -150.396         -52.0599        -174.607         -52.0499         -174.63       -0.0128245         147.261
0.558                  -0.920354        -150.936         -51.9588        -176.631         -51.9489        -176.656        -0.012955          147.19
0.559                   -0.93838        -151.479         -51.8589        -178.644         -51.8492         -178.67       -0.0130864          147.12
0.56                   -0.956494        -152.025         -51.7602         179.356         -51.7507         179.328       -0.0132186         147.049
0.561                  -0.974703        -152.575         -51.6626         177.366         -51.6533         177.338       -0.0133517         146.978
0.562                  -0.993012        -153.128         -51.5658         175.389         -51.5568         175.359       -0.0134857         146.907
0.563                   -1.01143        -153.686         -51.4697         173.423         -51.4611         173.392       -0.0136205         146.835
0.564                   -1.02997        -154.247         -51.3744         171.468          -51.366         171.437       -0.0137561         146.764
0.565                   -1.04864        -154.813         -51.2795         169.524         -51.2715         169.493       -0.0138925         146.692
0.566                   -1.06747        -155.383         -51.1851         167.591         -51.1775         167.559       -0.0140298         146.621
0.567                   -1.08646        -155.958          -51.091         165.668         -51.0838         165.637       -0.0141678         146.549
0.568                   -1.10563        -156.538         -50.9971         163.756         -50.9903         163.724       -0.0143066         146.477
0.569                   -1.12501        -157.123         -50.9034         161.853          -50.897         161.822       -0.0144463         146.405
0.57                    -1.14463        -157.713         -50.8097          159.96         -50.8037          159.93       -0.0145867         146.333
0.571                   -1.16451        -158.309          -50.716         158.076         -50.7104         158.046        -0.014728          146.26
0.572                   -1.18467         -158.91         -50.6221           156.2         -50.6169         156.171       -0.0148701         146.188
0.573                   -1.20516        -159.517         -50.5281         154.333         -50.5234         154.304       -0.0150131         146.115
0.574                   -1.22601         -160.13         -50.4339         152.473         -50.4295         152.445       -0.0151569         146.043
0.575                   -1.24726        -160.749         -50.3394          150.62         -50.3354         150.594       -0.0153016          145.97
0.576                   -1.26894        -161.375         -50.2446         148.774          -50.241         148.749       -0.0154472         145.897
0.577                   -1.29111        -162.007         -50.1493         146.934         -50.1461          146.91       -0.0155938         145.824
0.578                   -1.31381        -162.646         -50.0537         145.099         -50.0508         145.077       -0.0157414          145.75
0.579                   -1.33709        -163.292         -49.9576          143.27         -49.9551          143.25       -0.0158901         145.677
0.58                      -1.361        -163.944         -49.8611         141.446         -49.8588         141.427       -0.0160399         145.603
0.581                    -1.3856        -164.604          -49.764         139.625         -49.7621         139.608       -0.0161908         145.529
0.582                   -1.41095         -165.27         -49.6664         137.809         -49.6648         137.793       -0.0163429         145.455
0.583                    -1.4371        -165.944         -49.5683         135.995          -49.567         135.981       -0.0164963         145.381
0.584                   -1.46412        -166.624         -49.4697         134.185         -49.4686         134.172        -0.016651         145.307
0.585                   -1.49206        -167.312         -49.3705         132.376         -49.3697         132.366       -0.0168072         145.232
0.586                   -1.52101        -168.007         -49.2708         130.569         -49.2702         130.561       -0.0169649         145.158
0.587                   -1.55101        -168.709         -49.1706         128.764         -49.1701         128.757       -0.0171241         145.083
0.588                   -1.58214        -169.418         -49.0698          126.96         -49.0695         126.954       -0.0172849         145.008
0.589                   -1.61446        -170.133         -48.9685         125.156         -48.9684         125.152       -0.0174475         144.933
0.59                    -1.64804        -170.856         -48.8667         123.352         -48.8667         123.349       -0.0176119         144.858
0.591                   -1.68295        -171.584         -48.7644         121.547         -48.7646         121.547       -0.0177783         144.782
0.592                   -1.71926        -172.319         -48.6617         119.742         -48.6619         119.743       -0.0179466         144.706
0.593                   -1.75702         -173.06         -48.5585         117.936         -48.5588         117.938       -0.0181169         144.631
0.594                   -1.79631        -173.807         -48.4549         116.129         -48.4553         116.132       -0.0182895         144.555
0.595                   -1.83718        -174.559          -48.351         114.319         -48.3515         114.324       -0.0184643         144.478
0.596                   -1.87969        -175.316         -48.2467         112.508         -48.2472         112.514       -0.0186415         144.402
0.597                    -1.9239        -176.078         -48.1421         110.694         -48.1426         110.701       -0.0188211         144.325
0.598                   -1.96987        -176.844         -48.0373         108.877         -48.0378         108.885       -0.0190032         144.249
0.599                   -2.01764        -177.615         -47.9322         107.058         -47.9327         107.066       -0.0191879         144.172
0.6                     -2.06725        -178.388         -47.8269         105.235         -47.8275         105.245       -0.0193754         144.094
0.601                   -2.11876        -179.165         -47.7215         103.409         -47.7221         103.419       -0.0195656         144.017
0.602                    -2.1722        -179.944          -47.616         101.579         -47.6166          101.59       -0.0197587         143.939
0.603                    -2.2276         179.275         -47.5105         99.7458          -47.511         99.7571       -0.0199548         143.862
0.604                   -2.28498         178.493          -47.405         97.9084         -47.4055         97.9202       -0.0201539         143.784
0.605                   -2.34438         177.709         -47.2995         96.0671            -47.3         96.0792       -0.0203562         143.706
0.606                   -2.40581         176.926         -47.1942         94.2216         -47.1946         94.2339       -0.0205616         143.627
0.607                   -2.46928         176.142          -47.089         92.3719         -47.0893         92.3844       -0.0207703         143.549
0.608                    -2.5348         175.359          -46.984          90.518         -46.9843         90.5305       -0.0209823          143.47
0.609                   -2.60237         174.578         -46.8793         88.6598         -46.8795         88.6723       -0.0211978         143.391
0.61                    -2.67198         173.798         -46.7749         86.7974         -46.7751         86.8098       -0.0214168         143.311
0.611                   -2.74363         173.021         -46.6709         84.9307          -46.671          84.943       -0.0216393         143.232
0.612                    -2.8173         172.248         -46.5673         83.0598         -46.5673         83.0719       -0.0218654         143.152
0.613                   -2.89297         171.477         -46.4641         81.1849         -46.4642         81.1966       -0.0220952         143.072
0.614                   -2.97061         170.711         -46.3615         79.3059         -46.3615         79.3173       -0.0223288         142.992
0.615                    -3.0502          169.95         -46.2594         77.4231         -46.2594         77.4341       -0.0225661         142.912
0.616                    -3.1317         169.194          -46.158         75.5365         -46.1579          75.547       -0.0228074         142.831
0.617                   -3.21506         168.443         -46.0572         73.6464         -46.0571         73.6564       -0.0230526         142.751
0.618                   -3.30025         167.699         -45.9572         71.7529          -45.957         71.7624       -0.0233017          142.67
0.619                    -3.3872         166.961         -45.8579         69.8563         -45.8577         69.8652       -0.0235549         142.588
0.62                    -3.47588         166.231         -45.7593         67.9567         -45.7591          67.965       -0.0238122         142.507
0.621                   -3.56621         165.508         -45.6616         66.0545         -45.6614         66.0622       -0.0240737         142.425
0.622                   -3.65814         164.793         -45.5648         64.1499         -45.5645          64.157       -0.0243393         142.343
0.623                   -3.75161         164.087         -45.4688         62.2433         -45.4686         62.2497       -0.0246093         142.261
0.624                   -3.84653         163.389         -45.3737         60.3348         -45.3735         60.3406       -0.0248835         142.178
0.625                   -3.94284         162.701         -45.2796         58.4248         -45.2794           58.43       -0.0251621         142.095
0.626                   -4.04047         162.021         -45.1864         56.5137         -45.1862         56.5183       -0.0254452         142.012
0.627                   -4.13933         161.351         -45.0943         54.6018         -45.0941         54.6058       -0.0257327         141.929
0.628                   -4.23934         160.692         -45.0031         52.6895         -45.0029         52.6929       -0.0260248         141.846
0.629                   -4.34043         160.042         -44.9129          50.777         -44.9127         50.7799       -0.0263214         141.762
