! TOUCHSTONE file generated by CST MICROWAVE STUDIO
! Date and time: Mon Oct 26 12:30:35 2020
! Project name: Scenario_1_Circular_Tissue_out_of_Line.cst
! Parameters = {dy1=139.548; L_HA=400; MT=2.54; Rad_Dielectric=30; Rad_Lower=7.3; Rad_Upper=30; a_HA=580; a_WG=246; b_HA=500; b_WG=121; c_HA=0; c_WG=187; d_feed=85; dx1=866; h_feed=15; h_lower=18; h_upper=40}
! Header version: 2018
! Port assignment regex: !\s*Touchstone port\s*([0-9]+)\s*=\s*(CST MWS port|CST DS port)\s*([0-9]+|Zmin|Zmax)\s*\(\"(.*)\"\)(\s*mode\s*([0-9]+))?.*
! Touchstone port assignment:
! Touchstone port 1 = CST MWS port 1 ("")
! Touchstone port 2 = CST MWS port 2 ("")
# GHz S DB R 50
0.5                    -0.143055        -122.253         -63.1963         96.3606         -63.1963         96.3606      -0.00744246         151.129
0.501                  -0.147529        -122.647         -63.2202         96.2339         -63.2222         96.2282      -0.00752428         151.063
0.502                   -0.15207        -123.044          -63.245         96.1092         -63.2491         96.0976      -0.00760635         150.998
0.503                  -0.156685        -123.444         -63.2708         95.9865          -63.277          95.969      -0.00768867         150.933
0.504                  -0.161378        -123.846         -63.2977          95.866         -63.3061         95.8425      -0.00777124         150.868
0.505                  -0.166156        -124.252         -63.3257         95.7479         -63.3364         95.7184      -0.00785407         150.802
0.506                  -0.171024         -124.66         -63.3548         95.6323         -63.3678         95.5967      -0.00793718         150.736
0.507                   -0.17599        -125.072         -63.3851         95.5193         -63.4005         95.4776      -0.00802057         150.671
0.508                  -0.181059        -125.487         -63.4166         95.4092         -63.4345         95.3613      -0.00810424         150.605
0.509                  -0.186239        -125.905         -63.4494         95.3021         -63.4698          95.248      -0.00818821         150.539
0.51                   -0.191535        -126.325         -63.4835         95.1982         -63.5065         95.1378      -0.00827249         150.474
0.511                  -0.196954        -126.749          -63.519         95.0977         -63.5447          95.031      -0.00835708         150.408
0.512                  -0.202504        -127.176         -63.5559         95.0009         -63.5843         94.9278      -0.00844199         150.342
0.513                  -0.208191        -127.607         -63.5943         94.9079         -63.6256         94.8284      -0.00852724         150.276
0.514                  -0.214024         -128.04         -63.6343          94.819         -63.6685         94.7332      -0.00861282         150.209
0.515                  -0.220009        -128.477         -63.6759         94.7346         -63.7131         94.6423      -0.00869876         150.143
0.516                  -0.226154        -128.917         -63.7191         94.6549         -63.7595         94.5561      -0.00878505         150.077
0.517                  -0.232467         -129.36         -63.7641         94.5802         -63.8078         94.4748      -0.00887172          150.01
0.518                  -0.238956        -129.807          -63.811         94.5108          -63.858          94.399      -0.00895877         149.944
0.519                  -0.245629        -130.257         -63.8597         94.4472         -63.9102         94.3288      -0.00904621         149.877
0.52                   -0.252494         -130.71         -63.9105         94.3896         -63.9645         94.2647      -0.00913405         149.811
0.521                  -0.259561        -131.167         -63.9633         94.3386         -64.0211         94.2072       -0.0092223         149.744
0.522                  -0.266837        -131.627         -64.0183         94.2946         -64.0799         94.1567      -0.00931098         149.677
0.523                  -0.274331         -132.09         -64.0756         94.2581         -64.1412         94.1137      -0.00940009          149.61
0.524                  -0.282053        -132.557         -64.1353         94.2295         -64.2051         94.0788      -0.00948964         149.543
0.525                  -0.290012        -133.027         -64.1974         94.2096         -64.2715         94.0526      -0.00957966         149.476
0.526                  -0.298217        -133.501         -64.2622         94.1989         -64.3408         94.0357      -0.00967014         149.409
0.527                  -0.306677        -133.979         -64.3297         94.1981          -64.413         94.0288      -0.00976111         149.342
0.528                  -0.315403        -134.459         -64.4001          94.208         -64.4883         94.0327      -0.00985257         149.275
0.529                  -0.324404        -134.944         -64.4735         94.2293         -64.5667         94.0482      -0.00994454         149.207
0.53                    -0.33369        -135.431           -64.55          94.263         -64.6486         94.0764        -0.010037          149.14
0.531                  -0.343272        -135.923         -64.6299           94.31          -64.734         94.1181         -0.01013         149.072
0.532                  -0.353161        -136.418         -64.7132         94.3714         -64.8232         94.1745       -0.0102236         149.004
0.533                  -0.363365        -136.916         -64.8003         94.4483         -64.9163         94.2468       -0.0103177         148.937
0.534                  -0.373897        -137.419         -64.8912         94.5421         -65.0135         94.3364       -0.0104124         148.869
0.535                  -0.384768        -137.924         -64.9861         94.6542         -65.1152         94.4448       -0.0105077         148.801
0.536                  -0.395988        -138.434         -65.0854         94.7861         -65.2214         94.5737       -0.0106036         148.733
0.537                  -0.407568        -138.946         -65.1891         94.9396         -65.3325         94.7248       -0.0107001         148.664
0.538                  -0.419521        -139.463         -65.2976         95.1166         -65.4488         94.9002       -0.0107973         148.596
0.539                  -0.431858        -139.983         -65.4112         95.3193         -65.5705         95.1022       -0.0108951         148.528
0.54                    -0.44459        -140.507           -65.53         95.5499         -65.6979         95.3334       -0.0109935         148.459
0.541                  -0.457729        -141.034         -65.6544         95.8113         -65.8314         95.5966       -0.0110927         148.391
0.542                  -0.471287        -141.565         -65.7848         96.1063         -65.9713         95.8951       -0.0111925         148.322
0.543                  -0.485277          -142.1         -65.9213         96.4384          -66.118         96.2324        -0.011293         148.253
0.544                  -0.499711        -142.638         -66.0644         96.8113         -66.2719         96.6127       -0.0113943         148.184
0.545                  -0.514601         -143.18         -66.2145         97.2292         -66.4334         97.0406       -0.0114963         148.115
0.546                   -0.52996        -143.725         -66.3719         97.6971         -66.6029         97.5214       -0.0115991         148.046
0.547                    -0.5458        -144.274          -66.537         98.2203         -66.7809         98.0611       -0.0117027         147.977
0.548                  -0.562134        -144.827         -66.7102         98.8051         -66.9678         98.6667       -0.0118071         147.908
0.549                  -0.578975        -145.383         -66.8919         99.4585         -67.1641         99.3459       -0.0119122         147.838
0.55                   -0.596336        -145.942         -67.0825         100.189         -67.3702         100.108       -0.0120183         147.769
0.551                   -0.61423        -146.505         -67.2823         101.005         -67.5867         100.963       -0.0121252         147.699
0.552                   -0.63267        -147.072         -67.4918         101.918         -67.8138         101.924       -0.0122329         147.629
0.553                  -0.651669        -147.642         -67.7112          102.94         -68.0518         103.003       -0.0123416         147.559
0.554                  -0.671241        -148.216         -67.9406         104.085         -68.3011         104.218       -0.0124512         147.489
0.555                  -0.691398        -148.793         -68.1801          105.37         -68.5616         105.588       -0.0125617         147.419
0.556                  -0.712154        -149.373         -68.4294         106.812          -68.833         107.132       -0.0126731         147.349
0.557                  -0.733523        -149.957         -68.6882         108.434         -69.1147         108.878       -0.0127856         147.279
0.558                  -0.755517        -150.544         -68.9554         110.259         -69.4056         110.851       -0.0128991         147.208
0.559                  -0.778151        -151.134         -69.2295         112.314         -69.7036         113.086       -0.0130136         147.138
0.56                   -0.801436        -151.727         -69.5081         114.631         -70.0057         115.617       -0.0131291         147.067
0.561                  -0.825388        -152.324         -69.7879         117.241         -70.3076         118.481       -0.0132457         146.996
0.562                  -0.850018        -152.924         -70.0641          120.18          -70.603         121.719       -0.0133634         146.925
0.563                   -0.87534        -153.527           -70.33          123.48         -70.8835         125.366       -0.0134822         146.854
0.564                  -0.901367        -154.133         -70.5772         127.172         -71.1382         129.453       -0.0136022         146.783
0.565                  -0.928113        -154.742         -70.7948         131.276         -71.3534         133.995       -0.0137233         146.712
0.566                   -0.95559        -155.354         -70.9696         135.799          -71.513         138.985       -0.0138457          146.64
0.567                  -0.983812        -155.969         -71.0871         140.723         -71.5999         144.381       -0.0139692         146.569
0.568                   -1.01279        -156.587          -71.132         146.001         -71.5976         150.107        -0.014094         146.497
0.569                   -1.04254        -157.208         -71.0905         151.553         -71.4931         156.044       -0.0142201         146.425
0.57                    -1.07307        -157.831         -70.9522         157.268          -71.279         162.049       -0.0143474         146.353
0.571                   -1.10439        -158.457         -70.7121         163.014         -70.9556         167.967       -0.0144762         146.281
0.572                   -1.13652        -159.085         -70.3719         168.656         -70.5306         173.654       -0.0146062         146.209
0.573                   -1.16947        -159.716          -69.939         174.071         -70.0171         178.999       -0.0147377         146.136
0.574                   -1.20325         -160.35         -69.4256         179.162         -69.4316        -176.075       -0.0148705         146.064
0.575                   -1.23787        -160.986         -68.8461        -176.133          -68.791        -171.603       -0.0150048         145.991
0.576                   -1.27334        -161.624         -68.2155        -171.846         -68.1107        -167.591       -0.0151406         145.918
0.577                   -1.30968        -162.264         -67.5472        -167.981         -67.4038         -164.02       -0.0152779         145.845
0.578                   -1.34689        -162.906          -66.853        -164.524         -66.6808        -160.862       -0.0154168         145.772
0.579                   -1.38499        -163.551         -66.1422        -161.448         -65.9495        -158.077       -0.0155572         145.699
0.58                    -1.42398        -164.197          -65.422        -158.722         -65.2157        -155.629       -0.0156992         145.625
0.581                   -1.46388        -164.845         -64.6976        -156.311         -64.4831        -153.478       -0.0158429         145.552
0.582                   -1.50469        -165.495         -63.9727        -154.181         -63.7544        -151.589       -0.0159882         145.478
0.583                   -1.54643        -166.147         -63.2497        -152.301          -63.031        -149.932       -0.0161352         145.404
0.584                    -1.5891          -166.8           -62.53        -150.642         -62.3136        -148.478        -0.016284          145.33
0.585                   -1.63271        -167.454         -61.8145        -149.178         -61.6025        -147.203       -0.0164346         145.256
0.586                   -1.67727         -168.11         -61.1033        -147.887         -60.8973        -146.085        -0.016587         145.182
0.587                   -1.72278        -168.767         -60.3962        -146.748         -60.1975        -145.107       -0.0167412         145.107
0.588                   -1.76926        -169.426         -59.6928        -145.745         -59.5024        -144.252       -0.0168973         145.033
0.589                   -1.81671        -170.085         -58.9924        -144.861         -58.8112        -143.507       -0.0170554         144.958
0.59                    -1.86514        -170.745          -58.294        -144.085         -58.1227         -142.86       -0.0172154         144.883
0.591                   -1.91456        -171.407         -57.5967        -143.404         -57.4359          -142.3       -0.0173774         144.807
0.592                   -1.96496        -172.069         -56.8992        -142.809         -56.7496         -141.82       -0.0175415         144.732
0.593                   -2.01636        -172.731         -56.2004        -142.291         -56.0624        -141.411       -0.0177077         144.657
0.594                   -2.06876        -173.394         -55.4989        -141.842         -55.3731        -141.066        -0.017876         144.581
0.595                   -2.12216        -174.057         -54.7931        -141.455         -54.6802        -140.781       -0.0180465         144.505
0.596                   -2.17658        -174.721         -54.0816        -141.126         -53.9822        -140.549       -0.0182193         144.429
0.597                     -2.232        -175.385         -53.3626        -140.848         -53.2773        -140.367       -0.0183943         144.353
0.598                   -2.28844        -176.049         -52.6343        -140.617         -52.5639        -140.231       -0.0185716         144.276
0.599                   -2.34589        -176.713         -51.8944         -140.43         -51.8399        -140.138       -0.0187513           144.2
0.6                     -2.40437        -177.377         -51.1408        -140.281         -51.1032        -140.084       -0.0189334         144.123
0.601                   -2.46387         -178.04         -50.3708        -140.168         -50.3513        -140.068       -0.0191179         144.046
0.602                   -2.52439        -178.703         -49.5814        -140.089         -49.5815        -140.088        -0.019305         143.969
0.603                   -2.58593        -179.366         -48.7693         -140.04         -48.7907        -140.142       -0.0194946         143.892
0.604                    -2.6485         179.972         -47.9304        -140.019         -47.9752         -140.23       -0.0196868         143.814
0.605                    -2.7121         179.311           -47.06        -140.023         -47.1308         -140.35       -0.0198817         143.736
0.606                   -2.77672         178.651         -46.1525         -140.05         -46.2525        -140.503       -0.0200793         143.658
0.607                   -2.84236         177.992          -45.201        -140.098          -45.334        -140.688       -0.0202797          143.58
0.608                   -2.90902         177.333         -44.1968        -140.165         -44.3678        -140.909       -0.0204829         143.502
0.609                   -2.97671         176.676         -43.1291        -140.249         -43.3445        -141.167        -0.020689         143.423
0.61                    -3.04541          176.02         -41.9837        -140.345          -42.252        -141.466       -0.0208981         143.345
0.611                   -3.11513         175.366         -40.7417        -140.451         -41.0743        -141.813       -0.0211101         143.266
0.612                   -3.18586         174.713          -39.377        -140.562           -39.79        -142.219       -0.0213253         143.186
0.613                   -3.25761         174.061         -37.8519        -140.671         -38.3688          -142.7       -0.0215437         143.107
0.614                   -3.33036         173.412         -36.1095        -140.766         -36.7664        -143.288       -0.0217653         143.027
0.615                   -3.40411         172.764         -34.0568        -140.824         -34.9139        -144.036       -0.0219904         142.948
0.616                   -3.47887         172.118         -31.5264          -140.8         -32.6949        -145.057       -0.0222193         142.868
0.617                   -3.55464         171.473         -28.1676        -140.562         -29.8897        -146.617       -0.0224528         142.787
0.618                   -3.63146         170.829         -23.0101        -139.593         -25.9999        -149.543        -0.022695         142.707
0.619                   -3.71002         170.156         -10.3856        -130.763         -19.4405        -158.214       -0.0230342         142.628
0.62                    -3.78058         169.521         -17.0701         31.6214         -8.94236         101.768       -0.0237125         142.546
0.621                   -3.86736         168.915          -24.577         34.4828         -20.9919         49.8447        -0.023439         142.464
0.622                   -3.94809         168.287         -28.3861         34.9844          -26.159          43.616       -0.0236664         142.383
0.623                   -4.02971         167.659         -30.9112          35.032         -29.2667         41.1102       -0.0239144         142.301
0.624                   -4.11227         167.032         -32.7779         34.9086         -31.4567         39.6364       -0.0241694         142.219
0.625                   -4.19579         166.408         -34.2433         34.6986         -33.1283         38.5871       -0.0244292         142.137
0.626                   -4.28025         165.787         -35.4387         34.4361         -34.4669         37.7499       -0.0246934         142.054
0.627                   -4.36565         165.169         -36.4401         34.1377         -35.5738         37.0317       -0.0249619         141.971
0.628                   -4.45198         164.554         -37.2955         33.8123         -36.5103          36.385       -0.0252347         141.889
0.629                   -4.53924         163.942          -38.037         33.4653         -37.3163         35.7833       -0.0255118         141.805
