! TOUCHSTONE file generated by CST MICROWAVE STUDIO
! Date and time: Sat Oct 24 11:48:14 2020
! Project name: Scenario_1_Circular_Tissue_out_of_Line.cst
! Parameters = {dy1=139.548; L_HA=400; MT=2.54; Rad_Dielectric=30; Rad_Lower=7.3; Rad_Upper=30; a_HA=580; a_WG=246; b_HA=500; b_WG=121; c_HA=0; c_WG=187; d_feed=85; dx1=1039; h_feed=15; h_lower=18; h_upper=40}
! Header version: 2018
! Port assignment regex: !\s*Touchstone port\s*([0-9]+)\s*=\s*(CST MWS port|CST DS port)\s*([0-9]+|Zmin|Zmax)\s*\(\"(.*)\"\)(\s*mode\s*([0-9]+))?.*
! Touchstone port assignment:
! Touchstone port 1 = CST MWS port 1 ("")
! Touchstone port 2 = CST MWS port 2 ("")
# GHz S DB R 50
0.5                    -0.146222        -122.235         -63.6759        -4.34813         -63.6759        -4.34813      -0.00765258         151.134
0.501                  -0.153107        -122.699         -63.5168        -6.12254          -63.517        -6.12301      -0.00771546         151.068
0.502                  -0.160215        -123.164          -63.356        -7.92452         -63.3564        -7.92541      -0.00777893         151.003
0.503                  -0.167545         -123.63         -63.1937        -9.75434         -63.1942         -9.7556      -0.00784301         150.938
0.504                  -0.175099        -124.098         -63.0298        -11.6122         -63.0305        -11.6138      -0.00790771         150.872
0.505                  -0.182877        -124.567         -62.8645        -13.4985         -62.8653        -13.5003      -0.00797302         150.807
0.506                  -0.190878        -125.037         -62.6977        -15.4132         -62.6987        -15.4154      -0.00803896         150.741
0.507                  -0.199103        -125.508         -62.5296        -17.3568         -62.5306        -17.3591      -0.00810554         150.675
0.508                  -0.207552        -125.981         -62.3601        -19.3293         -62.3613        -19.3318      -0.00817276          150.61
0.509                  -0.216226        -126.455         -62.1894        -21.3309         -62.1907        -21.3336      -0.00824064         150.544
0.51                   -0.225125         -126.93         -62.0175        -23.3618         -62.0189        -23.3646      -0.00830917         150.478
0.511                  -0.234249        -127.407         -61.8445        -25.4222          -61.846         -25.425      -0.00837838         150.412
0.512                  -0.243598        -127.885         -61.6705        -27.5121         -61.6721         -27.515      -0.00844827         150.346
0.513                  -0.253172        -128.364         -61.4957        -29.6316         -61.4973        -29.6345      -0.00851885         150.279
0.514                  -0.262971        -128.844           -61.32        -31.7809         -61.3216        -31.7837      -0.00859013         150.213
0.515                  -0.272996        -129.326         -61.1435        -33.9598         -61.1453        -33.9625      -0.00866213         150.147
0.516                  -0.283247        -129.809         -60.9665        -36.1684         -60.9683         -36.171      -0.00873485          150.08
0.517                  -0.293723        -130.293         -60.7891        -38.4066         -60.7909        -38.4092       -0.0088083         150.014
0.518                  -0.304425        -130.779         -60.6112        -40.6743          -60.613        -40.6767      -0.00888251         149.947
0.519                  -0.315353        -131.266         -60.4331        -42.9714          -60.435        -42.9737      -0.00895747         149.881
0.52                   -0.326507        -131.754         -60.2549        -45.2976         -60.2568        -45.2998      -0.00903321         149.814
0.521                  -0.337887        -132.244         -60.0768        -47.6528         -60.0786        -47.6548      -0.00910974         149.747
0.522                  -0.349492        -132.735         -59.8988        -50.0365         -59.9006        -50.0383      -0.00918708          149.68
0.523                  -0.361324        -133.228         -59.7211        -52.4485          -59.723        -52.4501      -0.00926524         149.613
0.524                  -0.373381        -133.721         -59.5439        -54.8883         -59.5457        -54.8897      -0.00934423         149.546
0.525                  -0.385665        -134.217         -59.3673        -57.3554         -59.3691        -57.3566      -0.00942408         149.479
0.526                  -0.398174        -134.713         -59.1915        -59.8492         -59.1933        -59.8502       -0.0095048         149.411
0.527                   -0.41091        -135.211         -59.0166        -62.3692         -59.0183        -62.3699      -0.00958642         149.344
0.528                  -0.423872        -135.711         -58.8428        -64.9145         -58.8445        -64.9151      -0.00966896         149.276
0.529                   -0.43706        -136.211         -58.6702        -67.4844         -58.6718        -67.4848      -0.00975243         149.209
0.53                   -0.450475        -136.714          -58.499        -70.0782         -58.5005        -70.0783      -0.00983687         149.141
0.531                  -0.464115        -137.218         -58.3293        -72.6947         -58.3307        -72.6947      -0.00992229         149.073
0.532                  -0.477983        -137.723         -58.1612        -75.3332         -58.1626         -75.333       -0.0100087         149.005
0.533                  -0.492077         -138.23          -57.995        -77.9924         -57.9963        -77.9921       -0.0100962         148.937
0.534                  -0.506398        -138.738         -57.8307        -80.6714         -57.8319        -80.6709       -0.0101848         148.869
0.535                  -0.520946        -139.248         -57.6684        -83.3688         -57.6696        -83.3683       -0.0102745         148.801
0.536                  -0.535722        -139.759         -57.5083        -86.0836         -57.5094        -86.0829       -0.0103653         148.733
0.537                  -0.550725        -140.272         -57.3504        -88.8143         -57.3514        -88.8135       -0.0104573         148.664
0.538                  -0.565956        -140.787         -57.1949        -91.5596         -57.1958        -91.5588       -0.0105506         148.596
0.539                  -0.581416        -141.303         -57.0419        -94.3183         -57.0427        -94.3175       -0.0106451         148.527
0.54                   -0.597104        -141.821         -56.8913        -97.0889         -56.8921         -97.088        -0.010741         148.459
0.541                  -0.613023        -142.341         -56.7433        -99.8699          -56.744         -99.869       -0.0108383          148.39
0.542                  -0.629171        -142.862          -56.598         -102.66         -56.5986        -102.659        -0.010937         148.321
0.543                   -0.64555        -143.385         -56.4552        -105.458         -56.4557        -105.457       -0.0110373         148.252
0.544                  -0.662161         -143.91         -56.3152        -108.261         -56.3156        -108.261       -0.0111391         148.183
0.545                  -0.679005        -144.437         -56.1777         -111.07         -56.1781        -111.069       -0.0112426         148.113
0.546                  -0.696083        -144.965          -56.043        -113.882         -56.0432        -113.881       -0.0113479         148.044
0.547                  -0.713395        -145.495         -55.9108        -116.696          -55.911        -116.695       -0.0114551         147.975
0.548                  -0.730944        -146.028         -55.7812         -119.51         -55.7813         -119.51       -0.0115642         147.905
0.549                   -0.74873        -146.562         -55.6542        -122.324         -55.6542        -122.324       -0.0116754         147.835
0.55                   -0.766755        -147.098         -55.5296        -125.136         -55.5296        -125.136       -0.0117888         147.765
0.551                  -0.785022        -147.636         -55.4074        -127.945         -55.4074        -127.945       -0.0119045         147.695
0.552                  -0.803532        -148.176         -55.2875         -130.75         -55.2874        -130.751       -0.0120227         147.625
0.553                  -0.822287        -148.719         -55.1699         -133.55         -55.1697        -133.551       -0.0121435         147.555
0.554                  -0.841289        -149.263         -55.0544        -136.344         -55.0542        -136.345       -0.0122669         147.485
0.555                  -0.860543         -149.81         -54.9409        -139.131         -54.9406        -139.132       -0.0123932         147.415
0.556                  -0.880049        -150.359         -54.8292         -141.91          -54.829        -141.911       -0.0125225         147.344
0.557                  -0.899812         -150.91         -54.7194        -144.681         -54.7191        -144.682       -0.0126548         147.273
0.558                  -0.919835        -151.464         -54.6113        -147.443         -54.6109        -147.444       -0.0127902         147.203
0.559                  -0.940122         -152.02         -54.5046        -150.196         -54.5043        -150.197       -0.0129288         147.132
0.56                   -0.960678        -152.579         -54.3994        -152.938         -54.3991         -152.94       -0.0130704         147.061
0.561                  -0.981506         -153.14         -54.2955         -155.67         -54.2951        -155.672       -0.0132151          146.99
0.562                   -1.00261        -153.704         -54.1928        -158.392         -54.1924        -158.394       -0.0133625         146.918
0.563                     -1.024         -154.27         -54.0911        -161.103         -54.0907        -161.105       -0.0135124         146.847
0.564                   -1.04568        -154.839         -53.9903        -163.803         -53.9899        -163.805       -0.0136644         146.776
0.565                   -1.06765        -155.411         -53.8903        -166.492         -53.8899        -166.495        -0.013818         146.704
0.566                   -1.08993        -155.986          -53.791         -169.17         -53.7906        -169.173       -0.0139727         146.633
0.567                   -1.11252        -156.564         -53.6923        -171.838         -53.6919         -171.84       -0.0141278         146.561
0.568                   -1.13542        -157.145          -53.594        -174.495         -53.5936        -174.497       -0.0142828         146.489
0.569                   -1.15866        -157.729         -53.4961        -177.141         -53.4957        -177.143        -0.014437         146.417
0.57                    -1.18223        -158.317         -53.3985        -179.777         -53.3981        -179.779       -0.0145899         146.345
0.571                   -1.20615        -158.907          -53.301         177.597         -53.3007         177.594       -0.0147411         146.273
0.572                   -1.23043        -159.501         -53.2037         174.981         -53.2034         174.978       -0.0148904           146.2
0.573                   -1.25508        -160.099         -53.1064         172.373          -53.106         172.371       -0.0150376         146.128
0.574                   -1.28012          -160.7          -53.009         169.775         -53.0087         169.772       -0.0151828         146.055
0.575                   -1.30555        -161.305         -52.9115         167.185         -52.9112         167.182       -0.0153262         145.982
0.576                   -1.33141        -161.914         -52.8138         164.603         -52.8135           164.6       -0.0154681         145.909
0.577                   -1.35769        -162.526         -52.7158         162.028         -52.7156         162.025        -0.015609         145.836
0.578                   -1.38443        -163.143         -52.6176          159.46         -52.6174         159.457       -0.0157492         145.763
0.579                   -1.41164        -163.763         -52.5191         156.898         -52.5189         156.896       -0.0158892          145.69
0.58                    -1.43934        -164.388         -52.4202         154.343           -52.42          154.34       -0.0160295         145.616
0.581                   -1.46756        -165.017          -52.321         151.792         -52.3208          151.79       -0.0161705         145.542
0.582                   -1.49632        -165.651         -52.2213         149.246         -52.2212         149.244       -0.0163126         145.468
0.583                   -1.52565        -166.289         -52.1213         146.705         -52.1211         146.703       -0.0164561         145.394
0.584                   -1.55557        -166.932         -52.0208         144.167         -52.0207         144.165       -0.0166014          145.32
0.585                   -1.58612        -167.579         -51.9199         141.632         -51.9198          141.63       -0.0167486         145.245
0.586                   -1.61733        -168.232         -51.8186         139.099         -51.8185         139.097       -0.0168981         145.171
0.587                   -1.64924        -168.889         -51.7169         136.569         -51.7168         136.567       -0.0170499         145.096
0.588                   -1.68189        -169.551         -51.6148         134.039         -51.6147         134.038       -0.0172042         145.021
0.589                   -1.71531        -170.219         -51.5123         131.511         -51.5122          131.51       -0.0173613         144.946
0.59                    -1.74955        -170.892         -51.4095         128.983         -51.4094         128.982        -0.017521         144.871
0.591                   -1.78466         -171.57         -51.3064         126.455         -51.3063         126.454       -0.0176836         144.795
0.592                   -1.82069        -172.253          -51.203         123.926         -51.2029         123.925       -0.0178491         144.719
0.593                   -1.85769        -172.942         -51.0994         121.397         -51.0993         121.396       -0.0180176         144.643
0.594                   -1.89571        -173.636         -50.9956         118.866         -50.9956         118.865        -0.018189         144.567
0.595                   -1.93483        -174.335         -50.8916         116.333         -50.8916         116.332       -0.0183636         144.491
0.596                   -1.97509         -175.04         -50.7876         113.797         -50.7876         113.797       -0.0185412         144.415
0.597                   -2.01657         -175.75         -50.6836          111.26         -50.6836         111.259       -0.0187219         144.338
0.598                   -2.05933        -176.466         -50.5796         108.719         -50.5796         108.719       -0.0189058         144.261
0.599                   -2.10345        -177.186         -50.4757         106.176         -50.4757         106.175       -0.0190929         144.184
0.6                       -2.149        -177.912          -50.372         103.629          -50.372         103.628       -0.0192832         144.107
0.601                   -2.19606        -178.642         -50.2685         101.078         -50.2685         101.078       -0.0194767          144.03
0.602                    -2.2447        -179.377         -50.1654         98.5239         -50.1654         98.5238       -0.0196735         143.952
0.603                   -2.29501         179.884         -50.0626         95.9659         -50.0626         95.9658       -0.0198736         143.874
0.604                   -2.34707         179.141         -49.9602          93.404         -49.9602          93.404        -0.020077         143.796
0.605                   -2.40095         178.395         -49.8584         90.8381         -49.8584         90.8382       -0.0202838         143.718
0.606                   -2.45673         177.646         -49.7572         88.2684         -49.7572         88.2685       -0.0204939          143.64
0.607                   -2.51448         176.895         -49.6567         85.6947         -49.6567         85.6949       -0.0207075         143.561
0.608                   -2.57427         176.142         -49.5569         83.1173         -49.5569         83.1175       -0.0209245         143.482
0.609                   -2.63617         175.389         -49.4579         80.5362         -49.4579         80.5365        -0.021145         143.403
0.61                    -2.70022         174.635         -49.3598         77.9517         -49.3598         77.9519        -0.021369         143.324
0.611                   -2.76647         173.882         -49.2626         75.3639         -49.2626         75.3642       -0.0215966         143.245
0.612                   -2.83494         173.131         -49.1665         72.7731         -49.1665         72.7734       -0.0218277         143.165
0.613                   -2.90564         172.382         -49.0714         70.1796         -49.0714         70.1799       -0.0220624         143.085
0.614                   -2.97858         171.638         -48.9774         67.5836         -48.9774          67.584       -0.0223008         143.005
0.615                   -3.05371         170.899         -48.8846         64.9857         -48.8846         64.9861       -0.0225428         142.925
0.616                     -3.131         170.165          -48.793         62.3862          -48.793         62.3865       -0.0227886         142.844
0.617                   -3.21037          169.44         -48.7027         59.7854         -48.7027         59.7857        -0.023038         142.764
0.618                   -3.29171         168.722         -48.6137         57.1839         -48.6137         57.1842       -0.0232913         142.683
0.619                    -3.3749         168.015          -48.526          54.582         -48.5259         54.5824       -0.0235484         142.601
0.62                    -3.45978         167.318         -48.4396         51.9804         -48.4395         51.9807       -0.0238093          142.52
0.621                   -3.54618         166.632         -48.3545         49.3795         -48.3545         49.3798       -0.0240741         142.438
0.622                   -3.63389         165.959         -48.2709         46.7798         -48.2708         46.7801       -0.0243428         142.356
0.623                   -3.72268         165.298         -48.1886         44.1818         -48.1885         44.1821       -0.0246155         142.274
0.624                   -3.81232         164.651         -48.1076         41.5861         -48.1076         41.5863       -0.0248922         142.191
0.625                   -3.90254         164.016          -48.028         38.9931         -48.0279         38.9934       -0.0251729         142.109
0.626                   -3.99308         163.395         -47.9497         36.4035         -47.9496         36.4037       -0.0254576         142.026
0.627                   -4.08369         162.787         -47.8727         33.8176         -47.8726         33.8178       -0.0257465         141.942
0.628                   -4.17409          162.19         -47.7969          31.236         -47.7969         31.2362       -0.0260395         141.859
0.629                   -4.26406         161.605         -47.7224         28.6592         -47.7224         28.6593       -0.0263366         141.775
