! TOUCHSTONE file generated by CST MICROWAVE STUDIO
! Date and time: Mon Oct 26 12:04:03 2020
! Project name: Scenario_1_Circular_Tissue_out_of_Line_v2.cst
! Parameters = {dy1=-328.7; L_HA=400; MT=2.54; Rad_Dielectric=30; Rad_Lower=7.3; Rad_Upper=30; a_HA=580; a_WG=246; b_HA=500; b_WG=121; c_HA=0; c_WG=187; d_feed=85; dx1=173; h_feed=15; h_lower=18; h_upper=40}
! Header version: 2018
! Port assignment regex: !\s*Touchstone port\s*([0-9]+)\s*=\s*(CST MWS port|CST DS port)\s*([0-9]+|Zmin|Zmax)\s*\(\"(.*)\"\)(\s*mode\s*([0-9]+))?.*
! Touchstone port assignment:
! Touchstone port 1 = CST MWS port 1 ("")
! Touchstone port 2 = CST MWS port 2 ("")
# GHz S DB R 50
0.5                    -0.156813        -122.474         -63.9462         84.9783         -63.9462         84.9783      -0.00708315         151.124
0.501                  -0.163153        -122.899         -63.7561         83.6635         -63.7566         83.6552      -0.00714987         151.058
0.502                  -0.169612        -123.327         -63.5691         82.3288           -63.57         82.3129      -0.00721737         150.993
0.503                  -0.176193        -123.757         -63.3849         80.9748         -63.3863         80.9519      -0.00728565         150.928
0.504                  -0.182898        -124.188         -63.2036         79.6018         -63.2053         79.5726      -0.00735471         150.862
0.505                  -0.189731        -124.623          -63.025         78.2104         -63.0271         78.1754      -0.00742457         150.797
0.506                  -0.196695        -125.059         -62.8491         76.8009         -62.8515         76.7606      -0.00749523         150.731
0.507                  -0.203793        -125.497         -62.6758         75.3737         -62.6785         75.3287      -0.00756669         150.665
0.508                  -0.211028        -125.938          -62.505         73.9292         -62.5081         73.8799      -0.00763896         150.599
0.509                  -0.218404        -126.381         -62.3367         72.4678           -62.34         72.4148      -0.00771206         150.533
0.51                   -0.225924        -126.826         -62.1708         70.9899         -62.1744         70.9335      -0.00778598         150.467
0.511                  -0.233591        -127.273         -62.0073         69.4958         -62.0112         69.4365      -0.00786074         150.401
0.512                   -0.24141        -127.723         -61.8461          67.986         -61.8502         67.9242      -0.00793634         150.335
0.513                  -0.249384        -128.175         -61.6872         66.4609         -61.6915         66.3968      -0.00801279         150.269
0.514                  -0.257517        -128.629         -61.5306         64.9207         -61.5351         64.8548      -0.00809009         150.203
0.515                  -0.265812        -129.086         -61.3762         63.3659         -61.3808         63.2986      -0.00816826         150.136
0.516                  -0.274273        -129.545         -61.2239          61.797         -61.2287         61.7284       -0.0082473          150.07
0.517                  -0.282905        -130.006         -61.0738         60.2142         -61.0787         60.1448      -0.00832722         150.003
0.518                  -0.291712         -130.47         -60.9257          58.618         -60.9307         58.5479      -0.00840803         149.937
0.519                  -0.300697        -130.936         -60.7798         57.0088         -60.7849         56.9384      -0.00848973          149.87
0.52                   -0.309866        -131.405         -60.6359          55.387          -60.641         55.3164      -0.00857234         149.803
0.521                  -0.319221        -131.876          -60.494         53.7529         -60.4992         53.6825      -0.00865587         149.736
0.522                  -0.328769        -132.349         -60.3541         52.1072         -60.3593         52.0371      -0.00874031         149.669
0.523                  -0.338513        -132.825         -60.2162           50.45         -60.2214         50.3805      -0.00882569         149.602
0.524                  -0.348458        -133.304         -60.0802          48.782         -60.0855         48.7132      -0.00891201         149.535
0.525                  -0.358609        -133.785         -59.9461         47.1035         -59.9514         47.0356      -0.00899927         149.468
0.526                  -0.368971        -134.269          -59.814          45.415         -59.8193         45.3481      -0.00908749         149.401
0.527                  -0.379548        -134.755         -59.6837         43.7169          -59.689         43.6511      -0.00917668         149.333
0.528                  -0.390346        -135.244         -59.5553         42.0097         -59.5606         41.9452      -0.00926685         149.266
0.529                   -0.40137        -135.735         -59.4288         40.2938          -59.434         40.2308      -0.00935801         149.198
0.53                   -0.412625        -136.229         -59.3041         38.5698         -59.3092         38.5083      -0.00945016          149.13
0.531                  -0.424116        -136.726         -59.1812          36.838         -59.1862         36.7782      -0.00954331         149.062
0.532                   -0.43585        -137.225           -59.06          35.099          -59.065         35.0409      -0.00963749         148.995
0.533                  -0.447831        -137.727         -58.9407         33.3533         -58.9455         33.2969      -0.00973269         148.927
0.534                  -0.460066        -138.231         -58.8231         31.6013         -58.8278         31.5468      -0.00982893         148.859
0.535                   -0.47256        -138.739         -58.7072         29.8434         -58.7119         29.7908      -0.00992622          148.79
0.536                  -0.485319        -139.249         -58.5931         28.0803         -58.5976         28.0297       -0.0100246         148.722
0.537                   -0.49835        -139.762         -58.4806         26.3124          -58.485         26.2637        -0.010124         148.654
0.538                  -0.511658        -140.277         -58.3698         24.5401         -58.3741         24.4934       -0.0102245         148.585
0.539                   -0.52525        -140.796         -58.2607          22.764         -58.2648         22.7194       -0.0103261         148.517
0.54                   -0.539132        -141.317         -58.1531         20.9845         -58.1571         20.9419       -0.0104288         148.448
0.541                  -0.553312        -141.841         -58.0472         19.2021          -58.051         19.1616       -0.0105326         148.379
0.542                  -0.567795        -142.367         -57.9429         17.4173         -57.9466         17.3788       -0.0106376          148.31
0.543                  -0.582589        -142.897         -57.8401         15.6305         -57.8436         15.5942       -0.0107436         148.241
0.544                    -0.5977        -143.429         -57.7389         13.8424         -57.7422          13.808       -0.0108509         148.172
0.545                  -0.613136        -143.965         -57.6391         12.0532         -57.6423         12.0208       -0.0109593         148.103
0.546                  -0.628904        -144.503         -57.5408         10.2634         -57.5439         10.2331       -0.0110689         148.034
0.547                  -0.645011        -145.044          -57.444         8.47356         -57.4469         8.44516       -0.0111797         147.964
0.548                  -0.661465        -145.588         -57.3486         6.68405         -57.3513         6.65758       -0.0112917         147.895
0.549                  -0.678274        -146.135         -57.2546         4.89532         -57.2572         4.87073       -0.0114049         147.825
0.55                   -0.695446        -146.685          -57.162         3.10777         -57.1644         3.08503       -0.0115193         147.755
0.551                  -0.712988        -147.238         -57.0707         1.32183         -57.0729         1.30088        -0.011635         147.685
0.552                  -0.730908        -147.794         -56.9807       -0.462102         -56.9827       -0.481305        -0.011752         147.615
0.553                  -0.749216        -148.353          -56.892        -2.24364         -56.8939        -2.26115       -0.0118702         147.545
0.554                  -0.767919        -148.914         -56.8045        -4.02242         -56.8062        -4.03828       -0.0119898         147.475
0.555                  -0.787026        -149.479         -56.7182        -5.79805         -56.7198        -5.81234       -0.0121106         147.405
0.556                  -0.806546        -150.047         -56.6332         -7.5702         -56.6346        -7.58296       -0.0122328         147.334
0.557                  -0.826487        -150.618         -56.5492        -9.33853         -56.5505        -9.34982       -0.0123563         147.264
0.558                  -0.846859        -151.192         -56.4664        -11.1027         -56.4675        -11.1126       -0.0124812         147.193
0.559                  -0.867671        -151.768         -56.3846        -12.8624         -56.3856         -12.871       -0.0126074         147.122
0.56                   -0.888933        -152.348         -56.3039        -14.6174         -56.3047        -14.6247        -0.012735         147.051
0.561                  -0.910653        -152.931         -56.2242        -16.3673         -56.2249        -16.3734       -0.0128641          146.98
0.562                  -0.932842        -153.517         -56.1454         -18.112          -56.146        -18.1168       -0.0129945         146.909
0.563                  -0.955509        -154.106         -56.0677         -19.851         -56.0681        -19.8548       -0.0131264         146.838
0.564                  -0.978665        -154.699         -55.9908        -21.5843         -55.9911         -21.587       -0.0132598         146.766
0.565                   -1.00232        -155.294         -55.9147        -23.3116          -55.915        -23.3133       -0.0133946         146.695
0.566                   -1.02648        -155.892         -55.8396        -25.0326         -55.8397        -25.0335       -0.0135309         146.623
0.567                   -1.05116        -156.493         -55.7652        -26.7472         -55.7652        -26.7472       -0.0136688         146.551
0.568                   -1.07638        -157.098         -55.6916        -28.4552         -55.6915        -28.4544       -0.0138082         146.479
0.569                   -1.10213        -157.705         -55.6187        -30.1565         -55.6185         -30.155       -0.0139491         146.407
0.57                    -1.12844        -158.316         -55.5465        -31.8508         -55.5463        -31.8486       -0.0140916         146.335
0.571                   -1.15531        -158.929          -55.475        -33.5381         -55.4747        -33.5353       -0.0142357         146.262
0.572                   -1.18275        -159.546         -55.4042        -35.2182         -55.4037        -35.2148       -0.0143814          146.19
0.573                   -1.21078        -160.166         -55.3339         -36.891         -55.3334        -36.8871       -0.0145288         146.117
0.574                   -1.23941        -160.788         -55.2642        -38.5565         -55.2636        -38.5521       -0.0146778         146.045
0.575                   -1.26864        -161.414         -55.1951        -40.2144         -55.1944        -40.2096       -0.0148285         145.972
0.576                    -1.2985        -162.043         -55.1264        -41.8648         -55.1258        -41.8597       -0.0149809         145.898
0.577                   -1.32899        -162.675         -55.0583        -43.5077         -55.0576        -43.5021        -0.015135         145.825
0.578                   -1.36013         -163.31         -54.9906        -45.1428         -54.9898         -45.137       -0.0152908         145.752
0.579                   -1.39193        -163.948         -54.9233        -46.7703         -54.9225        -46.7643       -0.0154485         145.678
0.58                    -1.42439        -164.588         -54.8564        -48.3901         -54.8556        -48.3838       -0.0156079         145.605
0.581                   -1.45755        -165.232         -54.7899        -50.0021          -54.789        -49.9957       -0.0157691         145.531
0.582                   -1.49139        -165.879         -54.7237        -51.6065         -54.7228        -51.5999       -0.0159322         145.457
0.583                   -1.52595        -166.529         -54.6579         -53.203          -54.657        -53.1964       -0.0160972         145.383
0.584                   -1.56123        -167.181         -54.5923        -54.7919         -54.5914        -54.7852        -0.016264         145.308
0.585                   -1.59725        -167.837          -54.527        -56.3731         -54.5261        -56.3664       -0.0164328         145.234
0.586                   -1.63401        -168.495         -54.4619        -57.9466          -54.461        -57.9399       -0.0166035         145.159
0.587                   -1.67154        -169.156         -54.3971        -59.5125         -54.3961        -59.5058       -0.0167762         145.084
0.588                   -1.70985         -169.82         -54.3324        -61.0708         -54.3315        -61.0642       -0.0169509         145.009
0.589                   -1.74894        -170.486         -54.2679        -62.6216          -54.267         -62.615       -0.0171276         144.934
0.59                    -1.78885        -171.156         -54.2036         -64.165         -54.2026        -64.1585       -0.0173064         144.859
0.591                   -1.82957        -171.828         -54.1393        -65.7009         -54.1384        -65.6946       -0.0174873         144.784
0.592                   -1.87112        -172.503         -54.0752        -67.2296         -54.0743        -67.2233       -0.0176703         144.708
0.593                   -1.91352         -173.18         -54.0112         -68.751         -54.0103        -68.7449       -0.0178554         144.632
0.594                   -1.95679         -173.86         -53.9472        -70.2653         -53.9464        -70.2594       -0.0180427         144.556
0.595                   -2.00093        -174.542         -53.8833        -71.7725         -53.8825        -71.7668       -0.0182323          144.48
0.596                   -2.04596        -175.227         -53.8194        -73.2728         -53.8186        -73.2672        -0.018424         144.404
0.597                    -2.0919        -175.915         -53.7555        -74.7662         -53.7547        -74.7608       -0.0186181         144.327
0.598                   -2.13877        -176.605         -53.6917        -76.2528         -53.6909        -76.2477       -0.0188144          144.25
0.599                   -2.18656        -177.297         -53.6277        -77.7328          -53.627         -77.728       -0.0190131         144.174
0.6                     -2.23531        -177.991         -53.5638        -79.2063         -53.5631        -79.2017       -0.0192142         144.096
0.601                   -2.28503        -178.688         -53.4998        -80.6734         -53.4991         -80.669       -0.0194177         144.019
0.602                   -2.33572        -179.387         -53.4357        -82.1342         -53.4351        -82.1301       -0.0196236         143.942
0.603                   -2.38742         179.912         -53.3716        -83.5889          -53.371         -83.585        -0.019832         143.864
0.604                   -2.44012         179.209         -53.3073        -85.0375         -53.3068        -85.0339       -0.0200429         143.786
0.605                   -2.49386         178.504          -53.243        -86.4802         -53.2425        -86.4768       -0.0202564         143.708
0.606                   -2.54864         177.797         -53.1785        -87.9171          -53.178         -87.914       -0.0204725          143.63
0.607                   -2.60447         177.089         -53.1139        -89.3484         -53.1134        -89.3456       -0.0206912         143.551
0.608                   -2.66138         176.378         -53.0491        -90.7742         -53.0487        -90.7716       -0.0209126         143.473
0.609                   -2.71938         175.666         -52.9842        -92.1946         -52.9838        -92.1923       -0.0211367         143.394
0.61                    -2.77849         174.952         -52.9191        -93.6098         -52.9188        -93.6077       -0.0213635         143.315
0.611                   -2.83871         174.237         -52.8538        -95.0199         -52.8535        -95.0181       -0.0215932         143.236
0.612                   -2.90007         173.521         -52.7884        -96.4251         -52.7881        -96.4235       -0.0218257         143.156
0.613                   -2.96259         172.803         -52.7227        -97.8254         -52.7225        -97.8241        -0.022061         143.076
0.614                   -3.02627         172.083         -52.6568        -99.2211         -52.6566          -99.22       -0.0222993         142.996
0.615                   -3.09113         171.363         -52.5907        -100.612         -52.5906        -100.611       -0.0225406         142.916
0.616                    -3.1572         170.642         -52.5244        -101.999         -52.5243        -101.998       -0.0227849         142.836
0.617                   -3.22447          169.92         -52.4578        -103.382         -52.4577        -103.381       -0.0230323         142.755
0.618                   -3.29298         169.196          -52.391         -104.76         -52.3909         -104.76       -0.0232828         142.674
0.619                   -3.36273         168.473         -52.3239        -106.135         -52.3239        -106.135       -0.0235364         142.593
0.62                    -3.43374         167.748         -52.2566        -107.506         -52.2566        -107.506       -0.0237933         142.512
0.621                   -3.50603         167.023          -52.189        -108.873          -52.189        -108.873       -0.0240534          142.43
0.622                   -3.57961         166.298         -52.1211        -110.236         -52.1212        -110.237       -0.0243169         142.348
0.623                   -3.65449         165.573         -52.0529        -111.597          -52.053        -111.598       -0.0245837         142.266
0.624                   -3.73069         164.847         -51.9844        -112.954         -51.9846        -112.955        -0.024854         142.184
0.625                   -3.80823         164.121         -51.9157        -114.308         -51.9159        -114.309       -0.0251277         142.101
0.626                   -3.88713         163.396         -51.8466        -115.659         -51.8468         -115.66        -0.025405         142.019
0.627                   -3.96738         162.671         -51.7772        -117.008         -51.7775        -117.009        -0.025686         141.936
0.628                   -4.04902         161.946         -51.7075        -118.354         -51.7078        -118.355       -0.0259705         141.852
0.629                   -4.13205         161.222         -51.6375        -119.697         -51.6378        -119.699       -0.0262589         141.769
