! TOUCHSTONE file generated by CST MICROWAVE STUDIO
! Date and time: Wed Oct 28 19:33:37 2020
! Project name: Scenario_1_Circular_Tissue_out_of_Line_v2.cst
! Parameters = {dy1=-328.7; L_HA=400; MT=2.54; Rad_Dielectric=30; Rad_Lower=7.3; Rad_Upper=30; a_HA=580; a_WG=246; b_HA=500; b_WG=121; c_HA=0; c_WG=187; d_feed=85; dx1=346; h_feed=15; h_lower=18; h_upper=40}
! Header version: 2018
! Port assignment regex: !\s*Touchstone port\s*([0-9]+)\s*=\s*(CST MWS port|CST DS port)\s*([0-9]+|Zmin|Zmax)\s*\(\"(.*)\"\)(\s*mode\s*([0-9]+))?.*
! Touchstone port assignment:
! Touchstone port 1 = CST MWS port 1 ("")
! Touchstone port 2 = CST MWS port 2 ("")
# GHz S DB R 50
0.5                    -0.139942        -122.339         -64.5185        -13.7534         -64.5171        -13.7502       -0.0078184         151.122
0.501                  -0.143795        -122.814         -64.3541        -15.5003         -64.3527        -15.4969      -0.00787404         151.057
0.502                  -0.148003         -123.29         -64.1895        -17.2239         -64.1881        -17.2203       -0.0079305         150.992
0.503                  -0.152566        -123.768         -64.0249        -18.9252         -64.0236        -18.9216      -0.00798777         150.926
0.504                  -0.157484        -124.246         -63.8604        -20.6054         -63.8591        -20.6017      -0.00804587         150.861
0.505                  -0.162756        -124.727         -63.6961        -22.2656         -63.6949        -22.2618      -0.00810481         150.795
0.506                  -0.168384        -125.208         -63.5322        -23.9069         -63.5309         -23.903      -0.00816458          150.73
0.507                  -0.174366        -125.691         -63.3687        -25.5304         -63.3675        -25.5264       -0.0082252         150.664
0.508                  -0.180703        -126.175         -63.2057        -27.1371         -63.2045        -27.1331      -0.00828667         150.598
0.509                  -0.187394         -126.66         -63.0432         -28.728         -63.0421         -28.724        -0.008349         150.532
0.51                   -0.194439        -127.146         -62.8814        -30.3042         -62.8803        -30.3001      -0.00841219         150.466
0.511                  -0.201838        -127.634         -62.7203        -31.8665         -62.7192        -31.8624      -0.00847626           150.4
0.512                   -0.20959        -128.122           -62.56        -33.4161         -62.5589         -33.412       -0.0085412         150.334
0.513                  -0.217694        -128.612         -62.4004        -34.9537         -62.3993        -34.9495      -0.00860703         150.268
0.514                  -0.226151        -129.103         -62.2416        -36.4802         -62.2406        -36.4761      -0.00867376         150.202
0.515                   -0.23496        -129.595         -62.0837        -37.9966         -62.0827        -37.9925      -0.00874138         150.135
0.516                  -0.244119        -130.089         -61.9266        -39.5036         -61.9257        -39.4995      -0.00880992         150.069
0.517                  -0.253628        -130.583         -61.7705         -41.002         -61.7696         -40.998      -0.00887937         150.002
0.518                  -0.263486        -131.079         -61.6152        -42.4927         -61.6143        -42.4888      -0.00894975         149.936
0.519                  -0.273693        -131.575         -61.4609        -43.9764           -61.46        -43.9725      -0.00902106         149.869
0.52                   -0.284247        -132.073         -61.3075        -45.4537         -61.3067        -45.4499      -0.00909331         149.802
0.521                  -0.295148        -132.572         -61.1551        -46.9255         -61.1542        -46.9217      -0.00916651         149.735
0.522                  -0.306395        -133.072         -61.0036        -48.3923         -61.0028        -48.3886      -0.00924067         149.668
0.523                  -0.317986        -133.573          -60.853        -49.8548         -60.8522        -49.8512      -0.00931579         149.601
0.524                   -0.32992        -134.075         -60.7034        -51.3137         -60.7026        -51.3101      -0.00939189         149.534
0.525                  -0.342197        -134.579         -60.5547        -52.7695         -60.5539         -52.766      -0.00946898         149.467
0.526                  -0.354815        -135.083         -60.4069        -54.2228         -60.4062        -54.2194      -0.00954706           149.4
0.527                  -0.367773        -135.589         -60.2601        -55.6742         -60.2594        -55.6709      -0.00962614         149.332
0.528                   -0.38107        -136.095         -60.1142        -57.1242         -60.1136         -57.121      -0.00970623         149.265
0.529                  -0.394704        -136.603         -59.9692        -58.5733         -59.9686        -58.5702      -0.00978735         149.197
0.53                   -0.408675        -137.112         -59.8252         -60.022         -59.8246        -60.0191       -0.0098695         149.129
0.531                  -0.422981        -137.622          -59.682        -61.4709         -59.6814        -61.4681      -0.00995269         149.062
0.532                  -0.437621        -138.133         -59.5398        -62.9204         -59.5392        -62.9176       -0.0100369         148.994
0.533                  -0.452593        -138.645         -59.3984        -64.3708         -59.3978        -64.3682       -0.0101222         148.926
0.534                  -0.467897        -139.158         -59.2579        -65.8227         -59.2573        -65.8202       -0.0102086         148.858
0.535                   -0.48353        -139.672         -59.1182        -67.2765         -59.1177        -67.2741       -0.0102961          148.79
0.536                  -0.499493        -140.188         -58.9794        -68.7325         -58.9789        -68.7303       -0.0103846         148.721
0.537                  -0.515782        -140.705         -58.8415        -70.1912          -58.841        -70.1891       -0.0104743         148.653
0.538                  -0.532398        -141.222         -58.7043        -71.6529         -58.7039        -71.6509       -0.0105651         148.584
0.539                  -0.549339        -141.741          -58.568        -73.1179         -58.5676         -73.116        -0.010657         148.516
0.54                   -0.566603        -142.261         -58.4325        -74.5866         -58.4321        -74.5848       -0.0107501         148.447
0.541                   -0.58419        -142.782         -58.2978        -76.0594         -58.2975        -76.0577       -0.0108443         148.378
0.542                  -0.602099        -143.305         -58.1639        -77.5364         -58.1636        -77.5349       -0.0109397         148.309
0.543                  -0.620327        -143.828         -58.0308        -79.0181         -58.0304        -79.0167       -0.0110362          148.24
0.544                  -0.638875        -144.353         -57.8984        -80.5048         -57.8981        -80.5034        -0.011134         148.171
0.545                   -0.65774        -144.879         -57.7668        -81.9965         -57.7665        -81.9953        -0.011233         148.102
0.546                  -0.676923        -145.407          -57.636        -83.4938         -57.6356        -83.4927       -0.0113331         148.033
0.547                  -0.696422        -145.935         -57.5058        -84.9967         -57.5055        -84.9957       -0.0114346         147.963
0.548                  -0.716236        -146.465         -57.3764        -86.5055         -57.3762        -86.5047       -0.0115372         147.894
0.549                  -0.736365        -146.996         -57.2478        -88.0205         -57.2475        -88.0197       -0.0116411         147.824
0.55                   -0.756808        -147.529         -57.1198        -89.5419         -57.1196        -89.5412       -0.0117463         147.754
0.551                  -0.777564        -148.063         -56.9926        -91.0697         -56.9924        -91.0692       -0.0118528         147.684
0.552                  -0.798632        -148.598         -56.8661        -92.6044         -56.8658        -92.6039       -0.0119606         147.614
0.553                  -0.820013        -149.135         -56.7402        -94.1459           -56.74        -94.1455       -0.0120698         147.544
0.554                  -0.841706        -149.673         -56.6151        -95.6945         -56.6149        -95.6942       -0.0121802         147.474
0.555                  -0.863711        -150.213         -56.4906        -97.2503         -56.4904        -97.2502        -0.012292         147.404
0.556                  -0.886027        -150.754         -56.3668        -98.8135         -56.3667        -98.8134       -0.0124052         147.333
0.557                  -0.908656        -151.296         -56.2437        -100.384         -56.2436        -100.384       -0.0125198         147.263
0.558                  -0.931596        -151.841         -56.1213        -101.962         -56.1212        -101.963       -0.0126357         147.192
0.559                  -0.954849        -152.387         -55.9996        -103.548         -55.9994        -103.549       -0.0127531         147.121
0.56                   -0.978415        -152.934         -55.8785        -105.142         -55.8784        -105.142        -0.012872          147.05
0.561                   -1.00229        -153.483         -55.7581        -106.744          -55.758        -106.744       -0.0129922         146.979
0.562                   -1.02649        -154.034         -55.6384        -108.353         -55.6383        -108.354        -0.013114         146.908
0.563                     -1.051        -154.587         -55.5193        -109.971         -55.5192        -109.971       -0.0132373         146.836
0.564                   -1.07582        -155.141          -55.401        -111.597         -55.4009        -111.597        -0.013362         146.765
0.565                   -1.10097        -155.697         -55.2833         -113.23         -55.2832        -113.231       -0.0134883         146.693
0.566                   -1.12643        -156.255         -55.1662        -114.872         -55.1662        -114.873       -0.0136162         146.622
0.567                   -1.15222        -156.815         -55.0499        -116.522         -55.0498        -116.522       -0.0137456          146.55
0.568                   -1.17833        -157.377         -54.9342         -118.18         -54.9341         -118.18       -0.0138766         146.478
0.569                   -1.20477        -157.942         -54.8192        -119.845         -54.8192        -119.846       -0.0140093         146.406
0.57                    -1.23153        -158.508         -54.7049        -121.519         -54.7049         -121.52       -0.0141435         146.333
0.571                   -1.25863        -159.076         -54.5913        -123.201         -54.5913        -123.202       -0.0142795         146.261
0.572                   -1.28607        -159.646         -54.4784        -124.891         -54.4784        -124.892       -0.0144171         146.188
0.573                   -1.31384        -160.219         -54.3662        -126.589         -54.3662         -126.59       -0.0145564         146.116
0.574                   -1.34196        -160.794         -54.2547        -128.294         -54.2547        -128.295       -0.0146975         146.043
0.575                   -1.37042        -161.371         -54.1439        -130.007         -54.1439        -130.008       -0.0148403          145.97
0.576                   -1.39924        -161.951         -54.0338        -131.728         -54.0338        -131.729       -0.0149848         145.897
0.577                   -1.42841        -162.533         -53.9245        -133.456         -53.9245        -133.457       -0.0151312         145.823
0.578                   -1.45795        -163.118         -53.8158        -135.191         -53.8158        -135.192       -0.0152794          145.75
0.579                   -1.48786        -163.706          -53.708        -136.933          -53.708        -136.934       -0.0154294         145.676
0.58                    -1.51814        -164.296         -53.6008        -138.682         -53.6008        -138.684       -0.0155814         145.603
0.581                    -1.5488        -164.888         -53.4944        -140.439         -53.4945         -140.44       -0.0157352         145.529
0.582                   -1.57985        -165.484         -53.3888        -142.201         -53.3889        -142.203        -0.015891         145.455
0.583                    -1.6113        -166.082          -53.284        -143.971          -53.284        -143.972       -0.0160487          145.38
0.584                   -1.64315        -166.684         -53.1799        -145.746         -53.1799        -145.747       -0.0162084         145.306
0.585                   -1.67542        -167.288         -53.0766        -147.527         -53.0766        -147.528       -0.0163702         145.231
0.586                   -1.70811        -167.896          -52.974        -149.315         -52.9741        -149.316        -0.016534         145.157
0.587                   -1.74123        -168.506         -52.8723        -151.107         -52.8724        -151.108       -0.0166999         145.082
0.588                    -1.7748         -169.12         -52.7714        -152.905         -52.7714        -152.906       -0.0168678         145.007
0.589                   -1.80882        -169.737         -52.6713        -154.708         -52.6713        -154.709        -0.017038         144.932
0.59                    -1.84331        -170.358         -52.5719        -156.516          -52.572        -156.517       -0.0172103         144.856
0.591                   -1.87828        -170.982         -52.4734        -158.328         -52.4735        -158.329       -0.0173848         144.781
0.592                   -1.91374         -171.61         -52.3757        -160.145         -52.3758        -160.146       -0.0175616         144.705
0.593                   -1.94971        -172.241         -52.2789        -161.965         -52.2789        -161.966       -0.0177406         144.629
0.594                    -1.9862        -172.876         -52.1828        -163.789         -52.1829         -163.79        -0.017922         144.553
0.595                   -2.02323        -173.514         -52.0876        -165.617         -52.0877        -165.618       -0.0181057         144.477
0.596                   -2.06081        -174.157         -51.9932        -167.447         -51.9933        -167.448       -0.0182918           144.4
0.597                   -2.09897        -174.803         -51.8996         -169.28         -51.8997        -169.281       -0.0184803         144.324
0.598                   -2.13771        -175.454         -51.8069        -171.116          -51.807        -171.116       -0.0186713         144.247
0.599                   -2.17706        -176.108          -51.715        -172.953         -51.7151        -172.954       -0.0188648          144.17
0.6                     -2.21704        -176.767         -51.6239        -174.793          -51.624        -174.793       -0.0190608         144.093
0.601                   -2.25768         -177.43         -51.5337        -176.633         -51.5338        -176.634       -0.0192595         144.015
0.602                   -2.29898        -178.097         -51.4443        -178.475         -51.4444        -178.476       -0.0194607         143.938
0.603                   -2.34098        -178.769         -51.3557         179.682         -51.3558         179.682       -0.0196647          143.86
0.604                   -2.38371        -179.445         -51.2679         177.839          -51.268         177.839       -0.0198713         143.782
0.605                   -2.42718         179.874         -51.1809         175.996          -51.181         175.996       -0.0200807         143.704
0.606                   -2.47142         179.188         -51.0948         174.153         -51.0949         174.153       -0.0202929         143.626
0.607                   -2.51646         178.498         -51.0094         172.311         -51.0095          172.31        -0.020508         143.547
0.608                   -2.56234         177.803         -50.9248         170.469         -50.9249         170.469        -0.020726         143.468
0.609                   -2.60908         177.104          -50.841         168.629         -50.8411         168.628       -0.0209469         143.389
0.61                    -2.65671         176.399          -50.758          166.79         -50.7581         166.789       -0.0211709          143.31
0.611                   -2.70527          175.69         -50.6758         164.953         -50.6759         164.952       -0.0213979         143.231
0.612                   -2.75479         174.975         -50.5943         163.117         -50.5944         163.117        -0.021628         143.151
0.613                   -2.80531         174.256         -50.5135         161.285         -50.5136         161.285       -0.0218612         143.071
0.614                   -2.85686         173.531         -50.4335         159.455         -50.4336         159.455       -0.0220977         142.991
0.615                   -2.90949         172.802         -50.3541         157.628         -50.3542         157.628       -0.0223375         142.911
0.616                   -2.96324         172.067         -50.2755         155.804         -50.2756         155.804       -0.0225806          142.83
0.617                   -3.01814         171.327         -50.1975         153.984         -50.1976         153.984       -0.0228271         142.749
0.618                   -3.07425         170.582         -50.1203         152.167         -50.1204         152.167        -0.023077         142.668
0.619                    -3.1316         169.831         -50.0436         150.355         -50.0437         150.355       -0.0233305         142.587
0.62                    -3.19025         169.076         -49.9676         148.547         -49.9677         148.547       -0.0235875         142.506
0.621                   -3.25024         168.316         -49.8922         146.743         -49.8923         146.743       -0.0238482         142.424
0.622                   -3.31163          167.55         -49.8175         144.944         -49.8176         144.944       -0.0241125         142.342
0.623                   -3.37446         166.779         -49.7432          143.15         -49.7433          143.15       -0.0243807          142.26
0.624                   -3.43879         166.003         -49.6696         141.361         -49.6697         141.361       -0.0246527         142.177
0.625                   -3.50467         165.223         -49.5965         139.577         -49.5966         139.578       -0.0249286         142.094
0.626                   -3.57216         164.437         -49.5239         137.799          -49.524           137.8       -0.0252086         142.011
0.627                   -3.64132         163.647         -49.4518         136.027         -49.4519         136.027       -0.0254925         141.928
0.628                    -3.7122         162.852         -49.3802          134.26         -49.3803         134.261       -0.0257807         141.844
0.629                   -3.78487         162.053         -49.3091           132.5         -49.3092           132.5        -0.026073         141.761
