! TOUCHSTONE file generated by CST MICROWAVE STUDIO
! Date and time: Fri Oct 30 07:48:06 2020
! Project name: Scenario_1_Circular_Tissue_out_of_Line.cst
! Parameters = {dy1=-328.659; L_HA=400; MT=2.54; Rad_Dielectric=30; Rad_Lower=7.3; Rad_Upper=30; a_HA=580; a_WG=246; b_HA=500; b_WG=121; c_HA=0; c_WG=187; d_feed=85; dx1=520; h_feed=15; h_lower=18; h_upper=40}
! Header version: 2018
! Port assignment regex: !\s*Touchstone port\s*([0-9]+)\s*=\s*(CST MWS port|CST DS port)\s*([0-9]+|Zmin|Zmax)\s*\(\"(.*)\"\)(\s*mode\s*([0-9]+))?.*
! Touchstone port assignment:
! Touchstone port 1 = CST MWS port 1 ("")
! Touchstone port 2 = CST MWS port 2 ("")
# GHz S DB R 50
0.5                     -0.15125        -122.353         -64.1349        -92.3011         -64.1349        -92.3011      -0.00728634         151.135
0.501                  -0.156101        -122.814         -64.2604        -93.8466         -64.2604        -93.8481      -0.00735882          151.07
0.502                  -0.161189        -123.276         -64.3862        -95.4406         -64.3863        -95.4436       -0.0074319         151.005
0.503                  -0.166516         -123.74         -64.5121        -97.0849         -64.5122        -97.0895      -0.00750558          150.94
0.504                  -0.172086        -124.206         -64.6377        -98.7815         -64.6379        -98.7879      -0.00757988         150.874
0.505                    -0.1779        -124.674         -64.7629        -100.533          -64.763        -100.541       -0.0076548         150.809
0.506                  -0.183961        -125.143         -64.8871         -102.34         -64.8873         -102.35      -0.00773034         150.743
0.507                  -0.190274        -125.615           -65.01        -104.206         -65.0102        -104.217      -0.00780651         150.678
0.508                  -0.196839        -126.088         -65.1312        -106.132         -65.1313        -106.145      -0.00788333         150.612
0.509                  -0.203661        -126.563         -65.2501         -108.12         -65.2502        -108.135      -0.00796078         150.546
0.51                   -0.210743         -127.04         -65.3662        -110.171         -65.3663        -110.188      -0.00803889          150.48
0.511                  -0.218086        -127.519         -65.4788        -112.287         -65.4789        -112.306      -0.00811767         150.414
0.512                  -0.225695            -128         -65.5875        -114.469         -65.5875         -114.49       -0.0081971         150.348
0.513                  -0.233572        -128.482         -65.6914        -116.718         -65.6913        -116.741      -0.00827721         150.282
0.514                  -0.241721        -128.967         -65.7898        -119.033         -65.7895        -119.058      -0.00835801         150.216
0.515                  -0.250143        -129.453         -65.8819        -121.416         -65.8815        -121.443      -0.00843949          150.15
0.516                  -0.258844        -129.941         -65.9669        -123.865         -65.9664        -123.894      -0.00852167         150.083
0.517                  -0.267824        -130.431          -66.044        -126.379         -66.0433         -126.41      -0.00860455         150.017
0.518                  -0.277089        -130.923         -66.1123        -128.957         -66.1113        -128.989      -0.00868815         149.951
0.519                  -0.286641        -131.417         -66.1708        -131.595         -66.1697        -131.629      -0.00877247         149.884
0.52                   -0.296482        -131.912         -66.2189        -134.291         -66.2175        -134.326      -0.00885752         149.817
0.521                  -0.306617         -132.41         -66.2556         -137.04         -66.2539        -137.077      -0.00894331         149.751
0.522                  -0.317049        -132.909         -66.2801        -139.838         -66.2782        -139.876      -0.00902985         149.684
0.523                   -0.32778        -133.411         -66.2918         -142.68         -66.2896        -142.719      -0.00911714         149.617
0.524                  -0.338815        -133.914         -66.2901        -145.558         -66.2875        -145.598       -0.0092052          149.55
0.525                  -0.350157        -134.419         -66.2744        -148.467         -66.2715        -148.507      -0.00929403         149.483
0.526                  -0.361808        -134.926         -66.2443        -151.399         -66.2411         -151.44      -0.00938365         149.416
0.527                  -0.373772        -135.435         -66.1996        -154.347         -66.1961        -154.388      -0.00947406         149.348
0.528                  -0.386054        -135.946         -66.1402        -157.303         -66.1364        -157.344      -0.00956527         149.281
0.529                  -0.398655        -136.459         -66.0661        -160.259          -66.062          -160.3      -0.00965729         149.214
0.53                   -0.411581        -136.973         -65.9775        -163.208          -65.973        -163.249      -0.00975014         149.146
0.531                  -0.424833         -137.49         -65.8747        -166.142         -65.8699        -166.182      -0.00984382         149.078
0.532                  -0.438416        -138.009         -65.7581        -169.054          -65.753        -169.094      -0.00993834         149.011
0.533                  -0.452334        -138.529         -65.6283        -171.938         -65.6229        -171.977       -0.0100337         148.943
0.534                   -0.46659        -139.052         -65.4859        -174.788         -65.4803        -174.826         -0.01013         148.875
0.535                  -0.481187        -139.576         -65.3317        -177.599         -65.3259        -177.636       -0.0102271         148.807
0.536                  -0.496129        -140.102         -65.1665         179.634         -65.1605         179.599       -0.0103251         148.739
0.537                  -0.511421         -140.63         -64.9911         176.915          -64.985          176.88        -0.010424         148.671
0.538                  -0.527065        -141.161         -64.8064         174.246         -64.8001         174.213       -0.0105238         148.602
0.539                  -0.543065        -141.693         -64.6133         171.629         -64.6069         171.597       -0.0106245         148.534
0.54                   -0.559426        -142.227         -64.4126         169.066          -64.406         169.036       -0.0107262         148.465
0.541                  -0.576151        -142.763         -64.2051         166.559         -64.1985          166.53       -0.0108288         148.397
0.542                  -0.593244        -143.301         -63.9917         164.107          -63.985         164.079       -0.0109324         148.328
0.543                  -0.610709        -143.841         -63.7731          161.71         -63.7664         161.684        -0.011037         148.259
0.544                   -0.62855        -144.383         -63.5501         159.368         -63.5434         159.343       -0.0111425          148.19
0.545                  -0.646771        -144.927         -63.3233         157.079         -63.3167         157.056        -0.011249         148.121
0.546                  -0.665375        -145.473         -63.0935         154.843         -63.0868         154.821       -0.0113566         148.052
0.547                  -0.684368        -146.021          -62.861         152.658         -62.8544         152.637       -0.0114651         147.983
0.548                  -0.703752         -146.57         -62.6266         150.522           -62.62         150.502       -0.0115747         147.914
0.549                  -0.723533        -147.122         -62.3907         148.434         -62.3841         148.415       -0.0116854         147.844
0.55                   -0.743714        -147.676         -62.1536         146.391         -62.1472         146.373       -0.0117971         147.775
0.551                    -0.7643        -148.232         -61.9159         144.392         -61.9095         144.375       -0.0119099         147.705
0.552                  -0.785295        -148.789         -61.6778         142.434         -61.6715         142.418       -0.0120238         147.635
0.553                  -0.806703        -149.349         -61.4397         140.515         -61.4335           140.5       -0.0121388         147.566
0.554                  -0.828528        -149.911         -61.2019         138.634         -61.1958          138.62        -0.012255         147.496
0.555                  -0.850775        -150.475         -60.9645         136.787         -60.9585         136.775       -0.0123723         147.425
0.556                  -0.873449         -151.04         -60.7278         134.974         -60.7219         134.962       -0.0124907         147.355
0.557                  -0.896554        -151.608          -60.492         133.193         -60.4862         133.181       -0.0126103         147.285
0.558                  -0.920094        -152.178         -60.2573          131.44         -60.2516         131.429       -0.0127311         147.214
0.559                  -0.944075        -152.749         -60.0237         129.715         -60.0182         129.705       -0.0128532         147.144
0.56                     -0.9685        -153.323         -59.7915         128.015         -59.7861         128.006       -0.0129764         147.073
0.561                  -0.993375        -153.899         -59.5607          126.34         -59.5554         126.331       -0.0131009         147.002
0.562                    -1.0187        -154.477         -59.3314         124.686         -59.3262         124.678       -0.0132267         146.931
0.563                   -1.04449        -155.056         -59.1037         123.053         -59.0986         123.045       -0.0133537          146.86
0.564                   -1.07074        -155.638         -58.8776         121.439         -58.8727         121.432       -0.0134821         146.789
0.565                   -1.09747        -156.222         -58.6532         119.843         -58.6485         119.836       -0.0136118         146.718
0.566                   -1.12466        -156.808         -58.4306         118.263          -58.426         118.256       -0.0137428         146.646
0.567                   -1.15234        -157.395         -58.2098         116.697         -58.2053         116.691       -0.0138751         146.575
0.568                    -1.1805        -157.985         -57.9908         115.145         -57.9864         115.139       -0.0140089         146.503
0.569                   -1.20914        -158.577         -57.7736         113.605         -57.7694           113.6        -0.014144         146.431
0.57                    -1.23829        -159.171         -57.5583         112.077         -57.5542         112.071       -0.0142806         146.359
0.571                   -1.26793        -159.767         -57.3448         110.558         -57.3409         110.553       -0.0144186         146.287
0.572                   -1.29808        -160.365         -57.1333         109.048         -57.1294         109.043       -0.0145581         146.215
0.573                   -1.32875        -160.965         -56.9236         107.547         -56.9199         107.542       -0.0146991         146.142
0.574                   -1.35993        -161.567         -56.7158         106.052         -56.7122         106.047       -0.0148415          146.07
0.575                   -1.39163        -162.171         -56.5099         104.563         -56.5064         104.558       -0.0149856         145.997
0.576                   -1.42386        -162.777         -56.3059         103.079         -56.3025         103.075       -0.0151311         145.924
0.577                   -1.45663        -163.385         -56.1037         101.599         -56.1005         101.595       -0.0152783         145.851
0.578                   -1.48993        -163.996         -55.9035         100.123         -55.9004         100.119        -0.015427         145.778
0.579                   -1.52379        -164.608         -55.7051         98.6491         -55.7022         98.6455       -0.0155774         145.705
0.58                     -1.5582        -165.222         -55.5087         97.1775         -55.5059          97.174       -0.0157294         145.632
0.581                   -1.59317        -165.839         -55.3141          95.707         -55.3114         95.7037       -0.0158832         145.558
0.582                    -1.6287        -166.457         -55.1214         94.2372         -55.1188         94.2339       -0.0160386         145.484
0.583                   -1.66481        -167.078         -54.9305         92.7672         -54.9281         92.7641       -0.0161958         145.411
0.584                    -1.7015        -167.701         -54.7415         91.2965         -54.7392         91.2935       -0.0163547         145.337
0.585                   -1.73877        -168.326         -54.5544         89.8246         -54.5522         89.8217       -0.0165154         145.262
0.586                   -1.77664        -168.952         -54.3692         88.3508         -54.3671          88.348        -0.016678         145.188
0.587                   -1.81511        -169.581         -54.1858         86.8746         -54.1838          86.872       -0.0168424         145.114
0.588                   -1.85419        -170.213         -54.0043         85.3956         -54.0024          85.393       -0.0170086         145.039
0.589                   -1.89389        -170.846         -53.8246         83.9132         -53.8229         83.9108       -0.0171768         144.964
0.59                    -1.93421        -171.481         -53.6468         82.4271         -53.6452         82.4247        -0.017347         144.889
0.591                   -1.97516        -172.119         -53.4708         80.9367         -53.4693         80.9344       -0.0175191         144.814
0.592                   -2.01675        -172.758         -53.2968         79.4416         -53.2954         79.4395       -0.0176932         144.739
0.593                   -2.05899          -173.4         -53.1245         77.9416         -53.1233         77.9396       -0.0178693         144.663
0.594                   -2.10189        -174.044         -52.9542         76.4361          -52.953         76.4342       -0.0180476         144.588
0.595                   -2.14546         -174.69         -52.7857         74.9249         -52.7846         74.9231       -0.0182279         144.512
0.596                   -2.18969        -175.338         -52.6191         73.4076         -52.6181         73.4059       -0.0184104         144.436
0.597                   -2.23462        -175.988         -52.4544         71.8839         -52.4535         71.8824        -0.018595          144.36
0.598                   -2.28023         -176.64         -52.2916         70.3536         -52.2908         70.3522       -0.0187819         144.283
0.599                   -2.32655        -177.295         -52.1306         68.8164           -52.13         68.8151        -0.018971         144.207
0.6                     -2.37358        -177.952         -51.9716          67.272         -51.9711         67.2708       -0.0191624          144.13
0.601                   -2.42134        -178.611         -51.8145         65.7202         -51.8141         65.7191       -0.0193562         144.053
0.602                   -2.46983        -179.272         -51.6594         64.1607          -51.659         64.1598       -0.0195523         143.976
0.603                   -2.51906        -179.935         -51.5062         62.5935         -51.5059         62.5928       -0.0197509         143.899
0.604                   -2.56905         179.399         -51.3549         61.0184         -51.3547         61.0177       -0.0199519         143.821
0.605                    -2.6198         178.732         -51.2056         59.4351         -51.2055         59.4346       -0.0201554         143.744
0.606                   -2.67134         178.062         -51.0583         57.8436         -51.0583         57.8433       -0.0203614         143.666
0.607                   -2.72366          177.39         -50.9129         56.2438          -50.913         56.2436         -0.02057         143.588
0.608                   -2.77679         176.716         -50.7696         54.6355         -50.7698         54.6355       -0.0207813         143.509
0.609                   -2.83073         176.039         -50.6283         53.0187         -50.6285         53.0188       -0.0209952         143.431
0.61                     -2.8855          175.36          -50.489         51.3934         -50.4893         51.3937       -0.0212118         143.352
0.611                   -2.94112         174.679         -50.3517         49.7594         -50.3521         49.7599       -0.0214313         143.273
0.612                   -2.99759         173.996         -50.2165         48.1168          -50.217         48.1175       -0.0216535         143.194
0.613                   -3.05494         173.311         -50.0834         46.4657         -50.0839         46.4665       -0.0218786         143.115
0.614                   -3.11317         172.623         -49.9523         44.8059         -49.9529         44.8069       -0.0221067         143.035
0.615                    -3.1723         171.934         -49.8233         43.1376          -49.824         43.1388       -0.0223377         142.955
0.616                   -3.23235         171.241         -49.6964         41.4608         -49.6972         41.4622       -0.0225718         142.875
0.617                   -3.29333         170.547         -49.5716         39.7755         -49.5724         39.7771       -0.0228089         142.795
0.618                   -3.35527         169.851          -49.449          38.082         -49.4498         38.0837       -0.0230492         142.715
0.619                   -3.41817         169.152         -49.3284         36.3802         -49.3293         36.3821       -0.0232927         142.634
0.62                    -3.48206         168.451           -49.21         34.6703          -49.211         34.6724       -0.0235394         142.553
0.621                   -3.54696         167.748         -49.0937         32.9524         -49.0947         32.9548       -0.0237895         142.472
0.622                   -3.61288         167.042         -48.9796         31.2268         -48.9806         31.2293        -0.024043         142.391
0.623                   -3.67985         166.335         -48.8675         29.4935         -48.8686         29.4962       -0.0242999         142.309
0.624                   -3.74789         165.625         -48.7577         27.7527         -48.7588         27.7557       -0.0245603         142.227
0.625                   -3.81701         164.913         -48.6499         26.0047         -48.6511         26.0079       -0.0248243         142.145
0.626                   -3.88724         164.198         -48.5443         24.2497         -48.5455         24.2531       -0.0250919         142.063
0.627                   -3.95861         163.482         -48.4408         22.4879          -48.442         22.4914       -0.0253633          141.98
0.628                   -4.03114         162.763         -48.3394         20.7195         -48.3407         20.7232       -0.0256384         141.897
0.629                   -4.10484         162.043         -48.2402         18.9447         -48.2414         18.9486       -0.0259174         141.814
