! TOUCHSTONE file generated by CST MICROWAVE STUDIO
! Date and time: Wed Oct 28 19:13:38 2020
! Project name: Scenario_1_Circular_Tissue_out_of_Line.cst
! Parameters = {dy1=-328.659; L_HA=400; MT=2.54; Rad_Dielectric=30; Rad_Lower=7.3; Rad_Upper=30; a_HA=580; a_WG=246; b_HA=500; b_WG=121; c_HA=0; c_WG=187; d_feed=85; dx1=693; h_feed=15; h_lower=18; h_upper=40}
! Header version: 2018
! Port assignment regex: !\s*Touchstone port\s*([0-9]+)\s*=\s*(CST MWS port|CST DS port)\s*([0-9]+|Zmin|Zmax)\s*\(\"(.*)\"\)(\s*mode\s*([0-9]+))?.*
! Touchstone port assignment:
! Touchstone port 1 = CST MWS port 1 ("")
! Touchstone port 2 = CST MWS port 2 ("")
# GHz S DB R 50
0.5                     -0.14147        -122.129         -64.8686          165.83         -64.8241         164.732      -0.00764779         151.139
0.501                  -0.149653        -122.602         -64.7627         164.081         -64.7304         163.018      -0.00770121         151.073
0.502                  -0.158034        -123.077         -64.6541         162.321         -64.6335         161.291      -0.00775552         151.008
0.503                   -0.16661        -123.551         -64.5427         160.551         -64.5337         159.552      -0.00781075         150.943
0.504                  -0.175378        -124.027         -64.4287         158.771         -64.4307         157.801      -0.00786688         150.877
0.505                  -0.184337        -124.503         -64.3119         156.982         -64.3247         156.039      -0.00792394         150.812
0.506                  -0.193485         -124.98         -64.1924         155.183         -64.2156         154.266      -0.00798192         150.746
0.507                  -0.202821        -125.457         -64.0702         153.375         -64.1034         152.482      -0.00804083         150.681
0.508                  -0.212341        -125.936         -63.9454         151.558         -63.9882         150.688      -0.00810068         150.615
0.509                  -0.222044        -126.414         -63.8179         149.732         -63.8698         148.884      -0.00816146         150.549
0.51                   -0.231929        -126.894         -63.6879         147.899         -63.7485          147.07       -0.0082232         150.484
0.511                  -0.241994        -127.375         -63.5553         146.057         -63.6241         145.247      -0.00828589         150.418
0.512                  -0.252238        -127.856         -63.4201         144.207         -63.4967         143.416      -0.00834953         150.352
0.513                  -0.262658        -128.338         -63.2825         142.349         -63.3663         141.575      -0.00841415         150.285
0.514                  -0.273253        -128.821         -63.1424         140.484          -63.233         139.727      -0.00847974         150.219
0.515                  -0.284022        -129.304         -62.9999         138.612         -63.0968          137.87       -0.0085463         150.153
0.516                  -0.294964        -129.789         -62.8551         136.732         -62.9578         136.006      -0.00861386         150.087
0.517                  -0.306077        -130.274          -62.708         134.846          -62.816         134.134       -0.0086824          150.02
0.518                  -0.317361        -130.761         -62.5587         132.952         -62.6714         132.255      -0.00875195         149.954
0.519                  -0.328813        -131.248         -62.4072         131.052         -62.5242         130.369       -0.0088225         149.887
0.52                   -0.340435        -131.736         -62.2537         129.145         -62.3744         128.477      -0.00889407         149.821
0.521                  -0.352224        -132.226         -62.0981         127.231          -62.222         126.577      -0.00896666         149.754
0.522                   -0.36418        -132.716         -61.9405          125.31         -62.0672         124.671      -0.00904028         149.687
0.523                  -0.376302        -133.207         -61.7811         123.383         -61.9099         122.759      -0.00911493          149.62
0.524                   -0.38859          -133.7         -61.6199          121.45         -61.7504          120.84      -0.00919063         149.553
0.525                  -0.401045        -134.194         -61.4569         119.509         -61.5886         118.915      -0.00926738         149.486
0.526                  -0.413664        -134.688         -61.2923         117.562         -61.4247         116.984       -0.0093452         149.419
0.527                   -0.42645        -135.184         -61.1262         115.609         -61.2588         115.046      -0.00942408         149.352
0.528                  -0.439401        -135.682         -60.9586         113.648         -61.0909         113.103      -0.00950404         149.284
0.529                  -0.452518         -136.18         -60.7896         111.681         -60.9211         111.153      -0.00958509         149.217
0.53                   -0.465802         -136.68         -60.6193         109.707         -60.7496         109.196      -0.00966724         149.149
0.531                  -0.479253        -137.181         -60.4478         107.726         -60.5765         107.233      -0.00975048         149.082
0.532                  -0.492872        -137.684         -60.2752         105.737         -60.4017         105.264      -0.00983485         149.014
0.533                   -0.50666        -138.188         -60.1016         103.742         -60.2256         103.288      -0.00992033         148.946
0.534                  -0.520618        -138.693         -59.9271         101.739         -60.0481         101.305       -0.0100069         148.878
0.535                  -0.534747          -139.2         -59.7518         99.7279         -59.8693         99.3152       -0.0100947          148.81
0.536                   -0.54905        -139.709         -59.5758         97.7095         -59.6895         97.3182       -0.0101836         148.742
0.537                  -0.563527        -140.219         -59.3992         95.6832         -59.5086         95.3138       -0.0102737         148.674
0.538                  -0.578181        -140.731          -59.222         93.6488         -59.3269         93.3018       -0.0103649         148.605
0.539                  -0.593015        -141.244         -59.0445         91.6062         -59.1444         91.2821       -0.0104574         148.537
0.54                   -0.608029        -141.759         -58.8667         89.5553         -58.9612         89.2543        -0.010551         148.469
0.541                  -0.623228        -142.276         -58.6886         87.4957         -58.7775         87.2183       -0.0106458           148.4
0.542                  -0.638613        -142.795         -58.5105         85.4275         -58.5934         85.1739       -0.0107419         148.331
0.543                  -0.654189        -143.315         -58.3325         83.3504          -58.409         83.1209       -0.0108391         148.262
0.544                  -0.669958        -143.838         -58.1546         81.2644         -58.2245         81.0589       -0.0109376         148.193
0.545                  -0.685924        -144.362         -57.9769         79.1692           -58.04         78.9878       -0.0110374         148.124
0.546                  -0.702091        -144.889         -57.7996         77.0647         -57.8555         76.9073       -0.0111384         148.055
0.547                  -0.718463        -145.417         -57.6228         74.9509         -57.6713         74.8173       -0.0112407         147.986
0.548                  -0.735045        -145.948         -57.4466         72.8276         -57.4875         72.7176       -0.0113443         147.917
0.549                  -0.751841         -146.48         -57.2711         70.6948         -57.3041          70.608       -0.0114492         147.847
0.55                   -0.768857        -147.015         -57.0964         68.5525         -57.1214         68.4883       -0.0115554         147.778
0.551                  -0.786097        -147.552         -56.9226         66.4005         -56.9394         66.3584       -0.0116629         147.708
0.552                  -0.803568        -148.092         -56.7499         64.2388         -56.7584         64.2182       -0.0117718         147.638
0.553                  -0.821275        -148.633         -56.5784         62.0676         -56.5784         62.0676        -0.011882         147.568
0.554                  -0.839225        -149.177         -56.4081         59.8868         -56.3995         59.9065       -0.0119936         147.498
0.555                  -0.857424        -149.724         -56.2392         57.6965         -56.2219         57.7349       -0.0121065         147.428
0.556                  -0.875879        -150.273         -56.0718         55.4967         -56.0458         55.5528       -0.0122209         147.358
0.557                  -0.894597        -150.825          -55.906         53.2877         -55.8712         53.3602       -0.0123367         147.287
0.558                  -0.913587        -151.379         -55.7419         51.0696         -55.6984         51.1572       -0.0124539         147.217
0.559                  -0.932856        -151.935         -55.5797         48.8425         -55.5274          48.944       -0.0125725         147.146
0.56                   -0.952412        -152.495         -55.4193         46.6068         -55.3583         46.7206       -0.0126926         147.076
0.561                  -0.972265        -153.057          -55.261         44.3625         -55.1913         44.4872       -0.0128142         147.005
0.562                  -0.992423        -153.622         -55.1048         42.1101         -55.0265         42.2442       -0.0129373         146.934
0.563                    -1.0129         -154.19         -54.9507         39.8499          -54.864         39.9917       -0.0130618         146.863
0.564                   -1.03369         -154.76          -54.799         37.5821          -54.704         37.7301       -0.0131879         146.791
0.565                   -1.05483        -155.334         -54.6496         35.3072         -54.5465         35.4598       -0.0133156          146.72
0.566                    -1.0763        -155.911         -54.5027         33.0257         -54.3917         33.1811       -0.0134448         146.649
0.567                   -1.09814         -156.49         -54.3583         30.7378         -54.2396         30.8944       -0.0135756         146.577
0.568                   -1.12034        -157.073         -54.2164         28.4442         -54.0903         28.6004       -0.0137079         146.505
0.569                   -1.14292        -157.658         -54.0772         26.1452          -53.944         26.2994       -0.0138419         146.433
0.57                     -1.1659        -158.247         -53.9407         23.8414         -53.8007         23.9921       -0.0139776         146.361
0.571                   -1.18928        -158.839          -53.807         21.5334         -53.6605          21.679       -0.0141148         146.289
0.572                   -1.21308        -159.434          -53.676         19.2217         -53.5234         19.3608       -0.0142538         146.217
0.573                   -1.23731        -160.033         -53.5479         16.9068         -53.3896          17.038       -0.0143945         146.145
0.574                   -1.26199        -160.635         -53.4226         14.5894          -53.259         14.7114       -0.0145368         146.072
0.575                   -1.28713         -161.24         -53.3001           12.27         -53.1316         12.3817       -0.0146809         145.999
0.576                   -1.31274        -161.848         -53.1806         9.94921         -53.0076         10.0495       -0.0148268         145.926
0.577                   -1.33884         -162.46         -53.0639         7.62764         -52.8869         7.71561       -0.0149745         145.853
0.578                   -1.36545        -163.075         -52.9501         5.30588         -52.7696         5.38069       -0.0151239          145.78
0.579                   -1.39258        -163.694         -52.8392         2.98454         -52.6556         3.04549       -0.0152752         145.707
0.58                    -1.42025        -164.316         -52.7311        0.664187          -52.545         0.71072       -0.0154284         145.634
0.581                   -1.44848        -164.942         -52.6259        -1.65459         -52.4377         -1.6229       -0.0155834          145.56
0.582                   -1.47727        -165.571         -52.5234        -3.97124         -52.3336        -3.95465       -0.0157403         145.486
0.583                   -1.50666        -166.203         -52.4237         -6.2852         -52.2329        -6.28387       -0.0158992         145.412
0.584                   -1.53666         -166.84         -52.3268        -8.59596         -52.1353        -8.60986       -0.0160599         145.338
0.585                   -1.56728        -167.479         -52.2325         -10.903         -52.0409         -10.932       -0.0162227         145.264
0.586                   -1.59856        -168.123         -52.1408        -13.2058         -51.9497        -13.2496       -0.0163875          145.19
0.587                   -1.63049        -168.769         -52.0517         -15.504         -51.8614        -15.5622       -0.0165543         145.115
0.588                   -1.66311         -169.42         -51.9651         -17.797         -51.7762        -17.8691       -0.0167232         145.041
0.589                   -1.69644        -170.074         -51.8809        -20.0845         -51.6938        -20.1699       -0.0168942         144.966
0.59                    -1.73049        -170.731         -51.7991        -22.3662         -51.6142         -22.464       -0.0170673         144.891
0.591                   -1.76529        -171.392         -51.7195        -24.6416         -51.5374         -24.751       -0.0172425         144.816
0.592                   -1.80085        -172.056         -51.6421        -26.9105         -51.4631        -27.0304       -0.0174199          144.74
0.593                    -1.8372        -172.724         -51.5669        -29.1725         -51.3914         -29.302       -0.0175995         144.665
0.594                   -1.87436        -173.396         -51.4937        -31.4274         -51.3221        -31.5654       -0.0177814         144.589
0.595                   -1.91235         -174.07         -51.4225         -33.675         -51.2551        -33.8202       -0.0179656         144.513
0.596                   -1.95119        -174.748         -51.3531        -35.9151         -51.1903        -36.0663        -0.018152         144.437
0.597                   -1.99091         -175.43         -51.2855        -38.1476         -51.1276        -38.3034       -0.0183408         144.361
0.598                   -2.03152        -176.115         -51.2195        -40.3722         -51.0669        -40.5314        -0.018532         144.285
0.599                   -2.07305        -176.803         -51.1552         -42.589         -51.0081        -42.7501       -0.0187256         144.208
0.6                     -2.11552        -177.494         -51.0924        -44.7978          -50.951        -44.9595       -0.0189216         144.131
0.601                   -2.15895        -178.189          -51.031        -46.9985         -50.8956        -47.1594       -0.0191201         144.054
0.602                   -2.20337        -178.886          -50.971        -49.1913         -50.8418          -49.35       -0.0193212         143.977
0.603                    -2.2488        -179.586         -50.9121         -51.376         -50.7894        -51.5311       -0.0195248           143.9
0.604                   -2.29525          179.71         -50.8545        -53.5528         -50.7383        -53.7029        -0.019731         143.823
0.605                   -2.34276         179.004         -50.7979        -55.7216         -50.6885        -55.8653       -0.0199398         143.745
0.606                   -2.39134         178.295         -50.7424        -57.8825         -50.6398        -58.0186       -0.0201513         143.667
0.607                   -2.44102         177.583         -50.6877        -60.0357         -50.5921        -60.1629       -0.0203656         143.589
0.608                   -2.49182         176.869         -50.6339        -62.1812         -50.5454        -62.2982       -0.0205826         143.511
0.609                   -2.54376         176.152         -50.5808        -64.3192         -50.4994        -64.4248       -0.0208024         143.432
0.61                    -2.59685         175.433         -50.5285        -66.4498         -50.4543        -66.5429       -0.0210251         143.353
0.611                   -2.65114         174.712         -50.4767        -68.5732         -50.4097        -68.6526       -0.0212507         143.274
0.612                   -2.70662         173.988         -50.4255        -70.6895         -50.3657        -70.7543       -0.0214792         143.195
0.613                   -2.76333         173.263         -50.3747         -72.799         -50.3222        -72.8481       -0.0217107         143.116
0.614                   -2.82128         172.536         -50.3244        -74.9017         -50.2791        -74.9343       -0.0219453         143.036
0.615                   -2.88049         171.807         -50.2744         -76.998         -50.2363        -77.0131        -0.022183         142.957
0.616                   -2.94099         171.076         -50.2247        -79.0879         -50.1937        -79.0849       -0.0224238         142.877
0.617                   -3.00279         170.344         -50.1752        -81.1718         -50.1513          -81.15       -0.0226678         142.796
0.618                   -3.06591         169.611         -50.1258        -83.2498          -50.109        -83.2085       -0.0229151         142.716
0.619                   -3.13036         168.876         -50.0766        -85.3222         -50.0667        -85.2608       -0.0231657         142.635
0.62                    -3.19617         168.141         -50.0275        -87.3891         -50.0244        -87.3072       -0.0234196         142.554
0.621                   -3.26335         167.405         -49.9783        -89.4508          -49.982         -89.348        -0.023677         142.473
0.622                   -3.33191         166.668         -49.9292        -91.5075         -49.9394        -91.3834       -0.0239378         142.392
0.623                   -3.40188          165.93         -49.8799        -93.5595         -49.8966        -93.4139       -0.0242022          142.31
0.624                   -3.47326         165.192         -49.8306         -95.607         -49.8535        -95.4396       -0.0244702         142.228
0.625                   -3.54607         164.455          -49.781        -97.6501         -49.8102        -97.4608       -0.0247418         142.146
0.626                   -3.62032         163.717         -49.7313        -99.6891         -49.7664        -99.4779       -0.0250172         142.064
0.627                   -3.69603         162.979         -49.6814        -101.724         -49.7223        -101.491       -0.0252964         141.981
0.628                    -3.7732         162.242         -49.6312        -103.756         -49.6777        -103.501       -0.0255794         141.899
0.629                   -3.85184         161.506         -49.5806        -105.784         -49.6326        -105.507       -0.0258664         141.815
