! TOUCHSTONE file generated by CST MICROWAVE STUDIO
! Date and time: Mon Oct 26 12:24:53 2020
! Project name: Scenario_1_Circular_Tissue_out_of_Line.cst
! Parameters = {dy1=-328.659; L_HA=400; MT=2.54; Rad_Dielectric=30; Rad_Lower=7.3; Rad_Upper=30; a_HA=580; a_WG=246; b_HA=500; b_WG=121; c_HA=0; c_WG=187; d_feed=85; dx1=866; h_feed=15; h_lower=18; h_upper=40}
! Header version: 2018
! Port assignment regex: !\s*Touchstone port\s*([0-9]+)\s*=\s*(CST MWS port|CST DS port)\s*([0-9]+|Zmin|Zmax)\s*\(\"(.*)\"\)(\s*mode\s*([0-9]+))?.*
! Touchstone port assignment:
! Touchstone port 1 = CST MWS port 1 ("")
! Touchstone port 2 = CST MWS port 2 ("")
# GHz S DB R 50
0.5                    -0.152093        -122.376         -64.8372         77.4781         -64.8372         77.4781      -0.00746256         151.118
0.501                  -0.153612        -122.795         -64.7263          75.347         -64.7263         75.3585      -0.00753559         151.053
0.502                   -0.15538        -123.217         -64.6125         73.2033         -64.6126         73.2257      -0.00760911         150.987
0.503                  -0.157403        -123.643          -64.496         71.0472         -64.4961         71.0801      -0.00768314         150.922
0.504                  -0.159688        -124.072         -64.3769         68.8793          -64.377         68.9221      -0.00775769         150.856
0.505                  -0.162243        -124.504          -64.255         66.6997         -64.2552         66.7519      -0.00783277         150.791
0.506                  -0.165072        -124.939         -64.1305          64.509         -64.1309           64.57      -0.00790837         150.725
0.507                  -0.168184        -125.377         -64.0034         62.3073         -64.0039         62.3766      -0.00798451          150.66
0.508                  -0.171585        -125.818         -63.8738          60.095         -63.8744         60.1721      -0.00806119         150.594
0.509                  -0.175282        -126.263         -63.7417         57.8725         -63.7425         57.9568      -0.00813843         150.528
0.51                   -0.179281        -126.711         -63.6072           55.64         -63.6081         55.7309      -0.00821623         150.462
0.511                  -0.183589        -127.161         -63.4703         53.3978         -63.4714         53.4949       -0.0082946         150.396
0.512                  -0.188213        -127.615         -63.3312         51.1463         -63.3324         51.2489      -0.00837355          150.33
0.513                  -0.193159        -128.072         -63.1898         48.8857         -63.1912         48.9933      -0.00845309         150.264
0.514                  -0.198435        -128.532         -63.0463         46.6162         -63.0479         46.7283      -0.00853323         150.197
0.515                  -0.204046        -128.995         -62.9008         44.3381         -62.9026         44.4541      -0.00861397         150.131
0.516                  -0.209999        -129.461         -62.7534         42.0516         -62.7552         42.1711      -0.00869533         150.065
0.517                  -0.216302         -129.93          -62.604          39.757          -62.606         39.8793      -0.00877731         149.998
0.518                  -0.222959        -130.403         -62.4529         37.4544          -62.455         37.5792      -0.00885992         149.932
0.519                  -0.229979        -130.878         -62.3001         35.1441         -62.3023         35.2708      -0.00894318         149.865
0.52                   -0.237366        -131.356         -62.1457         32.8262          -62.148         32.9543      -0.00902709         149.798
0.521                  -0.245128        -131.837         -61.9899         30.5009         -61.9923           30.63      -0.00911167         149.731
0.522                  -0.253272        -132.321         -61.8327         28.1684         -61.8351         28.2979      -0.00919692         149.664
0.523                  -0.261802        -132.807         -61.6742         25.8288         -61.6767         25.9584      -0.00928285         149.597
0.524                  -0.270725        -133.297         -61.5145         23.4822         -61.5171         23.6115      -0.00936949          149.53
0.525                  -0.280048        -133.789         -61.3538         21.1289         -61.3564         21.2573      -0.00945683         149.463
0.526                  -0.289776        -134.285         -61.1922         18.7688         -61.1947         18.8961      -0.00954488         149.396
0.527                  -0.299915        -134.783         -61.0297         16.4023         -61.0323          16.528      -0.00963367         149.328
0.528                  -0.310471        -135.284         -60.8665         14.0293         -60.8691         14.1531       -0.0097232         149.261
0.529                   -0.32145        -135.787         -60.7028           11.65         -60.7052         11.7716      -0.00981348         149.193
0.53                   -0.332857        -136.294         -60.5385         9.26451         -60.5409         9.38353      -0.00990453         149.126
0.531                  -0.344697        -136.803         -60.3738         6.87297         -60.3762          6.9891      -0.00999636         149.058
0.532                  -0.356977        -137.314         -60.2089         4.47548         -60.2112         4.58844        -0.010089          148.99
0.533                  -0.369701        -137.828         -60.0439         2.07217          -60.046          2.1817       -0.0101824         148.922
0.534                  -0.382874        -138.345         -59.8788       -0.336817         -59.8808       -0.230983       -0.0102766         148.854
0.535                  -0.396501        -138.865         -59.7137        -2.75136         -59.7157        -2.64945       -0.0103717         148.786
0.536                  -0.410588        -139.387         -59.5489        -5.17131         -59.5507        -5.07353       -0.0104676         148.718
0.537                  -0.425138        -139.911         -59.3843        -7.59652          -59.386        -7.50306       -0.0105644         148.649
0.538                  -0.440157        -140.438         -59.2201        -10.0268         -59.2217        -9.93787        -0.010662         148.581
0.539                  -0.455648        -140.967         -59.0565        -12.4621         -59.0579        -12.3778       -0.0107605         148.512
0.54                   -0.471616        -141.499         -58.8934         -14.902         -58.8947        -14.8225         -0.01086         148.444
0.541                  -0.488064        -142.033          -58.731        -17.3466         -58.7322        -17.2719       -0.0109603         148.375
0.542                  -0.504997        -142.569         -58.5694        -19.7954         -58.5704        -19.7258       -0.0110616         148.306
0.543                  -0.522419        -143.108         -58.4087        -22.2484         -58.4096        -22.1839       -0.0111638         148.237
0.544                  -0.540332        -143.649         -58.2489        -24.7053         -58.2497        -24.6459        -0.011267         148.168
0.545                  -0.558741        -144.192         -58.0902        -27.1658         -58.0909        -27.1116       -0.0113712         148.099
0.546                  -0.577648        -144.737         -57.9327        -29.6298         -57.9332        -29.5807       -0.0114763          148.03
0.547                  -0.597055        -145.285         -57.7763        -32.0968         -57.7768         -32.053       -0.0115825          147.96
0.548                  -0.616967        -145.834         -57.6212        -34.5667         -57.6216         -34.528       -0.0116897         147.891
0.549                  -0.637385        -146.386         -57.4675        -37.0392         -57.4678        -37.0056       -0.0117979         147.821
0.55                   -0.658312        -146.939         -57.3152        -39.5139         -57.3155        -39.4854       -0.0119072         147.751
0.551                   -0.67975        -147.495         -57.1644        -41.9905         -57.1646        -41.9671       -0.0120176         147.682
0.552                    -0.7017        -148.053         -57.0151        -44.4688         -57.0152        -44.4503       -0.0121291         147.612
0.553                  -0.724165        -148.612         -56.8674        -46.9483         -56.8674        -46.9346       -0.0122417         147.541
0.554                  -0.747146        -149.174         -56.7213        -49.4288         -56.7213        -49.4198       -0.0123555         147.471
0.555                  -0.770643        -149.737         -56.5768        -51.9099         -56.5769        -51.9055       -0.0124704         147.401
0.556                   -0.79466        -150.302         -56.4341        -54.3913         -56.4341        -54.3913       -0.0125864         147.331
0.557                  -0.819195        -150.869          -56.293        -56.8726          -56.293        -56.8769       -0.0127037          147.26
0.558                   -0.84425        -151.437         -56.1537        -59.3534         -56.1538        -59.3618       -0.0128222         147.189
0.559                  -0.869825        -152.008         -56.0162        -61.8335         -56.0162        -61.8458        -0.012942         147.119
0.56                   -0.895921         -152.58         -55.8804        -64.3125         -55.8805        -64.3286        -0.013063         147.048
0.561                  -0.922537        -153.154         -55.7464        -66.7901         -55.7465        -66.8097       -0.0131852         146.977
0.562                  -0.949673        -153.729         -55.6141        -69.2658         -55.6143        -69.2888       -0.0133088         146.905
0.563                  -0.977329        -154.306         -55.4836        -71.7395         -55.4839        -71.7656       -0.0134337         146.834
0.564                    -1.0055        -154.884         -55.3549        -74.2108         -55.3552        -74.2397         -0.01356         146.763
0.565                    -1.0342        -155.464         -55.2279        -76.6794         -55.2283         -76.711       -0.0136876         146.691
0.566                   -1.06341        -156.046         -55.1026         -79.145         -55.1031         -79.179       -0.0138166         146.619
0.567                   -1.09313        -156.629          -54.979        -81.6073         -54.9797        -81.6436       -0.0139471         146.548
0.568                   -1.12338        -157.214         -54.8571        -84.0661         -54.8579        -84.1044        -0.014079         146.476
0.569                   -1.15413          -157.8         -54.7369        -86.5212         -54.7377        -86.5612       -0.0142124         146.403
0.57                    -1.18539        -158.387         -54.6183        -88.9722         -54.6192        -89.0138       -0.0143472         146.331
0.571                   -1.21717        -158.976         -54.5012        -91.4192         -54.5022         -91.462       -0.0144836         146.259
0.572                   -1.24945        -159.567         -54.3857        -93.8617         -54.3868        -93.9056       -0.0146216         146.186
0.573                   -1.28223        -160.158         -54.2716        -96.2997         -54.2729        -96.3444       -0.0147611         146.114
0.574                   -1.31552        -160.751          -54.159        -98.7331         -54.1604        -98.7784       -0.0149022         146.041
0.575                   -1.34931        -161.346         -54.0479        -101.162         -54.0493        -101.207        -0.015045         145.968
0.576                   -1.38359        -161.942          -53.938        -103.585         -53.9396        -103.631       -0.0151894         145.895
0.577                   -1.41837        -162.539         -53.8295        -106.004         -53.8311         -106.05       -0.0153355         145.822
0.578                   -1.45363        -163.138         -53.7222        -108.418         -53.7239        -108.464       -0.0154834         145.748
0.579                   -1.48939        -163.738         -53.6161        -110.826         -53.6179        -110.872        -0.015633         145.675
0.58                    -1.52563        -164.339         -53.5112         -113.23          -53.513        -113.275       -0.0157844         145.601
0.581                   -1.56235        -164.942         -53.4074        -115.628         -53.4093        -115.673       -0.0159376         145.527
0.582                   -1.59954        -165.546         -53.3046        -118.022         -53.3065        -118.065       -0.0160927         145.453
0.583                   -1.63722        -166.152         -53.2028         -120.41         -53.2048        -120.453       -0.0162496         145.379
0.584                   -1.67536        -166.759         -53.1019        -122.794         -53.1039        -122.835       -0.0164085         145.305
0.585                   -1.71397        -167.368          -53.002        -125.173          -53.004        -125.213       -0.0165694          145.23
0.586                   -1.75304        -167.978         -52.9028        -127.547         -52.9048        -127.585       -0.0167322         145.155
0.587                   -1.79257         -168.59         -52.8045        -129.916         -52.8065        -129.953       -0.0168971         145.081
0.588                   -1.83256        -169.203         -52.7068        -132.281         -52.7089        -132.316       -0.0170641         145.006
0.589                   -1.87301        -169.818         -52.6099        -134.642         -52.6119        -134.675       -0.0172331          144.93
0.59                     -1.9139        -170.435         -52.5136        -136.998         -52.5156         -137.03       -0.0174044         144.855
0.591                   -1.95524        -171.053         -52.4179        -139.351         -52.4198        -139.381       -0.0175778          144.78
0.592                   -1.99703        -171.673         -52.3228        -141.699         -52.3247        -141.727       -0.0177535         144.704
0.593                   -2.03925        -172.295         -52.2282        -144.044           -52.23         -144.07       -0.0179314         144.628
0.594                   -2.08192        -172.918          -52.134        -146.386         -52.1358         -146.41       -0.0181118         144.552
0.595                   -2.12502        -173.544         -52.0404        -148.724          -52.042        -148.747       -0.0182944         144.476
0.596                   -2.16856        -174.172         -51.9471         -151.06         -51.9486         -151.08       -0.0184796           144.4
0.597                   -2.21254        -174.802         -51.8542        -153.393         -51.8556        -153.411       -0.0186672         144.323
0.598                   -2.25695        -175.434         -51.7616        -155.723          -51.763         -155.74       -0.0188574         144.246
0.599                   -2.30179        -176.069         -51.6694        -158.052         -51.6706        -158.066       -0.0190502         144.169
0.6                     -2.34706        -176.706         -51.5775        -160.378         -51.5786         -160.39       -0.0192456         144.092
0.601                   -2.39277        -177.345         -51.4858        -162.703         -51.4868        -162.713       -0.0194438         144.015
0.602                   -2.43891        -177.987         -51.3945        -165.026         -51.3952        -165.034       -0.0196448         143.937
0.603                   -2.48549        -178.632         -51.3033        -167.348          -51.304        -167.354       -0.0198487          143.86
0.604                   -2.53251         -179.28         -51.2124        -169.669         -51.2129        -169.674       -0.0200556         143.782
0.605                   -2.57998        -179.931         -51.1217        -171.989         -51.1221        -171.992       -0.0202655         143.704
0.606                    -2.6279         179.414         -51.0313        -174.309         -51.0314        -174.311       -0.0204786         143.625
0.607                   -2.67627         178.756          -50.941        -176.629          -50.941        -176.629       -0.0206949         143.547
0.608                   -2.72512         178.095          -50.851        -178.949         -50.8508        -178.947       -0.0209147         143.468
0.609                   -2.77443          177.43         -50.7611         178.731         -50.7608         178.734       -0.0211381         143.389
0.61                    -2.82424         176.761         -50.6715         176.411          -50.671         176.415       -0.0213652          143.31
0.611                   -2.87455         176.088         -50.5821         174.089         -50.5814         174.095       -0.0215963          143.23
0.612                   -2.92537          175.41         -50.4929         171.767          -50.492         171.774       -0.0218317         143.151
0.613                   -2.97672         174.728         -50.4039         169.443         -50.4029         169.451       -0.0220716         143.071
0.614                   -3.02864         174.041         -50.3152         167.118          -50.314         167.127       -0.0223166         142.991
0.615                   -3.08112         173.348         -50.2267         164.792         -50.2254         164.802       -0.0225673         142.911
0.616                   -3.13421         172.651         -50.1386         162.464         -50.1371         162.474       -0.0228245          142.83
0.617                   -3.18794         171.947         -50.0507         160.134         -50.0491         160.145       -0.0230895         142.749
0.618                   -3.24233         171.238         -49.9631         157.802         -49.9614         157.813       -0.0233642         142.668
0.619                   -3.29743         170.523         -49.8759         155.467          -49.874          155.48       -0.0236517         142.587
0.62                    -3.35327         169.801         -49.7891         153.131         -49.7871         153.144       -0.0239572         142.506
0.621                    -3.4099         169.073         -49.7027         150.792         -49.7005         150.805         -0.02429         142.424
0.622                   -3.46738         168.337         -49.6167         148.451         -49.6144         148.464       -0.0246676         142.342
0.623                   -3.52576         167.594         -49.5311         146.107         -49.5288         146.121       -0.0251196          142.26
0.624                    -3.5851         166.843          -49.446         143.761         -49.4436         143.775       -0.0256361          142.18
0.625                   -3.64549         166.084         -49.3615         141.413          -49.359         141.426       -0.0257476         142.102
0.626                   -3.70699         165.317         -49.2775         139.061          -49.275         139.075       -0.0252945         142.019
0.627                   -3.76969         164.541         -49.1941         136.708         -49.1915         136.721       -0.0253111         141.934
0.628                   -3.83369         163.756         -49.1114         134.352         -49.1087         134.365       -0.0255693         141.849
0.629                   -3.89909         162.962         -49.0293         131.993         -49.0266         132.006       -0.0258794         141.764
