! TOUCHSTONE file generated by CST MICROWAVE STUDIO
! Date and time: Sat Oct 24 11:42:36 2020
! Project name: Scenario_1_Circular_Tissue_out_of_Line.cst
! Parameters = {dy1=-328.659; L_HA=400; MT=2.54; Rad_Dielectric=30; Rad_Lower=7.3; Rad_Upper=30; a_HA=580; a_WG=246; b_HA=500; b_WG=121; c_HA=0; c_WG=187; d_feed=85; dx1=1039; h_feed=15; h_lower=18; h_upper=40}
! Header version: 2018
! Port assignment regex: !\s*Touchstone port\s*([0-9]+)\s*=\s*(CST MWS port|CST DS port)\s*([0-9]+|Zmin|Zmax)\s*\(\"(.*)\"\)(\s*mode\s*([0-9]+))?.*
! Touchstone port assignment:
! Touchstone port 1 = CST MWS port 1 ("")
! Touchstone port 2 = CST MWS port 2 ("")
# GHz S DB R 50
0.5                    -0.142107        -122.282         -65.3863        -21.1381         -65.3863        -21.1381      -0.00763255         151.136
0.501                  -0.145312        -122.721         -65.2704        -23.2071         -65.2704        -23.2071      -0.00768869         151.071
0.502                  -0.148896        -123.163         -65.1507         -25.296         -65.1507        -25.2962      -0.00774575         151.005
0.503                  -0.152859        -123.608         -65.0271        -27.4046         -65.0271        -27.4049      -0.00780374          150.94
0.504                  -0.157201        -124.055         -64.8996        -29.5325         -64.8996        -29.5328      -0.00786267         150.875
0.505                  -0.161923        -124.506         -64.7682        -31.6792         -64.7682        -31.6796      -0.00792254         150.809
0.506                  -0.167023        -124.959         -64.6329        -33.8445         -64.6328        -33.8449      -0.00798337         150.743
0.507                  -0.172503        -125.414         -64.4937        -36.0278         -64.4936        -36.0283      -0.00804515         150.678
0.508                  -0.178361        -125.872         -64.3505        -38.2288         -64.3505        -38.2293      -0.00810789         150.612
0.509                  -0.184597        -126.333         -64.2036        -40.4472         -64.2035        -40.4477       -0.0081716         150.546
0.51                   -0.191212        -126.797         -64.0527        -42.6825         -64.0526        -42.6831       -0.0082363          150.48
0.511                  -0.198204        -127.263         -63.8981        -44.9345          -63.898        -44.9351      -0.00830197         150.414
0.512                  -0.205573        -127.732         -63.7397        -47.2027         -63.7396        -47.2034      -0.00836864         150.348
0.513                  -0.213319        -128.203         -63.5777        -49.4869         -63.5776        -49.4876      -0.00843631         150.282
0.514                  -0.221441        -128.677          -63.412        -51.7868         -63.4119        -51.7875      -0.00850499         150.216
0.515                  -0.229938        -129.153         -63.2428        -54.1021         -63.2427        -54.1027      -0.00857468         150.149
0.516                   -0.23881        -129.632         -63.0702        -56.4326         -63.0701        -56.4332      -0.00864539         150.083
0.517                  -0.248057        -130.114         -62.8942         -58.778         -62.8941        -58.7786      -0.00871713         150.016
0.518                  -0.257676        -130.597         -62.7151        -61.1381          -62.715        -61.1387       -0.0087899          149.95
0.519                  -0.267668        -131.084         -62.5328        -63.5129         -62.5327        -63.5134      -0.00886372         149.883
0.52                   -0.278031        -131.572         -62.3475        -65.9021         -62.3475        -65.9026       -0.0089386         149.816
0.521                  -0.288765        -132.063         -62.1595        -68.3057         -62.1594        -68.3061      -0.00901453         149.749
0.522                  -0.299868        -132.556         -61.9687        -70.7236         -61.9686        -70.7239      -0.00909153         149.682
0.523                  -0.311339        -133.052         -61.7754        -73.1557         -61.7753         -73.156       -0.0091696         149.615
0.524                  -0.323178         -133.55         -61.5797        -75.6021         -61.5797        -75.6023      -0.00924876         149.548
0.525                  -0.335382         -134.05         -61.3819        -78.0627         -61.3818        -78.0629      -0.00932901         149.481
0.526                  -0.347951        -134.553          -61.182        -80.5376          -61.182        -80.5377      -0.00941036         149.414
0.527                  -0.360884        -135.058         -60.9803        -83.0269         -60.9803        -83.0269      -0.00949282         149.346
0.528                  -0.374178        -135.565          -60.777        -85.5306          -60.777        -85.5305      -0.00957639         149.279
0.529                  -0.387833        -136.074         -60.5722        -88.0487         -60.5722        -88.0485      -0.00966109         149.211
0.53                   -0.401848        -136.585         -60.3662        -90.5814         -60.3663        -90.5812      -0.00974693         149.144
0.531                  -0.416219        -137.099         -60.1592        -93.1288         -60.1593        -93.1284      -0.00983391         149.076
0.532                  -0.430947        -137.615         -59.9514        -95.6909         -59.9515        -95.6904      -0.00992205         149.008
0.533                  -0.446029        -138.132         -59.7431        -98.2678         -59.7432        -98.2672       -0.0100113          148.94
0.534                  -0.461464        -138.652         -59.5344         -100.86         -59.5345        -100.859       -0.0101018         148.872
0.535                   -0.47725        -139.175         -59.3256        -103.466         -59.3258        -103.465       -0.0101935         148.804
0.536                  -0.493386        -139.699          -59.117        -106.088         -59.1172        -106.087       -0.0102863         148.735
0.537                  -0.509869        -140.225         -58.9088        -108.724          -58.909        -108.723       -0.0103803         148.667
0.538                  -0.526698        -140.753         -58.7012        -111.376         -58.7014        -111.375       -0.0104756         148.599
0.539                  -0.543871        -141.284         -58.4944        -114.042         -58.4947        -114.041        -0.010572          148.53
0.54                   -0.561387        -141.816         -58.2888        -116.723         -58.2891        -116.721       -0.0106697         148.461
0.541                  -0.579243        -142.351         -58.0846        -119.418         -58.0849        -119.416       -0.0107687         148.393
0.542                  -0.597438        -142.887          -57.882        -122.127         -57.8823        -122.125       -0.0108688         148.324
0.543                   -0.61597        -143.426         -57.6813         -124.85         -57.6816        -124.848       -0.0109703         148.255
0.544                  -0.634838        -143.967         -57.4827        -127.586         -57.4831        -127.584        -0.011073         148.186
0.545                  -0.654038        -144.509         -57.2865        -130.335         -57.2868        -130.333        -0.011177         148.116
0.546                  -0.673571        -145.054         -57.0928        -133.096         -57.0932        -133.094       -0.0112823         148.047
0.547                  -0.693433          -145.6         -56.9019        -135.869         -56.9023        -135.867       -0.0113889         147.978
0.548                  -0.713623        -146.149         -56.7141        -138.653         -56.7145         -138.65       -0.0114968         147.908
0.549                   -0.73414          -146.7         -56.5295        -141.447         -56.5299        -141.444        -0.011606         147.839
0.55                   -0.754982        -147.252         -56.3483         -144.25         -56.3487        -144.247       -0.0117166         147.769
0.551                  -0.776147        -147.807         -56.1707        -147.061         -56.1711        -147.058       -0.0118285         147.699
0.552                  -0.797634        -148.364         -55.9969        -149.879         -55.9973        -149.876       -0.0119418         147.629
0.553                  -0.819441        -148.922          -55.827        -152.703         -55.8274          -152.7       -0.0120565         147.559
0.554                  -0.841568        -149.483         -55.6611        -155.532         -55.6616        -155.529       -0.0121726         147.489
0.555                  -0.864012        -150.046         -55.4994        -158.365         -55.4999        -158.361       -0.0122901         147.418
0.556                  -0.886772        -150.611          -55.342          -161.2         -55.3425        -161.196        -0.012409         147.348
0.557                  -0.909849        -151.178          -55.189        -164.037         -55.1895        -164.033       -0.0125293         147.277
0.558                  -0.933239        -151.747         -55.0403        -166.873         -55.0408        -166.868        -0.012651         147.207
0.559                  -0.956944        -152.318         -54.8961        -169.707         -54.8966        -169.703       -0.0127743         147.136
0.56                   -0.980962        -152.891         -54.7564        -172.539         -54.7569        -172.534        -0.012899         147.065
0.561                   -1.00529        -153.467         -54.6211        -175.366         -54.6216        -175.362       -0.0130251         146.994
0.562                   -1.02994        -154.044         -54.4903        -178.188         -54.4908        -178.183       -0.0131528         146.923
0.563                   -1.05489        -154.624         -54.3639         178.997         -54.3643         179.002        -0.013282         146.851
0.564                   -1.08016        -155.206         -54.2418          176.19         -54.2422         176.195       -0.0134128          146.78
0.565                   -1.10574         -155.79         -54.1239         173.392         -54.1243         173.397       -0.0135451         146.708
0.566                   -1.13163        -156.377         -54.0102         170.604         -54.0107         170.609       -0.0136789         146.637
0.567                   -1.15784        -156.966         -53.9006         167.828          -53.901         167.832       -0.0138144         146.565
0.568                   -1.18436        -157.557         -53.7949         165.063         -53.7953         165.068       -0.0139514         146.493
0.569                    -1.2112        -158.151          -53.693         162.312         -53.6934         162.317       -0.0140901         146.421
0.57                    -1.23835        -158.747         -53.5948         159.575         -53.5951          159.58       -0.0142304         146.348
0.571                   -1.26583        -159.346            -53.5         156.852         -53.5004         156.857       -0.0143723         146.276
0.572                   -1.29362        -159.947         -53.4086         154.145         -53.4089         154.149       -0.0145159         146.203
0.573                   -1.32175        -160.551         -53.3203         151.453         -53.3206         151.458       -0.0146612         146.131
0.574                    -1.3502        -161.157          -53.235         148.777         -53.2353         148.782       -0.0148083         146.058
0.575                   -1.37897        -161.766         -53.1525         146.118         -53.1528         146.122        -0.014957         145.985
0.576                   -1.40809        -162.378         -53.0725         143.475         -53.0728          143.48       -0.0151075         145.912
0.577                   -1.43754        -162.992         -52.9951         140.849         -52.9953         140.854       -0.0152598         145.839
0.578                   -1.46734         -163.61         -52.9198          138.24         -52.9201         138.245       -0.0154138         145.765
0.579                   -1.49748         -164.23         -52.8466         135.648         -52.8469         135.652       -0.0155697         145.692
0.58                    -1.52798        -164.853         -52.7753         133.073         -52.7755         133.077       -0.0157274         145.618
0.581                   -1.55885        -165.479         -52.7057         130.514         -52.7059         130.518       -0.0158869         145.544
0.582                   -1.59007        -166.109         -52.6376         127.971         -52.6378         127.975       -0.0160484          145.47
0.583                   -1.62168        -166.741         -52.5709         125.445          -52.571         125.448       -0.0162117         145.396
0.584                   -1.65366        -167.377         -52.5053         122.934         -52.5055         122.937        -0.016377         145.322
0.585                   -1.68604        -168.016         -52.4408         120.438         -52.4409         120.441       -0.0165442         145.247
0.586                   -1.71882        -168.658         -52.3771         117.957         -52.3772          117.96       -0.0167134         145.173
0.587                     -1.752        -169.304         -52.3142          115.49         -52.3143         115.493       -0.0168846         145.098
0.588                   -1.78561        -169.953         -52.2518         113.037         -52.2519         113.039       -0.0170578         145.023
0.589                   -1.81966        -170.606         -52.1899         110.597           -52.19         110.599       -0.0172331         144.948
0.59                    -1.85415        -171.262         -52.1282         108.169         -52.1283         108.171       -0.0174104         144.872
0.591                    -1.8891        -171.922         -52.0668         105.753         -52.0669         105.755       -0.0175899         144.797
0.592                   -1.92452        -172.586         -52.0054         103.348         -52.0055          103.35       -0.0177715         144.721
0.593                   -1.96043        -173.254          -51.944         100.954         -51.9441         100.955       -0.0179553         144.645
0.594                   -1.99684        -173.926         -51.8825         98.5692         -51.8825         98.5706       -0.0181413         144.569
0.595                   -2.03377        -174.601         -51.8207         96.1936         -51.8207         96.1948       -0.0183295         144.493
0.596                   -2.07124        -175.281         -51.7585         93.8262         -51.7585         93.8272       -0.0185199         144.417
0.597                   -2.10927        -175.965         -51.6959         91.4664         -51.6959         91.4671       -0.0187127          144.34
0.598                   -2.14788        -176.654         -51.6329         89.1134         -51.6329         89.1139       -0.0189078         144.264
0.599                   -2.18709        -177.346         -51.5692         86.7664         -51.5692         86.7667       -0.0191053         144.187
0.6                     -2.22692        -178.044         -51.5049         84.4248         -51.5049         84.4248       -0.0193051          144.11
0.601                   -2.26739        -178.745         -51.4399         82.0877         -51.4399         82.0874       -0.0195074         144.032
0.602                   -2.30853        -179.451         -51.3741         79.7544         -51.3741         79.7539       -0.0197122         143.955
0.603                   -2.35037         179.838         -51.3075         77.4241         -51.3075         77.4234       -0.0199194         143.877
0.604                   -2.39293         179.123           -51.24         75.0962           -51.24         75.0953       -0.0201293         143.799
0.605                   -2.43624         178.402         -51.1717         72.7699         -51.1717         72.7688       -0.0203417         143.721
0.606                   -2.48033         177.677         -51.1024         70.4445         -51.1023         70.4431       -0.0205567         143.643
0.607                   -2.52524         176.947         -51.0321         68.1193         -51.0321         68.1177       -0.0207744         143.564
0.608                   -2.57099         176.213         -50.9608         65.7935         -50.9608         65.7916       -0.0209949         143.486
0.609                   -2.61762         175.473         -50.8885         63.4665         -50.8885         63.4644       -0.0212181         143.407
0.61                    -2.66517         174.728         -50.8151         61.1376         -50.8151         61.1353       -0.0214441         143.328
0.611                   -2.71366         173.978         -50.7407         58.8061         -50.7407         58.8035       -0.0216729         143.248
0.612                   -2.76315         173.223         -50.6653         56.4713         -50.6653         56.4686       -0.0219046         143.169
0.613                   -2.81366         172.463         -50.5888         54.1327         -50.5888         54.1297       -0.0221393         143.089
0.614                   -2.86524         171.698         -50.5112         51.7896         -50.5112         51.7864        -0.022377         143.009
0.615                   -2.91794         170.928         -50.4326         49.4413         -50.4326         49.4379       -0.0226178         142.929
0.616                    -2.9718         170.153         -50.3529         47.0873         -50.3529         47.0837       -0.0228616         142.848
0.617                   -3.02685         169.373         -50.2722          44.727         -50.2722         44.7233       -0.0231086         142.768
0.618                   -3.08316         168.588         -50.1905         42.3599         -50.1905         42.3559       -0.0233589         142.687
0.619                   -3.14076         167.798         -50.1078         39.9853         -50.1079         39.9812       -0.0236124         142.606
0.62                    -3.19971         167.003         -50.0242         37.6029         -50.0242         37.5986       -0.0238692         142.524
0.621                   -3.26005         166.203         -49.9397          35.212         -49.9397         35.2076       -0.0241294         142.442
0.622                   -3.32184         165.398         -49.8542         32.8123         -49.8543         32.8077       -0.0243931         142.361
0.623                   -3.38513         164.589         -49.7679         30.4032          -49.768         30.3985       -0.0246603         142.278
0.624                   -3.44997         163.775         -49.6809         27.9844          -49.681         27.9795       -0.0249311         142.196
0.625                   -3.51642         162.957         -49.5931         25.5555         -49.5932         25.5504       -0.0252056         142.113
0.626                   -3.58453         162.135         -49.5046          23.116         -49.5047         23.1108       -0.0254837          142.03
0.627                   -3.65436         161.308         -49.4154         20.6657         -49.4155         20.6604       -0.0257657         141.947
0.628                   -3.72597         160.478         -49.3258         18.2042         -49.3259         18.1988       -0.0260516         141.864
0.629                    -3.7994         159.644         -49.2356         15.7314         -49.2357         15.7258       -0.0263414          141.78
