! TOUCHSTONE file generated by CST MICROWAVE STUDIO
! Date and time: Mon Oct 26 12:08:57 2020
! Project name: Scenario_1_Circular_Tissue_out_of_Line_v2.cst
! Parameters = {dy1=155.7; L_HA=400; MT=2.54; Rad_Dielectric=30; Rad_Lower=7.3; Rad_Upper=30; a_HA=580; a_WG=246; b_HA=500; b_WG=121; c_HA=0; c_WG=187; d_feed=85; dx1=173; h_feed=15; h_lower=18; h_upper=40}
! Header version: 2018
! Port assignment regex: !\s*Touchstone port\s*([0-9]+)\s*=\s*(CST MWS port|CST DS port)\s*([0-9]+|Zmin|Zmax)\s*\(\"(.*)\"\)(\s*mode\s*([0-9]+))?.*
! Touchstone port assignment:
! Touchstone port 1 = CST MWS port 1 ("")
! Touchstone port 2 = CST MWS port 2 ("")
# GHz S DB R 50
0.5                    -0.120453        -122.614         -58.7121         124.347         -58.7121         124.347       -0.0067884         151.134
0.501                  -0.131224        -123.157         -58.4838         123.434         -58.4835          123.44      -0.00683948         151.068
0.502                  -0.142396        -123.698         -58.2556         122.498          -58.255         122.508      -0.00689184         151.003
0.503                  -0.153954        -124.237         -58.0276         121.537         -58.0268         121.551      -0.00694547         150.937
0.504                  -0.165882        -124.772         -57.7999         120.552         -57.7988         120.571      -0.00700041         150.871
0.505                  -0.178167        -125.306         -57.5724         119.544         -57.5711         119.566      -0.00705665         150.806
0.506                  -0.190793        -125.837         -57.3452         118.512         -57.3437         118.537       -0.0071142          150.74
0.507                  -0.203747        -126.366         -57.1184         117.456         -57.1166         117.485      -0.00717308         150.674
0.508                  -0.217015        -126.893          -56.892         116.378         -56.8899         116.409       -0.0072333         150.608
0.509                  -0.230582        -127.417         -56.6659         115.276         -56.6636          115.31      -0.00729487         150.542
0.51                   -0.244435         -127.94         -56.4403         114.151         -56.4378         114.187      -0.00735781         150.476
0.511                  -0.258561         -128.46         -56.2151         113.003         -56.2124         113.041      -0.00742212          150.41
0.512                  -0.272948        -128.977         -55.9905         111.833         -55.9876         111.872      -0.00748782         150.343
0.513                  -0.287581        -129.493         -55.7664         110.639         -55.7633          110.68      -0.00755492         150.277
0.514                  -0.302449        -130.006          -55.543         109.424         -55.5397         109.465      -0.00762343         150.211
0.515                   -0.31754        -130.518         -55.3202         108.185         -55.3167         108.227      -0.00769338         150.144
0.516                  -0.332841        -131.027         -55.0981         106.925         -55.0945         106.967      -0.00776477         150.077
0.517                  -0.348342        -131.534         -54.8767         105.642          -54.873         105.685      -0.00783762         150.011
0.518                   -0.36403        -132.039         -54.6561         104.337         -54.6523          104.38      -0.00791195         149.944
0.519                  -0.379896        -132.543         -54.4364          103.01         -54.4325         103.053      -0.00798777         149.877
0.52                   -0.395927        -133.045         -54.2176         101.661         -54.2136         101.703       -0.0080651          149.81
0.521                  -0.412115        -133.544         -53.9998          100.29         -53.9957         100.332      -0.00814395         149.743
0.522                  -0.428449        -134.042          -53.783         98.8982         -53.7789         98.9395      -0.00822435         149.676
0.523                  -0.444919        -134.539         -53.5674         97.4846         -53.5632         97.5252      -0.00830631         149.609
0.524                  -0.461517        -135.034         -53.3529         96.0498         -53.3486         96.0894      -0.00838985         149.541
0.525                  -0.478232        -135.527         -53.1396         94.5939         -53.1353         94.6325        -0.008475         149.474
0.526                  -0.495057        -136.019         -52.9276         93.1171         -52.9233         93.1546      -0.00856176         149.407
0.527                  -0.511984        -136.509          -52.717         91.6198         -52.7127          91.656      -0.00865017         149.339
0.528                  -0.529004        -136.998         -52.5079          90.102         -52.5036         90.1369      -0.00874023         149.271
0.529                   -0.54611        -137.486         -52.3002         88.5642          -52.296         88.5977      -0.00883199         149.204
0.53                   -0.563294        -137.973         -52.0942         87.0065         -52.0901         87.0385      -0.00892545         149.136
0.531                  -0.580551        -138.458         -51.8898         85.4293         -51.8858         85.4598      -0.00902065         149.068
0.532                  -0.597872        -138.943         -51.6872         83.8329         -51.6833         83.8618       -0.0091176             149
0.533                  -0.615253        -139.426         -51.4865         82.2178         -51.4826         82.2451      -0.00921634         148.932
0.534                  -0.632687        -139.909         -51.2876         80.5842         -51.2838         80.6098      -0.00931688         148.863
0.535                  -0.650169        -140.391         -51.0907         78.9326         -51.0871         78.9566      -0.00941925         148.795
0.536                  -0.667694        -140.872         -50.8959         77.2635         -50.8924         77.2858      -0.00952349         148.726
0.537                  -0.685256        -141.353         -50.7032         75.5773         -50.6999          75.598      -0.00962961         148.658
0.538                  -0.702853        -141.833         -50.5127         73.8746         -50.5096         73.8936      -0.00973766         148.589
0.539                  -0.720479        -142.312         -50.3245         72.1558         -50.3215         72.1732      -0.00984765         148.521
0.54                   -0.738131        -142.792         -50.1387         70.4216         -50.1359         70.4374      -0.00995962         148.452
0.541                  -0.755806        -143.271         -49.9553         68.6726         -49.9526         68.6868       -0.0100736         148.383
0.542                    -0.7735         -143.75         -49.7744         66.9093         -49.7719          66.922       -0.0101896         148.314
0.543                  -0.791212        -144.229          -49.596         65.1325         -49.5937         65.1437       -0.0103077         148.245
0.544                  -0.808939        -144.708         -49.4202         63.3427         -49.4182         63.3525       -0.0104279         148.175
0.545                  -0.826679        -145.187         -49.2471         61.5408         -49.2452         61.5492       -0.0105502         148.106
0.546                   -0.84443        -145.666         -49.0766         59.7274          -49.075         59.7345       -0.0106747         148.037
0.547                  -0.862192        -146.146          -48.909         57.9032         -48.9076         57.9091       -0.0108014         147.967
0.548                  -0.879964        -146.626         -48.7441         56.0691         -48.7429         56.0738       -0.0109303         147.897
0.549                  -0.897745        -147.107          -48.582         54.2259         -48.5811         54.2295       -0.0110615         147.827
0.55                   -0.915535        -147.589         -48.4228         52.3742         -48.4221         52.3768        -0.011195         147.758
0.551                  -0.933335        -148.071         -48.2664          50.515          -48.266         50.5166       -0.0113308         147.688
0.552                  -0.951145        -148.555          -48.113         48.6489         -48.1127         48.6498        -0.011469         147.617
0.553                  -0.968967        -149.039         -47.9624          46.777         -47.9624          46.777       -0.0116096         147.547
0.554                  -0.986801        -149.525         -47.8147         44.8998         -47.8149         44.8992       -0.0117526         147.477
0.555                   -1.00465        -150.012         -47.6699         43.0184         -47.6703         43.0172       -0.0118981         147.406
0.556                   -1.02252        -150.501          -47.528         41.1334         -47.5286         41.1317        -0.012046         147.336
0.557                    -1.0404        -150.991         -47.3889         39.2457         -47.3898         39.2435       -0.0121964         147.265
0.558                   -1.05831        -151.482         -47.2527         37.3561         -47.2537         37.3535       -0.0123494         147.194
0.559                   -1.07625        -151.976         -47.1193         35.4653         -47.1205         35.4624       -0.0125048         147.123
0.56                    -1.09421        -152.471         -46.9887         33.5741         -46.9901          33.571       -0.0126629         147.052
0.561                   -1.11221        -152.969         -46.8608         31.6832         -46.8624           31.68       -0.0128234         146.981
0.562                   -1.13025        -153.468         -46.7356         29.7933         -46.7373           29.79       -0.0129866          146.91
0.563                   -1.14833         -153.97          -46.613         27.9052         -46.6149         27.9018       -0.0131523         146.838
0.564                   -1.16646        -154.475          -46.493         26.0194          -46.495          26.016       -0.0133205         146.767
0.565                   -1.18464        -154.982         -46.3755         24.1366         -46.3777         24.1333       -0.0134913         146.695
0.566                   -1.20289        -155.492         -46.2605         22.2573         -46.2628         22.2542       -0.0136646         146.623
0.567                   -1.22121        -156.005         -46.1479         20.3822         -46.1503         20.3793       -0.0138403         146.552
0.568                    -1.2396        -156.521         -46.0376         18.5118           -46.04          18.509       -0.0140186         146.479
0.569                   -1.25808         -157.04         -45.9295         16.6465         -45.9321          16.644       -0.0141992         146.407
0.57                    -1.27664        -157.562         -45.8236         14.7868         -45.8262         14.7845       -0.0143821         146.335
0.571                   -1.29531        -158.088         -45.7198         12.9331         -45.7225         12.9311       -0.0145674         146.263
0.572                   -1.31409        -158.618         -45.6179         11.0858         -45.6207         11.0841       -0.0147549          146.19
0.573                   -1.33299        -159.151          -45.518         9.24525         -45.5208          9.2439       -0.0149445         146.117
0.574                   -1.35203        -159.689           -45.42         7.41171         -45.4228          7.4107       -0.0151361         146.045
0.575                    -1.3712         -160.23         -45.3237         5.58548         -45.3265         5.58481       -0.0153297         145.972
0.576                   -1.39053        -160.776         -45.2291         3.76678         -45.2319         3.76645       -0.0155251         145.899
0.577                   -1.41002        -161.326         -45.1361         1.95581         -45.1389         1.95583       -0.0157223         145.826
0.578                    -1.4297        -161.881         -45.0445        0.152737         -45.0474        0.153103       -0.0159211         145.752
0.579                   -1.44956        -162.441         -44.9545        -1.64231         -44.9573         -1.6416       -0.0161214         145.679
0.58                    -1.46964        -163.005         -44.8657        -3.42923         -44.8685        -3.42819        -0.016323         145.605
0.581                   -1.48994        -163.575         -44.7783        -5.20795          -44.781        -5.20659        -0.016526         145.531
0.582                   -1.51048        -164.149          -44.692        -6.97844         -44.6947        -6.97677       -0.0167301         145.457
0.583                   -1.53127         -164.73         -44.6069        -8.74067         -44.6095        -8.73871       -0.0169352         145.383
0.584                   -1.55234        -165.315         -44.5228        -10.4947         -44.5254        -10.4924       -0.0171412         145.309
0.585                    -1.5737        -165.907         -44.4396        -12.2405         -44.4422         -12.238       -0.0173481         145.235
0.586                   -1.59537        -166.504         -44.3574        -13.9781         -44.3599        -13.9754       -0.0175557          145.16
0.587                   -1.61737        -167.108         -44.2761        -15.7077         -44.2785        -15.7047        -0.017764         145.086
0.588                   -1.63972        -167.717         -44.1955        -17.4293         -44.1978        -17.4261       -0.0179729         145.011
0.589                   -1.66246        -168.333         -44.1156        -19.1431         -44.1179        -19.1397       -0.0181824         144.936
0.59                    -1.68559        -168.956         -44.0364        -20.8492         -44.0386        -20.8456       -0.0183923         144.861
0.591                   -1.70914        -169.585         -43.9578        -22.5477         -43.9599         -22.544       -0.0186028         144.786
0.592                   -1.73315        -170.222         -43.8797        -24.2388         -43.8817         -24.235       -0.0188138          144.71
0.593                   -1.75763        -170.865         -43.8021        -25.9227         -43.8041        -25.9189       -0.0190253         144.635
0.594                   -1.78261        -171.516          -43.725        -27.5996         -43.7269        -27.5957       -0.0192374         144.559
0.595                   -1.80813        -172.174         -43.6483        -29.2697         -43.6501        -29.2657       -0.0194501         144.483
0.596                   -1.83422        -172.839          -43.572        -30.9332         -43.5737        -30.9292       -0.0196636         144.407
0.597                    -1.8609        -173.512          -43.496        -32.5903         -43.4976        -32.5862       -0.0198778          144.33
0.598                   -1.88821        -174.193         -43.4203        -34.2412         -43.4218        -34.2372       -0.0200929         144.254
0.599                   -1.91619        -174.882         -43.3449        -35.8862         -43.3463        -35.8822       -0.0203091         144.177
0.6                     -1.94488         -175.58         -43.2696        -37.5255          -43.271        -37.5215       -0.0205263           144.1
0.601                    -1.9743        -176.285         -43.1946        -39.1593         -43.1959        -39.1554       -0.0207448         144.023
0.602                   -2.00451        -176.999         -43.1198        -40.7879          -43.121        -40.7841       -0.0209647         143.946
0.603                   -2.03554        -177.721         -43.0451        -42.4115         -43.0462        -42.4078       -0.0211862         143.869
0.604                   -2.06744        -178.452         -42.9706        -44.0304         -42.9716        -44.0268       -0.0214094         143.791
0.605                   -2.10025        -179.192         -42.8961        -45.6449         -42.8971        -45.6414       -0.0216344         143.713
0.606                   -2.13402        -179.941         -42.8218         -47.255         -42.8227        -47.2517       -0.0218614         143.635
0.607                    -2.1688         179.301         -42.7476        -48.8612         -42.7483         -48.858       -0.0220906         143.557
0.608                   -2.20464         178.534         -42.6734        -50.4636         -42.6741        -50.4606        -0.022322         143.478
0.609                   -2.24159         177.758         -42.5993        -52.0626         -42.5999        -52.0596       -0.0225559         143.399
0.61                    -2.27972         176.972         -42.5253        -53.6582         -42.5259        -53.6554       -0.0227925          143.32
0.611                   -2.31906         176.177         -42.4513        -55.2508         -42.4518        -55.2482       -0.0230317         143.241
0.612                    -2.3597         175.373         -42.3774        -56.8406         -42.3779        -56.8381       -0.0232739         143.162
0.613                   -2.40168         174.559         -42.3036        -58.4278          -42.304        -58.4255        -0.023519         143.082
0.614                   -2.44506         173.736         -42.2298        -60.0126         -42.2301        -60.0105       -0.0237673         143.002
0.615                   -2.48993         172.903         -42.1561        -61.5952         -42.1564        -61.5933       -0.0240189         142.922
0.616                   -2.53634         172.061         -42.0824        -63.1759         -42.0827        -63.1742       -0.0242739         142.842
0.617                   -2.58437         171.209         -42.0089        -64.7548         -42.0091        -64.7533       -0.0245324         142.761
0.618                   -2.63408         170.347         -41.9354        -66.3322         -41.9356        -66.3308       -0.0247945         142.681
0.619                   -2.68555         169.476          -41.862        -67.9081         -41.8622        -67.9069       -0.0250603         142.599
0.62                    -2.73886         168.596         -41.7888        -69.4829         -41.7889        -69.4818       -0.0253299         142.518
0.621                   -2.79409         167.706         -41.7157        -71.0566         -41.7157        -71.0557       -0.0256036         142.437
0.622                   -2.85132         166.807         -41.6427        -72.6294         -41.6427        -72.6287       -0.0258812         142.355
0.623                   -2.91063         165.899         -41.5698        -74.2015         -41.5699        -74.2009        -0.026163         142.273
0.624                    -2.9721         164.981         -41.4972        -75.7729         -41.4972        -75.7725       -0.0264489         142.191
0.625                   -3.03583         164.055         -41.4248        -77.3439         -41.4247        -77.3437       -0.0267393         142.108
0.626                    -3.1019         163.121         -41.3525        -78.9146         -41.3525        -78.9144        -0.027034         142.025
0.627                    -3.1704         162.178         -41.2805        -80.4849         -41.2805        -80.4849       -0.0273332         141.942
0.628                   -3.24143         161.226         -41.2088        -82.0551         -41.2087        -82.0552       -0.0276369         141.859
0.629                   -3.31508         160.267         -41.1374        -83.6253         -41.1373        -83.6255       -0.0279454         141.775
