! TOUCHSTONE file generated by CST MICROWAVE STUDIO
! Date and time: Wed Oct 28 19:39:15 2020
! Project name: Scenario_1_Circular_Tissue_out_of_Line_v2.cst
! Parameters = {dy1=155.7; L_HA=400; MT=2.54; Rad_Dielectric=30; Rad_Lower=7.3; Rad_Upper=30; a_HA=580; a_WG=246; b_HA=500; b_WG=121; c_HA=0; c_WG=187; d_feed=85; dx1=346; h_feed=15; h_lower=18; h_upper=40}
! Header version: 2018
! Port assignment regex: !\s*Touchstone port\s*([0-9]+)\s*=\s*(CST MWS port|CST DS port)\s*([0-9]+|Zmin|Zmax)\s*\(\"(.*)\"\)(\s*mode\s*([0-9]+))?.*
! Touchstone port assignment:
! Touchstone port 1 = CST MWS port 1 ("")
! Touchstone port 2 = CST MWS port 2 ("")
# GHz S DB R 50
0.5                    -0.165896        -122.274         -59.0927         19.4316         -59.0927         19.4316      -0.00803315         151.133
0.501                  -0.168723        -122.679          -58.992         18.0698          -58.992         18.0696       -0.0081024         151.068
0.502                  -0.171585        -123.087         -58.8899         16.7037           -58.89         16.7033      -0.00817126         151.003
0.503                  -0.174488        -123.499         -58.7865         15.3333         -58.7866         15.3327      -0.00823977         150.938
0.504                  -0.177443        -123.915         -58.6817         13.9586         -58.6818         13.9579      -0.00830798         150.873
0.505                  -0.180457        -124.333         -58.5755         12.5797         -58.5757         12.5789      -0.00837593         150.807
0.506                  -0.183541        -124.756         -58.4681         11.1967         -58.4683         11.1956      -0.00844368         150.742
0.507                  -0.186703        -125.182         -58.3593         9.80945         -58.3595         9.80828      -0.00851127         150.676
0.508                  -0.189955        -125.611         -58.2492         8.41814         -58.2494         8.41683      -0.00857873         150.611
0.509                  -0.193305        -126.044         -58.1378         7.02274         -58.1381         7.02131      -0.00864613         150.545
0.51                   -0.196765        -126.481         -58.0252          5.6233         -58.0254         5.62174       -0.0087135         150.479
0.511                  -0.200345        -126.922         -57.9113         4.21981         -57.9115         4.21813      -0.00878087         150.413
0.512                  -0.204057        -127.366         -57.7961         2.81231         -57.7964         2.81052       -0.0088483         150.348
0.513                  -0.207912        -127.814         -57.6797          1.4008           -57.68         1.39891      -0.00891583         150.282
0.514                  -0.211922        -128.266         -57.5621       -0.014708         -57.5624      -0.0166869      -0.00898349         150.215
0.515                    -0.2161        -128.722         -57.4432        -1.43421         -57.4436        -1.43627      -0.00905132         150.149
0.516                  -0.220457        -129.182         -57.3232         -2.8577         -57.3236        -2.85984      -0.00911937         150.083
0.517                  -0.225008        -129.645         -57.2021        -4.28519         -57.2024         -4.2874      -0.00918767         150.017
0.518                  -0.229766        -130.113         -57.0798        -5.71668         -57.0801        -5.71896      -0.00925626          149.95
0.519                  -0.234743        -130.584         -56.9563         -7.1522         -56.9567        -7.15452      -0.00932518         149.884
0.52                   -0.239955         -131.06         -56.8318        -8.59174         -56.8322        -8.59411      -0.00939447         149.817
0.521                  -0.245415         -131.54         -56.7062        -10.0353         -56.7066        -10.0377      -0.00946415          149.75
0.522                  -0.251138        -132.023         -56.5795         -11.483         -56.5799        -11.4854      -0.00953428         149.683
0.523                  -0.257139        -132.511         -56.4518        -12.9348         -56.4522        -12.9372      -0.00960487         149.616
0.524                  -0.263434        -133.003         -56.3231        -14.3907         -56.3235        -14.3932      -0.00967598         149.549
0.525                  -0.270039        -133.499         -56.1934        -15.8508         -56.1938        -15.8533      -0.00974763         149.482
0.526                  -0.276968        -133.999         -56.0628        -17.3151         -56.0631        -17.3176      -0.00981986         149.415
0.527                  -0.284239        -134.503         -55.9312        -18.7836         -55.9316        -18.7861       -0.0098927         149.348
0.528                  -0.291868        -135.011         -55.7987        -20.2565          -55.799        -20.2589      -0.00996619          149.28
0.529                  -0.299872        -135.523         -55.6653        -21.7337         -55.6657        -21.7361       -0.0100404         149.213
0.53                   -0.308268         -136.04          -55.531        -23.2152         -55.5314        -23.2177       -0.0101152         149.145
0.531                  -0.317074         -136.56          -55.396        -24.7013         -55.3963        -24.7037       -0.0101908         149.078
0.532                  -0.326306        -137.085         -55.2601        -26.1918         -55.2605        -26.1942       -0.0102672          149.01
0.533                  -0.335983        -137.613         -55.1235         -27.687         -55.1238        -27.6893       -0.0103445         148.942
0.534                  -0.346122        -138.146         -54.9861        -29.1867         -54.9864         -29.189       -0.0104225         148.874
0.535                  -0.356742        -138.683          -54.848        -30.6912         -54.8483        -30.6934       -0.0105014         148.806
0.536                   -0.36786        -139.223         -54.7093        -32.2004         -54.7096        -32.2026       -0.0105812         148.738
0.537                  -0.379495        -139.768         -54.5698        -33.7144         -54.5701        -33.7165        -0.010662         148.669
0.538                  -0.391666        -140.316         -54.4298        -35.2334         -54.4301        -35.2354       -0.0107437         148.601
0.539                  -0.404389        -140.868         -54.2892        -36.7573         -54.2895        -36.7592       -0.0108264         148.532
0.54                   -0.417684        -141.424         -54.1481        -38.2862         -54.1483        -38.2881       -0.0109101         148.464
0.541                  -0.431568        -141.984         -54.0064        -39.8203         -54.0066        -39.8221       -0.0109949         148.395
0.542                   -0.44606        -142.548         -53.8642        -41.3595         -53.8645        -41.3612       -0.0110808         148.326
0.543                  -0.461177        -143.115         -53.7216        -42.9039         -53.7219        -42.9056       -0.0111677         148.257
0.544                  -0.476938        -143.685         -53.5786        -44.4537         -53.5788        -44.4552       -0.0112559         148.188
0.545                  -0.493358        -144.259         -53.4352        -46.0088         -53.4355        -46.0103       -0.0113452         148.119
0.546                  -0.510456        -144.837         -53.2915        -47.5694         -53.2917        -47.5708       -0.0114356          148.05
0.547                  -0.528248        -145.417         -53.1475        -49.1355         -53.1477        -49.1368       -0.0115274          147.98
0.548                   -0.54675        -146.001         -53.0032        -50.7072         -53.0034        -50.7083       -0.0116203         147.911
0.549                  -0.565978        -146.588         -52.8587        -52.2844         -52.8589        -52.2855       -0.0117146         147.841
0.55                   -0.585947        -147.178         -52.7141        -53.8674         -52.7142        -53.8684       -0.0118101         147.772
0.551                  -0.606671        -147.771         -52.5692        -55.4561         -52.5694         -55.457        -0.011907         147.702
0.552                  -0.628166        -148.366         -52.4243        -57.0506         -52.4244        -57.0514       -0.0120053         147.632
0.553                  -0.650442        -148.964         -52.2793        -58.6509         -52.2794        -58.6516        -0.012105         147.562
0.554                  -0.673514        -149.565         -52.1343        -60.2571         -52.1344        -60.2577       -0.0122061         147.491
0.555                  -0.697393        -150.168         -51.9893        -61.8691         -51.9893        -61.8696       -0.0123086         147.421
0.556                  -0.722088        -150.773         -51.8443        -63.4871         -51.8444        -63.4875       -0.0124126         147.351
0.557                  -0.747611         -151.38         -51.6995         -65.111         -51.6995        -65.1114       -0.0125182          147.28
0.558                  -0.773969        -151.989         -51.5548        -66.7409         -51.5548        -66.7412       -0.0126252         147.209
0.559                  -0.801169          -152.6         -51.4103        -68.3768         -51.4103        -68.3769       -0.0127338         147.139
0.56                   -0.829219        -153.212          -51.266        -70.0186          -51.266        -70.0187        -0.012844         147.068
0.561                  -0.858123        -153.826          -51.122        -71.6664          -51.122        -71.6664       -0.0129558         146.997
0.562                  -0.887886        -154.442         -50.9783        -73.3202         -50.9783        -73.3201       -0.0130693         146.925
0.563                  -0.918509        -155.058          -50.835        -74.9799         -50.8349        -74.9797       -0.0131844         146.854
0.564                  -0.949994        -155.675          -50.692        -76.6454         -50.6919        -76.6451       -0.0133012         146.783
0.565                  -0.982342        -156.293         -50.5495        -78.3169         -50.5494        -78.3165       -0.0134198         146.711
0.566                   -1.01555        -156.912         -50.4075        -79.9941         -50.4074        -79.9937       -0.0135401         146.639
0.567                   -1.04962        -157.531          -50.266        -81.6771         -50.2659        -81.6766       -0.0136621         146.567
0.568                   -1.08453        -158.151         -50.1251        -83.3657         -50.1249        -83.3651        -0.013786         146.495
0.569                    -1.1203         -158.77         -49.9848        -85.0599         -49.9846        -85.0593       -0.0139116         146.423
0.57                     -1.1569         -159.39         -49.8451        -86.7597         -49.8449         -86.759       -0.0140392         146.351
0.571                   -1.19434        -160.009         -49.7061        -88.4648         -49.7059        -88.4641       -0.0141686         146.278
0.572                    -1.2326        -160.628         -49.5679        -90.1753         -49.5677        -90.1745       -0.0142999         146.206
0.573                   -1.27166        -161.247         -49.4304        -91.8909         -49.4302          -91.89       -0.0144331         146.133
0.574                   -1.31152        -161.865         -49.2937        -93.6115         -49.2935        -93.6106       -0.0145683          146.06
0.575                   -1.35216        -162.482         -49.1579         -95.337         -49.1577        -95.3361       -0.0147055         145.987
0.576                   -1.39357        -163.098          -49.023        -97.0673         -49.0227        -97.0663       -0.0148447         145.914
0.577                   -1.43572        -163.713         -48.8889        -98.8021         -48.8886        -98.8011       -0.0149859         145.841
0.578                    -1.4786        -164.327         -48.7558        -100.541         -48.7555         -100.54       -0.0151292         145.768
0.579                   -1.52219         -164.94         -48.6237        -102.285         -48.6234        -102.284       -0.0152745         145.694
0.58                    -1.56646        -165.551         -48.4926        -104.032         -48.4923        -104.031        -0.015422          145.62
0.581                    -1.6114        -166.161         -48.3625        -105.783         -48.3622        -105.782       -0.0155716         145.546
0.582                   -1.65698        -166.769         -48.2335        -107.538         -48.2332        -107.537       -0.0157234         145.472
0.583                   -1.70317        -167.376         -48.1056        -109.297         -48.1053        -109.296       -0.0158774         145.398
0.584                   -1.74996        -167.981         -47.9788        -111.058         -47.9785        -111.057       -0.0160335         145.324
0.585                   -1.79731        -168.584         -47.8531        -112.822         -47.8528        -112.821       -0.0161919         145.249
0.586                    -1.8452        -169.186         -47.7286        -114.589         -47.7283        -114.588       -0.0163526         145.174
0.587                    -1.8936        -169.785         -47.6053        -116.359         -47.6049        -116.358       -0.0165156           145.1
0.588                   -1.94248        -170.383         -47.4831         -118.13         -47.4828        -118.129       -0.0166809         145.025
0.589                   -1.99181        -170.979         -47.3621        -119.904         -47.3618        -119.903       -0.0168485         144.949
0.59                    -2.04157        -171.573         -47.2424        -121.679          -47.242        -121.678       -0.0170185         144.874
0.591                   -2.09173        -172.165         -47.1238        -123.456         -47.1235        -123.455       -0.0171909         144.799
0.592                   -2.14226        -172.755         -47.0065        -125.233         -47.0062        -125.232       -0.0173656         144.723
0.593                   -2.19313        -173.344         -46.8904        -127.012         -46.8901        -127.011       -0.0175429         144.647
0.594                   -2.24431        -173.931         -46.7756        -128.791         -46.7752         -128.79       -0.0177226         144.571
0.595                   -2.29578        -174.517          -46.662         -130.57         -46.6616         -130.57       -0.0179048         144.495
0.596                    -2.3475        -175.101         -46.5496         -132.35         -46.5492        -132.349       -0.0180895         144.418
0.597                   -2.39946        -175.683         -46.4384        -134.129          -46.438        -134.128       -0.0182768         144.342
0.598                   -2.45163        -176.265         -46.3284        -135.908          -46.328        -135.907       -0.0184666         144.265
0.599                   -2.50397        -176.845         -46.2196        -137.686         -46.2193        -137.685        -0.018659         144.188
0.6                     -2.55648        -177.424          -46.112        -139.463         -46.1117        -139.462       -0.0188541         144.111
0.601                   -2.60912        -178.003         -46.0056        -141.239         -46.0053        -141.238       -0.0190517         144.034
0.602                   -2.66188        -178.581         -45.9003        -143.013            -45.9        -143.013       -0.0192521         143.956
0.603                   -2.71473        -179.158         -45.7962        -144.786         -45.7959        -144.785       -0.0194552         143.878
0.604                   -2.76766        -179.735         -45.6932        -146.556         -45.6929        -146.556        -0.019661           143.8
0.605                   -2.82065         179.688         -45.5913        -148.325          -45.591        -148.324       -0.0198695         143.722
0.606                    -2.8737          179.11         -45.4904        -150.091         -45.4901         -150.09       -0.0200808         143.644
0.607                   -2.92677         178.533         -45.3906        -151.854         -45.3903        -151.854        -0.020295         143.566
0.608                   -2.97987         177.954         -45.2919        -153.615         -45.2916        -153.615       -0.0205119         143.487
0.609                   -3.03299         177.375          -45.194        -155.373         -45.1938        -155.372       -0.0207318         143.408
0.61                    -3.08611         176.794         -45.0972        -157.127         -45.0969        -157.127       -0.0209545         143.329
0.611                   -3.13924         176.212         -45.0013        -158.879          -45.001        -158.879       -0.0211801         143.249
0.612                   -3.19238         175.629         -44.9062        -160.627          -44.906        -160.626       -0.0214087          143.17
0.613                   -3.24552         175.043         -44.8121        -162.371         -44.8118        -162.371       -0.0216403          143.09
0.614                   -3.29867         174.455         -44.7187        -164.112         -44.7185        -164.112       -0.0218749          143.01
0.615                   -3.35183         173.865         -44.6261        -165.849         -44.6259        -165.849       -0.0221125          142.93
0.616                   -3.40501         173.272         -44.5343        -167.582         -44.5341        -167.582       -0.0223532         142.849
0.617                   -3.45822         172.675         -44.4432        -169.311          -44.443        -169.311        -0.022597         142.769
0.618                   -3.51148         172.075         -44.3527        -171.036         -44.3525        -171.036        -0.022844         142.688
0.619                   -3.56481         171.471         -44.2629        -172.757         -44.2628        -172.757       -0.0230941         142.607
0.62                    -3.61821         170.864         -44.1737        -174.474         -44.1736        -174.474       -0.0233474         142.525
0.621                   -3.67172         170.252         -44.0851        -176.187         -44.0849        -176.187        -0.023604         142.444
0.622                   -3.72536         169.635          -43.997        -177.895         -43.9968        -177.895       -0.0238639         142.362
0.623                   -3.77916         169.013         -43.9093          -179.6         -43.9092          -179.6       -0.0241272          142.28
0.624                   -3.83314         168.386         -43.8222           178.7          -43.822           178.7       -0.0243938         142.197
0.625                   -3.88735         167.753         -43.7354         177.004         -43.7353         177.004       -0.0246638         142.115
0.626                   -3.94181         167.114          -43.649         175.312         -43.6489         175.312       -0.0249373         142.032
0.627                   -3.99657         166.469         -43.5629         173.624         -43.5628         173.624       -0.0252143         141.949
0.628                   -4.05168         165.818         -43.4772          171.94         -43.4771          171.94       -0.0254949         141.865
0.629                   -4.10717          165.16         -43.3917          170.26         -43.3916          170.26       -0.0257791         141.782
