! TOUCHSTONE file generated by CST MICROWAVE STUDIO
! Date and time: Fri Oct 30 08:08:04 2020
! Project name: Scenario_1_Circular_Tissue_out_of_Line.cst
! Parameters = {dy1=156.889; L_HA=400; MT=2.54; Rad_Dielectric=30; Rad_Lower=7.3; Rad_Upper=30; a_HA=580; a_WG=246; b_HA=500; b_WG=121; c_HA=0; c_WG=187; d_feed=85; dx1=520; h_feed=15; h_lower=18; h_upper=40}
! Header version: 2018
! Port assignment regex: !\s*Touchstone port\s*([0-9]+)\s*=\s*(CST MWS port|CST DS port)\s*([0-9]+|Zmin|Zmax)\s*\(\"(.*)\"\)(\s*mode\s*([0-9]+))?.*
! Touchstone port assignment:
! Touchstone port 1 = CST MWS port 1 ("")
! Touchstone port 2 = CST MWS port 2 ("")
# GHz S DB R 50
0.5                    -0.135243        -122.433         -61.8121         -67.328         -61.8123        -67.3261      -0.00733173         151.131
0.501                  -0.144774        -122.901         -61.6151        -68.7949          -61.614        -68.8076      -0.00739099         151.065
0.502                  -0.154466         -123.37         -61.4171        -70.2783          -61.415        -70.3048      -0.00745161             151
0.503                  -0.164317        -123.839         -61.2183        -71.7788         -61.2152        -71.8181      -0.00751358         150.935
0.504                  -0.174323        -124.308         -61.0186        -73.2967         -61.0147        -73.3479      -0.00757692         150.869
0.505                  -0.184481        -124.777         -60.8181        -74.8323         -60.8136        -74.8945      -0.00764163         150.803
0.506                  -0.194786        -125.246          -60.617        -76.3862         -60.6119        -76.4585      -0.00770771         150.738
0.507                  -0.205236        -125.715         -60.4153        -77.9586         -60.4098        -78.0401      -0.00777518         150.672
0.508                  -0.215827        -126.185         -60.2131        -79.5499         -60.2074        -79.6396      -0.00784403         150.606
0.509                  -0.226555        -126.654         -60.0105        -81.1604         -60.0047        -81.2576      -0.00791427          150.54
0.51                   -0.237419        -127.124         -59.8077        -82.7905         -59.8018        -82.8941       -0.0079859         150.474
0.511                  -0.248413        -127.595         -59.6047        -84.4405         -59.5988        -84.5496      -0.00805893         150.408
0.512                  -0.259536        -128.065         -59.4016        -86.1106         -59.3959        -86.2243      -0.00813336         150.342
0.513                  -0.270785        -128.536         -59.1986         -87.801         -59.1931        -87.9185       -0.0082092         150.275
0.514                  -0.282155        -129.007         -58.9958         -89.512         -58.9906        -89.6323      -0.00828644         150.209
0.515                  -0.293645        -129.478         -58.7933        -91.2436         -58.7885        -91.3659      -0.00836508         150.142
0.516                  -0.305251         -129.95         -58.5913        -92.9961         -58.5869        -93.1195      -0.00844512         150.076
0.517                  -0.316972        -130.423         -58.3899        -94.7694         -58.3859        -94.8931      -0.00852657         150.009
0.518                  -0.328804        -130.895         -58.1893        -96.5636         -58.1857        -96.6868      -0.00860942         149.943
0.519                  -0.340745        -131.369         -57.9895        -98.3786         -57.9864        -98.5005      -0.00869368         149.876
0.52                   -0.352792        -131.843         -57.7908        -100.214         -57.7881        -100.334      -0.00877933         149.809
0.521                  -0.364944        -132.317         -57.5932        -102.071         -57.5911        -102.188      -0.00886637         149.742
0.522                  -0.377199        -132.792          -57.397        -103.947         -57.3954        -104.061       -0.0089548         149.675
0.523                  -0.389554        -133.268         -57.2023        -105.844         -57.2012        -105.954      -0.00904462         149.608
0.524                  -0.402007        -133.745         -57.0092         -107.76         -57.0085        -107.866      -0.00913581         149.541
0.525                  -0.414558        -134.222          -56.818        -109.696         -56.8177        -109.796      -0.00922838         149.473
0.526                  -0.427204        -134.701         -56.6286         -111.65         -56.6288        -111.745       -0.0093223         149.406
0.527                  -0.439944         -135.18         -56.4414        -113.623         -56.4419        -113.711      -0.00941759         149.339
0.528                  -0.452778         -135.66         -56.2564        -115.613         -56.2572        -115.695      -0.00951421         149.271
0.529                  -0.465704        -136.141         -56.0738         -117.62         -56.0749        -117.695      -0.00961218         149.203
0.53                   -0.478721        -136.624         -55.8937        -119.642         -55.8949        -119.711      -0.00971146         149.136
0.531                  -0.491829        -137.107         -55.7162         -121.68         -55.7176        -121.742      -0.00981206         149.068
0.532                  -0.505028        -137.592         -55.5415        -123.732         -55.5429        -123.786      -0.00991395             149
0.533                  -0.518318        -138.078         -55.3696        -125.797          -55.371        -125.844       -0.0100171         148.932
0.534                  -0.531698        -138.565         -55.2006        -127.875          -55.202        -127.914       -0.0101216         148.864
0.535                  -0.545169        -139.054         -55.0347        -129.963          -55.036        -129.996       -0.0102273         148.796
0.536                  -0.558733        -139.544         -54.8718        -132.061          -54.873        -132.087       -0.0103342         148.727
0.537                  -0.572389        -140.036         -54.7121        -134.168         -54.7131        -134.187       -0.0104424         148.659
0.538                  -0.586139         -140.53         -54.5556        -136.283         -54.5563        -136.295       -0.0105518          148.59
0.539                  -0.599984        -141.025         -54.4024        -138.404         -54.4027         -138.41       -0.0106623         148.522
0.54                   -0.613927        -141.522         -54.2523         -140.53         -54.2523        -140.529        -0.010774         148.453
0.541                   -0.62797        -142.021         -54.1056        -142.659         -54.1051        -142.654       -0.0108869         148.384
0.542                  -0.642115        -142.522          -53.962        -144.791         -53.9611        -144.781       -0.0110009         148.315
0.543                  -0.656366        -143.025         -53.8217        -146.925         -53.8203        -146.909        -0.011116         148.246
0.544                  -0.670725         -143.53         -53.6845        -149.059         -53.6827        -149.039       -0.0112322         148.177
0.545                  -0.685196        -144.038         -53.5505        -151.192         -53.5481        -151.168       -0.0113495         148.108
0.546                  -0.699784        -144.548         -53.4195        -153.322         -53.4166        -153.295       -0.0114678         148.039
0.547                  -0.714494         -145.06         -53.2915         -155.45         -53.2881         -155.42       -0.0115872         147.969
0.548                   -0.72933        -145.575         -53.1664        -157.573         -53.1624        -157.541       -0.0117076           147.9
0.549                  -0.744298        -146.093          -53.044        -159.691         -53.0396        -159.657       -0.0118289          147.83
0.55                   -0.759404        -146.613         -52.9244        -161.803         -52.9194        -161.768       -0.0119512         147.761
0.551                  -0.774656        -147.137         -52.8073        -163.909         -52.8018        -163.872       -0.0120745         147.691
0.552                   -0.79006        -147.663         -52.6926        -166.006         -52.6867         -165.97       -0.0121988         147.621
0.553                  -0.805624        -148.192         -52.5803        -168.096          -52.574        -168.059       -0.0123239         147.551
0.554                  -0.821358        -148.725         -52.4701        -170.176         -52.4634         -170.14       -0.0124499          147.48
0.555                   -0.83727        -149.261          -52.362        -172.248         -52.3549        -172.211       -0.0125769          147.41
0.556                   -0.85337          -149.8         -52.2558        -174.309         -52.2484        -174.274       -0.0127047          147.34
0.557                   -0.86967        -150.343         -52.1513         -176.36         -52.1437        -176.326       -0.0128334         147.269
0.558                  -0.886181         -150.89         -52.0485        -178.401         -52.0406        -178.368       -0.0129629         147.199
0.559                  -0.902915         -151.44         -51.9471         179.569         -51.9391         179.601       -0.0130933         147.128
0.56                   -0.919886        -151.994         -51.8471          177.55          -51.839          177.58       -0.0132245         147.057
0.561                  -0.937107        -152.553         -51.7483         175.542         -51.7401          175.57       -0.0133565         146.986
0.562                  -0.954594        -153.115         -51.6505         173.545         -51.6423         173.571       -0.0134894         146.915
0.563                  -0.972364        -153.682         -51.5537         171.559         -51.5455         171.582       -0.0136231         146.843
0.564                  -0.990432        -154.253         -51.4578         169.583         -51.4496         169.605       -0.0137577         146.772
0.565                   -1.00882        -154.828         -51.3625         167.619         -51.3543         167.638       -0.0138931         146.701
0.566                   -1.02754        -155.408         -51.2677         165.665         -51.2597         165.682       -0.0140293         146.629
0.567                   -1.04662        -155.993         -51.1735         163.721         -51.1656         163.736       -0.0141664         146.557
0.568                   -1.06607        -156.583         -51.0796         161.787         -51.0719           161.8       -0.0143044         146.485
0.569                   -1.08593        -157.177         -50.9859         159.863         -50.9785         159.874       -0.0144433         146.413
0.57                    -1.10622        -157.777         -50.8924         157.948         -50.8852         157.957       -0.0145831         146.341
0.571                   -1.12695        -158.382          -50.799         156.042         -50.7921         156.049       -0.0147239         146.269
0.572                   -1.14816        -158.992         -50.7056         154.144         -50.6989         154.149       -0.0148656         146.196
0.573                   -1.16988        -159.607         -50.6121         152.254         -50.6057         152.258       -0.0150083         146.123
0.574                   -1.19213        -160.228         -50.5184         150.373         -50.5124         150.375        -0.015152         146.051
0.575                   -1.21494        -160.854         -50.4245         148.498         -50.4188         148.499       -0.0152968         145.978
0.576                   -1.23836        -161.486         -50.3303          146.63          -50.325          146.63       -0.0154427         145.905
0.577                    -1.2624        -162.124         -50.2359         144.768         -50.2309         144.767       -0.0155898         145.831
0.578                   -1.28711        -162.767          -50.141         142.912         -50.1364          142.91       -0.0157381         145.758
0.579                   -1.31252        -163.416         -50.0458         141.061         -50.0415         141.058       -0.0158876         145.685
0.58                    -1.33868        -164.071         -49.9501         139.214         -49.9461         139.211       -0.0160384         145.611
0.581                   -1.36561        -164.732         -49.8539         137.372         -49.8503         137.368       -0.0161906         145.537
0.582                   -1.39336        -165.398         -49.7573         135.534          -49.754         135.529       -0.0163441         145.463
0.583                   -1.42198        -166.071         -49.6601         133.698         -49.6572         133.694       -0.0164992         145.389
0.584                    -1.4515        -166.749         -49.5625         131.866         -49.5599         131.861       -0.0166558         145.315
0.585                   -1.48198        -167.434         -49.4643         130.035          -49.462          130.03        -0.016814          145.24
0.586                   -1.51345        -168.124         -49.3656         128.207         -49.3636         128.202       -0.0169738         145.166
0.587                   -1.54596         -168.82         -49.2664         126.379         -49.2646         126.374       -0.0171354         145.091
0.588                   -1.57957        -169.522         -49.1667         124.553         -49.1652         124.548       -0.0172988         145.016
0.589                   -1.61431         -170.23         -49.0664         122.726         -49.0652         122.722       -0.0174641         144.941
0.59                    -1.65025        -170.943         -48.9657           120.9         -48.9647         120.896       -0.0176313         144.865
0.591                   -1.68743        -171.661         -48.8646         119.073         -48.8638         119.069       -0.0178006          144.79
0.592                    -1.7259        -172.385          -48.763         117.246         -48.7624         117.242        -0.017972         144.714
0.593                   -1.76571        -173.114          -48.661         115.417         -48.6606         115.414       -0.0181455         144.638
0.594                   -1.80691        -173.849         -48.5587         113.586         -48.5584         113.584       -0.0183213         144.562
0.595                   -1.84955        -174.587          -48.456         111.754         -48.4559         111.752       -0.0184994         144.486
0.596                   -1.89369        -175.331          -48.353          109.92          -48.353         109.918         -0.01868         144.409
0.597                   -1.93937        -176.079         -48.2497         108.082         -48.2498         108.081        -0.018863         144.333
0.598                   -1.98664         -176.83         -48.1462         106.243         -48.1465         106.242       -0.0190486         144.256
0.599                   -2.03555        -177.586         -48.0426           104.4         -48.0429         104.399       -0.0192368         144.179
0.6                     -2.08614        -178.344         -47.9388         102.554         -47.9392         102.553       -0.0194278         144.102
0.601                   -2.13846        -179.106          -47.835         100.704         -47.8354         100.704       -0.0196215         144.024
0.602                   -2.19254         -179.87         -47.7311         98.8508         -47.7316         98.8515       -0.0198181         143.947
0.603                   -2.24843         179.363         -47.6273         96.9939         -47.6278         96.9949       -0.0200177         143.869
0.604                   -2.30616         178.595         -47.5236         95.1331          -47.524         95.1344       -0.0202202         143.791
0.605                   -2.36575         177.825         -47.4199         93.2684         -47.4204           93.27       -0.0204259         143.713
0.606                   -2.42725         177.055         -47.3165         91.3997          -47.317         91.4015       -0.0206347         143.634
0.607                   -2.49066         176.284         -47.2133          89.527         -47.2138         89.5289       -0.0208467         143.556
0.608                   -2.55602         175.514         -47.1105         87.6502         -47.1109         87.6523       -0.0210621         143.477
0.609                   -2.62332         174.744         -47.0079         85.7694         -47.0083         85.7716       -0.0212808         143.398
0.61                    -2.69259         173.976         -46.9058         83.8846         -46.9062         83.8868       -0.0215029         143.319
0.611                   -2.76382         173.209         -46.8042          81.996         -46.8045         81.9982       -0.0217286         143.239
0.612                   -2.83701         172.445          -46.703         80.1035         -46.7033         80.1057       -0.0219578          143.16
0.613                   -2.91215         171.684         -46.6025         78.2074         -46.6027         78.2095       -0.0221906          143.08
0.614                   -2.98923         170.927         -46.5025         76.3078         -46.5028         76.3098       -0.0224271             143
0.615                   -3.06821         170.174         -46.4032         74.4049         -46.4034         74.4068       -0.0226674         142.919
0.616                   -3.14908         169.425         -46.3047         72.4988         -46.3048         72.5005       -0.0229115         142.839
0.617                   -3.23179         168.682         -46.2068         70.5899          -46.207         70.5914       -0.0231595         142.758
0.618                   -3.31631         167.945         -46.1098         68.6783         -46.1099         68.6796       -0.0234114         142.677
0.619                   -3.40258         167.214         -46.0136         66.7643         -46.0137         66.7654       -0.0236672         142.595
0.62                    -3.49055         166.491         -45.9183         64.8483         -45.9183         64.8491       -0.0239272         142.514
0.621                   -3.58016         165.774         -45.8239         62.9304         -45.8239          62.931       -0.0241912         142.432
0.622                   -3.67133         165.066         -45.7304         61.0111         -45.7303         61.0115       -0.0244594          142.35
0.623                     -3.764         164.366         -45.6378         59.0906         -45.6378         59.0907       -0.0247318         142.268
0.624                   -3.85808         163.675         -45.5462         57.1693         -45.5462         57.1692       -0.0250085         142.185
0.625                   -3.95349         162.993         -45.4556         55.2476         -45.4556         55.2473       -0.0252895         142.102
0.626                   -4.05014          162.32          -45.366         53.3258         -45.3659         53.3253       -0.0255749         142.019
0.627                   -4.14793         161.657         -45.2774         51.4042         -45.2774         51.4036       -0.0258647         141.936
0.628                   -4.24678         161.004         -45.1899         49.4834         -45.1898         49.4825        -0.026159         141.852
0.629                   -4.34658         160.361         -45.1033         47.5635         -45.1032         47.5625       -0.0264579         141.769
