! TOUCHSTONE file generated by CST MICROWAVE STUDIO
! Date and time: Wed Oct 28 19:19:03 2020
! Project name: Scenario_1_Circular_Tissue_out_of_Line.cst
! Parameters = {dy1=156.889; L_HA=400; MT=2.54; Rad_Dielectric=30; Rad_Lower=7.3; Rad_Upper=30; a_HA=580; a_WG=246; b_HA=500; b_WG=121; c_HA=0; c_WG=187; d_feed=85; dx1=693; h_feed=15; h_lower=18; h_upper=40}
! Header version: 2018
! Port assignment regex: !\s*Touchstone port\s*([0-9]+)\s*=\s*(CST MWS port|CST DS port)\s*([0-9]+|Zmin|Zmax)\s*\(\"(.*)\"\)(\s*mode\s*([0-9]+))?.*
! Touchstone port assignment:
! Touchstone port 1 = CST MWS port 1 ("")
! Touchstone port 2 = CST MWS port 2 ("")
# GHz S DB R 50
0.5                     -0.15263        -122.244         -62.3086        -172.102         -62.3813        -171.777      -0.00768049         151.135
0.501                   -0.14995        -122.742         -62.1868        -173.712          -62.258        -173.399      -0.00773692          151.07
0.502                  -0.147885        -123.241         -62.0633        -175.334          -62.133        -175.031      -0.00779405         151.005
0.503                  -0.146435         -123.74         -61.9384        -176.965         -62.0065        -176.674      -0.00785189         150.939
0.504                  -0.145601        -124.239         -61.8119        -178.607         -61.8785        -178.326      -0.00791045         150.874
0.505                  -0.145383        -124.738         -61.6839          179.74         -61.7489        -179.989      -0.00796975         150.809
0.506                  -0.145779        -125.238         -61.5544         178.077         -61.6178         178.338      -0.00802978         150.743
0.507                  -0.146791        -125.737         -61.4234         176.404         -61.4852         176.655      -0.00809056         150.677
0.508                  -0.148415        -126.237         -61.2909          174.72         -61.3511         174.961       -0.0081521         150.612
0.509                  -0.150651        -126.738          -61.157         173.025         -61.2156         173.257      -0.00821441         150.546
0.51                   -0.153497        -127.238         -61.0216          171.32         -61.0786         171.543      -0.00827749          150.48
0.511                   -0.15695        -127.739         -60.8849         169.604         -60.9402         169.818      -0.00834136         150.414
0.512                  -0.161009         -128.24         -60.7468         167.878         -60.8004         168.083      -0.00840603         150.348
0.513                  -0.165669        -128.741         -60.6073         166.141         -60.6593         166.337      -0.00847151         150.282
0.514                  -0.170929        -129.242         -60.4665         164.392         -60.5169         164.581       -0.0085378         150.216
0.515                  -0.176783        -129.743         -60.3244         162.633         -60.3731         162.814      -0.00860493         150.149
0.516                  -0.183229        -130.245         -60.1811         160.864         -60.2281         161.036      -0.00867289         150.083
0.517                  -0.190262        -130.747         -60.0366         159.083         -60.0819         159.248      -0.00874171         150.016
0.518                  -0.197878         -131.25         -59.8908         157.291         -59.9345         157.448      -0.00881139          149.95
0.519                  -0.206071        -131.752         -59.7439         155.488          -59.786         155.638      -0.00888194         149.883
0.52                   -0.214838        -132.255         -59.5959         153.674         -59.6363         153.817      -0.00895337         149.817
0.521                  -0.224171        -132.758         -59.4469         151.849         -59.4856         151.985      -0.00902571          149.75
0.522                  -0.234067        -133.262         -59.2968         150.012         -59.3339         150.142      -0.00909895         149.683
0.523                  -0.244518        -133.765         -59.1457         148.164         -59.1812         148.288      -0.00917312         149.616
0.524                  -0.255519         -134.27         -58.9937         146.305         -59.0276         146.423      -0.00924822         149.549
0.525                  -0.267063        -134.774         -58.8409         144.435         -58.8732         144.546      -0.00932427         149.482
0.526                  -0.279144        -135.279         -58.6872         142.553         -58.7179         142.658      -0.00940128         149.414
0.527                  -0.291756        -135.784         -58.5327         140.659         -58.5619         140.759      -0.00947927         149.347
0.528                   -0.30489        -136.289         -58.3775         138.754         -58.4052         138.849      -0.00955824          149.28
0.529                  -0.318541        -136.795         -58.2216         136.837         -58.2478         136.927      -0.00963822         149.212
0.53                     -0.3327        -137.301         -58.0652         134.909         -58.0899         134.993      -0.00971921         149.144
0.531                   -0.34736        -137.808         -57.9082         132.969         -57.9314         133.048      -0.00980124         149.077
0.532                  -0.362514        -138.314         -57.7507         131.017         -57.7725         131.092      -0.00988431         149.009
0.533                  -0.378154        -138.822         -57.5928         129.054         -57.6132         129.124      -0.00996845         148.941
0.534                  -0.394272         -139.33         -57.4346         127.079         -57.4536         127.144       -0.0100537         148.873
0.535                  -0.410859        -139.838          -57.276         125.092         -57.2937         125.153         -0.01014         148.805
0.536                  -0.427908        -140.347         -57.1173         123.094         -57.1337          123.15       -0.0102274         148.736
0.537                  -0.445411        -140.856         -56.9584         121.084         -56.9735         121.136       -0.0103159         148.668
0.538                  -0.463359        -141.366         -56.7995         119.062         -56.8133          119.11       -0.0104056           148.6
0.539                  -0.481743        -141.876         -56.6405         117.029         -56.6531         117.073       -0.0104965         148.531
0.54                   -0.500557        -142.387         -56.4816         114.984         -56.4931         115.025       -0.0105885         148.463
0.541                   -0.51979        -142.899         -56.3229         112.928         -56.3332         112.965       -0.0106818         148.394
0.542                  -0.539434        -143.411         -56.1644          110.86         -56.1736         110.894       -0.0107762         148.325
0.543                  -0.559482        -143.923         -56.0061         108.782         -56.0143         108.812       -0.0108719         148.256
0.544                  -0.579924        -144.437         -55.8483         106.692         -55.8554         106.719       -0.0109689         148.187
0.545                  -0.600752        -144.951         -55.6909         104.592         -55.6971         104.615       -0.0110671         148.118
0.546                  -0.621958        -145.466         -55.5341          102.48         -55.5392           102.5       -0.0111666         148.048
0.547                  -0.643532        -145.982         -55.3778         100.358         -55.3821         100.375       -0.0112675         147.979
0.548                  -0.665467        -146.498         -55.2222         98.2262         -55.2256         98.2402       -0.0113697          147.91
0.549                  -0.687753        -147.015         -55.0674         96.0839           -55.07          96.095       -0.0114733          147.84
0.55                   -0.710384        -147.534         -54.9134         93.9317         -54.9152         93.9401       -0.0115782          147.77
0.551                   -0.73335        -148.053         -54.7603         91.7699         -54.7614         91.7756       -0.0116846           147.7
0.552                  -0.756643        -148.573         -54.6082         89.5988         -54.6085          89.602       -0.0117925          147.63
0.553                  -0.780256        -149.094         -54.4571         87.4188         -54.4568         87.4194       -0.0119018          147.56
0.554                   -0.80418        -149.616         -54.3071         85.2301         -54.3062         85.2283       -0.0120126          147.49
0.555                  -0.828407        -150.139         -54.1583         83.0331         -54.1568          83.029       -0.0121249          147.42
0.556                   -0.85293        -150.663         -54.0107         80.8282         -54.0087         80.8219       -0.0122387         147.349
0.557                  -0.877741        -151.189         -53.8644         78.6158         -53.8619         78.6074       -0.0123542         147.279
0.558                  -0.902833        -151.716         -53.7195         76.3962         -53.7166         76.3858       -0.0124713         147.208
0.559                  -0.928198        -152.244          -53.576           74.17         -53.5726         74.1576         -0.01259         147.137
0.56                    -0.95383        -152.773         -53.4339         71.9375         -53.4302         71.9233       -0.0127103         147.066
0.561                  -0.979722        -153.304         -53.2933         69.6992         -53.2893         69.6834       -0.0128324         146.995
0.562                   -1.00587        -153.837         -53.1543         67.4556           -53.15         67.4382       -0.0129562         146.924
0.563                   -1.03226        -154.371         -53.0169         65.2072         -53.0122         65.1882       -0.0130818         146.853
0.564                   -1.05889        -154.906          -52.881         62.9544         -52.8762         62.9341       -0.0132092         146.781
0.565                   -1.08576        -155.443         -52.7468         60.6978         -52.7418         60.6762       -0.0133385          146.71
0.566                   -1.11286        -155.983         -52.6143         58.4379         -52.6091         58.4151       -0.0134696         146.638
0.567                   -1.14018        -156.524         -52.4835         56.1751         -52.4782         56.1513       -0.0136027         146.566
0.568                   -1.16773        -157.066         -52.3544         53.9101         -52.3489         53.8853       -0.0137377         146.494
0.569                   -1.19549        -157.611         -52.2269         51.6432         -52.2215         51.6176       -0.0138747         146.422
0.57                    -1.22346        -158.158         -52.1012         49.3751         -52.0957         49.3488       -0.0140137          146.35
0.571                   -1.25164        -158.708         -51.9773         47.1062         -51.9717         47.0793       -0.0141548         146.278
0.572                   -1.28002        -159.259          -51.855         44.8371         -51.8494         44.8097        -0.014298         146.205
0.573                   -1.30861        -159.813         -51.7344         42.5681         -51.7289         42.5403       -0.0144433         146.132
0.574                    -1.3374         -160.37         -51.6156         40.2999         -51.6101         40.2718       -0.0145909          146.06
0.575                   -1.36639        -160.929         -51.4984         38.0329          -51.493         38.0046       -0.0147406         145.987
0.576                   -1.39558        -161.491         -51.3828         35.7675         -51.3775         35.7391       -0.0148926         145.914
0.577                   -1.42496        -162.056         -51.2689         33.5042         -51.2637         33.4758       -0.0150469          145.84
0.578                   -1.45454        -162.624         -51.1566         31.2433         -51.1515         31.2151       -0.0152035         145.767
0.579                   -1.48433        -163.195         -51.0458         28.9854         -51.0409         28.9574       -0.0153624         145.693
0.58                    -1.51431        -163.769         -50.9366         26.7308         -50.9318         26.7031       -0.0155237          145.62
0.581                   -1.54451        -164.346         -50.8288         24.4798         -50.8242         24.4525       -0.0156873         145.546
0.582                   -1.57491        -164.927         -50.7225         22.2328         -50.7181          22.206       -0.0158534         145.472
0.583                   -1.60552        -165.512         -50.6176         19.9901         -50.6134         19.9638       -0.0160218         145.398
0.584                   -1.63635        -166.101         -50.5141          17.752           -50.51         17.7264       -0.0161927         145.323
0.585                   -1.66741        -166.693         -50.4118         15.5187         -50.4079         15.4938       -0.0163659         145.249
0.586                    -1.6987         -167.29         -50.3108         13.2906         -50.3071         13.2664       -0.0165415         145.174
0.587                   -1.73024        -167.891          -50.211         11.0678         -50.2075         11.0444       -0.0167194           145.1
0.588                   -1.76203        -168.496         -50.1124         8.85047          -50.109           8.828       -0.0168997         145.025
0.589                   -1.79408        -169.106         -50.0148         6.63883         -50.0116         6.61727       -0.0170823          144.95
0.59                    -1.82641         -169.72         -49.9182           4.433         -49.9153          4.4124        -0.017267         144.874
0.591                   -1.85904         -170.34         -49.8227         2.23308         -49.8199         2.21348        -0.017454         144.799
0.592                   -1.89198        -170.965          -49.728       0.0391783         -49.7254       0.0205997        -0.017643         144.723
0.593                   -1.92524        -171.595         -49.6342        -2.14866         -49.6318        -2.16618       -0.0178341         144.648
0.594                   -1.95886        -172.231         -49.5412        -4.33038          -49.539        -4.34684       -0.0180272         144.572
0.595                   -1.99284        -172.872          -49.449        -6.50598         -49.4469        -6.52136       -0.0182221         144.496
0.596                   -2.02723         -173.52         -49.3574        -8.67547         -49.3556        -8.68975       -0.0184189         144.419
0.597                   -2.06203        -174.173         -49.2665        -10.8389         -49.2648         -10.852       -0.0186175         144.343
0.598                   -2.09729        -174.833         -49.1762        -12.9962         -49.1747        -13.0083       -0.0188178         144.266
0.599                   -2.13303        -175.499         -49.0864        -15.1476         -49.0851        -15.1586       -0.0190197         144.189
0.6                     -2.16929        -176.172         -48.9971        -17.2931         -48.9959         -17.303       -0.0192232         144.112
0.601                   -2.20611        -176.852         -48.9083        -19.4329         -48.9072        -19.4417       -0.0194283         144.035
0.602                   -2.24352        -177.539         -48.8198         -21.567         -48.8189        -21.5748       -0.0196349         143.958
0.603                   -2.28158        -178.234         -48.7317        -23.6955         -48.7309        -23.7023       -0.0198431          143.88
0.604                   -2.32032        -178.936          -48.644        -25.8188         -48.6433        -25.8246        -0.020053         143.803
0.605                    -2.3598        -179.646         -48.5564        -27.9368         -48.5559        -27.9417       -0.0202644         143.725
0.606                   -2.40007         179.636         -48.4692        -30.0499         -48.4687        -30.0538       -0.0204776         143.646
0.607                   -2.44119          178.91         -48.3821        -32.1581         -48.3817        -32.1611       -0.0206925         143.568
0.608                   -2.48323         178.176         -48.2952        -34.2617         -48.2949        -34.2639       -0.0209094         143.489
0.609                   -2.52624         177.434         -48.2084        -36.3609         -48.2082        -36.3624       -0.0211281         143.411
0.61                    -2.57031         176.682         -48.1218         -38.456         -48.1216        -38.4567        -0.021349         143.332
0.611                    -2.6155         175.922         -48.0352        -40.5471         -48.0351        -40.5471       -0.0215722         143.252
0.612                   -2.66189         175.153         -47.9487        -42.6345         -47.9487        -42.6338       -0.0217976         143.173
0.613                   -2.70957         174.375         -47.8622        -44.7184         -47.8623        -44.7171       -0.0220256         143.093
0.614                   -2.75864         173.588         -47.7758        -46.7991         -47.7759        -46.7973       -0.0222562         143.013
0.615                   -2.80917         172.792         -47.6893        -48.8768         -47.6895        -48.8745       -0.0224896         142.933
0.616                   -2.86127         171.987         -47.6029        -50.9518         -47.6031         -50.949        -0.022726         142.853
0.617                   -2.91505         171.172         -47.5165        -53.0242         -47.5167        -53.0211       -0.0229654         142.772
0.618                    -2.9706         170.349         -47.4301        -55.0944         -47.4303         -55.091        -0.023208         142.692
0.619                   -3.02805         169.517         -47.3436        -57.1627         -47.3438         -57.159        -0.023454          142.61
0.62                    -3.08751         168.676         -47.2571        -59.2291         -47.2574        -59.2253       -0.0237034         142.529
0.621                    -3.1491         167.826         -47.1707        -61.2941         -47.1709        -61.2901       -0.0239565         142.448
0.622                   -3.21294         166.968         -47.0842        -63.3577         -47.0844        -63.3537       -0.0242133         142.366
0.623                   -3.27916         166.102         -46.9977        -65.4204         -46.9979        -65.4163       -0.0244739         142.284
0.624                   -3.34788         165.228         -46.9112        -67.4821         -46.9114        -67.4781       -0.0247385         142.201
0.625                   -3.41925         164.347         -46.8247        -69.5433          -46.825        -69.5394       -0.0250072         142.119
0.626                   -3.49338          163.46         -46.7383        -71.6041         -46.7385        -71.6003         -0.02528         142.036
0.627                   -3.57041         162.566         -46.6519        -73.6646         -46.6521        -73.6611       -0.0255571         141.953
0.628                   -3.65047         161.667         -46.5656        -75.7251         -46.5658        -75.7219       -0.0258387         141.869
0.629                   -3.73369         160.764         -46.4794        -77.7858         -46.4796        -77.7829       -0.0261246         141.786
