! TOUCHSTONE file generated by CST MICROWAVE STUDIO
! Date and time: Mon Oct 26 12:30:25 2020
! Project name: Scenario_1_Circular_Tissue_out_of_Line.cst
! Parameters = {dy1=156.889; L_HA=400; MT=2.54; Rad_Dielectric=30; Rad_Lower=7.3; Rad_Upper=30; a_HA=580; a_WG=246; b_HA=500; b_WG=121; c_HA=0; c_WG=187; d_feed=85; dx1=866; h_feed=15; h_lower=18; h_upper=40}
! Header version: 2018
! Port assignment regex: !\s*Touchstone port\s*([0-9]+)\s*=\s*(CST MWS port|CST DS port)\s*([0-9]+|Zmin|Zmax)\s*\(\"(.*)\"\)(\s*mode\s*([0-9]+))?.*
! Touchstone port assignment:
! Touchstone port 1 = CST MWS port 1 ("")
! Touchstone port 2 = CST MWS port 2 ("")
# GHz S DB R 50
0.5                    -0.144254        -122.455         -63.2943         95.5235         -63.2943         95.5235      -0.00748429         151.125
0.501                  -0.152596        -122.888         -63.0965         93.5239         -63.0965         93.5232      -0.00755662          151.06
0.502                  -0.161012        -123.323         -62.8988         91.5005         -62.8989         91.4991      -0.00762968         150.995
0.503                  -0.169502         -123.76         -62.7014         89.4533         -62.7015         89.4514      -0.00770349         150.929
0.504                  -0.178066        -124.197         -62.5045         87.3826         -62.5046         87.3801      -0.00777803         150.864
0.505                  -0.186704        -124.637         -62.3082         85.2883         -62.3083         85.2853       -0.0078533         150.798
0.506                  -0.195417        -125.077         -62.1126         83.1709         -62.1128         83.1673      -0.00792931         150.733
0.507                  -0.204205         -125.52         -61.9179         81.0304         -61.9182         81.0263      -0.00800605         150.667
0.508                  -0.213069        -125.964         -61.7242         78.8673         -61.7246         78.8628      -0.00808352         150.601
0.509                   -0.22201        -126.409         -61.5318         76.6821         -61.5322         76.6772      -0.00816171         150.535
0.51                   -0.231028        -126.856         -61.3408         74.4751         -61.3413         74.4699      -0.00824064         150.469
0.511                  -0.240125        -127.305         -61.1512         72.2471         -61.1518         72.2416      -0.00832029         150.403
0.512                  -0.249302        -127.756         -60.9634         69.9985          -60.964         69.9928      -0.00840067         150.337
0.513                   -0.25856        -128.208         -60.7774         67.7303         -60.7781         67.7243      -0.00848177         150.271
0.514                    -0.2679        -128.662         -60.5933          65.443         -60.5941         65.4369      -0.00856359         150.205
0.515                  -0.277324        -129.119         -60.4114         63.1377         -60.4123         63.1315      -0.00864613         150.138
0.516                  -0.286835        -129.576         -60.2316         60.8153         -60.2326          60.809      -0.00872938         150.072
0.517                  -0.296433        -130.036         -60.0543         58.4766         -60.0553         58.4704      -0.00881335         150.005
0.518                   -0.30612        -130.498         -59.8793          56.123         -59.8804         56.1167      -0.00889803         149.939
0.519                    -0.3159        -130.962         -59.7069         53.7553         -59.7081         53.7492      -0.00898343         149.872
0.52                   -0.325775        -131.428         -59.5372         51.3748         -59.5384         51.3688      -0.00906953         149.805
0.521                  -0.335748        -131.897         -59.3701         48.9828         -59.3714         48.9769      -0.00915633         149.738
0.522                   -0.34582        -132.367         -59.2058         46.5803         -59.2072         46.5747      -0.00924384         149.671
0.523                  -0.355997         -132.84         -59.0443         44.1688         -59.0458         44.1635      -0.00933205         149.604
0.524                  -0.366281        -133.314         -58.8857         41.7495         -58.8872         41.7444      -0.00942095         149.537
0.525                  -0.376676        -133.792         -58.7299         39.3236         -58.7314         39.3189      -0.00951055          149.47
0.526                  -0.387186        -134.271         -58.5769         36.8925         -58.5785         36.8881      -0.00960085         149.403
0.527                  -0.397815        -134.753         -58.4267         34.4575         -58.4284         34.4534      -0.00969183         149.336
0.528                  -0.408569        -135.238         -58.2794         32.0196          -58.281          32.016       -0.0097835         149.268
0.529                  -0.419452        -135.725         -58.1348         29.5803         -58.1365          29.577      -0.00987585         149.201
0.53                    -0.43047        -136.215         -57.9929         27.1406         -57.9946         27.1377      -0.00996889         149.133
0.531                  -0.441629        -136.708         -57.8537         24.7018         -57.8553         24.6992       -0.0100626         149.065
0.532                  -0.452934        -137.203         -57.7169         22.2647         -57.7186         22.2626        -0.010157         148.997
0.533                  -0.464393        -137.701         -57.5826         19.8305         -57.5843         19.8288       -0.0102521         148.929
0.534                  -0.476012        -138.202         -57.4507         17.4001         -57.4524         17.3987       -0.0103478         148.861
0.535                  -0.487799        -138.705          -57.321         14.9743         -57.3226         14.9733       -0.0104442         148.793
0.536                  -0.499762        -139.212         -57.1933         12.5539          -57.195         12.5533       -0.0105413         148.725
0.537                  -0.511911        -139.722         -57.0677         10.1397         -57.0693         10.1394       -0.0106391         148.657
0.538                  -0.524253        -140.235         -56.9439         7.73219         -56.9455         7.73221       -0.0107375         148.588
0.539                  -0.536798        -140.751         -56.8218         5.33194         -56.8233         5.33226       -0.0108366          148.52
0.54                   -0.549558        -141.271         -56.7012         2.93939         -56.7027         2.93998       -0.0109364         148.451
0.541                  -0.562542        -141.793         -56.5821        0.554889         -56.5835        0.555726       -0.0110368         148.382
0.542                  -0.575763        -142.319         -56.4642        -1.82128         -56.4656        -1.82023       -0.0111379         148.314
0.543                  -0.589233        -142.849         -56.3475        -4.18894         -56.3488        -4.18769       -0.0112397         148.245
0.544                  -0.602965        -143.382         -56.2318        -6.54798          -56.233        -6.54656       -0.0113422         148.176
0.545                  -0.616972        -143.918         -56.1169        -8.89836         -56.1181         -8.8968       -0.0114453         148.107
0.546                  -0.631269        -144.458         -56.0027        -11.2401         -56.0039        -11.2385       -0.0115492         148.037
0.547                  -0.645873        -145.002         -55.8891        -13.5734         -55.8902        -13.5716       -0.0116537         147.968
0.548                  -0.660798         -145.55          -55.776        -15.8984          -55.777        -15.8965        -0.011759         147.898
0.549                  -0.676061        -146.101         -55.6632        -18.2152         -55.6642        -18.2134        -0.011865         147.829
0.55                   -0.691682        -146.656         -55.5506        -20.5243         -55.5515        -20.5225       -0.0119717         147.759
0.551                  -0.707679        -147.215         -55.4381         -22.826          -55.439        -22.8241       -0.0120791         147.689
0.552                  -0.724071        -147.778         -55.3256        -25.1206         -55.3265        -25.1188       -0.0121874         147.619
0.553                  -0.740879        -148.345         -55.2131        -27.4087         -55.2139        -27.4069       -0.0122964         147.549
0.554                  -0.758126        -148.916         -55.1004        -29.6906         -55.1011        -29.6889       -0.0124062         147.479
0.555                  -0.775833        -149.491         -54.9874         -31.967         -54.9881        -31.9654       -0.0125168         147.409
0.556                  -0.794025         -150.07         -54.8741        -34.2383         -54.8747        -34.2368       -0.0126284         147.339
0.557                  -0.812726        -150.653         -54.7604        -36.5051          -54.761        -36.5037       -0.0127407         147.268
0.558                  -0.831962         -151.24         -54.6463        -38.7681         -54.6469        -38.7668       -0.0128541         147.197
0.559                   -0.85176        -151.831         -54.5317        -41.0277         -54.5322        -41.0266       -0.0129683         147.127
0.56                   -0.872146        -152.427         -54.4166        -43.2848         -54.4171        -43.2837       -0.0130836         147.056
0.561                   -0.89315        -153.026         -54.3009        -45.5397         -54.3014        -45.5389       -0.0131999         146.985
0.562                    -0.9148         -153.63         -54.1847        -47.7933         -54.1851        -47.7926       -0.0133172         146.913
0.563                  -0.937127        -154.237         -54.0679        -50.0462         -54.0682        -50.0456       -0.0134357         146.842
0.564                   -0.96016        -154.849         -53.9505        -52.2989         -53.9508        -52.2985       -0.0135554         146.771
0.565                  -0.983931        -155.464         -53.8324        -54.5521         -53.8328        -54.5518       -0.0136764         146.699
0.566                   -1.00847        -156.083         -53.7138        -56.8065         -53.7141        -56.8063       -0.0137986         146.627
0.567                   -1.03381        -156.706         -53.5947        -59.0626          -53.595        -59.0626       -0.0139222         146.556
0.568                   -1.05999        -157.333          -53.475         -61.321         -53.4752        -61.3211       -0.0140472         146.484
0.569                   -1.08703        -157.963         -53.3548        -63.5823          -53.355        -63.5826       -0.0141737         146.412
0.57                    -1.11496        -158.596         -53.2341        -65.8471         -53.2343        -65.8475       -0.0143018         146.339
0.571                   -1.14383        -159.233          -53.113        -68.1158         -53.1132        -68.1163       -0.0144315         146.267
0.572                   -1.17364        -159.873         -52.9915         -70.389         -52.9917        -70.3896        -0.014563         146.194
0.573                   -1.20445        -160.515         -52.8697        -72.6671         -52.8699        -72.6678       -0.0146962         146.122
0.574                   -1.23626         -161.16         -52.7477        -74.9506         -52.7479        -74.9514       -0.0148313         146.049
0.575                   -1.26912        -161.808         -52.6255        -77.2399         -52.6256        -77.2408       -0.0149683         145.976
0.576                   -1.30303        -162.457         -52.5031        -79.5353         -52.5033        -79.5362       -0.0151074         145.903
0.577                   -1.33803        -163.108         -52.3807        -81.8371         -52.3809        -81.8381       -0.0152486         145.829
0.578                   -1.37413        -163.761         -52.2584        -84.1457         -52.2585        -84.1467       -0.0153919         145.756
0.579                   -1.41133        -164.415         -52.1361        -86.4611         -52.1363        -86.4622       -0.0155375         145.682
0.58                    -1.44966        -165.069         -52.0141        -88.7838         -52.0143        -88.7849       -0.0156854         145.609
0.581                   -1.48912        -165.724         -51.8924        -91.1136         -51.8926        -91.1147       -0.0158357         145.535
0.582                    -1.5297         -166.38         -51.7711        -93.4508         -51.7712         -93.452       -0.0159884         145.461
0.583                   -1.57141        -167.035         -51.6503        -95.7954         -51.6504        -95.7965       -0.0161437         145.386
0.584                   -1.61423        -167.689           -51.53        -98.1474         -51.5301        -98.1485       -0.0163015         145.312
0.585                   -1.65814        -168.342         -51.4104        -100.507         -51.4105        -100.508       -0.0164619         145.238
0.586                   -1.70313        -168.994         -51.2916        -102.873         -51.2917        -102.874       -0.0166251         145.163
0.587                   -1.74916        -169.644         -51.1736        -105.246         -51.1737        -105.247       -0.0167909         145.088
0.588                    -1.7962        -170.292         -51.0565        -107.627         -51.0567        -107.628       -0.0169594         145.013
0.589                    -1.8442        -170.938         -50.9405        -110.013         -50.9406        -110.014       -0.0171308         144.938
0.59                    -1.89312         -171.58         -50.8255        -112.406         -50.8257        -112.407       -0.0173049         144.862
0.591                    -1.9429         -172.22         -50.7117        -114.805         -50.7119        -114.805       -0.0174819         144.787
0.592                   -1.99348        -172.856         -50.5992        -117.209         -50.5994        -117.209       -0.0176617         144.711
0.593                    -2.0448        -173.489          -50.488        -119.618         -50.4881        -119.618       -0.0178444         144.635
0.594                   -2.09677        -174.117         -50.3781        -122.031         -50.3783        -122.032       -0.0180299         144.559
0.595                   -2.14933        -174.742         -50.2697        -124.448         -50.2699        -124.449       -0.0182183         144.483
0.596                   -2.20239        -175.364         -50.1628        -126.869         -50.1629         -126.87       -0.0184095         144.406
0.597                   -2.25587        -175.981         -50.0573        -129.293         -50.0574        -129.293       -0.0186036          144.33
0.598                   -2.30969        -176.594         -49.9534        -131.718         -49.9535        -131.719       -0.0188005         144.253
0.599                   -2.36376        -177.204         -49.8511        -134.146         -49.8512        -134.146       -0.0190003         144.176
0.6                       -2.418         -177.81         -49.7503        -136.574         -49.7504        -136.574        -0.019203         144.099
0.601                   -2.47232        -178.412         -49.6511        -139.003         -49.6512        -139.003       -0.0194084         144.022
0.602                   -2.52665        -179.012         -49.5535        -141.431         -49.5537        -141.431       -0.0196167         143.944
0.603                   -2.58091        -179.609         -49.4575        -143.859         -49.4576        -143.859       -0.0198278         143.866
0.604                   -2.63504         179.796         -49.3631        -146.285         -49.3632        -146.285       -0.0200417         143.788
0.605                   -2.68897         179.202         -49.2702        -148.709         -49.2702        -148.709       -0.0202583          143.71
0.606                   -2.74265          178.61         -49.1787         -151.13         -49.1788         -151.13       -0.0204778         143.632
0.607                   -2.79602         178.018         -49.0888        -153.548         -49.0889        -153.548       -0.0207001         143.553
0.608                   -2.84906         177.426         -49.0002        -155.962         -49.0003        -155.962       -0.0209251         143.475
0.609                   -2.90174         176.833         -48.9131        -158.373         -48.9132        -158.372       -0.0211529         143.396
0.61                    -2.95403         176.238         -48.8272        -160.778         -48.8273        -160.777       -0.0213835         143.317
0.611                   -3.00594         175.641         -48.7426        -163.178         -48.7427        -163.178       -0.0216169         143.237
0.612                   -3.05746         175.041         -48.6592        -165.573         -48.6593        -165.572       -0.0218532         143.158
0.613                   -3.10863         174.437         -48.5769        -167.962         -48.5769        -167.961       -0.0220922         143.078
0.614                   -3.15945         173.828         -48.4956        -170.345         -48.4956        -170.344       -0.0223341         142.998
0.615                   -3.20997         173.214         -48.4153        -172.721         -48.4153        -172.721       -0.0225788         142.918
0.616                   -3.26024         172.594         -48.3358        -175.091         -48.3359         -175.09       -0.0228265         142.837
0.617                   -3.31031         171.967         -48.2572        -177.454         -48.2572        -177.453        -0.023077         142.757
0.618                   -3.36025         171.333         -48.1793         -179.81         -48.1793         -179.81       -0.0233305         142.676
0.619                   -3.41015         170.691          -48.102          177.84         -48.1021         177.841        -0.023587         142.595
0.62                    -3.46007          170.04         -48.0253         175.498         -48.0254         175.499       -0.0238466         142.513
0.621                   -3.51013          169.38         -47.9491         173.162         -47.9492         173.163       -0.0241092         142.432
0.622                    -3.5604          168.71         -47.8734         170.834         -47.8734         170.835        -0.024375          142.35
0.623                   -3.61102          168.03         -47.7979         168.512          -47.798         168.513        -0.024644         142.268
0.624                   -3.66207          167.34         -47.7228         166.197         -47.7228         166.198       -0.0249163         142.185
0.625                    -3.7137         166.638         -47.6478         163.888         -47.6479         163.889       -0.0251918         142.103
0.626                   -3.76601         165.924          -47.573         161.586          -47.573         161.586       -0.0254708          142.02
0.627                   -3.81913         165.199         -47.4983         159.289         -47.4983          159.29       -0.0257532         141.936
0.628                   -3.87321         164.462         -47.4236         156.999         -47.4236         156.999       -0.0260392         141.853
0.629                   -3.92837         163.713         -47.3489         154.713         -47.3489         154.714       -0.0263289         141.769
