! TOUCHSTONE file generated by CST MICROWAVE STUDIO
! Date and time: Sat Oct 24 11:48:21 2020
! Project name: Scenario_1_Circular_Tissue_out_of_Line.cst
! Parameters = {dy1=156.889; L_HA=400; MT=2.54; Rad_Dielectric=30; Rad_Lower=7.3; Rad_Upper=30; a_HA=580; a_WG=246; b_HA=500; b_WG=121; c_HA=0; c_WG=187; d_feed=85; dx1=1039; h_feed=15; h_lower=18; h_upper=40}
! Header version: 2018
! Port assignment regex: !\s*Touchstone port\s*([0-9]+)\s*=\s*(CST MWS port|CST DS port)\s*([0-9]+|Zmin|Zmax)\s*\(\"(.*)\"\)(\s*mode\s*([0-9]+))?.*
! Touchstone port assignment:
! Touchstone port 1 = CST MWS port 1 ("")
! Touchstone port 2 = CST MWS port 2 ("")
# GHz S DB R 50
0.5                    -0.146369        -122.292         -63.8204        -4.93451         -63.8204        -4.93451      -0.00760272         151.116
0.501                  -0.151227        -122.754         -63.6779         -6.9525           -63.68        -6.95107      -0.00765988          151.05
0.502                  -0.156365        -123.216         -63.5333        -8.98619         -63.5374        -8.98345      -0.00771785         150.985
0.503                  -0.161784         -123.68         -63.3866        -11.0357         -63.3926        -11.0317      -0.00777665          150.92
0.504                  -0.167485        -124.146         -63.2379        -13.1011         -63.2457         -13.096      -0.00783627         150.854
0.505                  -0.173472        -124.614         -63.0872        -15.1826         -63.0967        -15.1764      -0.00789674         150.788
0.506                  -0.179744        -125.083         -62.9346        -17.2803         -62.9457        -17.2731      -0.00795807         150.723
0.507                  -0.186303        -125.553         -62.7801        -19.3942         -62.7926        -19.3861      -0.00802025         150.657
0.508                  -0.193151        -126.026         -62.6239        -21.5246         -62.6376        -21.5155      -0.00808331         150.591
0.509                  -0.200289        -126.499         -62.4658        -23.6715         -62.4808        -23.6616      -0.00814725         150.525
0.51                   -0.207718        -126.975         -62.3061        -25.8352         -62.3222        -25.8244      -0.00821208         150.459
0.511                  -0.215439        -127.451         -62.1448        -28.0157         -62.1618         -28.004      -0.00827783         150.393
0.512                  -0.223453         -127.93         -61.9819        -30.2132         -61.9998        -30.2006      -0.00834448         150.327
0.513                  -0.231761        -128.409         -61.8176        -32.4278         -61.8362        -32.4144      -0.00841207         150.261
0.514                  -0.240364        -128.891         -61.6519        -34.6596         -61.6711        -34.6453       -0.0084806         150.195
0.515                  -0.249263        -129.374         -61.4849        -36.9087         -61.5046        -36.8937      -0.00855008         150.128
0.516                  -0.258459        -129.858         -61.3167        -39.1754         -61.3369        -39.1595      -0.00862052         150.062
0.517                  -0.267952        -130.344         -61.1475        -41.4596         -61.1679        -41.4429      -0.00869194         149.995
0.518                  -0.277742        -130.831         -60.9772        -43.7615         -60.9978         -43.744      -0.00876436         149.929
0.519                  -0.287832         -131.32          -60.806        -46.0812         -60.8267        -46.0628      -0.00883777         149.862
0.52                   -0.298219         -131.81         -60.6341        -48.4186         -60.6548        -48.3995      -0.00891221         149.795
0.521                  -0.308906        -132.302         -60.4615         -50.774          -60.482        -50.7542      -0.00898767         149.728
0.522                  -0.319892        -132.795         -60.2883        -53.1473         -60.3086        -53.1267      -0.00906418         149.661
0.523                  -0.331178        -133.289         -60.1147        -55.5384         -60.1347        -55.5172      -0.00914175         149.594
0.524                  -0.342763        -133.785         -59.9407        -57.9475         -59.9604        -57.9257      -0.00922039         149.527
0.525                  -0.354648        -134.283         -59.7666        -60.3744         -59.7858        -60.3521      -0.00930012          149.46
0.526                  -0.366832        -134.782         -59.5924        -62.8191         -59.6111        -62.7963      -0.00938095         149.393
0.527                  -0.379316        -135.282         -59.4183        -65.2814         -59.4364        -65.2583      -0.00946291         149.325
0.528                  -0.392099        -135.784         -59.2444        -67.7613         -59.2618         -67.738        -0.009546         149.258
0.529                   -0.40518        -136.287         -59.0708        -70.2585         -59.0875         -70.235      -0.00963024          149.19
0.53                    -0.41856        -136.792         -58.8978        -72.7727         -58.9136        -72.7493      -0.00971566         149.122
0.531                  -0.432238        -137.298         -58.7253        -75.3038         -58.7402        -75.2806      -0.00980225         149.055
0.532                  -0.446213        -137.806         -58.5535        -77.8515         -58.5675        -77.8286      -0.00989006         148.987
0.533                  -0.460484        -138.315         -58.3826        -80.4152         -58.3957        -80.3929      -0.00997908         148.919
0.534                  -0.475051        -138.825         -58.2128        -82.9948         -58.2248        -82.9731       -0.0100693         148.851
0.535                  -0.489913        -139.337         -58.0441        -85.5896         -58.0551        -85.5689       -0.0101609         148.782
0.536                  -0.505069        -139.851         -57.8766        -88.1993         -57.8866        -88.1796       -0.0102537         148.714
0.537                  -0.520519        -140.365         -57.7106        -90.8232         -57.7195        -90.8048       -0.0103478         148.646
0.538                   -0.53626        -140.882         -57.5461        -93.4607         -57.5539        -93.4439       -0.0104432         148.577
0.539                  -0.552292          -141.4         -57.3832        -96.1112         -57.3899        -96.0961       -0.0105399         148.509
0.54                   -0.568614        -141.919          -57.222        -98.7741         -57.2277        -98.7609        -0.010638          148.44
0.541                  -0.585224         -142.44         -57.0628        -101.448         -57.0673        -101.437       -0.0107375         148.371
0.542                  -0.602121        -142.962         -56.9054        -104.134         -56.9089        -104.125       -0.0108384         148.302
0.543                  -0.619303        -143.486         -56.7501        -106.829         -56.7525        -106.823       -0.0109407         148.233
0.544                   -0.63677        -144.012         -56.5969        -109.533         -56.5983         -109.53       -0.0110445         148.164
0.545                   -0.65452        -144.539         -56.4459        -112.246         -56.4463        -112.245       -0.0111497         148.095
0.546                  -0.672551        -145.067         -56.2972        -114.966         -56.2966        -114.968       -0.0112564         148.026
0.547                  -0.690862        -145.598         -56.1507        -117.692         -56.1492        -117.698       -0.0113646         147.956
0.548                  -0.709451         -146.13         -56.0066        -120.424         -56.0043        -120.433       -0.0114743         147.887
0.549                  -0.728316        -146.663         -55.8649         -123.16         -55.8617        -123.173       -0.0115856         147.817
0.55                   -0.747457        -147.198         -55.7256          -125.9         -55.7216        -125.916       -0.0116985         147.747
0.551                   -0.76687        -147.735         -55.5886        -128.642         -55.5839        -128.662        -0.011813         147.677
0.552                  -0.786556        -148.274         -55.4541        -131.386         -55.4488         -131.41        -0.011929         147.607
0.553                  -0.806513        -148.815          -55.322        -134.131          -55.316        -134.158       -0.0120468         147.537
0.554                  -0.826738        -149.357         -55.1922        -136.876         -55.1857        -136.907       -0.0121661         147.467
0.555                  -0.847231        -149.902         -55.0648        -139.619         -55.0578        -139.654       -0.0122872         147.397
0.556                   -0.86799        -150.448         -54.9396        -142.361         -54.9322        -142.399       -0.0124099         147.326
0.557                  -0.889015        -150.997         -54.8167          -145.1         -54.8089        -145.141       -0.0125343         147.256
0.558                  -0.910304        -151.547         -54.6959        -147.835         -54.6879         -147.88       -0.0126604         147.185
0.559                  -0.931857        -152.099         -54.5772        -150.566          -54.569        -150.614       -0.0127883         147.114
0.56                   -0.953673        -152.654         -54.4606        -153.292         -54.4522        -153.343       -0.0129179         147.043
0.561                  -0.975752        -153.211         -54.3459        -156.013         -54.3374        -156.067       -0.0130492         146.972
0.562                  -0.998093         -153.77         -54.2331        -158.727         -54.2245        -158.784       -0.0131822         146.901
0.563                    -1.0207        -154.332          -54.122        -161.435         -54.1134        -161.494        -0.013317          146.83
0.564                   -1.04356        -154.896         -54.0125        -164.136          -54.004        -164.197       -0.0134535         146.758
0.565                    -1.0667        -155.463         -53.9046        -166.829         -53.8962        -166.892       -0.0135916         146.687
0.566                    -1.0901        -156.032         -53.7981        -169.515         -53.7899        -169.579       -0.0137314         146.615
0.567                   -1.11376        -156.604          -53.693        -172.192          -53.685        -172.258       -0.0138728         146.543
0.568                    -1.1377        -157.179         -53.5891        -174.861         -53.5813        -174.928       -0.0140159         146.471
0.569                   -1.16192        -157.757         -53.4863        -177.521         -53.4787        -177.589       -0.0141604         146.399
0.57                    -1.18641        -158.338         -53.3845         179.826         -53.3772         179.759       -0.0143064         146.327
0.571                   -1.21119        -158.923         -53.2836         177.183         -53.2767         177.115       -0.0144539         146.255
0.572                   -1.23626         -159.51         -53.1835         174.548         -53.1769          174.48       -0.0146026         146.182
0.573                   -1.26162        -160.101          -53.084         171.922         -53.0778         171.854       -0.0147526          146.11
0.574                    -1.2873        -160.696         -52.9852         169.303         -52.9793         169.236       -0.0149038         146.037
0.575                   -1.31329        -161.294         -52.8868         166.693         -52.8813         166.627        -0.015056         145.964
0.576                   -1.33961        -161.896         -52.7889         164.091         -52.7837         164.026       -0.0152092         145.891
0.577                   -1.36627        -162.503         -52.6912         161.497         -52.6865         161.433       -0.0153633         145.818
0.578                   -1.39329        -163.113         -52.5938          158.91         -52.5894         158.848       -0.0155182         145.745
0.579                   -1.42069        -163.728         -52.4964          156.33         -52.4925          156.27       -0.0156738         145.671
0.58                    -1.44849        -164.348         -52.3992         153.757         -52.3956         153.699         -0.01583         145.597
0.581                    -1.4767        -164.972          -52.302          151.19         -52.2987         151.134       -0.0159867         145.524
0.582                   -1.50536        -165.601         -52.2046         148.629         -52.2017         148.575        -0.016144          145.45
0.583                   -1.53448        -166.236         -52.1072         146.073         -52.1046         146.021       -0.0163019         145.376
0.584                   -1.56412        -166.875         -52.0096         143.522         -52.0073         143.473       -0.0164603         145.302
0.585                    -1.5943        -167.521         -51.9118         140.975         -51.9098         140.929       -0.0166193         145.227
0.586                   -1.62505        -168.171         -51.8137         138.433          -51.812         138.389        -0.016779         145.153
0.587                   -1.65644        -168.828         -51.7154         135.893         -51.7139         135.853       -0.0169395         145.078
0.588                   -1.68849        -169.491         -51.6167         133.357         -51.6155         133.319       -0.0171009         145.003
0.589                   -1.72128         -170.16         -51.5177         130.823         -51.5167         130.788       -0.0172633         144.928
0.59                    -1.75485        -170.835         -51.4184          128.29         -51.4176         128.258        -0.017427         144.853
0.591                   -1.78928        -171.517         -51.3187         125.759         -51.3181          125.73       -0.0175922         144.777
0.592                   -1.82462        -172.206         -51.2187         123.229         -51.2183         123.202        -0.017759         144.702
0.593                   -1.86097        -172.901         -51.1184         120.698         -51.1181         120.675       -0.0179277         144.626
0.594                   -1.89839        -173.603         -51.0178         118.168         -51.0176         118.147       -0.0180985          144.55
0.595                   -1.93698        -174.312         -50.9169         115.636         -50.9168         115.618       -0.0182715         144.474
0.596                   -1.97683        -175.027         -50.8158         113.104         -50.8157         113.088        -0.018447         144.397
0.597                   -2.01804        -175.749         -50.7144         110.569         -50.7144         110.556       -0.0186252         144.321
0.598                    -2.0607        -176.478         -50.6128         108.033         -50.6128         108.022       -0.0188061         144.244
0.599                   -2.10493        -177.212         -50.5112         105.494         -50.5112         105.485       -0.0189901         144.167
0.6                     -2.15083        -177.953         -50.4094         102.952         -50.4094         102.945       -0.0191771          144.09
0.601                   -2.19851        -178.699         -50.3076         100.406         -50.3076         100.401       -0.0193674         144.013
0.602                   -2.24808         -179.45         -50.2059         97.8575         -50.2059         97.8542       -0.0195609         143.935
0.603                   -2.29963         179.795         -50.1043         95.3046         -50.1042         95.3029       -0.0197579         143.858
0.604                   -2.35328         179.036         -50.0029         92.7477         -50.0027         92.7474       -0.0199584          143.78
0.605                    -2.4091         178.275         -49.9017         90.1864         -49.9015         90.1873       -0.0201624         143.702
0.606                   -2.46718         177.511         -49.8008         87.6207         -49.8006         87.6227         -0.02037         143.623
0.607                   -2.52758         176.747         -49.7004         85.0505         -49.7001         85.0533       -0.0205812         143.545
0.608                   -2.59035         175.984         -49.6005         82.4757         -49.6001         82.4793       -0.0207961         143.466
0.609                   -2.65551         175.222         -49.5011         79.8963         -49.5006         79.9004       -0.0210146         143.387
0.61                    -2.72306         174.463         -49.4024         77.3124         -49.4019          77.317       -0.0212369         143.308
0.611                   -2.79298         173.708         -49.3044         74.7241         -49.3038         74.7289       -0.0214629         143.229
0.612                    -2.8652         172.959         -49.2073         72.1316         -49.2066         72.1365       -0.0216927         143.149
0.613                   -2.93965         172.217          -49.111          69.535         -49.1104           69.54       -0.0219262         143.069
0.614                   -3.01621         171.483         -49.0158         66.9347         -49.0151         66.9396       -0.0221635         142.989
0.615                   -3.09472         170.758         -48.9216          64.331         -48.9208         64.3356       -0.0224046         142.909
0.616                   -3.17503         170.044         -48.8285         61.7242         -48.8277         61.7285       -0.0226495         142.828
0.617                   -3.25693         169.341         -48.7366         59.1147         -48.7358         59.1187       -0.0228982         142.748
0.618                    -3.3402          168.65         -48.6459          56.503         -48.6452         56.5066       -0.0231507         142.667
0.619                    -3.4246         167.971         -48.5565         53.8897         -48.5558         53.8928       -0.0234071         142.586
0.62                    -3.50991         167.305         -48.4685         51.2751         -48.4678         51.2777       -0.0236674         142.504
0.621                   -3.59586         166.652         -48.3819           48.66         -48.3813         48.6621       -0.0239315         142.423
0.622                   -3.68221         166.011         -48.2966         46.0449         -48.2961         46.0465       -0.0241995         142.341
0.623                   -3.76873         165.382         -48.2128         43.4304         -48.2124         43.4315       -0.0244714         142.259
0.624                   -3.85519         164.764         -48.1305         40.8172         -48.1301         40.8178       -0.0247473         142.176
0.625                   -3.94141         164.156         -48.0496         38.2059         -48.0493          38.206       -0.0250271         142.094
0.626                   -4.02719         163.558         -47.9702         35.5971           -47.97         35.5968        -0.025311         142.011
0.627                   -4.11239         162.968         -47.8922         32.9915          -47.892         32.9909       -0.0255988         141.928
0.628                   -4.19689         162.384         -47.8156         30.3898         -47.8155         30.3888       -0.0258907         141.844
0.629                    -4.2806         161.805         -47.7403         27.7925         -47.7404         27.7913       -0.0261867         141.761
