! TOUCHSTONE file generated by CST MICROWAVE STUDIO
! Date and time: Wed Oct 28 19:39:24 2020
! Project name: Scenario_1_Circular_Tissue_out_of_Line_v2.cst
! Parameters = {dy1=173; L_HA=400; MT=2.54; Rad_Dielectric=30; Rad_Lower=7.3; Rad_Upper=30; a_HA=580; a_WG=246; b_HA=500; b_WG=121; c_HA=0; c_WG=187; d_feed=85; dx1=346; h_feed=15; h_lower=18; h_upper=40}
! Header version: 2018
! Port assignment regex: !\s*Touchstone port\s*([0-9]+)\s*=\s*(CST MWS port|CST DS port)\s*([0-9]+|Zmin|Zmax)\s*\(\"(.*)\"\)(\s*mode\s*([0-9]+))?.*
! Touchstone port assignment:
! Touchstone port 1 = CST MWS port 1 ("")
! Touchstone port 2 = CST MWS port 2 ("")
# GHz S DB R 50
0.5                    -0.162964        -122.238         -59.3858         16.4104         -59.3858         16.4104      -0.00805818         151.114
0.501                  -0.164817        -122.661         -59.2878         15.0101         -59.2878           15.01      -0.00812324         151.049
0.502                  -0.166833        -123.087         -59.1883         13.6061         -59.1883          13.606      -0.00818842         150.983
0.503                  -0.169016        -123.516         -59.0872         12.1987         -59.0872         12.1985      -0.00825373         150.918
0.504                  -0.171375        -123.948         -58.9845         10.7877         -58.9845         10.7875      -0.00831919         150.853
0.505                  -0.173916        -124.384         -58.8803         9.37341         -58.8803          9.3731      -0.00838482         150.787
0.506                  -0.176646        -124.822         -58.7746         7.95575         -58.7746         7.95539      -0.00845064         150.722
0.507                  -0.179572        -125.263         -58.6674         6.53482         -58.6674         6.53441      -0.00851667         150.656
0.508                  -0.182701        -125.708         -58.5587         5.11067         -58.5587         5.11022      -0.00858292         150.591
0.509                   -0.18604        -126.155         -58.4486         3.68334         -58.4486         3.68286      -0.00864942         150.525
0.51                   -0.189597        -126.606          -58.337         2.25289          -58.337         2.25237      -0.00871619         150.459
0.511                  -0.193381         -127.06          -58.224        0.819328          -58.224        0.818778      -0.00878325         150.393
0.512                  -0.197398        -127.517         -58.1096       -0.617304         -58.1096       -0.617879      -0.00885061         150.327
0.513                  -0.201657        -127.977         -57.9938        -2.05699         -57.9939        -2.05758       -0.0089183         150.261
0.514                  -0.206166         -128.44         -57.8768        -3.49971         -57.8768        -3.50032      -0.00898634         150.195
0.515                  -0.210934        -128.907         -57.7583        -4.94546         -57.7584        -4.94609      -0.00905474         150.129
0.516                  -0.215969        -129.377         -57.6387        -6.39424         -57.6387        -6.39487      -0.00912354         150.062
0.517                   -0.22128         -129.85         -57.5177        -7.84605         -57.5177        -7.84669      -0.00919275         149.996
0.518                  -0.226877        -130.326         -57.3955         -9.3009         -57.3955        -9.30154      -0.00926238         149.929
0.519                  -0.232767        -130.805         -57.2721        -10.7588         -57.2721        -10.7594      -0.00933248         149.863
0.52                   -0.238961        -131.288         -57.1475        -12.2198         -57.1476        -12.2204      -0.00940304         149.796
0.521                  -0.245468        -131.774         -57.0218        -13.6839         -57.0218        -13.6845       -0.0094741         149.729
0.522                  -0.252298        -132.263          -56.895        -15.1511          -56.895        -15.1517      -0.00954568         149.662
0.523                   -0.25946        -132.756         -56.7671        -16.6215         -56.7671        -16.6221       -0.0096178         149.595
0.524                  -0.266965        -133.252         -56.6381        -18.0952         -56.6381        -18.0958      -0.00969049         149.528
0.525                  -0.274822        -133.751         -56.5081        -19.5721         -56.5081        -19.5727      -0.00976376         149.461
0.526                  -0.283042        -134.253         -56.3771        -21.0523         -56.3771        -21.0529      -0.00983763         149.394
0.527                  -0.291635        -134.759         -56.2451         -22.536         -56.2451        -22.5365      -0.00991214         149.327
0.528                  -0.300612        -135.268         -56.1122         -24.023         -56.1122        -24.0235       -0.0099873         149.259
0.529                  -0.309984         -135.78         -55.9784        -25.5136         -55.9784        -25.5141       -0.0100631         149.192
0.53                   -0.319761        -136.296         -55.8437        -27.0078         -55.8438        -27.0083       -0.0101397         149.124
0.531                  -0.329955        -136.814         -55.7083        -28.5057         -55.7083        -28.5061        -0.010217         149.056
0.532                  -0.340576        -137.336          -55.572        -30.0073          -55.572        -30.0076        -0.010295         148.989
0.533                  -0.351636        -137.862         -55.4349        -31.5127         -55.4349         -31.513       -0.0103738         148.921
0.534                  -0.363146         -138.39         -55.2972         -33.022         -55.2972        -33.0223       -0.0104533         148.853
0.535                  -0.375117        -138.921         -55.1587        -34.5353         -55.1587        -34.5355       -0.0105338         148.785
0.536                  -0.387561        -139.456         -55.0196        -36.0527         -55.0196        -36.0529        -0.010615         148.716
0.537                  -0.400489        -139.994         -54.8799        -37.5742         -54.8799        -37.5744       -0.0106971         148.648
0.538                  -0.413913        -140.535         -54.7396           -39.1         -54.7396        -39.1001       -0.0107802          148.58
0.539                  -0.427844        -141.079         -54.5987        -40.6302         -54.5987        -40.6303       -0.0108641         148.511
0.54                   -0.442294        -141.626         -54.4574        -42.1648         -54.4573        -42.1648        -0.010949         148.442
0.541                  -0.457274        -142.176         -54.3155        -43.7039         -54.3155        -43.7039       -0.0110349         148.374
0.542                  -0.472796        -142.729         -54.1733        -45.2477         -54.1733        -45.2476       -0.0111218         148.305
0.543                  -0.488872        -143.285         -54.0306        -46.7962         -54.0306         -46.796       -0.0112097         148.236
0.544                  -0.505512        -143.844         -53.8876        -48.3494         -53.8876        -48.3492       -0.0112986         148.167
0.545                  -0.522729        -144.406         -53.7443        -49.9076         -53.7443        -49.9074       -0.0113887         148.098
0.546                  -0.540533        -144.971         -53.6008        -51.4707         -53.6007        -51.4704       -0.0114798         148.028
0.547                  -0.558936        -145.538          -53.457        -53.0389         -53.4569        -53.0386       -0.0115721         147.959
0.548                  -0.577949        -146.108          -53.313        -54.6123         -53.3129        -54.6119       -0.0116656         147.889
0.549                  -0.597581        -146.681         -53.1688        -56.1908         -53.1688        -56.1904       -0.0117602          147.82
0.55                   -0.617845        -147.256         -53.0246        -57.7747         -53.0245        -57.7741       -0.0118561          147.75
0.551                   -0.63875        -147.834         -52.8802        -59.3638         -52.8802        -59.3633       -0.0119532          147.68
0.552                  -0.660306        -148.414         -52.7359        -60.9584         -52.7359        -60.9578       -0.0120515          147.61
0.553                  -0.682523        -148.996         -52.5916        -62.5585         -52.5915        -62.5578       -0.0121512          147.54
0.554                  -0.705411        -149.581         -52.4473        -64.1641         -52.4473        -64.1634       -0.0122523          147.47
0.555                  -0.728978        -150.168         -52.3031        -65.7753         -52.3031        -65.7745       -0.0123546         147.399
0.556                  -0.753234        -150.757         -52.1591        -67.3921         -52.1591        -67.3912       -0.0124584         147.329
0.557                  -0.778186        -151.349         -52.0153        -69.0145         -52.0152        -69.0136       -0.0125636         147.258
0.558                  -0.803843        -151.942         -51.8717        -70.6425         -51.8716        -70.6416       -0.0126703         147.188
0.559                  -0.830211        -152.537         -51.7284        -72.2763         -51.7283        -72.2753       -0.0127784         147.117
0.56                   -0.857298        -153.134         -51.5854        -73.9157         -51.5853        -73.9147        -0.012888         147.046
0.561                  -0.885109        -153.732         -51.4427        -75.5609         -51.4427        -75.5598       -0.0129992         146.975
0.562                   -0.91365        -154.332         -51.3005        -77.2117         -51.3004        -77.2106       -0.0131119         146.904
0.563                  -0.942927        -154.934         -51.1587        -78.8681         -51.1586         -78.867       -0.0132263         146.832
0.564                  -0.972943        -155.536         -51.0173        -80.5302         -51.0173         -80.529       -0.0133422         146.761
0.565                    -1.0037        -156.141         -50.8766        -82.1978         -50.8765        -82.1966       -0.0134599         146.689
0.566                   -1.03521        -156.746         -50.7364         -83.871         -50.7363        -83.8698       -0.0135792         146.617
0.567                   -1.06746        -157.352         -50.5968        -85.5497         -50.5967        -85.5484       -0.0137002         146.545
0.568                   -1.10046         -157.96         -50.4578        -87.2337         -50.4577        -87.2324        -0.013823         146.473
0.569                   -1.13421        -158.568         -50.3196        -88.9231         -50.3195        -88.9217       -0.0139476         146.401
0.57                    -1.16871        -159.176          -50.182        -90.6177          -50.182        -90.6163        -0.014074         146.329
0.571                   -1.20395        -159.786         -50.0453        -92.3174         -50.0452        -92.3159       -0.0142022         146.257
0.572                   -1.23994        -160.396         -49.9094         -94.022         -49.9093        -94.0206       -0.0143323         146.184
0.573                   -1.27667        -161.006         -49.7743        -95.7316         -49.7742        -95.7301       -0.0144643         146.111
0.574                   -1.31413        -161.616           -49.64        -97.4459           -49.64        -97.4444       -0.0145983         146.038
0.575                   -1.35233        -162.227         -49.5067        -99.1648         -49.5066        -99.1633       -0.0147342         145.965
0.576                   -1.39125        -162.838         -49.3744        -100.888         -49.3743        -100.887       -0.0148721         145.892
0.577                   -1.43088        -163.448          -49.243        -102.616         -49.2429        -102.614        -0.015012         145.819
0.578                   -1.47122        -164.059         -49.1126        -104.347         -49.1125        -104.346       -0.0151539         145.745
0.579                   -1.51226        -164.669         -48.9833        -106.083         -48.9832        -106.081        -0.015298         145.672
0.58                    -1.55399        -165.278          -48.855        -107.822         -48.8549         -107.82       -0.0154442         145.598
0.581                   -1.59638        -165.888         -48.7278        -109.565         -48.7277        -109.563       -0.0155925         145.524
0.582                   -1.63944        -166.496         -48.6017         -111.31         -48.6016        -111.309       -0.0157429          145.45
0.583                   -1.68315        -167.104         -48.4767        -113.059         -48.4766        -113.058       -0.0158956         145.376
0.584                   -1.72748        -167.711         -48.3529        -114.811         -48.3528        -114.809       -0.0160505         145.301
0.585                   -1.77243        -168.318         -48.2302        -116.565         -48.2301        -116.564       -0.0162077         145.227
0.586                   -1.81797        -168.923         -48.1087        -118.322         -48.1086         -118.32       -0.0163672         145.152
0.587                    -1.8641        -169.528         -47.9884        -120.081         -47.9883        -120.079       -0.0165289         145.077
0.588                   -1.91078        -170.131         -47.8693        -121.841         -47.8692        -121.839        -0.016693         145.002
0.589                   -1.95799        -170.734         -47.7514        -123.603         -47.7514        -123.601       -0.0168595         144.927
0.59                    -2.00573        -171.335         -47.6348        -125.366         -47.6347        -125.365       -0.0170284         144.852
0.591                   -2.05396        -171.935         -47.5193        -127.131         -47.5192        -127.129       -0.0171996         144.776
0.592                   -2.10266        -172.534          -47.405        -128.896         -47.4049        -128.894       -0.0173734           144.7
0.593                    -2.1518        -173.132          -47.292        -130.661         -47.2919         -130.66       -0.0175496         144.625
0.594                   -2.20138        -173.729         -47.1802        -132.427         -47.1801        -132.426       -0.0177283         144.548
0.595                   -2.25135        -174.325         -47.0695        -134.193         -47.0694        -134.191       -0.0179095         144.472
0.596                   -2.30169        -174.919         -46.9601        -135.958           -46.96        -135.957       -0.0180933         144.396
0.597                   -2.35239        -175.513         -46.8518        -137.723         -46.8517        -137.722       -0.0182796         144.319
0.598                   -2.40342        -176.106         -46.7447        -139.488         -46.7446        -139.486       -0.0184685         144.242
0.599                   -2.45474        -176.697         -46.6387        -141.251         -46.6387        -141.249       -0.0186601         144.165
0.6                     -2.50634        -177.288         -46.5339        -143.013         -46.5338        -143.011       -0.0188543         144.088
0.601                   -2.55819        -177.879         -46.4302        -144.773         -46.4301        -144.772       -0.0190511         144.011
0.602                   -2.61027        -178.468         -46.3276        -146.532         -46.3275        -146.531       -0.0192506         143.933
0.603                   -2.66255        -179.058          -46.226        -148.289         -46.2259        -148.287       -0.0194529         143.856
0.604                   -2.71502        -179.647         -46.1255        -150.043         -46.1254        -150.042       -0.0196578         143.778
0.605                   -2.76765         179.764          -46.026        -151.796         -46.0259        -151.795       -0.0198656           143.7
0.606                   -2.82042         179.176         -45.9275        -153.546         -45.9274        -153.544       -0.0200761         143.621
0.607                   -2.87331         178.586         -45.8299        -155.293         -45.8298        -155.292       -0.0202894         143.543
0.608                    -2.9263         177.997         -45.7333        -157.037         -45.7332        -157.036       -0.0205055         143.464
0.609                   -2.97939         177.406         -45.6375        -158.778         -45.6374        -158.777       -0.0207244         143.385
0.61                    -3.03256         176.815         -45.5426        -160.517         -45.5425        -160.515       -0.0209462         143.306
0.611                   -3.08578         176.223         -45.4485        -162.252         -45.4485         -162.25       -0.0211709         143.227
0.612                   -3.13907         175.629         -45.3552        -163.983         -45.3552        -163.982       -0.0213986         143.147
0.613                   -3.19241         175.033         -45.2627        -165.711         -45.2626         -165.71       -0.0216291         143.067
0.614                   -3.24579         174.435         -45.1708        -167.436         -45.1708        -167.435       -0.0218626         142.987
0.615                   -3.29921         173.835         -45.0797        -169.156         -45.0796        -169.155       -0.0220991         142.907
0.616                   -3.35269         173.232         -44.9891        -170.873         -44.9891        -170.873       -0.0223386         142.826
0.617                   -3.40622         172.626         -44.8992        -172.587         -44.8991        -172.586       -0.0225812         142.746
0.618                    -3.4598         172.017         -44.8098        -174.296         -44.8097        -174.296       -0.0228268         142.665
0.619                   -3.51346         171.405         -44.7209        -176.002         -44.7209        -176.001       -0.0230756         142.584
0.62                    -3.56721         170.788         -44.6325        -177.704         -44.6325        -177.703       -0.0233274         142.502
0.621                   -3.62107         170.167         -44.5446        -179.402         -44.5446        -179.401       -0.0235825         142.421
0.622                   -3.67506         169.541         -44.4571         178.903          -44.457         178.904       -0.0238408         142.339
0.623                   -3.72921          168.91         -44.3699         177.213         -44.3699         177.214       -0.0241023         142.256
0.624                   -3.78355         168.273         -44.2831         175.526          -44.283         175.527       -0.0243671         142.174
0.625                   -3.83811         167.631         -44.1965         173.843         -44.1965         173.844       -0.0246353         142.091
0.626                   -3.89293         166.983         -44.1102         172.163         -44.1102         172.164       -0.0249068         142.009
0.627                   -3.94807         166.328         -44.0242         170.487         -44.0242         170.488       -0.0251818         141.925
0.628                   -4.00356         165.667         -43.9383         168.815         -43.9383         168.816       -0.0254603         141.842
0.629                   -4.05945         164.998         -43.8526         167.146         -43.8526         167.146       -0.0257424         141.758
