! TOUCHSTONE file generated by CST MICROWAVE STUDIO
! Date and time: Fri Oct 30 08:07:56 2020
! Project name: Scenario_1_Circular_Tissue_out_of_Line.cst
! Parameters = {dy1=174.23; L_HA=400; MT=2.54; Rad_Dielectric=30; Rad_Lower=7.3; Rad_Upper=30; a_HA=580; a_WG=246; b_HA=500; b_WG=121; c_HA=0; c_WG=187; d_feed=85; dx1=520; h_feed=15; h_lower=18; h_upper=40}
! Header version: 2018
! Port assignment regex: !\s*Touchstone port\s*([0-9]+)\s*=\s*(CST MWS port|CST DS port)\s*([0-9]+|Zmin|Zmax)\s*\(\"(.*)\"\)(\s*mode\s*([0-9]+))?.*
! Touchstone port assignment:
! Touchstone port 1 = CST MWS port 1 ("")
! Touchstone port 2 = CST MWS port 2 ("")
# GHz S DB R 50
0.5                    -0.136474        -122.452          -62.009        -68.9698          -62.009        -68.9683      -0.00730468          151.14
0.501                  -0.146427          -122.9         -61.7684        -70.5345         -61.7689        -70.5276      -0.00736207         151.074
0.502                  -0.156519         -123.35         -61.5298        -72.1191         -61.5307        -72.1071      -0.00742056         151.009
0.503                  -0.166748          -123.8         -61.2932        -73.7235         -61.2944        -73.7069      -0.00748019         150.944
0.504                  -0.177112         -124.25         -61.0586        -75.3479         -61.0601        -75.3267        -0.007541         150.878
0.505                  -0.187609        -124.702         -60.8261        -76.9919         -60.8279        -76.9666      -0.00760302         150.812
0.506                  -0.198237        -125.155         -60.5957        -78.6556         -60.5977        -78.6264       -0.0076663         150.747
0.507                  -0.208995        -125.608         -60.3675        -80.3388         -60.3696         -80.306      -0.00773086         150.681
0.508                   -0.21988        -126.062         -60.1414        -82.0412         -60.1437        -82.0051      -0.00779674         150.615
0.509                   -0.23089        -126.518         -59.9177        -83.7628           -59.92        -83.7236      -0.00786397         150.549
0.51                   -0.242025        -126.974         -59.6962        -85.5032         -59.6986        -85.4612       -0.0079326         150.483
0.511                  -0.253281        -127.431         -59.4772        -87.2622         -59.4796        -87.2177      -0.00800265         150.417
0.512                  -0.264658        -127.889         -59.2605        -89.0395         -59.2629        -88.9928      -0.00807415         150.351
0.513                  -0.276152        -128.349         -59.0463        -90.8348         -59.0487        -90.7862      -0.00814713         150.285
0.514                  -0.287764        -128.809         -58.8346        -92.6477          -58.837        -92.5974      -0.00822163         150.218
0.515                   -0.29949         -129.27         -58.6256        -94.4779         -58.6278        -94.4261      -0.00829766         150.152
0.516                   -0.31133        -129.732         -58.4191        -96.3248         -58.4213        -96.2718      -0.00837526         150.086
0.517                  -0.323281        -130.196         -58.2154        -98.1881         -58.2174        -98.1341      -0.00845444         150.019
0.518                  -0.335342        -130.661         -58.0143        -100.067         -58.0162        -100.013      -0.00853523         149.952
0.519                  -0.347512        -131.127         -57.8161        -101.962         -57.8178        -101.906      -0.00861763         149.886
0.52                   -0.359788        -131.594         -57.6206        -103.871         -57.6222        -103.815      -0.00870168         149.819
0.521                   -0.37217        -132.062         -57.4281        -105.794         -57.4295        -105.739      -0.00878737         149.752
0.522                  -0.384656        -132.532         -57.2384        -107.731         -57.2397        -107.676      -0.00887472         149.685
0.523                  -0.397245        -133.003         -57.0516        -109.681         -57.0527        -109.626      -0.00896373         149.618
0.524                  -0.409936        -133.475         -56.8678        -111.643         -56.8688        -111.589      -0.00905441          149.55
0.525                  -0.422727        -133.949          -56.687        -113.616         -56.6878        -113.563      -0.00914674         149.483
0.526                  -0.435617        -134.424         -56.5092        -115.601         -56.5098        -115.548      -0.00924074         149.416
0.527                  -0.448606        -134.901         -56.3345        -117.595         -56.3349        -117.544      -0.00933638         149.348
0.528                  -0.461693        -135.379         -56.1627        -119.599         -56.1629        -119.549      -0.00943366         149.281
0.529                  -0.474877        -135.859         -55.9939        -121.611          -55.994        -121.563      -0.00953256         149.213
0.53                   -0.488157         -136.34         -55.8282        -123.632         -55.8281        -123.584      -0.00963305         149.145
0.531                  -0.501533        -136.823         -55.6655        -125.659         -55.6653        -125.613      -0.00973512         149.078
0.532                  -0.515005        -137.308         -55.5058        -127.693         -55.5054        -127.648      -0.00983874          149.01
0.533                  -0.528572        -137.795          -55.349        -129.732         -55.3485        -129.689      -0.00994387         148.942
0.534                  -0.542235        -138.283         -55.1952        -131.776         -55.1946        -131.735       -0.0100505         148.874
0.535                  -0.555994        -138.774         -55.0443        -133.823         -55.0436        -133.785       -0.0101585         148.806
0.536                  -0.569848        -139.266         -54.8962        -135.874         -54.8954        -135.838        -0.010268         148.737
0.537                    -0.5838         -139.76          -54.751        -137.928         -54.7501        -137.893       -0.0103788         148.669
0.538                   -0.59785        -140.257         -54.6085        -139.983         -54.6076        -139.951       -0.0104909           148.6
0.539                  -0.611998        -140.755         -54.4687         -142.04         -54.4677        -142.009       -0.0106043         148.532
0.54                   -0.626246        -141.256         -54.3316        -144.097         -54.3305        -144.068        -0.010719         148.463
0.541                  -0.640596        -141.759          -54.197        -146.154         -54.1959        -146.127       -0.0108347         148.394
0.542                   -0.65505        -142.264          -54.065         -148.21         -54.0639        -148.185       -0.0109516         148.326
0.543                   -0.66961        -142.772         -53.9353        -150.264         -53.9342        -150.242       -0.0110696         148.257
0.544                  -0.684278        -143.282          -53.808        -152.317         -53.8069        -152.296       -0.0111886         148.188
0.545                  -0.699058        -143.795          -53.683        -154.367         -53.6819        -154.348       -0.0113085         148.118
0.546                  -0.713952         -144.31         -53.5601        -156.414          -53.559        -156.397       -0.0114294         148.049
0.547                  -0.728965        -144.828         -53.4393        -158.458         -53.4383        -158.443       -0.0115512          147.98
0.548                    -0.7441        -145.349         -53.3205        -160.498         -53.3195        -160.485       -0.0116738          147.91
0.549                  -0.759363        -145.873         -53.2037        -162.534         -53.2027        -162.522       -0.0117971         147.841
0.55                   -0.774758          -146.4         -53.0886        -164.565         -53.0877        -164.555       -0.0119212         147.771
0.551                  -0.790291        -146.929         -52.9752        -166.591         -52.9744        -166.583       -0.0120461         147.701
0.552                  -0.805968        -147.462         -52.8635        -168.613         -52.8627        -168.606       -0.0121716         147.631
0.553                  -0.821795        -147.999         -52.7533        -170.629         -52.7526        -170.623       -0.0122978         147.561
0.554                  -0.837781        -148.538         -52.6446         -172.64         -52.6439        -172.635       -0.0124246         147.491
0.555                  -0.853934        -149.081         -52.5372        -174.644         -52.5366        -174.642        -0.012552         147.421
0.556                  -0.870261        -149.627          -52.431        -176.644         -52.4305        -176.642         -0.01268         147.351
0.557                  -0.886773        -150.178          -52.326        -178.637         -52.3256        -178.636       -0.0128086          147.28
0.558                   -0.90348        -150.731         -52.2221         179.376         -52.2218         179.376       -0.0129378          147.21
0.559                  -0.920392        -151.289         -52.1192         177.395          -52.119         177.393       -0.0130676         147.139
0.56                   -0.937523        -151.851         -52.0172         175.419          -52.017         175.417        -0.013198         147.068
0.561                  -0.954884        -152.416          -51.916          173.45         -51.9159         173.447        -0.013329         146.997
0.562                   -0.97249        -152.986         -51.8156         171.486         -51.8156         171.483       -0.0134606         146.926
0.563                  -0.990355         -153.56         -51.7158         169.529         -51.7159         169.525       -0.0135928         146.855
0.564                    -1.0085        -154.139         -51.6167         167.577         -51.6168         167.573       -0.0137257         146.783
0.565                   -1.02693        -154.722          -51.518         165.631         -51.5183         165.626       -0.0138593         146.712
0.566                   -1.04568        -155.309         -51.4199          163.69         -51.4202         163.686       -0.0139937          146.64
0.567                   -1.06475        -155.902         -51.3221         161.755         -51.3225          161.75       -0.0141288         146.569
0.568                   -1.08418        -156.499         -51.2247         159.825         -51.2251          159.82       -0.0142647         146.497
0.569                   -1.10398        -157.101         -51.1276           157.9          -51.128         157.895       -0.0144014         146.425
0.57                    -1.12418        -157.708         -51.0306          155.98         -51.0311         155.975       -0.0145391         146.353
0.571                    -1.1448         -158.32         -50.9339         154.065         -50.9345         154.059       -0.0146777          146.28
0.572                   -1.16587        -158.938         -50.8373         152.154         -50.8379         152.148       -0.0148173         146.208
0.573                   -1.18741        -159.561         -50.7408         150.247         -50.7414         150.242       -0.0149579         146.135
0.574                   -1.20947        -160.189         -50.6443         148.344         -50.6449         148.339       -0.0150997         146.063
0.575                   -1.23206        -160.823         -50.5478         146.445         -50.5485          146.44       -0.0152426          145.99
0.576                   -1.25523        -161.462         -50.4513          144.55          -50.452         144.545       -0.0153868         145.917
0.577                     -1.279        -162.107         -50.3548         142.658         -50.3555         142.653       -0.0155322         145.843
0.578                   -1.30342        -162.758         -50.2582         140.768         -50.2588         140.764        -0.015679          145.77
0.579                   -1.32852        -163.415         -50.1614         138.882         -50.1621         138.878       -0.0158272         145.697
0.58                    -1.35434        -164.078         -50.0645         136.998         -50.0652         136.994       -0.0159769         145.623
0.581                   -1.38093        -164.747         -49.9675         135.116         -49.9682         135.112       -0.0161282         145.549
0.582                   -1.40833        -165.421         -49.8703         133.236          -49.871         133.233       -0.0162811         145.475
0.583                   -1.43658        -166.102          -49.773         131.358         -49.7736         131.355       -0.0164356         145.401
0.584                   -1.46574        -166.789         -49.6754         129.481          -49.676         129.478       -0.0165919         145.327
0.585                   -1.49585        -167.481         -49.5777         127.605         -49.5783         127.603       -0.0167501         145.253
0.586                   -1.52696         -168.18         -49.4798         125.731         -49.4803         125.729       -0.0169101         145.178
0.587                   -1.55913        -168.885         -49.3817         123.857         -49.3822         123.855        -0.017072         145.103
0.588                   -1.59241        -169.595         -49.2834         121.983         -49.2838         121.982        -0.017236         145.028
0.589                   -1.62686        -170.312         -49.1849          120.11         -49.1853         120.109        -0.017402         144.953
0.59                    -1.66252        -171.034         -49.0862         118.237         -49.0866         118.236       -0.0175702         144.878
0.591                   -1.69947        -171.761         -48.9874         116.363         -48.9877         116.363       -0.0177405         144.802
0.592                   -1.73775        -172.494         -48.8884          114.49         -48.8887          114.49       -0.0179132         144.727
0.593                   -1.77743        -173.232         -48.7893         112.615         -48.7895         112.615       -0.0180882         144.651
0.594                   -1.81857        -173.976         -48.6901          110.74         -48.6902          110.74       -0.0182656         144.575
0.595                   -1.86121        -174.723         -48.5907         108.863         -48.5908         108.864       -0.0184454         144.499
0.596                   -1.90542        -175.476         -48.4913         106.985         -48.4913         106.986       -0.0186278         144.422
0.597                   -1.95126        -176.232         -48.3918         105.106         -48.3918         105.108       -0.0188127         144.346
0.598                   -1.99878        -176.993         -48.2923         103.226         -48.2922         103.227       -0.0190003         144.269
0.599                   -2.04803        -177.757         -48.1928         101.344         -48.1926         101.345       -0.0191906         144.192
0.6                     -2.09906        -178.524         -48.0933         99.4595          -48.093         99.4612       -0.0193836         144.115
0.601                   -2.15192        -179.293         -47.9938         97.5736         -47.9935         97.5754       -0.0195795         144.038
0.602                   -2.20666         179.935         -47.8945         95.6856         -47.8941         95.6875       -0.0197782          143.96
0.603                    -2.2633         179.162         -47.7952         93.7956         -47.7948         93.7976       -0.0199798         143.883
0.604                    -2.3219         178.387         -47.6961         91.9034         -47.6956         91.9054       -0.0201845         143.805
0.605                   -2.38248         177.612         -47.5972          90.009         -47.5967         90.0111       -0.0203922         143.727
0.606                   -2.44505         176.837         -47.4985         88.1123         -47.4979         88.1144        -0.020603         143.648
0.607                   -2.50965         176.063         -47.4001         86.2134         -47.3994         86.2155       -0.0208169          143.57
0.608                   -2.57628          175.29         -47.3019         84.3122         -47.3013         84.3142       -0.0210341         143.491
0.609                   -2.64494         174.518         -47.2041         82.4087         -47.2034         82.4107       -0.0212545         143.412
0.61                    -2.71564          173.75         -47.1067          80.503         -47.1059          80.505       -0.0214782         143.333
0.611                   -2.78835         172.984         -47.0096         78.5951         -47.0088          78.597       -0.0217053         143.254
0.612                   -2.86306         172.223          -46.913         76.6851         -46.9122         76.6869       -0.0219358         143.174
0.613                   -2.93975         171.466         -46.8169         74.7731         -46.8161         74.7747       -0.0221698         143.094
0.614                   -3.01836         170.714         -46.7213         72.8591         -46.7204         72.8606       -0.0224074         143.014
0.615                   -3.09887         169.968         -46.6262         70.9433         -46.6254         70.9447       -0.0226485         142.934
0.616                    -3.1812         169.229         -46.5318         69.0258         -46.5309         69.0271       -0.0228933         142.853
0.617                   -3.26531         168.496         -46.4379         67.1068          -46.437         67.1079       -0.0231417         142.773
0.618                   -3.35112         167.772         -46.3447         65.1865         -46.3438         65.1874       -0.0233939         142.692
0.619                   -3.43855         167.055         -46.2522         63.2649         -46.2513         63.2657       -0.0236499         142.611
0.62                    -3.52751         166.347         -46.1604         61.3424         -46.1595          61.343       -0.0239097         142.529
0.621                   -3.61792         165.648         -46.0693         59.4191         -46.0684         59.4196       -0.0241735         142.447
0.622                   -3.70968         164.958          -45.979         57.4953         -45.9781         57.4956       -0.0244412         142.366
0.623                   -3.80269         164.278         -45.8895         55.5712         -45.8886         55.5714       -0.0247129         142.283
0.624                   -3.89683         163.608         -45.8008          53.647         -45.7999         53.6471       -0.0249887         142.201
0.625                   -3.99201         162.948         -45.7129         51.7231          -45.712          51.723       -0.0252686         142.118
0.626                    -4.0881         162.298         -45.6258         49.7997          -45.625         49.7994       -0.0255527         142.035
0.627                     -4.185         161.658         -45.5396          47.877         -45.5388         47.8767        -0.025841         141.952
0.628                    -4.2826         161.029         -45.4542         45.9555         -45.4535          45.955       -0.0261336         141.869
0.629                   -4.38078          160.41         -45.3697         44.0353          -45.369         44.0347       -0.0264306         141.785
