! TOUCHSTONE file generated by CST MICROWAVE STUDIO
! Date and time: Wed Oct 28 19:19:13 2020
! Project name: Scenario_1_Circular_Tissue_out_of_Line.cst
! Parameters = {dy1=174.23; L_HA=400; MT=2.54; Rad_Dielectric=30; Rad_Lower=7.3; Rad_Upper=30; a_HA=580; a_WG=246; b_HA=500; b_WG=121; c_HA=0; c_WG=187; d_feed=85; dx1=693; h_feed=15; h_lower=18; h_upper=40}
! Header version: 2018
! Port assignment regex: !\s*Touchstone port\s*([0-9]+)\s*=\s*(CST MWS port|CST DS port)\s*([0-9]+|Zmin|Zmax)\s*\(\"(.*)\"\)(\s*mode\s*([0-9]+))?.*
! Touchstone port assignment:
! Touchstone port 1 = CST MWS port 1 ("")
! Touchstone port 2 = CST MWS port 2 ("")
# GHz S DB R 50
0.5                    -0.151961        -122.255         -62.5231         -173.19         -62.5231         -173.19      -0.00769057         151.105
0.501                   -0.15235        -122.751         -62.4001        -174.829         -62.4001        -174.829      -0.00775429         151.039
0.502                  -0.153197        -123.248         -62.2755        -176.477         -62.2754        -176.477      -0.00781827         150.974
0.503                  -0.154503        -123.745         -62.1492        -178.134         -62.1491        -178.135      -0.00788253         150.909
0.504                  -0.156271        -124.243         -62.0213        -179.802         -62.0211        -179.802      -0.00794708         150.843
0.505                  -0.158501        -124.741         -61.8918         178.521         -61.8916          178.52      -0.00801194         150.778
0.506                  -0.161195        -125.238         -61.7607         176.834         -61.7605         176.833      -0.00807711         150.712
0.507                  -0.164352        -125.737         -61.6281         175.137         -61.6278         175.136      -0.00814263         150.647
0.508                  -0.167974        -126.235         -61.4939          173.43         -61.4936         173.429      -0.00820849         150.581
0.509                  -0.172061        -126.734         -61.3582         171.713         -61.3578         171.712      -0.00827472         150.515
0.51                   -0.176613        -127.232          -61.221         169.987         -61.2206         169.985      -0.00834134         150.449
0.511                  -0.181629        -127.732         -61.0823          168.25         -61.0819         168.249      -0.00840836         150.383
0.512                  -0.187111        -128.231         -60.9422         166.503         -60.9418         166.502       -0.0084758         150.317
0.513                  -0.193057        -128.731         -60.8008         164.747         -60.8003         164.745      -0.00854368         150.251
0.514                  -0.199466        -129.231         -60.6579          162.98         -60.6574         162.978      -0.00861202         150.185
0.515                  -0.206338        -129.731         -60.5137         161.203         -60.5132         161.201      -0.00868084         150.118
0.516                  -0.213671        -130.232         -60.3682         159.415         -60.3677         159.413      -0.00875015         150.052
0.517                  -0.221465        -130.733         -60.2215         157.617         -60.2209         157.616      -0.00881999         149.985
0.518                  -0.229718        -131.234         -60.0735         155.809          -60.073         155.808      -0.00889037         149.919
0.519                  -0.238428        -131.736         -59.9244         153.991         -59.9238         153.989      -0.00896131         149.852
0.52                   -0.247594        -132.238         -59.7741         152.162         -59.7735          152.16      -0.00903284         149.785
0.521                  -0.257213         -132.74         -59.6228         150.322         -59.6222          150.32      -0.00910499         149.718
0.522                  -0.267284        -133.243         -59.4704         148.471         -59.4698          148.47      -0.00917777         149.651
0.523                  -0.277803        -133.746          -59.317          146.61         -59.3164         146.609      -0.00925122         149.584
0.524                   -0.28877        -134.249         -59.1627         144.738         -59.1621         144.737      -0.00932536         149.517
0.525                   -0.30018        -134.753         -59.0075         142.855         -59.0069         142.854      -0.00940021          149.45
0.526                  -0.312032        -135.258         -58.8515         140.962         -58.8509          140.96      -0.00947582         149.383
0.527                  -0.324323        -135.763         -58.6947         139.057         -58.6941         139.055       -0.0095522         149.315
0.528                  -0.337049        -136.268         -58.5372         137.141         -58.5366          137.14      -0.00962938         149.248
0.529                  -0.350207        -136.774          -58.379         135.214         -58.3784         135.213      -0.00970741          149.18
0.53                   -0.363794        -137.281         -58.2203         133.276         -58.2197         133.275       -0.0097863         149.112
0.531                  -0.377807        -137.787          -58.061         131.327         -58.0604         131.325       -0.0098661         149.045
0.532                  -0.392242        -138.295         -57.9013         129.366         -57.9007         129.365      -0.00994683         148.977
0.533                  -0.407095        -138.803         -57.7411         127.394         -57.7406         127.393       -0.0100285         148.909
0.534                  -0.422363        -139.312         -57.5807         125.411         -57.5802          125.41       -0.0101113         148.841
0.535                  -0.438043        -139.821           -57.42         123.416         -57.4195         123.415        -0.010195         148.772
0.536                  -0.454129        -140.331         -57.2591          121.41         -57.2586         121.409       -0.0102799         148.704
0.537                  -0.470618        -140.841         -57.0981         119.393         -57.0976         119.392       -0.0103658         148.636
0.538                  -0.487506        -141.352         -56.9371         117.364         -56.9366         117.364        -0.010453         148.567
0.539                  -0.504789        -141.864         -56.7761         115.325         -56.7757         115.324       -0.0105413         148.499
0.54                   -0.522463        -142.377         -56.6153         113.274         -56.6148         113.273       -0.0106309          148.43
0.541                  -0.540523         -142.89         -56.4546         111.211         -56.4542         111.211       -0.0107217         148.361
0.542                  -0.558965        -143.404         -56.2942         109.138         -56.2938         109.138       -0.0108139         148.292
0.543                  -0.577784        -143.919         -56.1341         107.054         -56.1338         107.054       -0.0109074         148.223
0.544                  -0.596977        -144.435         -55.9745         104.959         -55.9742         104.959       -0.0110024         148.154
0.545                  -0.616539        -144.951         -55.8154         102.853         -55.8151         102.853       -0.0110988         148.085
0.546                  -0.636465        -145.469         -55.6569         100.737         -55.6565         100.737       -0.0111967         148.015
0.547                  -0.656751        -145.987          -55.499           98.61         -55.4987         98.6101       -0.0112962         147.946
0.548                  -0.677392        -146.506         -55.3418         96.4731         -55.3416         96.4733       -0.0113973         147.876
0.549                  -0.698384        -147.026         -55.1855         94.3263         -55.1852         94.3266       -0.0114999         147.807
0.55                   -0.719722        -147.548         -55.0301         92.1697         -55.0298         92.1701       -0.0116043         147.737
0.551                  -0.741402         -148.07         -54.8756         90.0036         -54.8754         90.0042       -0.0117104         147.667
0.552                  -0.763419        -148.593         -54.7221         87.8284         -54.7219         87.8291       -0.0118182         147.597
0.553                  -0.785769        -149.118         -54.5698         85.6444         -54.5696         85.6451       -0.0119278         147.527
0.554                  -0.808447        -149.643         -54.4186         83.4518         -54.4184         83.4526       -0.0120392         147.456
0.555                  -0.831449         -150.17         -54.2686          81.251         -54.2685          81.252       -0.0121526         147.386
0.556                   -0.85477        -150.698           -54.12         79.0424         -54.1199         79.0435       -0.0122678         147.315
0.557                  -0.878406        -151.227         -53.9727         76.8264         -53.9726         76.8276       -0.0123849         147.245
0.558                  -0.902353        -151.758         -53.8268         74.6033         -53.8267         74.6046       -0.0125041         147.174
0.559                  -0.926607         -152.29         -53.6824         72.3737         -53.6823         72.3751       -0.0126252         147.103
0.56                   -0.951164        -152.823         -53.5395          70.138         -53.5395         70.1395       -0.0127483         147.032
0.561                  -0.976018        -153.358         -53.3982         67.8965         -53.3981         67.8981       -0.0128735         146.961
0.562                   -1.00117        -153.894         -53.2584         65.6499         -53.2584         65.6516       -0.0130008          146.89
0.563                   -1.02661        -154.432         -53.1203         63.3985         -53.1203         63.4003       -0.0131301         146.818
0.564                   -1.05234        -154.972         -52.9839         61.1429         -52.9839         61.1448       -0.0132615         146.747
0.565                   -1.07835        -155.513         -52.8491         58.8835         -52.8491         58.8855       -0.0133949         146.675
0.566                   -1.10464        -156.056         -52.7161          56.621         -52.7161          56.623       -0.0135305         146.603
0.567                    -1.1312        -156.601         -52.5848         54.3557         -52.5848         54.3579       -0.0136682         146.531
0.568                   -1.15805        -157.148         -52.4553         52.0883         -52.4553         52.0905       -0.0138079         146.459
0.569                   -1.18516        -157.696         -52.3275         49.8191         -52.3275         49.8214       -0.0139497         146.387
0.57                    -1.21254        -158.247         -52.2014         47.5488         -52.2015         47.5511       -0.0140936         146.315
0.571                   -1.24019          -158.8         -52.0772         45.2779         -52.0772         45.2802       -0.0142395         146.242
0.572                    -1.2681        -159.355         -51.9546         43.0067         -51.9547         43.0091       -0.0143874          146.17
0.573                   -1.29627        -159.912         -51.8338          40.736         -51.8338         40.7384       -0.0145374         146.097
0.574                    -1.3247        -160.472         -51.7147          38.466         -51.7148         38.4684       -0.0146893         146.024
0.575                    -1.3534        -161.034         -51.5973         36.1973         -51.5974         36.1997       -0.0148432         145.951
0.576                   -1.38235        -161.599         -51.4816         33.9303         -51.4816         33.9328       -0.0149989         145.878
0.577                   -1.41156        -162.166         -51.3675         31.6655         -51.3675          31.668       -0.0151566         145.805
0.578                   -1.44103        -162.736          -51.255         29.4032         -51.2551         29.4057       -0.0153161         145.731
0.579                   -1.47075        -163.309         -51.1441          27.144         -51.1441         27.1464       -0.0154774         145.658
0.58                    -1.50074        -163.885         -51.0347          24.888         -51.0347         24.8905       -0.0156406         145.584
0.581                   -1.53099        -164.465         -50.9268         22.6358         -50.9268         22.6383       -0.0158054          145.51
0.582                    -1.5615        -165.047         -50.8203         20.3876         -50.8204           20.39        -0.015972         145.436
0.583                   -1.59228        -165.632         -50.7153         18.1437         -50.7153         18.1461       -0.0161404         145.362
0.584                   -1.62333        -166.222         -50.6115         15.9045         -50.6115         15.9068       -0.0163103         145.288
0.585                   -1.65465        -166.814         -50.5091         13.6701         -50.5091         13.6723        -0.016482         145.213
0.586                   -1.68626        -167.411         -50.4078         11.4407         -50.4078         11.4429       -0.0166553         145.139
0.587                   -1.71815        -168.011         -50.3078         9.21667         -50.3078         9.21883       -0.0168302         145.064
0.588                   -1.75033        -168.616         -50.2088         6.99807         -50.2088         7.00015       -0.0170067         144.989
0.589                   -1.78282        -169.224         -50.1109         4.78506         -50.1109         4.78707       -0.0171848         144.914
0.59                    -1.81562        -169.838          -50.014         2.57776          -50.014         2.57969       -0.0173646         144.838
0.591                   -1.84874        -170.455         -49.9181        0.376262         -49.9181        0.378114       -0.0175459         144.763
0.592                   -1.88219        -171.078          -49.823        -1.81936          -49.823         -1.8176       -0.0177289         144.687
0.593                     -1.916        -171.705         -49.7287        -4.00908         -49.7287        -4.00741       -0.0179136         144.612
0.594                   -1.95017        -172.337         -49.6353        -6.19287         -49.6352         -6.1913       -0.0180999         144.536
0.595                   -1.98472        -172.975         -49.5425        -8.37075         -49.5424        -8.36927       -0.0182879         144.459
0.596                   -2.01967        -173.618         -49.4503        -10.5427         -49.4503        -10.5414       -0.0184776         144.383
0.597                   -2.05504        -174.268         -49.3588        -12.7089         -49.3588        -12.7076       -0.0186692         144.307
0.598                   -2.09086        -174.923         -49.2678        -14.8693         -49.2678        -14.8681       -0.0188625          144.23
0.599                   -2.12715        -175.584         -49.1773         -17.024         -49.1773         -17.023       -0.0190577         144.153
0.6                     -2.16395        -176.251         -49.0872        -19.1732         -49.0872        -19.1722       -0.0192547         144.076
0.601                   -2.20127        -176.925         -48.9976         -21.317         -48.9975        -21.3161       -0.0194538         143.999
0.602                   -2.23917        -177.607         -48.9083        -23.4555         -48.9082        -23.4547       -0.0196549         143.921
0.603                   -2.27767        -178.295         -48.8192        -25.5889         -48.8192        -25.5882       -0.0198581         143.843
0.604                   -2.31682         -178.99         -48.7305        -27.7174         -48.7305        -27.7168       -0.0200634         143.766
0.605                   -2.35667        -179.693          -48.642        -29.8411          -48.642        -29.8406        -0.020271         143.688
0.606                   -2.39726         179.596         -48.5537        -31.9603         -48.5536          -31.96       -0.0204809         143.609
0.607                   -2.43866         178.876         -48.4655        -34.0752         -48.4655         -34.075       -0.0206932         143.531
0.608                   -2.48091         178.149         -48.3775        -36.1861         -48.3774        -36.1859       -0.0209079         143.452
0.609                   -2.52408         177.413         -48.2895        -38.2931         -48.2895         -38.293       -0.0211252         143.373
0.61                    -2.56825         176.668         -48.2016        -40.3964         -48.2016        -40.3964       -0.0213452         143.294
0.611                   -2.61349         175.914         -48.1138        -42.4965         -48.1138        -42.4965       -0.0215678         143.215
0.612                   -2.65989         175.151         -48.0261        -44.5934         -48.0261        -44.5935       -0.0217932         143.135
0.613                   -2.70752         174.379         -47.9383        -46.6875         -47.9383        -46.6877       -0.0220216         143.055
0.614                   -2.75648         173.597         -47.8506         -48.779         -47.8506        -48.7792       -0.0222529         142.975
0.615                   -2.80688         172.805         -47.7628        -50.8682         -47.7628        -50.8685       -0.0224873         142.895
0.616                   -2.85882         172.003         -47.6751        -52.9553         -47.6751        -52.9556       -0.0227248         142.815
0.617                   -2.91242         171.192         -47.5873        -55.0406         -47.5873         -55.041       -0.0229656         142.734
0.618                   -2.96779          170.37         -47.4995        -57.1244         -47.4995        -57.1249       -0.0232097         142.653
0.619                   -3.02508         169.539         -47.4117         -59.207         -47.4117        -59.2074       -0.0234573         142.572
0.62                    -3.08441         168.698         -47.3239        -61.2884         -47.3239        -61.2889       -0.0237084          142.49
0.621                   -3.14593         167.847         -47.2361        -63.3691         -47.2361        -63.3696       -0.0239632         142.409
0.622                   -3.20979         166.986         -47.1483        -65.4493         -47.1483        -65.4498       -0.0242217         142.327
0.623                   -3.27614         166.117         -47.0605        -67.5291         -47.0606        -67.5296        -0.024484         142.245
0.624                   -3.34514         165.238         -46.9728        -69.6089         -46.9729        -69.6093       -0.0247502         142.162
0.625                   -3.41696         164.351         -46.8852        -71.6887         -46.8852        -71.6892       -0.0250204          142.08
0.626                   -3.49176         163.457         -46.7976        -73.7689         -46.7977        -73.7693       -0.0252948         141.997
0.627                   -3.56971         162.555         -46.7102        -75.8495         -46.7102        -75.8499       -0.0255733         141.914
0.628                   -3.65098         161.647         -46.6228        -77.9308         -46.6229        -77.9312       -0.0258562          141.83
0.629                   -3.73572         160.734         -46.5357        -80.0129         -46.5358        -80.0133       -0.0261434         141.746
