! TOUCHSTONE file generated by CST MICROWAVE STUDIO
! Date and time: Sat Oct 24 11:48:30 2020
! Project name: Scenario_1_Circular_Tissue_out_of_Line.cst
! Parameters = {dy1=174.23; L_HA=400; MT=2.54; Rad_Dielectric=30; Rad_Lower=7.3; Rad_Upper=30; a_HA=580; a_WG=246; b_HA=500; b_WG=121; c_HA=0; c_WG=187; d_feed=85; dx1=1039; h_feed=15; h_lower=18; h_upper=40}
! Header version: 2018
! Port assignment regex: !\s*Touchstone port\s*([0-9]+)\s*=\s*(CST MWS port|CST DS port)\s*([0-9]+|Zmin|Zmax)\s*\(\"(.*)\"\)(\s*mode\s*([0-9]+))?.*
! Touchstone port assignment:
! Touchstone port 1 = CST MWS port 1 ("")
! Touchstone port 2 = CST MWS port 2 ("")
# GHz S DB R 50
0.5                    -0.145201        -122.041         -64.0631        -6.65323         -64.0466        -5.74081      -0.00757433         151.152
0.501                  -0.136752        -122.469         -64.0975        -8.03665          -63.997        -7.08448       -0.0076269         151.087
0.502                  -0.128679        -122.901         -64.1319        -9.44799         -63.9465        -8.44719      -0.00768035         151.022
0.503                   -0.12099        -123.337         -64.1661        -10.8881          -63.895        -9.82929      -0.00773468         150.956
0.504                  -0.113691        -123.775         -64.2002        -12.3578         -63.8425        -11.2312      -0.00778992         150.891
0.505                  -0.106789        -124.218          -64.234        -13.8581         -63.7889        -12.6532      -0.00784605         150.826
0.506                  -0.100291        -124.663         -64.2674        -15.3898         -63.7341        -14.0958      -0.00790311          150.76
0.507                 -0.0942051        -125.112         -64.3003        -16.9538         -63.6781        -15.5592      -0.00796108         150.695
0.508                 -0.0885382        -125.564         -64.3326        -18.5511         -63.6209         -17.044      -0.00801999         150.629
0.509                 -0.0832976         -126.02         -64.3642        -20.1826         -63.5624        -18.5505      -0.00807983         150.564
0.51                  -0.0784904        -126.478          -64.395        -21.8492         -63.5025         -20.079      -0.00814063         150.498
0.511                 -0.0741242        -126.941         -64.4247        -23.5519         -63.4412          -21.63      -0.00820238         150.432
0.512                  -0.070206        -127.406         -64.4533        -25.2915         -63.3784        -23.2038       -0.0082651         150.366
0.513                 -0.0667434        -127.875         -64.4806        -27.0691         -63.3141        -24.8008      -0.00832879           150.3
0.514                 -0.0637437        -128.347         -64.5063        -28.8853         -63.2482        -26.4215      -0.00839347         150.234
0.515                 -0.0612141        -128.823         -64.5303        -30.7412         -63.1807        -28.0661      -0.00845914         150.168
0.516                 -0.0591621        -129.301         -64.5524        -32.6375         -63.1113        -29.7352      -0.00852582         150.102
0.517                 -0.0575949        -129.783         -64.5723         -34.575         -63.0402        -31.4289       -0.0085935         150.035
0.518                 -0.0565199        -130.268         -64.5898        -36.5544         -62.9672        -33.1478      -0.00866221         149.969
0.519                 -0.0559443        -130.757         -64.6047        -38.5764         -62.8923        -34.8921      -0.00873195         149.902
0.52                  -0.0558755        -131.248         -64.6166        -40.6414         -62.8153        -36.6622      -0.00880272         149.836
0.521                 -0.0563206        -131.743         -64.6252        -42.7499         -62.7362        -38.4585      -0.00887455         149.769
0.522                 -0.0572869        -132.241         -64.6304        -44.9023         -62.6549        -40.2812      -0.00894744         149.702
0.523                 -0.0587814        -132.742         -64.6316        -47.0988         -62.5714        -42.1308      -0.00902139         149.636
0.524                 -0.0608113        -133.246         -64.6288        -49.3395         -62.4855        -44.0074      -0.00909643         149.569
0.525                 -0.0633837        -133.753         -64.6214        -51.6242         -62.3971        -45.9115      -0.00917255         149.502
0.526                 -0.0665054        -134.263         -64.6091        -53.9528         -62.3063        -47.8432      -0.00924977         149.435
0.527                 -0.0701835        -134.777         -64.5917        -56.3249         -62.2128        -49.8028       -0.0093281         149.367
0.528                 -0.0744248        -135.293         -64.5687        -58.7397         -62.1167        -51.7906      -0.00940755           149.3
0.529                 -0.0792359        -135.812         -64.5399        -61.1965         -62.0179        -53.8068      -0.00948813         149.233
0.53                  -0.0846237        -136.334         -64.5048        -63.6943         -61.9161        -55.8516      -0.00956984         149.165
0.531                 -0.0905947        -136.859         -64.4631        -66.2318         -61.8115        -57.9252      -0.00965271         149.098
0.532                 -0.0971554        -137.387         -64.4145        -68.8076         -61.7039        -60.0278      -0.00973674          149.03
0.533                  -0.104312        -137.918         -64.3587          -71.42         -61.5931        -62.1594      -0.00982193         148.962
0.534                  -0.112071        -138.451         -64.2954        -74.0672         -61.4793        -64.3202      -0.00990831         148.894
0.535                  -0.120439        -138.988         -64.2244         -76.747         -61.3622        -66.5103      -0.00999588         148.826
0.536                  -0.129421        -139.527         -64.1453        -79.4572         -61.2418        -68.7297       -0.0100847         148.758
0.537                  -0.139023        -140.069          -64.058        -82.1955         -61.1181        -70.9786       -0.0101746          148.69
0.538                  -0.149252        -140.613         -63.9624        -84.9592          -60.991        -73.2568       -0.0102659         148.622
0.539                  -0.160113         -141.16         -63.8582        -87.7458         -60.8604        -75.5645       -0.0103583         148.554
0.54                   -0.171611         -141.71         -63.7454        -90.5524         -60.7263        -77.9016        -0.010452         148.485
0.541                  -0.183752        -142.262         -63.6241        -93.3764         -60.5887        -80.2681        -0.010547         148.417
0.542                   -0.19654        -142.817          -63.494        -96.2148         -60.4476        -82.6638       -0.0106432         148.348
0.543                  -0.209982        -143.374         -63.3554        -99.0649         -60.3028        -85.0887       -0.0107407         148.279
0.544                  -0.224081        -143.933         -63.2083        -101.924         -60.1544        -87.5427       -0.0108395          148.21
0.545                  -0.238843        -144.495         -63.0528        -104.789         -60.0024        -90.0256       -0.0109396         148.141
0.546                  -0.254272        -145.059         -62.8891        -107.658         -59.8469        -92.5373       -0.0110411         148.072
0.547                  -0.270373        -145.626         -62.7174        -110.529         -59.6877        -95.0777       -0.0111438         148.003
0.548                  -0.287149        -146.194         -62.5379        -113.399          -59.525        -97.6465       -0.0112479         147.934
0.549                  -0.304605        -146.765          -62.351        -116.265         -59.3588        -100.244       -0.0113534         147.864
0.55                   -0.322744        -147.338         -62.1569        -119.127         -59.1891        -102.869       -0.0114602         147.795
0.551                   -0.34157        -147.913          -61.956        -121.983          -59.016        -105.522       -0.0115684         147.725
0.552                  -0.361087        -148.491         -61.7486        -124.831         -58.8397        -108.202       -0.0116781         147.655
0.553                  -0.381297         -149.07          -61.535         -127.67         -58.6601         -110.91       -0.0117891         147.586
0.554                  -0.402204        -149.651         -61.3157        -130.499         -58.4775        -113.645       -0.0119015         147.516
0.555                  -0.423811        -150.234         -61.0911        -133.318         -58.2918        -116.407       -0.0120154         147.446
0.556                   -0.44612        -150.819         -60.8614        -136.126         -58.1033        -119.195       -0.0121307         147.375
0.557                  -0.469134        -151.406         -60.6272        -138.922         -57.9122        -122.009       -0.0122475         147.305
0.558                  -0.492854        -151.994         -60.3888        -141.707         -57.7185         -124.85       -0.0123658         147.235
0.559                  -0.517284        -152.584         -60.1465         -144.48         -57.5225        -127.716       -0.0124856         147.164
0.56                   -0.542424        -153.176         -59.9008        -147.243         -57.3244        -130.607       -0.0126068         147.093
0.561                  -0.568277        -153.769         -59.6521        -149.994         -57.1243        -133.524       -0.0127296         147.022
0.562                  -0.594844        -154.364         -59.4007        -152.736         -56.9226        -136.464       -0.0128539         146.952
0.563                  -0.622125        -154.961         -59.1469        -155.468         -56.7194        -139.429       -0.0129798         146.881
0.564                  -0.650123        -155.559         -58.8912        -158.191          -56.515        -142.418       -0.0131073         146.809
0.565                  -0.678838        -156.159         -58.6338        -160.906         -56.3096         -145.43       -0.0132363         146.738
0.566                  -0.708271        -156.759          -58.375        -163.614         -56.1036        -148.464       -0.0133669         146.667
0.567                  -0.738422        -157.362         -58.1153        -166.316         -55.8971         -151.52       -0.0134991         146.595
0.568                  -0.769291        -157.965         -57.8549        -169.013         -55.6906        -154.598        -0.013633         146.523
0.569                  -0.800879         -158.57         -57.5941        -171.706         -55.4842        -157.697       -0.0137685         146.451
0.57                   -0.833186        -159.176         -57.3331        -174.396         -55.2784        -160.815       -0.0139057          146.38
0.571                   -0.86621        -159.783         -57.0724        -177.084         -55.0733        -163.952       -0.0140446         146.307
0.572                  -0.899952        -160.392         -56.8121        -179.771         -54.8694        -167.108       -0.0141852         146.235
0.573                  -0.934412        -161.001         -56.5525         177.542         -54.6669         -170.28       -0.0143274         146.163
0.574                  -0.969588        -161.611         -56.2939         174.854         -54.4661        -173.469       -0.0144715          146.09
0.575                   -1.00548        -162.223         -56.0366         172.164         -54.2673        -176.672       -0.0146172         146.018
0.576                   -1.04209        -162.836         -55.7807         169.471         -54.0708        -179.889       -0.0147648         145.945
0.577                   -1.07941        -163.449         -55.5266         166.774         -53.8768         176.883       -0.0149141         145.872
0.578                   -1.11744        -164.063         -55.2744         164.073         -53.6858         173.643       -0.0150653         145.799
0.579                   -1.15618        -164.679         -55.0244         161.366         -53.4978         170.394       -0.0152183         145.726
0.58                    -1.19563        -165.295         -54.7768         158.653         -53.3132         167.138       -0.0153731         145.652
0.581                   -1.23579        -165.912         -54.5319         155.934         -53.1322         163.876       -0.0155298         145.579
0.582                   -1.27666         -166.53         -54.2899         153.207         -52.9549          160.61       -0.0156885         145.505
0.583                   -1.31823        -167.148         -54.0509         150.473         -52.7816         157.342        -0.015849         145.431
0.584                    -1.3605        -167.767         -53.8152         147.732         -52.6123         154.074       -0.0160115         145.357
0.585                   -1.40347        -168.387          -53.583         144.982         -52.4473         150.806       -0.0161759         145.283
0.586                   -1.44714        -169.008         -53.3545         142.224         -52.2866         147.543       -0.0163423         145.209
0.587                   -1.49151         -169.63         -53.1298         139.458         -52.1304         144.284       -0.0165107         145.134
0.588                   -1.53657        -170.252         -52.9091         136.685         -51.9785         141.032       -0.0166812          145.06
0.589                   -1.58232        -170.875         -52.6927         133.903         -51.8312         137.789       -0.0168537         144.985
0.59                    -1.62876        -171.498         -52.4806         131.114         -51.6884         134.557       -0.0170283          144.91
0.591                   -1.67589        -172.122          -52.273         128.318           -51.55         131.337        -0.017205         144.835
0.592                   -1.72371        -172.747           -52.07         125.515          -51.416         128.131       -0.0173838          144.76
0.593                   -1.77221        -173.372         -51.8718         122.706         -51.2864         124.941       -0.0175648         144.684
0.594                   -1.82139        -173.998         -51.6785         119.892          -51.161         121.767       -0.0177479         144.609
0.595                   -1.87125        -174.624         -51.4901         117.074         -51.0397         118.612       -0.0179333         144.533
0.596                   -1.92179        -175.252         -51.3067         114.251         -50.9225         115.476       -0.0181209         144.457
0.597                   -1.97301        -175.879         -51.1284         111.426         -50.8091         112.361       -0.0183108         144.381
0.598                    -2.0249        -176.508         -50.9553         108.599         -50.6994         109.267        -0.018503         144.304
0.599                   -2.07746        -177.137         -50.7873          105.77         -50.5933         106.196       -0.0186975         144.228
0.6                      -2.1307        -177.766         -50.6245         102.942         -50.4905         103.147       -0.0188944         144.151
0.601                    -2.1846        -178.397         -50.4669         100.115         -50.3909         100.123       -0.0190936         144.074
0.602                   -2.23918        -179.028         -50.3144         97.2894         -50.2944         97.1221       -0.0192953         143.997
0.603                   -2.29442        -179.659          -50.167         94.4673         -50.2006         94.1459       -0.0194995          143.92
0.604                   -2.35033         179.708         -50.0247         91.6493         -50.1094         91.1943       -0.0197061         143.843
0.605                   -2.40691         179.075         -49.8873         88.8365         -50.0207         88.2675       -0.0199153         143.765
0.606                   -2.46416         178.442         -49.7548         86.0299         -49.9343         85.3654        -0.020127         143.687
0.607                   -2.52207         177.807         -49.6271         83.2304         -49.8498         82.4881       -0.0203413         143.609
0.608                   -2.58065         177.172          -49.504         80.4388         -49.7673         79.6351       -0.0205583         143.531
0.609                    -2.6399         176.536         -49.3855         77.6562         -49.6864         76.8064       -0.0207779         143.452
0.61                    -2.69982         175.899         -49.2714         74.8833         -49.6071         74.0015       -0.0210003         143.374
0.611                   -2.76041         175.261         -49.1615         72.1208         -49.5292           71.22       -0.0212254         143.295
0.612                   -2.82167         174.622         -49.0556         69.3693         -49.4524         68.4614       -0.0214533         143.216
0.613                   -2.88361         173.982         -48.9537         66.6296         -49.3768         65.7253        -0.021684         143.137
0.614                   -2.94623         173.341         -48.8555         63.9022          -49.302         63.0109       -0.0219176         143.057
0.615                   -3.00953         172.699         -48.7609         61.1874          -49.228         60.3177       -0.0221542         142.977
0.616                   -3.07351         172.056         -48.6697         58.4857         -49.1547          57.645       -0.0223937         142.898
0.617                   -3.13819         171.412         -48.5816         55.7973         -49.0819         54.9922       -0.0226362         142.817
0.618                   -3.20355         170.766         -48.4966         53.1227         -49.0095         52.3584       -0.0228818         142.737
0.619                   -3.26962         170.119         -48.4144         50.4618         -48.9375          49.743       -0.0231306         142.656
0.62                     -3.3364         169.471         -48.3349         47.8147         -48.8657         47.1452       -0.0233824         142.576
0.621                   -3.40389         168.821         -48.2578         45.1817          -48.794         44.5642       -0.0236376         142.495
0.622                    -3.4721          168.17         -48.1829         42.5625         -48.7224         41.9993        -0.023896         142.413
0.623                   -3.54104         167.517         -48.1102         39.9572         -48.6508         39.4497       -0.0241577         142.332
0.624                   -3.61072         166.862         -48.0394         37.3655         -48.5791         36.9146       -0.0244228          142.25
0.625                   -3.68116         166.206         -47.9704         34.7873         -48.5073         34.3932       -0.0246914         142.168
0.626                   -3.75235         165.548          -47.903         32.2224         -48.4352         31.8848       -0.0249635         142.086
0.627                   -3.82432         164.888          -47.837         29.6704          -48.363         29.3886       -0.0252391         142.003
0.628                   -3.89707         164.226         -47.7723         27.1311         -48.2905         26.9039       -0.0255184          141.92
0.629                   -3.97063         163.562         -47.7087         24.6041         -48.2176         24.4299       -0.0258014         141.837
