! TOUCHSTONE file generated by CST MICROWAVE STUDIO
! Date and time: Mon Oct 26 12:09:15 2020
! Project name: Scenario_1_Circular_Tissue_out_of_Line_v2.cst
! Parameters = {dy1=190.3; L_HA=400; MT=2.54; Rad_Dielectric=30; Rad_Lower=7.3; Rad_Upper=30; a_HA=580; a_WG=246; b_HA=500; b_WG=121; c_HA=0; c_WG=187; d_feed=85; dx1=173; h_feed=15; h_lower=18; h_upper=40}
! Header version: 2018
! Port assignment regex: !\s*Touchstone port\s*([0-9]+)\s*=\s*(CST MWS port|CST DS port)\s*([0-9]+|Zmin|Zmax)\s*\(\"(.*)\"\)(\s*mode\s*([0-9]+))?.*
! Touchstone port assignment:
! Touchstone port 1 = CST MWS port 1 ("")
! Touchstone port 2 = CST MWS port 2 ("")
# GHz S DB R 50
0.5                    -0.127687        -122.557         -59.5897         119.601         -59.5897         119.601      -0.00675143         151.129
0.501                  -0.140258        -123.033         -59.3667          118.08         -59.3665         118.081      -0.00679637         151.063
0.502                  -0.153027         -123.51         -59.1445         116.567         -59.1441          116.57      -0.00684334         150.998
0.503                  -0.165991        -123.987         -58.9232         115.061         -58.9227         115.065      -0.00689234         150.932
0.504                  -0.179145        -124.464         -58.7028         113.561         -58.7021         113.567      -0.00694337         150.866
0.505                  -0.192485        -124.941         -58.4832         112.068         -58.4824         112.075      -0.00699642         150.801
0.506                  -0.206007        -125.417         -58.2647          110.58         -58.2637         110.588       -0.0070515         150.735
0.507                  -0.219708        -125.894          -58.047         109.096         -58.0459         109.105       -0.0071086         150.669
0.508                  -0.233583        -126.371         -57.8303         107.615         -57.8291         107.626      -0.00716773         150.603
0.509                  -0.247628        -126.848         -57.6146         106.138         -57.6132         106.149      -0.00722887         150.537
0.51                    -0.26184        -127.325         -57.3999         104.662         -57.3984         104.675      -0.00729203          150.47
0.511                  -0.276214        -127.802         -57.1861         103.189         -57.1846         103.202       -0.0073572         150.404
0.512                  -0.290747        -128.279         -56.9734         101.716         -56.9718          101.73      -0.00742437         150.338
0.513                  -0.305435        -128.757         -56.7617         100.244           -56.76         100.259      -0.00749353         150.271
0.514                  -0.320273        -129.234         -56.5511          98.772         -56.5492          98.787      -0.00756468         150.205
0.515                  -0.335258        -129.712         -56.3414         97.2992         -56.3396         97.3148      -0.00763781         150.138
0.516                  -0.350387         -130.19         -56.1329         95.8253          -56.131         95.8413      -0.00771291         150.072
0.517                  -0.365656        -130.668         -55.9254         94.3497         -55.9234         94.3661      -0.00778998         150.005
0.518                   -0.38106        -131.146          -55.719         92.8719          -55.717         92.8887      -0.00786899         149.938
0.519                  -0.396597        -131.625         -55.5137         91.3916         -55.5116         91.4086      -0.00794994         149.871
0.52                   -0.412263        -132.104         -55.3096         89.9083         -55.3074         89.9255      -0.00803283         149.804
0.521                  -0.428053        -132.583         -55.1065         88.4215         -55.1043         88.4388      -0.00811763         149.737
0.522                  -0.443966        -133.062         -54.9046         86.9308         -54.9024         86.9482      -0.00820434          149.67
0.523                  -0.459997        -133.542         -54.7039         85.4359         -54.7016         85.4534      -0.00829294         149.603
0.524                  -0.476142        -134.023         -54.5043         83.9364          -54.502         83.9538      -0.00838342         149.535
0.525                    -0.4924        -134.504         -54.3059         82.4319         -54.3036         82.4493      -0.00847578         149.468
0.526                  -0.508766        -134.985         -54.1087         80.9221         -54.1064         80.9394      -0.00856999           149.4
0.527                  -0.525237        -135.467         -53.9128         79.4067         -53.9105         79.4238      -0.00866604         149.333
0.528                  -0.541811        -135.949         -53.7182         77.8853         -53.7158         77.9023      -0.00876391         149.265
0.529                  -0.558484        -136.432         -53.5248         76.3578         -53.5224         76.3746      -0.00886361         149.197
0.53                   -0.575254        -136.916         -53.3327         74.8239         -53.3304         74.8404       -0.0089651         149.129
0.531                  -0.592117          -137.4         -53.1419         73.2833         -53.1396         73.2995      -0.00906839         149.062
0.532                  -0.609072        -137.885         -52.9525         71.7357         -52.9502         71.7516      -0.00917344         148.993
0.533                  -0.626114        -138.371         -52.7645         70.1811         -52.7622         70.1966      -0.00928026         148.925
0.534                  -0.643243        -138.857         -52.5779         68.6192         -52.5756         68.6343      -0.00938882         148.857
0.535                  -0.660455        -139.344         -52.3927         67.0498         -52.3905         67.0645      -0.00949912         148.789
0.536                  -0.677749        -139.833          -52.209         65.4728         -52.2068         65.4871      -0.00961113          148.72
0.537                  -0.695122        -140.322         -52.0268         63.8881         -52.0246         63.9019      -0.00972485         148.652
0.538                  -0.712572        -140.812         -51.8461         62.2955          -51.844         62.3089      -0.00984027         148.583
0.539                  -0.730097        -141.303          -51.667         60.6951         -51.6649         60.7079      -0.00995737         148.515
0.54                   -0.747696        -141.796         -51.4895         59.0867         -51.4874          59.099       -0.0100761         148.446
0.541                  -0.765368        -142.289         -51.3136         57.4702         -51.3115          57.482       -0.0101966         148.377
0.542                  -0.783109        -142.784         -51.1393         55.8457         -51.1374         55.8569       -0.0103186         148.308
0.543                   -0.80092         -143.28         -50.9668         54.2132         -50.9649         54.2238       -0.0104423         148.239
0.544                    -0.8188        -143.777          -50.796         52.5726         -50.7941         52.5827       -0.0105677         148.169
0.545                  -0.836746        -144.276         -50.6269          50.924         -50.6251         50.9336       -0.0106946           148.1
0.546                  -0.854759        -144.776         -50.4596         49.2676         -50.4579         49.2766       -0.0108231         148.031
0.547                  -0.872839        -145.277         -50.2942         47.6033         -50.2925         47.6117       -0.0109533         147.961
0.548                  -0.890983         -145.78         -50.1306         45.9312          -50.129         45.9391        -0.011085         147.892
0.549                  -0.909194        -146.285         -49.9688         44.2516         -49.9673         44.2588       -0.0112183         147.822
0.55                    -0.92747        -146.792          -49.809         42.5644         -49.8076         42.5712       -0.0113532         147.752
0.551                  -0.945812          -147.3         -49.6512           40.87         -49.6499         40.8762       -0.0114896         147.682
0.552                   -0.96422         -147.81         -49.4953         39.1685         -49.4941         39.1741       -0.0116276         147.612
0.553                  -0.982696        -148.322         -49.3415           37.46         -49.3403         37.4652       -0.0117672         147.542
0.554                   -1.00124        -148.836         -49.1896         35.7449         -49.1885         35.7495       -0.0119083         147.472
0.555                   -1.01985        -149.352         -49.0398         34.0233         -49.0388         34.0274       -0.0120509         147.401
0.556                   -1.03854         -149.87         -48.8921         32.2956         -48.8912         32.2992       -0.0121951         147.331
0.557                   -1.05729         -150.39         -48.7465         30.5619         -48.7457         30.5651       -0.0123408          147.26
0.558                   -1.07613        -150.913          -48.603         28.8226         -48.6022         28.8253       -0.0124881         147.189
0.559                   -1.09504        -151.438         -48.4616          27.078         -48.4609         27.0803       -0.0126369         147.118
0.56                    -1.11403        -151.966         -48.3223         25.3284         -48.3218         25.3302       -0.0127872         147.047
0.561                    -1.1331        -152.496         -48.1852         23.5741         -48.1848         23.5756       -0.0129391         146.976
0.562                   -1.15226        -153.029         -48.0502         21.8154         -48.0499         21.8166       -0.0130925         146.905
0.563                   -1.17152        -153.564         -47.9174         20.0528         -47.9172         20.0536       -0.0132475         146.834
0.564                   -1.19087        -154.102         -47.7868         18.2866         -47.7867         18.2871        -0.013404         146.762
0.565                   -1.21031        -154.644         -47.6584         16.5171         -47.6583         16.5173        -0.013562         146.691
0.566                   -1.22987        -155.188          -47.532         14.7447         -47.5321         14.7447       -0.0137216         146.619
0.567                   -1.24953        -155.735         -47.4079         12.9697          -47.408         12.9695       -0.0138828         146.547
0.568                   -1.26932        -156.286         -47.2859         11.1927         -47.2861         11.1922       -0.0140455         146.475
0.569                   -1.28922         -156.84          -47.166         9.41385         -47.1663         9.41324       -0.0142099         146.403
0.57                    -1.30926        -157.397         -47.0482         7.63362         -47.0486         7.63287       -0.0143758         146.331
0.571                   -1.32944        -157.958         -46.9325         5.85238          -46.933         5.85151       -0.0145433         146.258
0.572                   -1.34976        -158.523         -46.8189         4.07049         -46.8195         4.06952       -0.0147124         146.186
0.573                   -1.37024        -159.091         -46.7073         2.28832          -46.708         2.28728       -0.0148831         146.113
0.574                   -1.39089        -159.663         -46.5977        0.506217         -46.5985         0.50513       -0.0150555          146.04
0.575                   -1.41171        -160.239         -46.4902        -1.27546          -46.491        -1.27657       -0.0152295         145.967
0.576                   -1.43272        -160.819         -46.3846        -3.05636         -46.3855        -3.05748       -0.0154051         145.894
0.577                   -1.45392        -161.404         -46.2809        -4.83616         -46.2819        -4.83726       -0.0155825         145.821
0.578                   -1.47534        -161.992         -46.1791        -6.61455         -46.1801        -6.61561       -0.0157615         145.747
0.579                   -1.49698        -162.586         -46.0791         -8.3912         -46.0802        -8.39221       -0.0159422         145.674
0.58                    -1.51885        -163.183         -45.9809        -10.1658         -45.9821        -10.1668       -0.0161247           145.6
0.581                   -1.54098        -163.786         -45.8845        -11.9381         -45.8858         -11.939       -0.0163089         145.526
0.582                   -1.56338        -164.393         -45.7899        -13.7079         -45.7911        -13.7086       -0.0164949         145.452
0.583                   -1.58606        -165.005         -45.6968        -15.4748         -45.6982        -15.4754       -0.0166826         145.378
0.584                   -1.60904        -165.622         -45.6054        -17.2386         -45.6068        -17.2392       -0.0168722         145.304
0.585                   -1.63234        -166.245         -45.5156        -18.9992          -45.517        -18.9996       -0.0170636          145.23
0.586                   -1.65598        -166.872         -45.4273        -20.7563         -45.4287        -20.7565       -0.0172569         145.155
0.587                   -1.67998        -167.505         -45.3405        -22.5097         -45.3419        -22.5098        -0.017452          145.08
0.588                   -1.70436        -168.144         -45.2551        -24.2592         -45.2565        -24.2592       -0.0176491         145.005
0.589                   -1.72915        -168.788          -45.171        -26.0048         -45.1725        -26.0046       -0.0178481          144.93
0.59                    -1.75436        -169.439         -45.0883        -27.7462         -45.0898        -27.7458        -0.018049         144.855
0.591                   -1.78003        -170.095         -45.0069        -29.4833         -45.0084        -29.4828        -0.018252         144.779
0.592                   -1.80618        -170.757         -44.9267        -31.2161         -44.9282        -31.2154       -0.0184569         144.704
0.593                   -1.83284        -171.426         -44.8476        -32.9445         -44.8491        -32.9436        -0.018664         144.628
0.594                   -1.86003        -172.101         -44.7696        -34.6683         -44.7711        -34.6673       -0.0188731         144.552
0.595                    -1.8878        -172.782         -44.6928        -36.3875         -44.6943        -36.3864       -0.0190843         144.476
0.596                   -1.91616         -173.47         -44.6169        -38.1022         -44.6184        -38.1009       -0.0192977           144.4
0.597                   -1.94516        -174.165          -44.542        -39.8121         -44.5435        -39.8107       -0.0195132         144.323
0.598                   -1.97483        -174.866         -44.4681        -41.5174         -44.4695        -41.5159        -0.019731         144.246
0.599                   -2.00521        -175.575          -44.395        -43.2181         -44.3964        -43.2164       -0.0199511          144.17
0.6                     -2.03634         -176.29         -44.3227        -44.9141         -44.3241        -44.9123       -0.0201734         144.092
0.601                   -2.06825        -177.013         -44.2513        -46.6055         -44.2526        -46.6036       -0.0203981         144.015
0.602                   -2.10099        -177.743         -44.1806        -48.2923         -44.1819        -48.2903       -0.0206252         143.938
0.603                   -2.13461         -178.48         -44.1106        -49.9745         -44.1119        -49.9725       -0.0208547          143.86
0.604                   -2.16915        -179.225         -44.0412        -51.6523         -44.0425        -51.6502       -0.0210866         143.782
0.605                   -2.20465        -179.978         -43.9726        -53.3256         -43.9738        -53.3235       -0.0213211         143.704
0.606                   -2.24117         179.262         -43.9045        -54.9946         -43.9057        -54.9924       -0.0215581         143.626
0.607                   -2.27877         178.494          -43.837        -56.6593         -43.8381        -56.6571       -0.0217977         143.548
0.608                   -2.31748         177.719           -43.77        -58.3199         -43.7711        -58.3176         -0.02204         143.469
0.609                   -2.35738         176.935         -43.7035        -59.9763         -43.7046        -59.9741       -0.0222849          143.39
0.61                    -2.39851         176.144         -43.6375        -61.6288         -43.6385        -61.6266       -0.0225326         143.311
0.611                   -2.44095         175.344          -43.572        -63.2774         -43.5729        -63.2752       -0.0227831         143.232
0.612                   -2.48474         174.537         -43.5069        -64.9222         -43.5078        -64.9201       -0.0230364         143.152
0.613                   -2.52996         173.722         -43.4422        -66.5633         -43.4431        -66.5613       -0.0232926         143.073
0.614                   -2.57666         172.899         -43.3779        -68.2009         -43.3787        -68.1989       -0.0235518         142.993
0.615                   -2.62493         172.068          -43.314         -69.835         -43.3147        -69.8331        -0.023814         142.913
0.616                   -2.67483         171.229         -43.2504        -71.4659         -43.2511         -71.464       -0.0240793         142.832
0.617                   -2.72642         170.382         -43.1872        -73.0934         -43.1878        -73.0917       -0.0243476         142.752
0.618                    -2.7798         169.528         -43.1243        -74.7179         -43.1249        -74.7163       -0.0246192         142.671
0.619                   -2.83502         168.665         -43.0617        -76.3394         -43.0623        -76.3379        -0.024894          142.59
0.62                    -2.89218         167.796         -42.9994         -77.958              -43        -77.9567       -0.0251721         142.508
0.621                   -2.95135         166.919         -42.9375        -79.5738          -42.938        -79.5726       -0.0254536         142.427
0.622                    -3.0126         166.034         -42.8758         -81.187         -42.8763        -81.1859       -0.0257385         142.345
0.623                   -3.07603         165.143         -42.8144        -82.7976         -42.8149        -82.7967        -0.026027         142.263
0.624                   -3.14171         164.245         -42.7534        -84.4056         -42.7538        -84.4049       -0.0263189         142.181
0.625                   -3.20973          163.34         -42.6926        -86.0113         -42.6929        -86.0108       -0.0266146         142.098
0.626                   -3.28018         162.429         -42.6321        -87.6147         -42.6324        -87.6143       -0.0269139         142.015
0.627                   -3.35315         161.512          -42.572        -89.2158         -42.5722        -89.2157       -0.0272171         141.932
0.628                   -3.42871          160.59         -42.5121        -90.8148         -42.5123        -90.8148       -0.0275241         141.849
0.629                   -3.50697         159.662         -42.4525        -92.4117         -42.4527        -92.4118        -0.027835         141.765
