! TOUCHSTONE file generated by CST MICROWAVE STUDIO
! Date and time: Wed Oct 28 19:39:33 2020
! Project name: Scenario_1_Circular_Tissue_out_of_Line_v2.cst
! Parameters = {dy1=190.3; L_HA=400; MT=2.54; Rad_Dielectric=30; Rad_Lower=7.3; Rad_Upper=30; a_HA=580; a_WG=246; b_HA=500; b_WG=121; c_HA=0; c_WG=187; d_feed=85; dx1=346; h_feed=15; h_lower=18; h_upper=40}
! Header version: 2018
! Port assignment regex: !\s*Touchstone port\s*([0-9]+)\s*=\s*(CST MWS port|CST DS port)\s*([0-9]+|Zmin|Zmax)\s*\(\"(.*)\"\)(\s*mode\s*([0-9]+))?.*
! Touchstone port assignment:
! Touchstone port 1 = CST MWS port 1 ("")
! Touchstone port 2 = CST MWS port 2 ("")
# GHz S DB R 50
0.5                    -0.160259        -122.261         -59.7146          13.159         -59.7146          13.159      -0.00807386         151.141
0.501                   -0.16235        -122.703         -59.6201         11.7503           -59.62         11.7502      -0.00813577         151.076
0.502                  -0.164662        -123.147         -59.5237         10.3378         -59.5237         10.3376      -0.00819804         151.011
0.503                    -0.1672        -123.593         -59.4256         8.92156         -59.4255         8.92124      -0.00826071         150.946
0.504                  -0.169967        -124.042         -59.3257         7.50169         -59.3256         7.50128      -0.00832377          150.88
0.505                  -0.172968        -124.493          -59.224          6.0783         -59.2239         6.07781      -0.00838724         150.815
0.506                  -0.176209        -124.947         -59.1206         4.65149         -59.1204         4.65092      -0.00845112         150.749
0.507                  -0.179693        -125.403         -59.0155         3.22134         -59.0153          3.2207      -0.00851543         150.684
0.508                  -0.183425        -125.862         -58.9087         1.78793         -58.9085         1.78724      -0.00858017         150.618
0.509                  -0.187411        -126.323         -58.8002        0.351343            -58.8        0.350592      -0.00864536         150.552
0.51                   -0.191656        -126.786         -58.6901        -1.08836         -58.6898        -1.08916      -0.00871101         150.487
0.511                  -0.196163        -127.252         -58.5784        -2.53114         -58.5781        -2.53198      -0.00877713         150.421
0.512                   -0.20094        -127.721         -58.4651        -3.97692         -58.4648         -3.9778      -0.00884373         150.355
0.513                   -0.20599        -128.191         -58.3502        -5.42569         -58.3499         -5.4266      -0.00891082         150.289
0.514                  -0.211318        -128.665         -58.2339         -6.8774         -58.2335        -6.87833      -0.00897841         150.222
0.515                  -0.216931        -129.141          -58.116        -8.33203         -58.1156        -8.33299      -0.00904652         150.156
0.516                  -0.222834        -129.619         -57.9967        -9.78958         -57.9963        -9.79055      -0.00911516          150.09
0.517                  -0.229032          -130.1          -57.876          -11.25         -57.8756         -11.251      -0.00918434         150.023
0.518                   -0.23553        -130.583         -57.7538        -12.7134         -57.7534        -12.7144      -0.00925408         149.957
0.519                  -0.242335        -131.069         -57.6304        -14.1797         -57.6299        -14.1807      -0.00932438          149.89
0.52                   -0.249451        -131.557         -57.5056        -15.6489         -57.5051        -15.6499      -0.00939526         149.824
0.521                  -0.256885        -132.048         -57.3795        -17.1211          -57.379         -17.122      -0.00946673         149.757
0.522                  -0.264643        -132.542         -57.2522        -18.5962         -57.2517        -18.5972      -0.00953881          149.69
0.523                  -0.272729        -133.038         -57.1236        -20.0745         -57.1231        -20.0754      -0.00961151         149.623
0.524                  -0.281151        -133.536         -56.9939        -21.5558         -56.9934        -21.5567      -0.00968485         149.556
0.525                  -0.289915        -134.037         -56.8631        -23.0402         -56.8626        -23.0411      -0.00975884         149.489
0.526                  -0.299026         -134.54         -56.7311        -24.5279         -56.7306        -24.5288       -0.0098335         149.422
0.527                   -0.30849        -135.046         -56.5981        -26.0188         -56.5976        -26.0197      -0.00990883         149.355
0.528                  -0.318315        -135.555         -56.4641        -27.5131         -56.4636        -27.5139      -0.00998487         149.287
0.529                  -0.328505        -136.066         -56.3292        -29.0107         -56.3287        -29.0116       -0.0100616          149.22
0.53                   -0.339068         -136.58         -56.1932        -30.5119         -56.1927        -30.5127       -0.0101391         149.152
0.531                   -0.35001        -137.096         -56.0564        -32.0167         -56.0559        -32.0175       -0.0102173         149.084
0.532                  -0.361338        -137.614         -55.9188        -33.5252         -55.9183        -33.5259       -0.0102963         149.017
0.533                  -0.373057        -138.135         -55.7803        -35.0374         -55.7798        -35.0381       -0.0103761         148.949
0.534                  -0.385176        -138.659         -55.6411        -36.5536         -55.6406        -36.5542       -0.0104566         148.881
0.535                  -0.397699        -139.185         -55.5011        -38.0737         -55.5006        -38.0743        -0.010538         148.813
0.536                  -0.410635        -139.714         -55.3605        -39.5978           -55.36        -39.5984       -0.0106202         148.744
0.537                   -0.42399        -140.245         -55.2192        -41.1262         -55.2187        -41.1267       -0.0107033         148.676
0.538                  -0.437771        -140.778         -55.0774        -42.6589         -55.0769        -42.6594       -0.0107872         148.608
0.539                  -0.451985        -141.314          -54.935         -44.196         -54.9345        -44.1964       -0.0108721         148.539
0.54                   -0.466638        -141.853         -54.7921        -45.7376         -54.7916        -45.7379       -0.0109578         148.471
0.541                  -0.481738        -142.393         -54.6487        -47.2838         -54.6482        -47.2841       -0.0110445         148.402
0.542                  -0.497292        -142.937         -54.5049        -48.8347         -54.5044         -48.835       -0.0111321         148.333
0.543                  -0.513307        -143.482         -54.3608        -50.3904         -54.3603        -50.3907       -0.0112207         148.264
0.544                  -0.529791        -144.031         -54.2163        -51.9511         -54.2158        -51.9513       -0.0113103         148.195
0.545                   -0.54675        -144.581         -54.0716        -53.5168         -54.0711         -53.517       -0.0114009         148.126
0.546                  -0.564191        -145.134         -53.9266        -55.0877         -53.9261        -55.0878       -0.0114926         148.057
0.547                  -0.582122        -145.689         -53.7814        -56.6637          -53.781        -56.6638       -0.0115853         147.987
0.548                  -0.600551        -146.247         -53.6361        -58.2451         -53.6357        -58.2451       -0.0116791         147.918
0.549                  -0.619484        -146.807         -53.4908        -59.8319         -53.4904        -59.8318        -0.011774         147.848
0.55                   -0.638929        -147.369         -53.3454        -61.4241          -53.345         -61.424       -0.0118701         147.779
0.551                  -0.658894        -147.934            -53.2        -63.0219         -53.1996        -63.0217       -0.0119673         147.709
0.552                  -0.679385          -148.5         -53.0546        -64.6253         -53.0542        -64.6251       -0.0120657         147.639
0.553                   -0.70041        -149.069         -52.9094        -66.2344          -52.909        -66.2341       -0.0121653         147.569
0.554                  -0.721976        -149.641         -52.7643        -67.8491          -52.764        -67.8488       -0.0122662         147.499
0.555                  -0.744091        -150.214         -52.6194        -69.4697         -52.6191        -69.4693       -0.0123683         147.428
0.556                  -0.766763        -150.789         -52.4748         -71.096         -52.4745        -71.0956       -0.0124717         147.358
0.557                  -0.789997        -151.367         -52.3305        -72.7282         -52.3302        -72.7277       -0.0125764         147.287
0.558                  -0.813802        -151.947         -52.1865        -74.3662         -52.1862        -74.3656       -0.0126825         147.217
0.559                  -0.838185        -152.528         -52.0429          -76.01         -52.0426        -76.0094         -0.01279         147.146
0.56                   -0.863153        -153.112         -51.8998        -77.6597         -51.8995         -77.659       -0.0128988         147.075
0.561                  -0.888714        -153.698         -51.7572        -79.3151         -51.7569        -79.3144       -0.0130091         147.004
0.562                  -0.914873        -154.286          -51.615        -80.9764         -51.6148        -80.9756       -0.0131209         146.933
0.563                  -0.941638        -154.875         -51.4735        -82.6434         -51.4733        -82.6426       -0.0132342         146.862
0.564                  -0.969017        -155.466         -51.3326         -84.316         -51.3324        -84.3152        -0.013349          146.79
0.565                  -0.997015         -156.06         -51.1924        -85.9943         -51.1922        -85.9934       -0.0134653         146.718
0.566                   -1.02564        -156.655         -51.0529        -87.6782         -51.0527        -87.6772       -0.0135833         146.647
0.567                    -1.0549        -157.251         -50.9141        -89.3675         -50.9139        -89.3665       -0.0137029         146.575
0.568                   -1.08479         -157.85         -50.7762        -91.0621          -50.776        -91.0611       -0.0138241         146.503
0.569                   -1.11533         -158.45         -50.6391         -92.762         -50.6389        -92.7609       -0.0139471         146.431
0.57                    -1.14653        -159.051         -50.5029         -94.467         -50.5027        -94.4659       -0.0140717         146.359
0.571                   -1.17838        -159.654         -50.3676         -96.177         -50.3674        -96.1758       -0.0141982         146.286
0.572                   -1.21089        -160.259         -50.2333        -97.8917         -50.2331        -97.8905       -0.0143264         146.214
0.573                   -1.24407        -160.865         -50.0999        -99.6111         -50.0998        -99.6099       -0.0144565         146.141
0.574                   -1.27792        -161.472         -49.9676        -101.335         -49.9675        -101.334       -0.0145885         146.068
0.575                   -1.31244         -162.08         -49.8364        -103.063         -49.8362        -103.062       -0.0147223         145.995
0.576                   -1.34765         -162.69         -49.7062        -104.795         -49.7061        -104.794       -0.0148582         145.922
0.577                   -1.38355        -163.301         -49.5771        -106.531          -49.577         -106.53        -0.014996         145.849
0.578                   -1.42013        -163.913         -49.4492        -108.271         -49.4491         -108.27       -0.0151358         145.775
0.579                    -1.4574        -164.526         -49.3225        -110.014         -49.3224        -110.013       -0.0152777         145.702
0.58                    -1.49537        -165.139          -49.197        -111.761         -49.1969        -111.759       -0.0154217         145.628
0.581                   -1.53403        -165.754         -49.0726         -113.51         -49.0725        -113.508       -0.0155679         145.554
0.582                   -1.57339        -166.369         -48.9495        -115.262         -48.9494         -115.26       -0.0157162          145.48
0.583                   -1.61345        -166.986         -48.8276        -117.016         -48.8275        -117.014       -0.0158668         145.406
0.584                    -1.6542        -167.602          -48.707        -118.773         -48.7069        -118.771       -0.0160196         145.331
0.585                   -1.69566        -168.219         -48.5876        -120.531         -48.5875        -120.529       -0.0161747         145.257
0.586                   -1.73781        -168.837         -48.4695        -122.291         -48.4694        -122.289       -0.0163322         145.182
0.587                   -1.78065        -169.455         -48.3526        -124.052         -48.3526         -124.05        -0.016492         145.107
0.588                   -1.82418        -170.073         -48.2371        -125.814          -48.237        -125.813       -0.0166543         145.032
0.589                   -1.86841        -170.692         -48.1227        -127.578         -48.1227        -127.576        -0.016819         144.957
0.59                    -1.91331         -171.31         -48.0097        -129.341         -48.0096        -129.339       -0.0169862         144.882
0.591                   -1.95889        -171.929         -47.8979        -131.105         -47.8978        -131.103       -0.0171559         144.806
0.592                   -2.00514        -172.547         -47.7873        -132.869         -47.7872        -132.867       -0.0173282          144.73
0.593                   -2.05206        -173.166          -47.678        -134.632         -47.6779         -134.63       -0.0175032         144.655
0.594                   -2.09962        -173.784         -47.5699        -136.395         -47.5698        -136.393       -0.0176807         144.578
0.595                   -2.14783        -174.402         -47.4629        -138.157         -47.4629        -138.155        -0.017861         144.502
0.596                   -2.19667        -175.019         -47.3572        -139.918         -47.3571        -139.916       -0.0180439         144.426
0.597                   -2.24612        -175.636         -47.2526        -141.678         -47.2525        -141.676       -0.0182296         144.349
0.598                   -2.29618        -176.253         -47.1491        -143.436         -47.1491        -143.434       -0.0184181         144.272
0.599                   -2.34682        -176.868         -47.0468        -145.192         -47.0467         -145.19       -0.0186094         144.195
0.6                     -2.39803        -177.484         -46.9455        -146.946         -46.9454        -146.945       -0.0188035         144.118
0.601                   -2.44979        -178.098         -46.8453        -148.698         -46.8452        -148.697       -0.0190005         144.041
0.602                   -2.50208        -178.712          -46.746        -150.448          -46.746        -150.446       -0.0192004         143.963
0.603                   -2.55488        -179.325         -46.6478        -152.195         -46.6477        -152.193       -0.0194032         143.886
0.604                   -2.60816        -179.937         -46.5505        -153.939         -46.5504        -153.938       -0.0196089         143.808
0.605                   -2.66191         179.451         -46.4541        -155.681          -46.454        -155.679       -0.0198176         143.729
0.606                   -2.71608          178.84         -46.3586        -157.419         -46.3585        -157.417       -0.0200293         143.651
0.607                   -2.77065         178.231         -46.2639        -159.154         -46.2638        -159.153       -0.0202439         143.573
0.608                   -2.82561         177.621           -46.17        -160.886           -46.17        -160.884       -0.0204616         143.494
0.609                    -2.8809         177.013         -46.0769        -162.614         -46.0768        -162.613       -0.0206823         143.415
0.61                    -2.93651         176.405         -45.9845        -164.339         -45.9844        -164.338       -0.0209061         143.336
0.611                    -2.9924         175.797         -45.8927        -166.061         -45.8927        -166.059       -0.0211329         143.256
0.612                   -3.04854          175.19         -45.8016        -167.779         -45.8015        -167.777       -0.0213627         143.177
0.613                    -3.1049         174.583         -45.7111        -169.493          -45.711        -169.492       -0.0215956         143.097
0.614                   -3.16144         173.975         -45.6211        -171.204          -45.621        -171.202       -0.0218317         143.017
0.615                   -3.21813         173.368         -45.5316         -172.91         -45.5316        -172.909       -0.0220708         142.936
0.616                   -3.27494          172.76         -45.4426        -174.614         -45.4426        -174.612        -0.022313         142.856
0.617                   -3.33184         172.151         -45.3541        -176.313          -45.354        -176.312       -0.0225583         142.775
0.618                   -3.38881         171.541         -45.2659        -178.009         -45.2658        -178.008       -0.0228067         142.694
0.619                    -3.4458          170.93         -45.1781        -179.701          -45.178          -179.7       -0.0230582         142.613
0.62                    -3.50282         170.317         -45.0905          178.61         -45.0905         178.611       -0.0233129         142.532
0.621                   -3.55983         169.702         -45.0033         176.925         -45.0032         176.925       -0.0235708          142.45
0.622                   -3.61682         169.084         -44.9163         175.243         -44.9162         175.244       -0.0238318         142.368
0.623                   -3.67379         168.462         -44.8295         173.564         -44.8294         173.565        -0.024096         142.286
0.624                   -3.73072         167.837         -44.7428         171.889         -44.7428         171.889       -0.0243635         142.203
0.625                   -3.78763         167.208         -44.6563         170.216         -44.6563         170.217       -0.0246342         142.121
0.626                   -3.84453         166.573           -44.57         168.547         -44.5699         168.548       -0.0249082         142.038
0.627                   -3.90144         165.934         -44.4836         166.881         -44.4836         166.881       -0.0251854         141.955
0.628                   -3.95838         165.288         -44.3974         165.217         -44.3973         165.218       -0.0254661         141.871
0.629                   -4.01539         164.635         -44.3111         163.556         -44.3111         163.556       -0.0257502         141.788
