! TOUCHSTONE file generated by CST MICROWAVE STUDIO
! Date and time: Fri Oct 30 08:07:43 2020
! Project name: Scenario_1_Circular_Tissue_out_of_Line.cst
! Parameters = {dy1=191.571; L_HA=400; MT=2.54; Rad_Dielectric=30; Rad_Lower=7.3; Rad_Upper=30; a_HA=580; a_WG=246; b_HA=500; b_WG=121; c_HA=0; c_WG=187; d_feed=85; dx1=520; h_feed=15; h_lower=18; h_upper=40}
! Header version: 2018
! Port assignment regex: !\s*Touchstone port\s*([0-9]+)\s*=\s*(CST MWS port|CST DS port)\s*([0-9]+|Zmin|Zmax)\s*\(\"(.*)\"\)(\s*mode\s*([0-9]+))?.*
! Touchstone port assignment:
! Touchstone port 1 = CST MWS port 1 ("")
! Touchstone port 2 = CST MWS port 2 ("")
# GHz S DB R 50
0.5                    -0.137182        -122.368         -62.2557        -70.9038         -62.2552        -70.9008      -0.00726749         151.134
0.501                  -0.145331        -122.823         -62.0534        -72.1911         -62.0534        -72.1855      -0.00737747         151.068
0.502                    -0.1537        -123.278         -61.8494        -73.5107         -61.8498        -73.5026      -0.00749183         151.003
0.503                  -0.162285        -123.735         -61.6439        -74.8631         -61.6447        -74.8526      -0.00761094         150.937
0.504                  -0.171085        -124.193         -61.4369        -76.2486          -61.438        -76.2357      -0.00773494         150.872
0.505                  -0.180098        -124.651         -61.2287        -77.6674         -61.2301        -77.6522      -0.00786344         150.806
0.506                  -0.189322        -125.111         -61.0195        -79.1196         -61.0211        -79.1023      -0.00799473          150.74
0.507                  -0.198756        -125.571         -60.8094        -80.6054         -60.8112        -80.5861      -0.00812446         150.673
0.508                  -0.208396        -126.033         -60.5987        -82.1248         -60.6007        -82.1037      -0.00824312         150.607
0.509                  -0.218242        -126.495         -60.3875        -83.6778         -60.3896         -83.655      -0.00833304          150.54
0.51                   -0.228289        -126.959          -60.176        -85.2643         -60.1782          -85.24      -0.00836795         150.473
0.511                  -0.238538        -127.423         -59.9645        -86.8843         -59.9667        -86.8585      -0.00832459         150.406
0.512                  -0.248983        -127.889         -59.7531        -88.5374         -59.7554        -88.5104      -0.00821011         150.339
0.513                  -0.259625        -128.355         -59.5421        -90.2234         -59.5444        -90.1954      -0.00807573         150.273
0.514                  -0.270458        -128.822         -59.3317         -91.942         -59.3339         -91.913      -0.00798135         150.207
0.515                  -0.281482        -129.291         -59.1221        -93.6925         -59.1242        -93.6629      -0.00795261         150.142
0.516                  -0.292694         -129.76         -58.9135        -95.4745         -58.9155        -95.4444      -0.00798187         150.076
0.517                   -0.30409        -130.231         -58.7061        -97.2873          -58.708        -97.2568      -0.00805055          150.01
0.518                  -0.315668        -130.702         -58.5001        -99.1302         -58.5019        -99.0996      -0.00814262         149.944
0.519                  -0.327425        -131.175         -58.2958        -101.002         -58.2975        -100.972       -0.0082475         149.878
0.52                   -0.339358        -131.648         -58.0933        -102.903         -58.0948        -102.873      -0.00835897         149.812
0.521                  -0.351464        -132.123         -57.8928        -104.831         -57.8942        -104.801      -0.00847358         149.745
0.522                   -0.36374        -132.599         -57.6945        -106.785         -57.6958        -106.755      -0.00858945         149.679
0.523                  -0.376184        -133.076         -57.4986        -108.764         -57.4998        -108.735      -0.00870564         149.612
0.524                  -0.388792        -133.554         -57.3053        -110.767         -57.3063        -110.739      -0.00882166         149.545
0.525                  -0.401561        -134.033         -57.1147        -112.793         -57.1155        -112.766      -0.00893733         149.478
0.526                  -0.414488        -134.514         -56.9269         -114.84         -56.9276        -114.814      -0.00905257         149.411
0.527                  -0.427571        -134.996         -56.7422        -116.907         -56.7427        -116.882      -0.00916742         149.344
0.528                  -0.440806        -135.479         -56.5605        -118.991         -56.5609        -118.968      -0.00928192         149.277
0.529                   -0.45419        -135.963         -56.3821        -121.093         -56.3823        -121.071      -0.00939615         149.209
0.53                   -0.467721        -136.449         -56.2069         -123.21         -56.2071        -123.189      -0.00951018         149.142
0.531                  -0.481395        -136.936         -56.0351         -125.34         -56.0351        -125.321      -0.00962409         149.074
0.532                  -0.495211        -137.425         -55.8666        -127.482         -55.8666        -127.465      -0.00973794         149.007
0.533                  -0.509164        -137.915         -55.7017        -129.635         -55.7016        -129.619       -0.0098518         148.939
0.534                  -0.523253        -138.406         -55.5401        -131.796           -55.54        -131.782      -0.00996573         148.871
0.535                  -0.537475        -138.899         -55.3821        -133.965         -55.3818        -133.952       -0.0100798         148.803
0.536                  -0.551828        -139.394         -55.2274        -136.139         -55.2272        -136.128        -0.010194         148.735
0.537                   -0.56631        -139.891         -55.0762        -138.317         -55.0759        -138.308       -0.0103084         148.667
0.538                  -0.580918        -140.389         -54.9284        -140.499          -54.928         -140.49       -0.0104231         148.598
0.539                  -0.595652        -140.889         -54.7838        -142.681         -54.7835        -142.674       -0.0105381          148.53
0.54                   -0.610508         -141.39         -54.6424        -144.863         -54.6421        -144.858       -0.0106534         148.462
0.541                  -0.625487        -141.894         -54.5042        -147.044         -54.5039        -147.041        -0.010769         148.393
0.542                  -0.640586          -142.4         -54.3691        -149.223         -54.3688         -149.22        -0.010885         148.324
0.543                  -0.655806        -142.908         -54.2369        -151.398         -54.2366        -151.397       -0.0110014         148.256
0.544                  -0.671145        -143.418         -54.1074        -153.568         -54.1072        -153.568       -0.0111182         148.187
0.545                  -0.686605         -143.93         -53.9807        -155.733         -53.9806        -155.734       -0.0112354         148.118
0.546                  -0.702184        -144.444         -53.8566        -157.891         -53.8565        -157.894       -0.0113531         148.049
0.547                  -0.717885        -144.961         -53.7349        -160.043         -53.7348        -160.046       -0.0114713          147.98
0.548                  -0.733707         -145.48         -53.6155        -162.186         -53.6155         -162.19         -0.01159          147.91
0.549                  -0.749654        -146.002         -53.4982        -164.321         -53.4983        -164.326       -0.0117092         147.841
0.55                   -0.765727        -146.527          -53.383        -166.447         -53.3831        -166.452       -0.0118289         147.771
0.551                   -0.78193        -147.054         -53.2697        -168.564         -53.2699        -168.569       -0.0119492         147.702
0.552                  -0.798266        -147.584         -53.1581        -170.671         -53.1583        -170.677       -0.0120701         147.632
0.553                  -0.814739        -148.117         -53.0482        -172.768         -53.0484        -172.774       -0.0121916         147.562
0.554                  -0.831355        -148.654         -52.9397        -174.855           -52.94        -174.862       -0.0123137         147.492
0.555                   -0.84812        -149.193         -52.8325        -176.931         -52.8329        -176.938       -0.0124364         147.422
0.556                   -0.86504        -149.736         -52.7266        -178.997          -52.727        -179.005       -0.0125598         147.352
0.557                  -0.882123        -150.282         -52.6218         178.947         -52.6222         178.939       -0.0126838         147.282
0.558                  -0.899378        -150.831         -52.5179         176.901         -52.5184         176.893       -0.0128086         147.211
0.559                  -0.916815        -151.385         -52.4149         174.865         -52.4155         174.858       -0.0129341         147.141
0.56                   -0.934445        -151.942         -52.3127          172.84         -52.3133         172.832       -0.0130603          147.07
0.561                  -0.952279        -152.503         -52.2112         170.824         -52.2117         170.817       -0.0131873         146.999
0.562                  -0.970332        -153.068         -52.1102         168.818         -52.1108         168.811       -0.0133151         146.928
0.563                  -0.988618        -153.637         -52.0096         166.821         -52.0102         166.814       -0.0134437         146.857
0.564                   -1.00715        -154.211         -51.9095         164.833         -51.9101         164.826       -0.0135732         146.786
0.565                   -1.02595        -154.789         -51.8097         162.854         -51.8103         162.847       -0.0137036         146.715
0.566                   -1.04504        -155.372         -51.7101         160.884         -51.7107         160.877       -0.0138349         146.643
0.567                   -1.06444        -155.959         -51.6107         158.921         -51.6113         158.914       -0.0139671         146.572
0.568                   -1.08416        -156.551         -51.5113         156.965          -51.512         156.959       -0.0141003           146.5
0.569                   -1.10424        -157.149         -51.4121         155.017         -51.4127         155.012       -0.0142345         146.428
0.57                     -1.1247        -157.751         -51.3129         153.076         -51.3134         153.071       -0.0143698         146.356
0.571                   -1.14557        -158.358         -51.2136         151.141         -51.2141         151.136       -0.0145062         146.284
0.572                   -1.16687        -158.971         -51.1142         149.212         -51.1148         149.208       -0.0146437         146.212
0.573                   -1.18864         -159.59         -51.0147         147.289         -51.0153         147.285       -0.0147823          146.14
0.574                   -1.21092        -160.214         -50.9151         145.371         -50.9156         145.367       -0.0149222         146.067
0.575                   -1.23374        -160.843         -50.8154         143.457         -50.8158         143.453       -0.0150633         145.995
0.576                   -1.25713        -161.478         -50.7154         141.548         -50.7159         141.544       -0.0152058         145.922
0.577                   -1.28115         -162.12         -50.6153         139.642         -50.6157         139.639       -0.0153495         145.849
0.578                   -1.30582        -162.767         -50.5149          137.74         -50.5153         137.737       -0.0154947         145.776
0.579                    -1.3312         -163.42         -50.4144         135.841         -50.4147         135.838       -0.0156413         145.703
0.58                    -1.35732        -164.079         -50.3136         133.944         -50.3139         133.942       -0.0157894         145.629
0.581                   -1.38425        -164.745         -50.2126          132.05         -50.2129         132.048        -0.015939         145.556
0.582                   -1.41202        -165.416         -50.1114         130.158         -50.1116         130.156       -0.0160902         145.482
0.583                    -1.4407        -166.093           -50.01         128.267         -50.0102         128.265       -0.0162431         145.408
0.584                   -1.47032        -166.777         -49.9085         126.377         -49.9086         126.375       -0.0163977         145.334
0.585                   -1.50095        -167.466         -49.8067         124.487         -49.8068         124.486        -0.016554          145.26
0.586                   -1.53265        -168.162         -49.7048         122.599         -49.7049         122.597       -0.0167121         145.186
0.587                   -1.56546        -168.863         -49.6028          120.71         -49.6028         120.709       -0.0168721         145.111
0.588                   -1.59946         -169.57         -49.5006         118.821         -49.5006          118.82        -0.017034         145.036
0.589                   -1.63468        -170.282         -49.3984         116.931         -49.3983         116.931       -0.0171979         144.962
0.59                     -1.6712            -171         -49.2961         115.041          -49.296         115.041       -0.0173638         144.887
0.591                   -1.70907        -171.723         -49.1938          113.15         -49.1937          113.15       -0.0175318         144.811
0.592                   -1.74834        -172.452         -49.0915         111.257         -49.0913         111.257        -0.017702         144.736
0.593                   -1.78907        -173.184         -48.9892         109.363          -48.989         109.363       -0.0178744         144.661
0.594                   -1.83133        -173.922          -48.887         107.468         -48.8868         107.468       -0.0180491         144.585
0.595                   -1.87515        -174.663          -48.785          105.57         -48.7847          105.57       -0.0182261         144.509
0.596                   -1.92059        -175.408          -48.683          103.67         -48.6828          103.67       -0.0184055         144.433
0.597                   -1.96769        -176.156         -48.5813         101.769          -48.581         101.769       -0.0185874         144.357
0.598                   -2.01651        -176.908         -48.4798         99.8644         -48.4795         99.8646       -0.0187717          144.28
0.599                   -2.06707        -177.662         -48.3785         97.9579         -48.3782         97.9582       -0.0189587         144.204
0.6                     -2.11942        -178.417         -48.2776          96.049         -48.2773         96.0492       -0.0191483         144.127
0.601                   -2.17358        -179.175          -48.177         94.1375         -48.1767         94.1378       -0.0193406          144.05
0.602                   -2.22959        -179.933         -48.0769         92.2234         -48.0765         92.2237       -0.0195356         143.973
0.603                   -2.28745         179.308         -47.9771         90.3068         -47.9768         90.3071       -0.0197334         143.896
0.604                    -2.3472         178.549         -47.8779         88.3876         -47.8775         88.3879       -0.0199341         143.818
0.605                   -2.40882         177.791         -47.7791         86.4658         -47.7788         86.4662       -0.0201378          143.74
0.606                   -2.47233         177.034          -47.681         84.5416         -47.6806          84.542       -0.0203444         143.662
0.607                   -2.53773         176.279         -47.5834          82.615         -47.5831         82.6153        -0.020554         143.584
0.608                   -2.60498         175.526         -47.4865          80.686         -47.4861         80.6863       -0.0207667         143.506
0.609                   -2.67409         174.776         -47.3902         78.7548         -47.3899         78.7551       -0.0209826         143.427
0.61                    -2.74503         174.029         -47.2947         76.8215         -47.2944         76.8219       -0.0212017         143.349
0.611                   -2.81775         173.287         -47.1999         74.8862         -47.1996         74.8866        -0.021424          143.27
0.612                   -2.89223         172.549         -47.1059         72.9492         -47.1056         72.9496       -0.0216496         143.191
0.613                   -2.96841         171.816         -47.0127         71.0106         -47.0125          71.011       -0.0218785         143.111
0.614                   -3.04625         171.088         -46.9204         69.0706         -46.9202         69.0711       -0.0221109         143.032
0.615                   -3.12569         170.366         -46.8289         67.1295         -46.8287         67.1299       -0.0223466         142.952
0.616                   -3.20667         169.651         -46.7384         65.1874         -46.7382         65.1879       -0.0225859         142.872
0.617                   -3.28912         168.943         -46.6487         63.2446         -46.6486         63.2451       -0.0228287         142.791
0.618                   -3.37297         168.241           -46.56         61.3015         -46.5599          61.302       -0.0230751         142.711
0.619                   -3.45814         167.547         -46.4723         59.3581         -46.4722         59.3587       -0.0233251          142.63
0.62                    -3.54456          166.86         -46.3855         57.4149         -46.3854         57.4155       -0.0235788         142.549
0.621                   -3.63216         166.182         -46.2997         55.4721         -46.2996         55.4727       -0.0238363         142.468
0.622                   -3.72084         165.511         -46.2149           53.53         -46.2148         53.5307       -0.0240975         142.387
0.623                   -3.81052         164.849         -46.1311         51.5889          -46.131         51.5896       -0.0243625         142.305
0.624                   -3.90113         164.194         -46.0482         49.6492         -46.0482         49.6499       -0.0246313         142.223
0.625                   -3.99258         163.548         -45.9664         47.7111         -45.9664         47.7119       -0.0249041         142.141
0.626                   -4.08479          162.91         -45.8855         45.7749         -45.8855         45.7758       -0.0251808         142.059
0.627                   -4.17768          162.28         -45.8056          43.841         -45.8057         43.8419       -0.0254615         141.976
0.628                   -4.27116         161.658         -45.7267         41.9096         -45.7268         41.9106       -0.0257462         141.893
0.629                   -4.36518         161.044         -45.6487         39.9811         -45.6488         39.9821        -0.026035          141.81
