! TOUCHSTONE file generated by CST MICROWAVE STUDIO
! Date and time: Wed Oct 28 19:19:35 2020
! Project name: Scenario_1_Circular_Tissue_out_of_Line.cst
! Parameters = {dy1=191.571; L_HA=400; MT=2.54; Rad_Dielectric=30; Rad_Lower=7.3; Rad_Upper=30; a_HA=580; a_WG=246; b_HA=500; b_WG=121; c_HA=0; c_WG=187; d_feed=85; dx1=693; h_feed=15; h_lower=18; h_upper=40}
! Header version: 2018
! Port assignment regex: !\s*Touchstone port\s*([0-9]+)\s*=\s*(CST MWS port|CST DS port)\s*([0-9]+|Zmin|Zmax)\s*\(\"(.*)\"\)(\s*mode\s*([0-9]+))?.*
! Touchstone port assignment:
! Touchstone port 1 = CST MWS port 1 ("")
! Touchstone port 2 = CST MWS port 2 ("")
# GHz S DB R 50
0.5                    -0.151381        -122.288         -62.6805        -174.713         -62.6805        -174.713      -0.00769628         151.114
0.501                  -0.155004         -122.73         -62.5621         -176.41         -62.5619        -176.411      -0.00776527         151.049
0.502                  -0.158822        -123.174         -62.4418        -178.115         -62.4413        -178.117      -0.00783328         150.984
0.503                  -0.162839        -123.621         -62.3196        -179.827         -62.3189        -179.829      -0.00790043         150.918
0.504                  -0.167061         -124.07         -62.1956         178.454         -62.1946          178.45      -0.00796681         150.853
0.505                  -0.171493        -124.521         -62.0697         176.727         -62.0685         176.723      -0.00803253         150.787
0.506                  -0.176143        -124.975         -61.9419         174.993         -61.9406         174.988       -0.0080977         150.722
0.507                  -0.181014        -125.432         -61.8124         173.251         -61.8109         173.246      -0.00816242         150.656
0.508                  -0.186114        -125.891         -61.6811         171.502         -61.6794         171.496       -0.0082268         150.591
0.509                   -0.19145        -126.352         -61.5481         169.745         -61.5462         169.739      -0.00829094         150.525
0.51                   -0.197026        -126.816         -61.4134         167.981         -61.4114         167.975      -0.00835495         150.459
0.511                  -0.202851        -127.283          -61.277          166.21         -61.2748         166.203      -0.00841893         150.393
0.512                  -0.208931        -127.752         -61.1389          164.43         -61.1367         164.423      -0.00848297         150.327
0.513                  -0.215273        -128.224         -60.9993         162.643         -60.9969         162.636      -0.00854717         150.261
0.514                  -0.221885        -128.698          -60.858         160.848         -60.8556          160.84      -0.00861162         150.195
0.515                  -0.228774        -129.175         -60.7153         159.046         -60.7128         159.037      -0.00867641         150.128
0.516                  -0.235947        -129.655          -60.571         157.235         -60.5685         157.227      -0.00874163         150.062
0.517                  -0.243414        -130.137         -60.4253         155.416         -60.4227         155.407      -0.00880735         149.995
0.518                  -0.251181        -130.622         -60.2782         153.589         -60.2756          153.58      -0.00887366         149.929
0.519                  -0.259258         -131.11         -60.1298         151.754         -60.1271         151.745      -0.00894063         149.862
0.52                   -0.267652          -131.6           -59.98          149.91         -59.9773         149.901      -0.00900832         149.795
0.521                  -0.276373        -132.093          -59.829         148.057         -59.8263         148.049      -0.00907682         149.729
0.522                   -0.28543        -132.588         -59.6767         146.196          -59.674         146.187      -0.00914617         149.662
0.523                  -0.294832        -133.086         -59.5233         144.326         -59.5206         144.318      -0.00921644         149.595
0.524                  -0.304588        -133.587         -59.3688         142.447         -59.3661         142.439      -0.00928768         149.528
0.525                  -0.314708        -134.091         -59.2132          140.56         -59.2106         140.551      -0.00935996          149.46
0.526                  -0.325202        -134.597         -59.0567         138.662          -59.054         138.654      -0.00943331         149.393
0.527                   -0.33608        -135.105         -58.8992         136.756         -58.8966         136.747      -0.00950779         149.326
0.528                  -0.347351        -135.616         -58.7408          134.84         -58.7383         134.831      -0.00958343         149.258
0.529                  -0.359027         -136.13         -58.5816         132.914         -58.5791         132.906      -0.00966029          149.19
0.53                   -0.371117        -136.647         -58.4217         130.978         -58.4193         130.971      -0.00973839         149.123
0.531                  -0.383632        -137.166         -58.2611         129.033         -58.2587         129.025      -0.00981779         149.055
0.532                  -0.396583        -137.687         -58.0998         127.077         -58.0976          127.07      -0.00989849         148.987
0.533                  -0.409981        -138.211         -57.9381         125.111         -57.9359         125.105      -0.00998055         148.919
0.534                  -0.423835        -138.737         -57.7759         123.135         -57.7737         123.129        -0.010064         148.851
0.535                  -0.438158        -139.266         -57.6132         121.149         -57.6112         121.143       -0.0101488         148.783
0.536                  -0.452959        -139.797         -57.4503         119.152         -57.4483         119.146       -0.0102351         148.714
0.537                   -0.46825        -140.331         -57.2871         117.144         -57.2853         117.139       -0.0103228         148.646
0.538                   -0.48404        -140.866         -57.1238         115.126          -57.122         115.121        -0.010412         148.578
0.539                   -0.50034        -141.404         -56.9603         113.097         -56.9587         113.092       -0.0105027         148.509
0.54                   -0.517161        -141.944         -56.7969         111.057         -56.7953         111.053       -0.0105949          148.44
0.541                   -0.53451        -142.486         -56.6335         109.006         -56.6321         109.002       -0.0106887         148.371
0.542                  -0.552399         -143.03         -56.4703         106.945          -56.469         106.941        -0.010784         148.302
0.543                  -0.570836        -143.576         -56.3074         104.873         -56.3061         104.869       -0.0108808         148.233
0.544                  -0.589829        -144.124         -56.1448         102.789         -56.1436         102.786       -0.0109793         148.164
0.545                  -0.609386        -144.674         -55.9826         100.695         -55.9815         100.693       -0.0110793         148.095
0.546                  -0.629513        -145.225         -55.8209         98.5904         -55.8199         98.5885       -0.0111809         148.026
0.547                  -0.650216        -145.777         -55.6598          96.475         -55.6589         96.4735       -0.0112841         147.956
0.548                  -0.671502        -146.331         -55.4994          94.349         -55.4986         94.3481        -0.011389         147.887
0.549                  -0.693372        -146.887         -55.3397         92.2127          -55.339         92.2122       -0.0114955         147.817
0.55                   -0.715831        -147.443         -55.1809         90.0661         -55.1803         90.0661       -0.0116036         147.747
0.551                  -0.738878        -148.001         -55.0231         87.9095         -55.0225         87.9099       -0.0117134         147.677
0.552                  -0.762515         -148.56         -54.8662         85.7431         -54.8658          85.744       -0.0118248         147.607
0.553                  -0.786739        -149.119         -54.7105         83.5671         -54.7101         83.5685       -0.0119379         147.537
0.554                  -0.811546        -149.679         -54.5559         81.3818         -54.5556         81.3837       -0.0120527         147.467
0.555                  -0.836931        -150.239         -54.4026         79.1876         -54.4024         79.1899       -0.0121691         147.396
0.556                  -0.862887          -150.8         -54.2507         76.9847         -54.2505         76.9874       -0.0122873         147.326
0.557                  -0.889402        -151.361         -54.1001         74.7735            -54.1         74.7767       -0.0124071         147.255
0.558                  -0.916465        -151.923          -53.951         72.5544         -53.9509          72.558       -0.0125286         147.185
0.559                  -0.944062        -152.484         -53.8035         70.3278         -53.8034         70.3318       -0.0126518         147.114
0.56                   -0.972175        -153.045         -53.6576         68.0942         -53.6576         68.0986       -0.0127767         147.043
0.561                   -1.00078        -153.606         -53.5133          65.854         -53.5133         65.8588       -0.0129033         146.972
0.562                   -1.02987        -154.166         -53.3707         63.6078         -53.3708         63.6129       -0.0130316           146.9
0.563                    -1.0594        -154.726         -53.2299         61.3559           -53.23         61.3614       -0.0131616         146.829
0.564                   -1.08935        -155.285         -53.0909          59.099          -53.091         59.1048       -0.0132933         146.758
0.565                    -1.1197        -155.843         -52.9537         56.8376         -52.9539         56.8436       -0.0134268         146.686
0.566                   -1.15041        -156.401         -52.8184         54.5722         -52.8186         54.5785        -0.013562         146.614
0.567                   -1.18144        -156.958          -52.685         52.3034         -52.6852         52.3099       -0.0136988         146.542
0.568                   -1.21275        -157.514         -52.5535         50.0318         -52.5537         50.0385       -0.0138375          146.47
0.569                   -1.24432         -158.07          -52.424          47.758         -52.4241         47.7648       -0.0139778         146.398
0.57                    -1.27609        -158.624         -52.2963         45.4824         -52.2965         45.4894       -0.0141199         146.326
0.571                   -1.30803        -159.178         -52.1706         43.2058         -52.1708         43.2129       -0.0142637         146.254
0.572                    -1.3401        -159.731         -52.0469         40.9287          -52.047         40.9359       -0.0144092         146.181
0.573                   -1.37225        -160.284          -51.925         38.6516         -51.9252         38.6588       -0.0145564         146.108
0.574                   -1.40444        -160.836          -51.805         36.3751         -51.8052         36.3824       -0.0147054         146.036
0.575                   -1.43662        -161.388          -51.687         34.0998         -51.6871         34.1071       -0.0148562         145.963
0.576                   -1.46877         -161.94         -51.5707         31.8262         -51.5709         31.8334       -0.0150087          145.89
0.577                   -1.50084        -162.493         -51.4563         29.5548         -51.4564         29.5619       -0.0151629         145.816
0.578                    -1.5328        -163.046         -51.3436          27.286         -51.3438         27.2931       -0.0153189         145.743
0.579                   -1.56461          -163.6         -51.2327         25.0204         -51.2328         25.0274       -0.0154766         145.669
0.58                    -1.59624        -164.155         -51.1234         22.7584         -51.1235         22.7652       -0.0156361         145.596
0.581                   -1.62768        -164.712         -51.0158         20.5004         -51.0159         20.5071       -0.0157973         145.522
0.582                   -1.65891        -165.272         -50.9097         18.2468         -50.9098         18.2532       -0.0159603         145.448
0.583                   -1.68991        -165.833         -50.8051         15.9979         -50.8052         16.0042       -0.0161251         145.374
0.584                   -1.72067        -166.398         -50.7019         13.7541          -50.702         13.7601       -0.0162917         145.299
0.585                    -1.7512        -166.966         -50.6002         11.5156         -50.6002         11.5214         -0.01646         145.225
0.586                    -1.7815        -167.538         -50.4997         9.28267         -50.4997         9.28823       -0.0166301          145.15
0.587                   -1.81158        -168.115         -50.4004         7.05556         -50.4005         7.06087       -0.0168021         145.076
0.588                   -1.84147        -168.696         -50.3023         4.83443         -50.3024         4.83949       -0.0169758         145.001
0.589                    -1.8712        -169.283         -50.2053         2.61944         -50.2054         2.62423       -0.0171514         144.926
0.59                    -1.90078        -169.876         -50.1093        0.410677         -50.1094        0.415201       -0.0173288          144.85
0.591                   -1.93028        -170.475         -50.0142        -1.79177         -50.0143        -1.78752        -0.017508         144.775
0.592                   -1.95973        -171.081           -49.92        -3.98787         -49.9201        -3.98388       -0.0176891         144.699
0.593                   -1.98919        -171.694         -49.8266        -6.17761         -49.8267        -6.17388       -0.0178721         144.623
0.594                   -2.01872        -172.315         -49.7339        -8.36101          -49.734        -8.35755        -0.018057         144.547
0.595                   -2.04839        -172.944         -49.6418        -10.5381         -49.6419        -10.5349       -0.0182438         144.471
0.596                   -2.07826        -173.582         -49.5503        -12.7091         -49.5504        -12.7061       -0.0184326         144.395
0.597                   -2.10841        -174.228         -49.4594         -14.874         -49.4595        -14.8713       -0.0186233         144.318
0.598                   -2.13892        -174.884         -49.3688        -17.0329         -49.3689        -17.0304       -0.0188161         144.242
0.599                   -2.16987        -175.548         -49.2787        -19.1861         -49.2788        -19.1839       -0.0190109         144.165
0.6                     -2.20135        -176.222         -49.1889        -21.3338          -49.189        -21.3318       -0.0192077         144.088
0.601                   -2.23345        -176.906         -49.0994        -23.4761         -49.0995        -23.4743       -0.0194067         144.011
0.602                   -2.26626          -177.6           -49.01        -25.6134         -49.0102        -25.6117       -0.0196078         143.933
0.603                   -2.29986        -178.303         -48.9209        -27.7458         -48.9211        -27.7443       -0.0198111         143.855
0.604                   -2.33437        -179.017         -48.8319        -29.8737         -48.8321        -29.8723       -0.0200167         143.778
0.605                   -2.36986         -179.74          -48.743        -31.9973         -48.7431        -31.9961       -0.0202246           143.7
0.606                   -2.40643         179.526         -48.6541         -34.117         -48.6543        -34.1159       -0.0204348         143.621
0.607                   -2.44419         178.782         -48.5652         -36.233         -48.5654         -36.232       -0.0206474         143.543
0.608                   -2.48323         178.029         -48.4764        -38.3458         -48.4766        -38.3449       -0.0208625         143.464
0.609                   -2.52364         177.265         -48.3875        -40.4556         -48.3877        -40.4548       -0.0210802         143.385
0.61                    -2.56551         176.492         -48.2985        -42.5628         -48.2987        -42.5621       -0.0213005         143.306
0.611                   -2.60895          175.71         -48.2095        -44.6677         -48.2097         -44.667       -0.0215234         143.227
0.612                   -2.65405         174.918         -48.1204        -46.7707         -48.1206        -46.7701       -0.0217492         143.147
0.613                    -2.7009         174.117         -48.0312        -48.8722         -48.0314        -48.8716       -0.0219778         143.068
0.614                    -2.7496         173.308         -47.9419        -50.9724         -47.9422        -50.9719       -0.0222093         142.988
0.615                   -2.80023         172.489         -47.8526        -53.0717         -47.8528        -53.0713       -0.0224438         142.908
0.616                   -2.85289         171.663         -47.7632        -55.1706         -47.7634        -55.1701       -0.0226815         142.827
0.617                   -2.90766         170.829         -47.6737        -57.2691         -47.6739        -57.2687       -0.0229224         142.746
0.618                   -2.96465         169.988         -47.5841        -59.3678         -47.5844        -59.3674       -0.0231666         142.666
0.619                   -3.02392         169.139         -47.4946        -61.4669         -47.4948        -61.4665       -0.0234142         142.584
0.62                    -3.08558         168.284          -47.405        -63.5667         -47.4052        -63.5662       -0.0236654         142.503
0.621                    -3.1497         167.423         -47.3155        -65.6674         -47.3157         -65.667       -0.0239201         142.421
0.622                   -3.21636         166.557          -47.226        -67.7693         -47.2262        -67.7689       -0.0241786          142.34
0.623                   -3.28565         165.686         -47.1366        -69.8726         -47.1368        -69.8722       -0.0244409         142.257
0.624                   -3.35764          164.81         -47.0473        -71.9776         -47.0475        -71.9772       -0.0247072         142.175
0.625                   -3.43242          163.93         -46.9583        -74.0843         -46.9584         -74.084       -0.0249775         142.092
0.626                   -3.51004         163.048         -46.8694        -76.1931         -46.8696        -76.1927        -0.025252         142.009
0.627                   -3.59059         162.163         -46.7808        -78.3039         -46.7809        -78.3035       -0.0255307         141.926
0.628                   -3.67413         161.276         -46.6925        -80.4169         -46.6926        -80.4166       -0.0258139         141.843
0.629                   -3.76072         160.389         -46.6046        -82.5321         -46.6047        -82.5318       -0.0261015         141.759
