! TOUCHSTONE file generated by CST MICROWAVE STUDIO
! Date and time: Mon Oct 26 12:29:55 2020
! Project name: Scenario_1_Circular_Tissue_out_of_Line.cst
! Parameters = {dy1=191.571; L_HA=400; MT=2.54; Rad_Dielectric=30; Rad_Lower=7.3; Rad_Upper=30; a_HA=580; a_WG=246; b_HA=500; b_WG=121; c_HA=0; c_WG=187; d_feed=85; dx1=866; h_feed=15; h_lower=18; h_upper=40}
! Header version: 2018
! Port assignment regex: !\s*Touchstone port\s*([0-9]+)\s*=\s*(CST MWS port|CST DS port)\s*([0-9]+|Zmin|Zmax)\s*\(\"(.*)\"\)(\s*mode\s*([0-9]+))?.*
! Touchstone port assignment:
! Touchstone port 1 = CST MWS port 1 ("")
! Touchstone port 2 = CST MWS port 2 ("")
# GHz S DB R 50
0.5                     -0.14485        -122.413         -63.6682         93.5001         -63.6682         93.5001      -0.00741984         151.137
0.501                  -0.148607        -122.831         -63.5624         91.4341         -63.5627         91.4343      -0.00749233         151.072
0.502                  -0.152558        -123.251         -63.4536         89.3531         -63.4542         89.3533      -0.00756532         151.006
0.503                  -0.156706        -123.673         -63.3418         87.2573         -63.3427         87.2576      -0.00763881         150.941
0.504                  -0.161056        -124.099         -63.2271         85.1474         -63.2283         85.1477      -0.00771282         150.876
0.505                  -0.165613        -124.526         -63.1094         83.0236         -63.1108         83.0238      -0.00778735          150.81
0.506                  -0.170381        -124.957         -62.9888         80.8864         -62.9904         80.8866      -0.00786242         150.745
0.507                  -0.175363         -125.39         -62.8653         78.7362         -62.8671         78.7363      -0.00793803         150.679
0.508                  -0.180566        -125.826         -62.7388         76.5734         -62.7409         76.5734      -0.00801419         150.613
0.509                  -0.185994        -126.265         -62.6096         74.3984         -62.6119         74.3983      -0.00809091         150.547
0.51                   -0.191651        -126.706         -62.4775         72.2117           -62.48         72.2115      -0.00816821         150.482
0.511                  -0.197543         -127.15         -62.3427         70.0137         -62.3454         70.0133      -0.00824608         150.416
0.512                  -0.203674        -127.597         -62.2053         67.8046         -62.2081         67.8041      -0.00832455          150.35
0.513                  -0.210049        -128.046         -62.0651          65.585         -62.0681         65.5843      -0.00840361         150.283
0.514                  -0.216674        -128.499         -61.9225         63.3552         -61.9256         63.3543      -0.00848329         150.217
0.515                  -0.223553        -128.954         -61.7773         61.1155         -61.7806         61.1144      -0.00856359         150.151
0.516                  -0.230692        -129.411         -61.6298         58.8663         -61.6332          58.865      -0.00864452         150.085
0.517                  -0.238095        -129.872         -61.4799         56.6079         -61.4834         56.6064      -0.00872609         150.018
0.518                   -0.24577        -130.335         -61.3279         54.3406         -61.3314          54.339      -0.00880831         149.952
0.519                  -0.253719        -130.801         -61.1736         52.0648         -61.1772          52.063      -0.00889119         149.885
0.52                   -0.261951         -131.27         -61.0174         49.7806          -61.021         49.7787      -0.00897475         149.818
0.521                  -0.270469        -131.742         -60.8592         47.4885         -60.8629         47.4864      -0.00905899         149.751
0.522                  -0.279279        -132.216         -60.6992         45.1886         -60.7029         45.1864      -0.00914392         149.685
0.523                  -0.288388        -132.694         -60.5375         42.8812         -60.5412         42.8789      -0.00922957         149.618
0.524                    -0.2978        -133.174         -60.3741         40.5664         -60.3779          40.564      -0.00931593         149.551
0.525                  -0.307523        -133.657         -60.2093         38.2446          -60.213         38.2421      -0.00940302         149.483
0.526                  -0.317561        -134.142         -60.0431         35.9159         -60.0468         35.9134      -0.00949085         149.416
0.527                  -0.327921        -134.631         -59.8757         33.5805         -59.8794          33.578      -0.00957943         149.349
0.528                  -0.338608        -135.122         -59.7071         31.2386         -59.7108          31.236      -0.00966878         149.281
0.529                  -0.349629        -135.616         -59.5376         28.8903         -59.5412         28.8878      -0.00975891         149.214
0.53                   -0.360991        -136.114         -59.3671         26.5359         -59.3707         26.5333      -0.00984982         149.146
0.531                  -0.372698        -136.613          -59.196         24.1754         -59.1994         24.1729      -0.00994154         149.079
0.532                  -0.384758        -137.116         -59.0242         21.8091         -59.0275         21.8066       -0.0100341         149.011
0.533                  -0.397177        -137.622         -58.8519          19.437         -58.8551         19.4346       -0.0101274         148.943
0.534                  -0.409961         -138.13         -58.6792         17.0593         -58.6824         17.0571       -0.0102216         148.875
0.535                  -0.423117        -138.641         -58.5063         14.6763         -58.5093         14.6741       -0.0103167         148.807
0.536                  -0.436651        -139.155         -58.3333          12.288         -58.3362         12.2859       -0.0104126         148.739
0.537                   -0.45057        -139.672         -58.1602         9.89451         -58.1631         9.89259       -0.0105094          148.67
0.538                   -0.46488        -140.192         -57.9874         7.49611         -57.9901         7.49434       -0.0106071         148.602
0.539                  -0.479588        -140.715         -57.8147         5.09293         -57.8173         5.09131       -0.0107057         148.533
0.54                   -0.494702         -141.24         -57.6425         2.68514         -57.6449         2.68368       -0.0108052         148.465
0.541                  -0.510226        -141.768         -57.4707        0.272938          -57.473        0.271632       -0.0109057         148.396
0.542                   -0.52617        -142.299         -57.2996        -2.14349         -57.3017        -2.14464       -0.0110071         148.327
0.543                  -0.542538        -142.833         -57.1291        -4.56394         -57.1311        -4.56492       -0.0111095         148.258
0.544                  -0.559339         -143.37         -56.9595        -6.98819         -56.9613        -6.98901       -0.0112128         148.189
0.545                  -0.576579        -143.909         -56.7908        -9.41601         -56.7925        -9.41666       -0.0113172          148.12
0.546                  -0.594265        -144.451         -56.6232        -11.8471         -56.6247        -11.8476       -0.0114226         148.051
0.547                  -0.612404        -144.997         -56.4567        -14.2814          -56.458        -14.2817        -0.011529         147.982
0.548                  -0.631004        -145.544         -56.2914        -16.7184         -56.2926        -16.7186       -0.0116364         147.912
0.549                   -0.65007        -146.095         -56.1274        -19.1579         -56.1284        -19.1579       -0.0117449         147.843
0.55                   -0.669611        -146.648         -55.9648        -21.5996         -55.9657        -21.5995       -0.0118545         147.773
0.551                  -0.689634        -147.204         -55.8037        -24.0432         -55.8044         -24.043       -0.0119652         147.703
0.552                  -0.710145        -147.763         -55.6442        -26.4884         -55.6447        -26.4881        -0.012077         147.633
0.553                  -0.731152        -148.324         -55.4862        -28.9349         -55.4866        -28.9345       -0.0121899         147.563
0.554                  -0.752662        -148.889         -55.3299        -31.3822         -55.3301        -31.3818       -0.0123039         147.493
0.555                  -0.774682        -149.455         -55.1753        -33.8302         -55.1754        -33.8297       -0.0124192         147.423
0.556                  -0.797219        -150.025         -55.0226        -36.2783         -55.0225        -36.2778       -0.0125356         147.352
0.557                  -0.820281        -150.597         -54.8716        -38.7263         -54.8714        -38.7258       -0.0126532         147.282
0.558                  -0.843875        -151.172         -54.7225        -41.1738         -54.7221        -41.1733        -0.012772         147.211
0.559                  -0.868008        -151.749         -54.5753        -43.6204         -54.5748        -43.6199       -0.0128921          147.14
0.56                   -0.892687         -152.33           -54.43        -46.0658         -54.4293        -46.0652       -0.0130134         147.069
0.561                  -0.917919        -152.912         -54.2866        -48.5095         -54.2858         -48.509        -0.013136         146.998
0.562                  -0.943713        -153.497         -54.1452        -50.9513         -54.1443        -50.9508         -0.01326         146.927
0.563                  -0.970074        -154.085         -54.0057        -53.3907         -54.0047        -53.3903       -0.0133852         146.856
0.564                   -0.99701        -154.675         -53.8681        -55.8275          -53.867        -55.8272       -0.0135118         146.785
0.565                   -1.02453        -155.268         -53.7325        -58.2613         -53.7313        -58.2611       -0.0136397         146.713
0.566                   -1.05264        -155.863         -53.5989        -60.6917         -53.5976        -60.6916        -0.013769         146.641
0.567                   -1.08134        -156.461         -53.4671        -63.1185         -53.4657        -63.1185       -0.0138997          146.57
0.568                   -1.11065        -157.061         -53.3373        -65.5413         -53.3358        -65.5415       -0.0140319         146.498
0.569                   -1.14057        -157.664         -53.2093          -67.96         -53.2078        -67.9602       -0.0141655         146.426
0.57                    -1.17111        -158.269         -53.0832        -70.3741         -53.0816        -70.3745       -0.0143006         146.354
0.571                   -1.20227        -158.876         -52.9589        -72.7835         -52.9572         -72.784       -0.0144372         146.281
0.572                   -1.23406        -159.486         -52.8363         -75.188         -52.8346        -75.1886       -0.0145753         146.209
0.573                    -1.2665        -160.098         -52.7155        -77.5873         -52.7137         -77.588        -0.014715         146.136
0.574                   -1.29957        -160.712         -52.5963        -79.9812         -52.5946        -79.9821       -0.0148562         146.063
0.575                   -1.33331        -161.328         -52.4788        -82.3697          -52.477        -82.3707        -0.014999          145.99
0.576                    -1.3677        -161.947         -52.3629        -84.7525         -52.3611        -84.7536       -0.0151435         145.917
0.577                   -1.40276        -162.568         -52.2484        -87.1296         -52.2466        -87.1308       -0.0152896         145.844
0.578                   -1.43849        -163.191         -52.1355        -89.5008         -52.1337        -89.5022       -0.0154374         145.771
0.579                    -1.4749        -163.816          -52.024        -91.8662         -52.0222        -91.8676       -0.0155869         145.697
0.58                      -1.512        -164.444         -51.9138        -94.2256          -51.912        -94.2271       -0.0157381         145.624
0.581                   -1.54979        -165.073         -51.8049        -96.5791         -51.8031        -96.5807       -0.0158911          145.55
0.582                   -1.58828        -165.704         -51.6973        -98.9266         -51.6955        -98.9283       -0.0160459         145.476
0.583                   -1.62748        -166.338         -51.5908        -101.268         -51.5891         -101.27       -0.0162025         145.402
0.584                    -1.6674        -166.973         -51.4854        -103.604         -51.4838        -103.606        -0.016361         145.328
0.585                   -1.70803        -167.611         -51.3811        -105.934         -51.3795        -105.936       -0.0165214         145.253
0.586                   -1.74939         -168.25         -51.2778        -108.258         -51.2762         -108.26       -0.0166836         145.179
0.587                   -1.79148        -168.891         -51.1754        -110.577         -51.1739        -110.579       -0.0168479         145.104
0.588                   -1.83431        -169.534         -51.0739         -112.89         -51.0725        -112.892       -0.0170141         145.029
0.589                   -1.87789        -170.179         -50.9732        -115.198         -50.9718          -115.2       -0.0171823         144.954
0.59                    -1.92222        -170.825         -50.8732        -117.501          -50.872        -117.503       -0.0173526         144.879
0.591                   -1.96731        -171.474          -50.774        -119.799         -50.7728        -119.801        -0.017525         144.803
0.592                   -2.01316        -172.124         -50.6754        -122.093         -50.6743        -122.094       -0.0176995         144.728
0.593                   -2.05979        -172.776         -50.5774        -124.381         -50.5764        -124.382       -0.0178761         144.652
0.594                   -2.10719        -173.429           -50.48        -126.666          -50.479        -126.667        -0.018055         144.576
0.595                   -2.15537        -174.084          -50.383        -128.947         -50.3821        -128.947       -0.0182361           144.5
0.596                   -2.20435        -174.741         -50.2865        -131.223         -50.2857        -131.224       -0.0184194         144.423
0.597                   -2.25412        -175.399         -50.1904        -133.497         -50.1897        -133.497       -0.0186051         144.347
0.598                   -2.30469        -176.059         -50.0947        -135.767         -50.0941        -135.767       -0.0187931          144.27
0.599                   -2.35608         -176.72         -49.9993        -138.034         -49.9988        -138.033       -0.0189836         144.193
0.6                     -2.40827        -177.383         -49.9042        -140.299         -49.9038        -140.298       -0.0191764         144.116
0.601                   -2.46129        -178.047         -49.8094        -142.561         -49.8091         -142.56       -0.0193718         144.039
0.602                   -2.51514        -178.713         -49.7148        -144.821         -49.7145        -144.819       -0.0195697         143.962
0.603                   -2.56982         -179.38         -49.6203         -147.08         -49.6202        -147.078       -0.0197701         143.884
0.604                   -2.62534         179.952         -49.5261        -149.337         -49.5261        -149.334       -0.0199732         143.806
0.605                   -2.68171         179.282          -49.432        -151.593         -49.4321         -151.59        -0.020179         143.728
0.606                   -2.73893         178.611         -49.3381        -153.848         -49.3382        -153.845       -0.0203874          143.65
0.607                   -2.79702         177.939         -49.2442        -156.102         -49.2445        -156.099       -0.0205986         143.571
0.608                   -2.85597         177.266         -49.1505        -158.357         -49.1509        -158.353       -0.0208127         143.493
0.609                    -2.9158         176.591         -49.0569        -160.611         -49.0573        -160.607       -0.0210296         143.414
0.61                    -2.97651         175.915         -48.9633        -162.866         -48.9638        -162.861       -0.0212494         143.335
0.611                   -3.03811         175.238         -48.8698        -165.122         -48.8704        -165.117       -0.0214722         143.256
0.612                   -3.10061          174.56         -48.7764        -167.379         -48.7771        -167.373        -0.021698         143.176
0.613                   -3.16401         173.881         -48.6831        -169.637         -48.6838         -169.63       -0.0219269         143.096
0.614                   -3.22832           173.2         -48.5898        -171.897         -48.5907        -171.889       -0.0221589         143.016
0.615                   -3.29356         172.519         -48.4966        -174.158         -48.4975         -174.15       -0.0223942         142.936
0.616                   -3.35973         171.836         -48.4035        -176.421         -48.4045        -176.413       -0.0226327         142.856
0.617                   -3.42684         171.152         -48.3105        -178.687         -48.3116        -178.679       -0.0228745         142.775
0.618                    -3.4949         170.468         -48.2177         179.044         -48.2188         179.054       -0.0231197         142.694
0.619                   -3.56391         169.782         -48.1249         176.773         -48.1261         176.783       -0.0233683         142.613
0.62                     -3.6339         169.095         -48.0323         174.499         -48.0336         174.509       -0.0236204         142.532
0.621                   -3.70486         168.407         -47.9399         172.222         -47.9412         172.232       -0.0238761          142.45
0.622                   -3.77682         167.719         -47.8477         169.941          -47.849         169.952       -0.0241355         142.369
0.623                   -3.84978         167.029         -47.7557         167.656          -47.757         167.668       -0.0243985         142.287
0.624                   -3.92375         166.338         -47.6639         165.369         -47.6653         165.381       -0.0246654         142.204
0.625                   -3.99876         165.646         -47.5724         163.077         -47.5738          163.09       -0.0249361         142.122
0.626                    -4.0748         164.954         -47.4812         160.781         -47.4826         160.795       -0.0252107         142.039
0.627                    -4.1519          164.26         -47.3904         158.481         -47.3918         158.495       -0.0254894         141.956
0.628                   -4.23008         163.565         -47.2999         156.178         -47.3013         156.192       -0.0257721         141.872
0.629                   -4.30934          162.87         -47.2098          153.87         -47.2112         153.885        -0.026059         141.789
