! TOUCHSTONE file generated by CST MICROWAVE STUDIO
! Date and time: Mon Oct 26 12:09:23 2020
! Project name: Scenario_1_Circular_Tissue_out_of_Line_v2.cst
! Parameters = {dy1=207.6; L_HA=400; MT=2.54; Rad_Dielectric=30; Rad_Lower=7.3; Rad_Upper=30; a_HA=580; a_WG=246; b_HA=500; b_WG=121; c_HA=0; c_WG=187; d_feed=85; dx1=173; h_feed=15; h_lower=18; h_upper=40}
! Header version: 2018
! Port assignment regex: !\s*Touchstone port\s*([0-9]+)\s*=\s*(CST MWS port|CST DS port)\s*([0-9]+|Zmin|Zmax)\s*\(\"(.*)\"\)(\s*mode\s*([0-9]+))?.*
! Touchstone port assignment:
! Touchstone port 1 = CST MWS port 1 ("")
! Touchstone port 2 = CST MWS port 2 ("")
# GHz S DB R 50
0.5                    -0.131321        -122.525         -60.0636         116.456         -60.0636         116.456      -0.00673309         151.145
0.501                   -0.14155        -122.995         -59.8435         115.034         -59.8437         115.035      -0.00678686          151.08
0.502                  -0.152041        -123.465         -59.6242         113.612         -59.6248         113.613      -0.00684212         151.014
0.503                  -0.162792        -123.936         -59.4059          112.19         -59.4067         112.191      -0.00689888         150.949
0.504                  -0.173798        -124.408         -59.1885         110.766         -59.1895         110.768      -0.00695714         150.883
0.505                  -0.185057         -124.88          -58.972         109.341         -58.9732         109.343      -0.00701692         150.817
0.506                  -0.196564        -125.352         -58.7565         107.913         -58.7579         107.916      -0.00707822         150.752
0.507                  -0.208316        -125.824         -58.5418         106.483         -58.5434         106.486      -0.00714106         150.686
0.508                  -0.220308        -126.298         -58.3281          105.05         -58.3299         105.053      -0.00720544          150.62
0.509                  -0.232538        -126.771         -58.1154         103.613         -58.1172         103.616      -0.00727136         150.554
0.51                   -0.245002        -127.245         -57.9036         102.172         -57.9056         102.176      -0.00733884         150.488
0.511                  -0.257694        -127.719         -57.6928         100.727         -57.6949         100.731      -0.00740789         150.421
0.512                  -0.270611        -128.194         -57.4829         99.2775         -57.4852         99.2816       -0.0074785         150.355
0.513                   -0.28375        -128.669         -57.2741         97.8227         -57.2764         97.8271      -0.00755068         150.289
0.514                  -0.297105        -129.145         -57.0663         96.3625         -57.0687         96.3671      -0.00762444         150.222
0.515                  -0.310672        -129.621         -56.8595         94.8966          -56.862         94.9015      -0.00769978         150.156
0.516                  -0.324448        -130.098         -56.6537         93.4246         -56.6563         93.4297      -0.00777671         150.089
0.517                  -0.338427        -130.574          -56.449         91.9462         -56.4516         91.9516      -0.00785523         150.023
0.518                  -0.352605        -131.052         -56.2454         90.4612         -56.2481         90.4668      -0.00793534         149.956
0.519                  -0.366979         -131.53         -56.0429         88.9693         -56.0456         88.9751      -0.00801706         149.889
0.52                   -0.381542        -132.008         -55.8416         87.4703         -55.8443         87.4763      -0.00810037         149.822
0.521                  -0.396292        -132.487         -55.6414         85.9638         -55.6441           85.97      -0.00818528         149.755
0.522                  -0.411223        -132.966         -55.4423         84.4497          -55.445         84.4561       -0.0082718         149.688
0.523                  -0.426332        -133.446         -55.2445         82.9278         -55.2472         82.9343      -0.00835993         149.621
0.524                  -0.441612        -133.926         -55.0479         81.3978         -55.0506         81.4045      -0.00844966         149.554
0.525                  -0.457061        -134.407         -54.8526         79.8597         -54.8552         79.8665        -0.008541         149.486
0.526                  -0.472673        -134.889         -54.6585         78.3132         -54.6611         78.3202      -0.00863395         149.419
0.527                  -0.488444        -135.371         -54.4658         76.7583         -54.4684         76.7653      -0.00872851         149.351
0.528                   -0.50437        -135.854         -54.2744         75.1947          -54.277         75.2019      -0.00882467         149.284
0.529                  -0.520446        -136.337         -54.0844         73.6225         -54.0869         73.6297      -0.00892245         149.216
0.53                   -0.536668        -136.822         -53.8958         72.0414         -53.8983         72.0487      -0.00902183         149.148
0.531                  -0.553031        -137.306         -53.7087         70.4516         -53.7111         70.4589      -0.00912282          149.08
0.532                  -0.569532        -137.792         -53.5231         68.8528         -53.5254         68.8602      -0.00922541         149.012
0.533                  -0.586166        -138.278          -53.339         67.2451         -53.3412         67.2525      -0.00932961         148.944
0.534                  -0.602929        -138.766         -53.1564         65.6285         -53.1586         65.6359      -0.00943541         148.876
0.535                  -0.619817        -139.254         -52.9755          64.003         -52.9776         64.0104      -0.00954281         148.808
0.536                  -0.636827        -139.743         -52.7961         62.3687         -52.7982          62.376      -0.00965181          148.74
0.537                  -0.653954        -140.233         -52.6185         60.7255         -52.6204         60.7328      -0.00976241         148.671
0.538                  -0.671194        -140.724         -52.4425         59.0736         -52.4444         59.0808       -0.0098746         148.603
0.539                  -0.688545        -141.216         -52.2683         57.4131         -52.2701         57.4202      -0.00998839         148.534
0.54                   -0.706003        -141.709         -52.0958          55.744         -52.0975          55.751       -0.0101038         148.465
0.541                  -0.723564        -142.204         -51.9252         54.0666         -51.9268         54.0734       -0.0102207         148.396
0.542                  -0.741225        -142.699         -51.7564         52.3809         -51.7579         52.3876       -0.0103393         148.327
0.543                  -0.758984        -143.196         -51.5894         50.6872         -51.5909         50.6937       -0.0104594         148.258
0.544                  -0.776838        -143.694         -51.4244         48.9856         -51.4258         48.9919       -0.0105811         148.189
0.545                  -0.794784        -144.193         -51.2613         47.2763         -51.2626         47.2824       -0.0107044          148.12
0.546                  -0.812821        -144.694         -51.1002         45.5597         -51.1014         45.5655       -0.0108293          148.05
0.547                  -0.830945        -145.197         -50.9411         43.8358         -50.9422         43.8415       -0.0109557         147.981
0.548                  -0.849154        -145.701          -50.784         42.1051          -50.785         42.1104       -0.0110838         147.911
0.549                  -0.867449        -146.206         -50.6289         40.3677         -50.6298         40.3728       -0.0112134         147.842
0.55                   -0.885826        -146.714         -50.4759          38.624         -50.4768         38.6288       -0.0113445         147.772
0.551                  -0.904285        -147.223          -50.325         36.8742         -50.3257         36.8787       -0.0114773         147.702
0.552                  -0.922826        -147.734         -50.1761         35.1188         -50.1768          35.123       -0.0116116         147.632
0.553                  -0.941447        -148.247         -50.0294         33.3579           -50.03         33.3618       -0.0117475         147.562
0.554                   -0.96015        -148.762         -49.8848         31.5921         -49.8854         31.5956       -0.0118849         147.492
0.555                  -0.978933        -149.279         -49.7424         29.8216         -49.7429         29.8248       -0.0120239         147.421
0.556                  -0.997797        -149.798          -49.602         28.0467         -49.6025         28.0496       -0.0121645         147.351
0.557                   -1.01674        -150.319         -49.4639         26.2679         -49.4642         26.2704       -0.0123067          147.28
0.558                   -1.03578        -150.843         -49.3278         24.4855         -49.3281         24.4877       -0.0124504         147.209
0.559                   -1.05489        -151.369         -49.1939            22.7         -49.1942         22.7018       -0.0125957         147.139
0.56                     -1.0741        -151.898         -49.0622         20.9116         -49.0624          20.913       -0.0127426         147.068
0.561                   -1.09339         -152.43         -48.9326         19.1207         -48.9327         19.1218       -0.0128911         146.997
0.562                   -1.11279        -152.964          -48.805         17.3278         -48.8051         17.3285       -0.0130412         146.925
0.563                   -1.13227        -153.501         -48.6796         15.5332         -48.6797         15.5335       -0.0131928         146.854
0.564                   -1.15186        -154.041         -48.5563         13.7372         -48.5563         13.7372        -0.013346         146.783
0.565                   -1.17156        -154.584          -48.435         11.9403          -48.435           11.94       -0.0135009         146.711
0.566                   -1.19137        -155.131         -48.3158         10.1428         -48.3157         10.1421       -0.0136573         146.639
0.567                    -1.2113         -155.68         -48.1986          8.3451         -48.1985         8.34408       -0.0138154         146.568
0.568                   -1.23136        -156.233         -48.0834         6.54746         -48.0833         6.54612       -0.0139751         146.496
0.569                   -1.25154        -156.789         -47.9701         4.75026           -47.97         4.74861       -0.0141364         146.424
0.57                    -1.27187        -157.349         -47.8588         2.95382         -47.8586         2.95187       -0.0142993         146.351
0.571                   -1.29235        -157.913         -47.7493         1.15846         -47.7492         1.15622       -0.0144639         146.279
0.572                   -1.31299        -158.481         -47.6418       -0.635534         -47.6416       -0.638045       -0.0146301         146.207
0.573                   -1.33379        -159.052          -47.536        -2.42787         -47.5358        -2.43064        -0.014798         146.134
0.574                   -1.35478        -159.628          -47.432        -4.21827         -47.4318        -4.22129       -0.0149676         146.061
0.575                   -1.37596        -160.208         -47.3297        -6.00649         -47.3295        -6.00973       -0.0151389         145.988
0.576                   -1.39735        -160.792         -47.2292        -7.79228         -47.2289        -7.79573       -0.0153118         145.915
0.577                   -1.41896        -161.381         -47.1303        -9.57541           -47.13        -9.57906       -0.0154865         145.842
0.578                    -1.4408        -161.974          -47.033        -11.3557         -47.0327        -11.3595       -0.0156629         145.769
0.579                   -1.46289        -162.572         -46.9372        -13.1329          -46.937        -13.1369       -0.0158411         145.695
0.58                    -1.48524        -163.175          -46.843        -14.9068         -46.8428         -14.911        -0.016021         145.621
0.581                   -1.50789        -163.782         -46.7503        -16.6774           -46.75        -16.6816       -0.0162027         145.548
0.582                   -1.53083        -164.395         -46.6589        -18.4444         -46.6587        -18.4487       -0.0163861         145.474
0.583                    -1.5541        -165.013          -46.569        -20.2077         -46.5688        -20.2122       -0.0165714           145.4
0.584                   -1.57772        -165.637         -46.4804        -21.9672         -46.4802        -21.9717       -0.0167585         145.325
0.585                    -1.6017        -166.266         -46.3931        -23.7228         -46.3929        -23.7274       -0.0169475         145.251
0.586                   -1.62608          -166.9          -46.307        -25.4745         -46.3068        -25.4791       -0.0171383         145.176
0.587                   -1.65087        -167.541         -46.2221         -27.222          -46.222        -27.2266       -0.0173311         145.102
0.588                    -1.6761        -168.187         -46.1384        -28.9655         -46.1383        -28.9701       -0.0175257         145.027
0.589                    -1.7018        -168.839         -46.0558        -30.7047         -46.0557        -30.7094       -0.0177223         144.952
0.59                      -1.728        -169.497         -45.9743        -32.4398         -45.9742        -32.4444       -0.0179209         144.877
0.591                   -1.75473        -170.162         -45.8938        -34.1707         -45.8937        -34.1752       -0.0181214         144.801
0.592                   -1.78202        -170.833         -45.8143        -35.8973         -45.8142        -35.9018        -0.018324         144.726
0.593                   -1.80991         -171.51         -45.7357        -37.6197         -45.7356        -37.6241       -0.0185286          144.65
0.594                   -1.83843        -172.194         -45.6581        -39.3379          -45.658        -39.3422       -0.0187353         144.574
0.595                   -1.86761        -172.884         -45.5813        -41.0519         -45.5813        -41.0561       -0.0189441         144.498
0.596                   -1.89749        -173.582         -45.5054        -42.7617         -45.5054        -42.7659        -0.019155         144.422
0.597                   -1.92812        -174.286         -45.4303        -44.4674         -45.4303        -44.4714       -0.0193681         144.345
0.598                   -1.95953        -174.997          -45.356         -46.169          -45.356        -46.1729       -0.0195834         144.269
0.599                   -1.99177        -175.715         -45.2825        -47.8665         -45.2825        -47.8703       -0.0198009         144.192
0.6                     -2.02488         -176.44         -45.2096        -49.5601         -45.2097        -49.5637       -0.0200207         144.115
0.601                   -2.05891        -177.173         -45.1375        -51.2497         -45.1375        -51.2532       -0.0202428         144.038
0.602                    -2.0939        -177.913         -45.0661        -52.9355         -45.0661        -52.9388       -0.0204672          143.96
0.603                    -2.1299        -178.659         -44.9953        -54.6174         -44.9953        -54.6206        -0.020694         143.883
0.604                   -2.16697        -179.414         -44.9251        -56.2957         -44.9251        -56.2987       -0.0209232         143.805
0.605                   -2.20516         179.825         -44.8555        -57.9702         -44.8556        -57.9731       -0.0211549         143.727
0.606                   -2.24452         179.056         -44.7866        -59.6412         -44.7866        -59.6439       -0.0213891         143.649
0.607                    -2.2851         178.279         -44.7182        -61.3087         -44.7182        -61.3112       -0.0216258          143.57
0.608                   -2.32696         177.496         -44.6504        -62.9727         -44.6504         -62.975       -0.0218651         143.492
0.609                   -2.37017         176.705         -44.5831        -64.6333         -44.5831        -64.6355        -0.022107         143.413
0.61                    -2.41478         175.906         -44.5163        -66.2906         -44.5164        -66.2926       -0.0223516         143.334
0.611                   -2.46085         175.101         -44.4501        -67.9446         -44.4502        -67.9465       -0.0225989         143.255
0.612                   -2.50845         174.288         -44.3844        -69.5955         -44.3845        -69.5972        -0.022849         143.176
0.613                   -2.55763         173.468         -44.3192        -71.2433         -44.3193        -71.2448       -0.0231019         143.096
0.614                   -2.60847         172.641         -44.2545         -72.888         -44.2545        -72.8894       -0.0233576         143.016
0.615                   -2.66103         171.808         -44.1903        -74.5297         -44.1903        -74.5309       -0.0236163         142.936
0.616                   -2.71537         170.967         -44.1265        -76.1684         -44.1266        -76.1695       -0.0238779         142.856
0.617                   -2.77157         170.121         -44.0633        -77.8042         -44.0633        -77.8052       -0.0241426         142.775
0.618                   -2.82969         169.267         -44.0005        -79.4371         -44.0006         -79.438       -0.0244104         142.694
0.619                   -2.88979         168.408         -43.9382        -81.0672         -43.9383        -81.0679       -0.0246813         142.613
0.62                    -2.95196         167.543         -43.8764        -82.6945         -43.8765        -82.6951       -0.0249554         142.532
0.621                   -3.01625         166.672         -43.8151         -84.319         -43.8151        -84.3195       -0.0252328         142.451
0.622                   -3.08273         165.796         -43.7542        -85.9407         -43.7542        -85.9411       -0.0255135         142.369
0.623                   -3.15149         164.914         -43.6938        -87.5597         -43.6938        -87.5599       -0.0257975         142.287
0.624                   -3.22257         164.028         -43.6339        -89.1759         -43.6339         -89.176       -0.0260851         142.205
0.625                   -3.29606         163.138         -43.5745        -90.7894         -43.5745        -90.7894       -0.0263761         142.122
0.626                   -3.37201         162.243         -43.5155        -92.4001         -43.5155           -92.4       -0.0266708          142.04
0.627                    -3.4505         161.345          -43.457         -94.008          -43.457        -94.0078        -0.026969         141.957
0.628                   -3.53159         160.444          -43.399        -95.6131          -43.399        -95.6128       -0.0272711         141.873
0.629                   -3.61535          159.54         -43.3415        -97.2153         -43.3415         -97.215       -0.0275769          141.79
