! TOUCHSTONE file generated by CST MICROWAVE STUDIO
! Date and time: Wed Oct 28 19:39:46 2020
! Project name: Scenario_1_Circular_Tissue_out_of_Line_v2.cst
! Parameters = {dy1=207.6; L_HA=400; MT=2.54; Rad_Dielectric=30; Rad_Lower=7.3; Rad_Upper=30; a_HA=580; a_WG=246; b_HA=500; b_WG=121; c_HA=0; c_WG=187; d_feed=85; dx1=346; h_feed=15; h_lower=18; h_upper=40}
! Header version: 2018
! Port assignment regex: !\s*Touchstone port\s*([0-9]+)\s*=\s*(CST MWS port|CST DS port)\s*([0-9]+|Zmin|Zmax)\s*\(\"(.*)\"\)(\s*mode\s*([0-9]+))?.*
! Touchstone port assignment:
! Touchstone port 1 = CST MWS port 1 ("")
! Touchstone port 2 = CST MWS port 2 ("")
# GHz S DB R 50
0.5                    -0.157354        -122.258         -60.0959         9.74228         -60.0955         9.74198      -0.00806466         151.146
0.501                  -0.161837        -122.688         -59.9846         8.16457         -59.9841         8.16441      -0.00812966         151.081
0.502                  -0.166403         -123.12         -59.8718         6.59522         -59.8713         6.59521      -0.00819483         151.015
0.503                   -0.17106        -123.555         -59.7578         5.03396         -59.7571         5.03408      -0.00826018          150.95
0.504                  -0.175812        -123.992         -59.6425         3.48046         -59.6418         3.48072      -0.00832571         150.885
0.505                  -0.180665        -124.431          -59.526         1.93441         -59.5252          1.9348      -0.00839145         150.819
0.506                  -0.185627        -124.874         -59.4083        0.395488         -59.4076        0.395996      -0.00845741         150.754
0.507                  -0.190703        -125.319         -59.2896        -1.13665         -59.2888        -1.13603      -0.00852361         150.688
0.508                  -0.195899        -125.767         -59.1699        -2.66234         -59.1691        -2.66161      -0.00859005         150.623
0.509                  -0.201224        -126.217         -59.0493        -4.18192         -59.0484         -4.1811      -0.00865675         150.557
0.51                   -0.206684        -126.671         -58.9277        -5.69576         -58.9268        -5.69485      -0.00872373         150.491
0.511                  -0.212287        -127.127         -58.8053        -7.20419         -58.8044        -7.20321      -0.00879101         150.425
0.512                  -0.218039        -127.586          -58.682        -8.70758         -58.6811        -8.70653      -0.00885859         150.359
0.513                   -0.22395        -128.048          -58.558        -10.2063         -58.5571        -10.2052       -0.0089265         150.293
0.514                  -0.230026        -128.513         -58.4332        -11.7006         -58.4323        -11.6995      -0.00899475         150.227
0.515                  -0.236277         -128.98         -58.3078         -13.191         -58.3068        -13.1898      -0.00906336         150.161
0.516                   -0.24271        -129.451         -58.1817        -14.6778         -58.1807        -14.6765      -0.00913234         150.095
0.517                  -0.249336        -129.925         -58.0549        -16.1612          -58.054          -16.16      -0.00920171         150.028
0.518                  -0.256161        -130.401         -57.9276        -17.6418         -57.9267        -17.6405      -0.00927149         149.962
0.519                  -0.263197        -130.881         -57.7997        -19.1197         -57.7988        -19.1185       -0.0093417         149.895
0.52                   -0.270453        -131.364         -57.6713        -20.5954         -57.6703        -20.5942      -0.00941235         149.829
0.521                  -0.277938         -131.85         -57.5423        -22.0692         -57.5414         -22.068      -0.00948346         149.762
0.522                  -0.285663        -132.339         -57.4129        -23.5415         -57.4119        -23.5403      -0.00955506         149.695
0.523                  -0.293637        -132.831         -57.2829        -25.0124         -57.2821        -25.0113      -0.00962715         149.628
0.524                  -0.301872        -133.326         -57.1526        -26.4825         -57.1517        -26.4814      -0.00969977         149.561
0.525                  -0.310379        -133.825         -57.0218         -27.952          -57.021        -27.9509      -0.00977292         149.494
0.526                  -0.319169        -134.326         -56.8907        -29.4212         -56.8898        -29.4202      -0.00984663         149.427
0.527                  -0.328252        -134.831         -56.7591        -30.8905         -56.7583        -30.8895      -0.00992093          149.36
0.528                  -0.337642        -135.339         -56.6272          -32.36         -56.6264        -32.3591      -0.00999582         149.292
0.529                   -0.34735        -135.851          -56.495        -33.8303         -56.4942        -33.8294       -0.0100713         149.225
0.53                   -0.357387        -136.365         -56.3624        -35.3014         -56.3616        -35.3007       -0.0101475         149.157
0.531                  -0.367767        -136.883         -56.2295        -36.7738         -56.2288        -36.7731       -0.0102243         149.089
0.532                  -0.378503        -137.404         -56.0964        -38.2477         -56.0957        -38.2471       -0.0103018         149.022
0.533                  -0.389607        -137.929         -55.9629        -39.7233         -55.9622        -39.7228       -0.0103801         148.954
0.534                  -0.401093        -138.456         -55.8292        -41.2011         -55.8286        -41.2006        -0.010459         148.886
0.535                  -0.412974        -138.987         -55.6953        -42.6811         -55.6947        -42.6808       -0.0105387         148.818
0.536                  -0.425263        -139.521         -55.5612        -44.1637         -55.5605        -44.1635       -0.0106192          148.75
0.537                  -0.437975        -140.059         -55.4268        -45.6491         -55.4262         -45.649       -0.0107005         148.681
0.538                  -0.451124        -140.599         -55.2922        -47.1376         -55.2917        -47.1376       -0.0107827         148.613
0.539                  -0.464723        -141.143         -55.1575        -48.6294          -55.157        -48.6295       -0.0108657         148.544
0.54                   -0.478788         -141.69         -55.0226        -50.1248         -55.0221         -50.125       -0.0109495         148.476
0.541                  -0.493333         -142.24         -54.8876        -51.6239         -54.8871        -51.6242       -0.0110343         148.407
0.542                  -0.508371        -142.794         -54.7524         -53.127          -54.752        -53.1274         -0.01112         148.338
0.543                  -0.523919         -143.35         -54.6172        -54.6343         -54.6167        -54.6348       -0.0112067          148.27
0.544                  -0.539991         -143.91         -54.4818        -56.1461         -54.4814        -56.1466       -0.0112944           148.2
0.545                  -0.556601        -144.472         -54.3464        -57.6624          -54.346         -57.663       -0.0113831         148.131
0.546                  -0.573764        -145.038         -54.2109        -59.1834         -54.2105        -59.1842       -0.0114728         148.062
0.547                  -0.591495        -145.606         -54.0754        -60.7095         -54.0751        -60.7103       -0.0115636         147.993
0.548                   -0.60981        -146.178         -53.9398        -62.2407         -53.9395        -62.2416       -0.0116556         147.923
0.549                  -0.628721        -146.752         -53.8043        -63.7772          -53.804        -63.7782       -0.0117486         147.854
0.55                   -0.648244        -147.329         -53.6688        -65.3192         -53.6685        -65.3202       -0.0118429         147.784
0.551                  -0.668393        -147.909         -53.5333        -66.8668         -53.5331        -66.8679       -0.0119383         147.714
0.552                  -0.689182        -148.491         -53.3979        -68.4201         -53.3977        -68.4213        -0.012035         147.644
0.553                  -0.710624        -149.076         -53.2626        -69.9793         -53.2624        -69.9806        -0.012133         147.574
0.554                  -0.732732        -149.664         -53.1274        -71.5445         -53.1273        -71.5459       -0.0122322         147.504
0.555                  -0.755521        -150.254         -52.9923        -73.1158         -52.9922        -73.1173       -0.0123328         147.434
0.556                  -0.779001        -150.846         -52.8574        -74.6934         -52.8573        -74.6949       -0.0124347         147.363
0.557                  -0.803185         -151.44         -52.7227        -76.2773         -52.7226        -76.2788       -0.0125381         147.293
0.558                  -0.828084        -152.036         -52.5881        -77.8675         -52.5881        -77.8691       -0.0126429         147.222
0.559                  -0.853708        -152.635         -52.4538        -79.4643         -52.4538        -79.4659       -0.0127491         147.151
0.56                   -0.880068        -153.235         -52.3198        -81.0675         -52.3198        -81.0692       -0.0128569         147.081
0.561                  -0.907173        -153.837         -52.1861        -82.6773         -52.1861        -82.6791       -0.0129662          147.01
0.562                   -0.93503        -154.441         -52.0526        -84.2938         -52.0527        -84.2955       -0.0130771         146.938
0.563                  -0.963648        -155.046         -51.9196        -85.9169         -51.9196        -85.9187       -0.0131896         146.867
0.564                  -0.993031        -155.653         -51.7868        -87.5467         -51.7869        -87.5485       -0.0133038         146.796
0.565                   -1.02319        -156.261         -51.6545        -89.1831         -51.6546        -89.1849       -0.0134197         146.724
0.566                   -1.05412         -156.87         -51.5226        -90.8262         -51.5228         -90.828       -0.0135373         146.652
0.567                   -1.08582         -157.48         -51.3912        -92.4759         -51.3913        -92.4778       -0.0136567         146.581
0.568                   -1.11831         -158.09         -51.2602        -94.1323         -51.2604        -94.1341       -0.0137779         146.509
0.569                   -1.15158        -158.702         -51.1298        -95.7952           -51.13         -95.797       -0.0139009         146.436
0.57                    -1.18562        -159.314         -50.9999        -97.4646         -51.0001        -97.4665       -0.0140258         146.364
0.571                   -1.22044        -159.926         -50.8706        -99.1404         -50.8708        -99.1423       -0.0141527         146.292
0.572                   -1.25603        -160.538         -50.7419        -100.823         -50.7421        -100.824       -0.0142815         146.219
0.573                   -1.29238        -161.151         -50.6138        -102.511          -50.614        -102.513       -0.0144123         146.147
0.574                   -1.32949        -161.763         -50.4864        -104.206         -50.4866        -104.208       -0.0145452         146.074
0.575                   -1.36735        -162.376         -50.3596        -105.906         -50.3599        -105.908       -0.0146801         146.001
0.576                   -1.40595        -162.988         -50.2336        -107.613         -50.2339        -107.615       -0.0148172         145.928
0.577                   -1.44527        -163.599         -50.1084        -109.325         -50.1086        -109.327       -0.0149564         145.854
0.578                   -1.48529         -164.21         -49.9839        -111.043         -49.9842        -111.045       -0.0150978         145.781
0.579                   -1.52601         -164.82         -49.8602        -112.766         -49.8605        -112.768       -0.0152414         145.708
0.58                    -1.56741        -165.429         -49.7373        -114.495         -49.7376        -114.497       -0.0153873         145.634
0.581                   -1.60946        -166.037         -49.6153        -116.228         -49.6156         -116.23       -0.0155354          145.56
0.582                   -1.65214        -166.645         -49.4941        -117.967         -49.4944        -117.968       -0.0156859         145.486
0.583                   -1.69544         -167.25         -49.3738         -119.71         -49.3742        -119.711       -0.0158388         145.412
0.584                   -1.73932        -167.855         -49.2545        -121.457         -49.2548        -121.459        -0.015994         145.337
0.585                   -1.78376        -168.458          -49.136        -123.209         -49.1364         -123.21       -0.0161517         145.263
0.586                   -1.82874         -169.06         -49.0186        -124.964         -49.0189        -124.966       -0.0163117         145.188
0.587                   -1.87422        -169.661         -48.9021        -126.723         -48.9024        -126.725       -0.0164743         145.113
0.588                   -1.92018         -170.26         -48.7865        -128.486         -48.7868        -128.487       -0.0166393         145.038
0.589                   -1.96659        -170.857          -48.672        -130.251         -48.6723        -130.253       -0.0168068         144.963
0.59                    -2.01341        -171.453         -48.5584         -132.02         -48.5587        -132.021       -0.0169769         144.888
0.591                   -2.06062        -172.048         -48.4459        -133.791         -48.4462        -133.792       -0.0171495         144.812
0.592                   -2.10818        -172.641         -48.3343        -135.564         -48.3347        -135.565       -0.0173247         144.737
0.593                   -2.15606        -173.233         -48.2238        -137.339         -48.2241         -137.34       -0.0175024         144.661
0.594                   -2.20423        -173.824         -48.1143        -139.116         -48.1146        -139.117       -0.0176828         144.585
0.595                   -2.25266        -174.413         -48.0059        -140.895         -48.0062        -140.895       -0.0178657         144.509
0.596                   -2.30132        -175.001         -47.8984        -142.674         -47.8987        -142.675       -0.0180512         144.432
0.597                   -2.35018        -175.589          -47.792        -144.454         -47.7923        -144.455       -0.0182394         144.356
0.598                    -2.3992        -176.175         -47.6865        -146.235         -47.6868        -146.236       -0.0184301         144.279
0.599                   -2.44837        -176.761         -47.5821        -148.016         -47.5824        -148.017       -0.0186235         144.202
0.6                     -2.49765        -177.347         -47.4787        -149.797         -47.4789        -149.798       -0.0188194         144.125
0.601                   -2.54702        -177.933         -47.3762        -151.578         -47.3765        -151.578        -0.019018         144.048
0.602                   -2.59646        -178.518         -47.2747        -153.358          -47.275        -153.358       -0.0192192          143.97
0.603                   -2.64596        -179.104         -47.1741        -155.137         -47.1744        -155.137        -0.019423         143.893
0.604                   -2.69548        -179.691         -47.0745        -156.915         -47.0747        -156.915       -0.0196294         143.815
0.605                   -2.74502         179.722         -46.9757        -158.692          -46.976        -158.692       -0.0198385         143.737
0.606                   -2.79457         179.133         -46.8779        -160.466         -46.8781        -160.467       -0.0200501         143.659
0.607                   -2.84412         178.543         -46.7809         -162.24         -46.7811         -162.24       -0.0202643          143.58
0.608                   -2.89366         177.951         -46.6847        -164.011         -46.6849        -164.011       -0.0204812         143.501
0.609                    -2.9432         177.357         -46.5893        -165.779         -46.5896         -165.78       -0.0207006         143.423
0.61                    -2.99273          176.76         -46.4947        -167.545          -46.495        -167.546       -0.0209226         143.344
0.611                   -3.04226         176.161         -46.4009        -169.309         -46.4011        -169.309       -0.0211473         143.264
0.612                   -3.09181         175.558         -46.3078         -171.07          -46.308         -171.07       -0.0213746         143.185
0.613                   -3.14138         174.952         -46.2153        -172.827         -46.2155        -172.828       -0.0216045         143.105
0.614                     -3.191         174.342         -46.1235        -174.582         -46.1237        -174.582       -0.0218371         143.025
0.615                   -3.24068         173.727         -46.0323        -176.333         -46.0325        -176.333       -0.0220723         142.945
0.616                   -3.29045         173.108         -45.9417         -178.08         -45.9418        -178.081       -0.0223102         142.864
0.617                   -3.34035         172.484         -45.8516        -179.825         -45.8517        -179.825       -0.0225509         142.784
0.618                   -3.39041         171.855          -45.762         178.435         -45.7621         178.435       -0.0227943         142.703
0.619                   -3.44066          171.22         -45.6729         176.698          -45.673         176.698       -0.0230405         142.622
0.62                    -3.49115         170.579         -45.5842         174.965         -45.5843         174.965       -0.0232896         142.541
0.621                   -3.54193         169.931         -45.4959         173.236          -45.496         173.235       -0.0235416         142.459
0.622                   -3.59304         169.277          -45.408          171.51         -45.4081          171.51       -0.0237965         142.377
0.623                   -3.64455         168.616         -45.3203         169.788         -45.3205         169.788       -0.0240544         142.295
0.624                    -3.6965         167.947          -45.233          168.07         -45.2331          168.07       -0.0243154         142.213
0.625                   -3.74896         167.271         -45.1459         166.356         -45.1461         166.356       -0.0245796          142.13
0.626                   -3.80199         166.588         -45.0591         164.645         -45.0592         164.645       -0.0248471         142.047
0.627                   -3.85566         165.896         -44.9724         162.939         -44.9725         162.938       -0.0251179         141.964
0.628                   -3.91004         165.196         -44.8859         161.235          -44.886         161.235       -0.0253921         141.881
0.629                   -3.96521         164.488         -44.7995         159.536         -44.7996         159.535       -0.0256698         141.797
