! TOUCHSTONE file generated by CST MICROWAVE STUDIO
! Date and time: Fri Oct 30 08:07:32 2020
! Project name: Scenario_1_Circular_Tissue_out_of_Line.cst
! Parameters = {dy1=208.912; L_HA=400; MT=2.54; Rad_Dielectric=30; Rad_Lower=7.3; Rad_Upper=30; a_HA=580; a_WG=246; b_HA=500; b_WG=121; c_HA=0; c_WG=187; d_feed=85; dx1=520; h_feed=15; h_lower=18; h_upper=40}
! Header version: 2018
! Port assignment regex: !\s*Touchstone port\s*([0-9]+)\s*=\s*(CST MWS port|CST DS port)\s*([0-9]+|Zmin|Zmax)\s*\(\"(.*)\"\)(\s*mode\s*([0-9]+))?.*
! Touchstone port assignment:
! Touchstone port 1 = CST MWS port 1 ("")
! Touchstone port 2 = CST MWS port 2 ("")
# GHz S DB R 50
0.5                    -0.139208        -122.532         -62.4223        -72.9432         -62.4223        -72.9408      -0.00730432         151.143
0.501                  -0.146174        -122.987         -62.2348        -74.3716         -62.2349        -74.3688      -0.00736661         151.078
0.502                   -0.15338        -123.444         -62.0449        -75.8217         -62.0449        -75.8185       -0.0074299         151.013
0.503                  -0.160822        -123.901         -61.8526        -77.2941         -61.8526        -77.2906      -0.00749422         150.947
0.504                  -0.168501        -124.359         -61.6581        -78.7893         -61.6581        -78.7856      -0.00755957         150.882
0.505                  -0.176413        -124.819         -61.4615        -80.3079         -61.4615         -80.304      -0.00762597         150.816
0.506                  -0.184556        -125.279         -61.2629        -81.8505         -61.2629        -81.8464      -0.00769343          150.75
0.507                   -0.19293        -125.741         -61.0626        -83.4175         -61.0626        -83.4134      -0.00776196         150.685
0.508                  -0.201532        -126.203         -60.8606        -85.0096         -60.8606        -85.0055      -0.00783157         150.619
0.509                  -0.210359        -126.667         -60.6572        -86.6271         -60.6572        -86.6229      -0.00790228         150.553
0.51                    -0.21941        -127.132         -60.4525        -88.2704         -60.4526        -88.2663      -0.00797409         150.487
0.511                  -0.228682        -127.598         -60.2468          -89.94         -60.2469         -89.936      -0.00804703         150.421
0.512                  -0.238174        -128.065         -60.0402        -91.6361         -60.0403        -91.6322      -0.00812109         150.355
0.513                  -0.247882        -128.533          -59.833        -93.3589         -59.8331        -93.3551      -0.00819631         150.288
0.514                  -0.257804        -129.002         -59.6253        -95.1087         -59.6255        -95.1051      -0.00827268         150.222
0.515                  -0.267939        -129.472         -59.4175        -96.8856         -59.4176        -96.8821      -0.00835022         150.156
0.516                  -0.278283        -129.943         -59.2096        -98.6895         -59.2098        -98.6863      -0.00842895         150.089
0.517                  -0.288835        -130.416         -59.0021         -100.52         -59.0023        -100.517      -0.00850888         150.023
0.518                  -0.299591        -130.889          -58.795        -102.378         -58.7953        -102.375      -0.00859002         149.956
0.519                  -0.310549        -131.364         -58.5887        -104.263         -58.5891         -104.26      -0.00867238         149.889
0.52                   -0.321707         -131.84         -58.3834        -106.173         -58.3838        -106.171      -0.00875598         149.822
0.521                  -0.333061        -132.317         -58.1794        -108.109         -58.1798        -108.107      -0.00884083         149.756
0.522                   -0.34461        -132.796         -57.9768        -110.071         -57.9773        -110.069      -0.00892695         149.689
0.523                  -0.356351        -133.275          -57.776        -112.056         -57.7766        -112.054      -0.00901434         149.621
0.524                  -0.368282        -133.756         -57.5771        -114.066         -57.5777        -114.064      -0.00910302         149.554
0.525                  -0.380399        -134.239         -57.3804        -116.098         -57.3811        -116.096        -0.009193         149.487
0.526                    -0.3927        -134.722         -57.1861        -118.151         -57.1869         -118.15       -0.0092843          149.42
0.527                  -0.405184        -135.207         -56.9945        -120.225         -56.9953        -120.224      -0.00937692         149.352
0.528                  -0.417847        -135.693         -56.8056        -122.318         -56.8066        -122.317      -0.00947088         149.285
0.529                  -0.430687        -136.181         -56.6198        -124.429         -56.6208        -124.428      -0.00956619         149.217
0.53                   -0.443702         -136.67         -56.4371        -126.557         -56.4381        -126.555      -0.00966285         149.149
0.531                  -0.456891        -137.161         -56.2576        -128.699         -56.2588        -128.698      -0.00976088         149.082
0.532                  -0.470249        -137.653         -56.0816        -130.854         -56.0828        -130.853      -0.00986028         149.014
0.533                  -0.483777        -138.147         -55.9092        -133.021         -55.9104         -133.02      -0.00996107         148.946
0.534                  -0.497472        -138.643         -55.7403        -135.199         -55.7416        -135.197       -0.0100632         148.878
0.535                  -0.511332         -139.14         -55.5751        -137.384         -55.5764        -137.383       -0.0101668          148.81
0.536                  -0.525355        -139.639         -55.4136        -139.576          -55.415        -139.575       -0.0102718         148.741
0.537                  -0.539542        -140.139         -55.2558        -141.773         -55.2572        -141.772       -0.0103781         148.673
0.538                  -0.553889        -140.642         -55.1017        -143.974         -55.1032        -143.972       -0.0104859         148.604
0.539                  -0.568397        -141.146         -54.9513        -146.176         -54.9528        -146.174       -0.0105951         148.536
0.54                   -0.583065        -141.653         -54.8046        -148.378         -54.8061        -148.376       -0.0107056         148.467
0.541                  -0.597892        -142.161         -54.6614        -150.579         -54.6629        -150.576       -0.0108176         148.398
0.542                  -0.612878        -142.671         -54.5217        -152.776         -54.5233        -152.774       -0.0109309          148.33
0.543                  -0.628024        -143.184         -54.3854         -154.97          -54.387        -154.967       -0.0110457         148.261
0.544                   -0.64333        -143.698         -54.2524        -157.158         -54.2539        -157.155       -0.0111617         148.191
0.545                  -0.658796        -144.215         -54.1225         -159.34          -54.124        -159.337       -0.0112791         148.122
0.546                  -0.674425        -144.735         -53.9956        -161.514         -53.9972        -161.511       -0.0113979         148.053
0.547                  -0.690218        -145.257         -53.8716        -163.679         -53.8731        -163.676       -0.0115179         147.984
0.548                  -0.706176        -145.781         -53.7503        -165.835         -53.7518        -165.832       -0.0116393         147.914
0.549                  -0.722304        -146.308         -53.6315        -167.981          -53.633        -167.977       -0.0117619         147.845
0.55                   -0.738603        -146.837         -53.5151        -170.116         -53.5165        -170.112       -0.0118857         147.775
0.551                  -0.755078         -147.37         -53.4009         -172.24         -53.4023        -172.236       -0.0120107         147.705
0.552                  -0.771733        -147.905         -53.2887        -174.352         -53.2901        -174.348       -0.0121369         147.635
0.553                  -0.788574        -148.443         -53.1784        -176.452         -53.1797        -176.448       -0.0122642         147.565
0.554                  -0.805605        -148.985         -53.0698        -178.541         -53.0711        -178.536       -0.0123926         147.495
0.555                  -0.822834        -149.529         -52.9628         179.383          -52.964         179.388        -0.012522         147.425
0.556                  -0.840268        -150.077         -52.8571          177.32         -52.8583         177.324       -0.0126524         147.354
0.557                  -0.857914        -150.628         -52.7527         175.268         -52.7538         175.273       -0.0127838         147.284
0.558                  -0.875783        -151.182         -52.6493         173.229         -52.6504         173.233       -0.0129161         147.213
0.559                  -0.893883         -151.74         -52.5469         171.201         -52.5479         171.205       -0.0130493         147.142
0.56                   -0.912226        -152.302         -52.4453         169.185         -52.4462         169.189       -0.0131832         147.072
0.561                  -0.930824        -152.868         -52.3444          167.18         -52.3453         167.184        -0.013318         147.001
0.562                   -0.94969        -153.437          -52.244         165.186         -52.2449          165.19       -0.0134535          146.93
0.563                  -0.968839        -154.011         -52.1441         163.202         -52.1449         163.206       -0.0135897         146.858
0.564                  -0.988285        -154.588         -52.0445         161.229         -52.0453         161.233       -0.0137266         146.787
0.565                   -1.00805         -155.17         -51.9452         159.265         -51.9459         159.268       -0.0138641         146.716
0.566                   -1.02814        -155.757         -51.8461          157.31         -51.8468         157.313       -0.0140023         146.644
0.567                   -1.04859        -156.347         -51.7471         155.363         -51.7477         155.366       -0.0141411         146.572
0.568                   -1.06941        -156.943         -51.6481         153.424         -51.6486         153.428       -0.0142806           146.5
0.569                   -1.09063        -157.543          -51.549         151.493         -51.5495         151.496       -0.0144207         146.428
0.57                    -1.11226        -158.148         -51.4499         149.569         -51.4504         149.572       -0.0145614         146.356
0.571                   -1.13435        -158.758         -51.3506          147.65          -51.351         147.653       -0.0147028         146.284
0.572                   -1.15691        -159.373         -51.2512         145.738         -51.2515          145.74       -0.0148449         146.212
0.573                   -1.17997        -159.993         -51.1515          143.83         -51.1518         143.833       -0.0149877         146.139
0.574                   -1.20357        -160.618         -51.0516         141.927         -51.0519          141.93       -0.0151314         146.066
0.575                   -1.22773        -161.248         -50.9514         140.029         -50.9516         140.031       -0.0152759         145.994
0.576                   -1.25249        -161.884         -50.8509         138.133         -50.8511         138.135       -0.0154214         145.921
0.577                    -1.2779        -162.526         -50.7502          136.24         -50.7504         136.242       -0.0155679         145.847
0.578                   -1.30398        -163.173         -50.6491          134.35         -50.6493         134.352       -0.0157154         145.774
0.579                   -1.33077        -163.825         -50.5478         132.462         -50.5479         132.463       -0.0158642         145.701
0.58                    -1.35833        -164.483         -50.4462         130.575         -50.4463         130.576       -0.0160142         145.627
0.581                   -1.38668        -165.147         -50.3443         128.689         -50.3444          128.69       -0.0161657         145.553
0.582                   -1.41589        -165.816         -50.2422         126.803         -50.2422         126.804       -0.0163186         145.479
0.583                   -1.44599        -166.491         -50.1398         124.918         -50.1398         124.919       -0.0164731         145.405
0.584                   -1.47703        -167.172         -50.0372         123.032         -50.0372         123.032       -0.0166293         145.331
0.585                   -1.50906        -167.858         -49.9344         121.145         -49.9344         121.146       -0.0167873         145.257
0.586                   -1.54213         -168.55         -49.8315         119.257         -49.8315         119.258       -0.0169471         145.182
0.587                    -1.5763        -169.247         -49.7284         117.368         -49.7284         117.368        -0.017109         145.107
0.588                   -1.61162        -169.949         -49.6253         115.477         -49.6253         115.477       -0.0172729         145.032
0.589                   -1.64813        -170.657         -49.5221         113.584         -49.5221         113.583       -0.0174391         144.957
0.59                    -1.68591        -171.369          -49.419         111.688         -49.4189         111.688       -0.0176075         144.882
0.591                   -1.72498        -172.087         -49.3158          109.79         -49.3158         109.789       -0.0177782         144.807
0.592                   -1.76542        -172.809         -49.2128         107.889         -49.2127         107.888       -0.0179514         144.731
0.593                   -1.80727        -173.535         -49.1099         105.985         -49.1098         105.984       -0.0181271         144.655
0.594                   -1.85059        -174.266         -49.0071         104.077         -49.0071         104.077       -0.0183054         144.579
0.595                   -1.89541            -175         -48.9046         102.167         -48.9045         102.166       -0.0184864         144.503
0.596                    -1.9418        -175.738         -48.8024         100.253         -48.8023         100.252         -0.01867         144.427
0.597                    -1.9898        -176.479         -48.7004         98.3359         -48.7004          98.335       -0.0188565          144.35
0.598                   -2.03944        -177.223         -48.5989         96.4151         -48.5989         96.4142       -0.0190457         144.273
0.599                   -2.09077        -177.969         -48.4978         94.4909         -48.4978         94.4899       -0.0192379         144.196
0.6                     -2.14382        -178.717         -48.3972         92.5632         -48.3971         92.5622        -0.019433         144.119
0.601                   -2.19863        -179.466         -48.2971         90.6321          -48.297          90.631       -0.0196311         144.042
0.602                   -2.25522         179.783         -48.1976         88.6975         -48.1975         88.6965       -0.0198322         143.965
0.603                    -2.3136         179.033         -48.0987         86.7598         -48.0986         86.7587       -0.0200364         143.887
0.604                    -2.3738         178.282         -48.0004         84.8188         -48.0004         84.8178       -0.0202437         143.809
0.605                   -2.43582         177.532         -47.9029         82.8749         -47.9029         82.8738       -0.0204542         143.731
0.606                   -2.49967         176.783         -47.8061         80.9281         -47.8061         80.9271       -0.0206678         143.653
0.607                   -2.56534         176.036         -47.7102         78.9787         -47.7102         78.9777       -0.0208847         143.574
0.608                   -2.63282         175.292          -47.615         77.0268          -47.615         77.0258       -0.0211048         143.495
0.609                   -2.70209          174.55         -47.5208         75.0728         -47.5208         75.0718       -0.0213282         143.416
0.61                    -2.77313         173.812         -47.4274         73.1168         -47.4274         73.1158        -0.021555         143.337
0.611                    -2.8459         173.078          -47.335         71.1591          -47.335         71.1582       -0.0217851         143.258
0.612                   -2.92036         172.348         -47.2435            69.2         -47.2435         69.1992       -0.0220186         143.178
0.613                   -2.99647         171.624          -47.153         67.2399          -47.153         67.2391       -0.0222555         143.099
0.614                   -3.07416         170.904         -47.0635          65.279         -47.0635         65.2782       -0.0224959         143.019
0.615                   -3.15339         170.191          -46.975         63.3176          -46.975         63.3169       -0.0227397         142.938
0.616                   -3.23409         169.485         -46.8876         61.3561         -46.8876         61.3555       -0.0229871         142.858
0.617                   -3.31617         168.785         -46.8012         59.3949         -46.8012         59.3943       -0.0232381         142.777
0.618                   -3.39958         168.092         -46.7158         57.4342         -46.7158         57.4337       -0.0234926         142.696
0.619                   -3.48421         167.407         -46.6315         55.4745         -46.6315          55.474       -0.0237508         142.615
0.62                       -3.57         166.729         -46.5482         53.5161         -46.5483         53.5156       -0.0240127         142.534
0.621                   -3.65686         166.059          -46.466         51.5593          -46.466         51.5589       -0.0242783         142.452
0.622                   -3.74469         165.397         -46.3848         49.6045         -46.3849         49.6042       -0.0245476          142.37
0.623                    -3.8334         164.743         -46.3046          47.652         -46.3047         47.6518       -0.0248208         142.288
0.624                    -3.9229         164.098         -46.2254         45.7022         -46.2255         45.7021       -0.0250978         142.206
0.625                   -4.01311          163.46         -46.1473         43.7555         -46.1473         43.7554       -0.0253786         142.123
0.626                   -4.10393          162.83           -46.07         41.8121         -46.0701          41.812       -0.0256634          142.04
0.627                   -4.19528         162.208         -45.9937         39.8723         -45.9938         39.8723       -0.0259522         141.957
0.628                   -4.28707         161.594         -45.9183         37.9366         -45.9184         37.9366        -0.026245         141.874
0.629                   -4.37922         160.987         -45.8438         36.0051         -45.8439         36.0052        -0.026542          141.79
