! TOUCHSTONE file generated by CST MICROWAVE STUDIO
! Date and time: Wed Oct 28 19:19:51 2020
! Project name: Scenario_1_Circular_Tissue_out_of_Line.cst
! Parameters = {dy1=208.912; L_HA=400; MT=2.54; Rad_Dielectric=30; Rad_Lower=7.3; Rad_Upper=30; a_HA=580; a_WG=246; b_HA=500; b_WG=121; c_HA=0; c_WG=187; d_feed=85; dx1=693; h_feed=15; h_lower=18; h_upper=40}
! Header version: 2018
! Port assignment regex: !\s*Touchstone port\s*([0-9]+)\s*=\s*(CST MWS port|CST DS port)\s*([0-9]+|Zmin|Zmax)\s*\(\"(.*)\"\)(\s*mode\s*([0-9]+))?.*
! Touchstone port assignment:
! Touchstone port 1 = CST MWS port 1 ("")
! Touchstone port 2 = CST MWS port 2 ("")
# GHz S DB R 50
0.5                    -0.150387        -122.246         -62.8721        -176.301         -62.8721        -176.301      -0.00767972         151.121
0.501                  -0.160182        -122.711         -62.7514        -177.997         -62.7514        -177.997      -0.00773083         151.056
0.502                  -0.170171        -123.177         -62.6289        -179.702         -62.6289        -179.702       -0.0077829          150.99
0.503                  -0.180351        -123.644         -62.5046         178.585         -62.5045         178.585      -0.00783595         150.925
0.504                  -0.190719        -124.112         -62.3785         176.865         -62.3784         176.865      -0.00788999          150.86
0.505                  -0.201273         -124.58         -62.2505         175.136         -62.2505         175.136      -0.00794503         150.794
0.506                  -0.212009        -125.049         -62.1209         173.399         -62.1208         173.399      -0.00800107         150.728
0.507                  -0.222924        -125.518         -61.9894         171.654         -61.9894         171.655      -0.00805812         150.663
0.508                  -0.234016        -125.989         -61.8563         169.901         -61.8562         169.902       -0.0081162         150.597
0.509                  -0.245281         -126.46         -61.7215         168.141         -61.7214         168.141      -0.00817531         150.531
0.51                   -0.256715        -126.931         -61.5851         166.371          -61.585         166.372      -0.00823546         150.465
0.511                  -0.268314        -127.404          -61.447         164.594         -61.4469         164.595      -0.00829666         150.399
0.512                  -0.280076        -127.877         -61.3074         162.809         -61.3072         162.809      -0.00835892         150.333
0.513                  -0.291997        -128.351         -61.1662         161.015         -61.1661         161.015      -0.00842226         150.267
0.514                  -0.304072        -128.826         -61.0235         159.213         -61.0233         159.213      -0.00848666         150.201
0.515                  -0.316296        -129.301         -60.8793         157.402         -60.8792         157.403      -0.00855216         150.134
0.516                  -0.328667        -129.778         -60.7337         155.583         -60.7336         155.584      -0.00861875         150.068
0.517                  -0.341179        -130.255         -60.5868         153.755         -60.5866         153.756      -0.00868645         150.002
0.518                  -0.353827        -130.733         -60.4384         151.919         -60.4382          151.92      -0.00875526         149.935
0.519                  -0.366606        -131.212         -60.2888         150.074         -60.2886         150.075      -0.00882519         149.868
0.52                    -0.37951        -131.692         -60.1379          148.22         -60.1377         148.221      -0.00889626         149.801
0.521                  -0.392535        -132.173         -59.9858         146.357         -59.9856         146.358      -0.00896847         149.735
0.522                  -0.405673        -132.655         -59.8326         144.485         -59.8323         144.486      -0.00904182         149.668
0.523                  -0.418919        -133.138         -59.6782         142.604          -59.678         142.605      -0.00911634         149.601
0.524                  -0.432266        -133.622         -59.5229         140.713         -59.5226         140.714      -0.00919203         149.534
0.525                  -0.445705        -134.107         -59.3665         138.813         -59.3662         138.814       -0.0092689         149.466
0.526                  -0.459229        -134.593         -59.2092         136.904         -59.2089         136.905      -0.00934695         149.399
0.527                  -0.472829        -135.081          -59.051         134.985         -59.0507         134.986       -0.0094262         149.332
0.528                  -0.486496        -135.569          -58.892         133.056         -58.8918         133.057      -0.00950665         149.264
0.529                  -0.500219         -136.06         -58.7323         131.117          -58.732         131.118      -0.00958833         149.196
0.53                   -0.513987        -136.551         -58.5719         129.168         -58.5716          129.17      -0.00967122         149.129
0.531                  -0.527789        -137.044         -58.4109         127.209         -58.4106         127.211      -0.00975535         149.061
0.532                  -0.541609        -137.539         -58.2493          125.24          -58.249         125.242      -0.00984072         148.993
0.533                  -0.555433        -138.036         -58.0873         123.261          -58.087         123.262      -0.00992735         148.925
0.534                  -0.569245        -138.534         -57.9249         121.271         -57.9246         121.273       -0.0100152         148.857
0.535                  -0.583025        -139.034         -57.7621         119.271         -57.7618         119.273       -0.0101044         148.789
0.536                  -0.596752        -139.537         -57.5991         117.261         -57.5988         117.262       -0.0101948         148.721
0.537                  -0.610403        -140.041         -57.4359         115.239         -57.4356         115.241       -0.0102866         148.652
0.538                  -0.623951        -140.549         -57.2727         113.207         -57.2723         113.209       -0.0103796         148.584
0.539                  -0.637366        -141.059         -57.1094         111.165          -57.109         111.166        -0.010474         148.515
0.54                   -0.650613        -141.572         -56.9461         109.112         -56.9458         109.113       -0.0105697         148.446
0.541                  -0.663654        -142.089          -56.783         107.048         -56.7827         107.049       -0.0106667         148.378
0.542                  -0.676444         -142.61         -56.6202         104.973         -56.6199         104.974        -0.010765         148.309
0.543                  -0.688933        -143.136         -56.4576         102.888         -56.4573         102.889       -0.0108647          148.24
0.544                  -0.701067        -143.667         -56.2955         100.792         -56.2951         100.793       -0.0109658         148.171
0.545                  -0.712783        -144.205         -56.1338         98.6855         -56.1335          98.687       -0.0110683         148.101
0.546                  -0.724017         -144.75         -55.9727         96.5688         -55.9723         96.5702       -0.0111721         148.032
0.547                  -0.734704        -145.305         -55.8122         94.4417         -55.8119         94.4431       -0.0112773         147.963
0.548                  -0.744787        -145.872         -55.6524         92.3045         -55.6521         92.3059        -0.011384         147.893
0.549                  -0.754234        -146.453         -55.4935         90.1573         -55.4932         90.1587        -0.011492         147.823
0.55                   -0.763072        -147.053         -55.3354         88.0003         -55.3351         88.0016       -0.0116015         147.754
0.551                  -0.771454        -147.677         -55.1784         85.8337          -55.178          85.835       -0.0117125         147.684
0.552                  -0.779783        -148.332         -55.0223         83.6577          -55.022          83.659       -0.0118249         147.614
0.553                  -0.788951         -149.03         -54.8674         81.4726         -54.8671         81.4739       -0.0119388         147.544
0.554                  -0.800785        -149.781         -54.7137         79.2788         -54.7134           79.28       -0.0120541         147.473
0.555                  -0.818796          -150.6         -54.5613         77.0764          -54.561         77.0776        -0.012171         147.403
0.556                  -0.849199        -151.491         -54.4102         74.8658           -54.41          74.867       -0.0122893         147.333
0.557                  -0.901379        -152.435         -54.2606         72.6473         -54.2603         72.6485       -0.0124092         147.262
0.558                  -0.984933        -153.354         -54.1125         70.4215         -54.1122         70.4227       -0.0125306         147.191
0.559                   -1.09958        -154.102         -53.9659         68.1889         -53.9657           68.19       -0.0126535          147.12
0.56                    -1.22465         -154.55          -53.821         65.9501         -53.8208         65.9512       -0.0127781         147.049
0.561                   -1.32918        -154.723         -53.6777         63.7057         -53.6775         63.7068       -0.0129041         146.978
0.562                   -1.39734        -154.778         -53.5361         61.4561         -53.5359         61.4572       -0.0130318         146.907
0.563                   -1.43399        -154.858         -53.3962         59.2015          -53.396         59.2026       -0.0131611         146.836
0.564                   -1.45143        -155.025          -53.258         56.9425         -53.2578         56.9435       -0.0132919         146.764
0.565                   -1.45966        -155.284         -53.1216         54.6794         -53.1214         54.6804       -0.0134244         146.693
0.566                   -1.46461        -155.619          -52.987         52.4128         -52.9868         52.4138       -0.0135586         146.621
0.567                   -1.46924        -156.013         -52.8542         50.1433          -52.854         50.1443       -0.0136943         146.549
0.568                   -1.47489         -156.45         -52.7233         47.8715         -52.7231         47.8724       -0.0138318         146.477
0.569                   -1.48206        -156.918         -52.5942         45.5978         -52.5941         45.5987       -0.0139709         146.405
0.57                    -1.49087        -157.411          -52.467         43.3229         -52.4669         43.3238       -0.0141117         146.333
0.571                   -1.50125        -157.923         -52.3416         41.0473         -52.3415         41.0481       -0.0142543          146.26
0.572                   -1.51309        -158.449         -52.2181         38.7715          -52.218         38.7723       -0.0143985         146.188
0.573                   -1.52626        -158.987         -52.0964          36.496         -52.0963         36.4969       -0.0145445         146.115
0.574                   -1.54061        -159.535         -51.9765         34.2215         -51.9765         34.2224       -0.0146922         146.042
0.575                   -1.55603        -160.092         -51.8584         31.9484         -51.8584         31.9492       -0.0148417         145.969
0.576                   -1.57242        -160.657         -51.7421         29.6771          -51.742          29.678       -0.0149929         145.896
0.577                   -1.58969        -161.229         -51.6274         27.4082         -51.6274         27.4091        -0.015146         145.823
0.578                   -1.60778        -161.807         -51.5144         25.1421         -51.5144         25.1429       -0.0153008         145.749
0.579                   -1.62663        -162.391         -51.4031         22.8792         -51.4031           22.88       -0.0154574         145.676
0.58                    -1.64618        -162.981         -51.2933         20.6198         -51.2933         20.6207       -0.0156159         145.602
0.581                    -1.6664        -163.576          -51.185         18.3645          -51.185         18.3653       -0.0157762         145.528
0.582                   -1.68727        -164.178         -51.0782         16.1134         -51.0782         16.1143       -0.0159383         145.454
0.583                   -1.70875        -164.784         -50.9728         13.8669         -50.9728         13.8678       -0.0161023          145.38
0.584                   -1.73084        -165.397         -50.8687         11.6253         -50.8687         11.6262       -0.0162682         145.305
0.585                   -1.75352        -166.014         -50.7658         9.38881         -50.7659         9.38975       -0.0164359         145.231
0.586                    -1.7768        -166.638         -50.6642         7.15763         -50.6643         7.15858       -0.0166055         145.156
0.587                   -1.80065        -167.267         -50.5637         4.93193         -50.5638         4.93289       -0.0167771         145.081
0.588                    -1.8251        -167.901         -50.4643         2.71186         -50.4643         2.71283       -0.0169506         145.006
0.589                   -1.85015        -168.541         -50.3658        0.497507         -50.3659        0.498501        -0.017126         144.931
0.59                    -1.87581        -169.187         -50.2683        -1.71104         -50.2684        -1.71003       -0.0173033         144.856
0.591                   -1.90208        -169.839         -50.1717        -3.91376         -50.1717        -3.91273       -0.0174826          144.78
0.592                   -1.92899        -170.497         -50.0758        -6.11063         -50.0759        -6.10959       -0.0176639         144.705
0.593                   -1.95656        -171.161         -49.9806         -8.3017         -49.9807        -8.30064       -0.0178472         144.629
0.594                   -1.98481        -171.831         -49.8861         -10.487         -49.8862        -10.4859       -0.0180325         144.553
0.595                   -2.01376        -172.508         -49.7921        -12.6666         -49.7922        -12.6656       -0.0182198         144.477
0.596                   -2.04344        -173.191         -49.6987        -14.8407         -49.6988        -14.8396       -0.0184091           144.4
0.597                   -2.07388         -173.88         -49.6058        -17.0094         -49.6059        -17.0083       -0.0186005         144.324
0.598                   -2.10511        -174.577         -49.5132        -19.1728         -49.5133        -19.1717       -0.0187941         144.247
0.599                   -2.13717        -175.279          -49.421        -21.3312         -49.4211        -21.3301       -0.0189897          144.17
0.6                      -2.1701        -175.989         -49.3291        -23.4848         -49.3292        -23.4836       -0.0191875         144.093
0.601                   -2.20394        -176.706         -49.2374        -25.6337         -49.2375        -25.6326       -0.0193874         144.016
0.602                   -2.23874         -177.43         -49.1459        -27.7783          -49.146        -27.7772       -0.0195896         143.938
0.603                   -2.27453        -178.161         -49.0546        -29.9189         -49.0547        -29.9178        -0.019794          143.86
0.604                   -2.31137        -178.899         -48.9634        -32.0557         -48.9635        -32.0545       -0.0200007         143.783
0.605                   -2.34931        -179.644         -48.8723         -34.189         -48.8723        -34.1879       -0.0202098         143.704
0.606                   -2.38842         179.603         -48.7812        -36.3191         -48.7813         -36.318       -0.0204212         143.626
0.607                   -2.42873         178.843         -48.6901        -38.4464         -48.6902        -38.4453       -0.0206351         143.548
0.608                   -2.47033         178.075         -48.5991        -40.5712         -48.5992        -40.5701       -0.0208515         143.469
0.609                   -2.51326           177.3          -48.508        -42.6938         -48.5081        -42.6928       -0.0210704          143.39
0.61                    -2.55761         176.517          -48.417        -44.8146          -48.417        -44.8136        -0.021292         143.311
0.611                   -2.60343         175.727         -48.3258         -46.934         -48.3259         -46.933       -0.0215163         143.231
0.612                   -2.65081          174.93         -48.2347        -49.0522         -48.2347        -49.0512       -0.0217434         143.152
0.613                   -2.69981         174.125         -48.1435        -51.1696         -48.1436        -51.1686       -0.0219733         143.072
0.614                   -2.75052         173.314         -48.0523        -53.2865         -48.0523        -53.2855       -0.0222063         142.992
0.615                   -2.80302         172.495          -47.961        -55.4033         -47.9611        -55.4024       -0.0224422         142.912
0.616                   -2.85739         171.669         -47.8698        -57.5202         -47.8698        -57.5194       -0.0226814         142.831
0.617                   -2.91372         170.836         -47.7785        -59.6377         -47.7786        -59.6368       -0.0229237          142.75
0.618                   -2.97208         169.997         -47.6873        -61.7559         -47.6874        -61.7551       -0.0231695         142.669
0.619                   -3.03259         169.152         -47.5962        -63.8752         -47.5962        -63.8744       -0.0234187         142.588
0.62                    -3.09532           168.3         -47.5051        -65.9958         -47.5052         -65.995       -0.0236715         142.507
0.621                   -3.16036         167.443         -47.4142        -68.1179         -47.4142        -68.1172       -0.0239279         142.425
0.622                   -3.22781         166.581         -47.3234        -70.2418         -47.3234        -70.2412       -0.0241882         142.343
0.623                   -3.29777         165.714         -47.2329        -72.3677         -47.2329        -72.3671       -0.0244524         142.261
0.624                   -3.37031         164.843         -47.1425        -74.4957         -47.1425        -74.4951       -0.0247207         142.178
0.625                   -3.44554         163.968         -47.0525        -76.6259         -47.0525        -76.6254       -0.0249931         142.096
0.626                   -3.52354          163.09         -46.9628        -78.7586         -46.9628         -78.758       -0.0252698         142.013
0.627                   -3.60441          162.21         -46.8735        -80.8936         -46.8735        -80.8932       -0.0255509         141.929
0.628                   -3.68821         161.328         -46.7847        -83.0312         -46.7847        -83.0308       -0.0258365         141.846
0.629                   -3.77504         160.445         -46.6963        -85.1713         -46.6963        -85.1709       -0.0261267         141.762
