! TOUCHSTONE file generated by CST MICROWAVE STUDIO
! Date and time: Mon Oct 26 12:29:42 2020
! Project name: Scenario_1_Circular_Tissue_out_of_Line.cst
! Parameters = {dy1=208.912; L_HA=400; MT=2.54; Rad_Dielectric=30; Rad_Lower=7.3; Rad_Upper=30; a_HA=580; a_WG=246; b_HA=500; b_WG=121; c_HA=0; c_WG=187; d_feed=85; dx1=866; h_feed=15; h_lower=18; h_upper=40}
! Header version: 2018
! Port assignment regex: !\s*Touchstone port\s*([0-9]+)\s*=\s*(CST MWS port|CST DS port)\s*([0-9]+|Zmin|Zmax)\s*\(\"(.*)\"\)(\s*mode\s*([0-9]+))?.*
! Touchstone port assignment:
! Touchstone port 1 = CST MWS port 1 ("")
! Touchstone port 2 = CST MWS port 2 ("")
# GHz S DB R 50
0.5                     -0.14556        -122.453         -63.8684         92.2114         -63.8684         92.2114      -0.00742565         151.127
0.501                  -0.149392        -122.851         -63.7583         90.0571         -63.7584         90.0568       -0.0074987         151.062
0.502                  -0.153368        -123.253         -63.6452         87.8919         -63.6454         87.8912      -0.00757223         150.996
0.503                  -0.157496        -123.659          -63.529         85.7162         -63.5293         85.7153      -0.00764625         150.931
0.504                  -0.161783        -124.068         -63.4098         83.5307         -63.4101         83.5294      -0.00772077         150.865
0.505                  -0.166236        -124.481         -63.2876         81.3356         -63.2879          81.334      -0.00779579           150.8
0.506                  -0.170864        -124.897         -63.1624         79.1315         -63.1628         79.1297      -0.00787134         150.734
0.507                  -0.175674        -125.318         -63.0343         76.9189         -63.0348         76.9168       -0.0079474         150.669
0.508                  -0.180673        -125.742         -62.9034         74.6982          -62.904         74.6957      -0.00802401         150.603
0.509                   -0.18587        -126.169         -62.7697         72.4697         -62.7703          72.467      -0.00810115         150.537
0.51                   -0.191272          -126.6         -62.6333         70.2339         -62.6339          70.231      -0.00817885         150.471
0.511                  -0.196887        -127.035         -62.4943         67.9912         -62.4949          67.988      -0.00825712         150.405
0.512                  -0.202723        -127.474         -62.3527         65.7419         -62.3534         65.7385      -0.00833595         150.339
0.513                  -0.208787        -127.916         -62.2086         63.4863         -62.2093         63.4827      -0.00841537         150.273
0.514                  -0.215088        -128.362         -62.0621         61.2249         -62.0629          61.221      -0.00849538         150.206
0.515                  -0.221634        -128.811         -61.9133         58.9577         -61.9141         58.9537      -0.00857599          150.14
0.516                  -0.228432        -129.264         -61.7623         56.6852         -61.7632          56.681      -0.00865722         150.074
0.517                  -0.235492        -129.721         -61.6092         54.4076         -61.6101         54.4033      -0.00873907         150.007
0.518                   -0.24282        -130.181         -61.4541          52.125          -61.455         52.1206      -0.00882155         149.941
0.519                  -0.250425        -130.645         -61.2971         49.8378          -61.298         49.8333      -0.00890468         149.874
0.52                   -0.258316        -131.112         -61.1383          47.546         -61.1391         47.5414      -0.00898846         149.807
0.521                    -0.2665        -131.583         -60.9777         45.2499         -60.9786         45.2452      -0.00907292          149.74
0.522                  -0.274985        -132.058         -60.8156         42.9495         -60.8165         42.9448      -0.00915805         149.673
0.523                   -0.28378        -132.536          -60.652          40.645         -60.6529         40.6403      -0.00924387         149.606
0.524                  -0.292893        -133.017         -60.4871         38.3365          -60.488         38.3318      -0.00933039         149.539
0.525                  -0.302332        -133.502         -60.3209         36.0241         -60.3218         36.0194      -0.00941763         149.472
0.526                  -0.312105         -133.99         -60.1535         33.7078         -60.1544         33.7031      -0.00950559         149.405
0.527                   -0.32222        -134.482         -59.9852         31.3877          -59.986         31.3831      -0.00959429         149.338
0.528                  -0.332686        -134.977         -59.8159         29.0639         -59.8168         29.0593      -0.00968375          149.27
0.529                  -0.343511        -135.476         -59.6459         26.7363         -59.6467         26.7318      -0.00977396         149.202
0.53                   -0.354702        -135.978         -59.4751          24.405         -59.4759         24.4006      -0.00986496         149.135
0.531                  -0.366268        -136.483         -59.3038           22.07         -59.3046         22.0657      -0.00995674         149.067
0.532                  -0.378217        -136.991         -59.1321         19.7313         -59.1329         19.7272       -0.0100493         148.999
0.533                  -0.390556        -137.503           -58.96          17.389         -58.9607          17.385       -0.0101427         148.931
0.534                  -0.403295        -138.018         -58.7877          15.043         -58.7884         15.0392        -0.010237         148.863
0.535                  -0.416439        -138.537         -58.6152         12.6933          -58.616         12.6897        -0.010332         148.795
0.536                  -0.429999        -139.058         -58.4428           10.34         -58.4435         10.3365        -0.010428         148.727
0.537                   -0.44398        -139.583         -58.2705           7.983         -58.2712         7.97974       -0.0105248         148.659
0.538                  -0.458391        -140.111         -58.0984         5.62237          -58.099         5.61933       -0.0106225          148.59
0.539                   -0.47324        -140.642         -57.9265         3.25812         -57.9272         3.25531       -0.0107211         148.522
0.54                   -0.488534        -141.176         -57.7552        0.890284         -57.7558        0.887708       -0.0108206         148.453
0.541                   -0.50428        -141.714         -57.5843        -1.48112         -57.5849        -1.48345        -0.010921         148.384
0.542                  -0.520486        -142.254          -57.414        -3.85603         -57.4146        -3.85812       -0.0110224         148.315
0.543                  -0.537158        -142.797         -57.2445        -6.23442          -57.245        -6.23625       -0.0111248         148.246
0.544                  -0.554305        -143.343         -57.0758         -8.6162         -57.0763        -8.61777       -0.0112281         148.177
0.545                  -0.571933        -143.892         -56.9079        -11.0013         -56.9084        -11.0026       -0.0113325         148.108
0.546                  -0.590049        -144.444          -56.741        -13.3896         -56.7415        -13.3907       -0.0114378         148.039
0.547                   -0.60866        -144.999         -56.5752        -15.7811         -56.5756        -15.7819       -0.0115442         147.969
0.548                  -0.627772        -145.557         -56.4105        -18.1756         -56.4109        -18.1761       -0.0116517           147.9
0.549                  -0.647392        -146.117         -56.2471        -20.5729         -56.2474        -20.5732       -0.0117602          147.83
0.55                   -0.667526         -146.68         -56.0849         -22.973         -56.0852         -22.973       -0.0118697         147.761
0.551                   -0.68818        -147.246         -55.9241        -25.3757         -55.9244        -25.3755       -0.0119804         147.691
0.552                  -0.709362        -147.814         -55.7647        -27.7808          -55.765        -27.7803       -0.0120922         147.621
0.553                  -0.731075        -148.385         -55.6068        -30.1882          -55.607        -30.1874       -0.0122052         147.551
0.554                  -0.753327        -148.959         -55.4504        -32.5975         -55.4506        -32.5965       -0.0123193         147.481
0.555                  -0.776123        -149.535         -55.2956        -35.0087         -55.2958        -35.0074       -0.0124346          147.41
0.556                  -0.799467        -150.114         -55.1424        -37.4215         -55.1426          -37.42       -0.0125511          147.34
0.557                  -0.823366        -150.695         -54.9909        -39.8357          -54.991         -39.834       -0.0126688         147.269
0.558                  -0.847825        -151.278         -54.8411        -42.2511         -54.8412        -42.2491       -0.0127877         147.199
0.559                  -0.872847        -151.864         -54.6931        -44.6673         -54.6932        -44.6651        -0.012908         147.128
0.56                   -0.898439        -152.452         -54.5469        -47.0842         -54.5469        -47.0818       -0.0130294         147.057
0.561                  -0.924604        -153.042         -54.4024        -49.5015         -54.4024        -49.4989       -0.0131522         146.986
0.562                  -0.951347        -153.635         -54.2598        -51.9189         -54.2597        -51.9162       -0.0132764         146.915
0.563                  -0.978671        -154.229          -54.119        -54.3362         -54.1189        -54.3333       -0.0134018         146.843
0.564                   -1.00658        -154.826           -53.98        -56.7532         -53.9799          -56.75       -0.0135287         146.772
0.565                   -1.03508        -155.425         -53.8429        -59.1694         -53.8428        -59.1662       -0.0136569           146.7
0.566                   -1.06417        -156.026         -53.7076        -61.5848         -53.7075        -61.5814       -0.0137866         146.629
0.567                   -1.09386        -156.629         -53.5742         -63.999          -53.574        -63.9954       -0.0139177         146.557
0.568                   -1.12415        -157.234         -53.4426        -66.4117         -53.4424        -66.4081       -0.0140502         146.485
0.569                   -1.15504        -157.841         -53.3128        -68.8228         -53.3126        -68.8191       -0.0141843         146.413
0.57                    -1.18653         -158.45         -53.1848         -71.232         -53.1846        -71.2282       -0.0143199          146.34
0.571                   -1.21864         -159.06         -53.0587         -73.639         -53.0584        -73.6351        -0.014457         146.268
0.572                   -1.25135        -159.672         -52.9343        -76.0437          -52.934        -76.0398       -0.0145957         146.196
0.573                   -1.28467        -160.287         -52.8116        -78.4458         -52.8113        -78.4418        -0.014736         146.123
0.574                    -1.3186        -160.902         -52.6906        -80.8452         -52.6903        -80.8411       -0.0148779          146.05
0.575                   -1.35315         -161.52         -52.5713        -83.2416          -52.571        -83.2375       -0.0150215         145.977
0.576                   -1.38832        -162.139         -52.4536        -85.6349         -52.4533        -85.6308       -0.0151667         145.904
0.577                   -1.42411         -162.76         -52.3376        -88.0249         -52.3372        -88.0208       -0.0153137         145.831
0.578                   -1.46051        -163.382          -52.223        -90.4115         -52.2227        -90.4073       -0.0154624         145.757
0.579                   -1.49753        -164.006           -52.11        -92.7945         -52.1097        -92.7904       -0.0156129         145.684
0.58                    -1.53518        -164.631         -51.9985        -95.1739         -51.9981        -95.1698       -0.0157652          145.61
0.581                   -1.57344        -165.258         -51.8884        -97.5496          -51.888        -97.5455       -0.0159193         145.536
0.582                   -1.61232        -165.886         -51.7796        -99.9214         -51.7792        -99.9174       -0.0160753         145.462
0.583                   -1.65183        -166.515         -51.6722        -102.289         -51.6718        -102.285       -0.0162332         145.388
0.584                   -1.69196        -167.146         -51.5661        -104.653         -51.5657        -104.649        -0.016393         145.314
0.585                    -1.7327        -167.779         -51.4612        -107.013         -51.4608         -107.01       -0.0165548         145.239
0.586                   -1.77407        -168.412         -51.3574         -109.37          -51.357        -109.366       -0.0167186         145.165
0.587                   -1.81606        -169.047         -51.2548        -111.722         -51.2544        -111.718       -0.0168845          145.09
0.588                   -1.85867        -169.683         -51.1533         -114.07         -51.1529        -114.066       -0.0170524         145.015
0.589                    -1.9019        -170.321         -51.0527        -116.414         -51.0523        -116.411       -0.0172225          144.94
0.59                    -1.94575         -170.96         -50.9532        -118.755         -50.9528        -118.751       -0.0173947         144.864
0.591                   -1.99021          -171.6         -50.8545        -121.092         -50.8541        -121.088       -0.0175691         144.789
0.592                   -2.03529        -172.241         -50.7568        -123.425         -50.7564        -123.421       -0.0177457         144.713
0.593                   -2.08099        -172.884         -50.6598        -125.754         -50.6594        -125.751       -0.0179246         144.637
0.594                    -2.1273        -173.527         -50.5636         -128.08         -50.5633        -128.077       -0.0181059         144.561
0.595                   -2.17422        -174.172         -50.4682        -130.403         -50.4678          -130.4       -0.0182895         144.485
0.596                   -2.22176        -174.819         -50.3734        -132.722         -50.3731        -132.719       -0.0184755         144.409
0.597                   -2.26991        -175.466         -50.2793        -135.039          -50.279        -135.036       -0.0186639         144.332
0.598                   -2.31867        -176.115         -50.1858        -137.352         -50.1854        -137.349       -0.0188549         144.255
0.599                   -2.36804        -176.765         -50.0928        -139.662         -50.0925         -139.66       -0.0190484         144.178
0.6                     -2.41802        -177.416         -50.0003         -141.97              -50        -141.968       -0.0192445         144.101
0.601                    -2.4686        -178.069         -49.9083        -144.276         -49.9081        -144.274       -0.0194433         144.024
0.602                   -2.51979        -178.723         -49.8168        -146.579         -49.8166        -146.577       -0.0196448         143.946
0.603                   -2.57159        -179.378         -49.7257         -148.88         -49.7255        -148.879       -0.0198491         143.868
0.604                     -2.624         179.965          -49.635         -151.18         -49.6347        -151.178       -0.0200561         143.791
0.605                   -2.67701         179.307         -49.5446        -153.477         -49.5444        -153.476       -0.0202661         143.712
0.606                   -2.73063         178.648         -49.4545        -155.773         -49.4543        -155.772        -0.020479         143.634
0.607                   -2.78485         177.986         -49.3648        -158.068         -49.3646        -158.067       -0.0206949         143.556
0.608                   -2.83969         177.324         -49.2753        -160.362         -49.2752        -160.361       -0.0209139         143.477
0.609                   -2.89513         176.659         -49.1861        -162.655          -49.186        -162.654        -0.021136         143.398
0.61                    -2.95118         175.993         -49.0971        -164.947          -49.097        -164.946       -0.0213614         143.319
0.611                   -3.00785         175.325         -49.0083        -167.238         -49.0083        -167.238         -0.02159         143.239
0.612                   -3.06513         174.655         -48.9198         -169.53         -48.9197        -169.529        -0.021822          143.16
0.613                   -3.12302         173.984         -48.8315        -171.821         -48.8314         -171.82       -0.0220575          143.08
0.614                   -3.18155          173.31         -48.7433        -174.112         -48.7433        -174.112       -0.0222965             143
0.615                   -3.24069         172.634         -48.6553        -176.404         -48.6553        -176.403       -0.0225392         142.919
0.616                   -3.30047         171.956         -48.5675        -178.696         -48.5676        -178.695       -0.0227856         142.839
0.617                   -3.36089         171.275         -48.4799         179.012           -48.48         179.012       -0.0230359         142.758
0.618                   -3.42196         170.592         -48.3925         176.718         -48.3925         176.719       -0.0232901         142.677
0.619                   -3.48368         169.907         -48.3052         174.424         -48.3053         174.424       -0.0235485         142.596
0.62                    -3.54606         169.218         -48.2181         172.129         -48.2182         172.129       -0.0238112         142.514
0.621                   -3.60912         168.527         -48.1311         169.832         -48.1313         169.832       -0.0240782         142.433
0.622                   -3.67287         167.833         -48.0444         167.534         -48.0446         167.534       -0.0243499         142.351
0.623                   -3.73732         167.135         -47.9579         165.235          -47.958         165.234       -0.0246263         142.268
0.624                   -3.80249         166.434         -47.8715         162.933         -47.8717         162.933       -0.0249078         142.186
0.625                    -3.8684          165.73         -47.7854         160.631         -47.7856          160.63       -0.0251946         142.103
0.626                   -3.93507         165.022         -47.6995         158.326         -47.6998         158.326        -0.025487          142.02
0.627                   -4.00251          164.31         -47.6139         156.019         -47.6141         156.019       -0.0257854         141.937
0.628                   -4.07076         163.593         -47.5285         153.711         -47.5288          153.71       -0.0260902         141.853
0.629                   -4.13984         162.873         -47.4434           151.4         -47.4437           151.4        -0.026402          141.77
