! TOUCHSTONE file generated by CST MICROWAVE STUDIO
! Date and time: Sat Oct 24 11:48:46 2020
! Project name: Scenario_1_Circular_Tissue_out_of_Line.cst
! Parameters = {dy1=208.912; L_HA=400; MT=2.54; Rad_Dielectric=30; Rad_Lower=7.3; Rad_Upper=30; a_HA=580; a_WG=246; b_HA=500; b_WG=121; c_HA=0; c_WG=187; d_feed=85; dx1=1039; h_feed=15; h_lower=18; h_upper=40}
! Header version: 2018
! Port assignment regex: !\s*Touchstone port\s*([0-9]+)\s*=\s*(CST MWS port|CST DS port)\s*([0-9]+|Zmin|Zmax)\s*\(\"(.*)\"\)(\s*mode\s*([0-9]+))?.*
! Touchstone port assignment:
! Touchstone port 1 = CST MWS port 1 ("")
! Touchstone port 2 = CST MWS port 2 ("")
# GHz S DB R 50
0.5                    -0.145724         -122.25         -64.4113        -6.78141         -64.4132        -7.18873      -0.00758839         151.141
0.501                   -0.14843         -122.72         -64.2885        -8.88643         -64.2776         -9.1487      -0.00764669         151.076
0.502                  -0.151568        -123.192         -64.1624        -11.0035         -64.1397         -11.129      -0.00770577          151.01
0.503                  -0.155138        -123.665         -64.0328        -13.1325         -63.9994        -13.1296      -0.00776566         150.945
0.504                  -0.159139        -124.139            -63.9        -15.2732         -63.8568        -15.1507      -0.00782636          150.88
0.505                  -0.163571        -124.615         -63.7639        -17.4256         -63.7119        -17.1921      -0.00788788         150.814
0.506                  -0.168433        -125.091         -63.6246        -19.5896         -63.5647        -19.2539      -0.00795022         150.749
0.507                  -0.173723         -125.57         -63.4822        -21.7652         -63.4153        -21.3361       -0.0080134         150.683
0.508                  -0.179441        -126.049         -63.3369        -23.9523         -63.2638        -23.4388      -0.00807742         150.617
0.509                  -0.185584        -126.529         -63.1885         -26.151         -63.1101        -25.5619       -0.0081423         150.551
0.51                   -0.192151        -127.011         -63.0374        -28.3612         -62.9544        -27.7054      -0.00820803         150.485
0.511                   -0.19914        -127.494         -62.8835         -30.583         -62.7966        -29.8693      -0.00827464         150.419
0.512                  -0.206549        -127.977          -62.727        -32.8166          -62.637        -32.0536      -0.00834213         150.353
0.513                  -0.214375        -128.462         -62.5679         -35.062         -62.4755        -34.2583      -0.00841051         150.287
0.514                  -0.222616        -128.948         -62.4064        -37.3193         -62.3122        -36.4833      -0.00847979         150.221
0.515                   -0.23127        -129.435         -62.2427        -39.5887         -62.1473        -38.7287      -0.00854998         150.155
0.516                  -0.240333        -129.923         -62.0767        -41.8704         -61.9807        -40.9943      -0.00862109         150.088
0.517                  -0.249801        -130.412         -61.9087        -44.1646         -61.8127        -43.2802      -0.00869314         150.022
0.518                  -0.259673        -130.902         -61.7388        -46.4714         -61.6433        -45.5862      -0.00876614         149.955
0.519                  -0.269944        -131.393         -61.5672        -48.7912         -61.4726        -47.9122      -0.00884009         149.889
0.52                    -0.28061        -131.885         -61.3939         -51.124         -61.3007        -50.2582      -0.00891501         149.822
0.521                  -0.291669        -132.378         -61.2191        -53.4701         -61.1278        -52.6241      -0.00899092         149.755
0.522                  -0.303114        -132.871         -61.0429        -55.8298          -60.954        -55.0096      -0.00906782         149.688
0.523                  -0.314943        -133.366         -60.8656        -58.2032         -60.7794        -57.4146      -0.00914573         149.621
0.524                  -0.327151        -133.862         -60.6873        -60.5907         -60.6042         -59.839      -0.00922466         149.554
0.525                  -0.339733        -134.358         -60.5081        -62.9923         -60.4284        -62.2825      -0.00930464         149.487
0.526                  -0.352684        -134.855         -60.3282        -65.4083         -60.2523        -64.7449      -0.00938566          149.42
0.527                  -0.365999        -135.353         -60.1477        -67.8388         -60.0759        -67.2258      -0.00946776         149.352
0.528                  -0.379674        -135.852          -59.967         -70.284         -59.8994        -69.7251      -0.00955095         149.285
0.529                  -0.393701        -136.352          -59.786         -72.744         -59.7231        -72.2423      -0.00963524         149.217
0.53                   -0.408077        -136.852          -59.605        -75.2189         -59.5469         -74.777      -0.00972066          149.15
0.531                  -0.422795        -137.354         -59.4241        -77.7087         -59.3711        -77.3288      -0.00980721         149.082
0.532                  -0.437849        -137.856         -59.2437        -80.2134         -59.1958        -79.8973      -0.00989493         149.014
0.533                  -0.453233        -138.359         -59.0637         -82.733         -59.0212        -82.4819      -0.00998384         148.946
0.534                  -0.468941        -138.863         -58.8844        -85.2673         -58.8475        -85.0821       -0.0100739         148.878
0.535                  -0.484967        -139.368          -58.706        -87.8162         -58.6746        -87.6972       -0.0101653          148.81
0.536                  -0.501304        -139.873         -58.5286        -90.3794         -58.5029        -90.3267       -0.0102579         148.742
0.537                  -0.517945         -140.38         -58.3525        -92.9568         -58.3325        -92.9699       -0.0103517         148.673
0.538                  -0.534883        -140.887         -58.1777        -95.5479         -58.1634         -95.626       -0.0104469         148.605
0.539                  -0.552112        -141.395         -58.0045        -98.1523         -57.9959        -98.2943       -0.0105434         148.536
0.54                   -0.569624        -141.904          -57.833         -100.77           -57.83        -100.974       -0.0106413         148.468
0.541                  -0.587413        -142.415         -57.6633        -103.399         -57.6658        -103.664       -0.0107405         148.399
0.542                  -0.605471        -142.926         -57.4956        -106.041         -57.5035        -106.364       -0.0108412          148.33
0.543                  -0.623791        -143.438         -57.3301        -108.693         -57.3431        -109.072       -0.0109433         148.261
0.544                  -0.642366        -143.951         -57.1668        -111.356         -57.1848        -111.789       -0.0110469         148.192
0.545                  -0.661187        -144.465         -57.0058        -114.028         -57.0286        -114.512        -0.011152         148.123
0.546                  -0.680248        -144.981         -56.8474        -116.709         -56.8746        -117.241       -0.0112587         148.054
0.547                  -0.699541        -145.497         -56.6914        -119.398         -56.7229        -119.975        -0.011367         147.984
0.548                  -0.719058        -146.015         -56.5381        -122.094         -56.5734        -122.712       -0.0114769         147.915
0.549                  -0.738793        -146.534         -56.3875        -124.796         -56.4263        -125.453       -0.0115884         147.845
0.55                   -0.758738        -147.054         -56.2396        -127.503         -56.2815        -128.196       -0.0117017         147.775
0.551                  -0.778886        -147.576         -56.0944        -130.214          -56.139         -130.94       -0.0118166         147.706
0.552                  -0.799229        -148.099         -55.9521        -132.928          -55.999        -133.684       -0.0119333         147.636
0.553                   -0.81976        -148.624         -55.8125        -135.644         -55.8612        -136.427       -0.0120518         147.566
0.554                  -0.840474        -149.151         -55.6757        -138.361         -55.7258        -139.168        -0.012172         147.495
0.555                  -0.861362        -149.679         -55.5415        -141.078         -55.5927        -141.907        -0.012294         147.425
0.556                   -0.88242        -150.209         -55.4101        -143.795         -55.4618        -144.642       -0.0124178         147.355
0.557                  -0.903641        -150.741         -55.2813        -146.509         -55.3332        -147.373       -0.0125433         147.284
0.558                  -0.925019        -151.274         -55.1551        -149.221         -55.2066        -150.099       -0.0126706         147.214
0.559                   -0.94655         -151.81         -55.0314         -151.93         -55.0821         -152.82       -0.0127995         147.143
0.56                   -0.968229        -152.349           -54.91        -154.634         -54.9597        -155.535       -0.0129299         147.072
0.561                  -0.990052        -152.889         -54.7909        -157.333         -54.8391        -158.243       -0.0130619         147.001
0.562                   -1.01202        -153.432         -54.6739        -160.027         -54.7203        -160.944       -0.0131952          146.93
0.563                   -1.03412        -153.978          -54.559        -162.715         -54.6033        -163.638       -0.0133299         146.859
0.564                   -1.05636        -154.526         -54.4461        -165.397         -54.4878        -166.323       -0.0134656         146.787
0.565                   -1.07874        -155.078         -54.3349        -168.071         -54.3739            -169       -0.0136023         146.716
0.566                   -1.10126        -155.632         -54.2253        -170.738         -54.2615        -171.669       -0.0137398         146.644
0.567                   -1.12391         -156.19         -54.1173        -173.398         -54.1503         -174.33       -0.0138781         146.573
0.568                   -1.14672        -156.752         -54.0106         -176.05         -54.0404        -176.982       -0.0140169         146.501
0.569                   -1.16967        -157.317         -53.9051        -178.694         -53.9316        -179.625       -0.0141562         146.429
0.57                    -1.19278        -157.886         -53.8007          178.67         -53.8238         177.741       -0.0142959         146.357
0.571                   -1.21605        -158.459         -53.6973         176.041         -53.7168         175.116        -0.014436         146.284
0.572                    -1.2395        -159.036         -53.5947          173.42         -53.6107         172.498       -0.0145764         146.212
0.573                   -1.26315        -159.618         -53.4928         170.807         -53.5054          169.89       -0.0147174         146.139
0.574                     -1.287        -160.205         -53.3914           168.2         -53.4006         167.289       -0.0148588         146.067
0.575                   -1.31109        -160.797         -53.2905           165.6         -53.2963         164.696       -0.0150009         145.994
0.576                   -1.33542        -161.394         -53.1899         163.007         -53.1925         162.111       -0.0151438         145.921
0.577                   -1.36004        -161.996         -53.0896          160.42         -53.0891         159.533       -0.0152876         145.848
0.578                   -1.38497        -162.604         -52.9893         157.838         -52.9859         156.962       -0.0154325         145.775
0.579                   -1.41024        -163.219         -52.8891         155.262         -52.8829         154.398       -0.0155786         145.701
0.58                     -1.4359        -163.839         -52.7889          152.69         -52.7801         151.839       -0.0157262         145.628
0.581                   -1.46199        -164.467         -52.6885         150.122         -52.6773         149.286       -0.0158753         145.554
0.582                   -1.48856        -165.101          -52.588         147.558         -52.5746         146.739       -0.0160261          145.48
0.583                   -1.51566        -165.741         -52.4873         144.996         -52.4718         144.195       -0.0161787         145.406
0.584                   -1.54336         -166.39         -52.3863         142.437          -52.369         141.656       -0.0163333         145.332
0.585                   -1.57173        -167.045         -52.2849         139.879          -52.266         139.121       -0.0164899         145.257
0.586                   -1.60084        -167.709         -52.1833         137.323         -52.1629         136.588       -0.0166487         145.183
0.587                   -1.63076         -168.38         -52.0813         134.767         -52.0597         134.058       -0.0168097         145.108
0.588                   -1.66158        -169.059         -51.9789          132.21         -51.9562          131.53       -0.0169729         145.033
0.589                    -1.6934        -169.745         -51.8762         129.654         -51.8526         129.004       -0.0171385         144.958
0.59                     -1.7263         -170.44         -51.7732         127.096         -51.7487         126.478       -0.0173066         144.883
0.591                    -1.7604        -171.143         -51.6699         124.536         -51.6446         123.953        -0.017477         144.807
0.592                    -1.7958        -171.853         -51.5662         121.974         -51.5403         121.428         -0.01765         144.732
0.593                   -1.83261        -172.571         -51.4623          119.41         -51.4359         118.902       -0.0178255         144.656
0.594                   -1.87093        -173.297         -51.3582         116.842         -51.3312         116.374       -0.0180035          144.58
0.595                   -1.91089         -174.03         -51.2539         114.271         -51.2264         113.845       -0.0181841         144.504
0.596                    -1.9526        -174.769         -51.1496         111.696         -51.1214         111.315       -0.0183674         144.427
0.597                   -1.99616        -175.514         -51.0451         109.117         -51.0164         108.781       -0.0185534         144.351
0.598                   -2.04168        -176.264         -50.9407         106.534         -50.9113         106.245        -0.018742         144.274
0.599                   -2.08925         -177.02         -50.8364         103.946         -50.8062         103.705       -0.0189334         144.197
0.6                     -2.13898        -177.779         -50.7322         101.353         -50.7011         101.162       -0.0191275          144.12
0.601                   -2.19093        -178.541         -50.6282         98.7556         -50.5961         98.6146       -0.0193244         144.043
0.602                   -2.24516        -179.305         -50.5246         96.1532         -50.4912         96.0631       -0.0195241         143.966
0.603                   -2.30172          179.93         -50.4213          93.546         -50.3865         93.5071       -0.0197267         143.888
0.604                   -2.36063         179.166         -50.3185         90.9339         -50.2821         90.9464       -0.0199322          143.81
0.605                    -2.4219         178.403         -50.2162         88.3171          -50.178         88.3808       -0.0201406         143.732
0.606                   -2.48551         177.643         -50.1146         85.6958         -50.0743         85.8101       -0.0203519         143.654
0.607                    -2.5514         176.887         -50.0136         83.0702         -49.9711         83.2345       -0.0205663         143.576
0.608                   -2.61953         176.136         -49.9134         80.4405         -49.8684         80.6537       -0.0207837         143.497
0.609                   -2.68978         175.391         -49.8141          77.807         -49.7663         78.0677       -0.0210041         143.418
0.61                    -2.76205         174.654         -49.7156         75.1702         -49.6649         75.4768       -0.0212277         143.339
0.611                    -2.8362         173.924         -49.6181         72.5304         -49.5642         72.8809       -0.0214544          143.26
0.612                   -2.91207         173.204         -49.5216          69.888         -49.4643         70.2801       -0.0216843          143.18
0.613                    -2.9895         172.494         -49.4262         67.2435         -49.3654         67.6748       -0.0219175           143.1
0.614                   -3.06829         171.794         -49.3319         64.5974         -49.2674         65.0651        -0.022154         143.021
0.615                   -3.14826         171.105         -49.2388         61.9502         -49.1704         62.4513       -0.0223938          142.94
0.616                    -3.2292         170.427         -49.1468         59.3024         -49.0745         59.8338        -0.022637          142.86
0.617                   -3.31092          169.76         -49.0561         56.6547         -48.9797         57.2129       -0.0228837         142.779
0.618                   -3.39322         169.103         -48.9666         54.0074         -48.8862          54.589       -0.0231338         142.698
0.619                   -3.47591         168.457         -48.8783         51.3613         -48.7939         51.9627       -0.0233875         142.617
0.62                    -3.55882         167.821         -48.7913         48.7169         -48.7028         49.3343       -0.0236448         142.536
0.621                   -3.64178         167.194         -48.7055         46.0748         -48.6131         46.7043       -0.0239057         142.454
0.622                   -3.72464         166.576         -48.6209         43.4354         -48.5248         44.0734       -0.0241704         142.373
0.623                   -3.80727         165.965         -48.5376         40.7994         -48.4378         41.4421       -0.0244388         142.291
0.624                   -3.88955         165.362         -48.4554         38.1672         -48.3522         38.8109       -0.0247111         142.208
0.625                   -3.97141         164.764         -48.3744         35.5394          -48.268         36.1805       -0.0249872         142.126
0.626                   -4.05275         164.171         -48.2945         32.9164         -48.1853         33.5514       -0.0252673         142.043
0.627                   -4.13352         163.582         -48.2158         30.2988         -48.1039         30.9242       -0.0255515          141.96
0.628                    -4.2137         162.995          -48.138         27.6868         -48.0239         28.2997       -0.0258397         141.876
0.629                   -4.29325          162.41         -48.0613         25.0809         -47.9453         25.6782       -0.0261321         141.793
