! TOUCHSTONE file generated by CST MICROWAVE STUDIO
! Date and time: Mon Oct 26 12:09:34 2020
! Project name: Scenario_1_Circular_Tissue_out_of_Line_v2.cst
! Parameters = {dy1=224.9; L_HA=400; MT=2.54; Rad_Dielectric=30; Rad_Lower=7.3; Rad_Upper=30; a_HA=580; a_WG=246; b_HA=500; b_WG=121; c_HA=0; c_WG=187; d_feed=85; dx1=173; h_feed=15; h_lower=18; h_upper=40}
! Header version: 2018
! Port assignment regex: !\s*Touchstone port\s*([0-9]+)\s*=\s*(CST MWS port|CST DS port)\s*([0-9]+|Zmin|Zmax)\s*\(\"(.*)\"\)(\s*mode\s*([0-9]+))?.*
! Touchstone port assignment:
! Touchstone port 1 = CST MWS port 1 ("")
! Touchstone port 2 = CST MWS port 2 ("")
# GHz S DB R 50
0.5                    -0.135363        -122.573         -60.5272         112.641         -60.5272         112.641      -0.00675104          151.13
0.501                  -0.145198        -123.037         -60.3078         111.146         -60.3078         111.146      -0.00680893         151.065
0.502                  -0.155264        -123.502         -60.0896         109.653         -60.0897         109.653      -0.00686816         150.999
0.503                  -0.165559        -123.967         -59.8726         108.163         -59.8727         108.162      -0.00692874         150.934
0.504                  -0.176081        -124.433         -59.6568         106.673         -59.6569         106.673      -0.00699066         150.868
0.505                  -0.186825          -124.9         -59.4422         105.185         -59.4422         105.184      -0.00705394         150.803
0.506                  -0.197789        -125.367         -59.2287         103.696         -59.2288         103.695      -0.00711858         150.737
0.507                  -0.208971        -125.835         -59.0165         102.207         -59.0165         102.206      -0.00718459         150.671
0.508                  -0.220366        -126.303         -58.8054         100.717         -58.8055         100.716      -0.00725196         150.605
0.509                  -0.231973        -126.772         -58.5955         99.2253         -58.5956         99.2246       -0.0073207         150.539
0.51                   -0.243787        -127.242         -58.3869         97.7319          -58.387         97.7311      -0.00739081         150.473
0.511                  -0.255806        -127.712         -58.1794         96.2361         -58.1795         96.2353      -0.00746231         150.407
0.512                  -0.268027        -128.182         -57.9732         94.7375         -57.9733         94.7367      -0.00753518          150.34
0.513                  -0.280447        -128.654         -57.7682         93.2357         -57.7683         93.2348      -0.00760944         150.274
0.514                  -0.293061        -129.126         -57.5644         91.7304         -57.5645         91.7294      -0.00768509         150.208
0.515                  -0.305868        -129.599         -57.3619          90.221          -57.362         90.2201      -0.00776213         150.141
0.516                  -0.318864        -130.072         -57.1606         88.7073         -57.1607         88.7064      -0.00784057         150.075
0.517                  -0.332045        -130.546         -56.9606          87.189         -56.9607         87.1881       -0.0079204         150.008
0.518                  -0.345409        -131.021         -56.7619         85.6658          -56.762         85.6648      -0.00800164         149.941
0.519                  -0.358952        -131.497         -56.5645         84.1372         -56.5646         84.1362      -0.00808428         149.874
0.52                   -0.372671        -131.973         -56.3683         82.6031         -56.3684         82.6022      -0.00816833         149.807
0.521                  -0.386562         -132.45         -56.1735         81.0633         -56.1736         81.0623      -0.00825379          149.74
0.522                  -0.400623        -132.928         -55.9801         79.5174         -55.9802         79.5164      -0.00834066         149.673
0.523                  -0.414851        -133.406         -55.7879         77.9652         -55.7881         77.9642      -0.00842895         149.606
0.524                  -0.429242        -133.886         -55.5972         76.4065         -55.5973         76.4056      -0.00851866         149.539
0.525                  -0.443793        -134.366         -55.4079         74.8413          -55.408         74.8403      -0.00860979         149.472
0.526                  -0.458501        -134.847           -55.22         73.2691         -55.2201         73.2682      -0.00870235         149.404
0.527                  -0.473364        -135.329         -55.0335           71.69         -55.0336         71.6892      -0.00879634         149.337
0.528                  -0.488377        -135.812         -54.8484         70.1038         -54.8486          70.103      -0.00889176         149.269
0.529                  -0.503539        -136.296         -54.6649         68.5104          -54.665         68.5096      -0.00898862         149.201
0.53                   -0.518846        -136.781         -54.4829         66.9097          -54.483         66.9089      -0.00908691         149.133
0.531                  -0.534296        -137.267         -54.3024         65.3015         -54.3025         65.3008      -0.00918665         149.066
0.532                  -0.549886        -137.754         -54.1234         63.6859         -54.1235         63.6852      -0.00928782         148.998
0.533                  -0.565614        -138.242          -53.946         62.0629         -53.9462         62.0621      -0.00939045         148.929
0.534                  -0.581476        -138.731         -53.7703         60.4322         -53.7704         60.4316      -0.00949452         148.861
0.535                  -0.597471        -139.222         -53.5961         58.7941         -53.5962         58.7934      -0.00960004         148.793
0.536                  -0.613596        -139.713         -53.4236         57.1484         -53.4238         57.1478      -0.00970703         148.725
0.537                   -0.62985        -140.206         -53.2528         55.4953          -53.253         55.4947      -0.00981547         148.656
0.538                  -0.646229          -140.7         -53.0838         53.8347         -53.0839         53.8342      -0.00992537         148.588
0.539                  -0.662733        -141.196         -52.9164         52.1668         -52.9165         52.1663       -0.0100367         148.519
0.54                    -0.67936        -141.693         -52.7508         50.4916         -52.7509         50.4911       -0.0101496          148.45
0.541                  -0.696107        -142.191          -52.587         48.8092          -52.587         48.8087       -0.0102639         148.381
0.542                  -0.712974        -142.691         -52.4249         47.1197          -52.425         47.1193       -0.0103797         148.312
0.543                  -0.729959        -143.192         -52.2647         45.4234         -52.2648          45.423       -0.0104969         148.243
0.544                  -0.747061        -143.695         -52.1064         43.7202         -52.1065         43.7199       -0.0106157         148.174
0.545                   -0.76428          -144.2         -51.9499         42.0105           -51.95         42.0102       -0.0107359         148.105
0.546                  -0.781615        -144.706         -51.7953         40.2943         -51.7954         40.2941       -0.0108577         148.036
0.547                  -0.799066        -145.214         -51.6426          38.572         -51.6427         38.5717       -0.0109809         147.966
0.548                  -0.816631        -145.724         -51.4919         36.8436         -51.4919         36.8434       -0.0111056         147.897
0.549                  -0.834313        -146.236          -51.343         35.1095         -51.3431         35.1093       -0.0112318         147.827
0.55                    -0.85211         -146.75         -51.1962         33.3698         -51.1962         33.3697       -0.0113596         147.757
0.551                  -0.870023        -147.266         -51.0513         31.6249         -51.0513         31.6247       -0.0114888         147.687
0.552                  -0.888054        -147.784         -50.9083         29.8749         -50.9084         29.8748       -0.0116196         147.617
0.553                  -0.906204        -148.305         -50.7674         28.1202         -50.7674         28.1201       -0.0117519         147.547
0.554                  -0.924474        -148.827         -50.6284          26.361         -50.6284         26.3609       -0.0118858         147.477
0.555                  -0.942866        -149.352         -50.4914         24.5976         -50.4915         24.5975       -0.0120211         147.406
0.556                  -0.961383        -149.879         -50.3565         22.8303         -50.3565         22.8303        -0.012158         147.336
0.557                  -0.980027        -150.409         -50.2235         21.0594         -50.2235         21.0594       -0.0122965         147.265
0.558                  -0.998802        -150.942         -50.0925         19.2853         -50.0925         19.2852       -0.0124365         147.194
0.559                   -1.01771        -151.477         -49.9635         17.5081         -49.9635         17.5081       -0.0125781         147.124
0.56                    -1.03676        -152.014         -49.8365         15.7283         -49.8365         15.7283       -0.0127212         147.053
0.561                   -1.05594        -152.555         -49.7114         13.9461         -49.7114         13.9461        -0.012866         146.982
0.562                   -1.07528        -153.099         -49.5883         12.1619         -49.5883         12.1619       -0.0130123          146.91
0.563                   -1.09477        -153.645         -49.4672         10.3759         -49.4672          10.376       -0.0131602         146.839
0.564                   -1.11441        -154.195          -49.348         8.58856         -49.3479          8.5886       -0.0133097         146.768
0.565                   -1.13422        -154.748         -49.2307         6.80006         -49.2306         6.80009       -0.0134608         146.696
0.566                   -1.15421        -155.304         -49.1152         5.01073         -49.1152         5.01077       -0.0136136         146.624
0.567                   -1.17437        -155.864         -49.0017         3.22087         -49.0017         3.22091       -0.0137679         146.552
0.568                   -1.19472        -156.427           -48.89         1.43078           -48.89         1.43082       -0.0139239          146.48
0.569                   -1.21526        -156.994         -48.7801       -0.359259         -48.7801       -0.359226       -0.0140816         146.408
0.57                    -1.23601        -157.564         -48.6721        -2.14898          -48.672        -2.14895       -0.0142409         146.336
0.571                   -1.25698        -158.138         -48.5657        -3.93811         -48.5657        -3.93808       -0.0144019         146.264
0.572                   -1.27818        -158.716         -48.4612        -5.72639         -48.4611        -5.72637       -0.0145646         146.191
0.573                   -1.29961        -159.298         -48.3583        -7.51358         -48.3582        -7.51357        -0.014729         146.119
0.574                   -1.32129        -159.885         -48.2571        -9.29943          -48.257        -9.29943        -0.014895         146.046
0.575                   -1.34324        -160.475         -48.1575        -11.0837         -48.1574        -11.0837       -0.0150628         145.973
0.576                   -1.36547         -161.07         -48.0595        -12.8662         -48.0595        -12.8662       -0.0152324           145.9
0.577                   -1.38799        -161.669         -47.9631        -14.6468         -47.9631        -14.6468       -0.0154036         145.826
0.578                   -1.41083        -162.273         -47.8683        -16.4251         -47.8682        -16.4251       -0.0155767         145.753
0.579                   -1.43399        -162.881         -47.7749        -18.2011         -47.7748        -18.2012       -0.0157515          145.68
0.58                    -1.45749        -163.495          -47.683        -19.9746         -47.6829        -19.9746       -0.0159281         145.606
0.581                   -1.48135        -164.113         -47.5925        -21.7454         -47.5924        -21.7454       -0.0161065         145.532
0.582                    -1.5056        -164.736         -47.5033        -23.5133         -47.5033        -23.5134       -0.0162868         145.458
0.583                   -1.53026        -165.364         -47.4155        -25.2783         -47.4155        -25.2784       -0.0164689         145.384
0.584                   -1.55534        -165.998         -47.3291        -27.0402          -47.329        -27.0403       -0.0166528          145.31
0.585                   -1.58087        -166.636         -47.2439        -28.7989         -47.2438        -28.7989       -0.0168387         145.235
0.586                   -1.60687        -167.281         -47.1599        -30.5542         -47.1598        -30.5543       -0.0170264         145.161
0.587                   -1.63337         -167.93         -47.0771        -32.3062         -47.0771        -32.3063       -0.0172161         145.086
0.588                    -1.6604        -168.586         -46.9955        -34.0547         -46.9954        -34.0548       -0.0174077         145.011
0.589                   -1.68799        -169.247          -46.915        -35.7997          -46.915        -35.7998       -0.0176012         144.936
0.59                    -1.71615        -169.913         -46.8356         -37.541         -46.8355        -37.5411       -0.0177968         144.861
0.591                   -1.74493        -170.586         -46.7573        -39.2787         -46.7572        -39.2788       -0.0179944         144.785
0.592                   -1.77436        -171.265         -46.6799        -41.0127         -46.6799        -41.0128       -0.0181939          144.71
0.593                   -1.80446         -171.95         -46.6036        -42.7429         -46.6035         -42.743       -0.0183956         144.634
0.594                   -1.83528        -172.641         -46.5282        -44.4693         -46.5282        -44.4695       -0.0185993         144.558
0.595                   -1.86685        -173.338         -46.4538         -46.192         -46.4537        -46.1921       -0.0188051         144.482
0.596                    -1.8992        -174.042         -46.3802        -47.9109         -46.3802         -47.911       -0.0190131         144.406
0.597                   -1.93238        -174.751         -46.3075        -49.6259         -46.3075         -49.626       -0.0192232         144.329
0.598                   -1.96642        -175.468         -46.2357        -51.3371         -46.2357        -51.3372       -0.0194356         144.253
0.599                   -2.00137         -176.19         -46.1647        -53.0445         -46.1646        -53.0446       -0.0196501         144.176
0.6                     -2.03728         -176.92         -46.0945         -54.748         -46.0944        -54.7482       -0.0198669         144.099
0.601                   -2.07417        -177.655          -46.025        -56.4478          -46.025        -56.4479        -0.020086         144.022
0.602                   -2.11211        -178.398         -45.9563        -58.1437         -45.9563        -58.1438       -0.0203074         143.944
0.603                   -2.15113        -179.147         -45.8883        -59.8358         -45.8883         -59.836       -0.0205311         143.867
0.604                   -2.19128        -179.902         -45.8211        -61.5242          -45.821        -61.5243       -0.0207572         143.789
0.605                   -2.23263         179.336         -45.7545        -63.2087         -45.7545        -63.2089       -0.0209858         143.711
0.606                    -2.2752         178.567         -45.6886        -64.8896         -45.6886        -64.8897       -0.0212168         143.633
0.607                   -2.31906         177.792         -45.6233        -66.5666         -45.6233        -66.5668       -0.0214502         143.554
0.608                   -2.36427         177.011         -45.5587          -68.24         -45.5587        -68.2401       -0.0216863         143.476
0.609                   -2.41086         176.223         -45.4947        -69.9096         -45.4947        -69.9097       -0.0219249         143.397
0.61                    -2.45891         175.429         -45.4313        -71.5756         -45.4313        -71.5757       -0.0221661         143.318
0.611                   -2.50846         174.628         -45.3685        -73.2378         -45.3685        -73.2379       -0.0224099         143.239
0.612                   -2.55958         173.822         -45.3063        -74.8964         -45.3063        -74.8965       -0.0226565         143.159
0.613                   -2.61231          173.01         -45.2447        -76.5513         -45.2447        -76.5514       -0.0229058          143.08
0.614                   -2.66672         172.191         -45.1836        -78.2025         -45.1836        -78.2026       -0.0231579             143
0.615                   -2.72287         171.368         -45.1231        -79.8501         -45.1231        -79.8501       -0.0234128          142.92
0.616                   -2.78082         170.538         -45.0631         -81.494         -45.0631         -81.494       -0.0236707         142.839
0.617                   -2.84062         169.704         -45.0037        -83.1342         -45.0037        -83.1343       -0.0239314         142.759
0.618                   -2.90233         168.864         -44.9448        -84.7708         -44.9448        -84.7708       -0.0241952         142.678
0.619                   -2.96601         168.019         -44.8864        -86.4037         -44.8864        -86.4037        -0.024462         142.597
0.62                    -3.03173          167.17         -44.8285        -88.0329         -44.8285        -88.0329       -0.0247319         142.516
0.621                   -3.09954         166.317         -44.7711        -89.6584         -44.7711        -89.6584       -0.0250049         142.434
0.622                    -3.1695          165.46         -44.7142        -91.2801         -44.7142        -91.2801       -0.0252812         142.352
0.623                   -3.24166         164.599         -44.6577        -92.8981         -44.6577        -92.8981       -0.0255608          142.27
0.624                   -3.31608         163.735         -44.6018        -94.5123         -44.6018        -94.5123       -0.0258436         142.188
0.625                   -3.39283         162.868         -44.5464        -96.1228         -44.5464        -96.1227       -0.0261299         142.106
0.626                   -3.47194         161.999         -44.4914        -97.7293         -44.4914        -97.7293       -0.0264197         142.023
0.627                   -3.55348         161.127         -44.4368         -99.332         -44.4368         -99.332       -0.0267129          141.94
0.628                   -3.63749         160.254         -44.3828        -100.931         -44.3828        -100.931       -0.0270098         141.857
0.629                   -3.72402          159.38         -44.3291        -102.526         -44.3291        -102.525       -0.0273103         141.773
