! TOUCHSTONE file generated by CST MICROWAVE STUDIO
! Date and time: Fri Oct 30 08:07:15 2020
! Project name: Scenario_1_Circular_Tissue_out_of_Line.cst
! Parameters = {dy1=226.253; L_HA=400; MT=2.54; Rad_Dielectric=30; Rad_Lower=7.3; Rad_Upper=30; a_HA=580; a_WG=246; b_HA=500; b_WG=121; c_HA=0; c_WG=187; d_feed=85; dx1=520; h_feed=15; h_lower=18; h_upper=40}
! Header version: 2018
! Port assignment regex: !\s*Touchstone port\s*([0-9]+)\s*=\s*(CST MWS port|CST DS port)\s*([0-9]+|Zmin|Zmax)\s*\(\"(.*)\"\)(\s*mode\s*([0-9]+))?.*
! Touchstone port assignment:
! Touchstone port 1 = CST MWS port 1 ("")
! Touchstone port 2 = CST MWS port 2 ("")
# GHz S DB R 50
0.5                     -0.14019        -122.458         -62.6783        -75.1876         -62.6778        -75.1856      -0.00726803         151.131
0.501                  -0.147301        -122.904         -62.4734          -76.68         -62.4732         -76.679      -0.00732928         151.066
0.502                  -0.154604        -123.351          -62.268        -78.1927         -62.2678        -78.1927      -0.00739172         151.001
0.503                  -0.162101          -123.8         -62.0619        -79.7262         -62.0619        -79.7269      -0.00745535         150.935
0.504                  -0.169796         -124.25         -61.8554        -81.2806         -61.8555         -81.282       -0.0075202          150.87
0.505                   -0.17769        -124.702         -61.6485        -82.8562         -61.6487        -82.8582      -0.00758627         150.804
0.506                  -0.185787        -125.155         -61.4413        -84.4532         -61.4416        -84.4557      -0.00765357         150.738
0.507                   -0.19409         -125.61         -61.2339        -86.0717         -61.2343        -86.0746       -0.0077221         150.672
0.508                  -0.202602        -126.067         -61.0264         -87.712          -61.027        -87.7152      -0.00779187         150.607
0.509                  -0.211325        -126.526          -60.819        -89.3741         -60.8196        -89.3775       -0.0078629         150.541
0.51                   -0.220264        -126.986         -60.6117        -91.0582         -60.6124        -91.0617      -0.00793518         150.475
0.511                  -0.229422        -127.447         -60.4046        -92.7642         -60.4054        -92.7678      -0.00800873         150.409
0.512                  -0.238801        -127.911          -60.198        -94.4923         -60.1989        -94.4959      -0.00808355         150.342
0.513                  -0.248406        -128.376         -59.9919        -96.2424         -59.9928         -96.246      -0.00815964         150.276
0.514                   -0.25824        -128.842         -59.7864        -98.0145         -59.7874         -98.018      -0.00823703          150.21
0.515                  -0.268306        -129.311         -59.5818        -99.8085         -59.5827        -99.8117       -0.0083157         150.144
0.516                  -0.278609        -129.781          -59.378        -101.624          -59.379        -101.627      -0.00839566         150.077
0.517                  -0.289151        -130.252         -59.1753        -103.461         -59.1762        -103.464      -0.00847692          150.01
0.518                  -0.299937        -130.726         -58.9738         -105.32         -58.9747        -105.322      -0.00855948         149.944
0.519                   -0.31097          -131.2         -58.7736        -107.199         -58.7745        -107.201      -0.00864335         149.877
0.52                   -0.322253        -131.677         -58.5748        -109.099         -58.5757        -109.101      -0.00872852          149.81
0.521                  -0.333789        -132.155         -58.3777        -111.019         -58.3786        -111.021        -0.008815         149.743
0.522                  -0.345583        -132.634         -58.1823        -112.959         -58.1831         -112.96      -0.00890278         149.676
0.523                  -0.357636        -133.115         -57.9887        -114.918         -57.9895        -114.919      -0.00899187         149.609
0.524                  -0.369951        -133.598         -57.7972        -116.895         -57.7979        -116.896      -0.00908227         149.542
0.525                   -0.38253        -134.082         -57.6077         -118.89         -57.6084        -118.891      -0.00917398         149.475
0.526                  -0.395375        -134.568         -57.4206        -120.903         -57.4212        -120.903      -0.00926698         149.408
0.527                  -0.408487        -135.055         -57.2357        -122.931         -57.2362        -122.931      -0.00936129          149.34
0.528                  -0.421866        -135.543         -57.0533        -124.975         -57.0538        -124.975      -0.00945688         149.273
0.529                  -0.435511        -136.033         -56.8735        -127.034         -56.8739        -127.034      -0.00955376         149.205
0.53                   -0.449423        -136.524         -56.6963        -129.107         -56.6966        -129.106      -0.00965193         149.137
0.531                  -0.463596        -137.016         -56.5218        -131.192          -56.522        -131.191      -0.00975136          149.07
0.532                  -0.478029         -137.51         -56.3502        -133.289         -56.3503        -133.288      -0.00985205         149.002
0.533                  -0.492715        -138.005         -56.1813        -135.397         -56.1814        -135.395        -0.009954         148.934
0.534                  -0.507648          -138.5         -56.0154        -137.514         -56.0154        -137.513       -0.0100572         148.866
0.535                   -0.52282        -138.997         -55.8525         -139.64         -55.8524        -139.638       -0.0101616         148.798
0.536                   -0.53822        -139.495         -55.6925        -141.773         -55.6923        -141.771       -0.0102672         148.729
0.537                  -0.553836        -139.994         -55.5355        -143.912         -55.5352        -143.911        -0.010374         148.661
0.538                  -0.569653        -140.494         -55.3815        -146.057         -55.3812        -146.056        -0.010482         148.593
0.539                  -0.585656        -140.995         -55.2305        -148.206         -55.2301        -148.205       -0.0105912         148.524
0.54                   -0.601826        -141.497         -55.0825        -150.358          -55.082        -150.357       -0.0107015         148.455
0.541                  -0.618142        -141.999         -54.9374        -152.512         -54.9368        -152.511        -0.010813         148.387
0.542                  -0.634583        -142.503         -54.7952        -154.667         -54.7946        -154.666       -0.0109255         148.318
0.543                  -0.651123        -143.007         -54.6558        -156.822         -54.6551        -156.821       -0.0110392         148.249
0.544                  -0.667739        -143.513         -54.5193        -158.975         -54.5185        -158.975       -0.0111539          148.18
0.545                  -0.684405         -144.02         -54.3854        -161.127         -54.3846        -161.127       -0.0112696         148.111
0.546                  -0.701093        -144.528         -54.2542        -163.276         -54.2533        -163.276       -0.0113864         148.042
0.547                   -0.71778        -145.038         -54.1255        -165.422         -54.1246        -165.422       -0.0115042         147.972
0.548                   -0.73444        -145.549         -53.9992        -167.563         -53.9983        -167.563       -0.0116229         147.903
0.549                  -0.751052        -146.062         -53.8753          -169.7         -53.8744          -169.7       -0.0117426         147.833
0.55                   -0.767596        -146.577         -53.7537         -171.83         -53.7527        -171.831       -0.0118633         147.764
0.551                  -0.784058        -147.094         -53.6341        -173.955         -53.6332        -173.955       -0.0119848         147.694
0.552                  -0.800428        -147.615         -53.5166        -176.073         -53.5157        -176.073       -0.0121073         147.624
0.553                    -0.8167        -148.138          -53.401        -178.183         -53.4001        -178.184       -0.0122307         147.554
0.554                  -0.832877        -148.664         -53.2872         179.714         -53.2863         179.712       -0.0123549         147.484
0.555                  -0.848968        -149.195         -53.1751         177.618         -53.1741         177.617         -0.01248         147.414
0.556                  -0.864987        -149.729         -53.0645         175.531         -53.0635         175.529       -0.0126059         147.343
0.557                  -0.880958        -150.268         -52.9553         173.451         -52.9544          173.45       -0.0127326         147.273
0.558                   -0.89691        -150.812         -52.8475         171.381         -52.8466         171.379       -0.0128602         147.202
0.559                  -0.912879        -151.361         -52.7409         169.318           -52.74         169.316       -0.0129886         147.131
0.56                   -0.928908        -151.915         -52.6354         167.264         -52.6345         167.262       -0.0131178         147.061
0.561                  -0.945042        -152.475         -52.5309         165.218           -52.53         165.216       -0.0132478          146.99
0.562                  -0.961335        -153.041         -52.4272         163.181         -52.4264         163.179       -0.0133787         146.919
0.563                  -0.977839        -153.613         -52.3244         161.152         -52.3236          161.15       -0.0135104         146.847
0.564                  -0.994612        -154.191         -52.2223          159.13         -52.2215         159.128        -0.013643         146.776
0.565                   -1.01171        -154.775         -52.1207         157.117           -52.12         157.115       -0.0137764         146.705
0.566                   -1.02919        -155.366         -52.0197         155.111          -52.019         155.109       -0.0139108         146.633
0.567                   -1.04712        -155.964         -51.9191         153.112         -51.9185          153.11        -0.014046         146.561
0.568                   -1.06554        -156.568         -51.8189         151.121         -51.8183         151.119       -0.0141823         146.489
0.569                   -1.08452        -157.178          -51.719         149.135         -51.7184         149.134       -0.0143195         146.417
0.57                    -1.10411        -157.795         -51.6193         147.157         -51.6188         147.155       -0.0144577         146.345
0.571                   -1.12435        -158.419         -51.5198         145.184         -51.5193         145.182        -0.014597         146.273
0.572                    -1.1453        -159.048         -51.4204         143.217           -51.42         143.215       -0.0147375         146.201
0.573                     -1.167        -159.684         -51.3211         141.255         -51.3207         141.253       -0.0148791         146.128
0.574                    -1.1895        -160.325         -51.2219         139.297         -51.2214         139.296       -0.0150219         146.055
0.575                   -1.21283        -160.973         -51.1226         137.345         -51.1222         137.343        -0.015166         145.983
0.576                   -1.23705        -161.627         -51.0233         135.396         -51.0229         135.395       -0.0153114          145.91
0.577                   -1.26218        -162.286         -50.9239          133.45         -50.9236         133.449       -0.0154582         145.836
0.578                   -1.28827         -162.95         -50.8245         131.508         -50.8242         131.507       -0.0156064         145.763
0.579                   -1.31535         -163.62          -50.725         129.568         -50.7247         129.568       -0.0157562          145.69
0.58                    -1.34344        -164.296         -50.6253         127.631         -50.6251         127.631       -0.0159076         145.616
0.581                    -1.3726        -164.976         -50.5256         125.696         -50.5254         125.696       -0.0160606         145.542
0.582                   -1.40284        -165.661         -50.4258         123.762         -50.4255         123.762       -0.0162154         145.468
0.583                   -1.43421        -166.351         -50.3258          121.83         -50.3256         121.829       -0.0163719         145.394
0.584                   -1.46673        -167.046         -50.2258         119.898         -50.2256         119.898       -0.0165303          145.32
0.585                   -1.50043        -167.744         -50.1257         117.966         -50.1255         117.966       -0.0166906         145.246
0.586                   -1.53535        -168.448         -50.0255         116.035         -50.0254         116.035       -0.0168529         145.171
0.587                   -1.57151        -169.155         -49.9253         114.103         -49.9252         114.104       -0.0170172         145.096
0.588                   -1.60894        -169.866         -49.8251         112.171         -49.8249         112.172       -0.0171836         145.022
0.589                   -1.64769         -170.58         -49.7249         110.238         -49.7247         110.239       -0.0173523         144.946
0.59                    -1.68776        -171.298         -49.6247         108.304         -49.6246         108.305       -0.0175231         144.871
0.591                   -1.72921         -172.02         -49.5246         106.368         -49.5245         106.369       -0.0176963         144.796
0.592                   -1.77204        -172.744         -49.4246         104.431         -49.4245         104.432       -0.0178719          144.72
0.593                   -1.81629        -173.471         -49.3248         102.493         -49.3247         102.493       -0.0180498         144.645
0.594                   -1.86199          -174.2         -49.2252         100.552         -49.2251         100.553       -0.0182303         144.569
0.595                   -1.90916        -174.932         -49.1258         98.6088         -49.1257         98.6096       -0.0184132         144.492
0.596                   -1.95783        -175.665         -49.0266         96.6636         -49.0266         96.6645       -0.0185988         144.416
0.597                   -2.00801          -176.4         -48.9278         94.7161         -48.9278          94.717        -0.018787          144.34
0.598                   -2.05973        -177.136         -48.8294         92.7662         -48.8294         92.7671       -0.0189778         144.263
0.599                   -2.11301        -177.874         -48.7314         90.8139         -48.7314         90.8148       -0.0191715         144.186
0.6                     -2.16785        -178.611         -48.6339         88.8591         -48.6338           88.86       -0.0193678         144.109
0.601                   -2.22428        -179.349         -48.5369         86.9019         -48.5368         86.9027        -0.019567         144.032
0.602                    -2.2823         179.913         -48.4404         84.9422         -48.4403         84.9431       -0.0197691         143.954
0.603                   -2.34193         179.176         -48.3445         82.9803         -48.3445         82.9811       -0.0199741         143.877
0.604                   -2.40315          178.44         -48.2493         81.0161         -48.2493         81.0169        -0.020182         143.799
0.605                   -2.46597         177.705         -48.1548         79.0498         -48.1548         79.0506       -0.0203929         143.721
0.606                   -2.53039         176.972         -48.0611         77.0815          -48.061         77.0823       -0.0206068         143.643
0.607                    -2.5964         176.242         -47.9681         75.1115         -47.9681         75.1122       -0.0208238         143.564
0.608                   -2.66397         175.514         -47.8759         73.1399         -47.8759         73.1405       -0.0210439         143.486
0.609                   -2.73309         174.789         -47.7846         71.1668         -47.7846         71.1674       -0.0212672         143.407
0.61                    -2.80375         174.067         -47.6942         69.1927         -47.6942         69.1932       -0.0214936         143.328
0.611                   -2.87589         173.349         -47.6047         67.2177         -47.6047         67.2182       -0.0217232         143.249
0.612                    -2.9495         172.636         -47.5162         65.2421         -47.5162         65.2425        -0.021956         143.169
0.613                   -3.02454         171.927         -47.4286         63.2662         -47.4286         63.2666       -0.0221922         143.089
0.614                   -3.10095         171.223          -47.342         61.2903         -47.3421         61.2907       -0.0224316          143.01
0.615                   -3.17869         170.525         -47.2565         59.3148         -47.2565         59.3151       -0.0226744         142.929
0.616                    -3.2577         169.832          -47.172         57.3399          -47.172         57.3402       -0.0229206         142.849
0.617                   -3.33793         169.146         -47.0885         55.3661         -47.0885         55.3664       -0.0231702         142.768
0.618                   -3.41931         168.465          -47.006         53.3937         -47.0061         53.3939       -0.0234233         142.688
0.619                   -3.50178         167.791         -46.9246          51.423         -46.9247         51.4231       -0.0236799         142.607
0.62                    -3.58526         167.124         -46.8443         49.4543         -46.8444         49.4545         -0.02394         142.525
0.621                   -3.66969         166.463         -46.7649         47.4882         -46.7651         47.4883       -0.0242037         142.444
0.622                   -3.75498          165.81         -46.6867         45.5248         -46.6868         45.5249        -0.024471         142.362
0.623                   -3.84107         165.163         -46.6094         43.5646         -46.6095         43.5647       -0.0247419          142.28
0.624                   -3.92786         164.523         -46.5331         41.6079         -46.5332         41.6079       -0.0250166         142.198
0.625                   -4.01529          163.89         -46.4578          39.655         -46.4579         39.6551        -0.025295         142.115
0.626                   -4.10328         163.264         -46.3834         37.7063         -46.3835         37.7064       -0.0255772         142.032
0.627                   -4.19175         162.645         -46.3099         35.7621         -46.3101         35.7621       -0.0258632         141.949
0.628                   -4.28062         162.033         -46.2373         33.8226         -46.2375         33.8227       -0.0261532         141.866
0.629                   -4.36982         161.426         -46.1656         31.8883         -46.1658         31.8884        -0.026447         141.783
