! TOUCHSTONE file generated by CST MICROWAVE STUDIO
! Date and time: Wed Oct 28 19:20:01 2020
! Project name: Scenario_1_Circular_Tissue_out_of_Line.cst
! Parameters = {dy1=226.253; L_HA=400; MT=2.54; Rad_Dielectric=30; Rad_Lower=7.3; Rad_Upper=30; a_HA=580; a_WG=246; b_HA=500; b_WG=121; c_HA=0; c_WG=187; d_feed=85; dx1=693; h_feed=15; h_lower=18; h_upper=40}
! Header version: 2018
! Port assignment regex: !\s*Touchstone port\s*([0-9]+)\s*=\s*(CST MWS port|CST DS port)\s*([0-9]+|Zmin|Zmax)\s*\(\"(.*)\"\)(\s*mode\s*([0-9]+))?.*
! Touchstone port assignment:
! Touchstone port 1 = CST MWS port 1 ("")
! Touchstone port 2 = CST MWS port 2 ("")
# GHz S DB R 50
0.5                    -0.148615        -122.032         -63.1599        -178.144         -63.1599        -178.144       -0.0076841         151.132
0.501                  -0.149909        -122.487          -63.046        -179.811         -63.0459        -179.809      -0.00773863         151.067
0.502                  -0.151559        -122.946         -62.9297         178.513         -62.9296         178.516      -0.00779394         151.002
0.503                  -0.153573        -123.407         -62.8113         176.826          -62.811         176.831      -0.00785003         150.936
0.504                  -0.155956         -123.87         -62.6906          175.13         -62.6903         175.136       -0.0079069         150.871
0.505                  -0.158713        -124.335         -62.5678         173.424         -62.5674         173.431      -0.00796458         150.806
0.506                   -0.16185        -124.803         -62.4428         171.709         -62.4423         171.717      -0.00802305          150.74
0.507                  -0.165373        -125.273         -62.3156         169.984         -62.3151         169.993      -0.00808235         150.675
0.508                  -0.169285        -125.746         -62.1863          168.25         -62.1858          168.26      -0.00814246         150.609
0.509                  -0.173593         -126.22          -62.055         166.505         -62.0544         166.517      -0.00820341         150.543
0.51                   -0.178302        -126.697         -61.9216         164.752          -61.921         164.764       -0.0082652         150.478
0.511                  -0.183416        -127.177         -61.7862         162.988         -61.7855         163.001      -0.00832783         150.412
0.512                   -0.18894        -127.658         -61.6489         161.215         -61.6481         161.229      -0.00839133         150.346
0.513                  -0.194878        -128.141         -61.5096         159.433         -61.5088         159.447      -0.00845569          150.28
0.514                  -0.201236        -128.627         -61.3685         157.641         -61.3676         157.656      -0.00852093         150.214
0.515                  -0.208016        -129.115         -61.2255         155.839         -61.2246         155.854      -0.00858706         150.147
0.516                  -0.215223        -129.604         -61.0807         154.027         -61.0798         154.043      -0.00865409         150.081
0.517                  -0.222861        -130.096         -60.9342         152.205         -60.9333         152.222      -0.00872202         150.015
0.518                  -0.230934         -130.59          -60.786         150.374         -60.7851         150.391      -0.00879087         149.948
0.519                  -0.239444        -131.085         -60.6362         148.532         -60.6353          148.55      -0.00886065         149.882
0.52                   -0.248395        -131.583         -60.4848         146.681         -60.4839         146.699      -0.00893136         149.815
0.521                  -0.257789        -132.082          -60.332         144.819          -60.331         144.837      -0.00900302         149.749
0.522                   -0.26763        -132.583         -60.1777         142.947         -60.1767         142.965      -0.00907564         149.682
0.523                   -0.27792        -133.086          -60.022         141.065          -60.021         141.083      -0.00914924         149.615
0.524                   -0.28866         -133.59          -59.865         139.172          -59.864         139.191      -0.00922381         149.548
0.525                  -0.299853        -134.097         -59.7068         137.269         -59.7058         137.287      -0.00929937         149.481
0.526                  -0.311501        -134.604         -59.5474         135.356         -59.5464         135.373      -0.00937594         149.414
0.527                  -0.323603        -135.114         -59.3869         133.431          -59.386         133.449      -0.00945352         149.346
0.528                  -0.336163        -135.625         -59.2255         131.496         -59.2245         131.513      -0.00953213         149.279
0.529                  -0.349179        -136.137         -59.0631         129.549         -59.0621         129.567      -0.00961178         149.212
0.53                   -0.362652        -136.651         -58.8998         127.592         -58.8989         127.609      -0.00969248         149.144
0.531                  -0.376583        -137.167         -58.7358         125.624         -58.7349          125.64      -0.00977424         149.077
0.532                  -0.390971        -137.684         -58.5712         123.644         -58.5702          123.66      -0.00985708         149.009
0.533                  -0.405816        -138.202         -58.4059         121.653          -58.405         121.669        -0.009941         148.941
0.534                  -0.421115        -138.721         -58.2401         119.651         -58.2392         119.666        -0.010026         148.873
0.535                  -0.436869        -139.242          -58.074         117.637         -58.0731         117.651       -0.0101122         148.805
0.536                  -0.453075        -139.764         -57.9075         115.612         -57.9066         115.626       -0.0101994         148.737
0.537                  -0.469732        -140.287         -57.7408         113.575           -57.74         113.588       -0.0102878         148.669
0.538                  -0.486836        -140.811         -57.5739         111.527         -57.5732         111.539       -0.0103774         148.601
0.539                  -0.504385        -141.336         -57.4071         109.467         -57.4063         109.479       -0.0104681         148.532
0.54                   -0.522376        -141.863         -57.2403         107.395         -57.2396         107.407         -0.01056         148.464
0.541                  -0.540806         -142.39         -57.0737         105.313          -57.073         105.323       -0.0106531         148.395
0.542                   -0.55967        -142.918         -56.9073         103.218         -56.9067         103.228       -0.0107475         148.327
0.543                  -0.578964        -143.448         -56.7414         101.113         -56.7408         101.122        -0.010843         148.258
0.544                  -0.598683        -143.978         -56.5759         98.9959         -56.5753         99.0044       -0.0109398         148.189
0.545                  -0.618823        -144.509         -56.4109         96.8679         -56.4104         96.8758       -0.0110378          148.12
0.546                  -0.639378        -145.041         -56.2466          94.729         -56.2462         94.7361       -0.0111371         148.051
0.547                  -0.660343        -145.574         -56.0831         92.5794         -56.0827         92.5857       -0.0112377         147.982
0.548                  -0.681711        -146.108         -55.9205         90.4192         -55.9201         90.4248       -0.0113396         147.912
0.549                  -0.703476        -146.642         -55.7588         88.2487         -55.7585         88.2535       -0.0114428         147.843
0.55                   -0.725631        -147.177         -55.5981         86.0681         -55.5979         86.0723       -0.0115474         147.773
0.551                  -0.748169        -147.713         -55.4386         83.8778         -55.4384         83.8812       -0.0116533         147.704
0.552                  -0.771083         -148.25         -55.2803          81.678         -55.2802         81.6808       -0.0117605         147.634
0.553                  -0.794365        -148.788         -55.1233         79.4693         -55.1233         79.4714       -0.0118692         147.564
0.554                  -0.818007        -149.326         -54.9677         77.2518         -54.9677         77.2533       -0.0119792         147.494
0.555                     -0.842        -149.865         -54.8136         75.0261         -54.8137         75.0269       -0.0120907         147.424
0.556                  -0.866337        -150.405          -54.661         72.7926         -54.6612         72.7928       -0.0122036         147.354
0.557                  -0.891007        -150.945         -54.5101         70.5517         -54.5102         70.5514        -0.012318         147.284
0.558                  -0.916003        -151.487         -54.3607          68.304          -54.361         68.3031       -0.0124338         147.213
0.559                  -0.941315        -152.029         -54.2132         66.0499         -54.2135         66.0485       -0.0125512         147.143
0.56                   -0.966934        -152.572         -54.0674           63.79         -54.0678         63.7882         -0.01267         147.072
0.561                   -0.99285        -153.116         -53.9234         61.5248         -53.9239         61.5226       -0.0127904         147.001
0.562                   -1.01905         -153.66         -53.7813         59.2549         -53.7818         59.2523       -0.0129123          146.93
0.563                   -1.04553        -154.206         -53.6411         56.9809         -53.6417          56.978       -0.0130358         146.859
0.564                   -1.07228        -154.752         -53.5028         54.7034         -53.5035         54.7001       -0.0131609         146.788
0.565                   -1.09929          -155.3         -53.3665         52.4229         -53.3672         52.4194       -0.0132875         146.716
0.566                   -1.12655        -155.848         -53.2321           50.14         -53.2329         50.1363       -0.0134158         146.645
0.567                   -1.15404        -156.398         -53.0997         47.8554         -53.1006         47.8515       -0.0135458         146.573
0.568                   -1.18177        -156.949         -52.9693         45.5696         -52.9702         45.5655       -0.0136774         146.502
0.569                   -1.20971        -157.501         -52.8408         43.2831         -52.8418          43.279       -0.0138107          146.43
0.57                    -1.23786        -158.054         -52.7143         40.9967         -52.7153         40.9924       -0.0139458         146.358
0.571                   -1.26622        -158.609         -52.5897         38.7108         -52.5908         38.7065       -0.0140825         146.286
0.572                   -1.29477        -159.165          -52.467         36.4259         -52.4681         36.4216        -0.014221         146.214
0.573                    -1.3235        -159.723         -52.3462         34.1426         -52.3473         34.1384       -0.0143613         146.141
0.574                   -1.35241        -160.283         -52.2272         31.8614         -52.2283         31.8573       -0.0145034         146.069
0.575                   -1.38149        -160.845           -52.11         29.5828         -52.1112         29.5787       -0.0146472         145.996
0.576                   -1.41073        -161.408         -51.9945         27.3072         -51.9957         27.3033        -0.014793         145.923
0.577                   -1.44013        -161.974         -51.8808         25.0351          -51.882         25.0312       -0.0149405          145.85
0.578                   -1.46969        -162.542         -51.7686         22.7667         -51.7698         22.7631         -0.01509         145.777
0.579                   -1.49939        -163.112         -51.6581         20.5025         -51.6593         20.4991       -0.0152413         145.704
0.58                    -1.52923        -163.685          -51.549         18.2429         -51.5502         18.2396       -0.0153946         145.631
0.581                   -1.55922        -164.261         -51.4414          15.988         -51.4426         15.9849       -0.0155498         145.557
0.582                   -1.58935         -164.84         -51.3351         13.7381         -51.3363         13.7353        -0.015707         145.483
0.583                   -1.61963        -165.421         -51.2302         11.4936         -51.2314          11.491       -0.0158661         145.409
0.584                   -1.65004        -166.006         -51.1265          9.2544         -51.1276         9.25205       -0.0160273         145.335
0.585                   -1.68061        -166.595         -51.0239         7.02082         -51.0251         7.01872       -0.0161904         145.261
0.586                   -1.71133        -167.187         -50.9225         4.79293         -50.9236         4.79108       -0.0163556         145.187
0.587                   -1.74221        -167.784          -50.822         2.57079         -50.8231         2.56919       -0.0165228         145.113
0.588                   -1.77325        -168.384         -50.7225         0.35444         -50.7235        0.353087       -0.0166921         145.038
0.589                   -1.80448        -168.989         -50.6238        -1.85611         -50.6248        -1.85722       -0.0168634         144.963
0.59                     -1.8359        -169.598          -50.526        -4.06091         -50.5269        -4.06178       -0.0170369         144.888
0.591                   -1.86753        -170.213         -50.4288           -6.26         -50.4297        -6.26065       -0.0172124         144.813
0.592                   -1.89939        -170.832         -50.3323        -8.45349         -50.3332        -8.45392         -0.01739         144.738
0.593                    -1.9315        -171.457         -50.2365        -10.6415         -50.2373        -10.6417       -0.0175697         144.662
0.594                   -1.96388        -172.088         -50.1411        -12.8242         -50.1418        -12.8242       -0.0177516         144.587
0.595                   -1.99656        -172.725         -50.0462        -15.0017         -50.0469        -15.0015       -0.0179356         144.511
0.596                   -2.02958        -173.368         -49.9517        -17.1743         -49.9523         -17.174       -0.0181217         144.435
0.597                   -2.06296        -174.017         -49.8576        -19.3421         -49.8581        -19.3416       -0.0183099         144.359
0.598                   -2.09674        -174.673         -49.7637        -21.5055         -49.7643        -21.5049       -0.0185002         144.283
0.599                   -2.13098        -175.336         -49.6702        -23.6646         -49.6706        -23.6639       -0.0186926         144.206
0.6                      -2.1657        -176.007         -49.5768        -25.8198         -49.5772         -25.819       -0.0188871          144.13
0.601                   -2.20097        -176.685         -49.4836        -27.9714         -49.4839        -27.9705       -0.0190837         144.053
0.602                   -2.23683        -177.371         -49.3905        -30.1197         -49.3908        -30.1187       -0.0192824         143.976
0.603                   -2.27336        -178.065         -49.2976        -32.2649         -49.2978        -32.2639       -0.0194832         143.899
0.604                    -2.3106        -178.767         -49.2047        -34.4074         -49.2049        -34.4064        -0.019686         143.821
0.605                   -2.34863        -179.478         -49.1119        -36.5476          -49.112        -36.5466       -0.0198909         143.744
0.606                   -2.38753         179.803         -49.0191        -38.6858         -49.0192        -38.6848       -0.0200978         143.666
0.607                   -2.42737         179.074         -48.9264        -40.8224         -48.9264        -40.8213       -0.0203069         143.588
0.608                   -2.46823         178.337         -48.8336        -42.9576         -48.8336        -42.9566       -0.0205179          143.51
0.609                    -2.5102          177.59         -48.7409        -45.0918         -48.7408        -45.0909       -0.0207311         143.431
0.61                    -2.55338         176.834         -48.6482        -47.2254          -48.648        -47.2245       -0.0209464         143.353
0.611                   -2.59786         176.069         -48.5555        -49.3588         -48.5553        -49.3579       -0.0211639         143.274
0.612                   -2.64374         175.294         -48.4628        -51.4921         -48.4626        -51.4914       -0.0213837         143.195
0.613                   -2.69114         174.509         -48.3702        -53.6258         -48.3699        -53.6252       -0.0216057         143.116
0.614                   -2.74016         173.715         -48.2776        -55.7602         -48.2772        -55.7596       -0.0218302         143.036
0.615                   -2.79091         172.912          -48.185        -57.8955         -48.1847         -57.895       -0.0220572         142.956
0.616                   -2.84352           172.1         -48.0926         -60.032         -48.0922        -60.0317       -0.0222869         142.876
0.617                    -2.8981         171.279         -48.0003          -62.17         -47.9999        -62.1698       -0.0225194         142.796
0.618                   -2.95477          170.45         -47.9082        -64.3098         -47.9077        -64.3097       -0.0227549         142.716
0.619                   -3.01366         169.612         -47.8162        -66.4515         -47.8158        -66.4516       -0.0229937         142.635
0.62                    -3.07488         168.766         -47.7245        -68.5954          -47.724        -68.5956       -0.0232358         142.554
0.621                   -3.13857         167.912         -47.6331        -70.7416         -47.6326        -70.7419       -0.0234814         142.473
0.622                   -3.20485         167.052          -47.542        -72.8903         -47.5415        -72.8907       -0.0237309         142.392
0.623                   -3.27383         166.186         -47.4512        -75.0416         -47.4507        -75.0421       -0.0239844         142.311
0.624                   -3.34563         165.314         -47.3609        -77.1956         -47.3604        -77.1962        -0.024242         142.229
0.625                   -3.42036         164.437          -47.271        -79.3523         -47.2705        -79.3531       -0.0245039         142.147
0.626                   -3.49813         163.556         -47.1817        -81.5118         -47.1812        -81.5127       -0.0247703         142.064
0.627                   -3.57904         162.672         -47.0929        -83.6741         -47.0924         -83.675       -0.0250414         141.982
0.628                   -3.66317         161.787         -47.0048        -85.8391         -47.0043        -85.8402       -0.0253173         141.899
0.629                   -3.75062           160.9         -46.9174        -88.0068         -46.9169        -88.0079        -0.025598         141.816
