! TOUCHSTONE file generated by CST MICROWAVE STUDIO
! Date and time: Mon Oct 26 12:29:31 2020
! Project name: Scenario_1_Circular_Tissue_out_of_Line.cst
! Parameters = {dy1=226.253; L_HA=400; MT=2.54; Rad_Dielectric=30; Rad_Lower=7.3; Rad_Upper=30; a_HA=580; a_WG=246; b_HA=500; b_WG=121; c_HA=0; c_WG=187; d_feed=85; dx1=866; h_feed=15; h_lower=18; h_upper=40}
! Header version: 2018
! Port assignment regex: !\s*Touchstone port\s*([0-9]+)\s*=\s*(CST MWS port|CST DS port)\s*([0-9]+|Zmin|Zmax)\s*\(\"(.*)\"\)(\s*mode\s*([0-9]+))?.*
! Touchstone port assignment:
! Touchstone port 1 = CST MWS port 1 ("")
! Touchstone port 2 = CST MWS port 2 ("")
# GHz S DB R 50
0.5                      -0.1461        -122.414         -64.1081          90.851         -64.1081          90.851      -0.00743488         151.072
0.501                  -0.149864         -122.83         -63.9963         88.7445         -63.9963         88.7442      -0.00750504         151.007
0.502                   -0.15383        -123.248         -63.8814         86.6251         -63.8813         86.6247      -0.00757582         150.942
0.503                  -0.158003         -123.67         -63.7633         84.4933         -63.7632         84.4927      -0.00764722         150.876
0.504                  -0.162387        -124.094         -63.6422         82.3495          -63.642         82.3487      -0.00771925         150.811
0.505                  -0.166987        -124.521          -63.518         80.1942         -63.5178         80.1933      -0.00779192         150.745
0.506                  -0.171807        -124.952         -63.3907         78.0278         -63.3905         78.0267      -0.00786524         150.679
0.507                  -0.176854        -125.384         -63.2606         75.8506         -63.2603         75.8494      -0.00793921         150.614
0.508                  -0.182131         -125.82         -63.1274         73.6632         -63.1272         73.6618      -0.00801384         150.548
0.509                  -0.187643        -126.259         -62.9914         71.4659         -62.9912         71.4644      -0.00808914         150.482
0.51                   -0.193395          -126.7         -62.8526          69.259         -62.8523         69.2574      -0.00816512         150.416
0.511                  -0.199393        -127.144         -62.7111          67.043         -62.7107         67.0413      -0.00824178          150.35
0.512                  -0.205642        -127.591         -62.5668         64.8182         -62.5665         64.8165      -0.00831913         150.284
0.513                  -0.212147        -128.041           -62.42         62.5849         -62.4196         62.5831      -0.00839718         150.217
0.514                  -0.218912        -128.494         -62.2707         60.3434         -62.2703         60.3416      -0.00847593         150.151
0.515                  -0.225944         -128.95         -62.1189         58.0941         -62.1185         58.0922      -0.00855541         150.085
0.516                  -0.233247        -129.408         -61.9648         55.8372         -61.9644         55.8352       -0.0086356         150.018
0.517                  -0.240827         -129.87         -61.8085         53.5729          -61.808         53.5709      -0.00871654         149.951
0.518                   -0.24869        -130.334           -61.65         51.3015         -61.6495         51.2995      -0.00879821         149.885
0.519                  -0.256841        -130.801         -61.4894         49.0231          -61.489         49.0211      -0.00888063         149.818
0.52                   -0.265285        -131.271          -61.327         46.7381         -61.3265         46.7361      -0.00896381         149.751
0.521                  -0.274028        -131.744         -61.1627         44.4465         -61.1623         44.4445      -0.00904776         149.684
0.522                  -0.283076        -132.219         -60.9968         42.1485         -60.9963         42.1465      -0.00913249         149.617
0.523                  -0.292435        -132.698         -60.8292         39.8442         -60.8287         39.8422        -0.009218          149.55
0.524                  -0.302109         -133.18         -60.6602         37.5338         -60.6597         37.5319      -0.00930432         149.483
0.525                  -0.312106        -133.664         -60.4898         35.2174         -60.4893         35.2155      -0.00939143         149.416
0.526                   -0.32243        -134.151         -60.3182          32.895         -60.3177         32.8931      -0.00947937         149.348
0.527                  -0.333087        -134.641         -60.1454         30.5668          -60.145         30.5649      -0.00956813         149.281
0.528                  -0.344084        -135.134         -59.9717         28.2327         -59.9713         28.2309      -0.00965772         149.213
0.529                  -0.355426         -135.63         -59.7972         25.8929         -59.7968         25.8912      -0.00974816         149.146
0.53                   -0.367119        -136.128         -59.6219         23.5475         -59.6215         23.5458      -0.00983946         149.078
0.531                   -0.37917         -136.63          -59.446         21.1964         -59.4456         21.1947      -0.00993163          149.01
0.532                  -0.391583        -137.134         -59.2697         18.8397         -59.2693         18.8381       -0.0100247         148.942
0.533                  -0.404366        -137.641          -59.093         16.4775         -59.0926          16.476       -0.0101186         148.874
0.534                  -0.417524        -138.151          -58.916         14.1098         -58.9157         14.1083       -0.0102134         148.806
0.535                  -0.431063        -138.664          -58.739         11.7367         -58.7387         11.7352       -0.0103092         148.738
0.536                  -0.444989        -139.179          -58.562         9.35817         -58.5617         9.35679       -0.0104059          148.67
0.537                  -0.459309        -139.698         -58.3852         6.97432         -58.3849         6.97302       -0.0105035         148.601
0.538                  -0.474028        -140.219         -58.2086         4.58523         -58.2083           4.584        -0.010602         148.533
0.539                  -0.489153        -140.743         -58.0324         2.19097         -58.0321         2.18981       -0.0107015         148.464
0.54                    -0.50469        -141.269         -57.8568       -0.208378         -57.8565       -0.209449        -0.010802         148.395
0.541                  -0.520644        -141.799         -57.6817        -2.61269         -57.6815        -2.61368       -0.0109035         148.327
0.542                  -0.537022        -142.331         -57.5074        -5.02186         -57.5072        -5.02277       -0.0110059         148.258
0.543                  -0.553831        -142.866          -57.334        -7.43575         -57.3338        -7.43657       -0.0111094         148.189
0.544                  -0.571075        -143.403         -57.1615         -9.8542         -57.1613        -9.85494       -0.0112139          148.12
0.545                  -0.588762        -143.944         -56.9901        -12.2771           -56.99        -12.2777       -0.0113195          148.05
0.546                  -0.606897        -144.487         -56.8199        -14.7041         -56.8197        -14.7047        -0.011426         147.981
0.547                  -0.625487        -145.032         -56.6509        -17.1352         -56.6508        -17.1357       -0.0115337         147.912
0.548                  -0.644537        -145.581         -56.4832          -19.57         -56.4832        -19.5704       -0.0116424         147.842
0.549                  -0.664053        -146.132         -56.3171        -22.0084          -56.317        -22.0087       -0.0117522         147.772
0.55                   -0.684043        -146.685         -56.1524        -24.4501         -56.1524        -24.4503       -0.0118632         147.703
0.551                   -0.70451        -147.241         -55.9894        -26.8948         -55.9893        -26.8949       -0.0119752         147.633
0.552                  -0.725463          -147.8          -55.828        -29.3422          -55.828        -29.3422       -0.0120884         147.563
0.553                  -0.746905        -148.362         -55.6684         -31.792         -55.6684        -31.7919       -0.0122027         147.492
0.554                  -0.768845        -148.925         -55.5105        -34.2439         -55.5106        -34.2437       -0.0123182         147.422
0.555                  -0.791286        -149.492         -55.3546        -36.6975         -55.3546        -36.6973       -0.0124349         147.352
0.556                  -0.814235        -150.061         -55.2006        -39.1526         -55.2006        -39.1522       -0.0125528         147.281
0.557                  -0.837699        -150.632         -55.0485        -41.6086         -55.0486        -41.6082       -0.0126719         147.211
0.558                  -0.861681        -151.206         -54.8984        -44.0654         -54.8985        -44.0648       -0.0127923          147.14
0.559                  -0.886189        -151.783         -54.7504        -46.5224         -54.7505        -46.5217       -0.0129139         147.069
0.56                   -0.911228        -152.361         -54.6044        -48.9793         -54.6045        -48.9786       -0.0130367         146.998
0.561                  -0.936804        -152.943         -54.4605        -51.4358         -54.4607        -51.4349       -0.0131609         146.927
0.562                  -0.962921        -153.526         -54.3187        -53.8914         -54.3189        -53.8905       -0.0132863         146.856
0.563                  -0.989586        -154.112          -54.179        -56.3457         -54.1792        -56.3447       -0.0134131         146.785
0.564                    -1.0168          -154.7         -54.0414        -58.7984         -54.0416        -58.7974       -0.0135412         146.713
0.565                   -1.04458        -155.291         -53.9059        -61.2492         -53.9061         -61.248       -0.0136707         146.641
0.566                   -1.07292        -155.884         -53.7725        -63.6976         -53.7727        -63.6963       -0.0138015          146.57
0.567                   -1.10183        -156.479         -53.6412        -66.1432         -53.6414        -66.1419       -0.0139337         146.498
0.568                   -1.13131        -157.076         -53.5119        -68.5858         -53.5121        -68.5845       -0.0140674         146.426
0.569                   -1.16137        -157.676         -53.3847         -71.025         -53.3849        -71.0236       -0.0142025         146.354
0.57                    -1.19202        -158.278         -53.2594        -73.4605         -53.2596        -73.4591       -0.0143391         146.281
0.571                   -1.22325        -158.881         -53.1361         -75.892         -53.1363        -75.8905       -0.0144771         146.209
0.572                   -1.25508        -159.488         -53.0147        -78.3192          -53.015        -78.3177       -0.0146167         146.136
0.573                   -1.28751        -160.096         -52.8953        -80.7418         -52.8955        -80.7403       -0.0147577         146.064
0.574                   -1.32054        -160.706         -52.7776        -83.1597         -52.7778        -83.1581       -0.0149003         145.991
0.575                   -1.35417        -161.318         -52.6617        -85.5726         -52.6619         -85.571       -0.0150445         145.918
0.576                   -1.38843        -161.933         -52.5476        -87.9803         -52.5478        -87.9786       -0.0151903         145.845
0.577                   -1.42329        -162.549         -52.4351        -90.3826         -52.4353        -90.3809       -0.0153377         145.771
0.578                   -1.45878        -163.168         -52.3242        -92.7794         -52.3244        -92.7777       -0.0154867         145.698
0.579                    -1.4949        -163.788         -52.2149        -95.1705         -52.2151        -95.1689       -0.0156374         145.624
0.58                    -1.53164         -164.41         -52.1071        -97.5559         -52.1073        -97.5543       -0.0157898         145.551
0.581                   -1.56902        -165.034         -52.0006        -99.9356         -52.0008        -99.9339       -0.0159439         145.477
0.582                   -1.60704        -165.661         -51.8956        -102.309         -51.8958        -102.308       -0.0160997         145.403
0.583                    -1.6457        -166.289         -51.7918        -104.677          -51.792        -104.676       -0.0162573         145.329
0.584                   -1.68501        -166.918         -51.6893        -107.039         -51.6894        -107.038       -0.0164168         145.254
0.585                   -1.72497         -167.55         -51.5879        -109.395          -51.588        -109.394        -0.016578          145.18
0.586                   -1.76558        -168.184         -51.4876        -111.746         -51.4877        -111.744       -0.0167411         145.105
0.587                   -1.80685        -168.819         -51.3883         -114.09         -51.3885        -114.089        -0.016906          145.03
0.588                   -1.84879        -169.456           -51.29        -116.429         -51.2901        -116.428       -0.0170729         144.955
0.589                   -1.89139        -170.095         -51.1926        -118.763         -51.1927        -118.761       -0.0172417          144.88
0.59                    -1.93466        -170.736          -51.096        -121.091         -51.0961        -121.089       -0.0174125         144.805
0.591                    -1.9786        -171.378         -51.0002        -123.414         -51.0003        -123.412       -0.0175853         144.729
0.592                   -2.02323        -172.022         -50.9051        -125.731         -50.9052         -125.73       -0.0177601         144.653
0.593                   -2.06853        -172.668         -50.8106        -128.044         -50.8107        -128.043        -0.017937         144.578
0.594                   -2.11452        -173.315         -50.7168        -130.352         -50.7169        -130.351        -0.018116         144.502
0.595                    -2.1612        -173.964         -50.6235        -132.655         -50.6236        -132.654       -0.0182971         144.425
0.596                   -2.20857        -174.615         -50.5307        -134.955         -50.5307        -134.954       -0.0184804         144.349
0.597                   -2.25663        -175.267         -50.4383         -137.25         -50.4383        -137.249       -0.0186659         144.272
0.598                    -2.3054        -175.921         -50.3463        -139.541         -50.3463         -139.54       -0.0188537         144.196
0.599                   -2.35487        -176.577         -50.2546        -141.829         -50.2547        -141.828       -0.0190437         144.119
0.6                     -2.40505        -177.234         -50.1632        -144.114         -50.1633        -144.113       -0.0192361         144.042
0.601                   -2.45595        -177.893         -50.0721        -146.395         -50.0722        -146.395       -0.0194308         143.964
0.602                   -2.50756        -178.554         -49.9813        -148.674         -49.9813        -148.674        -0.019628         143.887
0.603                   -2.55989        -179.216         -49.8906        -150.951         -49.8906         -150.95       -0.0198275         143.809
0.604                   -2.61295         -179.88            -49.8        -153.225            -49.8        -153.225       -0.0200296         143.731
0.605                   -2.66673         179.455         -49.7096        -155.497         -49.7096        -155.497       -0.0202343         143.653
0.606                   -2.72126         178.787         -49.6193        -157.768         -49.6193        -157.768       -0.0204415         143.575
0.607                   -2.77652         178.119         -49.5291        -160.038          -49.529        -160.038       -0.0206513         143.496
0.608                   -2.83253         177.448         -49.4389        -162.307         -49.4388        -162.307       -0.0208638         143.417
0.609                   -2.88929         176.776         -49.3487        -164.575         -49.3487        -164.575       -0.0210791         143.338
0.61                    -2.94681         176.102         -49.2586        -166.842         -49.2585        -166.843       -0.0212971         143.259
0.611                   -3.00509         175.426         -49.1684         -169.11         -49.1684         -169.11        -0.021518          143.18
0.612                   -3.06414         174.749         -49.0783        -171.378         -49.0782        -171.378       -0.0217417           143.1
0.613                   -3.12397         174.069         -48.9881        -173.646         -48.9881        -173.647       -0.0219684         143.021
0.614                   -3.18458         173.388          -48.898        -175.915         -48.8979        -175.916       -0.0221982          142.94
0.615                   -3.24599         172.705         -48.8078        -178.185         -48.8077        -178.186       -0.0224309          142.86
0.616                    -3.3082          172.02         -48.7176         179.543         -48.7175         179.542       -0.0226668          142.78
0.617                   -3.37123         171.333         -48.6274          177.27         -48.6273         177.269       -0.0229059         142.699
0.618                   -3.43507         170.644         -48.5372         174.995         -48.5371         174.994       -0.0231483         142.618
0.619                   -3.49975         169.953         -48.4469         172.718         -48.4469         172.717        -0.023394         142.537
0.62                    -3.56527          169.26         -48.3568         170.439         -48.3567         170.437       -0.0236431         142.456
0.621                   -3.63165         168.565         -48.2666         168.157         -48.2666         168.155       -0.0238956         142.374
0.622                   -3.69889         167.867         -48.1765         165.872         -48.1765         165.871       -0.0241517         142.292
0.623                   -3.76702         167.167         -48.0865         163.585         -48.0864         163.583       -0.0244114          142.21
0.624                   -3.83606         166.465         -47.9966         161.294         -47.9965         161.293       -0.0246748         142.127
0.625                   -3.90601         165.761         -47.9067         159.001         -47.9067         158.999        -0.024942         142.045
0.626                   -3.97689         165.053         -47.8171         156.703          -47.817         156.702        -0.025213         141.962
0.627                   -4.04874         164.343         -47.7276         154.403         -47.7275         154.401       -0.0254879         141.879
0.628                   -4.12156         163.631         -47.6383         152.098         -47.6382         152.097       -0.0257669         141.795
0.629                   -4.19538         162.915         -47.5492          149.79         -47.5492         149.789         -0.02605         141.712
