! TOUCHSTONE file generated by CST MICROWAVE STUDIO
! Date and time: Sat Oct 24 11:48:57 2020
! Project name: Scenario_1_Circular_Tissue_out_of_Line.cst
! Parameters = {dy1=226.253; L_HA=400; MT=2.54; Rad_Dielectric=30; Rad_Lower=7.3; Rad_Upper=30; a_HA=580; a_WG=246; b_HA=500; b_WG=121; c_HA=0; c_WG=187; d_feed=85; dx1=1039; h_feed=15; h_lower=18; h_upper=40}
! Header version: 2018
! Port assignment regex: !\s*Touchstone port\s*([0-9]+)\s*=\s*(CST MWS port|CST DS port)\s*([0-9]+|Zmin|Zmax)\s*\(\"(.*)\"\)(\s*mode\s*([0-9]+))?.*
! Touchstone port assignment:
! Touchstone port 1 = CST MWS port 1 ("")
! Touchstone port 2 = CST MWS port 2 ("")
# GHz S DB R 50
0.5                    -0.145672         -122.29         -64.6315        -8.24203         -64.6315        -8.24203      -0.00759359         151.109
0.501                  -0.153653         -122.74         -64.5656          -10.56         -64.5656          -10.56      -0.00765321         151.044
0.502                  -0.161748        -123.193         -64.4939        -12.8969         -64.4939        -12.8969      -0.00771367         150.978
0.503                  -0.169959        -123.647         -64.4163        -15.2511         -64.4163         -15.251      -0.00777497         150.913
0.504                   -0.17829        -124.102         -64.3328         -17.621         -64.3328         -17.621      -0.00783712         150.847
0.505                  -0.186742         -124.56         -64.2434        -20.0052         -64.2434        -20.0052      -0.00790012         150.782
0.506                  -0.195318        -125.019         -64.1481        -22.4021         -64.1481        -22.4021      -0.00796398         150.716
0.507                  -0.204021         -125.48         -64.0469          -24.81         -64.0469          -24.81       -0.0080287          150.65
0.508                  -0.212855        -125.942         -63.9397        -27.2275         -63.9397        -27.2275      -0.00809429         150.585
0.509                  -0.221822        -126.407         -63.8268         -29.653         -63.8268         -29.653      -0.00816075         150.519
0.51                   -0.230924        -126.873          -63.708        -32.0851          -63.708        -32.0851      -0.00822809         150.453
0.511                  -0.240166        -127.341         -63.5837        -34.5222         -63.5837        -34.5222      -0.00829632         150.387
0.512                  -0.249549        -127.811         -63.4538        -36.9632         -63.4537        -36.9631      -0.00836544          150.32
0.513                  -0.259078        -128.282         -63.3184        -39.4065         -63.3184        -39.4065      -0.00843545         150.254
0.514                  -0.268755        -128.756         -63.1778        -41.8512         -63.1778        -41.8512      -0.00850638         150.188
0.515                  -0.278583        -129.231         -63.0321        -44.2961         -63.0321        -44.2961      -0.00857821         150.121
0.516                  -0.288565        -129.708         -62.8815        -46.7402         -62.8815        -46.7401      -0.00865096         150.055
0.517                  -0.298706        -130.187         -62.7262        -49.1826         -62.7262        -49.1825      -0.00872464         149.988
0.518                  -0.309008        -130.668         -62.5663        -51.6225         -62.5663        -51.6224      -0.00879924         149.922
0.519                  -0.319474        -131.151         -62.4022        -54.0593         -62.4021        -54.0592      -0.00887479         149.855
0.52                   -0.330109        -131.636         -62.2339        -56.4924         -62.2339        -56.4924      -0.00895129         149.788
0.521                  -0.340915        -132.123         -62.0617        -58.9214         -62.0617        -58.9213      -0.00902873         149.721
0.522                  -0.351897        -132.612         -61.8859        -61.3459         -61.8858        -61.3459      -0.00910714         149.654
0.523                  -0.363057        -133.102         -61.7066        -63.7658         -61.7066        -63.7657      -0.00918652         149.587
0.524                    -0.3744        -133.595         -61.5241        -66.1808         -61.5241        -66.1808      -0.00926688          149.52
0.525                   -0.38593         -134.09         -61.3387         -68.591         -61.3387         -68.591      -0.00934822         149.453
0.526                   -0.39765        -134.587         -61.1505        -70.9965         -61.1505        -70.9964      -0.00943056         149.385
0.527                  -0.409563        -135.086         -60.9598        -73.3973         -60.9598        -73.3973       -0.0095139         149.318
0.528                  -0.421675        -135.587         -60.7668        -75.7938         -60.7668        -75.7938      -0.00959824          149.25
0.529                  -0.433989         -136.09         -60.5718        -78.1862         -60.5718        -78.1862      -0.00968361         149.183
0.53                   -0.446509        -136.595         -60.3749         -80.575         -60.3749        -80.5749      -0.00977001         149.115
0.531                  -0.459239        -137.103         -60.1764        -82.9605         -60.1764        -82.9604      -0.00985745         149.047
0.532                  -0.472184        -137.612         -59.9764        -85.3432         -59.9764        -85.3432      -0.00994593         148.979
0.533                  -0.485348        -138.124         -59.7753        -87.7238         -59.7753        -87.7238       -0.0100355         148.911
0.534                  -0.498735        -138.638         -59.5731        -90.1028         -59.5731        -90.1028       -0.0101261         148.843
0.535                  -0.512349        -139.154         -59.3701        -92.4808         -59.3701        -92.4807       -0.0102178         148.775
0.536                  -0.526195        -139.672         -59.1665        -94.8584         -59.1665        -94.8584       -0.0103105         148.707
0.537                  -0.540279        -140.192         -58.9625        -97.2365         -58.9625        -97.2364       -0.0104044         148.638
0.538                  -0.554603        -140.715         -58.7582        -99.6155         -58.7582        -99.6155       -0.0104994          148.57
0.539                  -0.569174         -141.24         -58.5539        -101.996         -58.5539        -101.996       -0.0105955         148.501
0.54                   -0.583995        -141.767         -58.3497         -104.38         -58.3497        -104.379       -0.0106927         148.432
0.541                  -0.599072        -142.296         -58.1457        -106.766         -58.1457        -106.766       -0.0107911         148.364
0.542                  -0.614411        -142.828         -57.9423        -109.156         -57.9423        -109.156       -0.0108906         148.295
0.543                  -0.630014        -143.362         -57.7395        -111.551         -57.7395        -111.551       -0.0109913         148.226
0.544                  -0.645889        -143.898         -57.5375        -113.951         -57.5375        -113.951       -0.0110931         148.157
0.545                  -0.662041        -144.437         -57.3364        -116.357         -57.3364        -116.357       -0.0111962         148.087
0.546                  -0.678473        -144.978         -57.1365         -118.77         -57.1365         -118.77       -0.0113005         148.018
0.547                  -0.695193        -145.522         -56.9379        -121.189         -56.9379        -121.189       -0.0114059         147.949
0.548                  -0.712205        -146.068         -56.7407        -123.617         -56.7407        -123.617       -0.0115126         147.879
0.549                  -0.729515        -146.616         -56.5451        -126.052         -56.5451        -126.052       -0.0116206         147.809
0.55                    -0.74713        -147.166         -56.3512        -128.497         -56.3512        -128.497       -0.0117298          147.74
0.551                  -0.765053         -147.72         -56.1592        -130.951         -56.1592        -130.951       -0.0118402          147.67
0.552                  -0.783293        -148.275         -55.9693        -133.414         -55.9693        -133.414        -0.011952           147.6
0.553                  -0.801853        -148.833         -55.7815        -135.888         -55.7815        -135.888        -0.012065         147.529
0.554                  -0.820742        -149.394         -55.5961        -138.372         -55.5961        -138.372       -0.0121794         147.459
0.555                  -0.839964        -149.957         -55.4131        -140.867         -55.4131        -140.867       -0.0122951         147.389
0.556                  -0.859526        -150.522         -55.2327        -143.373         -55.2327        -143.373       -0.0124121         147.318
0.557                  -0.879435         -151.09          -55.055        -145.889          -55.055         -145.89       -0.0125305         147.248
0.558                  -0.899698        -151.661         -54.8802        -148.418         -54.8802        -148.418       -0.0126503         147.177
0.559                   -0.92032        -152.234         -54.7083        -150.957         -54.7083        -150.957       -0.0127714         147.106
0.56                   -0.941309        -152.809         -54.5395        -153.507         -54.5395        -153.508        -0.012894         147.035
0.561                  -0.962671        -153.387         -54.3739        -156.069         -54.3739        -156.069        -0.013018         146.964
0.562                  -0.984414        -153.968         -54.2116        -158.642         -54.2117        -158.642       -0.0131434         146.893
0.563                   -1.00654        -154.552         -54.0528        -161.226         -54.0528        -161.226       -0.0132703         146.822
0.564                   -1.02907        -155.138         -53.8973         -163.82         -53.8974         -163.82       -0.0133987          146.75
0.565                     -1.052        -155.726         -53.7455        -166.425         -53.7455        -166.425       -0.0135285         146.678
0.566                   -1.07534        -156.318         -53.5973         -169.04         -53.5973         -169.04       -0.0136599         146.607
0.567                   -1.09909        -156.912         -53.4529        -171.664         -53.4529        -171.665       -0.0137929         146.535
0.568                   -1.12328        -157.508         -53.3122        -174.298         -53.3122        -174.298       -0.0139273         146.463
0.569                   -1.14789        -158.108         -53.1753        -176.941         -53.1753        -176.941       -0.0140634         146.391
0.57                    -1.17295         -158.71         -53.0423        -179.591         -53.0423        -179.591       -0.0142011         146.318
0.571                   -1.19846        -159.314         -52.9131         177.751         -52.9131         177.751       -0.0143403         146.246
0.572                   -1.22442        -159.922         -52.7879         175.086         -52.7879         175.086       -0.0144813         146.173
0.573                   -1.25086        -160.532         -52.6666         172.414         -52.6666         172.414       -0.0146238         146.101
0.574                   -1.27777        -161.144         -52.5492         169.737         -52.5492         169.737       -0.0147681         146.028
0.575                   -1.30516         -161.76         -52.4356         167.054         -52.4356         167.054       -0.0149141         145.955
0.576                   -1.33305        -162.378          -52.326         164.367          -52.326         164.367       -0.0150618         145.882
0.577                   -1.36144        -162.999         -52.2201         161.676         -52.2201         161.676       -0.0152113         145.808
0.578                   -1.39035        -163.623         -52.1181         158.982         -52.1181         158.982       -0.0153625         145.735
0.579                   -1.41977         -164.25         -52.0197         156.286         -52.0197         156.286       -0.0155156         145.661
0.58                    -1.44973        -164.879          -51.925         153.588          -51.925         153.588       -0.0156704         145.588
0.581                   -1.48024        -165.511         -51.8338         150.888         -51.8338         150.888       -0.0158272         145.514
0.582                   -1.51129        -166.146         -51.7461         148.188         -51.7461         148.188       -0.0159858          145.44
0.583                   -1.54291        -166.784         -51.6618         145.488         -51.6618         145.488       -0.0161463         145.366
0.584                    -1.5751        -167.425         -51.5807         142.789         -51.5807         142.789       -0.0163088         145.291
0.585                   -1.60788        -168.068         -51.5028         140.091         -51.5028         140.091       -0.0164733         145.217
0.586                   -1.64125        -168.714         -51.4279         137.394         -51.4279         137.394       -0.0166397         145.142
0.587                   -1.67523        -169.363         -51.3559         134.699         -51.3559         134.699       -0.0168082         145.067
0.588                   -1.70982        -170.015         -51.2866         132.007         -51.2866         132.007       -0.0169787         144.992
0.589                   -1.74505        -170.669           -51.22         129.317           -51.22         129.317       -0.0171513         144.917
0.59                    -1.78092        -171.327         -51.1558         126.631         -51.1558         126.631       -0.0173261         144.842
0.591                   -1.81744        -171.987          -51.094         123.948          -51.094         123.948       -0.0175029         144.766
0.592                   -1.85463         -172.65         -51.0343         121.269         -51.0343         121.269        -0.017682          144.69
0.593                    -1.8925        -173.315         -50.9767         118.594         -50.9767         118.594       -0.0178633         144.615
0.594                   -1.93106        -173.984         -50.9209         115.924         -50.9209         115.924       -0.0180468         144.538
0.595                   -1.97033        -174.655         -50.8668         113.257         -50.8668         113.257       -0.0182327         144.462
0.596                   -2.01031        -175.329         -50.8143         110.595         -50.8143         110.595       -0.0184208         144.386
0.597                   -2.05103        -176.006         -50.7631         107.937         -50.7631         107.937       -0.0186113         144.309
0.598                   -2.09249        -176.686         -50.7132         105.285         -50.7132         105.285       -0.0188043         144.232
0.599                   -2.13471        -177.368         -50.6644         102.636         -50.6644         102.636       -0.0189996         144.156
0.6                     -2.17771        -178.054         -50.6165         99.9925         -50.6165         99.9925       -0.0191975         144.078
0.601                    -2.2215        -178.741         -50.5694         97.3534         -50.5694         97.3534       -0.0193978         144.001
0.602                   -2.26609        -179.432         -50.5229         94.7188         -50.5229         94.7188       -0.0196007         143.923
0.603                    -2.3115         179.875          -50.477         92.0887          -50.477         92.0887       -0.0198062         143.846
0.604                   -2.35775         179.179         -50.4313         89.4629         -50.4313         89.4629       -0.0200144         143.768
0.605                   -2.40485          178.48         -50.3859         86.8414         -50.3859         86.8414       -0.0202252          143.69
0.606                   -2.45281         177.779         -50.3406         84.2241         -50.3406         84.2241       -0.0204388         143.611
0.607                   -2.50166         177.076         -50.2952         81.6108         -50.2952         81.6108       -0.0206551         143.533
0.608                   -2.55141         176.369         -50.2496         79.0014         -50.2496         79.0014       -0.0208743         143.454
0.609                   -2.60207          175.66         -50.2038         76.3958         -50.2038         76.3958       -0.0210964         143.375
0.61                    -2.65367         174.949         -50.1575         73.7938         -50.1575         73.7938       -0.0213213         143.296
0.611                   -2.70622         174.235         -50.1107         71.1953         -50.1107         71.1953       -0.0215493         143.216
0.612                   -2.75974         173.519         -50.0633         68.6001         -50.0633         68.6001       -0.0217803         143.137
0.613                   -2.81425           172.8         -50.0151         66.0081         -50.0151         66.0082       -0.0220143         143.057
0.614                   -2.86976         172.079         -49.9662         63.4192         -49.9661         63.4192       -0.0222515         142.977
0.615                    -2.9263         171.356         -49.9163         60.8332         -49.9163         60.8332       -0.0224919         142.897
0.616                   -2.98389         170.631         -49.8654         58.2499         -49.8654           58.25       -0.0227355         142.816
0.617                   -3.04253         169.903         -49.8134         55.6694         -49.8134         55.6694       -0.0229824         142.735
0.618                   -3.10226         169.173         -49.7603         53.0913         -49.7602         53.0913       -0.0232327         142.654
0.619                    -3.1631         168.442         -49.7059         50.5157         -49.7059         50.5157       -0.0234864         142.573
0.62                    -3.22505         167.708         -49.6503         47.9424         -49.6502         47.9424       -0.0237436         142.492
0.621                   -3.28815         166.972         -49.5933         45.3713         -49.5933         45.3713       -0.0240043          142.41
0.622                   -3.35241         166.234         -49.5349         42.8024         -49.5349         42.8024       -0.0242686         142.328
0.623                   -3.41786         165.495          -49.475         40.2355          -49.475         40.2355       -0.0245367         142.246
0.624                   -3.48451         164.754         -49.4137         37.6705         -49.4137         37.6706       -0.0248084         142.163
0.625                   -3.55239         164.011         -49.3509         35.1075         -49.3509         35.1076        -0.025084         142.081
0.626                   -3.62153         163.267         -49.2865         32.5464         -49.2865         32.5464       -0.0253635         141.998
0.627                   -3.69193         162.521         -49.2205         29.9871         -49.2205         29.9871       -0.0256469         141.914
0.628                   -3.76362         161.774          -49.153         27.4295          -49.153         27.4296       -0.0259344         141.831
0.629                   -3.83664         161.026         -49.0838         24.8737         -49.0838         24.8738        -0.026226         141.747
