! TOUCHSTONE file generated by CST MICROWAVE STUDIO
! Date and time: Mon Oct 26 12:09:42 2020
! Project name: Scenario_1_Circular_Tissue_out_of_Line_v2.cst
! Parameters = {dy1=242.2; L_HA=400; MT=2.54; Rad_Dielectric=30; Rad_Lower=7.3; Rad_Upper=30; a_HA=580; a_WG=246; b_HA=500; b_WG=121; c_HA=0; c_WG=187; d_feed=85; dx1=173; h_feed=15; h_lower=18; h_upper=40}
! Header version: 2018
! Port assignment regex: !\s*Touchstone port\s*([0-9]+)\s*=\s*(CST MWS port|CST DS port)\s*([0-9]+|Zmin|Zmax)\s*\(\"(.*)\"\)(\s*mode\s*([0-9]+))?.*
! Touchstone port assignment:
! Touchstone port 1 = CST MWS port 1 ("")
! Touchstone port 2 = CST MWS port 2 ("")
# GHz S DB R 50
0.5                    -0.140037        -122.526         -61.1239         108.631         -61.0187         108.176       -0.0067796         151.112
0.501                  -0.145549        -122.973         -60.9119         107.378         -60.8174         106.948      -0.00683835         151.047
0.502                  -0.151336        -123.422         -60.7001          106.11         -60.6158         105.706      -0.00689803         150.982
0.503                  -0.157407        -123.873         -60.4886         104.826         -60.4137         104.448      -0.00695866         150.916
0.504                  -0.163771        -124.327         -60.2775         103.527         -60.2114         103.174      -0.00702026          150.85
0.505                  -0.170438        -124.783         -60.0668         102.211         -60.0088         101.885      -0.00708285         150.785
0.506                  -0.177417        -125.242         -59.8565         100.879          -59.806          100.58      -0.00714645         150.719
0.507                  -0.184716        -125.703         -59.6467         99.5303         -59.6031         99.2582       -0.0072111         150.653
0.508                  -0.192345        -126.166         -59.4374         98.1656         -59.4002         97.9201       -0.0072768         150.587
0.509                  -0.200311        -126.631         -59.2288         96.7844         -59.1972         96.5652       -0.0073436         150.521
0.51                   -0.208622        -127.098         -59.0207         95.3868         -58.9944         95.1934      -0.00741151         150.455
0.511                  -0.217286        -127.567         -58.8133         93.9726         -58.7917         93.8045      -0.00748058         150.389
0.512                   -0.22631        -128.038         -58.6067         92.5418         -58.5892         92.3984      -0.00755082         150.323
0.513                  -0.235698        -128.512         -58.4009         91.0944         -58.3871         90.9748      -0.00762228         150.257
0.514                  -0.245457        -128.986         -58.1959         89.6303         -58.1854         89.5336      -0.00769499          150.19
0.515                  -0.255591        -129.463         -57.9919         88.1496         -57.9841         88.0749      -0.00776898         150.124
0.516                  -0.266104        -129.942         -57.7888         86.6523         -57.7835         86.5985       -0.0078443         150.057
0.517                     -0.277        -130.422         -57.5869         85.1384         -57.5836         85.1043      -0.00792098          149.99
0.518                  -0.288279        -130.903          -57.386          83.608         -57.3844         83.5924      -0.00799905         149.924
0.519                  -0.299944        -131.386         -57.1864         82.0612         -57.1862         82.0629      -0.00807857         149.857
0.52                   -0.311995        -131.871          -56.988         80.4982         -56.9889         80.5157      -0.00815956          149.79
0.521                   -0.32443        -132.356          -56.791         78.9189         -56.7927          78.951      -0.00824207         149.723
0.522                  -0.337248        -132.843         -56.5955         77.3238         -56.5976         77.3689      -0.00832614         149.656
0.523                  -0.350446        -133.331         -56.4014         75.7128         -56.4039         75.7697       -0.0084118         149.589
0.524                  -0.364019         -133.82         -56.2089         74.0864         -56.2115         74.1535       -0.0084991         149.521
0.525                  -0.377962         -134.31         -56.0181         72.4446         -56.0207         72.5206      -0.00858805         149.454
0.526                  -0.392269        -134.801         -55.8291         70.7879         -55.8314         70.8713      -0.00867871         149.387
0.527                  -0.406933        -135.293         -55.6418         69.1166         -55.6438         69.2061      -0.00877109         149.319
0.528                  -0.421944        -135.786         -55.4564          67.431         -55.4581         67.5252      -0.00886522         149.251
0.529                  -0.437292        -136.279          -55.273         65.7315         -55.2742         65.8292      -0.00896113         149.184
0.53                   -0.452968        -136.773         -55.0916         64.0185         -55.0923         64.1185      -0.00905882         149.116
0.531                  -0.468959        -137.267         -54.9123         62.2926         -54.9124         62.3936      -0.00915833         149.048
0.532                  -0.485253        -137.763         -54.7352         60.5542         -54.7347         60.6551      -0.00925964          148.98
0.533                  -0.501835        -138.258         -54.5603         58.8038         -54.5592         58.9037      -0.00936277         148.912
0.534                  -0.518692        -138.754         -54.3877          57.042         -54.3861         57.1399      -0.00946771         148.844
0.535                  -0.535809        -139.251         -54.2174         55.2694         -54.2153         55.3645      -0.00957445         148.775
0.536                  -0.553169        -139.747         -54.0495         53.4865         -54.0469         53.5781      -0.00968299         148.707
0.537                  -0.570758        -140.245         -53.8841          51.694          -53.881         51.7815       -0.0097933         148.639
0.538                  -0.588558        -140.743         -53.7211         49.8926         -53.7177         49.9754      -0.00990536          148.57
0.539                  -0.606553        -141.241         -53.5606         48.0829         -53.5569         48.1606       -0.0100191         148.501
0.54                   -0.624726         -141.74         -53.4027         46.2656         -53.3987         46.3378       -0.0101346         148.433
0.541                   -0.64306        -142.239         -53.2473         44.4413         -53.2431         44.5079       -0.0102517         148.364
0.542                   -0.66154        -142.739         -53.0945         42.6109         -53.0902         42.6717       -0.0103705         148.295
0.543                  -0.680148         -143.24         -52.9442          40.775           -52.94           40.83       -0.0104908         148.226
0.544                   -0.69887        -143.741         -52.7966         38.9344         -52.7923         38.9835       -0.0106127         148.157
0.545                  -0.717689        -144.243         -52.6515         37.0896         -52.6474          37.133        -0.010736         148.087
0.546                  -0.736592        -144.746          -52.509         35.2415          -52.505         35.2794       -0.0108609         148.018
0.547                  -0.755565         -145.25          -52.369         33.3907         -52.3652         33.4233       -0.0109871         147.948
0.548                  -0.774596        -145.755         -52.2315         31.5379         -52.2281         31.5655       -0.0111147         147.879
0.549                  -0.793673        -146.261         -52.0965         29.6838         -52.0934         29.7068       -0.0112437         147.809
0.55                   -0.812786        -146.769          -51.964          27.829         -51.9612         27.8476        -0.011374         147.739
0.551                  -0.831926        -147.278         -51.8339         25.9741         -51.8315         25.9888       -0.0115055         147.669
0.552                  -0.851085        -147.789         -51.7061         24.1197         -51.7041         24.1309       -0.0116383         147.599
0.553                  -0.870258        -148.302         -51.5807         22.2664         -51.5791         22.2745       -0.0117724         147.529
0.554                  -0.889439        -148.817         -51.4575         20.4146         -51.4563         20.4201       -0.0119076         147.459
0.555                  -0.908627        -149.333         -51.3365          18.565         -51.3358         18.5683        -0.012044         147.389
0.556                  -0.927819        -149.852         -51.2177         16.7179         -51.2173         16.7193       -0.0121817         147.318
0.557                  -0.947017        -150.374         -51.1009         14.8738         -51.1009         14.8738       -0.0123205         147.248
0.558                  -0.966222        -150.898         -50.9861          13.033         -50.9864         13.0319       -0.0124604         147.177
0.559                  -0.985438        -151.425         -50.8732         11.1959         -50.8739          11.194       -0.0126016         147.106
0.56                    -1.00467        -151.955         -50.7622         9.36287         -50.7631         9.36052       -0.0127439         147.035
0.561                   -1.02393        -152.488         -50.6529          7.5341         -50.6542         7.53153       -0.0128874         146.964
0.562                   -1.04322        -153.024         -50.5454         5.70983         -50.5468         5.70727       -0.0130321         146.893
0.563                   -1.06255        -153.564         -50.4395         3.89027         -50.4411         3.88791        -0.013178         146.822
0.564                   -1.08194        -154.108         -50.3351         2.07557         -50.3369         2.07354       -0.0133252          146.75
0.565                    -1.1014        -154.655         -50.2323        0.265841         -50.2341         0.26427       -0.0134735         146.679
0.566                   -1.12094        -155.207         -50.1308        -1.53882         -50.1327        -1.53987       -0.0136232         146.607
0.567                   -1.14059        -155.762         -50.0307        -3.33838         -50.0326        -3.33885       -0.0137741         146.535
0.568                   -1.16036        -156.322         -49.9319        -5.13279         -49.9338        -5.13268       -0.0139264         146.463
0.569                   -1.18027        -156.886         -49.8342        -6.92209         -49.8361         -6.9214         -0.01408         146.391
0.57                    -1.20034        -157.455         -49.7378        -8.70628         -49.7396        -8.70508        -0.014235         146.319
0.571                    -1.2206        -158.029         -49.6424        -10.4854         -49.6441        -10.4838       -0.0143914         146.247
0.572                   -1.24106        -158.608         -49.5481        -12.2597         -49.5497        -12.2576       -0.0145492         146.174
0.573                   -1.26176        -159.192         -49.4548         -14.029         -49.4562        -14.0267       -0.0147084         146.101
0.574                   -1.28272         -159.78         -49.3624        -15.7937         -49.3636        -15.7912       -0.0148692         146.029
0.575                   -1.30396        -160.374         -49.2708        -17.5537         -49.2719        -17.5512       -0.0150315         145.956
0.576                   -1.32552        -160.974         -49.1802        -19.3093         -49.1811        -19.3068       -0.0151954         145.883
0.577                   -1.34743        -161.579         -49.0904        -21.0606         -49.0911        -21.0583       -0.0153609          145.81
0.578                   -1.36971        -162.189         -49.0013        -22.8077         -49.0018        -22.8058        -0.015528         145.736
0.579                    -1.3924        -162.806          -48.913        -24.5509         -48.9134        -24.5494       -0.0156967         145.663
0.58                    -1.41552        -163.428         -48.8254        -26.2904         -48.8256        -26.2894       -0.0158672         145.589
0.581                   -1.43911        -164.055         -48.7386        -28.0262         -48.7386        -28.0258       -0.0160394         145.515
0.582                   -1.46321        -164.689         -48.6524        -29.7586         -48.6523        -29.7589       -0.0162134         145.441
0.583                   -1.48784        -165.329         -48.5669        -31.4877         -48.5666        -31.4889       -0.0163892         145.367
0.584                   -1.51305        -165.974         -48.4821        -33.2137         -48.4816        -33.2158       -0.0165669         145.293
0.585                   -1.53886        -166.626         -48.3979        -34.9369         -48.3973        -34.9398       -0.0167464         145.218
0.586                   -1.56531        -167.284         -48.3143        -36.6572         -48.3137        -36.6611       -0.0169279         145.144
0.587                   -1.59244        -167.947         -48.2314        -38.3749         -48.2307        -38.3797       -0.0171113         145.069
0.588                   -1.62028        -168.617         -48.1491        -40.0902         -48.1484        -40.0959       -0.0172967         144.994
0.589                   -1.64888        -169.293         -48.0675        -41.8031         -48.0667        -41.8097       -0.0174841         144.919
0.59                    -1.67826        -169.975         -47.9865        -43.5137         -47.9857        -43.5212       -0.0176736         144.844
0.591                   -1.70847        -170.664         -47.9062        -45.2222         -47.9053        -45.2305       -0.0178651         144.768
0.592                   -1.73954        -171.358         -47.8265        -46.9287         -47.8257        -46.9377       -0.0180588         144.693
0.593                   -1.77151        -172.058         -47.7475        -48.6331         -47.7467        -48.6428       -0.0182547         144.617
0.594                   -1.80442        -172.765         -47.6691        -50.3356         -47.6684         -50.346       -0.0184527         144.541
0.595                   -1.83831        -173.477         -47.5915        -52.0363         -47.5908        -52.0471        -0.018653         144.465
0.596                   -1.87322        -174.196         -47.5145        -53.7351         -47.5139        -53.7463       -0.0188556         144.389
0.597                   -1.90918         -174.92         -47.4383         -55.432         -47.4377        -55.4436       -0.0190604         144.312
0.598                   -1.94623         -175.65         -47.3628        -57.1271         -47.3622        -57.1389       -0.0192675         144.236
0.599                   -1.98441        -176.386          -47.288        -58.8204         -47.2875        -58.8322       -0.0194771         144.159
0.6                     -2.02377        -177.127         -47.2139        -60.5118         -47.2136        -60.5235        -0.019689         144.082
0.601                   -2.06434        -177.874         -47.1406        -62.2012         -47.1403        -62.2128       -0.0199033         144.005
0.602                   -2.10615        -178.627         -47.0681        -63.8887         -47.0679        -63.9001         -0.02012         143.927
0.603                   -2.14926        -179.385         -46.9963        -65.5741         -46.9962        -65.5851       -0.0203393          143.85
0.604                   -2.19369         179.852         -46.9253        -67.2573         -46.9253         -67.268       -0.0205611         143.772
0.605                   -2.23948         179.084         -46.8551        -68.9384         -46.8552        -68.9485       -0.0207854         143.694
0.606                   -2.28668         178.311         -46.7857        -70.6171         -46.7858        -70.6267       -0.0210122         143.616
0.607                   -2.33532         177.533         -46.7171        -72.2934         -46.7173        -72.3023       -0.0212417         143.537
0.608                   -2.38544          176.75         -46.6494        -73.9671         -46.6496        -73.9753       -0.0214738         143.459
0.609                   -2.43708         175.963         -46.5824        -75.6382         -46.5826        -75.6456       -0.0217085          143.38
0.61                    -2.49027         175.171         -46.5163        -77.3064         -46.5165        -77.3131       -0.0219459         143.301
0.611                   -2.54505         174.375         -46.4509        -78.9717         -46.4512        -78.9776       -0.0221861         143.222
0.612                   -2.60146         173.576         -46.3864        -80.6339         -46.3866         -80.639        -0.022429         143.142
0.613                   -2.65954         172.772         -46.3227        -82.2929         -46.3229        -82.2971       -0.0226746         143.063
0.614                   -2.71932         171.965         -46.2598        -83.9485           -46.26        -83.9519        -0.022923         142.983
0.615                   -2.78083         171.154         -46.1976        -85.6006         -46.1978        -85.6032       -0.0231743         142.903
0.616                   -2.84411         170.341         -46.1363         -87.249         -46.1364        -87.2508       -0.0234284         142.823
0.617                    -2.9092         169.524         -46.0757        -88.8936         -46.0758        -88.8947       -0.0236854         142.742
0.618                   -2.97613         168.705          -46.016        -90.5342          -46.016        -90.5346       -0.0239454         142.661
0.619                   -3.04493         167.883         -45.9569        -92.1707         -45.9569        -92.1705       -0.0242083          142.58
0.62                    -3.11564         167.059         -45.8986        -93.8029         -45.8985        -93.8021       -0.0244742         142.499
0.621                   -3.18829         166.234          -45.841        -95.4308         -45.8409        -95.4295       -0.0247431         142.418
0.622                    -3.2629         165.406         -45.7842        -97.0541         -45.7839        -97.0524       -0.0250151         142.336
0.623                   -3.33951         164.578          -45.728        -98.6728         -45.7277        -98.6707       -0.0252902         142.254
0.624                   -3.41815         163.748         -45.6724        -100.287         -45.6721        -100.284       -0.0255685         142.172
0.625                   -3.49885         162.917         -45.6176        -101.896         -45.6171        -101.893         -0.02585         142.089
0.626                   -3.58164         162.086         -45.5633          -103.5         -45.5628        -103.497       -0.0261347         142.006
0.627                   -3.66654         161.255         -45.5096        -105.099         -45.5091        -105.096       -0.0264228         141.924
0.628                   -3.75358         160.424         -45.4566        -106.693         -45.4559        -106.689       -0.0267142          141.84
0.629                   -3.84279         159.594          -45.404        -108.281         -45.4033        -108.278       -0.0270091         141.757
