! TOUCHSTONE file generated by CST MICROWAVE STUDIO
! Date and time: Wed Oct 28 19:40:07 2020
! Project name: Scenario_1_Circular_Tissue_out_of_Line_v2.cst
! Parameters = {dy1=242.2; L_HA=400; MT=2.54; Rad_Dielectric=30; Rad_Lower=7.3; Rad_Upper=30; a_HA=580; a_WG=246; b_HA=500; b_WG=121; c_HA=0; c_WG=187; d_feed=85; dx1=346; h_feed=15; h_lower=18; h_upper=40}
! Header version: 2018
! Port assignment regex: !\s*Touchstone port\s*([0-9]+)\s*=\s*(CST MWS port|CST DS port)\s*([0-9]+|Zmin|Zmax)\s*\(\"(.*)\"\)(\s*mode\s*([0-9]+))?.*
! Touchstone port assignment:
! Touchstone port 1 = CST MWS port 1 ("")
! Touchstone port 2 = CST MWS port 2 ("")
# GHz S DB R 50
0.5                    -0.151434        -122.302         -61.0264         2.12767         -61.0264         2.12767      -0.00799931         151.135
0.501                    -0.1505        -122.761         -60.9623        0.251182         -60.9623        0.251298       -0.0080467          151.07
0.502                  -0.149976        -123.223         -60.8933        -1.61899         -60.8933        -1.61875      -0.00809493         151.004
0.503                  -0.149866        -123.686         -60.8193        -3.48151         -60.8193        -3.48115      -0.00814401         150.939
0.504                  -0.150173        -124.152         -60.7406        -5.33512         -60.7406        -5.33465      -0.00819395         150.874
0.505                  -0.150903         -124.62         -60.6573        -7.17865         -60.6572        -7.17805      -0.00824478         150.809
0.506                  -0.152059        -125.091         -60.5694          -9.011         -60.5694        -9.01028      -0.00829651         150.743
0.507                  -0.153646        -125.563         -60.4773        -10.8312         -60.4773        -10.8303      -0.00834915         150.678
0.508                  -0.155666        -126.038          -60.381        -12.6383          -60.381        -12.6373      -0.00840272         150.612
0.509                  -0.158123        -126.515         -60.2807        -14.4315         -60.2807        -14.4304      -0.00845724         150.546
0.51                   -0.161022        -126.994         -60.1766        -16.2101         -60.1766        -16.2089      -0.00851272          150.48
0.511                  -0.164366        -127.475         -60.0689        -17.9735         -60.0688        -17.9722      -0.00856917         150.414
0.512                  -0.168157        -127.958         -59.9577        -19.7211         -59.9576        -19.7197      -0.00862662         150.348
0.513                    -0.1724        -128.444         -59.8432        -21.4526         -59.8432        -21.4511      -0.00868509         150.282
0.514                  -0.177097        -128.931         -59.7256        -23.1675         -59.7256        -23.1659      -0.00874458         150.216
0.515                  -0.182253        -129.421         -59.6052        -24.8656         -59.6051        -24.8639      -0.00880511          150.15
0.516                  -0.187868        -129.912         -59.4819        -26.5468         -59.4819        -26.5449       -0.0088667         150.084
0.517                  -0.193947        -130.405         -59.3561        -28.2108         -59.3561        -28.2089      -0.00892937         150.017
0.518                  -0.200492        -130.901         -59.2279        -29.8577         -59.2279        -29.8557      -0.00899313         149.951
0.519                  -0.207505        -131.398         -59.0974        -31.4875         -59.0974        -31.4854        -0.009058         149.884
0.52                    -0.21499        -131.897         -58.9649        -33.1002         -58.9648         -33.098      -0.00912399         149.817
0.521                  -0.222947        -132.398         -58.8304        -34.6961         -58.8304        -34.6938      -0.00919113         149.751
0.522                   -0.23138        -132.901         -58.6941        -36.2752         -58.6941        -36.2728      -0.00925942         149.684
0.523                  -0.240291        -133.406         -58.5561        -37.8379         -58.5561        -37.8355      -0.00932888         149.617
0.524                  -0.249681        -133.912         -58.4167        -39.3844         -58.4167        -39.3819      -0.00939953          149.55
0.525                  -0.259552         -134.42         -58.2758         -40.915         -58.2758        -40.9124      -0.00947139         149.483
0.526                  -0.269906         -134.93         -58.1337        -42.4301         -58.1337        -42.4275      -0.00954446         149.415
0.527                  -0.280744        -135.442         -57.9904        -43.9301         -57.9904        -43.9274      -0.00961877         149.348
0.528                  -0.292067        -135.955          -57.846        -45.4152         -57.8461        -45.4125      -0.00969433          149.28
0.529                  -0.303878         -136.47         -57.7007        -46.8861         -57.7008        -46.8833      -0.00977116         149.213
0.53                   -0.316176        -136.987         -57.5545         -48.343         -57.5546        -48.3402      -0.00984926         149.145
0.531                  -0.328963        -137.505         -57.4076        -49.7865         -57.4076        -49.7837      -0.00992866         149.078
0.532                  -0.342239        -138.025           -57.26        -51.2171           -57.26        -51.2141       -0.0100094          149.01
0.533                  -0.356006        -138.546         -57.1117        -52.6351         -57.1118        -52.6321       -0.0100914         148.942
0.534                  -0.370263        -139.069         -56.9629         -54.041          -56.963         -54.038       -0.0101747         148.874
0.535                  -0.385012        -139.593         -56.8136        -55.4354         -56.8137        -55.4324       -0.0102594         148.806
0.536                  -0.400251        -140.119         -56.6639        -56.8188          -56.664        -56.8157       -0.0103455         148.737
0.537                  -0.415982        -140.646         -56.5139        -58.1916         -56.5139        -58.1885       -0.0104329         148.669
0.538                  -0.432204        -141.175         -56.3635        -59.5542         -56.3636        -59.5511       -0.0105217           148.6
0.539                  -0.448917        -141.705         -56.2128        -60.9073         -56.2129        -60.9042        -0.010612         148.532
0.54                   -0.466122        -142.237          -56.062        -62.2512         -56.0621        -62.2481       -0.0107036         148.463
0.541                  -0.483816         -142.77         -55.9109        -63.5865          -55.911        -63.5834       -0.0107966         148.394
0.542                     -0.502        -143.304         -55.7597        -64.9136         -55.7598        -64.9105        -0.010891         148.326
0.543                  -0.520674         -143.84         -55.6084         -66.233         -55.6085        -66.2299       -0.0109869         148.257
0.544                  -0.539836        -144.377         -55.4569        -67.5452         -55.4571        -67.5421       -0.0110842         148.187
0.545                  -0.559485        -144.915         -55.3054        -68.8505         -55.3055        -68.8475        -0.011183         148.118
0.546                  -0.579621        -145.454         -55.1539        -70.1495          -55.154        -70.1465       -0.0112833         148.049
0.547                  -0.600242        -145.995         -55.0023        -71.4426         -55.0024        -71.4396        -0.011385         147.979
0.548                  -0.621347        -146.537         -54.8506        -72.7302         -54.8508        -72.7272       -0.0114881          147.91
0.549                  -0.642934         -147.08          -54.699        -74.0128         -54.6991        -74.0098       -0.0115928          147.84
0.55                   -0.665003        -147.625         -54.5473        -75.2906         -54.5475        -75.2876       -0.0116989         147.771
0.551                  -0.687552         -148.17         -54.3957        -76.5642         -54.3958        -76.5613       -0.0118065         147.701
0.552                  -0.710578        -148.717          -54.244         -77.834         -54.2442        -77.8311       -0.0119157         147.631
0.553                  -0.734081        -149.265         -54.0924        -79.1002         -54.0925        -79.0974       -0.0120263         147.561
0.554                  -0.758059        -149.814         -53.9407        -80.3634         -53.9409        -80.3605       -0.0121384          147.49
0.555                   -0.78251        -150.365         -53.7891        -81.6237         -53.7892         -81.621        -0.012252          147.42
0.556                  -0.807431        -150.916         -53.6374        -82.8817         -53.6375         -82.879       -0.0123671         147.349
0.557                  -0.832822        -151.469         -53.4857        -84.1376         -53.4859         -84.135       -0.0124838         147.279
0.558                  -0.858679        -152.023          -53.334        -85.3917         -53.3341        -85.3892        -0.012602         147.208
0.559                  -0.885001        -152.578         -53.1823        -86.6445         -53.1824         -86.642       -0.0127216         147.137
0.56                   -0.911786        -153.134         -53.0304         -87.896         -53.0305        -87.8936       -0.0128428         147.066
0.561                  -0.939032        -153.691         -52.8785        -89.1468         -52.8786        -89.1445       -0.0129655         146.995
0.562                  -0.966737         -154.25         -52.7265         -90.397         -52.7266        -90.3948       -0.0130898         146.924
0.563                  -0.994897        -154.809         -52.5743        -91.6469         -52.5744        -91.6448       -0.0132155         146.853
0.564                   -1.02351         -155.37          -52.422        -92.8968         -52.4221        -92.8948       -0.0133428         146.781
0.565                   -1.05258        -155.932         -52.2695        -94.1469         -52.2696         -94.145       -0.0134716          146.71
0.566                    -1.0821        -156.495         -52.1168        -95.3974         -52.1169        -95.3957        -0.013602         146.638
0.567                   -1.11206        -157.059         -51.9638        -96.6486         -51.9639         -96.647       -0.0137339         146.566
0.568                   -1.14247        -157.625         -51.8105        -97.9006         -51.8106        -97.8992       -0.0138673         146.494
0.569                   -1.17333        -158.192         -51.6569        -99.1537         -51.6569        -99.1524       -0.0140022         146.422
0.57                    -1.20462         -158.76         -51.5028        -100.408         -51.5029        -100.407       -0.0141387          146.35
0.571                   -1.23636        -159.329         -51.3483        -101.663         -51.3483        -101.663       -0.0142767         146.277
0.572                   -1.26853        -159.899         -51.1933         -102.92         -51.1933         -102.92       -0.0144162         146.205
0.573                   -1.30114        -160.471         -51.0377        -104.179         -51.0377        -104.179       -0.0145573         146.132
0.574                   -1.33419        -161.044         -50.8814        -105.439         -50.8814        -105.439          -0.0147         146.059
0.575                   -1.36767        -161.619         -50.7244        -106.701         -50.7243        -106.701       -0.0148442         145.986
0.576                   -1.40158        -162.194         -50.5665        -107.965         -50.5664        -107.965       -0.0149899         145.913
0.577                   -1.43591        -162.772         -50.4077        -109.231         -50.4076        -109.231       -0.0151373          145.84
0.578                   -1.47068         -163.35         -50.2478        -110.498         -50.2476        -110.499       -0.0152862         145.766
0.579                   -1.50588         -163.93         -50.0866        -111.767         -50.0864        -111.768       -0.0154367         145.693
0.58                     -1.5415        -164.512         -49.9241        -113.038         -49.9239         -113.04       -0.0155888         145.619
0.581                   -1.57755        -165.095         -49.7601         -114.31         -49.7598        -114.312       -0.0157425         145.545
0.582                   -1.61403         -165.68         -49.5943        -115.584          -49.594        -115.587       -0.0158978         145.471
0.583                   -1.65093        -166.266         -49.4265        -116.859         -49.4262        -116.862       -0.0160548         145.397
0.584                   -1.68825        -166.854         -49.2565        -118.136         -49.2562        -118.139       -0.0162134         145.323
0.585                     -1.726        -167.444          -49.084        -119.413         -49.0837        -119.417       -0.0163737         145.248
0.586                   -1.76418        -168.035         -48.9086        -120.691         -48.9082        -120.696       -0.0165356         145.174
0.587                   -1.80278        -168.628           -48.73        -121.969         -48.7295        -121.975       -0.0166993         145.099
0.588                   -1.84181        -169.223         -48.5476        -123.247          -48.547        -123.254       -0.0168647         145.024
0.589                   -1.88128         -169.82         -48.3608        -124.525         -48.3603        -124.533       -0.0170318         144.949
0.59                    -1.92117        -170.419         -48.1691        -125.803         -48.1685        -125.812       -0.0172007         144.873
0.591                   -1.96149         -171.02         -47.9716        -127.081          -47.971        -127.091       -0.0173714         144.798
0.592                   -2.00225        -171.623         -47.7674        -128.358         -47.7667        -128.369        -0.017544         144.722
0.593                   -2.04344        -172.229         -47.5554        -129.634         -47.5547        -129.647       -0.0177184         144.646
0.594                   -2.08508        -172.836         -47.3341        -130.911         -47.3333        -130.926       -0.0178947          144.57
0.595                   -2.12716        -173.446         -47.1019         -132.19         -47.1011        -132.207       -0.0180729         144.494
0.596                   -2.16969        -174.058         -46.8567        -133.472         -46.8558        -133.492       -0.0182531         144.418
0.597                   -2.21267        -174.672         -46.5957        -134.762         -46.5949        -134.785       -0.0184353         144.341
0.598                   -2.25611        -175.289         -46.3158        -136.066          -46.315        -136.092       -0.0186195         144.264
0.599                   -2.30002        -175.908         -46.0128        -137.393         -46.0121        -137.424       -0.0188058         144.187
0.6                     -2.34439        -176.531         -45.6814        -138.759         -45.6808        -138.795       -0.0189943          144.11
0.601                   -2.38924        -177.156         -45.3148         -140.19         -45.3145        -140.232       -0.0191849         144.033
0.602                   -2.43457        -177.783         -44.9044        -141.726         -44.9046        -141.776       -0.0193777         143.955
0.603                    -2.4804        -178.414         -44.4393        -143.436         -44.4404        -143.495       -0.0195729         143.878
0.604                   -2.52672        -179.047         -43.9064         -145.43         -43.9088        -145.501       -0.0197703           143.8
0.605                   -2.57356        -179.684          -43.291        -147.898         -43.2956        -147.981       -0.0199701         143.722
0.606                   -2.62091         179.676         -42.5816        -151.152         -42.5896        -151.248       -0.0201723         143.643
0.607                    -2.6688         179.033         -41.7826        -155.711         -41.7961        -155.815        -0.020377         143.565
0.608                   -2.71723         178.386         -40.9504        -162.343         -40.9719        -162.438       -0.0205841         143.486
0.609                   -2.76622         177.737         -40.2627        -171.851         -40.2934          -171.9       -0.0207937         143.407
0.61                    -2.81577         177.083         -40.0618         175.951         -40.0968         175.997       -0.0210061         143.328
0.611                    -2.8659         176.426         -40.6363         163.591         -40.6643         163.738       -0.0212215         143.249
0.612                   -2.91663         175.765         -41.8333         154.506         -41.8472         154.695       -0.0214399         143.169
0.613                   -2.96797           175.1         -43.1977         149.876         -43.1995         150.049       -0.0216613         143.089
0.614                   -3.01995         174.431         -44.3915         148.705         -44.3863         148.837       -0.0218855         143.009
0.615                   -3.07258         173.759         -45.2912         149.498         -45.2832          149.59       -0.0221127         142.929
0.616                   -3.12589         173.082         -45.9032         151.098         -45.8949         151.156        -0.022343         142.848
0.617                   -3.17988           172.4         -46.2835         152.805         -46.2762         152.841       -0.0225765         142.768
0.618                    -3.2346         171.714         -46.4948         154.276         -46.4887         154.296       -0.0228132         142.687
0.619                   -3.29005         171.024         -46.5893         155.379         -46.5845          155.39       -0.0230533         142.605
0.62                    -3.34627         170.329         -46.6055         156.092         -46.6019         156.098       -0.0232969         142.524
0.621                   -3.40328         169.629         -46.5701         156.445         -46.5674         156.448        -0.023544         142.442
0.622                   -3.46111         168.925          -46.501         156.482          -46.499         156.483       -0.0237947          142.36
0.623                   -3.51979         168.215         -46.4101         156.248         -46.4087         156.248       -0.0240491         142.278
0.624                   -3.57935         167.501         -46.3054         155.786         -46.3045         155.786       -0.0243073         142.196
0.625                   -3.63983         166.781         -46.1922         155.133         -46.1917         155.133       -0.0245695         142.113
0.626                   -3.70126         166.056          -46.074         154.318         -46.0738         154.318       -0.0248356          142.03
0.627                   -3.76368         165.325         -45.9532         153.367         -45.9532         153.367       -0.0251058         141.947
0.628                   -3.82713         164.589         -45.8314           152.3         -45.8315           152.3       -0.0253802         141.863
0.629                   -3.89165         163.847         -45.7096         151.133         -45.7099         151.134       -0.0256589         141.779
