! TOUCHSTONE file generated by CST MICROWAVE STUDIO
! Date and time: Wed Oct 28 19:20:16 2020
! Project name: Scenario_1_Circular_Tissue_out_of_Line.cst
! Parameters = {dy1=243.594; L_HA=400; MT=2.54; Rad_Dielectric=30; Rad_Lower=7.3; Rad_Upper=30; a_HA=580; a_WG=246; b_HA=500; b_WG=121; c_HA=0; c_WG=187; d_feed=85; dx1=693; h_feed=15; h_lower=18; h_upper=40}
! Header version: 2018
! Port assignment regex: !\s*Touchstone port\s*([0-9]+)\s*=\s*(CST MWS port|CST DS port)\s*([0-9]+|Zmin|Zmax)\s*\(\"(.*)\"\)(\s*mode\s*([0-9]+))?.*
! Touchstone port assignment:
! Touchstone port 1 = CST MWS port 1 ("")
! Touchstone port 2 = CST MWS port 2 ("")
# GHz S DB R 50
0.5                    -0.148335        -122.297         -63.2797         178.822         -63.2797         178.822      -0.00768815         151.157
0.501                  -0.152416         -122.76         -63.1021         176.977         -63.1017         176.982      -0.00774191         151.092
0.502                  -0.156778        -123.224         -62.9256         175.136         -62.9246         175.144      -0.00779656         151.027
0.503                  -0.161423        -123.691         -62.7499         173.297         -62.7486         173.309       -0.0078521         150.962
0.504                  -0.166355        -124.159         -62.5753          171.46         -62.5735         171.476      -0.00790855         150.896
0.505                  -0.171576        -124.629         -62.4016         169.624         -62.3995         169.643      -0.00796591         150.831
0.506                  -0.177089        -125.101         -62.2289         167.789         -62.2265         167.811      -0.00802419         150.765
0.507                  -0.182898        -125.574         -62.0571         165.954         -62.0545         165.979      -0.00808339         150.699
0.508                  -0.189004         -126.05         -61.8864         164.119         -61.8836         164.147      -0.00814352         150.634
0.509                   -0.19541        -126.526         -61.7167         162.283         -61.7137         162.313      -0.00820459         150.568
0.51                   -0.202121        -127.005         -61.5479         160.445         -61.5448         160.477      -0.00826661         150.502
0.511                  -0.209137        -127.486         -61.3802         158.605         -61.3769         158.639      -0.00832958         150.436
0.512                  -0.216462        -127.968         -61.2135         156.763           -61.21         156.799      -0.00839351          150.37
0.513                  -0.224098        -128.451         -61.0477         154.918         -61.0442         154.956      -0.00845841         150.304
0.514                  -0.232048        -128.937          -60.883          153.07         -60.8794         153.109      -0.00852429         150.238
0.515                  -0.240315        -129.424         -60.7192         151.218         -60.7156         151.258      -0.00859115         150.171
0.516                    -0.2489        -129.913         -60.5564         149.363         -60.5528         149.403      -0.00865901         150.105
0.517                  -0.257807        -130.403         -60.3947         147.502          -60.391         147.544      -0.00872786         150.039
0.518                  -0.267038        -130.896         -60.2339         145.637         -60.2302          145.68      -0.00879773         149.972
0.519                  -0.276594        -131.389          -60.074         143.768         -60.0704          143.81      -0.00886861         149.905
0.52                   -0.286479        -131.885         -59.9152         141.892         -59.9116         141.935      -0.00894052         149.839
0.521                  -0.296695        -132.382         -59.7573         140.011         -59.7537         140.054      -0.00901347         149.772
0.522                  -0.307243         -132.88         -59.6004         138.124         -59.5969         138.167      -0.00908746         149.705
0.523                  -0.318125        -133.381         -59.4444         136.231          -59.441         136.274       -0.0091625         149.638
0.524                  -0.329345        -133.882         -59.2894         134.331          -59.286         134.374       -0.0092386         149.571
0.525                  -0.340902        -134.386         -59.1353         132.425          -59.132         132.467      -0.00931578         149.504
0.526                  -0.352801        -134.891         -58.9821         130.512          -58.979         130.553      -0.00939404         149.437
0.527                  -0.365041        -135.397         -58.8299         128.592         -58.8269         128.632      -0.00947339         149.369
0.528                  -0.377625        -135.905         -58.6786         126.664         -58.6757         126.704      -0.00955384         149.302
0.529                  -0.390555        -136.415         -58.5282          124.73         -58.5254         124.768       -0.0096354         149.234
0.53                   -0.403831        -136.926         -58.3787         122.787         -58.3761         122.825      -0.00971808         149.167
0.531                  -0.417456        -137.438         -58.2301         120.837         -58.2276         120.874      -0.00980189         149.099
0.532                   -0.43143        -137.952         -58.0824         118.879         -58.0801         118.915      -0.00988684         149.031
0.533                  -0.445756        -138.468         -57.9356         116.914         -57.9334         116.948      -0.00997295         148.963
0.534                  -0.460433        -138.985         -57.7897          114.94         -57.7877         114.973       -0.0100602         148.895
0.535                  -0.475463        -139.503         -57.6446         112.958         -57.6428         112.989       -0.0101487         148.827
0.536                  -0.490847        -140.023         -57.5005         110.968         -57.4988         110.998       -0.0102383         148.759
0.537                  -0.506587        -140.544         -57.3571          108.97         -57.3556         108.998       -0.0103291          148.69
0.538                  -0.522681        -141.067         -57.2147         106.964         -57.2133          106.99       -0.0104211         148.622
0.539                  -0.539132        -141.591          -57.073         104.949         -57.0719         104.974       -0.0105144         148.554
0.54                   -0.555939        -142.117         -56.9322         102.926         -56.9313          102.95       -0.0106089         148.485
0.541                  -0.573103        -142.644         -56.7923         100.895         -56.7915         100.917       -0.0107046         148.416
0.542                  -0.590624        -143.172         -56.6532          98.856         -56.6525         98.8762       -0.0108016         148.347
0.543                  -0.608502        -143.702         -56.5149         96.8086         -56.5144         96.8271       -0.0108998         148.278
0.544                  -0.626738        -144.233         -56.3774         94.7531         -56.3771         94.7699       -0.0109994         148.209
0.545                  -0.645331        -144.766         -56.2407         92.6895         -56.2405         92.7046       -0.0111002          148.14
0.546                  -0.664281          -145.3         -56.1048         90.6179         -56.1048         90.6313       -0.0112023         148.071
0.547                  -0.683587        -145.835         -55.9696         88.5384         -55.9699         88.5501       -0.0113058         148.002
0.548                  -0.703248        -146.372         -55.8353          86.451         -55.8357         86.4611       -0.0114106         147.932
0.549                  -0.723266        -146.909         -55.7018         84.3559         -55.7023         84.3643       -0.0115167         147.863
0.55                   -0.743637        -147.449          -55.569         82.2532         -55.5697           82.26       -0.0116242         147.793
0.551                  -0.764362        -147.989         -55.4369          80.143         -55.4378         80.1482        -0.011733         147.723
0.552                  -0.785439        -148.531         -55.3057         78.0255         -55.3067          78.029       -0.0118433         147.653
0.553                  -0.806867        -149.075         -55.1751         75.9007         -55.1763         75.9027        -0.011955         147.583
0.554                  -0.828645        -149.619         -55.0453         73.7688         -55.0467         73.7693       -0.0120681         147.513
0.555                  -0.850772        -150.165         -54.9162           71.63         -54.9177          71.629       -0.0121826         147.443
0.556                  -0.873244        -150.713         -54.7879         69.4844         -54.7895          69.482       -0.0122986         147.372
0.557                  -0.896061        -151.261         -54.6602         67.3323          -54.662         67.3285        -0.012416         147.302
0.558                  -0.919221        -151.811         -54.5333         65.1738         -54.5352         65.1686       -0.0125349         147.231
0.559                  -0.942721        -152.363          -54.407          63.009          -54.409         63.0026       -0.0126553          147.16
0.56                   -0.966559        -152.916         -54.2815         60.8382         -54.2836         60.8305       -0.0127773         147.089
0.561                  -0.990734         -153.47         -54.1566         58.6616         -54.1588         58.6528       -0.0129008         147.018
0.562                   -1.01524        -154.025         -54.0323         56.4793         -54.0347         56.4694       -0.0130258         146.947
0.563                   -1.04008        -154.582         -53.9088         54.2916         -53.9112         54.2807       -0.0131524         146.876
0.564                   -1.06524        -155.141         -53.7859         52.0987         -53.7884         52.0868       -0.0132805         146.804
0.565                   -1.09073        -155.701         -53.6636         49.9008         -53.6662          49.888       -0.0134103         146.733
0.566                   -1.11655        -156.262          -53.542         47.6981         -53.5446         47.6845       -0.0135417         146.661
0.567                   -1.14268        -156.825          -53.421         45.4909         -53.4237         45.4765       -0.0136747         146.589
0.568                   -1.16912         -157.39         -53.3006         43.2793         -53.3034         43.2642       -0.0138094         146.517
0.569                   -1.19588        -157.956         -53.1808         41.0635         -53.1836         41.0478       -0.0139458         146.445
0.57                    -1.22295        -158.524         -53.0616         38.8439         -53.0645         38.8276       -0.0140839         146.373
0.571                   -1.25032        -159.094          -52.943         36.6205          -52.946         36.6038       -0.0142237         146.301
0.572                   -1.27799        -159.665          -52.825         34.3938          -52.828         34.3766       -0.0143652         146.228
0.573                   -1.30595        -160.238         -52.7076         32.1637         -52.7106         32.1462       -0.0145085         146.156
0.574                   -1.33422        -160.813         -52.5908         29.9307         -52.5938         29.9128       -0.0146535         146.083
0.575                   -1.36277        -161.389         -52.4745         27.6948         -52.4775         27.6767       -0.0148004          146.01
0.576                   -1.39161        -161.968         -52.3588         25.4563         -52.3618         25.4381       -0.0149491         145.937
0.577                   -1.42073        -162.549         -52.2436         23.2155         -52.2466         23.1972       -0.0150996         145.864
0.578                   -1.45013        -163.132          -52.129         20.9725          -52.132         20.9541        -0.015252          145.79
0.579                   -1.47981        -163.717         -52.0149         18.7275         -52.0179         18.7092       -0.0154063         145.717
0.58                    -1.50976        -164.304         -51.9014         16.4808         -51.9043         16.4626       -0.0155625         145.643
0.581                   -1.53998        -164.894         -51.7883         14.2325         -51.7912         14.2144       -0.0157206         145.569
0.582                   -1.57047        -165.486         -51.6758         11.9829         -51.6787          11.965       -0.0158807         145.495
0.583                   -1.60123        -166.081         -51.5639          9.7321         -51.5667         9.71443       -0.0160428         145.421
0.584                   -1.63225        -166.678         -51.4524         7.48031         -51.4552         7.46294       -0.0162069         145.347
0.585                   -1.66353        -167.279         -51.3415         5.22773         -51.3442         5.21069        -0.016373         145.272
0.586                   -1.69508        -167.882         -51.2311         2.97452         -51.2337         2.95787       -0.0165412         145.198
0.587                   -1.72689        -168.489         -51.1211        0.720857         -51.1237        0.704628       -0.0167115         145.123
0.588                   -1.75896        -169.099         -51.0117        -1.53309         -51.0142        -1.54886       -0.0168839         145.048
0.589                    -1.7913        -169.712         -50.9028        -3.78715         -50.9053        -3.80243       -0.0170584         144.973
0.59                    -1.82391        -170.329         -50.7945        -6.04119         -50.7968        -6.05594       -0.0172351         144.898
0.591                   -1.85679         -170.95         -50.6866        -8.29504         -50.6888        -8.30924        -0.017414         144.822
0.592                   -1.88996        -171.575         -50.5792        -10.5486         -50.5814        -10.5622       -0.0175951         144.747
0.593                   -1.92341        -172.204         -50.4723        -12.8016         -50.4744        -12.8146       -0.0177784         144.671
0.594                   -1.95716        -172.838          -50.366        -15.0541         -50.3679        -15.0665       -0.0179641         144.595
0.595                   -1.99121        -173.477         -50.2601        -17.3058          -50.262        -17.3176        -0.018152         144.519
0.596                    -2.0256         -174.12         -50.1548        -19.5567         -50.1565        -19.5678       -0.0183423         144.442
0.597                   -2.06032        -174.769           -50.05        -21.8066         -50.0516         -21.817        -0.018535         144.366
0.598                   -2.09541        -175.423         -49.9457        -24.0554         -49.9472        -24.0652       -0.0187301         144.289
0.599                   -2.13088        -176.084         -49.8419         -26.303         -49.8433        -26.3122       -0.0189276         144.212
0.6                     -2.16676         -176.75         -49.7387        -28.5494           -49.74        -28.5578       -0.0191275         144.135
0.601                   -2.20309        -177.423          -49.636        -30.7943         -49.6372        -30.8021         -0.01933         144.058
0.602                    -2.2399        -178.103         -49.5338        -33.0377         -49.5349        -33.0449        -0.019535          143.98
0.603                   -2.27723         -178.79         -49.4322        -35.2796         -49.4332        -35.2861       -0.0197425         143.903
0.604                   -2.31513        -179.484         -49.3311        -37.5198          -49.332        -37.5256       -0.0199527         143.825
0.605                   -2.35365         179.814         -49.2306        -39.7583         -49.2314        -39.7635       -0.0201655         143.747
0.606                   -2.39286         179.103         -49.1307        -41.9949         -49.1314        -41.9995        -0.020381         143.668
0.607                   -2.43282         178.384         -49.0314        -44.2296          -49.032        -44.2336       -0.0205991          143.59
0.608                   -2.47361         177.656         -48.9326        -46.4624         -48.9331        -46.4658         -0.02082         143.511
0.609                    -2.5153         176.919         -48.8344        -48.6931         -48.8349        -48.6959       -0.0210437         143.432
0.61                      -2.558         176.173         -48.7369        -50.9217         -48.7372         -50.924       -0.0212703         143.353
0.611                   -2.60181         175.416         -48.6399        -53.1481         -48.6402        -53.1499       -0.0214997         143.274
0.612                   -2.64683          174.65         -48.5436        -55.3723         -48.5437        -55.3736       -0.0217319         143.194
0.613                   -2.69319         173.873         -48.4479        -57.5942          -48.448         -57.595       -0.0219672         143.115
0.614                   -2.74102         173.085         -48.3529        -59.8137         -48.3528         -59.814       -0.0222054         143.035
0.615                   -2.79046         172.287         -48.2585        -62.0308         -48.2584        -62.0307       -0.0224467         142.954
0.616                   -2.84167         171.478         -48.1648        -64.2454         -48.1646         -64.245       -0.0226911         142.874
0.617                   -2.89481         170.659         -48.0717        -66.4575         -48.0714        -66.4567       -0.0229386         142.793
0.618                   -2.95006         169.829         -47.9793         -68.667          -47.979        -68.6658       -0.0231893         142.712
0.619                   -3.00758         168.988         -47.8876        -70.8738         -47.8872        -70.8724       -0.0234433         142.631
0.62                    -3.06757         168.138         -47.7966         -73.078         -47.7962        -73.0763       -0.0237007          142.55
0.621                   -3.13021         167.278         -47.7064        -75.2793         -47.7059        -75.2774       -0.0239614         142.468
0.622                   -3.19571         166.409         -47.6168        -77.4779         -47.6163        -77.4757       -0.0242256         142.386
0.623                   -3.26425         165.533          -47.528        -79.6736         -47.5274        -79.6712       -0.0244934         142.304
0.624                   -3.33602         164.649         -47.4399        -81.8663         -47.4393        -81.8638       -0.0247648         142.222
0.625                   -3.41121         163.759         -47.3526         -84.056         -47.3519        -84.0534         -0.02504         142.139
0.626                   -3.48998         162.865          -47.266        -86.2427         -47.2653          -86.24        -0.025319         142.056
0.627                    -3.5725         161.967         -47.1802        -88.4262         -47.1795        -88.4235        -0.025602         141.973
0.628                    -3.6589         161.068         -47.0951        -90.6066         -47.0945        -90.6038       -0.0258892         141.889
0.629                   -3.74929         160.169         -47.0108        -92.7837         -47.0102        -92.7809       -0.0261806         141.806
