! TOUCHSTONE file generated by CST MICROWAVE STUDIO
! Date and time: Mon Oct 26 12:29:20 2020
! Project name: Scenario_1_Circular_Tissue_out_of_Line.cst
! Parameters = {dy1=243.594; L_HA=400; MT=2.54; Rad_Dielectric=30; Rad_Lower=7.3; Rad_Upper=30; a_HA=580; a_WG=246; b_HA=500; b_WG=121; c_HA=0; c_WG=187; d_feed=85; dx1=866; h_feed=15; h_lower=18; h_upper=40}
! Header version: 2018
! Port assignment regex: !\s*Touchstone port\s*([0-9]+)\s*=\s*(CST MWS port|CST DS port)\s*([0-9]+|Zmin|Zmax)\s*\(\"(.*)\"\)(\s*mode\s*([0-9]+))?.*
! Touchstone port assignment:
! Touchstone port 1 = CST MWS port 1 ("")
! Touchstone port 2 = CST MWS port 2 ("")
# GHz S DB R 50
0.5                    -0.146687        -122.336         -64.2178         88.6488         -64.2178         88.6488      -0.00745304         151.137
0.501                  -0.149688        -122.752         -64.1098         86.6016         -64.1098         86.6004      -0.00752103         151.072
0.502                  -0.152883         -123.17         -63.9989         84.5399         -63.9989         84.5376      -0.00758971         151.007
0.503                  -0.156277        -123.591         -63.8851          82.464         -63.8852         82.4606      -0.00765908         150.941
0.504                  -0.159875        -124.015         -63.7686         80.3743         -63.7686         80.3698      -0.00772915         150.876
0.505                  -0.163684        -124.442         -63.6493          78.271         -63.6493         78.2655      -0.00779993          150.81
0.506                  -0.167709        -124.872         -63.5271         76.1546         -63.5271          76.148      -0.00787142         150.745
0.507                  -0.171955        -125.305         -63.4023         74.0253         -63.4022         74.0178      -0.00794363         150.679
0.508                  -0.176428        -125.741         -63.2746         71.8834         -63.2746         71.8751      -0.00801657         150.613
0.509                  -0.181134         -126.18         -63.1443         69.7295         -63.1443         69.7203      -0.00809025         150.548
0.51                   -0.186079        -126.621         -63.0113         67.5636         -63.0113         67.5537      -0.00816467         150.482
0.511                  -0.191269        -127.066         -62.8758         65.3863         -62.8757         65.3757      -0.00823983         150.416
0.512                   -0.19671        -127.513         -62.7376         63.1977         -62.7375         63.1865      -0.00831575          150.35
0.513                  -0.202408        -127.964         -62.5969         60.9983         -62.5968         60.9864      -0.00839244         150.284
0.514                  -0.208369        -128.417         -62.4538         58.7882         -62.4537         58.7758       -0.0084699         150.217
0.515                  -0.214599        -128.873         -62.3083         56.5679         -62.3082         56.5549      -0.00854813         150.151
0.516                  -0.221105        -129.332         -62.1605         54.3374         -62.1604         54.3241      -0.00862716         150.085
0.517                  -0.227892        -129.795         -62.0105         52.0972         -62.0103         52.0835      -0.00870698         150.018
0.518                  -0.234968         -130.26         -61.8583         49.8475         -61.8581         49.8334       -0.0087876         149.952
0.519                  -0.242338        -130.728          -61.704         47.5885         -61.7038         47.5741      -0.00886903         149.885
0.52                    -0.25001        -131.199         -61.5478         45.3204         -61.5475         45.3058      -0.00895128         149.818
0.521                  -0.257989        -131.673         -61.3896         43.0434         -61.3894         43.0287      -0.00903436         149.751
0.522                  -0.266282         -132.15         -61.2297         40.7578         -61.2294         40.7429      -0.00911828         149.685
0.523                  -0.274895         -132.63         -61.0681         38.4638         -61.0678         38.4488      -0.00920304         149.618
0.524                  -0.283836        -133.112         -60.9048         36.1614         -60.9045         36.1464      -0.00928865         149.551
0.525                  -0.293111        -133.598         -60.7401          33.851         -60.7398          33.836      -0.00937513         149.483
0.526                  -0.302726        -134.087          -60.574         31.5325         -60.5736         31.5176      -0.00946248         149.416
0.527                  -0.312688        -134.578         -60.4066         29.2063         -60.4062         29.1915       -0.0095507         149.349
0.528                  -0.323005        -135.073          -60.238         26.8724         -60.2377         26.8577      -0.00963982         149.281
0.529                  -0.333682         -135.57         -60.0684         24.5309         -60.0681         24.5164      -0.00972984         149.214
0.53                   -0.344726         -136.07         -59.8979         22.1821         -59.8975         22.1678      -0.00982077         149.146
0.531                  -0.356145        -136.573         -59.7265         19.8259         -59.7262         19.8119      -0.00991262         149.079
0.532                  -0.367945        -137.079         -59.5545         17.4626         -59.5541         17.4489       -0.0100054         149.011
0.533                  -0.380133        -137.588         -59.3818         15.0922         -59.3815         15.0789       -0.0100991         148.943
0.534                  -0.392715          -138.1         -59.2088          12.715         -59.2084          12.702       -0.0101938         148.875
0.535                  -0.405699        -138.615         -59.0353         10.3309          -59.035         10.3183       -0.0102894         148.807
0.536                  -0.419091        -139.132         -58.8617         7.94014         -58.8614           7.928        -0.010386         148.739
0.537                  -0.432899        -139.652          -58.688         5.54286         -58.6877         5.53118       -0.0104836          148.67
0.538                  -0.447128        -140.175         -58.5142         3.13918          -58.514         3.12799       -0.0105822         148.602
0.539                  -0.461785        -140.701         -58.3407        0.729247         -58.3404        0.718576       -0.0106817         148.533
0.54                   -0.476879         -141.23         -58.1674        -1.68678         -58.1671        -1.69691       -0.0107823         148.465
0.541                  -0.492414        -141.761         -57.9944        -4.10873         -57.9942        -4.11831       -0.0108839         148.396
0.542                  -0.508398        -142.295          -57.822        -6.53643         -57.8217        -6.54544       -0.0109866         148.327
0.543                  -0.524837        -142.832         -57.6501        -8.96968         -57.6499        -8.97811       -0.0110903         148.258
0.544                  -0.541738        -143.371         -57.4789        -11.4083         -57.4788        -11.4161       -0.0111951         148.189
0.545                  -0.559108        -143.913         -57.3086         -13.852         -57.3084        -13.8592       -0.0113009          148.12
0.546                  -0.576954        -144.458         -57.1392        -16.3007          -57.139        -16.3073       -0.0114078         148.051
0.547                   -0.59528        -145.005         -56.9708        -18.7539         -56.9707        -18.7599       -0.0115159         147.982
0.548                  -0.614095        -145.555         -56.8035        -21.2116         -56.8034        -21.2169        -0.011625         147.912
0.549                  -0.633404        -146.108         -56.6374        -23.6734         -56.6373        -23.6781       -0.0117353         147.843
0.55                   -0.653214        -146.663         -56.4727        -26.1389         -56.4725         -26.143       -0.0118467         147.773
0.551                  -0.673531         -147.22         -56.3092        -28.6079         -56.3092        -28.6114       -0.0119593         147.703
0.552                  -0.694361        -147.781         -56.1473        -31.0802         -56.1472         -31.083        -0.012073         147.633
0.553                   -0.71571        -148.343         -55.9869        -33.5552         -55.9868        -33.5574       -0.0121879         147.563
0.554                  -0.737583        -148.908         -55.8281        -36.0327          -55.828        -36.0342       -0.0123041         147.493
0.555                  -0.759988        -149.476         -55.6709        -38.5122         -55.6709        -38.5132       -0.0124214         147.423
0.556                   -0.78293        -150.046         -55.5155        -40.9935         -55.5155        -40.9939         -0.01254         147.352
0.557                  -0.806414        -150.618         -55.3619        -43.4762         -55.3618         -43.476       -0.0126598         147.282
0.558                  -0.830446        -151.192         -55.2101        -45.9598           -55.21         -45.959       -0.0127808         147.211
0.559                  -0.855031        -151.769         -55.0601        -48.4439           -55.06        -48.4426       -0.0129031         147.141
0.56                   -0.880176        -152.348          -54.912        -50.9282          -54.912        -50.9263       -0.0130268          147.07
0.561                  -0.905884         -152.93         -54.7659        -53.4122         -54.7658        -53.4098       -0.0131517         146.999
0.562                  -0.932162        -153.513         -54.6217        -55.8955         -54.6216        -55.8927        -0.013278         146.928
0.563                  -0.959014        -154.099         -54.4795        -58.3778         -54.4794        -58.3745       -0.0134055         146.856
0.564                  -0.986444        -154.687         -54.3392        -60.8586         -54.3391        -60.8549       -0.0135345         146.785
0.565                   -1.01446        -155.277         -54.2009        -63.3376         -54.2008        -63.3334       -0.0136648         146.713
0.566                   -1.04306        -155.869         -54.0646        -65.8142         -54.0645        -65.8097       -0.0137966         146.642
0.567                   -1.07226        -156.463         -53.9303        -68.2883         -53.9302        -68.2834       -0.0139297          146.57
0.568                   -1.10205        -157.059         -53.7979        -70.7594         -53.7978        -70.7542       -0.0140643         146.498
0.569                   -1.13245        -157.657         -53.6674        -73.2272         -53.6673        -73.2217       -0.0142003         146.426
0.57                    -1.16345        -158.257         -53.5389        -75.6912         -53.5388        -75.6855       -0.0143378         146.354
0.571                   -1.19506        -158.859         -53.4122        -78.1513         -53.4121        -78.1453       -0.0144768         146.282
0.572                   -1.22728        -159.463         -53.2874        -80.6072         -53.2873         -80.601       -0.0146173         146.209
0.573                   -1.26012        -160.069         -53.1645        -83.0584         -53.1643         -83.052       -0.0147593         146.136
0.574                   -1.29358        -160.676         -53.0433        -85.5049         -53.0431        -85.4984       -0.0149029         146.064
0.575                   -1.32766        -161.286         -52.9238        -87.9463         -52.9236        -87.9396        -0.015048         145.991
0.576                   -1.36237        -161.897          -52.806        -90.3824         -52.8058        -90.3757       -0.0151948         145.918
0.577                    -1.3977        -162.509         -52.6899        -92.8131         -52.6897        -92.8064       -0.0153432         145.845
0.578                   -1.43367        -163.124         -52.5753        -95.2383         -52.5751        -95.2314       -0.0154932         145.771
0.579                   -1.47028         -163.74         -52.4623        -97.6576         -52.4621        -97.6508       -0.0156449         145.698
0.58                    -1.50752        -164.358         -52.3507        -100.071         -52.3505        -100.064       -0.0157982         145.624
0.581                    -1.5454        -164.977         -52.2406        -102.479         -52.2403        -102.472       -0.0159533          145.55
0.582                   -1.58393        -165.598         -52.1318         -104.88         -52.1315        -104.874       -0.0161102         145.476
0.583                    -1.6231         -166.22         -52.0243        -107.276          -52.024        -107.269       -0.0162688         145.402
0.584                   -1.66291        -166.844          -51.918        -109.665         -51.9178        -109.659       -0.0164292         145.328
0.585                   -1.70337        -167.469          -51.813        -112.049         -51.8127        -112.042       -0.0165914         145.254
0.586                   -1.74448        -168.096          -51.709        -114.426         -51.7087         -114.42       -0.0167555         145.179
0.587                   -1.78624        -168.724          -51.606        -116.798         -51.6058        -116.792       -0.0169215         145.104
0.588                   -1.82865        -169.354         -51.5041        -119.163         -51.5038        -119.158       -0.0170893         145.029
0.589                   -1.87172        -169.985         -51.4031        -121.523         -51.4028        -121.518       -0.0172592         144.954
0.59                    -1.91544        -170.617         -51.3029        -123.877         -51.3027        -123.872       -0.0174309         144.879
0.591                   -1.95982        -171.251         -51.2036        -126.226         -51.2034        -126.221       -0.0176047         144.804
0.592                   -2.00485        -171.886          -51.105        -128.569         -51.1048        -128.565       -0.0177805         144.728
0.593                   -2.05054        -172.522         -51.0072        -130.907         -51.0069        -130.903       -0.0179584         144.652
0.594                   -2.09688         -173.16         -50.9099         -133.24         -50.9097        -133.236       -0.0181384         144.577
0.595                   -2.14389        -173.799         -50.8133        -135.569         -50.8131        -135.565       -0.0183205           144.5
0.596                   -2.19155        -174.439         -50.7172        -137.893          -50.717        -137.889       -0.0185048         144.424
0.597                   -2.23987        -175.081         -50.6216        -140.212         -50.6215        -140.209       -0.0186913         144.348
0.598                   -2.28886        -175.723         -50.5265        -142.527         -50.5264        -142.525       -0.0188801         144.271
0.599                    -2.3385        -176.367         -50.4318        -144.839         -50.4317        -144.836       -0.0190711         144.194
0.6                      -2.3888        -177.013         -50.3374        -147.147         -50.3373        -147.145       -0.0192645         144.117
0.601                   -2.43977        -177.659         -50.2434        -149.451         -50.2433         -149.45       -0.0194602          144.04
0.602                    -2.4914        -178.307         -50.1497        -151.753         -50.1497        -151.752       -0.0196583         143.962
0.603                   -2.54368        -178.957         -50.0563        -154.052         -50.0563        -154.051       -0.0198589         143.885
0.604                   -2.59664        -179.607         -49.9631        -156.348         -49.9631        -156.348        -0.020062         143.807
0.605                   -2.65025         179.741         -49.8701        -158.643         -49.8701        -158.642       -0.0202676         143.729
0.606                   -2.70453         179.088         -49.7773        -160.935         -49.7773        -160.935       -0.0204758         143.651
0.607                   -2.75948         178.433         -49.6846        -163.226         -49.6847        -163.226       -0.0206866         143.572
0.608                   -2.81509         177.777         -49.5921        -165.515         -49.5923        -165.516       -0.0209002         143.494
0.609                   -2.87137         177.119         -49.4998        -167.804         -49.4999        -167.805       -0.0211164         143.415
0.61                    -2.92832          176.46         -49.4075        -170.092         -49.4077        -170.093       -0.0213355         143.336
0.611                   -2.98595           175.8         -49.3154        -172.379         -49.3156        -172.381       -0.0215573         143.257
0.612                   -3.04425         175.137         -49.2233        -174.667         -49.2236        -174.668       -0.0217821         143.177
0.613                   -3.10322         174.474         -49.1314        -176.954         -49.1317        -176.956       -0.0220098         143.097
0.614                   -3.16287         173.808         -49.0396        -179.242         -49.0399        -179.244       -0.0222406         143.018
0.615                   -3.22321         173.141         -48.9478         178.469         -48.9482         178.467       -0.0224744         142.937
0.616                   -3.28424         172.471         -48.8561          176.18         -48.8566         176.177       -0.0227113         142.857
0.617                   -3.34596           171.8         -48.7646         173.889          -48.765         173.886       -0.0229514         142.776
0.618                   -3.40838         171.127         -48.6731         171.597         -48.6736         171.594       -0.0231948         142.696
0.619                   -3.47151         170.451         -48.5818         169.303         -48.5823         169.299       -0.0234415         142.615
0.62                    -3.53535         169.774         -48.4906         167.007         -48.4912         167.003       -0.0236916         142.533
0.621                   -3.59991         169.094         -48.3996         164.709         -48.4002         164.705       -0.0239451         142.452
0.622                    -3.6652         168.412         -48.3087         162.409         -48.3093         162.405       -0.0242022          142.37
0.623                   -3.73123         167.727          -48.218         160.106         -48.2187         160.102       -0.0244629         142.288
0.624                   -3.79802         167.039         -48.1276         157.801         -48.1283         157.797       -0.0247272         142.206
0.625                   -3.86557         166.348         -48.0373         155.493         -48.0381         155.488       -0.0249953         142.123
0.626                   -3.93391         165.655         -47.9474         153.182         -47.9481         153.177       -0.0252673          142.04
0.627                   -4.00305         164.958         -47.8577         150.868         -47.8585         150.863       -0.0255431         141.957
0.628                   -4.07301         164.257         -47.7683          148.55         -47.7692         148.546        -0.025823         141.874
0.629                   -4.14381         163.554         -47.6793          146.23         -47.6802         146.225       -0.0261069          141.79
