! TOUCHSTONE file generated by CST MICROWAVE STUDIO
! Date and time: Sat Oct 24 11:49:04 2020
! Project name: Scenario_1_Circular_Tissue_out_of_Line.cst
! Parameters = {dy1=243.594; L_HA=400; MT=2.54; Rad_Dielectric=30; Rad_Lower=7.3; Rad_Upper=30; a_HA=580; a_WG=246; b_HA=500; b_WG=121; c_HA=0; c_WG=187; d_feed=85; dx1=1039; h_feed=15; h_lower=18; h_upper=40}
! Header version: 2018
! Port assignment regex: !\s*Touchstone port\s*([0-9]+)\s*=\s*(CST MWS port|CST DS port)\s*([0-9]+|Zmin|Zmax)\s*\(\"(.*)\"\)(\s*mode\s*([0-9]+))?.*
! Touchstone port assignment:
! Touchstone port 1 = CST MWS port 1 ("")
! Touchstone port 2 = CST MWS port 2 ("")
# GHz S DB R 50
0.5                    -0.144992        -122.305         -64.7248        -10.6169         -64.7347        -10.6827      -0.00759132         151.134
0.501                  -0.136573        -122.704         -65.0341        -10.1616         -65.0454        -10.1859      -0.00765117         151.068
0.502                  -0.128367        -123.107         -65.3551        -9.64123         -65.3677        -9.62096      -0.00771177         151.003
0.503                  -0.120382        -123.513         -65.6883        -9.04754          -65.702        -8.97919      -0.00777313         150.938
0.504                  -0.112625        -123.923         -66.0345        -8.37105         -66.0491        -8.25077      -0.00783525         150.872
0.505                  -0.105106        -124.336         -66.3942        -7.60077         -66.4095        -7.42424      -0.00789815         150.807
0.506                 -0.0978335        -124.753         -66.7682        -6.72383         -66.7837        -6.48631      -0.00796183         150.741
0.507                 -0.0908164        -125.175          -67.157        -5.72526         -67.1722        -5.42146       -0.0080263         150.676
0.508                 -0.0840638        -125.599          -67.561        -4.58749         -67.5755        -4.21162      -0.00809156          150.61
0.509                 -0.0775851        -126.028         -67.9808        -3.28993         -67.9935        -2.83567      -0.00815763         150.544
0.51                    -0.07139        -126.461         -68.4162        -1.80846         -68.4263        -1.26905      -0.00822452         150.478
0.511                  -0.065488        -126.897         -68.8672       -0.114891         -68.8732        0.516782      -0.00829222         150.412
0.512                 -0.0598891        -127.337         -69.3327         1.82359          -69.333         2.55468      -0.00836076         150.346
0.513                 -0.0546035        -127.781         -69.8111         4.04477         -69.8036         4.88205      -0.00843013          150.28
0.514                 -0.0496415        -128.229         -70.2996         6.59152         -70.2815         7.54057      -0.00850036         150.214
0.515                 -0.0450135        -128.681         -70.7935         9.51116         -70.7615         10.5752      -0.00857143         150.147
0.516                 -0.0407301        -129.137         -71.2863         12.8537         -71.2362         14.0319      -0.00864338         150.081
0.517                 -0.0368024        -129.596         -71.7681         16.6682         -71.6954         17.9532       -0.0087162         150.015
0.518                 -0.0332412         -130.06          -72.226         20.9963         -72.1254         22.3713       -0.0087899         149.948
0.519                 -0.0300579        -130.528         -72.6431         25.8622         -72.5095         27.2983      -0.00886449         149.881
0.52                  -0.0272638        -130.999         -72.9992         31.2595         -72.8284         32.7138      -0.00893999         149.815
0.521                 -0.0248705        -131.475         -73.2724         37.1377         -73.0618          38.554       -0.0090164         149.748
0.522                 -0.0228897        -131.954         -73.4418          43.392         -73.1918         44.7061      -0.00909373         149.681
0.523                 -0.0213333        -132.438         -73.4917         49.8655         -73.2063          51.014        -0.009172         149.614
0.524                 -0.0202135        -132.925         -73.4152         56.3664         -73.1015         57.2976       -0.0092512         149.547
0.525                 -0.0195423        -133.417         -73.2161         62.6978         -72.8833         63.3802      -0.00933136          149.48
0.526                 -0.0193322        -133.912         -72.9078         68.6898         -72.5656         69.1146      -0.00941249         149.412
0.527                 -0.0195957        -134.411         -72.5099         74.2211         -72.1672         74.3997      -0.00949459         149.345
0.528                 -0.0203454        -134.915         -72.0446         79.2256         -71.7082         79.1826      -0.00957767         149.277
0.529                 -0.0215941        -135.422         -71.5326          83.685         -71.2075         83.4518      -0.00966175          149.21
0.53                  -0.0233548        -135.933         -70.9921         87.6158         -70.6812         87.2251      -0.00974684         149.142
0.531                 -0.0256404        -136.448         -70.4371         91.0556          -70.142          90.538      -0.00983295         149.075
0.532                 -0.0284641        -136.967         -69.8783          94.052         -69.5995         93.4343      -0.00992009         149.007
0.533                 -0.0318391         -137.49         -69.3233         96.6553         -69.0605         95.9601       -0.0100083         148.939
0.534                 -0.0357787        -138.017          -68.777         98.9138         -68.5297         98.1596       -0.0100975         148.871
0.535                 -0.0402963        -138.548         -68.2429         100.872         -68.0103         100.074       -0.0101878         148.803
0.536                 -0.0454054        -139.082         -67.7229         102.569          -67.504         101.738       -0.0102792         148.734
0.537                 -0.0511195         -139.62         -67.2182         104.039         -67.0121         103.186       -0.0103717         148.666
0.538                 -0.0574522        -140.162         -66.7291         105.311         -66.5349         104.443       -0.0104653         148.598
0.539                 -0.0644172        -140.708         -66.2557         106.412         -66.0725         105.534         -0.01056         148.529
0.54                  -0.0720279        -141.258         -65.7977         107.362         -65.6246          106.48       -0.0106558          148.46
0.541                 -0.0802981        -141.811         -65.3546          108.18         -65.1909         107.297       -0.0107528         148.392
0.542                 -0.0892414        -142.368         -64.9258         108.881         -64.7709         108.001       -0.0108509         148.323
0.543                 -0.0988714        -142.928         -64.5108         109.479          -64.364         108.603       -0.0109503         148.254
0.544                  -0.109202        -143.492         -64.1088         109.986         -63.9696         109.117       -0.0110508         148.185
0.545                  -0.120246         -144.06         -63.7191         110.412          -63.587          109.55       -0.0111525         148.116
0.546                  -0.132017         -144.63         -63.3413         110.764         -63.2158         109.911       -0.0112554         148.046
0.547                   -0.14453        -145.205         -62.9745          111.05         -62.8553         110.207       -0.0113596         147.977
0.548                  -0.157796        -145.783         -62.6183         111.277         -62.5049         110.445        -0.011465         147.907
0.549                   -0.17183        -146.364          -62.272         111.451         -62.1642          110.63       -0.0115717         147.838
0.55                   -0.186644        -146.948         -61.9351         111.575         -61.8326         110.766       -0.0116796         147.768
0.551                  -0.202251        -147.535         -61.6072         111.655         -61.5096         110.858       -0.0117889         147.698
0.552                  -0.218664        -148.126         -61.2876         111.694         -61.1948         110.909       -0.0118995         147.628
0.553                  -0.235896        -148.719          -60.976         111.695         -60.8877         110.923       -0.0120114         147.558
0.554                  -0.253959        -149.316          -60.672         111.662         -60.5881         110.902       -0.0121246         147.488
0.555                  -0.272866        -149.915         -60.3752         111.596         -60.2953          110.85       -0.0122392         147.418
0.556                  -0.292627        -150.517         -60.0851         111.501         -60.0093         110.768       -0.0123552         147.347
0.557                  -0.313256        -151.122         -59.8015         111.378         -59.7295         110.658       -0.0124726         147.277
0.558                  -0.334763         -151.73          -59.524         111.229         -59.4557         110.522       -0.0125915         147.206
0.559                   -0.35716         -152.34         -59.2523         111.056         -59.1876         110.362       -0.0127117         147.135
0.56                   -0.380457        -152.952         -58.9862          110.86          -58.925          110.18       -0.0128334         147.064
0.561                  -0.404666        -153.567         -58.7254         110.642         -58.6675         109.975       -0.0129566         146.993
0.562                  -0.429796        -154.185         -58.4695         110.404         -58.4149         109.751       -0.0130813         146.922
0.563                  -0.455857        -154.804         -58.2185         110.147         -58.1671         109.507       -0.0132075         146.851
0.564                   -0.48286        -155.426          -57.972         109.871         -57.9237         109.245       -0.0133353         146.779
0.565                  -0.510812         -156.05         -57.7299         109.578         -57.6846         108.965       -0.0134646         146.708
0.566                  -0.539724        -156.675          -57.492         109.268         -57.4496         108.669       -0.0135955         146.636
0.567                  -0.569602        -157.302          -57.258         108.942         -57.2186         108.356        -0.013728         146.564
0.568                  -0.600456        -157.932         -57.0279         108.601         -56.9913         108.029       -0.0138621         146.492
0.569                  -0.632293        -158.562         -56.8013         108.245         -56.7675         107.686       -0.0139978          146.42
0.57                    -0.66512        -159.194         -56.5783         107.875         -56.5473          107.33       -0.0141353         146.348
0.571                  -0.698944        -159.828         -56.3586         107.491         -56.3303          106.96       -0.0142744         146.275
0.572                   -0.73377        -160.463         -56.1421         107.094         -56.1164         106.576       -0.0144152         146.203
0.573                  -0.769605        -161.099         -55.9286         106.683         -55.9056         106.179       -0.0145578          146.13
0.574                  -0.806454        -161.736         -55.7181          106.26         -55.6978          105.77       -0.0147022         146.057
0.575                  -0.844321        -162.374         -55.5104         105.825         -55.4926         105.349       -0.0148483         145.985
0.576                  -0.883211        -163.012         -55.3055         105.378         -55.2902         104.915       -0.0149963         145.911
0.577                  -0.923128        -163.652         -55.1031         104.918         -55.0904          104.47       -0.0151461         145.838
0.578                  -0.964075        -164.292         -54.9032         104.448          -54.893         104.014       -0.0152977         145.765
0.579                   -1.00605        -164.932         -54.7056         103.966         -54.6979         103.546       -0.0154513         145.691
0.58                    -1.04907        -165.573         -54.5104         103.472         -54.5052         103.067       -0.0156068         145.617
0.581                   -1.09312        -166.214         -54.3174         102.968         -54.3147         102.577       -0.0157642         145.544
0.582                   -1.13821        -166.855         -54.1265         102.453         -54.1262         102.076       -0.0159236          145.47
0.583                   -1.18434        -167.496         -53.9377         101.927         -53.9398         101.564       -0.0160851         145.395
0.584                    -1.2315        -168.137         -53.7508          101.39         -53.7554         101.042       -0.0162486         145.321
0.585                   -1.27971        -168.778         -53.5657         100.843         -53.5728          100.51       -0.0164141         145.247
0.586                   -1.32895        -169.419         -53.3825         100.285          -53.392         99.9668       -0.0165818         145.172
0.587                   -1.37923        -170.059         -53.2011         99.7169          -53.213         99.4134       -0.0167516         145.097
0.588                   -1.43054        -170.698         -53.0213         99.1381         -53.0356         98.8497       -0.0169235         145.022
0.589                   -1.48288        -171.336         -52.8431         98.5489         -52.8599         98.2757       -0.0170977         144.947
0.59                    -1.53625        -171.974         -52.6664         97.9493         -52.6856         97.6913       -0.0172741         144.872
0.591                   -1.59065        -172.611         -52.4913         97.3392         -52.5129         97.0967       -0.0174527         144.796
0.592                   -1.64608        -173.247         -52.3175         96.7187         -52.3416         96.4918       -0.0176337          144.72
0.593                   -1.70252        -173.882         -52.1452         96.0877         -52.1717         95.8766        -0.017817         144.645
0.594                   -1.75997        -174.515         -51.9741         95.4462         -52.0031          95.251       -0.0180027         144.569
0.595                   -1.81843        -175.147         -51.8043         94.7941         -51.8358          94.615       -0.0181908         144.492
0.596                   -1.87789        -175.777         -51.6357         94.1314         -51.6697         93.9686       -0.0183813         144.416
0.597                   -1.93835        -176.406         -51.4683          93.458         -51.5047         93.3116       -0.0185743         144.339
0.598                   -1.99981        -177.034          -51.302         92.7738         -51.3409         92.6441       -0.0187699         144.263
0.599                   -2.06224        -177.659         -51.1368         92.0787         -51.1782         91.9658        -0.018968         144.186
0.6                     -2.12565        -178.283         -50.9725         91.3726         -51.0165         91.2768       -0.0191688         144.109
0.601                   -2.19004        -178.904         -50.8093         90.6554         -50.8558         90.5769       -0.0193722         144.031
0.602                   -2.25538        -179.524          -50.647          89.927          -50.696          89.866       -0.0195783         143.954
0.603                   -2.32168         179.859         -50.4856         89.1872         -50.5371         89.1439       -0.0197871         143.876
0.604                   -2.38892         179.244          -50.325          88.436         -50.3792         88.4106       -0.0199987         143.798
0.605                    -2.4571         178.631         -50.1653          87.673          -50.222         87.6659       -0.0202131          143.72
0.606                   -2.52621         178.021         -50.0063         86.8982         -50.0657         86.9096       -0.0204305         143.642
0.607                   -2.59624         177.414         -49.8481         86.1114         -49.9101         86.1416       -0.0206507         143.563
0.608                   -2.66718         176.809         -49.6906         85.3124         -49.7552         85.3616       -0.0208739         143.484
0.609                   -2.73902         176.206         -49.5338         84.5011         -49.6011         84.5695       -0.0211002         143.405
0.61                    -2.81174         175.607         -49.3775         83.6771         -49.4475         83.7652       -0.0213295         143.326
0.611                   -2.88535          175.01         -49.2219         82.8402         -49.2946         82.9483       -0.0215619         143.247
0.612                   -2.95984         174.416         -49.0669         81.9903         -49.1423         82.1187       -0.0217975         143.167
0.613                   -3.03518         173.825         -48.9124         81.1271         -48.9906         81.2761       -0.0220364         143.087
0.614                   -3.11137         173.237         -48.7583         80.2504         -48.8393         80.4202       -0.0222785         143.007
0.615                    -3.1884         172.653         -48.6048         79.3597         -48.6886         79.5509        -0.022524         142.927
0.616                   -3.26626         172.071         -48.4517          78.455         -48.5383         78.6679       -0.0227729         142.847
0.617                   -3.34494         171.493          -48.299         77.5358         -48.3885         77.7708       -0.0230252         142.766
0.618                   -3.42443         170.918         -48.1467         76.6019         -48.2391         76.8594        -0.023281         142.685
0.619                   -3.50472         170.346         -47.9947          75.653           -48.09         75.9334       -0.0235405         142.604
0.62                    -3.58579         169.778         -47.8431         74.6886         -47.9413         74.9923       -0.0238036         142.522
0.621                   -3.66764         169.213         -47.6917         73.7085          -47.793          74.036       -0.0240703         142.441
0.622                   -3.75026         168.652         -47.5407         72.7123         -47.6449         73.0641       -0.0243409         142.359
0.623                   -3.83363         168.094         -47.3899         71.6995         -47.4971         72.0761       -0.0246153         142.276
0.624                   -3.91774          167.54         -47.2393         70.6699         -47.3496         71.0717       -0.0248936         142.194
0.625                   -4.00259         166.989         -47.0889         69.6229         -47.2023         70.0504       -0.0251759         142.111
0.626                   -4.08816         166.442         -46.9387         68.5581         -47.0552          69.012       -0.0254622         142.028
0.627                   -4.17445         165.899         -46.7886          67.475         -46.9083         67.9558       -0.0257526         141.945
0.628                   -4.26144          165.36         -46.6387         66.3733         -46.7615         66.8815       -0.0260473         141.862
0.629                   -4.34912         164.824         -46.4889         65.2523         -46.6149         65.7887       -0.0263462         141.778
