! TOUCHSTONE file generated by CST MICROWAVE STUDIO
! Date and time: Mon Oct 26 12:09:53 2020
! Project name: Scenario_1_Circular_Tissue_out_of_Line_v2.cst
! Parameters = {dy1=259.5; L_HA=400; MT=2.54; Rad_Dielectric=30; Rad_Lower=7.3; Rad_Upper=30; a_HA=580; a_WG=246; b_HA=500; b_WG=121; c_HA=0; c_WG=187; d_feed=85; dx1=173; h_feed=15; h_lower=18; h_upper=40}
! Header version: 2018
! Port assignment regex: !\s*Touchstone port\s*([0-9]+)\s*=\s*(CST MWS port|CST DS port)\s*([0-9]+|Zmin|Zmax)\s*\(\"(.*)\"\)(\s*mode\s*([0-9]+))?.*
! Touchstone port assignment:
! Touchstone port 1 = CST MWS port 1 ("")
! Touchstone port 2 = CST MWS port 2 ("")
# GHz S DB R 50
0.5                     -0.14364        -122.544         -61.4936         103.015         -61.4936         103.015      -0.00683851         151.123
0.501                  -0.153435        -122.994         -61.3922         100.333         -61.3927         100.339      -0.00690434         151.057
0.502                  -0.163372        -123.445          -61.273         97.6746          -61.274         97.6846      -0.00697122         150.992
0.503                   -0.17345        -123.896         -61.1367         95.0517         -61.1384         95.0654      -0.00703916         150.926
0.504                  -0.183667        -124.349         -60.9846         92.4761         -60.9869         92.4926      -0.00710815         150.861
0.505                  -0.194023        -124.803         -60.8179         89.9578         -60.8209         89.9763       -0.0071782         150.795
0.506                  -0.204517        -125.257         -60.6382         87.5049         -60.6419         87.5246      -0.00724931         150.729
0.507                  -0.215146        -125.713         -60.4473         85.1237         -60.4516         85.1437      -0.00732149         150.663
0.508                  -0.225911        -126.169         -60.2467         82.8185         -60.2517         82.8381      -0.00739473         150.597
0.509                   -0.23681        -126.626         -60.0383         80.5918         -60.0438         80.6104      -0.00746905         150.531
0.51                   -0.247842        -127.085         -59.8237         78.4444         -59.8297         78.4615      -0.00754444         150.465
0.511                  -0.259006        -127.544         -59.6044         76.3755         -59.6108         76.3907      -0.00762091         150.399
0.512                  -0.270302        -128.005         -59.3819         74.3834         -59.3886         74.3964      -0.00769846         150.333
0.513                  -0.281728        -128.466         -59.1575         72.4649         -59.1645         72.4756       -0.0077771         150.266
0.514                  -0.293284        -128.929         -58.9324         70.6166         -58.9395         70.6247      -0.00785683           150.2
0.515                  -0.304969        -129.393         -58.7075         68.8339         -58.7148         68.8395      -0.00793765         150.134
0.516                  -0.316782        -129.858         -58.4839         67.1124         -58.4911         67.1154      -0.00801956         150.067
0.517                  -0.328723        -130.324         -58.2621          65.447         -58.2693         65.4475      -0.00810258             150
0.518                  -0.340791        -130.792         -58.0428         63.8327           -58.05         63.8309      -0.00818671         149.934
0.519                  -0.352987         -131.26         -57.8266         62.2644         -57.8337         62.2605      -0.00827194         149.867
0.52                   -0.365309         -131.73         -57.6138         60.7374         -57.6207         60.7314      -0.00835829           149.8
0.521                  -0.377757        -132.201         -57.4047         59.2467         -57.4114          59.239      -0.00844576         149.733
0.522                  -0.390331        -132.674         -57.1995         57.7878         -57.2059         57.7785      -0.00853435         149.666
0.523                  -0.403031        -133.148         -56.9983         56.3565         -57.0046         56.3457      -0.00862408         149.599
0.524                  -0.415858        -133.623         -56.8014         54.9485         -56.8073         54.9365      -0.00871494         149.532
0.525                  -0.428811          -134.1         -56.6086         53.5601         -56.6143         53.5471      -0.00880693         149.464
0.526                   -0.44189        -134.578           -56.42         52.1878         -56.4254          52.174      -0.00890008         149.397
0.527                  -0.455096        -135.058         -56.2355         50.8283         -56.2406         50.8138      -0.00899437         149.329
0.528                   -0.46843        -135.539          -56.055         49.4786         -56.0599         49.4637      -0.00908983         149.262
0.529                  -0.481891        -136.022         -55.8786         48.1361         -55.8832         48.1208      -0.00918644         149.194
0.53                   -0.495481        -136.506          -55.706         46.7982         -55.7103         46.7827      -0.00928423         149.126
0.531                  -0.509201        -136.993         -55.5371         45.4626         -55.5411         45.4471      -0.00938319         149.058
0.532                  -0.523051         -137.48         -55.3719         44.1274         -55.3756          44.112      -0.00948333          148.99
0.533                  -0.537033         -137.97           -55.21         42.7907         -55.2135         42.7754      -0.00958466         148.922
0.534                  -0.551147        -138.461         -55.0515         41.4509         -55.0548         41.4359      -0.00968719         148.854
0.535                  -0.565397        -138.954         -54.8962         40.1066         -54.8992          40.092      -0.00979092         148.786
0.536                  -0.579782         -139.45         -54.7439         38.7565         -54.7466         38.7422      -0.00989586         148.718
0.537                  -0.594305        -139.946         -54.5945         37.3993          -54.597         37.3856        -0.010002         148.649
0.538                  -0.608968        -140.445         -54.4478         36.0343         -54.4501         36.0211       -0.0101094         148.581
0.539                  -0.623773        -140.946         -54.3037         34.6604         -54.3058         34.6477        -0.010218         148.512
0.54                   -0.638722        -141.449         -54.1621         33.2769          -54.164         33.2649       -0.0103279         148.443
0.541                  -0.653819        -141.954         -54.0228         31.8832         -54.0246         31.8718        -0.010439         148.374
0.542                  -0.669065        -142.462         -53.8858         30.4788         -53.8874          30.468       -0.0105513         148.305
0.543                  -0.684463        -142.971         -53.7509         29.0631         -53.7524          29.053        -0.010665         148.236
0.544                  -0.700018        -143.483         -53.6181         27.6358         -53.6193         27.6264       -0.0107799         148.167
0.545                  -0.715732        -143.997         -53.4871         26.1966         -53.4882         26.1878        -0.010896         148.098
0.546                   -0.73161        -144.513         -53.3579         24.7453         -53.3589         24.7372       -0.0110135         148.028
0.547                  -0.747654        -145.032         -53.2305         23.2817         -53.2314         23.2742       -0.0111323         147.959
0.548                   -0.76387        -145.553         -53.1048         21.8056         -53.1055         21.7988       -0.0112524         147.889
0.549                  -0.780261        -146.077         -52.9806         20.3171         -52.9813         20.3109       -0.0113738          147.82
0.55                   -0.796833        -146.603          -52.858          18.816         -52.8585         18.8104       -0.0114965          147.75
0.551                  -0.813591        -147.132         -52.7368         17.3024         -52.7372         17.2975       -0.0116206          147.68
0.552                   -0.83054        -147.664          -52.617         15.7764         -52.6173          15.772       -0.0117461          147.61
0.553                  -0.847686        -148.198         -52.4985          14.238         -52.4988         14.2342       -0.0118729          147.54
0.554                  -0.865034        -148.735         -52.3814         12.6874         -52.3816         12.6841       -0.0120011          147.47
0.555                  -0.882592        -149.275         -52.2655         11.1247         -52.2656          11.122       -0.0121307         147.399
0.556                  -0.900365        -149.818         -52.1508         9.55016         -52.1509         9.54794       -0.0122616         147.329
0.557                  -0.918361        -150.364         -52.0373         7.96394         -52.0374         7.96219        -0.012394         147.258
0.558                  -0.936588        -150.914         -51.9251         6.36626          -51.925         6.36496       -0.0125278         147.187
0.559                  -0.955053        -151.466         -51.8139          4.7574         -51.8138         4.75652       -0.0126631         147.116
0.56                   -0.973765        -152.021         -51.7039         3.13761         -51.7038         3.13713       -0.0127998         147.045
0.561                  -0.992732         -152.58          -51.595         1.50719         -51.5948         1.50709       -0.0129379         146.974
0.562                   -1.01196        -153.142         -51.4872       -0.133552          -51.487        -0.13331       -0.0130776         146.903
0.563                   -1.03147        -153.707         -51.3804         -1.7843         -51.3802        -1.78374       -0.0132187         146.832
0.564                   -1.05126        -154.276         -51.2748        -3.44472         -51.2745        -3.44386       -0.0133613          146.76
0.565                   -1.07134        -154.848         -51.1702        -5.11446         -51.1699        -5.11332       -0.0135055         146.689
0.566                   -1.09173        -155.424         -51.0667        -6.79316         -51.0664        -6.79177       -0.0136512         146.617
0.567                   -1.11243        -156.003         -50.9643        -8.48046          -50.964        -8.47884       -0.0137984         146.545
0.568                   -1.13347        -156.586          -50.863         -10.176         -50.8626        -10.1741       -0.0139472         146.473
0.569                   -1.15484        -157.173         -50.7627        -11.8793         -50.7623        -11.8773       -0.0140976         146.401
0.57                    -1.17657        -157.764         -50.6635        -13.5901         -50.6631        -13.5879       -0.0142495         146.329
0.571                   -1.19866        -158.358         -50.5654        -15.3078          -50.565        -15.3055       -0.0144031         146.256
0.572                   -1.22114        -158.957         -50.4684        -17.0322         -50.4679        -17.0298       -0.0145584         146.184
0.573                   -1.24402         -159.56         -50.3724        -18.7628          -50.372        -18.7603       -0.0147152         146.111
0.574                    -1.2673        -160.166         -50.2776        -20.4992         -50.2771        -20.4966       -0.0148738         146.038
0.575                   -1.29102        -160.777         -50.1839        -22.2409         -50.1834        -22.2382        -0.015034         145.965
0.576                   -1.31517        -161.392         -50.0912        -23.9876         -50.0908        -23.9848       -0.0151959         145.892
0.577                   -1.33979        -162.011         -49.9997        -25.7387         -49.9992        -25.7359       -0.0153596         145.819
0.578                   -1.36489        -162.635         -49.9093         -27.494         -49.9088        -27.4911        -0.015525         145.745
0.579                   -1.39049        -163.263         -49.8201        -29.2528         -49.8196          -29.25       -0.0156921         145.672
0.58                     -1.4166        -163.895         -49.7319        -31.0149         -49.7314        -31.0121        -0.015861         145.598
0.581                   -1.44325        -164.532         -49.6449        -32.7798         -49.6444         -32.777       -0.0160318         145.524
0.582                   -1.47046        -165.173          -49.559        -34.5471         -49.5585        -34.5443       -0.0162043          145.45
0.583                   -1.49825        -165.819         -49.4742        -36.3162         -49.4737        -36.3135       -0.0163787         145.376
0.584                   -1.52664        -166.469         -49.3906         -38.087         -49.3901        -38.0842        -0.016555         145.302
0.585                   -1.55565        -167.125         -49.3081        -39.8588         -49.3076        -39.8561       -0.0167332         145.227
0.586                    -1.5853        -167.784         -49.2267        -41.6313         -49.2262        -41.6287       -0.0169133         145.152
0.587                   -1.61563        -168.449         -49.1465        -43.4041          -49.146        -43.4016       -0.0170953         145.078
0.588                   -1.64666        -169.118         -49.0674        -45.1768         -49.0669        -45.1744       -0.0172792         145.003
0.589                   -1.67841        -169.793         -48.9894        -46.9491         -48.9889        -46.9467       -0.0174652         144.927
0.59                     -1.7109        -170.472         -48.9124        -48.7205          -48.912        -48.7181       -0.0176532         144.852
0.591                   -1.74417        -171.155         -48.8366        -50.4906         -48.8361        -50.4884       -0.0178432         144.777
0.592                   -1.77825        -171.844         -48.7619        -52.2592         -48.7614         -52.257       -0.0180353         144.701
0.593                   -1.81315        -172.538         -48.6882        -54.0257         -48.6878        -54.0237       -0.0182294         144.625
0.594                   -1.84892        -173.236         -48.6156        -55.7901         -48.6152        -55.7881       -0.0184257         144.549
0.595                   -1.88558         -173.94         -48.5441        -57.5517         -48.5436        -57.5499       -0.0186241         144.473
0.596                   -1.92316        -174.648         -48.4735        -59.3105         -48.4731        -59.3087       -0.0188247         144.397
0.597                   -1.96169        -175.361          -48.404         -61.066         -48.4036        -61.0643       -0.0190275          144.32
0.598                   -2.00121        -176.079         -48.3355        -62.8179         -48.3351        -62.8164       -0.0192325         144.243
0.599                   -2.04175        -176.802          -48.268        -64.5661         -48.2676        -64.5646       -0.0194398         144.166
0.6                     -2.08335         -177.53         -48.2014        -66.3101          -48.201        -66.3087       -0.0196494         144.089
0.601                   -2.12603        -178.262         -48.1357        -68.0498         -48.1353        -68.0485       -0.0198613         144.012
0.602                   -2.16983        -178.999         -48.0709        -69.7849         -48.0706        -69.7837       -0.0200756         143.935
0.603                   -2.21478        -179.741         -48.0071        -71.5151         -48.0067         -71.514       -0.0202923         143.857
0.604                   -2.26093         179.513         -47.9441        -73.2403         -47.9437        -73.2393       -0.0205113         143.779
0.605                   -2.30831         178.762         -47.8819        -74.9603         -47.8816        -74.9594       -0.0207329         143.701
0.606                   -2.35695         178.007         -47.8205        -76.6748         -47.8202         -76.674       -0.0209569         143.623
0.607                   -2.40689         177.247           -47.76        -78.3837         -47.7597         -78.383       -0.0211835         143.544
0.608                   -2.45818         176.483         -47.7002        -80.0869         -47.6999        -80.0862       -0.0214126         143.466
0.609                   -2.51084         175.715         -47.6411        -81.7841         -47.6408        -81.7835       -0.0216444         143.387
0.61                    -2.56492         174.943         -47.5827        -83.4752         -47.5824        -83.4747       -0.0218787         143.308
0.611                   -2.62044         174.167          -47.525        -85.1601         -47.5247        -85.1597       -0.0221158         143.228
0.612                   -2.67747         173.387         -47.4679        -86.8387         -47.4677        -86.8384       -0.0223556         143.149
0.613                   -2.73602         172.604         -47.4115        -88.5109         -47.4112        -88.5106       -0.0225981         143.069
0.614                   -2.79614         171.817         -47.3556        -90.1766         -47.3554        -90.1764       -0.0228435         142.989
0.615                   -2.85786         171.027         -47.3003        -91.8357         -47.3001        -91.8356       -0.0230917         142.909
0.616                   -2.92123         170.233         -47.2456        -93.4882         -47.2454        -93.4881       -0.0233428         142.828
0.617                   -2.98628         169.437         -47.1913         -95.134         -47.1911        -95.1339       -0.0235968         142.748
0.618                   -3.05305         168.639         -47.1375         -96.773         -47.1373         -96.773       -0.0238538         142.667
0.619                   -3.12157         167.838         -47.0842        -98.4053          -47.084        -98.4054       -0.0241138         142.586
0.62                    -3.19189         167.034         -47.0313        -100.031         -47.0311        -100.031       -0.0243769         142.504
0.621                   -3.26403         166.229         -46.9787        -101.649         -46.9786         -101.65       -0.0246431         142.423
0.622                   -3.33804         165.422         -46.9266        -103.261         -46.9264        -103.261       -0.0249125         142.341
0.623                   -3.41394         164.613         -46.8747        -104.866         -46.8746        -104.867       -0.0251851         142.259
0.624                   -3.49177         163.804         -46.8232        -106.464         -46.8231        -106.465        -0.025461         142.176
0.625                   -3.57157         162.993          -46.772        -108.056         -46.7719        -108.056       -0.0257403         142.094
0.626                   -3.65337         162.182          -46.721        -109.641         -46.7209        -109.641       -0.0260229         142.011
0.627                   -3.73718         161.371         -46.6702        -111.219         -46.6702        -111.219       -0.0263089         141.928
0.628                   -3.82306          160.56         -46.6197         -112.79         -46.6196         -112.79       -0.0265984         141.844
0.629                   -3.91102         159.749         -46.5693        -114.355         -46.5693        -114.355       -0.0268915         141.761
