! TOUCHSTONE file generated by CST MICROWAVE STUDIO
! Date and time: Fri Oct 30 08:06:52 2020
! Project name: Scenario_1_Circular_Tissue_out_of_Line.cst
! Parameters = {dy1=260.935; L_HA=400; MT=2.54; Rad_Dielectric=30; Rad_Lower=7.3; Rad_Upper=30; a_HA=580; a_WG=246; b_HA=500; b_WG=121; c_HA=0; c_WG=187; d_feed=85; dx1=520; h_feed=15; h_lower=18; h_upper=40}
! Header version: 2018
! Port assignment regex: !\s*Touchstone port\s*([0-9]+)\s*=\s*(CST MWS port|CST DS port)\s*([0-9]+|Zmin|Zmax)\s*\(\"(.*)\"\)(\s*mode\s*([0-9]+))?.*
! Touchstone port assignment:
! Touchstone port 1 = CST MWS port 1 ("")
! Touchstone port 2 = CST MWS port 2 ("")
# GHz S DB R 50
0.5                    -0.144077        -122.442         -63.0464        -81.2175         -63.0446        -81.2128      -0.00729244         151.142
0.501                   -0.15187         -122.84         -62.9556        -83.7315         -62.9471        -83.7443      -0.00737005         151.077
0.502                  -0.159712         -123.24         -62.8564        -86.2371         -62.8413        -86.2639      -0.00744818         151.011
0.503                  -0.167608        -123.644         -62.7489        -88.7311         -62.7275        -88.7686      -0.00752682         150.946
0.504                  -0.175561         -124.05         -62.6336        -91.2106          -62.606        -91.2555        -0.007606          150.88
0.505                  -0.183576         -124.46         -62.5108        -93.6729         -62.4774        -93.7223      -0.00768572         150.815
0.506                  -0.191658        -124.872         -62.3808        -96.1156         -62.3419        -96.1668      -0.00776598         150.749
0.507                  -0.199812        -125.287         -62.2441        -98.5367            -62.2        -98.5872       -0.0078468         150.683
0.508                  -0.208042        -125.705         -62.1011        -100.934         -62.0521        -100.982      -0.00792817         150.618
0.509                  -0.216353        -126.127         -61.9522        -103.307         -61.8988         -103.35      -0.00801012         150.552
0.51                   -0.224751        -126.551         -61.7978        -105.653         -61.7404         -105.69      -0.00809264         150.486
0.511                  -0.233239        -126.978         -61.6385        -107.972         -61.5774        -108.001      -0.00817575          150.42
0.512                  -0.241824        -127.409         -61.4746        -110.263         -61.4102        -110.283      -0.00825946         150.354
0.513                  -0.250511        -127.842         -61.3065        -112.526         -61.2393        -112.537      -0.00834377         150.287
0.514                  -0.259305        -128.279         -61.1348        -114.761          -61.065        -114.761      -0.00842869         150.221
0.515                  -0.268212        -128.719         -60.9597        -116.967         -60.8878        -116.956      -0.00851423         150.155
0.516                  -0.277237        -129.161         -60.7817        -119.145         -60.7081        -119.123       -0.0086004         150.088
0.517                  -0.286387        -129.608         -60.6012        -121.295         -60.5262        -121.262      -0.00868722         150.022
0.518                  -0.295666        -130.057         -60.4185        -123.417         -60.3425        -123.373      -0.00877468         149.955
0.519                  -0.305081         -130.51          -60.234        -125.514         -60.1572        -125.459      -0.00886279         149.889
0.52                   -0.314639        -130.965         -60.0479        -127.584         -59.9707        -127.518      -0.00895158         149.822
0.521                  -0.324345        -131.424         -59.8606        -129.629         -59.7833        -129.553      -0.00904104         149.755
0.522                  -0.334205        -131.887         -59.6723         -131.65         -59.5951        -131.565      -0.00913119         149.688
0.523                  -0.344227        -132.352         -59.4834        -133.648         -59.4066        -133.554      -0.00922204         149.621
0.524                  -0.354416        -132.822          -59.294        -135.624         -59.2178        -135.522       -0.0093136         149.554
0.525                  -0.364779        -133.294         -59.1043        -137.579          -59.029         -137.47      -0.00940587         149.487
0.526                  -0.375324         -133.77         -58.9147        -139.515         -58.8404        -139.398      -0.00949888          149.42
0.527                  -0.386057        -134.249         -58.7252        -141.431         -58.6521        -141.309      -0.00959262         149.352
0.528                  -0.396986        -134.731          -58.536        -143.331         -58.4644        -143.203      -0.00968711         149.285
0.529                  -0.408117        -135.217         -58.3473        -145.214         -58.2773        -145.081      -0.00978237         149.217
0.53                   -0.419457        -135.707         -58.1593        -147.081          -58.091        -146.946       -0.0098784          149.15
0.531                  -0.431015        -136.199         -57.9721        -148.935         -57.9056        -148.796      -0.00997521         149.082
0.532                  -0.442798        -136.696         -57.7858        -150.776         -57.7212        -150.635       -0.0100728         149.014
0.533                  -0.454813        -137.196         -57.6005        -152.605          -57.538        -152.463       -0.0101712         148.946
0.534                  -0.467069        -137.699         -57.4163        -154.423         -57.3559         -154.28       -0.0102705         148.878
0.535                  -0.479572        -138.206         -57.2333        -156.231         -57.1752        -156.089       -0.0103706          148.81
0.536                  -0.492333        -138.716         -57.0516        -158.031         -56.9958        -157.889       -0.0104715         148.742
0.537                  -0.505357         -139.23         -56.8713        -159.823         -56.8179        -159.683       -0.0105732         148.673
0.538                  -0.518655        -139.747         -56.6925        -161.608         -56.6414         -161.47       -0.0106759         148.605
0.539                  -0.532234        -140.268         -56.5151        -163.388         -56.4665        -163.252       -0.0107794         148.537
0.54                   -0.546103        -140.793         -56.3394        -165.162         -56.2933         -165.03       -0.0108838         148.468
0.541                   -0.56027        -141.321         -56.1652        -166.933         -56.1216        -166.805       -0.0109892         148.399
0.542                  -0.574745        -141.853         -55.9927          -168.7         -55.9517        -168.577       -0.0110954          148.33
0.543                  -0.589537        -142.388         -55.8219        -170.465         -55.7835        -170.347       -0.0112026         148.261
0.544                  -0.604654        -142.927         -55.6529        -172.229          -55.617        -172.116       -0.0113108         148.192
0.545                  -0.620105         -143.47         -55.4856        -173.992         -55.4523        -173.884       -0.0114199         148.123
0.546                    -0.6359        -144.016         -55.3202        -175.754         -55.2894        -175.653         -0.01153         148.054
0.547                  -0.652048        -144.566         -55.1566        -177.518         -55.1284        -177.423       -0.0116411         147.985
0.548                   -0.66856        -145.119         -54.9949        -179.282         -54.9692        -179.195       -0.0117532         147.915
0.549                  -0.685443        -145.676         -54.8351         178.951         -54.8119         179.032       -0.0118664         147.846
0.55                   -0.702709        -146.237         -54.6772         177.182         -54.6565         177.255       -0.0119806         147.776
0.551                  -0.720366        -146.801         -54.5213          175.41          -54.503         175.476       -0.0120958         147.706
0.552                  -0.738426        -147.369         -54.3673         173.635         -54.3515         173.692       -0.0122122         147.636
0.553                  -0.756897         -147.94         -54.2152         171.855         -54.2018         171.905       -0.0123296         147.566
0.554                   -0.77579        -148.515         -54.0652         170.071         -54.0541         170.112       -0.0124481         147.496
0.555                  -0.795115        -149.094         -53.9171         168.281         -53.9084         168.315       -0.0125678         147.426
0.556                  -0.814883        -149.676         -53.7711         166.486         -53.7645         166.512       -0.0126886         147.356
0.557                  -0.835103        -150.262          -53.627         164.686         -53.6227         164.703       -0.0128105         147.285
0.558                  -0.855786        -150.851          -53.485         162.879         -53.4828         162.888       -0.0129337         147.214
0.559                  -0.876944        -151.445          -53.345         161.065         -53.3448         161.066        -0.013058         147.144
0.56                   -0.898585        -152.041          -53.207         159.245         -53.2089         159.238       -0.0131836         147.073
0.561                  -0.920721        -152.641         -53.0711         157.418         -53.0748         157.402       -0.0133104         147.002
0.562                  -0.943363        -153.245         -52.9372         155.583         -52.9428          155.56       -0.0134385         146.931
0.563                  -0.966521        -153.852         -52.8053          153.74         -52.8126         153.709       -0.0135678          146.86
0.564                  -0.990206        -154.463         -52.6754          151.89         -52.6845         151.852       -0.0136985         146.788
0.565                   -1.01443        -155.077         -52.5476         150.032         -52.5582         149.986       -0.0138304         146.717
0.566                    -1.0392        -155.694         -52.4217         148.165         -52.4339         148.113       -0.0139637         146.645
0.567                   -1.06453        -156.315         -52.2979         146.291         -52.3115         146.231       -0.0140984         146.573
0.568                   -1.09043         -156.94          -52.176         144.407          -52.191         144.341       -0.0142345         146.501
0.569                   -1.11692        -157.567         -52.0561         142.516         -52.0724         142.444       -0.0143719         146.429
0.57                    -1.14399        -158.199         -51.9382         140.616         -51.9556         140.538       -0.0145108         146.357
0.571                   -1.17167        -158.833         -51.8223         138.707         -51.8408         138.624       -0.0146511         146.285
0.572                   -1.19997        -159.471         -51.7083          136.79         -51.7277         136.702       -0.0147929         146.213
0.573                   -1.22889        -160.112         -51.5962         134.865         -51.6165         134.771       -0.0149362          146.14
0.574                   -1.25844        -160.756          -51.486         132.931          -51.507         132.833       -0.0150811         146.067
0.575                   -1.28864        -161.403         -51.3776         130.989         -51.3994         130.887       -0.0152274         145.994
0.576                    -1.3195        -162.054         -51.2711         129.038         -51.2934         128.932       -0.0153754         145.921
0.577                   -1.35103        -162.707         -51.1664         127.079         -51.1892          126.97       -0.0155249         145.848
0.578                   -1.38324        -163.364         -51.0635         125.113         -51.0867         125.001       -0.0156761         145.775
0.579                   -1.41614        -164.024         -50.9624         123.138         -50.9858         123.024       -0.0158289         145.701
0.58                    -1.44974        -164.686          -50.863         121.156         -50.8865          121.04       -0.0159834         145.628
0.581                   -1.48405        -165.352         -50.7652         119.166         -50.7889         119.049       -0.0161396         145.554
0.582                   -1.51908         -166.02         -50.6691         117.169         -50.6928         117.051       -0.0162975          145.48
0.583                   -1.55485        -166.692         -50.5747         115.165         -50.5981         115.047       -0.0164572         145.406
0.584                   -1.59135        -167.366         -50.4817         113.154          -50.505         113.036       -0.0166187         145.332
0.585                   -1.62861        -168.043         -50.3904         111.137         -50.4133         111.019        -0.016782         145.258
0.586                   -1.66664        -168.722         -50.3004         109.113          -50.323         108.997       -0.0169472         145.183
0.587                   -1.70544        -169.404          -50.212         107.084          -50.234         106.969       -0.0171142         145.108
0.588                   -1.74502        -170.089         -50.1249         105.049         -50.1463         104.936       -0.0172832         145.033
0.589                   -1.78539        -170.776         -50.0391         103.009         -50.0599         102.898       -0.0174541         144.958
0.59                    -1.82656        -171.466         -49.9546         100.963         -49.9747         100.855        -0.017627         144.883
0.591                   -1.86855        -172.157         -49.8714         98.9133         -49.8906         98.8088       -0.0178019         144.808
0.592                   -1.91136        -172.852         -49.7893         96.8592         -49.8077         96.7585       -0.0179788         144.732
0.593                     -1.955        -173.548         -49.7084         94.8012         -49.7258         94.7047       -0.0181579         144.657
0.594                   -1.99948        -174.247         -49.6285         92.7397         -49.6449         92.6479        -0.018339         144.581
0.595                   -2.04481        -174.948         -49.5497         90.6751          -49.565         90.5883       -0.0185223         144.505
0.596                     -2.091        -175.651         -49.4718         88.6077          -49.486         88.5265       -0.0187078         144.428
0.597                   -2.13805        -176.355         -49.3948         86.5381         -49.4078         86.4627       -0.0188955         144.352
0.598                   -2.18598        -177.062         -49.3187         84.4665         -49.3305         84.3973       -0.0190855         144.275
0.599                   -2.23479        -177.771         -49.2434         82.3934         -49.2539         82.3308       -0.0192778         144.199
0.6                     -2.28449        -178.481         -49.1688         80.3192          -49.178         80.2634       -0.0194724         144.122
0.601                    -2.3351        -179.193         -49.0949         78.2443         -49.1028         78.1957       -0.0196695         144.044
0.602                   -2.38661        -179.906         -49.0216          76.169         -49.0282         76.1279       -0.0198689         143.967
0.603                   -2.43903         179.378         -48.9489         74.0939         -48.9541         74.0606       -0.0200708         143.889
0.604                   -2.49238         178.662         -48.8767         72.0193         -48.8805         71.9939       -0.0202753         143.812
0.605                   -2.54666         177.944          -48.805         69.9456         -48.8075         69.9284       -0.0204823         143.734
0.606                   -2.60188         177.225         -48.7337         67.8733         -48.7348         67.8644       -0.0206919         143.655
0.607                   -2.65804         176.504         -48.6628         65.8026         -48.6625         65.8023       -0.0209042         143.577
0.608                   -2.71515         175.783         -48.5922          63.734         -48.5905         63.7424       -0.0211191         143.499
0.609                   -2.77323          175.06         -48.5218         61.6679         -48.5189         61.6851       -0.0213368          143.42
0.61                    -2.83226         174.337         -48.4517         59.6047         -48.4475         59.6307       -0.0215573         143.341
0.611                   -2.89227         173.612         -48.3818         57.5446         -48.3763         57.5796       -0.0217807         143.262
0.612                   -2.95326         172.887         -48.3121         55.4882         -48.3052         55.5321       -0.0220069         143.182
0.613                   -3.01523         172.161         -48.2425         53.4356         -48.2343         53.4885       -0.0222361         143.102
0.614                   -3.07819         171.434         -48.1729         51.3873         -48.1636         51.4492       -0.0224683         143.023
0.615                   -3.14215         170.707         -48.1034         49.3436         -48.0929         49.4144       -0.0227036         142.942
0.616                   -3.20711          169.98         -48.0339         47.3047         -48.0222         47.3843        -0.022942         142.862
0.617                   -3.27308         169.252         -47.9643         45.2711         -47.9516         45.3594       -0.0231835         142.782
0.618                   -3.34006         168.523         -47.8948         43.2429          -47.881         43.3398       -0.0234283         142.701
0.619                   -3.40806         167.795         -47.8251         41.2205         -47.8104         41.3258       -0.0236764          142.62
0.62                    -3.47709         167.066         -47.7553         39.2041         -47.7397         39.3177       -0.0239278         142.538
0.621                   -3.54715         166.337         -47.6855         37.1939         -47.6689         37.3156       -0.0241827         142.457
0.622                   -3.61825         165.609         -47.6155         35.1902         -47.5981         35.3197        -0.024441         142.375
0.623                   -3.69039          164.88         -47.5453         33.1932         -47.5272         33.3303       -0.0247029         142.293
0.624                   -3.76358         164.152          -47.475         31.2031         -47.4561         31.3475       -0.0249683         142.211
0.625                   -3.83782         163.424         -47.4045         29.2201          -47.385         29.3715       -0.0252375         142.128
0.626                   -3.91312         162.697         -47.3337         27.2443         -47.3137         27.4024       -0.0255104         142.046
0.627                   -3.98949          161.97         -47.2628         25.2759         -47.2422         25.4404       -0.0257872         141.963
0.628                   -4.06693         161.243         -47.1917          23.315         -47.1706         23.4856       -0.0260678         141.879
0.629                   -4.14545         160.517         -47.1204         21.3618         -47.0989          21.538       -0.0263524         141.796
