! TOUCHSTONE file generated by CST MICROWAVE STUDIO
! Date and time: Wed Oct 28 19:20:24 2020
! Project name: Scenario_1_Circular_Tissue_out_of_Line.cst
! Parameters = {dy1=260.935; L_HA=400; MT=2.54; Rad_Dielectric=30; Rad_Lower=7.3; Rad_Upper=30; a_HA=580; a_WG=246; b_HA=500; b_WG=121; c_HA=0; c_WG=187; d_feed=85; dx1=693; h_feed=15; h_lower=18; h_upper=40}
! Header version: 2018
! Port assignment regex: !\s*Touchstone port\s*([0-9]+)\s*=\s*(CST MWS port|CST DS port)\s*([0-9]+|Zmin|Zmax)\s*\(\"(.*)\"\)(\s*mode\s*([0-9]+))?.*
! Touchstone port assignment:
! Touchstone port 1 = CST MWS port 1 ("")
! Touchstone port 2 = CST MWS port 2 ("")
# GHz S DB R 50
0.5                    -0.147415        -122.284         -63.2867         175.897         -63.4544         175.592       -0.0077086         151.134
0.501                  -0.152886        -122.745         -63.0335         173.167         -63.2047         172.864      -0.00776242         151.069
0.502                  -0.158596        -123.209         -62.7842         170.534          -62.958         170.231      -0.00781713         151.004
0.503                  -0.164547        -123.674         -62.5392          167.99         -62.7148         167.685      -0.00787274         150.938
0.504                  -0.170744        -124.141          -62.299         165.527         -62.4757         165.219      -0.00792925         150.873
0.505                  -0.177188        -124.609         -62.0638         163.138         -62.2409         162.826      -0.00798668         150.808
0.506                  -0.183884        -125.079         -61.8337         160.815         -62.0107           160.5      -0.00804503         150.742
0.507                  -0.190833        -125.551          -61.609         158.553         -61.7852         158.233       -0.0081043         150.676
0.508                   -0.19804        -126.025         -61.3896         156.346         -61.5645         156.022       -0.0081645          150.61
0.509                  -0.205506          -126.5         -61.1754         154.187         -61.3487          153.86      -0.00822564         150.545
0.51                   -0.213236        -126.978         -60.9665         152.074         -61.1378         151.744      -0.00828773         150.479
0.511                  -0.221231        -127.456         -60.7628             150         -60.9317         149.668      -0.00835077         150.413
0.512                  -0.229496        -127.937         -60.5642         147.963         -60.7304         147.628      -0.00841477         150.347
0.513                  -0.238032        -128.419         -60.3705         145.958         -60.5337         145.622      -0.00847974          150.28
0.514                  -0.246843        -128.903         -60.1816         143.983         -60.3417         143.646      -0.00854568         150.214
0.515                  -0.255931        -129.388         -59.9974         142.033         -60.1541         141.696       -0.0086126         150.148
0.516                    -0.2653        -129.875         -59.8178         140.106         -59.9709          139.77      -0.00868051         150.081
0.517                  -0.274952        -130.364         -59.6425           138.2         -59.7919         137.864      -0.00874942         150.015
0.518                  -0.284889        -130.855         -59.4715         136.312          -59.617         135.978      -0.00881933         149.948
0.519                  -0.295116        -131.347         -59.3046          134.44         -59.4461         134.108      -0.00889025         149.882
0.52                   -0.305634        -131.841         -59.1416         132.582          -59.279         132.253      -0.00896219         149.815
0.521                  -0.316445        -132.336         -58.9824         130.735         -59.1156          130.41      -0.00903517         149.748
0.522                  -0.327553        -132.833         -58.8268         128.899         -58.9558         128.577      -0.00910918         149.681
0.523                  -0.338961        -133.332         -58.6748         127.072         -58.7995         126.754      -0.00918423         149.614
0.524                   -0.35067        -133.832          -58.526         125.251         -58.6464         124.938      -0.00926034         149.547
0.525                  -0.362682        -134.334         -58.3805         123.436         -58.4966         123.128      -0.00933752          149.48
0.526                  -0.375002        -134.838          -58.238         121.625         -58.3497         121.324      -0.00941576         149.413
0.527                  -0.387629        -135.343         -58.0985         119.817         -58.2058         119.522      -0.00949509         149.345
0.528                  -0.400568         -135.85         -57.9618         118.012         -58.0647         117.723      -0.00957551         149.278
0.529                   -0.41382        -136.358         -57.8277         116.207         -57.9263         115.925      -0.00965703          149.21
0.53                   -0.427387        -136.868         -57.6961         114.402         -57.7904         114.128      -0.00973965         149.143
0.531                  -0.441271         -137.38          -57.567         112.596         -57.6569         112.329       -0.0098234         149.075
0.532                  -0.455474        -137.893         -57.4401         110.788         -57.5258         110.529      -0.00990827         149.007
0.533                  -0.469998        -138.408         -57.3155         108.977         -57.3969         108.727      -0.00999429         148.939
0.534                  -0.484845        -138.924         -57.1928         107.163         -57.2701         106.922       -0.0100815         148.871
0.535                  -0.500017        -139.442         -57.0722         105.344         -57.1453         105.112       -0.0101698         148.803
0.536                  -0.515515        -139.961         -56.9533         103.521         -57.0224         103.298       -0.0102593         148.735
0.537                   -0.53134        -140.482         -56.8362         101.692         -56.9012         101.478         -0.01035         148.666
0.538                  -0.547494        -141.004         -56.7207         99.8571         -56.7818         99.6529       -0.0104418         148.598
0.539                  -0.563979        -141.528         -56.6067         98.0155         -56.6639          97.821       -0.0105349         148.529
0.54                   -0.580795        -142.054         -56.4941         96.1667         -56.5475         95.9821       -0.0106292         148.461
0.541                  -0.597944        -142.581         -56.3828         94.3103         -56.4325         94.1356       -0.0107247         148.392
0.542                  -0.615426        -143.109         -56.2727         92.4458         -56.3188         92.2812       -0.0108215         148.323
0.543                  -0.633243        -143.639         -56.1638         90.5728         -56.2063         90.4184       -0.0109195         148.254
0.544                  -0.651395         -144.17         -56.0558         88.6909          -56.095         88.5467       -0.0110187         148.185
0.545                  -0.669883        -144.703         -55.9489         86.7998         -55.9846         86.6659       -0.0111193         148.116
0.546                  -0.688708        -145.237         -55.8427         84.8992         -55.8752         84.7756       -0.0112211         148.047
0.547                  -0.707869        -145.773         -55.7373         82.9887         -55.7667         82.8754       -0.0113243         147.977
0.548                  -0.727367        -146.311         -55.6327         81.0682          -55.659         80.9651       -0.0114287         147.908
0.549                  -0.747203        -146.849         -55.5286         79.1373         -55.5519         79.0444       -0.0115345         147.838
0.55                   -0.767375        -147.389          -55.425         77.1959         -55.4455         77.1132       -0.0116416         147.769
0.551                  -0.787885        -147.931         -55.3218         75.2437         -55.3396         75.1711       -0.0117501         147.699
0.552                   -0.80873        -148.474         -55.2191         73.2807         -55.2342          73.218       -0.0118599         147.629
0.553                  -0.829913        -149.019         -55.1166         71.3067         -55.1292         71.2538       -0.0119712         147.559
0.554                   -0.85143        -149.565         -55.0143         69.3216         -55.0246         69.2784       -0.0120838         147.489
0.555                  -0.873282        -150.112         -54.9122         67.3252         -54.9202         67.2916       -0.0121978         147.418
0.556                  -0.895469        -150.661         -54.8102         65.3177          -54.816         65.2933       -0.0123133         147.348
0.557                  -0.917988        -151.212         -54.7083         63.2988          -54.712         63.2835       -0.0124302         147.277
0.558                  -0.940838        -151.764         -54.6063         61.2687          -54.608         61.2623       -0.0125486         147.207
0.559                  -0.964019        -152.317         -54.5042         59.2273         -54.5041         59.2295       -0.0126684         147.136
0.56                   -0.987528        -152.872         -54.4019         57.1747         -54.4002         57.1851       -0.0127898         147.065
0.561                   -1.01136        -153.429         -54.2995         55.1109         -54.2962         55.1293       -0.0129126         146.994
0.562                   -1.03553        -153.987         -54.1969         53.0359          -54.192         53.0621        -0.013037         146.923
0.563                   -1.06001        -154.546         -54.0939           50.95         -54.0877         50.9836       -0.0131629         146.852
0.564                   -1.08481        -155.107         -53.9907         48.8532         -53.9832         48.8938       -0.0132904          146.78
0.565                   -1.10994         -155.67         -53.8871         46.7456         -53.8784          46.793       -0.0134195         146.709
0.566                   -1.13538        -156.234         -53.7831         44.6275         -53.7734         44.6811       -0.0135501         146.637
0.567                   -1.16113          -156.8         -53.6787          42.499          -53.668         42.5585       -0.0136824         146.565
0.568                    -1.1872        -157.368         -53.5738         40.3602         -53.5623         40.4253       -0.0138163         146.493
0.569                   -1.21357        -157.937         -53.4685         38.2114         -53.4562         38.2816       -0.0139519         146.421
0.57                    -1.24025        -158.509         -53.3627         36.0528         -53.3497         36.1278       -0.0140891         146.349
0.571                   -1.26723        -159.082         -53.2564         33.8847         -53.2429         33.9639       -0.0142281         146.277
0.572                   -1.29451        -159.656         -53.1496         31.7073         -53.1356         31.7904       -0.0143687         146.204
0.573                   -1.32208        -160.233         -53.0423         29.5208         -53.0279         29.6073       -0.0145111         146.131
0.574                   -1.34995        -160.811         -52.9344         27.3256         -52.9197         27.4151       -0.0146552         146.059
0.575                   -1.37811        -161.392         -52.8261         25.1219         -52.8111          25.214       -0.0148011         145.986
0.576                   -1.40656        -161.975         -52.7172           22.91         -52.7021         23.0042       -0.0149488         145.913
0.577                   -1.43529        -162.559         -52.6078         20.6903         -52.5926         20.7862       -0.0150984         145.839
0.578                   -1.46429        -163.146         -52.4979          18.463         -52.4827         18.5601       -0.0152497         145.766
0.579                   -1.49358        -163.736         -52.3876         16.2284         -52.3725         16.3264        -0.015403         145.693
0.58                    -1.52314        -164.327         -52.2768          13.987         -52.2618         14.0854       -0.0155581         145.619
0.581                   -1.55298        -164.922         -52.1656         11.7389         -52.1507         11.8373       -0.0157152         145.545
0.582                   -1.58308        -165.518         -52.0539         9.48461         -52.0393         9.58262       -0.0158742         145.471
0.583                   -1.61345        -166.118         -51.9419         7.22438         -51.9276         7.32163       -0.0160351         145.397
0.584                   -1.64409         -166.72         -51.8296         4.95856         -51.8156         5.05469       -0.0161981         145.323
0.585                     -1.675        -167.325         -51.7169         2.68751         -51.7033         2.78216        -0.016363         145.248
0.586                   -1.70617        -167.934          -51.604        0.411553         -51.5908        0.504388         -0.01653         145.174
0.587                   -1.73761        -168.545         -51.4909        -1.86896         -51.4781        -1.77826       -0.0166991         145.099
0.588                   -1.76932         -169.16         -51.3776         -4.1537         -51.3652        -4.06542       -0.0168703         145.024
0.589                   -1.80129        -169.779         -51.2641        -6.44231         -51.2522        -6.35675       -0.0170436         144.949
0.59                    -1.83355        -170.402         -51.1506        -8.73446         -51.1392        -8.65187        -0.017219         144.874
0.591                   -1.86608        -171.028          -51.037        -11.0298         -51.0262        -10.9504       -0.0173967         144.798
0.592                    -1.8989        -171.659         -50.9235        -13.3281         -50.9132        -13.2521       -0.0175765         144.723
0.593                   -1.93202        -172.294           -50.81        -15.6288         -50.8003        -15.5565       -0.0177586         144.647
0.594                   -1.96544        -172.933         -50.6967        -17.9318         -50.6875        -17.8633        -0.017943         144.571
0.595                   -1.99918        -173.578         -50.5835        -20.2367         -50.5749        -20.1721       -0.0181297         144.495
0.596                   -2.03325        -174.227         -50.4706        -22.5431         -50.4626        -22.4826       -0.0183187         144.418
0.597                   -2.06768        -174.883         -50.3579        -24.8508         -50.3505        -24.7944       -0.0185101         144.342
0.598                   -2.10248        -175.544         -50.2456        -27.1595         -50.2388        -27.1073       -0.0187039         144.265
0.599                   -2.13769         -176.21         -50.1337        -29.4688         -50.1275        -29.4209       -0.0189002         144.188
0.6                     -2.17332        -176.884         -50.0223        -31.7784         -50.0167        -31.7349       -0.0190989         144.111
0.601                   -2.20942        -177.564         -49.9114         -34.088         -49.9064        -34.0489       -0.0193001         144.034
0.602                   -2.24603         -178.25         -49.8011        -36.3974         -49.7966        -36.3626       -0.0195039         143.957
0.603                   -2.28318        -178.945         -49.6914        -38.7063         -49.6874        -38.6757       -0.0197103         143.879
0.604                   -2.32093        -179.647         -49.5823        -41.0143         -49.5789         -40.988       -0.0199193         143.801
0.605                   -2.35935         179.643          -49.474        -43.3212         -49.4712        -43.2991        -0.020131         143.723
0.606                   -2.39848         178.925         -49.3665        -45.6267         -49.3642        -45.6087       -0.0203454         143.645
0.607                   -2.43842         178.198         -49.2598        -47.9305          -49.258        -47.9165       -0.0205625         143.566
0.608                   -2.47923         177.462          -49.154        -50.2325         -49.1526        -50.2224       -0.0207824         143.488
0.609                   -2.52101         176.716         -49.0491        -52.5322         -49.0482        -52.5259       -0.0210052         143.409
0.61                    -2.56386          175.96         -48.9452        -54.8296         -48.9447        -54.8268       -0.0212309          143.33
0.611                    -2.6079         175.195         -48.8423        -57.1242         -48.8422        -57.1249       -0.0214595          143.25
0.612                   -2.65323         174.419         -48.7404        -59.4159         -48.7407        -59.4199        -0.021691         143.171
0.613                   -2.69999         173.633         -48.6396        -61.7045         -48.6403        -61.7115       -0.0219256         143.091
0.614                   -2.74832         172.837         -48.5399        -63.9896         -48.5409        -63.9996       -0.0221633         143.011
0.615                   -2.79838         172.029         -48.4414        -66.2712         -48.4427        -66.2839       -0.0224041         142.931
0.616                   -2.85032         171.211          -48.344        -68.5489         -48.3456        -68.5641       -0.0226481         142.851
0.617                   -2.90432         170.383         -48.2478        -70.8226         -48.2497        -70.8401       -0.0228954          142.77
0.618                   -2.96056         169.544         -48.1528         -73.092          -48.155        -73.1116       -0.0231459         142.689
0.619                   -3.01921         168.695         -48.0591        -75.3569         -48.0615        -75.3785       -0.0233999         142.608
0.62                    -3.08047         167.837         -47.9666        -77.6172         -47.9692        -77.6405       -0.0236573         142.527
0.621                   -3.14454          166.97         -47.8754        -79.8727         -47.8782        -79.8974       -0.0239182         142.445
0.622                    -3.2116         166.095         -47.7855        -82.1232         -47.7884        -82.1492       -0.0241827         142.363
0.623                   -3.28185         165.213         -47.6969        -84.3685         -47.6999        -84.3955       -0.0244509         142.281
0.624                   -3.35545         164.325         -47.6095        -86.6084         -47.6126        -86.6363       -0.0247228         142.199
0.625                   -3.43259         163.433         -47.5234        -88.8429         -47.5266        -88.8714       -0.0249985         142.116
0.626                   -3.51342         162.537         -47.4387        -91.0717         -47.4419        -91.1007       -0.0252782         142.033
0.627                   -3.59806          161.64         -47.3552        -93.2947         -47.3585        -93.3239        -0.025562          141.95
0.628                   -3.68663         160.743          -47.273        -95.5119         -47.2763        -95.5411       -0.0258498         141.867
0.629                    -3.7792         159.849         -47.1921         -97.723         -47.1954        -97.7521        -0.026142         141.783
