! TOUCHSTONE file generated by CST MICROWAVE STUDIO
! Date and time: Sat Oct 24 11:49:41 2020
! Project name: Scenario_1_Circular_Tissue_out_of_Line.cst
! Parameters = {dy1=260.935; L_HA=400; MT=2.54; Rad_Dielectric=30; Rad_Lower=7.3; Rad_Upper=30; a_HA=580; a_WG=246; b_HA=500; b_WG=121; c_HA=0; c_WG=187; d_feed=85; dx1=1039; h_feed=15; h_lower=18; h_upper=40}
! Header version: 2018
! Port assignment regex: !\s*Touchstone port\s*([0-9]+)\s*=\s*(CST MWS port|CST DS port)\s*([0-9]+|Zmin|Zmax)\s*\(\"(.*)\"\)(\s*mode\s*([0-9]+))?.*
! Touchstone port assignment:
! Touchstone port 1 = CST MWS port 1 ("")
! Touchstone port 2 = CST MWS port 2 ("")
# GHz S DB R 50
0.5                    -0.143685        -122.271         -64.8557        -12.9705         -65.2434        -13.0775       -0.0075481         151.125
0.501                  -0.152474        -122.739         -64.7151        -15.4029         -65.1094        -15.4347      -0.00761058          151.06
0.502                  -0.161386        -123.208         -64.5719        -17.8311         -64.9718        -17.7951      -0.00767375         150.995
0.503                  -0.170417        -123.677          -64.426        -20.2551         -64.8306         -20.158      -0.00773762          150.93
0.504                  -0.179566        -124.147         -64.2777        -22.6747         -64.6861        -22.5231      -0.00780219         150.864
0.505                   -0.18883        -124.617          -64.127        -25.0898         -64.5383        -24.8899      -0.00786746         150.799
0.506                  -0.198209        -125.088         -63.9743        -27.5006         -64.3873        -27.2579      -0.00793346         150.733
0.507                  -0.207699         -125.56         -63.8195        -29.9069         -64.2334         -29.627      -0.00800018         150.667
0.508                  -0.217301        -126.032         -63.6629        -32.3091         -64.0766        -31.9967      -0.00806764         150.601
0.509                  -0.227011        -126.505         -63.5046        -34.7071          -63.917         -34.367      -0.00813584         150.536
0.51                   -0.236831        -126.979         -63.3448        -37.1012         -63.7549        -36.7376      -0.00820479          150.47
0.511                  -0.246757        -127.453         -63.1835        -39.4917         -63.5903        -39.1084      -0.00827451         150.404
0.512                   -0.25679        -127.929         -63.0209        -41.8788         -63.4234        -41.4793      -0.00834499         150.338
0.513                  -0.266928        -128.405         -62.8571        -44.2628         -63.2544        -43.8504      -0.00841626         150.272
0.514                  -0.277172        -128.882         -62.6923         -46.644         -63.0833        -46.2217      -0.00848831         150.205
0.515                  -0.287521         -129.36         -62.5265        -49.0228         -62.9104        -48.5932      -0.00856116         150.139
0.516                  -0.297975        -129.839           -62.36        -51.3995         -62.7358         -50.965      -0.00863481         150.073
0.517                  -0.308533        -130.319         -62.1927        -53.7745         -62.5595        -53.3374      -0.00870929         150.006
0.518                  -0.319197        -130.801         -62.0249        -56.1483         -62.3818        -55.7104      -0.00878459         149.939
0.519                  -0.329967        -131.283         -61.8565        -58.5212         -62.2028        -58.0844      -0.00886072         149.873
0.52                   -0.340843        -131.767         -61.6878        -60.8936         -62.0227        -60.4594       -0.0089377         149.806
0.521                  -0.351827        -132.251         -61.5187         -63.266         -61.8415        -62.8359      -0.00901554         149.739
0.522                   -0.36292        -132.738         -61.3495        -65.6388         -61.6594         -65.214      -0.00909425         149.672
0.523                  -0.374123        -133.225         -61.1801        -68.0123         -61.4765        -67.5941      -0.00917383         149.605
0.524                  -0.385437        -133.714         -61.0107        -70.3872         -61.2929        -69.9766      -0.00925431         149.538
0.525                  -0.396865        -134.204         -60.8414        -72.7636         -61.1089        -72.3616      -0.00933568         149.471
0.526                  -0.408409        -134.696         -60.6722        -75.1422         -60.9244        -74.7497      -0.00941796         149.404
0.527                  -0.420072        -135.189         -60.5031        -77.5232         -60.7397         -77.141      -0.00950117         149.336
0.528                  -0.431855        -135.684         -60.3344        -79.9072         -60.5548         -79.536      -0.00958531         149.269
0.529                  -0.443762         -136.18          -60.166        -82.2944         -60.3699         -81.935      -0.00967039         149.202
0.53                   -0.455796        -136.678          -59.998        -84.6852         -60.1851        -84.3383      -0.00975643         149.134
0.531                  -0.467961        -137.178         -59.8305        -87.0801         -60.0004        -86.7464      -0.00984344         149.066
0.532                   -0.48026         -137.68         -59.6635        -89.4794          -59.816        -89.1595      -0.00993143         148.998
0.533                  -0.492698        -138.183          -59.497        -91.8834         -59.6321         -91.578       -0.0100204          148.93
0.534                  -0.505279        -138.688         -59.3313        -94.2925         -59.4486        -94.0021       -0.0101104         148.862
0.535                  -0.518007        -139.196         -59.1662        -96.7069         -59.2658        -96.4322       -0.0102014         148.794
0.536                  -0.530888        -139.705         -59.0019         -99.127         -59.0837        -98.8686       -0.0102935         148.726
0.537                  -0.543927        -140.216         -58.8384        -101.553         -58.9024        -101.312       -0.0103865         148.658
0.538                  -0.557129         -140.73         -58.6757        -103.985          -58.722        -103.761       -0.0104807         148.589
0.539                  -0.570501        -141.245          -58.514        -106.424         -58.5426        -106.218       -0.0105759         148.521
0.54                    -0.58405        -141.763         -58.3532        -108.869         -58.3642        -108.682       -0.0106722         148.452
0.541                   -0.59778        -142.283         -58.1933        -111.322         -58.1871        -111.153       -0.0107696         148.384
0.542                  -0.611701        -142.806         -58.0345        -113.781         -58.0112        -113.632       -0.0108681         148.315
0.543                  -0.625819         -143.33         -57.8767        -116.247         -57.8367        -116.119       -0.0109678         148.246
0.544                  -0.640141        -143.858         -57.7201        -118.721         -57.6635        -118.614       -0.0110686         148.177
0.545                  -0.654677        -144.387         -57.5646        -121.202         -57.4919        -121.116       -0.0111705         148.108
0.546                  -0.669434        -144.919         -57.4102        -123.691         -57.3219        -123.626       -0.0112737         148.038
0.547                  -0.684422        -145.454          -57.257        -126.187         -57.1535        -126.145        -0.011378         147.969
0.548                  -0.699649        -145.991         -57.1051        -128.691         -56.9868        -128.671       -0.0114835           147.9
0.549                  -0.715126        -146.531         -56.9544        -131.203         -56.8218        -131.206       -0.0115903          147.83
0.55                   -0.730862        -147.074         -56.8049        -133.723         -56.6587        -133.749       -0.0116983          147.76
0.551                  -0.746868         -147.62         -56.6568         -136.25         -56.4975        -136.299       -0.0118075          147.69
0.552                  -0.763155        -148.168           -56.51        -138.785         -56.3382        -138.857        -0.011918         147.621
0.553                  -0.779734        -148.719         -56.3645        -141.327          -56.181        -141.423       -0.0120298          147.55
0.554                  -0.796616        -149.273         -56.2204        -143.878         -56.0257        -143.996        -0.012143          147.48
0.555                  -0.813815         -149.83         -56.0777        -146.435         -55.8725        -146.577       -0.0122574          147.41
0.556                  -0.831341         -150.39         -55.9363        -149.001         -55.7214        -149.165       -0.0123732          147.34
0.557                  -0.849209        -150.953         -55.7963        -151.573         -55.5724        -151.759       -0.0124903         147.269
0.558                  -0.867432        -151.519         -55.6578        -154.153         -55.4256        -154.361       -0.0126089         147.199
0.559                  -0.886023        -152.089         -55.5206        -156.739         -55.2809        -156.969       -0.0127288         147.128
0.56                   -0.904996        -152.661         -55.3849        -159.333         -55.1384        -159.583       -0.0128501         147.057
0.561                  -0.924366        -153.236         -55.2505        -161.933         -54.9982        -162.203       -0.0129729         146.986
0.562                  -0.944148        -153.815         -55.1176        -164.539         -54.8601        -164.828       -0.0130972         146.915
0.563                  -0.964358        -154.397         -54.9861        -167.152         -54.7242        -167.459       -0.0132229         146.844
0.564                  -0.985011        -154.982         -54.8561        -169.771         -54.5905        -170.094       -0.0133501         146.772
0.565                   -1.00612        -155.571         -54.7274        -172.396         -54.4589        -172.734       -0.0134789         146.701
0.566                   -1.02771        -156.162         -54.6001        -175.026         -54.3296        -175.379       -0.0136092         146.629
0.567                   -1.04979        -156.757         -54.4742        -177.662         -54.2023        -178.027       -0.0137411         146.557
0.568                   -1.07239        -157.356         -54.3496         179.697         -54.0772         179.321       -0.0138745         146.485
0.569                   -1.09551        -157.957         -54.2265         177.052         -53.9542         176.665       -0.0140096         146.413
0.57                    -1.11917        -158.562         -54.1046         174.401         -53.8332         174.007       -0.0141463         146.341
0.571                    -1.1434        -159.171         -53.9841         171.747         -53.7142         171.346       -0.0142846         146.269
0.572                   -1.16822        -159.782         -53.8649         169.088         -53.5972         168.683       -0.0144247         146.196
0.573                   -1.19363        -160.397          -53.747         166.426         -53.4821         166.018       -0.0145664         146.124
0.574                   -1.21967        -161.016         -53.6303          163.76         -53.3689         163.351       -0.0147099         146.051
0.575                   -1.24635        -161.637         -53.5149         161.091         -53.2575         160.683       -0.0148551         145.978
0.576                   -1.27369        -162.262         -53.4007         158.419         -53.1478         158.014       -0.0150021         145.905
0.577                   -1.30172         -162.89         -53.2876         155.744         -53.0399         155.343       -0.0151509         145.832
0.578                   -1.33044        -163.522         -53.1758         153.067         -52.9336         152.673       -0.0153016         145.759
0.579                   -1.35989        -164.156          -53.065         150.388         -52.8288         150.002       -0.0154541         145.685
0.58                    -1.39009        -164.794         -52.9554         147.706         -52.7256         147.331       -0.0156085         145.611
0.581                   -1.42104        -165.435         -52.8468         145.024         -52.6238         144.659       -0.0157649         145.538
0.582                   -1.45279        -166.079         -52.7392         142.339         -52.5234         141.989       -0.0159231         145.464
0.583                   -1.48534        -166.726         -52.6327         139.654         -52.4242         139.318       -0.0160834          145.39
0.584                   -1.51872        -167.376         -52.5271         136.968         -52.3264         136.649       -0.0162456         145.315
0.585                   -1.55295        -168.029         -52.4225         134.281         -52.2297          133.98       -0.0164099         145.241
0.586                   -1.58805        -168.684         -52.3188         131.593          -52.134         131.312       -0.0165763         145.166
0.587                   -1.62404        -169.343         -52.2159         128.905         -52.0395         128.644       -0.0167448         145.092
0.588                   -1.66095        -170.004         -52.1139         126.218         -51.9458         125.978       -0.0169154         145.017
0.589                   -1.69879        -170.668         -52.0128          123.53         -51.8531         123.314       -0.0170881         144.942
0.59                    -1.73759        -171.334         -51.9124         120.843         -51.7612          120.65       -0.0172631         144.866
0.591                   -1.77736        -172.003         -51.8127         118.156           -51.67         117.988       -0.0174403         144.791
0.592                   -1.81814        -172.674         -51.7138          115.47         -51.5795         115.327       -0.0176197         144.716
0.593                   -1.85993        -173.348         -51.6156         112.785         -51.4897         112.667       -0.0178015          144.64
0.594                   -1.90276        -174.023         -51.5181         110.101         -51.4005         110.009       -0.0179856         144.564
0.595                   -1.94664          -174.7         -51.4212         107.418         -51.3117         107.352        -0.018172         144.488
0.596                   -1.99161         -175.38         -51.3249         104.737         -51.2235         104.696       -0.0183609         144.411
0.597                   -2.03767         -176.06         -51.2292         102.056         -51.1356         102.042       -0.0185522         144.335
0.598                   -2.08485        -176.743         -51.1341         99.3777         -51.0481         99.3887       -0.0187461         144.258
0.599                   -2.13316        -177.427         -51.0395         96.7007         -50.9609          96.737       -0.0189424         144.181
0.6                     -2.18262        -178.112         -50.9454         94.0254         -50.8739         94.0865       -0.0191413         144.104
0.601                   -2.23325        -178.799         -50.8519          91.352         -50.7872         91.4371       -0.0193428         144.027
0.602                   -2.28506        -179.486         -50.7588         88.6806         -50.7007         88.7889        -0.019547          143.95
0.603                   -2.33807         179.826         -50.6662         86.0111         -50.6143         86.1418       -0.0197538         143.872
0.604                    -2.3923         179.137          -50.574         83.3438          -50.528         83.4957       -0.0199634         143.794
0.605                   -2.44776         178.448         -50.4823         80.6786         -50.4418         80.8505       -0.0201758         143.716
0.606                   -2.50446         177.759          -50.391         78.0157         -50.3557         78.2062        -0.020391         143.638
0.607                   -2.56241         177.069         -50.3002          75.355         -50.2696         75.5627       -0.0206091          143.56
0.608                   -2.62164         176.379         -50.2097         72.6967         -50.1835           72.92       -0.0208301         143.481
0.609                   -2.68214          175.69         -50.1196         70.0407         -50.0974          70.278        -0.021054         143.402
0.61                    -2.74393         175.002         -50.0299         67.3872         -50.0113         67.6366        -0.021281         143.323
0.611                   -2.80702         174.314         -49.9406         64.7361         -49.9252         64.9958       -0.0215111         143.244
0.612                   -2.87141         173.627         -49.8516         62.0875          -49.839         62.3555       -0.0217442         143.165
0.613                   -2.93712         172.941          -49.763         59.4414         -49.7528         59.7157       -0.0219806         143.085
0.614                   -3.00414         172.256         -49.6748         56.7978         -49.6666         57.0763       -0.0222201         143.005
0.615                   -3.07249         171.573         -49.5869         54.1568         -49.5803         54.4373       -0.0224629         142.925
0.616                   -3.14218         170.891         -49.4995         51.5184         -49.4939         51.7987       -0.0227091         142.845
0.617                   -3.21319         170.212         -49.4123         48.8826         -49.4075         49.1603       -0.0229587         142.764
0.618                   -3.28554         169.535         -49.3256         46.2494         -49.3211         46.5223       -0.0232117         142.683
0.619                   -3.35923          168.86         -49.2392         43.6189         -49.2347         43.8845       -0.0234682         142.602
0.62                    -3.43425         168.188         -49.1532          40.991         -49.1483          41.247       -0.0237283         142.521
0.621                   -3.51061         167.519         -49.0675         38.3658         -49.0619         38.6097        -0.023992         142.439
0.622                    -3.5883         166.852         -48.9822         35.7433         -48.9755         35.9728       -0.0242594         142.358
0.623                   -3.66733          166.19         -48.8974         33.1235         -48.8891         33.3361       -0.0245306         142.275
0.624                   -3.74768          165.53         -48.8129         30.5064         -48.8029         30.6998       -0.0248056         142.193
0.625                   -3.82936         164.875         -48.7288          27.892         -48.7167         28.0638       -0.0250844         142.111
0.626                   -3.91235         164.223         -48.6451         25.2804         -48.6307         25.4282       -0.0253673         142.028
0.627                   -3.99666         163.576         -48.5619         22.6716         -48.5448         22.7931       -0.0256541         141.945
0.628                   -4.08227         162.933          -48.479         20.0656          -48.459         20.1585       -0.0259451         141.862
0.629                   -4.16918         162.295         -48.3966         17.4625         -48.3735         17.5246       -0.0262402         141.778
