! TOUCHSTONE file generated by CST MICROWAVE STUDIO
! Date and time: Mon Oct 26 12:10:02 2020
! Project name: Scenario_1_Circular_Tissue_out_of_Line_v2.cst
! Parameters = {dy1=276.8; L_HA=400; MT=2.54; Rad_Dielectric=30; Rad_Lower=7.3; Rad_Upper=30; a_HA=580; a_WG=246; b_HA=500; b_WG=121; c_HA=0; c_WG=187; d_feed=85; dx1=173; h_feed=15; h_lower=18; h_upper=40}
! Header version: 2018
! Port assignment regex: !\s*Touchstone port\s*([0-9]+)\s*=\s*(CST MWS port|CST DS port)\s*([0-9]+|Zmin|Zmax)\s*\(\"(.*)\"\)(\s*mode\s*([0-9]+))?.*
! Touchstone port assignment:
! Touchstone port 1 = CST MWS port 1 ("")
! Touchstone port 2 = CST MWS port 2 ("")
# GHz S DB R 50
0.5                    -0.147307        -122.463         -62.0142         97.2238         -62.0142         97.2238      -0.00688201         151.132
0.501                  -0.156461        -122.902         -61.9308         95.3051         -61.9022         95.1213      -0.00695018         151.067
0.502                  -0.165733        -123.342         -61.8419         93.3731         -61.7836         93.0307      -0.00701925         151.002
0.503                  -0.175123        -123.784         -61.7474         91.4299         -61.6587         90.9545      -0.00708923         150.936
0.504                  -0.184631        -124.227         -61.6473         89.4776         -61.5278         88.8947      -0.00716011         150.871
0.505                  -0.194257        -124.671         -61.5414         87.5184         -61.3913         86.8531      -0.00723191         150.805
0.506                  -0.204002        -125.117         -61.4298         85.5546         -61.2495         84.8313      -0.00730463         150.739
0.507                  -0.213865        -125.563         -61.3125         83.5884         -61.1029         82.8305      -0.00737827         150.673
0.508                  -0.223847        -126.011         -61.1896         81.6222         -60.9519         80.8517      -0.00745284         150.608
0.509                  -0.233948        -126.461         -61.0611         79.6583         -60.7969         78.8956      -0.00752834         150.542
0.51                   -0.244168        -126.912         -60.9272         77.6988         -60.6382         76.9628      -0.00760479         150.476
0.511                  -0.254508        -127.364          -60.788         75.7459         -60.4763         75.0535      -0.00768218          150.41
0.512                  -0.264968        -127.818         -60.6437         73.8017         -60.3116         73.1677      -0.00776052         150.343
0.513                  -0.275549        -128.273         -60.4945          71.868         -60.1443         71.3053      -0.00783982         150.277
0.514                  -0.286251         -128.73         -60.3408         69.9467         -59.9749          69.466      -0.00792008         150.211
0.515                  -0.297076        -129.188         -60.1827         68.0394         -59.8037         67.6493      -0.00800132         150.144
0.516                  -0.308023        -129.647         -60.0206         66.1474          -59.631         65.8546      -0.00808352         150.078
0.517                  -0.319094        -130.109         -59.8548         64.2721          -59.457         64.0812      -0.00816671         150.011
0.518                   -0.33029        -130.572         -59.6855         62.4145         -59.2822         62.3282      -0.00825089         149.945
0.519                  -0.341611        -131.036         -59.5132         60.5754         -59.1067         60.5947      -0.00833606         149.878
0.52                   -0.353059        -131.502         -59.3382         58.7554         -58.9308         58.8798      -0.00842223         149.811
0.521                  -0.364635         -131.97         -59.1607         56.9551         -58.7547         57.1824      -0.00850941         149.744
0.522                   -0.37634        -132.439         -58.9813         55.1746         -58.5787         55.5015      -0.00859761         149.677
0.523                  -0.388175         -132.91         -58.8001         53.4139         -58.4028         53.8361      -0.00868682          149.61
0.524                  -0.400143        -133.383         -58.6176         51.6731         -58.2273         52.1849      -0.00877707         149.543
0.525                  -0.412245        -133.858          -58.434         49.9517         -58.0523          50.547      -0.00886835         149.476
0.526                  -0.424482        -134.335         -58.2498         48.2493          -57.878         48.9211      -0.00896067         149.408
0.527                  -0.436856        -134.813         -58.0651         46.5653         -57.7044         47.3063      -0.00905405         149.341
0.528                   -0.44937        -135.294         -57.8802          44.899         -57.5318         45.7014      -0.00914848         149.274
0.529                  -0.462025        -135.776         -57.6956         43.2496         -57.3602         44.1054      -0.00924398         149.206
0.53                   -0.474823         -136.26         -57.5113         41.6161         -57.1897         42.5172      -0.00934055         149.138
0.531                  -0.487768        -136.747         -57.3276         39.9976         -57.0204         40.9359      -0.00943821          149.07
0.532                  -0.500861        -137.235         -57.1448         38.3929         -56.8524         39.3605      -0.00953696         149.003
0.533                  -0.514106        -137.725         -56.9631          36.801         -56.6857           37.79       -0.0096368         148.935
0.534                  -0.527505        -138.218         -56.7826         35.2206         -56.5204         36.2236      -0.00973775         148.866
0.535                   -0.54106        -138.713         -56.6035         33.6507         -56.3565         34.6604      -0.00983982         148.798
0.536                  -0.554776         -139.21         -56.4259         32.0899         -56.1941         33.0995      -0.00994302          148.73
0.537                  -0.568656        -139.709         -56.2501         30.5372         -56.0332         31.5402       -0.0100473         148.662
0.538                  -0.582702         -140.21         -56.0761         28.9913         -55.8739         29.9817       -0.0101528         148.593
0.539                   -0.59692        -140.714          -55.904          27.451         -55.7161         28.4234       -0.0102594         148.525
0.54                   -0.611312         -141.22         -55.7339         25.9153           -55.56         26.8646       -0.0103672         148.456
0.541                  -0.625883        -141.728         -55.5659         24.3829         -55.4055         25.3046       -0.0104762         148.387
0.542                  -0.640637        -142.239            -55.4         22.8528         -55.2527         23.7429       -0.0105863         148.318
0.543                  -0.655579        -142.753         -55.2363          21.324         -55.1015         22.1789       -0.0106977         148.249
0.544                  -0.670713        -143.269         -55.0749         19.7956         -54.9521         20.6122       -0.0108102          148.18
0.545                  -0.686045        -143.787         -54.9157         18.2664         -54.8043         19.0422        -0.010924         148.111
0.546                  -0.701579        -144.308         -54.7589         16.7358         -54.6582         17.4686       -0.0110389         148.042
0.547                  -0.717321        -144.832         -54.6044         15.2028         -54.5139          15.891       -0.0111551         147.972
0.548                  -0.733277        -145.359         -54.4522         13.6668         -54.3713         14.3089       -0.0112726         147.903
0.549                  -0.749453        -145.888         -54.3023         12.1269         -54.2304         12.7221       -0.0113913         147.833
0.55                   -0.765855         -146.42         -54.1548         10.5826         -54.0913         11.1304       -0.0115113         147.763
0.551                  -0.782489        -146.955         -54.0096         9.03334         -53.9539         9.53343       -0.0116325         147.694
0.552                  -0.799362        -147.493         -53.8667         7.47849         -53.8183         7.93102       -0.0117551         147.624
0.553                  -0.816481        -148.034         -53.7262         5.91763         -53.6845         6.32299        -0.011879         147.554
0.554                  -0.833855        -148.577         -53.5879         4.35037         -53.5524          4.7092       -0.0120041         147.483
0.555                  -0.851489        -149.124         -53.4519         2.77635         -53.4221         3.08953       -0.0121306         147.413
0.556                  -0.869394        -149.674         -53.3182         1.19529         -53.2935         1.46391       -0.0122585         147.343
0.557                  -0.887576        -150.227         -53.1867       -0.393066         -53.1667       -0.167722       -0.0123877         147.272
0.558                  -0.906044        -150.783         -53.0574        -1.98889         -53.0417        -1.80539       -0.0125183         147.201
0.559                  -0.924808        -151.343         -52.9303        -3.59233         -52.9185        -3.44909       -0.0126502         147.131
0.56                   -0.943877        -151.906         -52.8054        -5.20347         -52.7971         -5.0988       -0.0127836          147.06
0.561                  -0.963261        -152.472         -52.6826        -6.82234         -52.6774        -6.75446       -0.0129184         146.989
0.562                  -0.982969        -153.041          -52.562        -8.44896         -52.5595        -8.41598       -0.0130546         146.918
0.563                   -1.00301        -153.614         -52.4434        -10.0833         -52.4434        -10.0833       -0.0131922         146.846
0.564                    -1.0234         -154.19         -52.3269        -11.7252         -52.3291        -11.7562       -0.0133313         146.775
0.565                   -1.04415         -154.77         -52.2125        -13.3746         -52.2165        -13.4346       -0.0134719         146.703
0.566                   -1.06527        -155.354            -52.1        -15.0314         -52.1057        -15.1184       -0.0136139         146.632
0.567                   -1.08677        -155.941         -51.9896        -16.6953         -51.9966        -16.8073       -0.0137575          146.56
0.568                   -1.10866        -156.532         -51.8812        -18.3662         -51.8893        -18.5011       -0.0139026         146.488
0.569                   -1.13096        -157.126         -51.7746        -20.0438         -51.7838        -20.1996       -0.0140492         146.416
0.57                    -1.15368        -157.724         -51.6701        -21.7278           -51.68        -21.9026       -0.0141973         146.344
0.571                   -1.17684        -158.326         -51.5674        -23.4179          -51.578        -23.6098       -0.0143471         146.271
0.572                   -1.20044        -158.932         -51.4665        -25.1139         -51.4776         -25.321       -0.0144984         146.199
0.573                   -1.22451        -159.542         -51.3675        -26.8153          -51.379        -27.0358       -0.0146513         146.126
0.574                   -1.24906        -160.155         -51.2704        -28.5219         -51.2821         -28.754       -0.0148059         146.053
0.575                    -1.2741        -160.773          -51.175        -30.2333         -51.1869        -30.4753        -0.014962         145.981
0.576                   -1.29966        -161.395         -51.0814         -31.949         -51.0933        -32.1994       -0.0151199         145.908
0.577                   -1.32574         -162.02         -50.9895        -33.6688         -51.0014        -33.9259       -0.0152794         145.834
0.578                   -1.35237         -162.65         -50.8994        -35.3923         -50.9111        -35.6545       -0.0154407         145.761
0.579                   -1.37957        -163.284         -50.8109        -37.1189         -50.8225         -37.385       -0.0156036         145.688
0.58                    -1.40734        -163.921          -50.724        -38.8483         -50.7355         -39.117       -0.0157683         145.614
0.581                   -1.43572        -164.564         -50.6388        -40.5802           -50.65        -40.8501       -0.0159348          145.54
0.582                   -1.46472         -165.21         -50.5552         -42.314         -50.5661         -42.584        -0.016103         145.466
0.583                   -1.49436         -165.86         -50.4731        -44.0494         -50.4837        -44.3184        -0.016273         145.392
0.584                   -1.52466        -166.515         -50.3926         -45.786         -50.4028        -46.0529       -0.0164449         145.318
0.585                   -1.55564        -167.174         -50.3136        -47.5234         -50.3234        -47.7873       -0.0166186         145.243
0.586                   -1.58733        -167.837          -50.236        -49.2611         -50.2454        -49.5212       -0.0167942         145.169
0.587                   -1.61974        -168.504         -50.1598        -50.9987         -50.1689        -51.2542       -0.0169716         145.094
0.588                    -1.6529        -169.176         -50.0851         -52.736         -50.0937        -52.9861        -0.017151         145.019
0.589                   -1.68683        -169.852         -50.0117        -54.4724         -50.0199        -54.7166       -0.0173324         144.944
0.59                    -1.72156        -170.532         -49.9396        -56.2076         -49.9474        -56.4453       -0.0175157         144.869
0.591                   -1.75711        -171.216         -49.8688        -57.9413         -49.8762        -58.1719        -0.017701         144.794
0.592                   -1.79351        -171.905         -49.7992         -59.673         -49.8062        -59.8962       -0.0178883         144.718
0.593                   -1.83077        -172.598         -49.7309        -61.4025         -49.7375        -61.6178       -0.0180776         144.642
0.594                   -1.86893        -173.295         -49.6637        -63.1295         -49.6699        -63.3366        -0.018269         144.566
0.595                   -1.90801        -173.997         -49.5976        -64.8535         -49.6035        -65.0521       -0.0184625          144.49
0.596                   -1.94804        -174.702         -49.5327        -66.5743         -49.5381        -66.7643       -0.0186582         144.414
0.597                   -1.98904        -175.412         -49.4687        -68.2917         -49.4738        -68.4728        -0.018856         144.338
0.598                   -2.03105        -176.126         -49.4058        -70.0052         -49.4106        -70.1775       -0.0190559         144.261
0.599                   -2.07409        -176.843         -49.3439        -71.7148         -49.3483         -71.878       -0.0192581         144.184
0.6                     -2.11818        -177.565         -49.2829          -73.42          -49.287        -73.5742       -0.0194626         144.107
0.601                   -2.16336        -178.291         -49.2227        -75.1208         -49.2265         -75.266       -0.0196693          144.03
0.602                   -2.20966        -179.021         -49.1635        -76.8168         -49.1669         -76.953       -0.0198783         143.953
0.603                    -2.2571        -179.754          -49.105        -78.5079         -49.1082        -78.6352       -0.0200896         143.875
0.604                   -2.30572         179.508         -49.0473        -80.1938         -49.0502        -80.3124       -0.0203033         143.797
0.605                   -2.35554         178.768         -48.9903        -81.8745         -48.9929        -81.9844       -0.0205194         143.719
0.606                    -2.4066         178.023          -48.934        -83.5497         -48.9364        -83.6512       -0.0207379         143.641
0.607                   -2.45891         177.275         -48.8784        -85.2193         -48.8805        -85.3125       -0.0209589         143.563
0.608                   -2.51253         176.524         -48.8234        -86.8832         -48.8253        -86.9683       -0.0211824         143.484
0.609                   -2.56746          175.77         -48.7689        -88.5412         -48.7706        -88.6184       -0.0214085         143.405
0.61                    -2.62375         175.012          -48.715        -90.1933         -48.7165        -90.2629       -0.0216371         143.326
0.611                   -2.68142         174.251         -48.6615        -91.8393         -48.6628        -91.9015       -0.0218684         143.247
0.612                   -2.74051         173.488         -48.6085        -93.4792         -48.6097        -93.5343       -0.0221023         143.168
0.613                   -2.80104         172.722          -48.556        -95.1129          -48.557        -95.1612       -0.0223389         143.088
0.614                   -2.86304         171.953         -48.5038        -96.7403         -48.5047        -96.7821       -0.0225782         143.008
0.615                   -2.92655         171.182          -48.452        -98.3615         -48.4527         -98.397       -0.0228203         142.928
0.616                   -2.99158         170.409         -48.4005        -99.9764         -48.4011        -100.006       -0.0230653         142.848
0.617                   -3.05818         169.633         -48.3493        -101.585         -48.3497        -101.609       -0.0233131         142.767
0.618                   -3.12637         168.856         -48.2983        -103.187         -48.2987        -103.206       -0.0235638         142.687
0.619                   -3.19618         168.078         -48.2476        -104.783         -48.2478        -104.796       -0.0238174         142.606
0.62                    -3.26763         167.297          -48.197        -106.372         -48.1972        -106.381       -0.0240741         142.524
0.621                   -3.34075         166.516         -48.1466        -107.956         -48.1467         -107.96       -0.0243338         142.443
0.622                   -3.41558         165.733         -48.0963        -109.532         -48.0963        -109.532       -0.0245966         142.361
0.623                   -3.49213          164.95         -48.0462        -111.103         -48.0461        -111.099       -0.0248626         142.279
0.624                   -3.57043         164.166         -47.9961        -112.667          -47.996         -112.66       -0.0251318         142.197
0.625                    -3.6505         163.382         -47.9461        -114.226         -47.9459        -114.215       -0.0254042         142.114
0.626                   -3.73238         162.598          -47.896        -115.778         -47.8958        -115.764         -0.02568         142.032
0.627                   -3.81608         161.814          -47.846        -117.324         -47.8458        -117.307       -0.0259591         141.949
0.628                   -3.90162         161.031          -47.796        -118.864         -47.7957        -118.844       -0.0262417         141.865
0.629                   -3.98903         160.248         -47.7459        -120.398         -47.7456        -120.376       -0.0265278         141.782
