! TOUCHSTONE file generated by CST MICROWAVE STUDIO
! Date and time: Wed Oct 28 19:40:24 2020
! Project name: Scenario_1_Circular_Tissue_out_of_Line_v2.cst
! Parameters = {dy1=276.8; L_HA=400; MT=2.54; Rad_Dielectric=30; Rad_Lower=7.3; Rad_Upper=30; a_HA=580; a_WG=246; b_HA=500; b_WG=121; c_HA=0; c_WG=187; d_feed=85; dx1=346; h_feed=15; h_lower=18; h_upper=40}
! Header version: 2018
! Port assignment regex: !\s*Touchstone port\s*([0-9]+)\s*=\s*(CST MWS port|CST DS port)\s*([0-9]+|Zmin|Zmax)\s*\(\"(.*)\"\)(\s*mode\s*([0-9]+))?.*
! Touchstone port assignment:
! Touchstone port 1 = CST MWS port 1 ("")
! Touchstone port 2 = CST MWS port 2 ("")
# GHz S DB R 50
0.5                      -0.1459        -122.325         -62.1276        -6.42934         -62.1276        -6.42934      -0.00795062         151.111
0.501                  -0.149076        -122.769         -62.0058        -7.70182         -62.0056        -7.70175      -0.00800413         151.046
0.502                  -0.152465        -123.215         -61.8829        -8.98354         -61.8827         -8.9834      -0.00805838         150.981
0.503                  -0.156073        -123.663         -61.7591        -10.2745         -61.7588        -10.2743      -0.00811338         150.915
0.504                  -0.159906        -124.114         -61.6343        -11.5748         -61.6339        -11.5746      -0.00816915          150.85
0.505                   -0.16397        -124.568         -61.5086        -12.8845         -61.5081        -12.8842      -0.00822567         150.784
0.506                  -0.168271        -125.024          -61.382        -14.2035         -61.3814        -14.2031      -0.00828297         150.719
0.507                  -0.172816        -125.483         -61.2545        -15.5319         -61.2538        -15.5315      -0.00834106         150.653
0.508                   -0.17761        -125.944         -61.1261        -16.8698         -61.1252        -16.8694      -0.00839993         150.587
0.509                  -0.182661        -126.408         -60.9968        -18.2172         -60.9959        -18.2167       -0.0084596         150.521
0.51                   -0.187975        -126.874         -60.8666        -19.5741         -60.8656        -19.5735      -0.00852007         150.455
0.511                  -0.193559        -127.343         -60.7356        -20.9405         -60.7346        -20.9399      -0.00858136         150.389
0.512                  -0.199419        -127.814         -60.6038        -22.3164         -60.6027        -22.3159      -0.00864348         150.323
0.513                  -0.205563        -128.288         -60.4712         -23.702           -60.47        -23.7015      -0.00870643         150.257
0.514                  -0.211996        -128.765         -60.3378        -25.0972         -60.3366        -25.0966      -0.00877021         150.191
0.515                  -0.218727        -129.244         -60.2037        -26.5021         -60.2025        -26.5015      -0.00883485         150.125
0.516                  -0.225763        -129.726         -60.0689        -27.9165         -60.0676         -27.916      -0.00890035         150.058
0.517                  -0.233109         -130.21         -59.9334        -29.3407          -59.932        -29.3402      -0.00896672         149.992
0.518                  -0.240775        -130.697         -59.7972        -30.7746         -59.7958        -30.7741      -0.00903397         149.925
0.519                  -0.248766        -131.187         -59.6604        -32.2182          -59.659        -32.2177      -0.00910211         149.858
0.52                    -0.25709        -131.679          -59.523        -33.6715         -59.5215         -33.671      -0.00917114         149.792
0.521                  -0.265755        -132.173          -59.385        -35.1345         -59.3835         -35.134      -0.00924109         149.725
0.522                  -0.274767         -132.67         -59.2465        -36.6072          -59.245        -36.6068      -0.00931195         149.658
0.523                  -0.284134         -133.17         -59.1074        -38.0897         -59.1059        -38.0893      -0.00938374         149.591
0.524                  -0.293864        -133.672         -58.9679        -39.5818         -58.9664        -39.5815      -0.00945647         149.524
0.525                  -0.303964        -134.177         -58.8279        -41.0837         -58.8264        -41.0834      -0.00953015         149.456
0.526                  -0.314441        -134.684         -58.6876        -42.5953          -58.686         -42.595      -0.00960479         149.389
0.527                  -0.325303        -135.193         -58.5469        -44.1165         -58.5453        -44.1162      -0.00968041         149.322
0.528                  -0.336556        -135.705         -58.4058        -45.6473         -58.4043        -45.6471      -0.00975701         149.254
0.529                  -0.348209         -136.22         -58.2644        -47.1877         -58.2629        -47.1876       -0.0098346         149.187
0.53                   -0.360267        -136.736         -58.1229        -48.7377         -58.1213        -48.7376      -0.00991319         149.119
0.531                   -0.37274        -137.256          -57.981        -50.2972         -57.9795        -50.2972      -0.00999281         149.051
0.532                  -0.385633        -137.777         -57.8391        -51.8662         -57.8376        -51.8662       -0.0100735         148.983
0.533                  -0.398953        -138.301          -57.697        -53.4445         -57.6955        -53.4446       -0.0101551         148.915
0.534                  -0.412708        -138.827         -57.5548        -55.0322         -57.5533        -55.0323       -0.0102379         148.847
0.535                  -0.426904        -139.355         -57.4125        -56.6291         -57.4111        -56.6292       -0.0103217         148.779
0.536                  -0.441548        -139.886         -57.2703        -58.2352         -57.2689        -58.2354       -0.0104066         148.711
0.537                  -0.456647        -140.419         -57.1281        -59.8503         -57.1267        -59.8505       -0.0104926         148.642
0.538                  -0.472206        -140.954          -56.986        -61.4744         -56.9847        -61.4747       -0.0105796         148.574
0.539                  -0.488231        -141.491          -56.844        -63.1074         -56.8427        -63.1077       -0.0106678         148.505
0.54                    -0.50473         -142.03         -56.7022         -64.749         -56.7009        -64.7494       -0.0107572         148.437
0.541                  -0.521706        -142.571         -56.5606        -66.3993         -56.5594        -66.3997       -0.0108477         148.368
0.542                  -0.539167        -143.115         -56.4193        -68.0581         -56.4181        -68.0584       -0.0109393         148.299
0.543                  -0.557116         -143.66         -56.2783        -69.7251         -56.2771        -69.7255       -0.0110321          148.23
0.544                  -0.575559        -144.207         -56.1376        -71.4003         -56.1365        -71.4007       -0.0111261         148.161
0.545                  -0.594501        -144.756         -55.9973        -73.0835         -55.9962        -73.0839       -0.0112213         148.092
0.546                  -0.613945        -145.307         -55.8574        -74.7745         -55.8564        -74.7749       -0.0113177         148.022
0.547                  -0.633896         -145.86          -55.718        -76.4731         -55.7171        -76.4735       -0.0114154         147.953
0.548                  -0.654357        -146.414         -55.5792        -78.1791         -55.5783        -78.1795       -0.0115143         147.883
0.549                  -0.675332         -146.97         -55.4408        -79.8923           -55.44        -79.8927       -0.0116145         147.814
0.55                   -0.696824        -147.528         -55.3031        -81.6125         -55.3023        -81.6129       -0.0117159         147.744
0.551                  -0.718834        -148.087          -55.166        -83.3395         -55.1652        -83.3398       -0.0118187         147.674
0.552                  -0.741365        -148.648         -55.0296         -85.073         -55.0289        -85.0733       -0.0119227         147.604
0.553                  -0.764419         -149.21         -54.8938        -86.8128         -54.8932        -86.8131       -0.0120281         147.534
0.554                  -0.787996        -149.774         -54.7588        -88.5587         -54.7582        -88.5589       -0.0121348         147.464
0.555                  -0.812098        -150.339         -54.6246        -90.3104          -54.624        -90.3105       -0.0122429         147.393
0.556                  -0.836724        -150.905         -54.4911        -92.0675         -54.4906        -92.0676       -0.0123524         147.323
0.557                  -0.861874        -151.473         -54.3585          -93.83          -54.358          -93.83       -0.0124633         147.252
0.558                  -0.887548        -152.042         -54.2267        -95.5974         -54.2263        -95.5974       -0.0125756         147.182
0.559                  -0.913743        -152.612         -54.0958        -97.3695         -54.0954        -97.3694       -0.0126893         147.111
0.56                   -0.940459        -153.183         -53.9658        -99.1461         -53.9655        -99.1459       -0.0128045          147.04
0.561                  -0.967692        -153.755         -53.8367        -100.927         -53.8364        -100.926       -0.0129212         146.969
0.562                   -0.99544        -154.328         -53.7086        -102.711         -53.7083        -102.711       -0.0130393         146.897
0.563                    -1.0237        -154.902         -53.5814        -104.499         -53.5812        -104.499        -0.013159         146.826
0.564                   -1.05246        -155.478         -53.4551        -106.291          -53.455         -106.29       -0.0132802         146.755
0.565                   -1.08173        -156.054         -53.3299        -108.085         -53.3298        -108.084        -0.013403         146.683
0.566                    -1.1115         -156.63         -53.2056        -109.882         -53.2055        -109.881       -0.0135273         146.611
0.567                   -1.14176        -157.208         -53.0823        -111.682         -53.0823        -111.681       -0.0136532         146.539
0.568                    -1.1725        -157.786         -52.9601        -113.483         -52.9601        -113.482       -0.0137808         146.467
0.569                   -1.20373        -158.366         -52.8388        -115.286         -52.8388        -115.285         -0.01391         146.395
0.57                    -1.23542        -158.946         -52.7186        -117.091         -52.7186         -117.09       -0.0140408         146.323
0.571                   -1.26758        -159.526         -52.5993        -118.897         -52.5994        -118.896       -0.0141734          146.25
0.572                    -1.3002        -160.107          -52.481        -120.705         -52.4811        -120.703       -0.0143076         146.178
0.573                   -1.33327        -160.689         -52.3638        -122.513         -52.3639        -122.511       -0.0144436         146.105
0.574                   -1.36677        -161.272         -52.2475        -124.321         -52.2476        -124.319       -0.0145813         146.032
0.575                   -1.40071        -161.855         -52.1322         -126.13         -52.1324        -126.128       -0.0147208         145.959
0.576                   -1.43506        -162.439         -52.0179        -127.938          -52.018        -127.936       -0.0148621         145.886
0.577                   -1.46983        -163.024         -51.9045        -129.747         -51.9047        -129.744       -0.0150053         145.813
0.578                   -1.50501        -163.609         -51.7921        -131.555         -51.7923        -131.552       -0.0151503         145.739
0.579                   -1.54057        -164.196         -51.6806        -133.362         -51.6808        -133.359       -0.0152972         145.666
0.58                    -1.57652        -164.782         -51.5699        -135.168         -51.5702        -135.166        -0.015446         145.592
0.581                   -1.61284         -165.37         -51.4602        -136.974         -51.4605        -136.971       -0.0155967         145.518
0.582                   -1.64952        -165.959         -51.3514        -138.778         -51.3516        -138.775       -0.0157494         145.444
0.583                   -1.68656        -166.548         -51.2434        -140.581         -51.2436        -140.578        -0.015904          145.37
0.584                   -1.72394        -167.138         -51.1362        -142.383         -51.1364         -142.38       -0.0160607         145.295
0.585                   -1.76166         -167.73         -51.0298        -144.182           -51.03        -144.179       -0.0162195         145.221
0.586                   -1.79971        -168.322         -50.9242         -145.98         -50.9244        -145.977       -0.0163803         145.146
0.587                   -1.83807        -168.916         -50.8194        -147.777         -50.8196        -147.774       -0.0165432         145.071
0.588                   -1.87674        -169.511         -50.7152        -149.571         -50.7155        -149.568       -0.0167083         144.996
0.589                   -1.91572        -170.107         -50.6118        -151.363          -50.612         -151.36       -0.0168755         144.921
0.59                      -1.955        -170.705         -50.5091        -153.153         -50.5093         -153.15        -0.017045         144.846
0.591                   -1.99456        -171.305          -50.407        -154.941         -50.4072        -154.938       -0.0172167          144.77
0.592                   -2.03442        -171.906         -50.3055        -156.727         -50.3057        -156.723       -0.0173906         144.694
0.593                   -2.07456        -172.509         -50.2047         -158.51         -50.2048        -158.507       -0.0175668         144.619
0.594                   -2.11498        -173.114         -50.1044        -160.291         -50.1045        -160.288       -0.0177454         144.542
0.595                   -2.15569        -173.721         -50.0046         -162.07         -50.0048        -162.067       -0.0179264         144.466
0.596                   -2.19668         -174.33         -49.9054        -163.847         -49.9056        -163.844       -0.0181097          144.39
0.597                   -2.23795        -174.942         -49.8067        -165.621         -49.8068        -165.618       -0.0182955         144.313
0.598                    -2.2795        -175.557         -49.7085        -167.394         -49.7086         -167.39       -0.0184838         144.236
0.599                   -2.32135        -176.174         -49.6107        -169.164         -49.6108         -169.16       -0.0186745         144.159
0.6                      -2.3635        -176.794         -49.5134        -170.931         -49.5135        -170.928       -0.0188679         144.082
0.601                   -2.40596        -177.418         -49.4165        -172.697         -49.4165        -172.694       -0.0190638         144.005
0.602                   -2.44873        -178.045           -49.32        -174.461           -49.32        -174.458       -0.0192624         143.927
0.603                   -2.49183        -178.675         -49.2238        -176.223         -49.2238         -176.22       -0.0194636          143.85
0.604                   -2.53528        -179.309          -49.128        -177.982          -49.128        -177.979       -0.0196675         143.772
0.605                   -2.57909        -179.947         -49.0326         -179.74         -49.0326        -179.738       -0.0198742         143.693
0.606                   -2.62328         179.411         -48.9375         178.503         -48.9374         178.506       -0.0200837         143.615
0.607                   -2.66787         178.764         -48.8426         176.749         -48.8426         176.751        -0.020296         143.537
0.608                   -2.71288         178.113         -48.7481         174.996         -48.7481         174.998       -0.0205113         143.458
0.609                   -2.75835         177.458         -48.6539         173.244         -48.6538         173.246       -0.0207294         143.379
0.61                    -2.80429         176.797           -48.56         171.493         -48.5599         171.496       -0.0209505           143.3
0.611                   -2.85074         176.132         -48.4663         169.744         -48.4662         169.746       -0.0211747          143.22
0.612                   -2.89773         175.461         -48.3729         167.996         -48.3727         167.998       -0.0214019          143.14
0.613                    -2.9453         174.785         -48.2797         166.249         -48.2795         166.251       -0.0216323         143.061
0.614                   -2.99348         174.103         -48.1868         164.503         -48.1866         164.504       -0.0218658         142.981
0.615                   -3.04232         173.415         -48.0941         162.757         -48.0939         162.759       -0.0221025           142.9
0.616                   -3.09185         172.721         -48.0016         161.012         -48.0015         161.014       -0.0223425          142.82
0.617                   -3.14213         172.022         -47.9095         159.268         -47.9093         159.269       -0.0225859         142.739
0.618                    -3.1932         171.316         -47.8175         157.523         -47.8173         157.525       -0.0228326         142.658
0.619                   -3.24511         170.603         -47.7258          155.78         -47.7256         155.781       -0.0230828         142.577
0.62                    -3.29791         169.885         -47.6343         154.036         -47.6341         154.037       -0.0233365         142.495
0.621                   -3.35166         169.159         -47.5431         152.292         -47.5429         152.293       -0.0235938         142.414
0.622                   -3.40642         168.427         -47.4522         150.549         -47.4519         150.549       -0.0238547         142.332
0.623                   -3.46224         167.688         -47.3615         148.805         -47.3612         148.805       -0.0241193         142.249
0.624                   -3.51918         166.943          -47.271         147.061         -47.2708         147.061       -0.0243876         142.167
0.625                   -3.57732          166.19         -47.1809         145.316         -47.1806         145.316       -0.0246598         142.084
0.626                   -3.63671         165.431         -47.0911         143.571         -47.0908         143.571       -0.0249359         142.001
0.627                   -3.69742         164.664         -47.0015         141.826         -47.0012         141.826        -0.025216         141.918
0.628                   -3.75952         163.891         -46.9123          140.08          -46.912          140.08       -0.0255001         141.834
0.629                   -3.82309         163.111         -46.8234         138.333         -46.8231         138.333       -0.0257883         141.751
