! TOUCHSTONE file generated by CST MICROWAVE STUDIO
! Date and time: Fri Oct 30 08:06:41 2020
! Project name: Scenario_1_Circular_Tissue_out_of_Line.cst
! Parameters = {dy1=278.276; L_HA=400; MT=2.54; Rad_Dielectric=30; Rad_Lower=7.3; Rad_Upper=30; a_HA=580; a_WG=246; b_HA=500; b_WG=121; c_HA=0; c_WG=187; d_feed=85; dx1=520; h_feed=15; h_lower=18; h_upper=40}
! Header version: 2018
! Port assignment regex: !\s*Touchstone port\s*([0-9]+)\s*=\s*(CST MWS port|CST DS port)\s*([0-9]+|Zmin|Zmax)\s*\(\"(.*)\"\)(\s*mode\s*([0-9]+))?.*
! Touchstone port assignment:
! Touchstone port 1 = CST MWS port 1 ("")
! Touchstone port 2 = CST MWS port 2 ("")
# GHz S DB R 50
0.5                    -0.146186        -122.501         -63.2138        -84.7953         -63.2138        -84.7953      -0.00726372         151.133
0.501                  -0.143905         -122.96         -63.2777        -87.5206         -63.2779        -87.5213      -0.00732795         151.068
0.502                  -0.141929        -123.421         -63.3312        -90.2949         -63.3317        -90.2964      -0.00739307         151.003
0.503                  -0.140262        -123.885         -63.3736         -93.114         -63.3744        -93.1163      -0.00745907         150.937
0.504                  -0.138912        -124.352         -63.4044        -95.9729         -63.4054        -95.9763      -0.00752597         150.872
0.505                  -0.137884        -124.821          -63.423        -98.8663         -63.4242        -98.8708      -0.00759378         150.806
0.506                  -0.137183        -125.293          -63.429        -101.788         -63.4304        -101.794      -0.00766248          150.74
0.507                  -0.136815        -125.768          -63.422        -104.733         -63.4236         -104.74      -0.00773211         150.675
0.508                  -0.136787        -126.245         -63.4019        -107.693         -63.4037        -107.701      -0.00780264         150.609
0.509                  -0.137103        -126.725         -63.3685        -110.663         -63.3704        -110.672       -0.0078741         150.543
0.51                   -0.137771        -127.208         -63.3218        -113.634         -63.3238        -113.646       -0.0079465         150.477
0.511                  -0.138795        -127.693          -63.262        -116.602         -63.2641        -116.615      -0.00801982         150.411
0.512                  -0.140183         -128.18         -63.1892        -119.558         -63.1915        -119.573      -0.00809409         150.345
0.513                  -0.141939        -128.671          -63.104        -122.498         -63.1063        -122.514       -0.0081693         150.279
0.514                  -0.144071        -129.164         -63.0067        -125.415         -63.0091        -125.432      -0.00824547         150.212
0.515                  -0.146583        -129.659         -62.8979        -128.304         -62.9003        -128.322       -0.0083226         150.146
0.516                  -0.149482        -130.157         -62.7782         -131.16         -62.7806         -131.18      -0.00840069          150.08
0.517                  -0.152775        -130.658         -62.6483        -133.979         -62.6507            -134      -0.00847976         150.013
0.518                  -0.156466        -131.161         -62.5088        -136.758         -62.5113         -136.78       -0.0085598         149.946
0.519                  -0.160563        -131.667         -62.3607        -139.493          -62.363        -139.517      -0.00864084          149.88
0.52                   -0.165071        -132.175         -62.2045        -142.183         -62.2068        -142.207      -0.00872286         149.813
0.521                  -0.169996        -132.686         -62.0411        -144.825         -62.0433        -144.851      -0.00880589         149.746
0.522                  -0.175344          -133.2         -61.8711        -147.419         -61.8733        -147.446      -0.00888992         149.679
0.523                  -0.181121        -133.716         -61.6954        -149.964         -61.6976        -149.991      -0.00897498         149.612
0.524                  -0.187334        -134.234         -61.5147        -152.459         -61.5168        -152.487      -0.00906105         149.545
0.525                  -0.193988        -134.755         -61.3295        -154.906         -61.3315        -154.934      -0.00914815         149.478
0.526                   -0.20109        -135.278         -61.1406        -157.303         -61.1425        -157.333      -0.00923629          149.41
0.527                  -0.208644        -135.804         -60.9485        -159.654         -60.9504        -159.683      -0.00932548         149.343
0.528                  -0.216658        -136.332         -60.7538        -161.957         -60.7556        -161.987      -0.00941572         149.275
0.529                  -0.225137        -136.862          -60.557        -164.215         -60.5586        -164.246      -0.00950703         149.208
0.53                   -0.234088        -137.395         -60.3585         -166.43           -60.36        -166.461       -0.0095994          149.14
0.531                  -0.243514         -137.93         -60.1587        -168.602         -60.1602        -168.633      -0.00969285         149.072
0.532                  -0.253424        -138.468         -59.9582        -170.734         -59.9596        -170.765      -0.00978739         149.004
0.533                  -0.263822        -139.008         -59.7571        -172.826         -59.7584        -172.858      -0.00988303         148.937
0.534                  -0.274714         -139.55         -59.5558        -174.882         -59.5571        -174.913      -0.00997977         148.868
0.535                  -0.286106        -140.095         -59.3546        -176.903         -59.3558        -176.934       -0.0100776           148.8
0.536                  -0.298004        -140.642         -59.1538         -178.89          -59.155        -178.921       -0.0101766         148.732
0.537                  -0.310412        -141.191         -58.9536         179.154         -58.9546         179.123       -0.0102767         148.664
0.538                  -0.323337        -141.742         -58.7541         177.229         -58.7551         177.198        -0.010378         148.595
0.539                  -0.336784        -142.295         -58.5556         175.331         -58.5565         175.301       -0.0104804         148.527
0.54                   -0.350759        -142.851         -58.3581          173.46          -58.359          173.43        -0.010584         148.458
0.541                  -0.365266        -143.409         -58.1619         171.614         -58.1627         171.584       -0.0106887         148.389
0.542                  -0.380311        -143.968          -57.967         169.791         -57.9678         169.761       -0.0107946          148.32
0.543                    -0.3959         -144.53         -57.7736         167.989         -57.7743          167.96       -0.0109017         148.251
0.544                  -0.412036        -145.094         -57.5817         166.208         -57.5824         166.179       -0.0110101         148.182
0.545                  -0.428726         -145.66         -57.3914         164.446          -57.392         164.417       -0.0111196         148.113
0.546                  -0.445975        -146.228         -57.2028         162.701         -57.2034         162.672       -0.0112304         148.044
0.547                  -0.463786        -146.798         -57.0159         160.972         -57.0164         160.944       -0.0113424         147.974
0.548                  -0.482166         -147.37         -56.8307         159.258         -56.8312          159.23       -0.0114556         147.905
0.549                  -0.501118        -147.944         -56.6474         157.558         -56.6479         157.531       -0.0115701         147.835
0.55                   -0.520647         -148.52         -56.4659          155.87         -56.4663         155.843       -0.0116859         147.766
0.551                  -0.540758        -149.097         -56.2862         154.194         -56.2867         154.168        -0.011803         147.696
0.552                  -0.561456        -149.677         -56.1085         152.528         -56.1089         152.502       -0.0119213         147.626
0.553                  -0.582744        -150.258         -55.9326         150.872          -55.933         150.846        -0.012041         147.556
0.554                  -0.604627        -150.841         -55.7586         149.224          -55.759         149.199        -0.012162         147.485
0.555                  -0.627108        -151.426         -55.5865         147.583         -55.5869         147.559       -0.0122843         147.415
0.556                  -0.650193        -152.012         -55.4163          145.95         -55.4167         145.926        -0.012408         147.345
0.557                  -0.673885          -152.6         -55.2481         144.322         -55.2484         144.298       -0.0125331         147.274
0.558                  -0.698188         -153.19         -55.0817         142.699         -55.0821         142.676       -0.0126595         147.203
0.559                  -0.723105        -153.781         -54.9173         141.081         -54.9176         141.059       -0.0127873         147.133
0.56                    -0.74864        -154.374         -54.7547         139.466          -54.755         139.444       -0.0129165         147.062
0.561                  -0.774798        -154.968         -54.5941         137.855         -54.5944         137.833       -0.0130472         146.991
0.562                   -0.80158        -155.564         -54.4353         136.245         -54.4356         136.225       -0.0131793          146.92
0.563                  -0.828991        -156.161         -54.2784         134.638         -54.2787         134.618       -0.0133128         146.848
0.564                  -0.857034         -156.76         -54.1234         133.032         -54.1236         133.012       -0.0134478         146.777
0.565                  -0.885712         -157.36         -53.9702         131.426         -53.9705         131.407       -0.0135843         146.705
0.566                  -0.915027        -157.962         -53.8189          129.82         -53.8191         129.802       -0.0137223         146.634
0.567                  -0.944984        -158.565         -53.6694         128.214         -53.6696         128.196       -0.0138618         146.562
0.568                  -0.975585        -159.169         -53.5217         126.608         -53.5219          126.59       -0.0140028          146.49
0.569                   -1.00683        -159.775         -53.3758         124.999         -53.3761         124.982       -0.0141454         146.418
0.57                    -1.03873        -160.382         -53.2317          123.39          -53.232         123.373       -0.0142895         146.346
0.571                   -1.07128         -160.99         -53.0894         121.778         -53.0897         121.762       -0.0144353         146.273
0.572                   -1.10448        -161.599         -52.9489         120.163         -52.9491         120.148       -0.0145826         146.201
0.573                   -1.13834        -162.209         -52.8101         118.546         -52.8104         118.531       -0.0147316         146.128
0.574                   -1.17286        -162.821         -52.6731         116.925         -52.6733         116.911       -0.0148822         146.055
0.575                   -1.20804        -163.433         -52.5378         115.301          -52.538         115.288       -0.0150344         145.982
0.576                   -1.24388        -164.047         -52.4042         113.674         -52.4045          113.66       -0.0151884         145.909
0.577                   -1.28039        -164.661         -52.2723         112.042         -52.2726         112.029       -0.0153441         145.836
0.578                   -1.31756        -165.277         -52.1422         110.406         -52.1424         110.393       -0.0155014         145.763
0.579                   -1.35541        -165.894         -52.0136         108.765         -52.0139         108.753       -0.0156606         145.689
0.58                    -1.39393        -166.511         -51.8868         107.119          -51.887         107.108       -0.0158215         145.616
0.581                   -1.43312         -167.13         -51.7616         105.469         -51.7618         105.458       -0.0159842         145.542
0.582                   -1.47299        -167.749         -51.6381         103.813         -51.6383         103.803       -0.0161487         145.468
0.583                   -1.51353         -168.37         -51.5161         102.152         -51.5164         102.142        -0.016315         145.394
0.584                   -1.55475        -168.991         -51.3958         100.485          -51.396         100.476       -0.0164832         145.319
0.585                   -1.59665        -169.613         -51.2771         98.8129         -51.2773         98.8042       -0.0166533         145.245
0.586                   -1.63924        -170.236         -51.1599         97.1347         -51.1602         97.1264       -0.0168253          145.17
0.587                    -1.6825        -170.859         -51.0444         95.4505         -51.0446         95.4427       -0.0169992         145.095
0.588                   -1.72646        -171.484         -50.9303         93.7602         -50.9306         93.7529       -0.0171751         145.021
0.589                    -1.7711        -172.109         -50.8178         92.0639         -50.8181          92.057        -0.017353         144.945
0.59                    -1.81643        -172.735         -50.7069         90.3612         -50.7071         90.3549       -0.0175328          144.87
0.591                   -1.86245        -173.361         -50.5974         88.6523         -50.5976         88.6464       -0.0177148         144.795
0.592                   -1.90916        -173.989         -50.4895         86.9371         -50.4897         86.9316       -0.0178988         144.719
0.593                   -1.95657        -174.617          -50.383         85.2154         -50.3832         85.2103       -0.0180849         144.643
0.594                   -2.00467        -175.245         -50.2779         83.4874         -50.2781         83.4827       -0.0182731         144.567
0.595                   -2.05347        -175.874         -50.1743         81.7529         -50.1745         81.7486       -0.0184635         144.491
0.596                   -2.10297        -176.504         -50.0722         80.0119         -50.0724         80.0081       -0.0186561         144.415
0.597                   -2.15317        -177.135         -49.9714         78.2645         -49.9716         78.2611       -0.0188509         144.338
0.598                   -2.20407        -177.766          -49.872         76.5107         -49.8722         76.5076        -0.019048         144.262
0.599                   -2.25568        -178.398          -49.774         74.7505         -49.7742         74.7478       -0.0192473         144.185
0.6                       -2.308         -179.03         -49.6773          72.984         -49.6775         72.9816        -0.019449         144.108
0.601                   -2.36103        -179.663          -49.582         71.2112         -49.5821         71.2091       -0.0196531          144.03
0.602                   -2.41477         179.704         -49.4879         69.4321         -49.4881         69.4304       -0.0198595         143.953
0.603                   -2.46922          179.07         -49.3951         67.6468         -49.3953         67.6454       -0.0200684         143.875
0.604                   -2.52439         178.435         -49.3036         65.8554         -49.3038         65.8544       -0.0202797         143.798
0.605                   -2.58029           177.8         -49.2134         64.0581         -49.2135         64.0573       -0.0204936          143.72
0.606                   -2.63691         177.164         -49.1243         62.2548         -49.1244         62.2543         -0.02071         143.641
0.607                   -2.69425         176.528         -49.0364         60.4457         -49.0365         60.4455        -0.020929         143.563
0.608                   -2.75233         175.891         -48.9497         58.6309         -48.9498          58.631       -0.0211506         143.484
0.609                   -2.81114         175.254         -48.8641         56.8105         -48.8642         56.8109       -0.0213749         143.405
0.61                    -2.87069         174.616         -48.7796         54.9847         -48.7797         54.9853       -0.0216019         143.326
0.611                   -2.93099         173.977         -48.6962         53.1536         -48.6963         53.1544       -0.0218317         143.247
0.612                   -2.99203         173.338         -48.6138         51.3173         -48.6139         51.3183       -0.0220642         143.167
0.613                   -3.05382         172.698         -48.5325          49.476         -48.5326         49.4772       -0.0222997         143.088
0.614                   -3.11637         172.058         -48.4522         47.6299         -48.4522         47.6312        -0.022538         143.008
0.615                   -3.17969         171.417         -48.3728          45.779         -48.3728         45.7805       -0.0227793         142.927
0.616                   -3.24377         170.775         -48.2943         43.9236         -48.2944         43.9253       -0.0230236         142.847
0.617                   -3.30863         170.133         -48.2168         42.0638         -48.2168         42.0657        -0.023271         142.766
0.618                   -3.37427          169.49         -48.1401         40.1999         -48.1401         40.2019       -0.0235214         142.685
0.619                    -3.4407         168.847         -48.0642          38.332         -48.0642         38.3341       -0.0237751         142.604
0.62                    -3.50792         168.203         -47.9891         36.4603         -47.9892         36.4625       -0.0240319         142.523
0.621                   -3.57595         167.558         -47.9149         34.5849         -47.9149         34.5872       -0.0242921         142.441
0.622                   -3.64479         166.912         -47.8413         32.7061         -47.8413         32.7085       -0.0245556          142.36
0.623                   -3.71446         166.266         -47.7684         30.8241         -47.7685         30.8266       -0.0248224         142.277
0.624                   -3.78495         165.619         -47.6962         28.9391         -47.6963         28.9416       -0.0250928         142.195
0.625                   -3.85628         164.971         -47.6247         27.0512         -47.6247         27.0538       -0.0253667         142.112
0.626                   -3.92847         164.323         -47.5537         25.1608         -47.5537         25.1634       -0.0256441          142.03
0.627                   -4.00152         163.673         -47.4833         23.2679         -47.4833         23.2706       -0.0259253         141.946
0.628                   -4.07544         163.023         -47.4134         21.3728         -47.4134         21.3755       -0.0262101         141.863
0.629                   -4.15025         162.372         -47.3441         19.4757          -47.344         19.4784       -0.0264988         141.779
