! TOUCHSTONE file generated by CST MICROWAVE STUDIO
! Date and time: Wed Oct 28 19:20:33 2020
! Project name: Scenario_1_Circular_Tissue_out_of_Line.cst
! Parameters = {dy1=278.276; L_HA=400; MT=2.54; Rad_Dielectric=30; Rad_Lower=7.3; Rad_Upper=30; a_HA=580; a_WG=246; b_HA=500; b_WG=121; c_HA=0; c_WG=187; d_feed=85; dx1=693; h_feed=15; h_lower=18; h_upper=40}
! Header version: 2018
! Port assignment regex: !\s*Touchstone port\s*([0-9]+)\s*=\s*(CST MWS port|CST DS port)\s*([0-9]+|Zmin|Zmax)\s*\(\"(.*)\"\)(\s*mode\s*([0-9]+))?.*
! Touchstone port assignment:
! Touchstone port 1 = CST MWS port 1 ("")
! Touchstone port 2 = CST MWS port 2 ("")
# GHz S DB R 50
0.5                    -0.145775        -122.271         -63.7098         172.145         -63.7098         172.145      -0.00767687          151.13
0.501                  -0.148701        -122.742         -63.5881           170.5         -63.5883         170.499      -0.00772956         151.065
0.502                  -0.152007        -123.215         -63.4645         168.845         -63.4648         168.843      -0.00778316             151
0.503                  -0.155697         -123.69         -63.3388         167.179         -63.3392         167.177      -0.00783766         150.934
0.504                  -0.159774        -124.166         -63.2112         165.503         -63.2117           165.5      -0.00789308         150.869
0.505                   -0.16424        -124.644         -63.0816         163.816         -63.0822         163.812      -0.00794943         150.803
0.506                  -0.169099        -125.124           -62.95         162.119         -62.9508         162.114      -0.00800671         150.738
0.507                  -0.174351        -125.605         -62.8166         160.411         -62.8174         160.405      -0.00806493         150.672
0.508                  -0.180001        -126.088         -62.6813         158.692         -62.6822         158.685      -0.00812411         150.606
0.509                  -0.186049        -126.572         -62.5441         156.962         -62.5451         156.955      -0.00818425         150.541
0.51                   -0.192498        -127.058         -62.4051         155.222         -62.4062         155.214      -0.00824535         150.475
0.511                  -0.199349        -127.546         -62.2643          153.47         -62.2655         153.462      -0.00830744         150.409
0.512                  -0.206604        -128.035         -62.1218         151.708         -62.1231         151.699      -0.00837052         150.343
0.513                  -0.214264        -128.526         -61.9776         149.935          -61.979         149.925      -0.00843459         150.276
0.514                  -0.222331        -129.018         -61.8318          148.15         -61.8332          148.14      -0.00849967          150.21
0.515                  -0.230806        -129.511         -61.6843         146.354         -61.6858         146.344      -0.00856577         150.144
0.516                  -0.239689        -130.006         -61.5353         144.547         -61.5368         144.537      -0.00863289         150.077
0.517                  -0.248981        -130.502         -61.3848         142.729         -61.3863         142.718      -0.00870105         150.011
0.518                  -0.258682            -131         -61.2328         140.899         -61.2344         140.888      -0.00877025         149.944
0.519                  -0.268793        -131.499         -61.0794         139.057          -61.081         139.046      -0.00884051         149.878
0.52                   -0.279314        -131.999         -60.9246         137.204         -60.9263         137.192      -0.00891184         149.811
0.521                  -0.290245          -132.5         -60.7686         135.339         -60.7703         135.327      -0.00898424         149.744
0.522                  -0.301584        -133.003         -60.6114         133.462         -60.6131          133.45      -0.00905772         149.677
0.523                  -0.313331        -133.506          -60.453         131.573         -60.4547         131.561      -0.00913231          149.61
0.524                  -0.325487        -134.011         -60.2935         129.672         -60.2952          129.66      -0.00920799         149.543
0.525                  -0.338048        -134.517          -60.133         127.758         -60.1347         127.746       -0.0092848         149.476
0.526                  -0.351014        -135.024         -59.9716         125.833         -59.9733         125.821      -0.00936273         149.409
0.527                  -0.364384        -135.532         -59.8092         123.895          -59.811         123.883       -0.0094418         149.341
0.528                  -0.378155        -136.041         -59.6461         121.944         -59.6479         121.932      -0.00952201         149.274
0.529                  -0.392326        -136.551         -59.4823         119.981          -59.484         119.969      -0.00960339         149.206
0.53                   -0.406893        -137.063         -59.3179         118.005         -59.3196         117.994      -0.00968594         149.138
0.531                  -0.421855        -137.575         -59.1529         116.017         -59.1546         116.005      -0.00976967         149.071
0.532                  -0.437208        -138.088         -58.9874         114.016         -58.9891         114.004      -0.00985459         149.003
0.533                   -0.45295        -138.602         -58.8216         112.002         -58.8232         111.991      -0.00994071         148.935
0.534                  -0.469077        -139.117         -58.6555         109.975         -58.6571         109.964       -0.0100281         148.867
0.535                  -0.485585        -139.632         -58.4892         107.935         -58.4908         107.925       -0.0101166         148.799
0.536                   -0.50247        -140.149         -58.3228         105.883         -58.3243         105.873       -0.0102064          148.73
0.537                  -0.519729        -140.666         -58.1565         103.818         -58.1579         103.808       -0.0102975         148.662
0.538                  -0.537356        -141.185         -57.9902          101.74         -57.9916         101.731       -0.0103898         148.594
0.539                  -0.555348        -141.704          -57.824           99.65         -57.8254         99.6411       -0.0104834         148.525
0.54                     -0.5737        -142.223         -57.6582         97.5471         -57.6595         97.5386       -0.0105782         148.456
0.541                  -0.592405        -142.744         -57.4928         95.4319          -57.494         95.4237       -0.0106744         148.388
0.542                  -0.611459        -143.265         -57.3278         93.3044          -57.329         93.2967       -0.0107719         148.319
0.543                  -0.630857        -143.788         -57.1634         91.1648         -57.1645         91.1575       -0.0108707          148.25
0.544                  -0.650591        -144.311         -56.9997         89.0133         -57.0007         89.0065       -0.0109708         148.181
0.545                  -0.670657        -144.834         -56.8367         86.8503         -56.8377         86.8439       -0.0110723         148.112
0.546                  -0.691048        -145.359         -56.6746         84.6758         -56.6755         84.6698       -0.0111752         148.042
0.547                  -0.711758        -145.884         -56.5134         82.4903         -56.5143         82.4847       -0.0112794         147.973
0.548                  -0.732779         -146.41         -56.3533         80.2939         -56.3541         80.2888        -0.011385         147.903
0.549                  -0.754105        -146.937         -56.1943         78.0872          -56.195         78.0825       -0.0114919         147.834
0.55                   -0.775728        -147.465         -56.0365         75.8704         -56.0371         75.8661       -0.0116003         147.764
0.551                  -0.797643        -147.993           -55.88         73.6439         -55.8805         73.6401       -0.0117102         147.694
0.552                   -0.81984        -148.523         -55.7249         71.4083         -55.7253         71.4048       -0.0118214         147.624
0.553                  -0.842314        -149.053         -55.5712         69.1638         -55.5715         69.1608       -0.0119341         147.554
0.554                  -0.865055        -149.584          -55.419         66.9111         -55.4193         66.9084       -0.0120483         147.484
0.555                  -0.888057        -150.116         -55.2684         64.6506         -55.2686         64.6483       -0.0121639         147.414
0.556                  -0.911312        -150.649         -55.1194         62.3829         -55.1195         62.3809        -0.012281         147.343
0.557                  -0.934812        -151.184         -54.9721         60.1084         -54.9721         60.1067       -0.0123996         147.273
0.558                  -0.958549        -151.719         -54.8265         57.8278         -54.8264         57.8264       -0.0125197         147.202
0.559                  -0.982515        -152.255         -54.6827         55.5416         -54.6825         55.5405       -0.0126414         147.131
0.56                     -1.0067        -152.793         -54.5407         53.2504         -54.5404         53.2495       -0.0127646          147.06
0.561                   -1.03111        -153.331         -54.4006         50.9548         -54.4002         50.9541       -0.0128893         146.989
0.562                   -1.05572        -153.871         -54.2622         48.6554         -54.2618         48.6549       -0.0130156         146.918
0.563                   -1.08052        -154.413         -54.1258         46.3528         -54.1253         46.3525       -0.0131435         146.847
0.564                   -1.10553        -154.956         -53.9912         44.0475         -53.9906         44.0474        -0.013273         146.775
0.565                   -1.13071          -155.5         -53.8585         41.7403         -53.8578         41.7402        -0.013404         146.704
0.566                   -1.15608        -156.046         -53.7277         39.4316          -53.727         39.4316       -0.0135367         146.632
0.567                   -1.18162        -156.594         -53.5988          37.122         -53.5979         37.1221        -0.013671          146.56
0.568                   -1.20732        -157.144         -53.4716         34.8121         -53.4708         34.8123        -0.013807         146.488
0.569                   -1.23319        -157.696         -53.3464         32.5025         -53.3454         32.5027       -0.0139446         146.416
0.57                    -1.25922        -158.249         -53.2229         30.1936         -53.2219         30.1938       -0.0140838         146.344
0.571                    -1.2854        -158.805         -53.1011         27.8859         -53.1001         27.8862       -0.0142248         146.272
0.572                   -1.31173        -159.364         -52.9811           25.58           -52.98         25.5803       -0.0143674         146.199
0.573                   -1.33821        -159.924         -52.8628         23.2762         -52.8616         23.2765       -0.0145118         146.127
0.574                   -1.36484        -160.488         -52.7461          20.975         -52.7449         20.9752       -0.0146578         146.054
0.575                   -1.39161        -161.054         -52.6309         18.6768         -52.6297         18.6769       -0.0148056         145.981
0.576                   -1.41853        -161.623         -52.5173         16.3818         -52.5161          16.382       -0.0149551         145.908
0.577                    -1.4456        -162.195         -52.4052         14.0905         -52.4039         14.0906       -0.0151064         145.835
0.578                   -1.47283        -162.771         -52.2944         11.8031         -52.2931         11.8031       -0.0152595         145.761
0.579                   -1.50021         -163.35          -52.185         9.51988         -52.1837         9.51979       -0.0154143         145.688
0.58                    -1.52775        -163.933         -52.0768         7.24097         -52.0755         7.24081       -0.0155709         145.614
0.581                   -1.55546         -164.52         -51.9699         4.96659         -51.9686         4.96635       -0.0157293          145.54
0.582                   -1.58336         -165.11          -51.864         2.69687         -51.8627         2.69654       -0.0158896         145.466
0.583                   -1.61145        -165.705         -51.7593        0.431903          -51.758        0.431494       -0.0160517         145.392
0.584                   -1.63975        -166.305         -51.6555        -1.82825         -51.6542        -1.82873       -0.0162156         145.318
0.585                   -1.66827        -166.909         -51.5527        -4.08355         -51.5514        -4.08411       -0.0163814         145.243
0.586                   -1.69703        -167.518         -51.4508        -6.33402         -51.4495        -6.33464        -0.016549         145.169
0.587                   -1.72605        -168.132         -51.3496        -8.57968         -51.3484        -8.58037       -0.0167186         145.094
0.588                   -1.75537        -168.752         -51.2492        -10.8206          -51.248        -10.8214       -0.0168901         145.019
0.589                   -1.78499        -169.378         -51.1495        -13.0569         -51.1483        -13.0577       -0.0170635         144.944
0.59                    -1.81496        -170.009         -51.0504        -15.2887         -51.0492        -15.2895       -0.0172388         144.869
0.591                   -1.84531        -170.646         -50.9518        -17.5162         -50.9507         -17.517       -0.0174162         144.793
0.592                   -1.87607         -171.29         -50.8538        -19.7394         -50.8527        -19.7403       -0.0175955         144.718
0.593                   -1.90729         -171.94         -50.7563        -21.9587         -50.7552        -21.9596       -0.0177768         144.642
0.594                     -1.939        -172.597         -50.6591        -24.1743         -50.6581        -24.1752       -0.0179602         144.566
0.595                   -1.97126        -173.261         -50.5624        -26.3864         -50.5614        -26.3872       -0.0181457          144.49
0.596                    -2.0041        -173.933          -50.466        -28.5951          -50.465         -28.596       -0.0183333         144.413
0.597                    -2.0376        -174.611         -50.3699         -30.801         -50.3689        -30.8018       -0.0185231         144.337
0.598                   -2.07181        -175.298         -50.2741        -33.0041         -50.2731        -33.0049        -0.018715          144.26
0.599                   -2.10679        -175.992         -50.1785        -35.2048         -50.1776        -35.2055       -0.0189091         144.183
0.6                      -2.1426        -176.694         -50.0831        -37.4034         -50.0823        -37.4041       -0.0191056         144.106
0.601                   -2.17932        -177.404          -49.988        -39.6002         -49.9872        -39.6008       -0.0193044         144.029
0.602                   -2.21702        -178.122         -49.8931        -41.7955         -49.8924         -41.796       -0.0195055         143.952
0.603                   -2.25577        -178.848         -49.7984        -43.9897         -49.7977        -43.9901       -0.0197091         143.874
0.604                   -2.29567        -179.582         -49.7039        -46.1829         -49.7032        -46.1832       -0.0199152         143.796
0.605                   -2.33678         179.675         -49.6095        -48.3756         -49.6089        -48.3758       -0.0201239         143.718
0.606                   -2.37921         178.924         -49.5154         -50.568         -49.5148        -50.5681       -0.0203352          143.64
0.607                   -2.42303         178.165         -49.4215        -52.7605         -49.4209        -52.7604       -0.0205493         143.561
0.608                   -2.46834         177.398         -49.3278        -54.9532         -49.3272        -54.9531       -0.0207662         143.483
0.609                   -2.51524         176.623         -49.2343        -57.1465         -49.2338        -57.1462       -0.0209859         143.404
0.61                    -2.56381          175.84         -49.1411        -59.3407         -49.1406        -59.3402       -0.0212087         143.325
0.611                   -2.61415          175.05         -49.0482        -61.5358         -49.0478        -61.5353       -0.0214345         143.245
0.612                   -2.66636         174.252         -48.9556        -63.7323         -48.9552        -63.7316       -0.0216635         143.166
0.613                   -2.72053         173.448         -48.8634        -65.9302          -48.863        -65.9294       -0.0218958         143.086
0.614                   -2.77676         172.637         -48.7715        -68.1298         -48.7711        -68.1288       -0.0221314         143.006
0.615                   -2.83512         171.821         -48.6801        -70.3312         -48.6797        -70.3301       -0.0223705         142.926
0.616                   -2.89572         170.999         -48.5891        -72.5345         -48.5888        -72.5333       -0.0226131         142.845
0.617                   -2.95864         170.171         -48.4987        -74.7398         -48.4984        -74.7385       -0.0228594         142.765
0.618                   -3.02395          169.34         -48.4088        -76.9472         -48.4085        -76.9457       -0.0231094         142.684
0.619                   -3.09173         168.505         -48.3195        -79.1567         -48.3192        -79.1552       -0.0233633         142.603
0.62                    -3.16205         167.667         -48.2309        -81.3684         -48.2306        -81.3667       -0.0236212         142.521
0.621                   -3.23496         166.827         -48.1429        -83.5822         -48.1427        -83.5804       -0.0238831          142.44
0.622                   -3.31053         165.985         -48.0557         -85.798         -48.0555        -85.7962       -0.0241491         142.358
0.623                   -3.38879         165.143         -47.9694        -88.0158         -47.9691        -88.0139       -0.0244193         142.276
0.624                   -3.46979         164.301         -47.8838        -90.2355         -47.8836        -90.2335       -0.0246938         142.193
0.625                   -3.55354          163.46         -47.7992        -92.4568          -47.799        -92.4547       -0.0249726         142.111
0.626                   -3.64006         162.621         -47.7155        -94.6797         -47.7153        -94.6775        -0.025256         142.028
0.627                   -3.72937         161.785         -47.6328        -96.9038         -47.6327        -96.9016       -0.0255438         141.945
0.628                   -3.82146         160.953         -47.5512        -99.1289          -47.551        -99.1267       -0.0258362         141.861
0.629                    -3.9163         160.125         -47.4706        -101.355         -47.4705        -101.353       -0.0261332         141.777
