! TOUCHSTONE file generated by CST MICROWAVE STUDIO
! Date and time: Mon Oct 26 12:28:59 2020
! Project name: Scenario_1_Circular_Tissue_out_of_Line.cst
! Parameters = {dy1=278.276; L_HA=400; MT=2.54; Rad_Dielectric=30; Rad_Lower=7.3; Rad_Upper=30; a_HA=580; a_WG=246; b_HA=500; b_WG=121; c_HA=0; c_WG=187; d_feed=85; dx1=866; h_feed=15; h_lower=18; h_upper=40}
! Header version: 2018
! Port assignment regex: !\s*Touchstone port\s*([0-9]+)\s*=\s*(CST MWS port|CST DS port)\s*([0-9]+|Zmin|Zmax)\s*\(\"(.*)\"\)(\s*mode\s*([0-9]+))?.*
! Touchstone port assignment:
! Touchstone port 1 = CST MWS port 1 ("")
! Touchstone port 2 = CST MWS port 2 ("")
# GHz S DB R 50
0.5                     -0.14898        -122.401          -64.395         83.3077          -64.395         83.3077      -0.00743754         151.103
0.501                  -0.145137        -122.784         -64.7432         83.2584         -64.7382         83.2279      -0.00750851         151.038
0.502                  -0.141517        -123.171         -65.1071         83.2369         -65.0969         83.1734      -0.00757993         150.972
0.503                  -0.138127        -123.561         -65.4882         83.2476         -65.4724          83.148       -0.0076518         150.907
0.504                  -0.134973        -123.955          -65.888         83.2955         -65.8663         83.1564      -0.00772416         150.842
0.505                  -0.132062        -124.352         -66.3084         83.3868         -66.2803         83.2041      -0.00779699         150.776
0.506                  -0.129401        -124.754         -66.7513         83.5289         -66.7165         83.2979      -0.00787032         150.711
0.507                  -0.126998        -125.158         -67.2193         83.7311         -67.1773          83.446      -0.00794416         150.645
0.508                  -0.124859        -125.567         -67.7151         84.0047         -67.6652         83.6587      -0.00801852         150.579
0.509                  -0.122993        -125.979         -68.2419         84.3639         -68.1836         83.9487       -0.0080934         150.513
0.51                   -0.121405        -126.396         -68.8035         84.8271          -68.736         84.3323      -0.00816883         150.448
0.511                  -0.120105        -126.815         -69.4042         85.4175         -69.3268         84.8303      -0.00824482         150.382
0.512                  -0.119099        -127.239         -70.0494         86.1657         -69.9613           85.47      -0.00832137         150.315
0.513                  -0.118397        -127.666         -70.7453         87.1124         -70.6456         86.2874       -0.0083985         150.249
0.514                  -0.118004        -128.097         -71.4991         88.3125          -71.387         87.3314      -0.00847622         150.183
0.515                  -0.117931        -128.532         -72.3196         89.8421         -72.1945         88.6693      -0.00855455         150.117
0.516                  -0.118185        -128.971         -73.2166         91.8088         -73.0784         90.3964      -0.00863349          150.05
0.517                  -0.118774        -129.414         -74.2009         94.3676         -74.0506         92.6503      -0.00871307         149.984
0.518                  -0.119707         -129.86         -75.2826         97.7473         -75.1239         95.6353      -0.00879328         149.917
0.519                  -0.120993         -130.31         -76.4671          102.29         -76.3091         99.6607      -0.00887416         149.851
0.52                    -0.12264        -130.764         -77.7436         108.502         -77.6067           105.2       -0.0089557         149.784
0.521                  -0.124657        -131.221         -79.0598          117.09         -78.9866         112.955      -0.00903792         149.717
0.522                  -0.127053        -131.683         -80.2728         128.834         -80.3407         123.842      -0.00912085          149.65
0.523                  -0.129837        -132.148          -81.103         143.966         -81.4109         138.539      -0.00920448         149.583
0.524                  -0.133019        -132.617         -81.2278         161.057         -81.8092         156.217      -0.00928884         149.516
0.525                  -0.136606         -133.09         -80.5775         177.177         -81.3254         173.814      -0.00937393         149.449
0.526                   -0.14061        -133.566         -79.4182        -169.817         -80.1859        -171.664      -0.00945978         149.382
0.527                  -0.145038        -134.047         -78.0696        -160.177         -78.7774        -160.949      -0.00954639         149.314
0.528                  -0.149901        -134.531         -76.7221        -153.215         -77.3502        -153.332      -0.00963379         149.247
0.529                  -0.155209        -135.019         -75.4545        -148.166         -76.0078        -147.903      -0.00972199         149.179
0.53                    -0.16097         -135.51         -74.2884        -144.449         -74.7783         -143.97      -0.00981099         149.112
0.531                  -0.167196        -136.006         -73.2226         -141.67         -73.6602        -141.069      -0.00990082         149.044
0.532                  -0.173894        -136.505          -72.248        -139.564         -72.6426        -138.894      -0.00999149         148.976
0.533                  -0.181076        -137.007         -71.3537        -137.951         -71.7128        -137.247        -0.010083         148.908
0.534                  -0.188751        -137.514         -70.5296         -136.71         -70.8589        -135.991       -0.0101754          148.84
0.535                   -0.19693        -138.024         -69.7664        -135.755         -70.0706        -135.033       -0.0102687         148.772
0.536                  -0.205621        -138.538         -69.0563        -135.024          -69.339        -134.306       -0.0103629         148.704
0.537                  -0.214837        -139.055         -68.3928        -134.471         -68.6569        -133.763        -0.010458         148.635
0.538                  -0.224585        -139.576         -67.7703        -134.062         -68.0182        -133.366       -0.0105541         148.567
0.539                  -0.234877        -140.101          -67.184        -133.773         -67.4176        -133.091       -0.0106511         148.498
0.54                   -0.245723        -140.629           -66.63        -133.583         -66.8509        -132.916       -0.0107491          148.43
0.541                  -0.257132        -141.161         -66.1048        -133.476         -66.3144        -132.824       -0.0108481         148.361
0.542                  -0.269115        -141.696         -65.6055        -133.441         -65.8049        -132.804        -0.010948         148.292
0.543                  -0.281683        -142.235         -65.1296        -133.467         -65.3197        -132.846        -0.011049         148.223
0.544                  -0.294844        -142.777         -64.6749        -133.546         -64.8566         -132.94       -0.0111511         148.154
0.545                   -0.30861        -143.323         -64.2396        -133.672         -64.4134        -133.081       -0.0112542         148.085
0.546                   -0.32299        -143.872         -63.8218        -133.839         -63.9885        -133.263       -0.0113583         148.016
0.547                  -0.337995        -144.425         -63.4202        -134.044         -63.5802        -133.482       -0.0114636         147.946
0.548                  -0.353634         -144.98         -63.0334        -134.281         -63.1873        -133.733         -0.01157         147.877
0.549                  -0.369917        -145.539         -62.6604        -134.548         -62.8084        -134.014       -0.0116775         147.807
0.55                   -0.386854        -146.101            -62.3        -134.842         -62.4426        -134.322       -0.0117862         147.737
0.551                  -0.404455        -146.667         -61.9514        -135.162         -62.0889        -134.654        -0.011896         147.667
0.552                   -0.42273        -147.235         -61.6137        -135.504         -61.7464        -135.009        -0.012007         147.597
0.553                  -0.441688        -147.807         -61.2861        -135.867         -61.4143        -135.384       -0.0121193         147.527
0.554                  -0.461338        -148.381          -60.968         -136.25         -61.0919        -135.779       -0.0122327         147.457
0.555                  -0.481691        -148.959         -60.6589        -136.652         -60.7786        -136.193       -0.0123475         147.387
0.556                  -0.502755         -149.54          -60.358        -137.071         -60.4738        -136.623       -0.0124635         147.316
0.557                   -0.52454        -150.123         -60.0649        -137.506          -60.177         -137.07       -0.0125807         147.246
0.558                  -0.547054        -150.709         -59.7792        -137.957         -59.8877        -137.532       -0.0126994         147.175
0.559                  -0.570307        -151.298         -59.5004        -138.423         -59.6054        -138.008       -0.0128193         147.104
0.56                   -0.594307         -151.89         -59.2282        -138.903         -59.3298        -138.499       -0.0129406         147.033
0.561                  -0.619062        -152.484          -58.962        -139.397         -59.0604        -139.003       -0.0130633         146.962
0.562                  -0.644582        -153.081         -58.7017        -139.904          -58.797         -139.52       -0.0131874         146.891
0.563                  -0.670873        -153.681         -58.4469        -140.424         -58.5392        -140.049       -0.0133129          146.82
0.564                  -0.697945        -154.283         -58.1974        -140.956         -58.2868        -140.591       -0.0134398         146.748
0.565                  -0.725805        -154.887         -57.9527          -141.5         -58.0393        -141.144       -0.0135683         146.677
0.566                   -0.75446        -155.494         -57.7128        -142.055         -57.7967         -141.71       -0.0136982         146.605
0.567                  -0.783918        -156.103         -57.4774        -142.623         -57.5586        -142.286       -0.0138297         146.533
0.568                  -0.814186        -156.714         -57.2462        -143.202         -57.3248        -142.874       -0.0139627         146.461
0.569                  -0.845271        -157.327         -57.0191        -143.791         -57.0951        -143.473       -0.0140973         146.389
0.57                    -0.87718        -157.943         -56.7958        -144.392         -56.8694        -144.083       -0.0142334         146.317
0.571                  -0.909919         -158.56         -56.5762        -145.004         -56.6474        -144.703       -0.0143712         146.244
0.572                  -0.943494        -159.179         -56.3601        -145.626         -56.4289        -145.334       -0.0145107         146.172
0.573                  -0.977911          -159.8         -56.1474         -146.26         -56.2139        -145.976       -0.0146518         146.099
0.574                   -1.01318        -160.423         -55.9379        -146.904         -56.0021        -146.628       -0.0147946         146.026
0.575                    -1.0493        -161.048         -55.7315        -147.558         -55.7935        -147.291       -0.0149392         145.953
0.576                   -1.08627        -161.674          -55.528        -148.223         -55.5878        -147.964       -0.0150855          145.88
0.577                   -1.12411        -162.301         -55.3273        -148.899          -55.385        -148.648       -0.0152336         145.807
0.578                   -1.16282         -162.93         -55.1293        -149.585         -55.1849        -149.343       -0.0153836         145.734
0.579                    -1.2024        -163.561         -54.9339        -150.282         -54.9874        -150.047       -0.0155353          145.66
0.58                    -1.24286        -164.192          -54.741        -150.989         -54.7925        -150.763        -0.015689         145.586
0.581                    -1.2842        -164.825         -54.5505        -151.707         -54.5999        -151.489       -0.0158445         145.512
0.582                   -1.32642        -165.459         -54.3622        -152.436         -54.4097        -152.226        -0.016002         145.438
0.583                   -1.36952        -166.094         -54.1761        -153.176         -54.2216        -152.973       -0.0161615         145.364
0.584                   -1.41352         -166.73         -53.9921        -153.926         -54.0357        -153.732       -0.0163229          145.29
0.585                   -1.45841        -167.367         -53.8102        -154.688         -53.8519        -154.501       -0.0164864         145.215
0.586                   -1.50419        -168.005         -53.6302         -155.46           -53.67        -155.281        -0.016652         145.141
0.587                   -1.55087        -168.643          -53.452        -156.244           -53.49        -156.073       -0.0168196         145.066
0.588                   -1.59845        -169.282         -53.2757         -157.04         -53.3118        -156.876       -0.0169894         144.991
0.589                   -1.64693        -169.922         -53.1011        -157.846         -53.1354         -157.69       -0.0171614         144.916
0.59                    -1.69631        -170.562         -52.9281        -158.665         -52.9607        -158.516       -0.0173355          144.84
0.591                   -1.74659        -171.202         -52.7568        -159.495         -52.7876        -159.353       -0.0175119         144.765
0.592                   -1.79778        -171.843          -52.587        -160.336          -52.616        -160.203       -0.0176906         144.689
0.593                   -1.84987        -172.484         -52.4187         -161.19          -52.446        -161.064       -0.0178716         144.613
0.594                   -1.90286        -173.125         -52.2518        -162.057         -52.2774        -161.938       -0.0180549         144.537
0.595                   -1.95676        -173.766         -52.0863        -162.935         -52.1102        -162.824       -0.0182406         144.461
0.596                   -2.01155        -174.407         -51.9221        -163.827         -51.9443        -163.723       -0.0184288         144.385
0.597                   -2.06726        -175.048         -51.7593        -164.731         -51.7798        -164.635       -0.0186194         144.308
0.598                   -2.12386        -175.689         -51.5976        -165.648         -51.6165        -165.559       -0.0188125         144.231
0.599                   -2.18137         -176.33         -51.4372        -166.578         -51.4544        -166.497       -0.0190082         144.154
0.6                     -2.23977         -176.97         -51.2779        -167.522         -51.2935        -167.449       -0.0192064         144.077
0.601                   -2.29908        -177.611         -51.1198         -168.48         -51.1338        -168.414       -0.0194073             144
0.602                   -2.35928         -178.25         -50.9627        -169.452         -50.9751        -169.393       -0.0196109         143.922
0.603                   -2.42038        -178.889         -50.8067        -170.437         -50.8175        -170.386       -0.0198172         143.845
0.604                   -2.48237        -179.528         -50.6517        -171.438          -50.661        -171.394       -0.0200263         143.767
0.605                   -2.54525         179.835         -50.4977        -172.452         -50.5054        -172.416       -0.0202381         143.689
0.606                   -2.60902         179.197         -50.3447        -173.482         -50.3508        -173.453       -0.0204529          143.61
0.607                   -2.67368         178.561         -50.1925        -174.528         -50.1971        -174.506       -0.0206705         143.532
0.608                   -2.73923         177.926         -50.0413        -175.588         -50.0444        -175.575       -0.0208911         143.453
0.609                   -2.80566         177.291          -49.891        -176.665         -49.8926        -176.659       -0.0211147         143.374
0.61                    -2.87296         176.658         -49.7415        -177.758         -49.7416        -177.759       -0.0213413         143.295
0.611                   -2.94115         176.025         -49.5929        -178.867         -49.5915        -178.876       -0.0215711         143.216
0.612                    -3.0102         175.394          -49.445        -179.994         -49.4422          179.99        -0.021804         143.136
0.613                   -3.08013         174.764          -49.298         178.863         -49.2937         178.839       -0.0220402         143.056
0.614                   -3.15093         174.135         -49.1518         177.702         -49.1461          177.67       -0.0222796         142.976
0.615                    -3.2226         173.507         -49.0063         176.523         -48.9992         176.484       -0.0225223         142.896
0.616                   -3.29512         172.881         -48.8616         175.326         -48.8531         175.279       -0.0227684         142.816
0.617                   -3.36851         172.256         -48.7177          174.11         -48.7077         174.055        -0.023018         142.735
0.618                   -3.44275         171.632         -48.5745         172.876         -48.5632         172.813        -0.023271         142.654
0.619                   -3.51785          171.01         -48.4321         171.622         -48.4194         171.551       -0.0235277         142.573
0.62                    -3.59379          170.39         -48.2903         170.348         -48.2763         170.269       -0.0237879         142.491
0.621                   -3.67059         169.771         -48.1494         169.054          -48.134         168.968       -0.0240518          142.41
0.622                   -3.74823         169.154         -48.0091         167.739         -47.9924         167.645       -0.0243195         142.328
0.623                   -3.82671         168.538         -47.8696         166.404         -47.8517         166.302        -0.024591         142.246
0.624                   -3.90604         167.924         -47.7309         165.047         -47.7116         164.937       -0.0248663         142.163
0.625                    -3.9862         167.312         -47.5929         163.668         -47.5724          163.55       -0.0251456         142.081
0.626                    -4.0672         166.702         -47.4556         162.267         -47.4339         162.141        -0.025429         141.998
0.627                   -4.14902         166.094         -47.3192         160.844         -47.2962         160.709       -0.0257164         141.914
0.628                   -4.23168         165.488         -47.1835         159.397         -47.1594         159.255        -0.026008         141.831
0.629                   -4.31517         164.883         -47.0487         157.927         -47.0234         157.776       -0.0263038         141.747
