! TOUCHSTONE file generated by CST MICROWAVE STUDIO
! Date and time: Sat Oct 24 11:49:49 2020
! Project name: Scenario_1_Circular_Tissue_out_of_Line.cst
! Parameters = {dy1=278.276; L_HA=400; MT=2.54; Rad_Dielectric=30; Rad_Lower=7.3; Rad_Upper=30; a_HA=580; a_WG=246; b_HA=500; b_WG=121; c_HA=0; c_WG=187; d_feed=85; dx1=1039; h_feed=15; h_lower=18; h_upper=40}
! Header version: 2018
! Port assignment regex: !\s*Touchstone port\s*([0-9]+)\s*=\s*(CST MWS port|CST DS port)\s*([0-9]+|Zmin|Zmax)\s*\(\"(.*)\"\)(\s*mode\s*([0-9]+))?.*
! Touchstone port assignment:
! Touchstone port 1 = CST MWS port 1 ("")
! Touchstone port 2 = CST MWS port 2 ("")
# GHz S DB R 50
0.5                      -0.1437        -122.274         -64.9163        -15.7052         -64.9163        -15.7052      -0.00761501         151.137
0.501                  -0.144913        -122.733         -65.3433        -17.8624         -65.3425        -17.8562      -0.00767108         151.071
0.502                  -0.146382        -123.193         -65.7861        -20.1807         -65.7845        -20.1675      -0.00772813         151.006
0.503                  -0.148111        -123.656         -66.2448        -22.6836         -66.2424        -22.6623      -0.00778615          150.94
0.504                  -0.150103         -124.12         -66.7193        -25.3981         -66.7161        -25.3678      -0.00784514         150.875
0.505                  -0.152362        -124.587         -67.2088        -28.3563         -67.2048        -28.3156      -0.00790512         150.809
0.506                  -0.154892        -125.056          -67.712        -31.5947         -67.7073        -31.5421      -0.00796609         150.744
0.507                  -0.157697        -125.527         -68.2262        -35.1553          -68.221        -35.0891      -0.00802804         150.678
0.508                  -0.160782        -126.001         -68.7475        -39.0847         -68.7418         -39.003      -0.00809099         150.612
0.509                   -0.16415        -126.476         -69.2697        -43.4328         -69.2638        -43.3337      -0.00815493         150.546
0.51                   -0.167805        -126.954         -69.7839          -48.25         -69.7783        -48.1315      -0.00821988          150.48
0.511                  -0.171751        -127.434         -70.2778        -53.5807          -70.273        -53.4413      -0.00828583         150.414
0.512                  -0.175992        -127.916         -70.7357        -59.4552         -70.7323         -59.294      -0.00835279         150.348
0.513                  -0.180533          -128.4         -71.1378        -65.8764         -71.1367        -65.6938      -0.00842077         150.282
0.514                  -0.185378        -128.886         -71.4623        -72.8058         -71.4643        -72.6041      -0.00848978         150.216
0.515                   -0.19053        -129.375         -71.6876        -80.1522         -71.6935        -79.9358       -0.0085598         150.149
0.516                  -0.195994        -129.865         -71.7963          -87.77         -71.8067        -87.5453      -0.00863086         150.083
0.517                  -0.201774        -130.358         -71.7789        -95.4725          -71.794         -95.247      -0.00870295         150.016
0.518                  -0.207875        -130.853         -71.6367         -103.06         -71.6562        -102.841      -0.00877609          149.95
0.519                    -0.2143         -131.35         -71.3809        -110.352         -71.4043        -110.147      -0.00885027         149.883
0.52                   -0.221053         -131.85         -71.0304        -117.215         -71.0569        -117.027      -0.00892551         149.816
0.521                   -0.22814        -132.351         -70.6069        -123.569         -70.6356          -123.4       -0.0090018         149.749
0.522                  -0.235564        -132.855          -70.132        -129.385         -70.1623        -129.235      -0.00907916         149.682
0.523                   -0.24333         -133.36         -69.6247        -134.672         -69.6557        -134.542      -0.00915758         149.615
0.524                  -0.251441        -133.868            -69.1        -139.467         -69.1314        -139.354      -0.00923709         149.548
0.525                  -0.259903        -134.379         -68.5695        -143.813         -68.6008        -143.716      -0.00931767         149.481
0.526                  -0.268719        -134.891         -68.0413        -147.763         -68.0722         -147.68      -0.00939934         149.414
0.527                  -0.277894        -135.405         -67.5211        -151.366         -67.5515        -151.295      -0.00948211         149.346
0.528                  -0.287433        -135.922         -67.0127        -154.668         -67.0424        -154.607      -0.00956598         149.279
0.529                  -0.297339         -136.44         -66.5182        -157.708         -66.5472        -157.657      -0.00965096         149.211
0.53                   -0.307617        -136.961         -66.0389        -160.524         -66.0671         -160.48      -0.00973706         149.144
0.531                  -0.318271        -137.484         -65.5754        -163.146         -65.6029        -163.109      -0.00982428         149.076
0.532                  -0.329306        -138.009         -65.1278          -165.6         -65.1545        -165.569      -0.00991263         149.008
0.533                  -0.340726        -138.536         -64.6959        -167.909         -64.7218        -167.882       -0.0100021          148.94
0.534                  -0.352535        -139.065         -64.2791        -170.092         -64.3043         -170.07       -0.0100927         148.872
0.535                  -0.364738        -139.597          -63.877        -172.166         -63.9014        -172.148       -0.0101845         148.804
0.536                   -0.37734         -140.13         -63.4889        -174.145         -63.5127         -174.13       -0.0102775         148.736
0.537                  -0.390344        -140.666         -63.1142        -176.041         -63.1373        -176.029       -0.0103716         148.667
0.538                  -0.403755        -141.203         -62.7522        -177.865         -62.7746        -177.855       -0.0104669         148.599
0.539                  -0.417578        -141.743         -62.4022        -179.625          -62.424        -179.617       -0.0105634          148.53
0.54                   -0.431816        -142.285         -62.0637         178.671         -62.0848         178.677       -0.0106611         148.462
0.541                  -0.446475        -142.829         -61.7359         177.016         -61.7564         177.021       -0.0107599         148.393
0.542                  -0.461558        -143.375         -61.4184         175.404         -61.4383         175.407         -0.01086         148.324
0.543                   -0.47707        -143.923         -61.1105         173.829         -61.1299         173.831       -0.0109614         148.255
0.544                  -0.493015        -144.473         -60.8118         172.288         -60.8307         172.289       -0.0110639         148.186
0.545                  -0.509399        -145.025         -60.5218         170.775         -60.5401         170.775       -0.0111677         148.117
0.546                  -0.526224        -145.579           -60.24         169.288         -60.2578         169.288       -0.0112728         148.047
0.547                  -0.543496        -146.135          -59.966         167.824         -59.9833         167.822       -0.0113791         147.978
0.548                  -0.561218        -146.693         -59.6993         166.378         -59.7162         166.376       -0.0114867         147.909
0.549                  -0.579396        -147.253         -59.4397          164.95         -59.4561         164.948       -0.0115955         147.839
0.55                   -0.598033        -147.815         -59.1868         163.536         -59.2027         163.533       -0.0117057         147.769
0.551                  -0.617134        -148.379         -58.9402         162.134         -58.9556         162.131       -0.0118172         147.699
0.552                  -0.636703        -148.945         -58.6996         160.743         -58.7146          160.74         -0.01193          147.63
0.553                  -0.656745        -149.513         -58.4647         159.361         -58.4794         159.357       -0.0120441         147.559
0.554                  -0.677263        -150.083         -58.2354         157.986         -58.2496         157.982       -0.0121596         147.489
0.555                  -0.698263        -150.655         -58.0112         156.616          -58.025         156.612       -0.0122764         147.419
0.556                  -0.719748        -151.229          -57.792         155.251         -57.8055         155.246       -0.0123947         147.349
0.557                  -0.741722        -151.805         -57.5776         153.888         -57.5907         153.884       -0.0125142         147.278
0.558                   -0.76419        -152.383         -57.3678         152.528         -57.3804         152.524       -0.0126352         147.207
0.559                  -0.787157        -152.962         -57.1622         151.169         -57.1745         151.164       -0.0127576         147.137
0.56                   -0.810625        -153.544         -56.9609         149.809         -56.9728         149.804       -0.0128814         147.066
0.561                  -0.834601        -154.127         -56.7635         148.448         -56.7751         148.444       -0.0130067         146.995
0.562                  -0.859087        -154.712           -56.57         147.085         -56.5812         147.081       -0.0131334         146.924
0.563                  -0.884088        -155.299         -56.3801          145.72         -56.3909         145.715       -0.0132616         146.852
0.564                  -0.909609        -155.888         -56.1937         144.351         -56.2042         144.346       -0.0133913         146.781
0.565                  -0.935653        -156.479         -56.0107         142.977         -56.0209         142.973       -0.0135224         146.709
0.566                  -0.962225        -157.072          -55.831         141.598         -55.8408         141.594       -0.0136551         146.638
0.567                  -0.989329        -157.666         -55.6543         140.214         -55.6638          140.21       -0.0137893         146.566
0.568                   -1.01697        -158.263         -55.4807         138.823         -55.4899         138.819       -0.0139251         146.494
0.569                   -1.04515        -158.861         -55.3099         137.425         -55.3188         137.421       -0.0140624         146.422
0.57                    -1.07388        -159.461         -55.1419          136.02         -55.1505         136.016       -0.0142013          146.35
0.571                   -1.10315        -160.062         -54.9766         134.606         -54.9849         134.602       -0.0143418         146.278
0.572                   -1.13298        -160.666         -54.8139         133.183         -54.8218          133.18        -0.014484         146.205
0.573                   -1.16336        -161.271         -54.6536         131.751         -54.6613         131.748       -0.0146278         146.132
0.574                   -1.19431        -161.878         -54.4958         130.309         -54.5031         130.306       -0.0147732          146.06
0.575                   -1.22582        -162.487         -54.3402         128.857         -54.3473         128.854       -0.0149204         145.987
0.576                    -1.2579        -163.098         -54.1869         127.394         -54.1937         127.391       -0.0150692         145.914
0.577                   -1.29056         -163.71         -54.0357         125.919         -54.0422         125.917       -0.0152197         145.841
0.578                   -1.32379        -164.324         -53.8866         124.433         -53.8928          124.43        -0.015372         145.767
0.579                   -1.35761         -164.94         -53.7396         122.934         -53.7455         122.932       -0.0155261         145.694
0.58                    -1.39202        -165.557         -53.5944         121.422         -53.6001          121.42        -0.015682          145.62
0.581                   -1.42702        -166.176         -53.4512         119.897         -53.4565         119.895       -0.0158396         145.546
0.582                   -1.46261        -166.797         -53.3097         118.358         -53.3148         118.356       -0.0159991         145.473
0.583                    -1.4988         -167.42         -53.1701         116.805         -53.1749         116.803       -0.0161605         145.398
0.584                   -1.53561        -168.044         -53.0321         115.237         -53.0367         115.235       -0.0163238         145.324
0.585                   -1.57302         -168.67         -52.8958         113.654         -52.9001         113.653       -0.0164889          145.25
0.586                   -1.61104        -169.298         -52.7611         112.056         -52.7651         112.054        -0.016656         145.175
0.587                   -1.64969        -169.928          -52.628         110.441         -52.6317          110.44       -0.0168251           145.1
0.588                   -1.68896        -170.559         -52.4963          108.81         -52.4998         108.809       -0.0169961         145.026
0.589                   -1.72886        -171.192         -52.3662         107.162         -52.3694         107.161       -0.0171692         144.951
0.59                    -1.76939        -171.826         -52.2374         105.497         -52.2404         105.496       -0.0173444         144.875
0.591                   -1.81056        -172.462         -52.1101         103.814         -52.1129         103.813       -0.0175216           144.8
0.592                   -1.85238          -173.1         -51.9841         102.113         -51.9866         102.112       -0.0177009         144.724
0.593                   -1.89485         -173.74         -51.8594         100.394         -51.8617         100.393       -0.0178823         144.649
0.594                   -1.93797        -174.381          -51.736         98.6554         -51.7381         98.6548        -0.018066         144.573
0.595                   -1.98175        -175.024         -51.6139         96.8978         -51.6157         96.8973       -0.0182518         144.497
0.596                    -2.0262        -175.669         -51.4929         95.1205         -51.4946         95.1201       -0.0184399          144.42
0.597                   -2.07132        -176.315         -51.3732         93.3231         -51.3746         93.3228       -0.0186302         144.344
0.598                   -2.11713        -176.964         -51.2547         91.5053         -51.2558         91.5051       -0.0188229         144.267
0.599                   -2.16361        -177.613         -51.1372         89.6668         -51.1382         89.6666       -0.0190179          144.19
0.6                     -2.21079        -178.265          -51.021         87.8071         -51.0217         87.8069       -0.0192153         144.113
0.601                   -2.25867        -178.918         -50.9058         85.9259         -50.9063         85.9258       -0.0194151         144.036
0.602                   -2.30725        -179.574         -50.7917         84.0229          -50.792         84.0229       -0.0196173         143.959
0.603                   -2.35654          179.77         -50.6786         82.0979         -50.6788         82.0978       -0.0198221         143.881
0.604                   -2.40655         179.111         -50.5666         80.1504         -50.5666         80.1504       -0.0200294         143.803
0.605                   -2.45729         178.451         -50.4557         78.1801         -50.4555         78.1802       -0.0202393         143.725
0.606                   -2.50876         177.788         -50.3458         76.1869         -50.3454          76.187       -0.0204518         143.647
0.607                   -2.56098         177.124         -50.2368         74.1705         -50.2363         74.1705       -0.0206669         143.569
0.608                   -2.61394         176.458         -50.1289         72.1306         -50.1282         72.1306       -0.0208848          143.49
0.609                   -2.66767         175.791          -50.022         70.0669         -50.0212          70.067       -0.0211054         143.411
0.61                    -2.72217         175.121         -49.9161         67.9794         -49.9151         67.9794       -0.0213289         143.332
0.611                   -2.77745          174.45         -49.8112         65.8678           -49.81         65.8678       -0.0215552         143.253
0.612                   -2.83351         173.776         -49.7072          63.732         -49.7059         63.7319       -0.0217844         143.173
0.613                   -2.89038         173.101         -49.6043         61.5719         -49.6028         61.5717       -0.0220166         143.094
0.614                   -2.94805         172.423         -49.5023         59.3873         -49.5007         59.3871       -0.0222517         143.014
0.615                   -3.00655         171.744         -49.4013         57.1782         -49.3996         57.1779         -0.02249         142.934
0.616                   -3.06589         171.063         -49.3013         54.9445         -49.2995         54.9442       -0.0227313         142.853
0.617                   -3.12607          170.38         -49.2023         52.6864         -49.2004          52.686       -0.0229758         142.773
0.618                   -3.18711         169.694         -49.1043         50.4037         -49.1023         50.4032       -0.0232236         142.692
0.619                   -3.24902         169.007         -49.0073         48.0965         -49.0052          48.096       -0.0234747         142.611
0.62                    -3.31182         168.317         -48.9113         45.7651         -48.9091         45.7644       -0.0237291         142.529
0.621                   -3.37553         167.625         -48.8163         43.4094          -48.814         43.4087       -0.0239869         142.448
0.622                   -3.44016         166.931         -48.7224         41.0298           -48.72         41.0289       -0.0242482         142.366
0.623                   -3.50572         166.235         -48.6295         38.6263         -48.6271         38.6254       -0.0245131         142.284
0.624                   -3.57224         165.536         -48.5376         36.1994         -48.5352         36.1983       -0.0247816         142.202
0.625                   -3.63973         164.835         -48.4469         33.7493         -48.4443         33.7481       -0.0250538         142.119
0.626                   -3.70821         164.132         -48.3572         31.2763         -48.3546         31.2751       -0.0253297         142.036
0.627                   -3.77771         163.427         -48.2685          28.781         -48.2659         28.7796       -0.0256095         141.953
0.628                   -3.84824         162.719          -48.181         26.2637         -48.1784         26.2622       -0.0258931          141.87
0.629                   -3.91983         162.008         -48.0946         23.7249         -48.0919         23.7233       -0.0261808         141.786
