! TOUCHSTONE file generated by CST MICROWAVE STUDIO
! Date and time: Mon Oct 26 12:10:10 2020
! Project name: Scenario_1_Circular_Tissue_out_of_Line_v2.cst
! Parameters = {dy1=294.1; L_HA=400; MT=2.54; Rad_Dielectric=30; Rad_Lower=7.3; Rad_Upper=30; a_HA=580; a_WG=246; b_HA=500; b_WG=121; c_HA=0; c_WG=187; d_feed=85; dx1=173; h_feed=15; h_lower=18; h_upper=40}
! Header version: 2018
! Port assignment regex: !\s*Touchstone port\s*([0-9]+)\s*=\s*(CST MWS port|CST DS port)\s*([0-9]+|Zmin|Zmax)\s*\(\"(.*)\"\)(\s*mode\s*([0-9]+))?.*
! Touchstone port assignment:
! Touchstone port 1 = CST MWS port 1 ("")
! Touchstone port 2 = CST MWS port 2 ("")
# GHz S DB R 50
0.5                    -0.151184        -122.506         -62.5128         90.4147         -62.5128         90.4147      -0.00697602         151.132
0.501                      -0.16        -122.937         -62.3808         88.7316         -62.3808         88.7317      -0.00704852         151.067
0.502                  -0.168897        -123.369         -62.2472         87.0482         -62.2472         87.0483      -0.00712138         151.002
0.503                  -0.177875        -123.803          -62.112         85.3645         -62.1121         85.3647      -0.00719462         150.936
0.504                  -0.186938        -124.239         -61.9754         83.6806         -61.9754         83.6809      -0.00726826         150.871
0.505                  -0.196085        -124.676         -61.8373         81.9966         -61.8374         81.9969      -0.00734235         150.805
0.506                  -0.205318        -125.114          -61.698         80.3125         -61.6981         80.3129      -0.00741689         150.739
0.507                  -0.214639        -125.555         -61.5574         78.6283         -61.5575         78.6287      -0.00749193         150.674
0.508                  -0.224049        -125.996         -61.4155          76.944         -61.4157         76.9444      -0.00756748         150.608
0.509                  -0.233551         -126.44         -61.2726         75.2596         -61.2727         75.2601      -0.00764358         150.542
0.51                   -0.243145        -126.885         -61.1286         73.5751         -61.1288         73.5756      -0.00772025         150.476
0.511                  -0.252834        -127.332         -60.9836         71.8904         -60.9838         71.8909      -0.00779752          150.41
0.512                  -0.262619        -127.781         -60.8377         70.2055         -60.8379          70.206      -0.00787542         150.344
0.513                  -0.272503        -128.231         -60.6909         68.5204         -60.6911         68.5209      -0.00795397         150.278
0.514                  -0.282487        -128.683         -60.5433         66.8349         -60.5435         66.8354       -0.0080332         150.211
0.515                  -0.292575        -129.137         -60.3951         65.1489         -60.3953         65.1494      -0.00811315         150.145
0.516                  -0.302768        -129.593         -60.2461         63.4625         -60.2463          63.463      -0.00819383         150.078
0.517                  -0.313069        -130.051         -60.0966         61.7755         -60.0968         61.7759      -0.00827527         150.012
0.518                  -0.323479        -130.511         -59.9466         60.0877         -59.9468         60.0882       -0.0083575         149.945
0.519                  -0.334003        -130.973         -59.7961         58.3992         -59.7963         58.3996      -0.00844055         149.879
0.52                   -0.344643        -131.436         -59.6452         56.7098         -59.6455         56.7101      -0.00852443         149.812
0.521                  -0.355401        -131.902         -59.4941         55.0193         -59.4943         55.0196      -0.00860918         149.745
0.522                   -0.36628        -132.369         -59.3427         53.3277         -59.3429          53.328      -0.00869481         149.678
0.523                  -0.377284        -132.839          -59.191         51.6349         -59.1913         51.6351      -0.00878136         149.611
0.524                  -0.388416        -133.311         -59.0393         49.9406         -59.0395         49.9408      -0.00886885         149.544
0.525                   -0.39968        -133.785         -58.8875         48.2449         -58.8878         48.2451       -0.0089573         149.476
0.526                  -0.411078        -134.261         -58.7358         46.5476          -58.736         46.5477      -0.00904672         149.409
0.527                  -0.422614         -134.74         -58.5841         44.8485         -58.5843         44.8486      -0.00913716         149.342
0.528                  -0.434293         -135.22         -58.4325         43.1476         -58.4327         43.1476      -0.00922862         149.274
0.529                  -0.446118        -135.703         -58.2812         41.4448         -58.2814         41.4448      -0.00932112         149.206
0.53                   -0.458092        -136.188         -58.1301         39.7399         -58.1303         39.7398       -0.0094147         149.139
0.531                  -0.470221        -136.676         -57.9793         38.0329         -57.9795         38.0327      -0.00950936         149.071
0.532                  -0.482509        -137.166         -57.8289         36.3236         -57.8291         36.3234      -0.00960513         149.003
0.533                   -0.49496        -137.658         -57.6789          34.612         -57.6791         34.6117      -0.00970202         148.935
0.534                  -0.507579        -138.153         -57.5295         32.8979         -57.5296         32.8976      -0.00980006         148.867
0.535                  -0.520371         -138.65         -57.3806         31.1814         -57.3807          31.181      -0.00989925         148.799
0.536                  -0.533341         -139.15         -57.2323         29.4623         -57.2325         29.4619      -0.00999963          148.73
0.537                  -0.546493        -139.653         -57.0847         27.7406         -57.0849         27.7401       -0.0101012         148.662
0.538                  -0.559834        -140.157         -56.9378         26.0162          -56.938         26.0157        -0.010204         148.593
0.539                  -0.573368        -140.665         -56.7917         24.2892         -56.7919         24.2886        -0.010308         148.525
0.54                   -0.587102        -141.175         -56.6465         22.5594         -56.6466         22.5587       -0.0104132         148.456
0.541                  -0.601042        -141.688         -56.5021         20.8268         -56.5023         20.8261       -0.0105197         148.387
0.542                  -0.615194        -142.204         -56.3587         19.0915         -56.3589         19.0908       -0.0106275         148.318
0.543                  -0.629563        -142.722         -56.2163         17.3535         -56.2164         17.3526       -0.0107366         148.249
0.544                  -0.644157        -143.243          -56.075         15.6127         -56.0751         15.6118       -0.0108469          148.18
0.545                  -0.658982        -143.768         -55.9347         13.8692         -55.9348         13.8683       -0.0109586         148.111
0.546                  -0.674045        -144.295         -55.7956          12.123         -55.7957          12.122       -0.0110716         148.041
0.547                  -0.689354        -144.824         -55.6577         10.3742         -55.6577         10.3732       -0.0111859         147.972
0.548                  -0.704915        -145.357          -55.521         8.62291          -55.521         8.62185       -0.0113015         147.902
0.549                  -0.720737        -145.893         -55.3855         6.86911         -55.3856         6.86801       -0.0114185         147.833
0.55                   -0.736827        -146.432         -55.2514         5.11293         -55.2515         5.11178       -0.0115369         147.763
0.551                  -0.753194        -146.974         -55.1187         3.35446         -55.1187         3.35327       -0.0116566         147.693
0.552                  -0.769845        -147.519         -54.9874         1.59383         -54.9874         1.59259       -0.0117777         147.623
0.553                  -0.786789        -148.067         -54.8575       -0.168856         -54.8575       -0.170127       -0.0119003         147.553
0.554                  -0.804036        -148.618          -54.729        -1.93345          -54.729        -1.93476       -0.0120242         147.483
0.555                  -0.821594        -149.173         -54.6021        -3.69981         -54.6021        -3.70115       -0.0121495         147.412
0.556                  -0.839472         -149.73         -54.4767        -5.46777         -54.4767        -5.46914       -0.0122763         147.342
0.557                  -0.857681        -150.291         -54.3528        -7.23717         -54.3528        -7.23857       -0.0124045         147.271
0.558                   -0.87623        -150.856         -54.2305        -9.00783         -54.2305        -9.00926       -0.0125341           147.2
0.559                  -0.895129        -151.423         -54.1099        -10.7796         -54.1098         -10.781       -0.0126652          147.13
0.56                   -0.914389        -151.994         -53.9909        -12.5522         -53.9908        -12.5537       -0.0127977         147.059
0.561                  -0.934021        -152.569         -53.8735        -14.3255         -53.8734         -14.327       -0.0129317         146.988
0.562                  -0.954035        -153.147         -53.7578        -16.0992         -53.7577        -16.1007       -0.0130672         146.916
0.563                  -0.974444        -153.728         -53.6437        -17.8732         -53.6437        -17.8748       -0.0132042         146.845
0.564                  -0.995258        -154.313         -53.5314        -19.6473         -53.5313        -19.6488       -0.0133427         146.773
0.565                   -1.01649        -154.901         -53.4207        -21.4211         -53.4206        -21.4226       -0.0134827         146.702
0.566                   -1.03815        -155.493         -53.3118        -23.1945         -53.3117         -23.196       -0.0136242          146.63
0.567                   -1.06026        -156.089         -53.2045        -24.9672         -53.2045        -24.9688       -0.0137672         146.558
0.568                   -1.08282        -156.688          -53.099        -26.7391         -53.0989        -26.7406       -0.0139117         146.486
0.569                   -1.10585         -157.29         -52.9952        -28.5098         -52.9951        -28.5113       -0.0140578         146.414
0.57                    -1.12936        -157.897         -52.8931        -30.2791          -52.893        -30.2806       -0.0142055         146.342
0.571                   -1.15336        -158.507         -52.7927        -32.0468         -52.7926        -32.0483       -0.0143548         146.269
0.572                   -1.17788        -159.121          -52.694        -33.8126         -52.6939        -33.8141       -0.0145056         146.197
0.573                   -1.20292        -159.738         -52.5969        -35.5764         -52.5968        -35.5779        -0.014658         146.124
0.574                   -1.22851        -160.359         -52.5016        -37.3378         -52.5015        -37.3393        -0.014812         146.051
0.575                   -1.25465        -160.984         -52.4079        -39.0967         -52.4078        -39.0981       -0.0149676         145.978
0.576                   -1.28135        -161.613         -52.3158        -40.8527         -52.3157        -40.8542       -0.0151249         145.905
0.577                   -1.30865        -162.246         -52.2253        -42.6058         -52.2252        -42.6072       -0.0152838         145.832
0.578                   -1.33655        -162.882         -52.1364        -44.3557         -52.1363         -44.357       -0.0154444         145.759
0.579                   -1.36507        -163.522         -52.0491        -46.1021          -52.049        -46.1034       -0.0156067         145.685
0.58                    -1.39422        -164.166         -51.9634        -47.8449         -51.9633        -47.8462       -0.0157706         145.611
0.581                   -1.42403        -164.814         -51.8791        -49.5839          -51.879        -49.5851       -0.0159363         145.538
0.582                   -1.45451        -165.466         -51.7964        -51.3188         -51.7963          -51.32       -0.0161037         145.464
0.583                   -1.48569        -166.121         -51.7151        -53.0496          -51.715        -53.0507       -0.0162728         145.389
0.584                   -1.51756         -166.78         -51.6352         -54.776         -51.6351         -54.777       -0.0164437         145.315
0.585                   -1.55017        -167.444         -51.5567        -56.4978         -51.5566        -56.4989       -0.0166163         145.241
0.586                   -1.58352        -168.111         -51.4796         -58.215         -51.4795         -58.216       -0.0167908         145.166
0.587                   -1.61764        -168.781         -51.4038        -59.9274         -51.4037        -59.9283       -0.0169671         145.091
0.588                   -1.65254        -169.456         -51.3293        -61.6347         -51.3292        -61.6356       -0.0171452         145.016
0.589                   -1.68825        -170.134          -51.256        -63.3371         -51.2559        -63.3379       -0.0173252         144.941
0.59                    -1.72478        -170.816          -51.184        -65.0342         -51.1839        -65.0349       -0.0175071         144.866
0.591                   -1.76216        -171.502         -51.1131         -66.726          -51.113        -66.7267       -0.0176909          144.79
0.592                   -1.80041        -172.192         -51.0433        -68.4125         -51.0432         -68.413       -0.0178766         144.715
0.593                   -1.83955        -172.885         -50.9746        -70.0934         -50.9745        -70.0939       -0.0180642         144.639
0.594                   -1.87959        -173.582          -50.907        -71.7688         -50.9069        -71.7693       -0.0182539         144.563
0.595                   -1.92057        -174.282         -50.8404        -73.4386         -50.8403         -73.439       -0.0184456         144.487
0.596                    -1.9625        -174.986         -50.7747        -75.1028         -50.7746        -75.1031       -0.0186393          144.41
0.597                   -2.00541        -175.694           -50.71        -76.7612         -50.7099        -76.7615       -0.0188351         144.334
0.598                   -2.04932        -176.405         -50.6462         -78.414         -50.6461        -78.4141       -0.0190329         144.257
0.599                   -2.09425        -177.119         -50.5832        -80.0609         -50.5831         -80.061        -0.019233          144.18
0.6                     -2.14023        -177.837          -50.521        -81.7021         -50.5209        -81.7021       -0.0194351         144.103
0.601                   -2.18727        -178.558         -50.4596        -83.3375         -50.4595        -83.3374       -0.0196395         144.026
0.602                   -2.23541        -179.283         -50.3988        -84.9671         -50.3988        -84.9669       -0.0198461         143.948
0.603                   -2.28466          179.99         -50.3388        -86.5909         -50.3387        -86.5906       -0.0200549          143.87
0.604                   -2.33506         179.259         -50.2794         -88.209         -50.2794        -88.2086       -0.0202661         143.793
0.605                   -2.38661         178.525         -50.2207        -89.8213         -50.2206        -89.8209       -0.0204796         143.714
0.606                   -2.43936         177.789         -50.1625         -91.428         -50.1624        -91.4275       -0.0206955         143.636
0.607                   -2.49332         177.049         -50.1048        -93.0289         -50.1047        -93.0284       -0.0209138         143.558
0.608                   -2.54851         176.307         -50.0476        -94.6243         -50.0475        -94.6237       -0.0211345         143.479
0.609                   -2.60497         175.562         -49.9909        -96.2141         -49.9908        -96.2134       -0.0213577           143.4
0.61                    -2.66271         174.815         -49.9346        -97.7984         -49.9345        -97.7976       -0.0215835         143.321
0.611                   -2.72176         174.065         -49.8786        -99.3773         -49.8786        -99.3764       -0.0218119         143.242
0.612                   -2.78214         173.313         -49.8231        -100.951          -49.823         -100.95       -0.0220429         143.162
0.613                   -2.84389         172.559         -49.7678        -102.519         -49.7678        -102.518       -0.0222766         143.082
0.614                   -2.90702         171.803         -49.7128        -104.082         -49.7128        -104.081        -0.022513         143.002
0.615                   -2.97155         171.045         -49.6581         -105.64         -49.6581        -105.639       -0.0227522         142.922
0.616                   -3.03752         170.285         -49.6036        -107.192         -49.6036        -107.191       -0.0229942         142.842
0.617                   -3.10494         169.524         -49.5493         -108.74         -49.5493        -108.739       -0.0232392         142.761
0.618                   -3.17384         168.761         -49.4952        -110.283         -49.4951        -110.282        -0.023487          142.68
0.619                   -3.24424         167.997         -49.4412        -111.821         -49.4411         -111.82       -0.0237379         142.599
0.62                    -3.31617         167.232         -49.3873        -113.355         -49.3872        -113.353       -0.0239917         142.518
0.621                   -3.38965         166.466         -49.3335        -114.884         -49.3334        -114.882       -0.0242488         142.436
0.622                   -3.46471         165.699         -49.2797        -116.408         -49.2797        -116.406       -0.0245089         142.354
0.623                   -3.54135         164.932          -49.226        -117.928         -49.2259        -117.926       -0.0247723         142.272
0.624                   -3.61962         164.164         -49.1723        -119.444         -49.1722        -119.442        -0.025039         142.189
0.625                   -3.69952         163.396         -49.1185        -120.955         -49.1185        -120.954       -0.0253091         142.107
0.626                   -3.78108         162.629         -49.0647        -122.463         -49.0647        -122.461       -0.0255826         142.024
0.627                   -3.86433         161.861         -49.0109        -123.966         -49.0109        -123.965       -0.0258596         141.941
0.628                   -3.94927         161.095          -48.957        -125.466         -48.9569        -125.464       -0.0261402         141.857
0.629                   -4.03594         160.329          -48.903        -126.962         -48.9029         -126.96       -0.0264244         141.774
