! TOUCHSTONE file generated by CST MICROWAVE STUDIO
! Date and time: Wed Oct 28 19:40:36 2020
! Project name: Scenario_1_Circular_Tissue_out_of_Line_v2.cst
! Parameters = {dy1=294.1; L_HA=400; MT=2.54; Rad_Dielectric=30; Rad_Lower=7.3; Rad_Upper=30; a_HA=580; a_WG=246; b_HA=500; b_WG=121; c_HA=0; c_WG=187; d_feed=85; dx1=346; h_feed=15; h_lower=18; h_upper=40}
! Header version: 2018
! Port assignment regex: !\s*Touchstone port\s*([0-9]+)\s*=\s*(CST MWS port|CST DS port)\s*([0-9]+|Zmin|Zmax)\s*\(\"(.*)\"\)(\s*mode\s*([0-9]+))?.*
! Touchstone port assignment:
! Touchstone port 1 = CST MWS port 1 ("")
! Touchstone port 2 = CST MWS port 2 ("")
# GHz S DB R 50
0.5                    -0.143434        -122.237         -62.7168        -10.8705         -62.7168        -10.8705      -0.00790477          151.12
0.501                  -0.142446        -122.746         -62.5757        -11.8197         -62.5757        -11.8197        -0.007959         151.055
0.502                  -0.142017        -123.254         -62.4333        -12.7957         -62.4334        -12.7958      -0.00801397         150.989
0.503                  -0.142146        -123.762         -62.2897        -13.7986         -62.2898        -13.7986      -0.00806968         150.924
0.504                  -0.142831        -124.269          -62.145        -14.8282         -62.1451        -14.8283      -0.00812615         150.859
0.505                  -0.144071        -124.775         -61.9993        -15.8848         -61.9994        -15.8848      -0.00818337         150.793
0.506                  -0.145863        -125.282         -61.8526        -16.9682         -61.8527        -16.9682      -0.00824137         150.727
0.507                  -0.148206        -125.787         -61.7051        -18.0783         -61.7052        -18.0783      -0.00830015         150.662
0.508                  -0.151097        -126.293         -61.5568        -19.2151         -61.5569        -19.2151      -0.00835971         150.596
0.509                  -0.154533        -126.798         -61.4078        -20.3784          -61.408        -20.3784      -0.00842007          150.53
0.51                   -0.158511        -127.303         -61.2583        -21.5681         -61.2584        -21.5681      -0.00848123         150.464
0.511                  -0.163028        -127.807         -61.1082         -22.784         -61.1084         -22.784       -0.0085432         150.398
0.512                  -0.168081        -128.311         -60.9578        -24.0258         -60.9579        -24.0258        -0.008606         150.332
0.513                  -0.173666        -128.816          -60.807        -25.2934         -60.8072        -25.2934      -0.00866963         150.266
0.514                   -0.17978        -129.319          -60.656        -26.5864         -60.6561        -26.5864      -0.00873409           150.2
0.515                  -0.186418        -129.823         -60.5048        -27.9046          -60.505        -27.9045      -0.00879941         150.133
0.516                  -0.193576        -130.327         -60.3535        -29.2475         -60.3537        -29.2474      -0.00886559         150.067
0.517                   -0.20125        -130.831         -60.2023        -30.6149         -60.2025        -30.6148      -0.00893264             150
0.518                  -0.209436        -131.335         -60.0511        -32.0063         -60.0513        -32.0061      -0.00900056         149.934
0.519                  -0.218128        -131.838         -59.9001        -33.4213         -59.9003        -33.4211      -0.00906938         149.867
0.52                   -0.227323        -132.342         -59.7494        -34.8595         -59.7496        -34.8592       -0.0091391           149.8
0.521                  -0.237016        -132.846         -59.5989        -36.3203         -59.5991          -36.32      -0.00920972         149.733
0.522                  -0.247202        -133.351         -59.4489        -37.8033         -59.4491         -37.803      -0.00928127         149.666
0.523                  -0.257875        -133.855         -59.2993        -39.3079         -59.2995        -39.3077      -0.00935375         149.599
0.524                  -0.269031        -134.359         -59.1503        -40.8337         -59.1505        -40.8334      -0.00942717         149.532
0.525                  -0.280666        -134.864         -59.0018        -42.3799          -59.002        -42.3796      -0.00950154         149.465
0.526                  -0.292773        -135.369          -58.854        -43.9461         -58.8542        -43.9458      -0.00957688         149.398
0.527                  -0.305348        -135.875         -58.7069        -45.5316         -58.7071        -45.5313      -0.00965319          149.33
0.528                  -0.318385        -136.381         -58.5606        -47.1358         -58.5607        -47.1354      -0.00973049         149.263
0.529                   -0.33188        -136.887          -58.415         -48.758         -58.4152        -48.7576       -0.0098088         149.195
0.53                   -0.345828        -137.393         -58.2704        -50.3975         -58.2706        -50.3972      -0.00988811         149.127
0.531                  -0.360223          -137.9         -58.1267        -52.0538         -58.1268        -52.0534      -0.00996845          149.06
0.532                  -0.375059        -138.408         -57.9839         -53.726          -57.984        -53.7257       -0.0100498         148.992
0.533                  -0.390333        -138.916         -57.8421        -55.4136         -57.8422        -55.4132       -0.0101322         148.924
0.534                  -0.406039        -139.425         -57.7013        -57.1158         -57.7014        -57.1154       -0.0102157         148.856
0.535                  -0.422172        -139.934         -57.5616        -58.8318         -57.5617        -58.8314       -0.0103003         148.787
0.536                  -0.438727        -140.444         -57.4229         -60.561         -57.4231        -60.5606       -0.0103859         148.719
0.537                  -0.455699        -140.955         -57.2854        -62.3026         -57.2855        -62.3022       -0.0104727         148.651
0.538                  -0.473083        -141.466         -57.1489         -64.056         -57.1491        -64.0556       -0.0105605         148.582
0.539                  -0.490875        -141.978         -57.0136        -65.8204         -57.0138          -65.82       -0.0106495         148.514
0.54                    -0.50907        -142.491         -56.8795        -67.5951         -56.8796        -67.5947       -0.0107397         148.445
0.541                  -0.527663        -143.005         -56.7465        -69.3794         -56.7466        -69.3791        -0.010831         148.376
0.542                   -0.54665         -143.52         -56.6146        -71.1726         -56.6147        -71.1723       -0.0109234         148.307
0.543                  -0.566027        -144.035         -56.4839         -72.974          -56.484        -72.9737       -0.0110171         148.238
0.544                  -0.585789        -144.552         -56.3544         -74.783         -56.3544        -74.7827       -0.0111119         148.169
0.545                  -0.605932        -145.069         -56.2259        -76.5989          -56.226        -76.5986        -0.011208           148.1
0.546                  -0.626452        -145.588         -56.0986        -78.4209         -56.0987        -78.4207       -0.0113053         148.031
0.547                  -0.647346        -146.107         -55.9725        -80.2486         -55.9725        -80.2484       -0.0114038         147.961
0.548                  -0.668609        -146.628         -55.8474        -82.0813         -55.8474        -82.0811       -0.0115036         147.892
0.549                  -0.690239         -147.15         -55.7234        -83.9184         -55.7234        -83.9182       -0.0116047         147.822
0.55                   -0.712231        -147.673         -55.6004        -85.7593         -55.6005        -85.7591       -0.0117071         147.752
0.551                  -0.734583        -148.197         -55.4785        -87.6035         -55.4786        -87.6033       -0.0118108         147.682
0.552                  -0.757291        -148.722         -55.3576        -89.4504         -55.3577        -89.4502       -0.0119158         147.612
0.553                  -0.780353        -149.249         -55.2377        -91.2996         -55.2377        -91.2994       -0.0120222         147.542
0.554                  -0.803765        -149.777         -55.1187        -93.1505         -55.1187        -93.1504       -0.0121299         147.472
0.555                  -0.827526        -150.306         -55.0007        -95.0028         -55.0007        -95.0027       -0.0122391         147.401
0.556                  -0.851633        -150.837         -54.8835        -96.8559         -54.8835        -96.8558       -0.0123496         147.331
0.557                  -0.876084        -151.369         -54.7672        -98.7095         -54.7672        -98.7094       -0.0124615          147.26
0.558                  -0.900877        -151.903         -54.6517        -100.563         -54.6517        -100.563       -0.0125749          147.19
0.559                   -0.92601        -152.438          -54.537        -102.417          -54.537        -102.417       -0.0126898         147.119
0.56                   -0.951481        -152.975         -54.4231        -104.269         -54.4231        -104.269       -0.0128061         147.048
0.561                  -0.977291        -153.514         -54.3098        -106.121         -54.3098        -106.121       -0.0129239         146.977
0.562                   -1.00344        -154.054         -54.1973        -107.972         -54.1973        -107.972       -0.0130432         146.905
0.563                   -1.02992        -154.596         -54.0854        -109.821         -54.0854        -109.821       -0.0131641         146.834
0.564                   -1.05674         -155.14         -53.9741        -111.669         -53.9741        -111.669       -0.0132865         146.763
0.565                   -1.08389        -155.686         -53.8634        -113.514         -53.8633        -113.514       -0.0134105         146.691
0.566                   -1.11138        -156.233         -53.7532        -115.358         -53.7532        -115.358       -0.0135361         146.619
0.567                    -1.1392        -156.782         -53.6435        -117.199         -53.6435        -117.199       -0.0136634         146.547
0.568                   -1.16736        -157.334         -53.5344        -119.038         -53.5343        -119.038       -0.0137922         146.475
0.569                   -1.19586        -157.887         -53.4256        -120.874         -53.4256        -120.874       -0.0139228         146.403
0.57                    -1.22469        -158.443         -53.3173        -122.708         -53.3173        -122.708        -0.014055         146.331
0.571                   -1.25387            -159         -53.2094        -124.539         -53.2094        -124.539       -0.0141889         146.258
0.572                   -1.28338         -159.56         -53.1018        -126.367         -53.1018        -126.367       -0.0143246         146.186
0.573                   -1.31324        -160.122         -52.9946        -128.193         -52.9946        -128.193        -0.014462         146.113
0.574                   -1.34345        -160.687         -52.8877        -130.015         -52.8877        -130.015       -0.0146012          146.04
0.575                     -1.374        -161.254         -52.7811        -131.835          -52.781        -131.835       -0.0147422         145.967
0.576                   -1.40491        -161.823         -52.6747        -133.652         -52.6747        -133.652       -0.0148851         145.894
0.577                   -1.43617        -162.394         -52.5686        -135.465         -52.5686        -135.466       -0.0150298         145.821
0.578                   -1.46779        -162.968         -52.4627        -137.277         -52.4627        -137.277       -0.0151763         145.747
0.579                   -1.49978        -163.545          -52.357        -139.085          -52.357        -139.085       -0.0153248         145.673
0.58                    -1.53213        -164.125         -52.2515         -140.89         -52.2515        -140.891       -0.0154753           145.6
0.581                   -1.56486        -164.707         -52.1462        -142.693         -52.1462        -142.693       -0.0156276         145.526
0.582                   -1.59797        -165.292          -52.041        -144.493          -52.041        -144.494        -0.015782         145.452
0.583                   -1.63147        -165.879          -51.936        -146.291          -51.936        -146.291       -0.0159384         145.377
0.584                   -1.66535         -166.47         -51.8312        -148.086         -51.8311        -148.086       -0.0160968         145.303
0.585                   -1.69964        -167.063         -51.7264        -149.879         -51.7264        -149.879       -0.0162574         145.228
0.586                   -1.73433         -167.66         -51.6218        -151.669         -51.6218         -151.67         -0.01642         145.154
0.587                   -1.76944         -168.26         -51.5173        -153.458         -51.5173        -153.458       -0.0165847         145.079
0.588                   -1.80497        -168.863         -51.4129        -155.244         -51.4129        -155.245       -0.0167516         145.004
0.589                   -1.84093        -169.469         -51.3087        -157.029         -51.3087        -157.029       -0.0169207         144.928
0.59                    -1.87734        -170.078         -51.2045        -158.811         -51.2045        -158.812        -0.017092         144.853
0.591                   -1.91419        -170.691         -51.1005        -160.592         -51.1005        -160.593       -0.0172656         144.778
0.592                   -1.95151        -171.307         -50.9966        -162.372         -50.9966        -162.372       -0.0174414         144.702
0.593                    -1.9893        -171.926         -50.8928         -164.15         -50.8928         -164.15       -0.0176196         144.626
0.594                   -2.02758         -172.55         -50.7891        -165.926         -50.7891        -165.927       -0.0178001          144.55
0.595                   -2.06636        -173.176         -50.6855        -167.702         -50.6855        -167.702        -0.017983         144.473
0.596                   -2.10565        -173.807         -50.5821        -169.476         -50.5821        -169.477       -0.0181683         144.397
0.597                   -2.14547        -174.441         -50.4789         -171.25         -50.4788         -171.25       -0.0183561          144.32
0.598                   -2.18583        -175.079         -50.3757        -173.023         -50.3757        -173.023       -0.0185463         144.244
0.599                   -2.22674        -175.721         -50.2728        -174.795         -50.2728        -174.795       -0.0187391         144.167
0.6                     -2.26823        -176.367           -50.17        -176.566           -50.17        -176.567       -0.0189344         144.089
0.601                    -2.3103        -177.017         -50.0674        -178.338         -50.0674        -178.338       -0.0191323         144.012
0.602                   -2.35299        -177.671          -49.965         179.891          -49.965         179.891       -0.0193328         143.934
0.603                    -2.3963         -178.33         -49.8629         178.121         -49.8629          178.12        -0.019536         143.857
0.604                   -2.44026        -178.992         -49.7609          176.35         -49.7609          176.35       -0.0197419         143.779
0.605                   -2.48488        -179.659         -49.6593         174.579         -49.6593         174.579       -0.0199506           143.7
0.606                   -2.53019          179.67         -49.5578         172.808         -49.5578         172.808        -0.020162         143.622
0.607                   -2.57621         178.994         -49.4567         171.037         -49.4567         171.037       -0.0203762         143.543
0.608                   -2.62297         178.314         -49.3559         169.265         -49.3559         169.265       -0.0205933         143.465
0.609                   -2.67048          177.63         -49.2554         167.493         -49.2554         167.493       -0.0208133         143.386
0.61                    -2.71877          176.94         -49.1552         165.721         -49.1552         165.721       -0.0210363         143.306
0.611                   -2.76788         176.246         -49.0554         163.948         -49.0554         163.948       -0.0212622         143.227
0.612                   -2.81782         175.548          -48.956         162.174          -48.956         162.174       -0.0214912         143.147
0.613                   -2.86863         174.844          -48.857         160.399          -48.857         160.399       -0.0217233         143.067
0.614                   -2.92034         174.136         -48.7584         158.624         -48.7584         158.624       -0.0219585         142.987
0.615                   -2.97297         173.423         -48.6602         156.848         -48.6602         156.848       -0.0221969         142.907
0.616                   -3.02656         172.705         -48.5626         155.071         -48.5626         155.071       -0.0224385         142.826
0.617                   -3.08114         171.982         -48.4654         153.294         -48.4654         153.294       -0.0226834         142.745
0.618                   -3.13676         171.254         -48.3687         151.515         -48.3687         151.515       -0.0229317         142.664
0.619                   -3.19343         170.521         -48.2726         149.735         -48.2726         149.735       -0.0231834         142.583
0.62                    -3.25121         169.783          -48.177         147.955          -48.177         147.955       -0.0234386         142.502
0.621                   -3.31012          169.04          -48.082         146.174          -48.082         146.174       -0.0236973          142.42
0.622                   -3.37022         168.292         -47.9876         144.392         -47.9876         144.392       -0.0239597         142.338
0.623                   -3.43153         167.539         -47.8938         142.608         -47.8938         142.608       -0.0242257         142.255
0.624                   -3.49411         166.781         -47.8007         140.825         -47.8007         140.825       -0.0244955         142.173
0.625                     -3.558         166.018         -47.7082          139.04         -47.7082          139.04       -0.0247692          142.09
0.626                   -3.62325          165.25         -47.6164         137.255         -47.6164         137.255       -0.0250468         142.007
0.627                   -3.68989         164.477         -47.5253         135.468         -47.5253         135.468       -0.0253285         141.924
0.628                   -3.75799         163.699         -47.4349         133.682         -47.4349         133.682       -0.0256143          141.84
0.629                   -3.82759         162.916         -47.3453         131.895         -47.3453         131.895       -0.0259043         141.756
