! TOUCHSTONE file generated by CST MICROWAVE STUDIO
! Date and time: Wed Oct 28 19:20:42 2020
! Project name: Scenario_1_Circular_Tissue_out_of_Line.cst
! Parameters = {dy1=295.617; L_HA=400; MT=2.54; Rad_Dielectric=30; Rad_Lower=7.3; Rad_Upper=30; a_HA=580; a_WG=246; b_HA=500; b_WG=121; c_HA=0; c_WG=187; d_feed=85; dx1=693; h_feed=15; h_lower=18; h_upper=40}
! Header version: 2018
! Port assignment regex: !\s*Touchstone port\s*([0-9]+)\s*=\s*(CST MWS port|CST DS port)\s*([0-9]+|Zmin|Zmax)\s*\(\"(.*)\"\)(\s*mode\s*([0-9]+))?.*
! Touchstone port assignment:
! Touchstone port 1 = CST MWS port 1 ("")
! Touchstone port 2 = CST MWS port 2 ("")
# GHz S DB R 50
0.5                    -0.144342        -122.236         -63.8923         168.461          -63.972         168.724       -0.0077003         151.146
0.501                  -0.149273        -122.651         -64.0499         167.063         -64.1322         167.068      -0.00774947         151.081
0.502                  -0.154279        -123.069         -64.2099         165.616         -64.2935         165.352      -0.00779962         151.015
0.503                  -0.159363        -123.489         -64.3724         164.115         -64.4557         163.573      -0.00785075          150.95
0.504                  -0.164529        -123.911         -64.5372         162.558         -64.6185         161.727      -0.00790288         150.885
0.505                  -0.169778        -124.334         -64.7041         160.941         -64.7813         159.811        -0.007956         150.819
0.506                  -0.175115         -124.76         -64.8728         159.261         -64.9438         157.822      -0.00801012         150.754
0.507                  -0.180543        -125.188         -65.0431         157.515         -65.1053         155.756      -0.00806526         150.688
0.508                  -0.186065        -125.619         -65.2147         155.698         -65.2652         153.611      -0.00812141         150.622
0.509                  -0.191685        -126.051          -65.387         153.806         -65.4228         151.383      -0.00817859         150.556
0.51                   -0.197406        -126.486         -65.5597         151.836         -65.5773         149.069       -0.0082368         150.491
0.511                  -0.203233        -126.922         -65.7322         149.782         -65.7276         146.667      -0.00829604         150.425
0.512                  -0.209168        -127.361         -65.9038         147.642         -65.8729         144.174      -0.00835633         150.359
0.513                  -0.215216        -127.803         -66.0736         145.411          -66.012          141.59      -0.00841768         150.292
0.514                  -0.221382        -128.246         -66.2409         143.085         -66.1436         138.913      -0.00848008         150.226
0.515                  -0.227669        -128.692         -66.4046          140.66         -66.2665         136.144      -0.00854355          150.16
0.516                  -0.234081        -129.141         -66.5635         138.133         -66.3792         133.283      -0.00860809         150.094
0.517                  -0.240625        -129.592         -66.7163         135.502         -66.4805         130.333      -0.00867372         150.027
0.518                  -0.247303        -130.045         -66.8617         132.765         -66.5688         127.297      -0.00874044         149.961
0.519                   -0.25412          -130.5         -66.9981         129.922         -66.6426         124.181      -0.00880825         149.894
0.52                   -0.261083        -130.959         -67.1238         126.972         -66.7007         120.991      -0.00887718         149.827
0.521                  -0.268195        -131.419         -67.2371         123.917         -66.7418         117.734      -0.00894721          149.76
0.522                  -0.275461        -131.882         -67.3363         120.762         -66.7646         114.421      -0.00901837         149.694
0.523                  -0.282889        -132.348         -67.4194         117.511         -66.7682         111.061      -0.00909066         149.627
0.524                  -0.290481        -132.817         -67.4847         114.172         -66.7519         107.667      -0.00916409          149.56
0.525                  -0.298245        -133.288         -67.5306         110.754         -66.7151          104.25      -0.00923867         149.492
0.526                  -0.306186        -133.761         -67.5556         107.269         -66.6577         100.824      -0.00931441         149.425
0.527                   -0.31431        -134.238         -67.5585          103.73         -66.5798         97.4013      -0.00939132         149.358
0.528                  -0.322623        -134.717         -67.5382          100.15         -66.4816          93.995       -0.0094694          149.29
0.529                  -0.331131        -135.199         -67.4942         96.5457         -66.3638          90.617      -0.00954866         149.223
0.53                   -0.339841        -135.683         -67.4262         92.9331         -66.2273         87.2784      -0.00962912         149.155
0.531                   -0.34876        -136.171         -67.3344         89.3283         -66.0732         83.9891      -0.00971079         149.087
0.532                  -0.357893        -136.661         -67.2192         85.7471         -65.9025         80.7578      -0.00979366          149.02
0.533                  -0.367248        -137.154         -67.0815         82.2041         -65.7168         77.5916      -0.00987777         148.952
0.534                  -0.376832         -137.65         -66.9226         78.7129         -65.5174         74.4963       -0.0099631         148.884
0.535                  -0.386652        -138.149         -66.7438         75.2851         -65.3057          71.476       -0.0100497         148.816
0.536                  -0.396715        -138.651         -66.5468         71.9307         -65.0832         68.5337       -0.0101375         148.747
0.537                   -0.40703        -139.156         -66.3332         68.6575         -64.8512         65.6711       -0.0102266         148.679
0.538                  -0.417604        -139.663         -66.1049         65.4715         -64.6112         62.8886        -0.010317         148.611
0.539                  -0.428444        -140.174         -65.8637         62.3766         -64.3643         60.1859       -0.0104087         148.542
0.54                   -0.439559        -140.688         -65.6114         59.3751         -64.1118         57.5617       -0.0105016         148.474
0.541                  -0.450958        -141.205         -65.3495          56.468         -63.8547         55.0141       -0.0105959         148.405
0.542                  -0.462648        -141.725         -65.0798         53.6546          -63.594         52.5408       -0.0106915         148.336
0.543                  -0.474638        -142.248         -64.8036         50.9335         -63.3305          50.139       -0.0107885         148.267
0.544                  -0.486937        -142.774         -64.5222         48.3023         -63.0651         47.8056       -0.0108867         148.198
0.545                  -0.499555        -143.303         -64.2369         45.7577         -62.7984         45.5374       -0.0109864         148.129
0.546                  -0.512499        -143.836         -63.9488         43.2964         -62.5311         43.3311       -0.0110874          148.06
0.547                  -0.525781        -144.371         -63.6586         40.9143         -62.2636         41.1832       -0.0111898          147.99
0.548                  -0.539408         -144.91         -63.3674         38.6074         -61.9964         39.0904       -0.0112936         147.921
0.549                  -0.553392        -145.452         -63.0756         36.3715         -61.7299         37.0492       -0.0113988         147.851
0.55                   -0.567742        -145.998         -62.7841         34.2023         -61.4645         35.0564       -0.0115054         147.782
0.551                  -0.582468        -146.546         -62.4932         32.0956         -61.2003         33.1088       -0.0116135         147.712
0.552                   -0.59758        -147.098         -62.2034         30.0473         -60.9378         31.2033        -0.011723         147.642
0.553                  -0.613089        -147.653         -61.9151         28.0535          -60.677         29.3369        -0.011834         147.572
0.554                  -0.629005        -148.211         -61.6285         26.1103         -60.4181         27.5069       -0.0119465         147.502
0.555                   -0.64534        -148.773         -61.3439          24.214         -60.1612         25.7105       -0.0120604         147.431
0.556                  -0.662105        -149.338         -61.0616         22.3611         -59.9065         23.9451       -0.0121759         147.361
0.557                   -0.67931        -149.906         -60.7816         20.5482         -59.6541         22.2083       -0.0122929          147.29
0.558                  -0.696968        -150.478          -60.504         18.7723          -59.404         20.4977       -0.0124114          147.22
0.559                  -0.715089        -151.053         -60.2291         17.0304         -59.1562         18.8113       -0.0125315         147.149
0.56                   -0.733686        -151.631         -59.9568         15.3196         -58.9108         17.1468       -0.0126532         147.078
0.561                   -0.75277        -152.213         -59.6873         13.6372         -58.6678         15.5023       -0.0127765         147.007
0.562                  -0.772353        -152.798         -59.4204         11.9809         -58.4272          13.876       -0.0129013         146.936
0.563                  -0.792449        -153.386         -59.1563         10.3482         -58.1891         12.2661       -0.0130278         146.865
0.564                  -0.813068        -153.978          -58.895          8.7369         -57.9534          10.671        -0.013156         146.793
0.565                  -0.834224        -154.573         -58.6364         7.14496         -57.7201         9.08897       -0.0132858         146.722
0.566                   -0.85593        -155.171         -58.3806         5.57041         -57.4892         7.51862       -0.0134172          146.65
0.567                  -0.878198        -155.772         -58.1275         4.01139         -57.2607         5.95851       -0.0135504         146.578
0.568                  -0.901041        -156.377         -57.8771         2.46616         -57.0345         4.40729       -0.0136853         146.506
0.569                  -0.924473        -156.986         -57.6293        0.933089         -56.8107          2.8637       -0.0138219         146.434
0.57                   -0.948507        -157.597         -57.3842       -0.589385         -56.5892         1.32652       -0.0139603         146.362
0.571                  -0.973156        -158.212         -57.1416        -2.10273           -56.37       -0.205392       -0.0141004          146.29
0.572                  -0.998433         -158.83         -56.9017        -3.60833         -56.1531        -1.73314       -0.0142424         146.217
0.573                   -1.02435        -159.452         -56.6642        -5.10749         -55.9384        -3.25775       -0.0143861         146.145
0.574                   -1.05093        -160.076         -56.4293        -6.60148         -55.7259        -4.78023       -0.0145317         146.072
0.575                   -1.07818        -160.704         -56.1967        -8.09147         -55.5155        -6.30151       -0.0146791         145.999
0.576                   -1.10611        -161.335         -55.9666        -9.57859         -55.3074        -7.82252       -0.0148285         145.926
0.577                   -1.13473        -161.969         -55.7389        -11.0639         -55.1014        -9.34409       -0.0149797         145.853
0.578                   -1.16407        -162.607         -55.5135        -12.5484         -54.8975        -10.8671       -0.0151329         145.779
0.579                   -1.19414        -163.247         -55.2904        -14.0332         -54.6957        -12.3922        -0.015288         145.706
0.58                    -1.22494         -163.89         -55.0696         -15.519         -54.4959        -13.9203       -0.0154451         145.632
0.581                   -1.25651        -164.537         -54.8511        -17.0069         -54.2983        -15.4521       -0.0156041         145.558
0.582                   -1.28883        -165.186         -54.6348        -18.4977         -54.1026        -16.9883       -0.0157652         145.485
0.583                   -1.32195        -165.839         -54.4206        -19.9921          -53.909        -18.5294       -0.0159284          145.41
0.584                   -1.35586        -166.494         -54.2087         -21.491         -53.7173        -20.0763       -0.0160936         145.336
0.585                   -1.39058        -167.152         -53.9989         -22.995         -53.5277        -21.6294        -0.016261         145.262
0.586                   -1.42613        -167.814         -53.7912        -24.5051         -53.3401        -23.1893       -0.0164304         145.187
0.587                   -1.46251        -168.477         -53.5857        -26.0217         -53.1544        -24.7567        -0.016602         145.112
0.588                   -1.49976        -169.144         -53.3823        -27.5456         -52.9707        -26.3321       -0.0167758         145.037
0.589                   -1.53787        -169.813          -53.181        -29.0774          -52.789        -27.9159       -0.0169518         144.962
0.59                    -1.57686        -170.485         -52.9817        -30.6178         -52.6092        -29.5087       -0.0171301         144.887
0.591                   -1.61675        -171.159         -52.7846        -32.1672         -52.4314        -31.1109       -0.0173106         144.812
0.592                   -1.65756        -171.836         -52.5895        -33.7264         -52.2556         -32.723       -0.0174934         144.736
0.593                   -1.69928        -172.515         -52.3966        -35.2957         -52.0817        -34.3454       -0.0176786          144.66
0.594                   -1.74195        -173.197         -52.2057        -36.8758         -51.9098        -35.9786       -0.0178661         144.584
0.595                   -1.78557        -173.881         -52.0169         -38.467         -51.7399        -37.6228        -0.018056         144.508
0.596                   -1.83016        -174.567         -51.8303          -40.07          -51.572        -39.2785       -0.0182484         144.432
0.597                   -1.87572        -175.255         -51.6457         -41.685         -51.4061        -40.9461       -0.0184432         144.356
0.598                   -1.92228        -175.946         -51.4633        -43.3127         -51.2422        -42.6257       -0.0186406         144.279
0.599                   -1.96984        -176.638          -51.283        -44.9532         -51.0803        -44.3178       -0.0188404         144.202
0.6                     -2.01843        -177.332          -51.105        -46.6071         -50.9205        -46.0226       -0.0190429         144.125
0.601                   -2.06804        -178.028         -50.9291        -48.2746         -50.7628        -47.7404       -0.0192479         144.048
0.602                    -2.1187        -178.726         -50.7554        -49.9561         -50.6071        -49.4713       -0.0194556          143.97
0.603                   -2.17042        -179.425          -50.584         -51.652         -50.4536        -51.2157        -0.019666         143.893
0.604                   -2.22321         179.874         -50.4148        -53.3623         -50.3022        -52.9736       -0.0198791         143.815
0.605                   -2.27708         179.171          -50.248        -55.0875         -50.1529        -54.7453        -0.020095         143.737
0.606                   -2.33204         178.468         -50.0835        -56.8277         -50.0059        -56.5309       -0.0203137         143.659
0.607                   -2.38811         177.762         -49.9213        -58.5832          -49.861        -58.3305       -0.0205352          143.58
0.608                   -2.44529         177.056         -49.7616         -60.354         -49.7184        -60.1441       -0.0207597         143.502
0.609                    -2.5036         176.349         -49.6043        -62.1403          -49.578        -61.9719       -0.0209871         143.423
0.61                    -2.56305         175.641         -49.4495        -63.9423         -49.4399        -63.8139       -0.0212174         143.344
0.611                   -2.62365         174.932         -49.2973        -65.7599          -49.304        -65.6701       -0.0214508         143.265
0.612                   -2.68541         174.222         -49.1476        -67.5933         -49.1706        -67.5404       -0.0216873         143.185
0.613                   -2.74834         173.511         -49.0005        -69.4425         -49.0395        -69.4249       -0.0219269         143.105
0.614                   -2.81245           172.8          -48.856        -71.3073         -48.9107        -71.3234       -0.0221697         143.025
0.615                   -2.87775         172.089         -48.7143        -73.1879         -48.7844        -73.2359       -0.0224157         142.945
0.616                   -2.94425         171.377         -48.5753        -75.0839         -48.6605        -75.1621        -0.022665         142.865
0.617                   -3.01196         170.665          -48.439        -76.9955          -48.539        -77.1021       -0.0229176         142.784
0.618                   -3.08088         169.953         -48.3056        -78.9223         -48.4201        -79.0556       -0.0231736         142.703
0.619                   -3.15103         169.241         -48.1749        -80.8642         -48.3036        -81.0223       -0.0234331         142.622
0.62                    -3.22242         168.529         -48.0472         -82.821         -48.1896        -83.0021       -0.0236961         142.541
0.621                   -3.29504         167.818         -47.9224        -84.7924         -48.0781        -84.9947       -0.0239626          142.46
0.622                   -3.36892         167.106         -47.8005        -86.7781         -47.9692        -86.9999       -0.0242327         142.378
0.623                   -3.44405         166.396         -47.6816        -88.7779         -47.8628        -89.0172       -0.0245065         142.296
0.624                   -3.52045         165.685         -47.5657        -90.7912         -47.7589        -91.0464       -0.0247841         142.213
0.625                   -3.59812         164.976         -47.4528        -92.8178         -47.6576        -93.0871       -0.0250654         142.131
0.626                   -3.67707         164.268         -47.3429        -94.8573         -47.5589        -95.1391       -0.0253507         142.048
0.627                   -3.75731          163.56         -47.2361        -96.9092         -47.4626        -97.2017       -0.0256398         141.965
0.628                   -3.83884         162.854         -47.1323         -98.973          -47.369        -99.2748        -0.025933         141.882
0.629                   -3.92168         162.149         -47.0316        -101.048         -47.2778        -101.358       -0.0262303         141.798
