! TOUCHSTONE file generated by CST MICROWAVE STUDIO
! Date and time: Mon Oct 26 12:28:48 2020
! Project name: Scenario_1_Circular_Tissue_out_of_Line.cst
! Parameters = {dy1=295.617; L_HA=400; MT=2.54; Rad_Dielectric=30; Rad_Lower=7.3; Rad_Upper=30; a_HA=580; a_WG=246; b_HA=500; b_WG=121; c_HA=0; c_WG=187; d_feed=85; dx1=866; h_feed=15; h_lower=18; h_upper=40}
! Header version: 2018
! Port assignment regex: !\s*Touchstone port\s*([0-9]+)\s*=\s*(CST MWS port|CST DS port)\s*([0-9]+|Zmin|Zmax)\s*\(\"(.*)\"\)(\s*mode\s*([0-9]+))?.*
! Touchstone port assignment:
! Touchstone port 1 = CST MWS port 1 ("")
! Touchstone port 2 = CST MWS port 2 ("")
# GHz S DB R 50
0.5                    -0.150276        -122.392         -64.4841          80.416         -64.4841          80.416      -0.00744661         151.136
0.501                   -0.15711        -122.823         -64.2807          77.794         -64.2811         77.7968      -0.00751625          151.07
0.502                  -0.164038        -123.256           -64.08         75.1943         -64.0809         75.1998      -0.00758667         151.005
0.503                  -0.171064         -123.69         -63.8821          72.616         -63.8833         72.6237      -0.00765785          150.94
0.504                  -0.178187        -124.126         -63.6868         70.0577         -63.6884         70.0676      -0.00772982         150.874
0.505                   -0.18541        -124.564         -63.4943         67.5187         -63.4961         67.5304      -0.00780256         150.809
0.506                  -0.192734        -125.004         -63.3043         64.9978         -63.3064         65.0111      -0.00787609         150.743
0.507                  -0.200162        -125.446          -63.117         62.4941         -63.1193         62.5089      -0.00795041         150.677
0.508                  -0.207695        -125.889         -62.9322         60.0068         -62.9346         60.0229      -0.00802551         150.612
0.509                  -0.215335        -126.335         -62.7499         57.5351         -62.7525         57.5522      -0.00810141         150.546
0.51                   -0.223085        -126.783         -62.5701          55.078         -62.5728         55.0961      -0.00817811          150.48
0.511                  -0.230947        -127.233         -62.3927          52.635         -62.3954         52.6539       -0.0082556         150.414
0.512                  -0.238924        -127.684         -62.2175         50.2053         -62.2203         50.2248       -0.0083339         150.348
0.513                  -0.247018        -128.138         -62.0446         47.7881         -62.0475         47.8081        -0.008413         150.282
0.514                  -0.255233        -128.594         -61.8739         45.3828         -61.8768         45.4032      -0.00849291         150.215
0.515                  -0.263572        -129.052         -61.7053         42.9888         -61.7082         43.0095      -0.00857362         150.149
0.516                  -0.272037        -129.513         -61.5388         40.6055         -61.5416         40.6263      -0.00865515         150.083
0.517                  -0.280633        -129.976         -61.3742         38.2322          -61.377         38.2531      -0.00873749         150.016
0.518                  -0.289363        -130.441         -61.2115         35.8684         -61.2142         35.8894      -0.00882064          149.95
0.519                  -0.298232        -130.908         -61.0506         33.5136         -61.0533         33.5345      -0.00890461         149.883
0.52                   -0.307243        -131.378         -60.8915         31.1673         -60.8941          31.188       -0.0089894         149.816
0.521                  -0.316401         -131.85          -60.734         28.8288         -60.7366         28.8492        -0.009075         149.749
0.522                  -0.325711        -132.325         -60.5782         26.4978         -60.5806         26.5179      -0.00916142         149.682
0.523                  -0.335178        -132.802         -60.4238         24.1736         -60.4262         24.1934      -0.00924866         149.615
0.524                  -0.344807        -133.282         -60.2709         21.8559         -60.2732         21.8752      -0.00933672         149.548
0.525                  -0.354604        -133.764         -60.1195         19.5441         -60.1216          19.563      -0.00942559         149.481
0.526                  -0.364575        -134.249         -59.9693         17.2379         -59.9714         17.2563      -0.00951528         149.414
0.527                  -0.374726        -134.737         -59.8204         14.9367         -59.8223         14.9545      -0.00960578         149.347
0.528                  -0.385064        -135.227         -59.6726         12.6402         -59.6745         12.6574       -0.0096971         149.279
0.529                  -0.395597         -135.72          -59.526         10.3478         -59.5278         10.3644      -0.00978922         149.212
0.53                   -0.406331        -136.216         -59.3805         8.05925         -59.3821         8.07521      -0.00988215         149.144
0.531                  -0.417274        -136.715         -59.2359         5.77402         -59.2375         5.78932      -0.00997589         149.076
0.532                  -0.428435        -137.217         -59.0924         3.49173         -59.0938         3.50636       -0.0100704         149.009
0.533                  -0.439822        -137.721         -58.9497           1.212          -58.951         1.22593       -0.0101657         148.941
0.534                  -0.451445        -138.229         -58.8078        -1.06558         -58.8091        -1.05236       -0.0102619         148.873
0.535                  -0.463314         -138.74         -58.6667         -3.3414         -58.6679        -3.32888       -0.0103587         148.805
0.536                  -0.475438        -139.254         -58.5264        -5.61583         -58.5275        -5.60403       -0.0104564         148.736
0.537                  -0.487828        -139.771         -58.3868        -7.88926         -58.3878        -7.87817       -0.0105548         148.668
0.538                  -0.500495        -140.291         -58.2478         -10.162         -58.2487        -10.1517        -0.010654           148.6
0.539                  -0.513452        -140.814         -58.1095        -12.4345         -58.1103        -12.4249        -0.010754         148.531
0.54                    -0.52671        -141.341         -57.9717        -14.7071         -57.9724        -14.6982       -0.0108547         148.463
0.541                  -0.540282         -141.87         -57.8345        -16.9801         -57.8351        -16.9719       -0.0109561         148.394
0.542                  -0.554182        -142.404         -57.6978        -19.2539         -57.6984        -19.2463       -0.0110582         148.325
0.543                  -0.568424         -142.94         -57.5616        -21.5288         -57.5621        -21.5218       -0.0111611         148.256
0.544                  -0.583022         -143.48         -57.4258         -23.805         -57.4263        -23.7988       -0.0112646         148.187
0.545                  -0.597992        -144.023         -57.2905        -26.0831         -57.2909        -26.0775       -0.0113689         148.118
0.546                   -0.61335         -144.57         -57.1556        -28.3631          -57.156        -28.3581       -0.0114739         148.049
0.547                  -0.629111         -145.12         -57.0211        -30.6455         -57.0214        -30.6412       -0.0115795          147.98
0.548                  -0.645294        -145.674          -56.887        -32.9306         -56.8873        -32.9268       -0.0116859          147.91
0.549                  -0.661915        -146.231         -56.7533        -35.2186         -56.7535        -35.2153       -0.0117929         147.841
0.55                   -0.678993        -146.791           -56.62        -37.5097         -56.6201         -37.507       -0.0119006         147.771
0.551                  -0.696548        -147.355          -56.487        -39.8043         -56.4871        -39.8021       -0.0120091         147.701
0.552                  -0.714597        -147.923         -56.3544        -42.1026         -56.3545        -42.1009       -0.0121182         147.631
0.553                  -0.733161        -148.494         -56.2221        -44.4049         -56.2222        -44.4036       -0.0122281         147.561
0.554                   -0.75226        -149.068         -56.0902        -46.7113         -56.0903        -46.7105       -0.0123387         147.491
0.555                  -0.771916        -149.646         -55.9587         -49.022         -55.9587        -49.0216       -0.0124502         147.421
0.556                  -0.792148        -150.227         -55.8276        -51.3373         -55.8276        -51.3373       -0.0125624         147.351
0.557                  -0.812978        -150.812         -55.6969        -53.6574         -55.6969        -53.6577       -0.0126755          147.28
0.558                  -0.834429          -151.4         -55.5666        -55.9824         -55.5665        -55.9831       -0.0127896          147.21
0.559                  -0.856521        -151.991         -55.4367        -58.3124         -55.4366        -58.3134       -0.0129046         147.139
0.56                   -0.879275        -152.585         -55.3072        -60.6476         -55.3072        -60.6489       -0.0130207         147.068
0.561                  -0.902714        -153.182         -55.1782        -62.9881         -55.1782        -62.9897       -0.0131379         146.997
0.562                  -0.926859        -153.782         -55.0497        -65.3341         -55.0497        -65.3358       -0.0132563         146.926
0.563                   -0.95173        -154.385         -54.9218        -67.6855         -54.9217        -67.6875        -0.013376         146.855
0.564                  -0.977348        -154.991         -54.7943        -70.0425         -54.7943        -70.0446       -0.0134971         146.783
0.565                   -1.00373          -155.6         -54.6675         -72.405         -54.6674        -72.4074       -0.0136198         146.712
0.566                    -1.0309        -156.211         -54.5412        -74.7732         -54.5411        -74.7757        -0.013744          146.64
0.567                   -1.05887        -156.824         -54.4155         -77.147         -54.4155        -77.1496       -0.0138699         146.568
0.568                   -1.08766        -157.439         -54.2906        -79.5264         -54.2905         -79.529       -0.0139976         146.496
0.569                   -1.11728        -158.057         -54.1663        -81.9113         -54.1663         -81.914       -0.0141271         146.424
0.57                    -1.14774        -158.676         -54.0427        -84.3017         -54.0427        -84.3045       -0.0142587         146.352
0.571                   -1.17906        -159.297         -53.9199        -86.6975         -53.9199        -86.7003       -0.0143923          146.28
0.572                   -1.21124        -159.919         -53.7979        -89.0986         -53.7979        -89.1014       -0.0145279         146.207
0.573                   -1.24429        -160.542         -53.6768        -91.5048         -53.6768        -91.5076       -0.0146658         146.135
0.574                   -1.27821        -161.166         -53.5565        -93.9161         -53.5565        -93.9189       -0.0148059         146.062
0.575                     -1.313        -161.791         -53.4371        -96.3322         -53.4371        -96.3349       -0.0149482         145.989
0.576                   -1.34866        -162.417         -53.3186        -98.7529         -53.3186        -98.7556       -0.0150929         145.916
0.577                   -1.38517        -163.043         -53.2011        -101.178         -53.2011        -101.181       -0.0152398         145.843
0.578                   -1.42253        -163.668         -53.0846        -103.607         -53.0846         -103.61        -0.015389         145.769
0.579                   -1.46073        -164.294         -52.9691        -106.041         -52.9691        -106.043       -0.0155406         145.696
0.58                    -1.49974        -164.919         -52.8546        -108.478         -52.8547         -108.48       -0.0156945         145.622
0.581                   -1.53953        -165.543         -52.7412        -110.918         -52.7413         -110.92       -0.0158507         145.548
0.582                   -1.58009        -166.166         -52.6289        -113.361          -52.629        -113.363       -0.0160092         145.474
0.583                   -1.62139        -166.788         -52.5177        -115.807         -52.5178         -115.81       -0.0161699           145.4
0.584                   -1.66338        -167.409         -52.4077        -118.256         -52.4078        -118.258       -0.0163329         145.326
0.585                   -1.70603        -168.029         -52.2988        -120.707         -52.2989        -120.708       -0.0164982         145.252
0.586                   -1.74929        -168.647          -52.191        -123.159         -52.1911        -123.161       -0.0166656         145.177
0.587                   -1.79313        -169.263         -52.0844        -125.613         -52.0845        -125.614       -0.0168353         145.102
0.588                   -1.83749        -169.878          -51.979        -128.067         -51.9791        -128.069       -0.0170071         145.027
0.589                   -1.88232         -170.49         -51.8747        -130.523         -51.8748        -130.524       -0.0171811         144.952
0.59                    -1.92757        -171.101         -51.7716        -132.978         -51.7717         -132.98       -0.0173572         144.877
0.591                   -1.97319        -171.711         -51.6697        -135.434         -51.6697        -135.435       -0.0175354         144.802
0.592                   -2.01913        -172.318         -51.5688        -137.889         -51.5689         -137.89       -0.0177158         144.726
0.593                   -2.06532        -172.924         -51.4692        -140.343         -51.4692        -140.344       -0.0178983          144.65
0.594                   -2.11172        -173.529         -51.3706        -142.796         -51.3706        -142.797       -0.0180829         144.574
0.595                   -2.15827        -174.133         -51.2731        -145.248         -51.2731        -145.249       -0.0182696         144.498
0.596                   -2.20493        -174.736         -51.1767        -147.697         -51.1767        -147.698       -0.0184585         144.422
0.597                   -2.25166        -175.338         -51.0813        -150.145         -51.0813        -150.145       -0.0186495         144.346
0.598                    -2.2984         -175.94         -50.9869         -152.59         -50.9869         -152.59       -0.0188426         144.269
0.599                   -2.34512        -176.542         -50.8934        -155.032         -50.8935        -155.033       -0.0190379         144.192
0.6                     -2.39179        -177.145         -50.8009        -157.471          -50.801        -157.472       -0.0192354         144.115
0.601                   -2.43838        -177.749         -50.7093        -159.907         -50.7094        -159.908       -0.0194351         144.038
0.602                   -2.48488        -178.354         -50.6186         -162.34         -50.6186         -162.34       -0.0196369          143.96
0.603                   -2.53127        -178.961         -50.5286        -164.768         -50.5287        -164.768       -0.0198411         143.883
0.604                   -2.57754        -179.571         -50.4394        -167.193         -50.4395        -167.193       -0.0200475         143.805
0.605                   -2.62369         179.817          -50.351        -169.614          -50.351        -169.614       -0.0202563         143.727
0.606                   -2.66974           179.2         -50.2631         -172.03         -50.2631        -172.031       -0.0204673         143.649
0.607                   -2.71569          178.58         -50.1759        -174.443         -50.1759        -174.443       -0.0206808          143.57
0.608                   -2.76158         177.955         -50.0893        -176.851         -50.0893        -176.851       -0.0208967         143.492
0.609                   -2.80743         177.325         -50.0031        -179.255         -50.0031        -179.255       -0.0211151         143.413
0.61                    -2.85329         176.689         -49.9175         178.346         -49.9175         178.346        -0.021336         143.334
0.611                    -2.8992         176.046         -49.8322         175.951         -49.8322         175.951       -0.0215594         143.255
0.612                   -2.94522         175.397         -49.7473         173.561         -49.7473         173.561       -0.0217855         143.175
0.613                    -2.9914         174.741         -49.6627         171.174         -49.6627         171.174       -0.0220143         143.096
0.614                   -3.03783         174.077         -49.5784         168.792         -49.5784         168.792       -0.0222458         143.016
0.615                   -3.08456         173.405         -49.4943         166.414         -49.4943         166.414         -0.02248         142.936
0.616                   -3.13169         172.724         -49.4104          164.04         -49.4104          164.04       -0.0227172         142.855
0.617                    -3.1793         172.034         -49.3266         161.669         -49.3266         161.669       -0.0229572         142.775
0.618                   -3.22748         171.335          -49.243         159.302         -49.2429         159.302       -0.0232003         142.694
0.619                   -3.27634         170.626         -49.1594         156.938         -49.1593         156.938       -0.0234464         142.613
0.62                    -3.32596         169.908         -49.0758         154.577         -49.0758         154.577       -0.0236956         142.532
0.621                   -3.37647         169.179         -48.9922          152.22         -48.9922          152.22       -0.0239481          142.45
0.622                   -3.42797          168.44         -48.9087         149.864         -48.9087         149.864       -0.0242039         142.368
0.623                   -3.48057          167.69         -48.8251         147.511         -48.8251         147.511       -0.0244631         142.286
0.624                    -3.5344          166.93         -48.7414          145.16         -48.7414          145.16       -0.0247258         142.204
0.625                   -3.58958          166.16         -48.6577         142.811         -48.6577         142.811        -0.024992         142.121
0.626                   -3.64623         165.378         -48.5739         140.463         -48.5739         140.463        -0.025262         142.038
0.627                   -3.70447         164.586         -48.4901         138.116         -48.4901         138.116       -0.0255357         141.955
0.628                   -3.76444         163.783         -48.4061         135.769         -48.4061         135.769       -0.0258133         141.872
0.629                   -3.82628          162.97         -48.3221         133.423         -48.3221         133.423       -0.0260949         141.788
