! TOUCHSTONE file generated by CST MICROWAVE STUDIO
! Date and time: Sat Oct 24 11:50:02 2020
! Project name: Scenario_1_Circular_Tissue_out_of_Line.cst
! Parameters = {dy1=295.617; L_HA=400; MT=2.54; Rad_Dielectric=30; Rad_Lower=7.3; Rad_Upper=30; a_HA=580; a_WG=246; b_HA=500; b_WG=121; c_HA=0; c_WG=187; d_feed=85; dx1=1039; h_feed=15; h_lower=18; h_upper=40}
! Header version: 2018
! Port assignment regex: !\s*Touchstone port\s*([0-9]+)\s*=\s*(CST MWS port|CST DS port)\s*([0-9]+|Zmin|Zmax)\s*\(\"(.*)\"\)(\s*mode\s*([0-9]+))?.*
! Touchstone port assignment:
! Touchstone port 1 = CST MWS port 1 ("")
! Touchstone port 2 = CST MWS port 2 ("")
# GHz S DB R 50
0.5                     -0.14263         -122.22          -65.022        -18.5646         -65.0189        -18.4615      -0.00758375         151.112
0.501                  -0.150336        -122.708         -65.2869        -20.6643         -65.1435        -20.1474      -0.00764743         151.047
0.502                  -0.158341        -123.196          -65.558        -22.8856         -65.2696        -21.8863      -0.00771176         150.981
0.503                  -0.166644        -123.686         -65.8346          -25.24         -65.3972         -23.681      -0.00777676         150.916
0.504                  -0.175247        -124.176         -66.1159        -27.7398          -65.526        -25.5345      -0.00784242          150.85
0.505                   -0.18415        -124.668         -66.4009        -30.3985         -65.6558        -27.4495      -0.00790876         150.785
0.506                  -0.193354         -125.16         -66.6879          -33.23         -65.7862        -29.4293      -0.00797579         150.719
0.507                  -0.202858        -125.654         -66.9752        -36.2488         -65.9169        -31.4769       -0.0080435         150.653
0.508                  -0.212665        -126.148         -67.2602        -39.4694         -66.0475        -33.5955      -0.00811192         150.587
0.509                  -0.222773        -126.644         -67.5398        -42.9056         -66.1775        -35.7884      -0.00818105         150.521
0.51                   -0.233183         -127.14         -67.8105        -46.5694         -66.3064        -38.0587       -0.0082509         150.456
0.511                  -0.243895        -127.638         -68.0676        -50.4703         -66.4335        -40.4095      -0.00832147         150.389
0.512                  -0.254909        -128.136         -68.3061        -54.6132         -66.5581        -42.8437      -0.00839278         150.323
0.513                  -0.266227        -128.636         -68.5203        -58.9968         -66.6794        -45.3642      -0.00846483         150.257
0.514                  -0.277846        -129.136         -68.7038         -63.612         -66.7966        -47.9732      -0.00853764         150.191
0.515                  -0.289769        -129.637         -68.8503        -68.4402         -66.9086        -50.6727      -0.00861121         150.124
0.516                  -0.301993        -130.139         -68.9539        -73.4522         -67.0144        -53.4641      -0.00868555         150.058
0.517                  -0.314521        -130.643         -69.0092        -78.6084         -67.1128        -56.3482      -0.00876068         149.991
0.518                   -0.32735        -131.147         -69.0124        -83.8603         -67.2026        -59.3248       -0.0088366         149.925
0.519                  -0.340481        -131.652         -68.9611         -89.153         -67.2825        -62.3929      -0.00891332         149.858
0.52                   -0.353915        -132.157         -68.8553        -94.4291         -67.3511        -65.5502      -0.00899085         149.791
0.521                  -0.367649        -132.664         -68.6969        -99.6331         -67.4072        -68.7934      -0.00906921         149.724
0.522                  -0.381685        -133.172         -68.4895        -104.715         -67.4492        -72.1177       -0.0091484         149.657
0.523                  -0.396021         -133.68         -68.2383        -109.634          -67.476        -75.5172      -0.00922843          149.59
0.524                  -0.410656        -134.189         -67.9492        -114.358         -67.4863        -78.9844      -0.00930932         149.523
0.525                  -0.425591          -134.7         -67.6286        -118.868         -67.4791        -82.5105      -0.00939108         149.456
0.526                  -0.440825        -135.211         -67.2827        -123.153         -67.4534        -86.0857      -0.00947372         149.389
0.527                  -0.456356        -135.723         -66.9175        -127.211         -67.4085        -89.6991      -0.00955724         149.321
0.528                  -0.472184        -136.236         -66.5383        -131.045         -67.3439         -93.339      -0.00964167         149.254
0.529                  -0.488309        -136.749         -66.1497        -134.664         -67.2594        -96.9935      -0.00972701         149.186
0.53                   -0.504728        -137.264         -65.7554         -138.08          -67.155         -100.65      -0.00981328         149.118
0.531                  -0.521441        -137.779         -65.3588        -141.308         -67.0311        -104.297      -0.00990049         149.051
0.532                  -0.538447        -138.295         -64.9624         -144.36         -66.8883        -107.924      -0.00998865         148.983
0.533                  -0.555745        -138.812         -64.5683        -147.252         -66.7272        -111.518       -0.0100778         148.915
0.534                  -0.573332         -139.33          -64.178        -149.999         -66.5489        -115.071       -0.0101679         148.847
0.535                  -0.591209        -139.849         -63.7928        -152.613         -66.3546        -118.575        -0.010259         148.778
0.536                  -0.609372        -140.368         -63.4136        -155.107         -66.1454        -122.023       -0.0103511          148.71
0.537                  -0.627822        -140.889         -63.0409        -157.494         -65.9228        -125.408       -0.0104442         148.642
0.538                  -0.646555         -141.41         -62.6754        -159.784          -65.688        -128.726       -0.0105383         148.573
0.539                   -0.66557        -141.932         -62.3172        -161.986         -65.4425        -131.976       -0.0106335         148.505
0.54                   -0.684865        -142.455         -61.9666         -164.11         -65.1876        -135.154       -0.0107298         148.436
0.541                  -0.704438        -142.979         -61.6237        -166.164         -64.9246         -138.26       -0.0108271         148.367
0.542                  -0.724286        -143.503         -61.2884        -168.156         -64.6548        -141.295       -0.0109255         148.298
0.543                  -0.744408        -144.029         -60.9608        -170.091         -64.3792        -144.259       -0.0110251         148.229
0.544                  -0.764801        -144.555         -60.6408        -171.976         -64.0989        -147.154       -0.0111257          148.16
0.545                  -0.785463        -145.082         -60.3282        -173.817          -63.815        -149.982       -0.0112275         148.091
0.546                   -0.80639         -145.61         -60.0229        -175.619         -63.5283        -152.746       -0.0113305         148.022
0.547                  -0.827579        -146.139         -59.7248        -177.385         -63.2396        -155.449       -0.0114346         147.952
0.548                  -0.849028        -146.669         -59.4338         -179.12         -62.9495        -158.094         -0.01154         147.883
0.549                  -0.870734          -147.2         -59.1497         179.171         -62.6588        -160.683       -0.0116465         147.813
0.55                   -0.892692        -147.732         -58.8722         177.487         -62.3679        -163.221       -0.0117542         147.743
0.551                  -0.914899        -148.264         -58.6014         175.823         -62.0774        -165.711       -0.0118632         147.673
0.552                  -0.937352        -148.798         -58.3369         174.176         -61.7877        -168.156       -0.0119735         147.603
0.553                  -0.960045        -149.333         -58.0787         172.545         -61.4991        -170.559        -0.012085         147.533
0.554                  -0.982976        -149.868         -57.8266         170.926         -61.2119        -172.923       -0.0121979         147.463
0.555                   -1.00614        -150.405         -57.5805         169.317         -60.9265        -175.252        -0.012312         147.393
0.556                   -1.02953        -150.942         -57.3402         167.717          -60.643        -177.549       -0.0124275         147.322
0.557                   -1.05314        -151.481         -57.1056         166.122         -60.3616        -179.816       -0.0125444         147.252
0.558                   -1.07697        -152.021         -56.8766         164.532         -60.0826         177.944       -0.0126626         147.181
0.559                   -1.10101        -152.562          -56.653         162.944          -59.806         175.727       -0.0127822          147.11
0.56                    -1.12526        -153.104         -56.4348         161.357         -59.5321         173.533       -0.0129033         147.039
0.561                   -1.14971        -153.647         -56.2217          159.77         -59.2607         171.358       -0.0130258         146.968
0.562                   -1.17435        -154.192         -56.0138          158.18         -58.9922           169.2       -0.0131498         146.897
0.563                   -1.19917        -154.738         -55.8109         156.586         -58.7265         167.057       -0.0132752         146.825
0.564                   -1.22417        -155.285         -55.6128         154.987         -58.4637         164.927       -0.0134022         146.754
0.565                   -1.24934        -155.833         -55.4196         153.382         -58.2039         162.807       -0.0135306         146.682
0.566                   -1.27468        -156.384         -55.2311          151.77         -57.9471         160.697       -0.0136607         146.611
0.567                   -1.30017        -156.935         -55.0473         150.148         -57.6933         158.594       -0.0137923         146.539
0.568                    -1.3258        -157.489          -54.868         148.517         -57.4426         156.497       -0.0139255         146.467
0.569                   -1.35156        -158.044         -54.6931         146.875         -57.1949         154.404       -0.0140604         146.395
0.57                    -1.37746        -158.601         -54.5226         145.221         -56.9504         152.314       -0.0141969         146.322
0.571                   -1.40346         -159.16         -54.3564         143.554         -56.7091         150.225       -0.0143351          146.25
0.572                   -1.42957        -159.721         -54.1944         141.872         -56.4709         148.136        -0.014475         146.177
0.573                   -1.45578        -160.284         -54.0366         140.176         -56.2359         146.046       -0.0146166         146.105
0.574                   -1.48207         -160.85         -53.8828         138.463         -56.0041         143.953         -0.01476         146.032
0.575                   -1.50843        -161.418         -53.7329         136.734         -55.7756         141.857       -0.0149052         145.959
0.576                   -1.53485        -161.989          -53.587         134.986         -55.5503         139.756       -0.0150522         145.886
0.577                   -1.56132        -162.563         -53.4448          133.22         -55.3282         137.649        -0.015201         145.812
0.578                   -1.58784         -163.14         -53.3063         131.434         -55.1095         135.536       -0.0153518         145.739
0.579                   -1.61438         -163.72         -53.1715         129.628          -54.894         133.416       -0.0155044         145.665
0.58                    -1.64095        -164.305         -53.0402         127.801         -54.6819         131.287       -0.0156589         145.592
0.581                   -1.66754        -164.893         -52.9123         125.951         -54.4732         129.149       -0.0158154         145.518
0.582                   -1.69415        -165.486         -52.7878         124.079         -54.2678         127.001       -0.0159739         145.444
0.583                   -1.72077        -166.084         -52.6665         122.184         -54.0659         124.843       -0.0161344         145.369
0.584                   -1.74742        -166.687         -52.5483         120.264         -53.8674         122.673        -0.016297         145.295
0.585                    -1.7741        -167.297         -52.4331          118.32         -53.6723         120.492       -0.0164617         145.221
0.586                   -1.80084        -167.912         -52.3209          116.35         -53.4808         118.299       -0.0166285         145.146
0.587                   -1.82765        -168.535         -52.2114         114.355         -53.2928         116.093       -0.0167974         145.071
0.588                    -1.8546        -169.165         -52.1046         112.333         -53.1083         113.873       -0.0169685         144.996
0.589                   -1.88172        -169.804         -52.0003         110.285         -52.9274          111.64       -0.0171419         144.921
0.59                     -1.9091        -170.452         -51.8984          108.21         -52.7501         109.392       -0.0173175         144.846
0.591                   -1.93683        -171.109         -51.7987         106.107         -52.5764          107.13       -0.0174953          144.77
0.592                   -1.96503        -171.778         -51.7012         103.977         -52.4064         104.853       -0.0176756         144.694
0.593                   -1.99385        -172.458         -51.6056         101.819         -52.2401         102.561       -0.0178581         144.619
0.594                   -2.02346         -173.15         -51.5118         99.6326         -52.0775         100.253       -0.0180431         144.542
0.595                    -2.0541        -173.855         -51.4198         97.4187         -51.9187         97.9299       -0.0182305         144.466
0.596                     -2.086        -174.572         -51.3292          95.177         -51.7636         95.5907       -0.0184204          144.39
0.597                   -2.11947        -175.304         -51.2399         92.9076         -51.6122         93.2354       -0.0186128         144.313
0.598                   -2.15481        -176.048         -51.1518         90.6109         -51.4647         90.8639       -0.0188077         144.237
0.599                   -2.19237        -176.805         -51.0648          88.287          -51.321          88.476       -0.0190052          144.16
0.6                     -2.23251        -177.574         -50.9787         85.9365          -51.181         86.0716       -0.0192053         144.082
0.601                   -2.27557        -178.353         -50.8932         83.5599         -51.0449         83.6507       -0.0194081         144.005
0.602                   -2.32187        -179.139         -50.8083         81.1578         -50.9125          81.213       -0.0196136         143.928
0.603                   -2.37167        -179.931         -50.7239         78.7309         -50.7839         78.7587       -0.0198218          143.85
0.604                   -2.42516         179.275         -50.6397         76.2801         -50.6591         76.2876       -0.0200328         143.772
0.605                   -2.48238         178.484         -50.5556         73.8061         -50.5381         73.7997       -0.0202466         143.694
0.606                    -2.5433         177.697         -50.4715         71.3101         -50.4207         71.2949       -0.0204632         143.615
0.607                    -2.6077          176.92         -50.3873         68.7931          -50.307         68.7733       -0.0206827         143.537
0.608                   -2.67527         176.155         -50.3029         66.2562         -50.1969         66.2349       -0.0209052         143.458
0.609                   -2.74557         175.405         -50.2182         63.7006         -50.0903         63.6795       -0.0211306         143.379
0.61                    -2.81809         174.672          -50.133         61.1276         -49.9872         61.1073       -0.0213591           143.3
0.611                   -2.89228         173.957         -50.0473         58.5385         -49.8875         58.5181       -0.0215905         143.221
0.612                   -2.96757         173.261         -49.9611         55.9347          -49.791         55.9121       -0.0218251         143.141
0.613                   -3.04343         172.582         -49.8743         53.3174         -49.6977         53.2891       -0.0220628         143.061
0.614                    -3.1194          171.92         -49.7868         50.6883         -49.6074         50.6492       -0.0223036         142.981
0.615                   -3.19509         171.272         -49.6986         48.0485         -49.5201         47.9923       -0.0225476         142.901
0.616                   -3.27019         170.636         -49.6098         45.3996         -49.4354         45.3186       -0.0227949         142.821
0.617                   -3.34451         170.011         -49.5203         42.7429         -49.3533         42.6279       -0.0230454          142.74
0.618                    -3.4179         169.393         -49.4301         40.0799         -49.2735         39.9205       -0.0232993         142.659
0.619                   -3.49031          168.78         -49.3394         37.4118         -49.1959         37.1963       -0.0235565         142.578
0.62                    -3.56173         168.171          -49.248           34.74         -49.1201         34.4556        -0.023817         142.496
0.621                   -3.63223         167.564         -49.1562         32.0657         -49.0459         31.6985        -0.024081         142.415
0.622                   -3.70188         166.956         -49.0639         29.3901         -48.9731         28.9253       -0.0243484         142.333
0.623                   -3.77078         166.346         -48.9712         26.7144         -48.9014         26.1366       -0.0246193         142.251
0.624                   -3.83907         165.733         -48.8782         24.0396         -48.8304         23.3327       -0.0248938         142.168
0.625                   -3.90687         165.117         -48.7851         21.3667         -48.7597         20.5145       -0.0251718         142.086
0.626                   -3.97433         164.496         -48.6918         18.6965          -48.689         17.6828       -0.0254534         142.003
0.627                   -4.04157         163.869         -48.5985         16.0301          -48.618         14.8387       -0.0257386          141.92
0.628                   -4.10874         163.236         -48.5052          13.368         -48.5463         11.9838       -0.0260276         141.836
0.629                   -4.17597         162.597         -48.4122          10.711         -48.4734         9.11957       -0.0263202         141.753
