! TOUCHSTONE file generated by CST MICROWAVE STUDIO
! Date and time: Mon Oct 26 12:10:18 2020
! Project name: Scenario_1_Circular_Tissue_out_of_Line_v2.cst
! Parameters = {dy1=311.4; L_HA=400; MT=2.54; Rad_Dielectric=30; Rad_Lower=7.3; Rad_Upper=30; a_HA=580; a_WG=246; b_HA=500; b_WG=121; c_HA=0; c_WG=187; d_feed=85; dx1=173; h_feed=15; h_lower=18; h_upper=40}
! Header version: 2018
! Port assignment regex: !\s*Touchstone port\s*([0-9]+)\s*=\s*(CST MWS port|CST DS port)\s*([0-9]+|Zmin|Zmax)\s*\(\"(.*)\"\)(\s*mode\s*([0-9]+))?.*
! Touchstone port assignment:
! Touchstone port 1 = CST MWS port 1 ("")
! Touchstone port 2 = CST MWS port 2 ("")
# GHz S DB R 50
0.5                    -0.154281        -122.522         -63.0465         83.2507         -63.0465         83.2507      -0.00704299         151.137
0.501                  -0.161824         -122.95         -62.8812          81.368          -62.878         81.3731      -0.00709875         151.072
0.502                  -0.169467         -123.38         -62.7161         79.4997           -62.71         79.5098      -0.00715575         151.006
0.503                  -0.177214        -123.811         -62.5513         77.6451         -62.5425         77.6602      -0.00721403         150.941
0.504                  -0.185066        -124.245         -62.3868         75.8034         -62.3755         75.8234      -0.00727359         150.875
0.505                  -0.193027         -124.68         -62.2228         73.9741         -62.2093         73.9987      -0.00733446          150.81
0.506                  -0.201098        -125.118         -62.0592         72.1562         -62.0437         72.1853      -0.00739666         150.744
0.507                  -0.209283        -125.557         -61.8963         70.3492         -61.8789         70.3825      -0.00746022         150.678
0.508                  -0.217585        -125.999          -61.734         68.5523         -61.7149         68.5897      -0.00752514         150.612
0.509                  -0.226005        -126.442         -61.5723         66.7649         -61.5518          66.806      -0.00759144         150.547
0.51                   -0.234547        -126.887         -61.4114         64.9863         -61.3895         65.0309      -0.00765915         150.481
0.511                  -0.243214        -127.335         -61.2513          63.216         -61.2282         63.2638      -0.00772826         150.414
0.512                  -0.252009        -127.784          -61.092         61.4533         -61.0679          61.504       -0.0077988         150.348
0.513                  -0.260935        -128.236         -60.9335         59.6977         -60.9085          59.751      -0.00787078         150.282
0.514                  -0.269995         -128.69         -60.7759         57.9486         -60.7502         58.0042      -0.00794419         150.216
0.515                  -0.279193        -129.145         -60.6192         56.2054         -60.5929         56.2631      -0.00801906         150.149
0.516                   -0.28853        -129.603         -60.4635         54.4677         -60.4367         54.5271      -0.00809538         150.083
0.517                  -0.298012        -130.064         -60.3088          52.735         -60.2816         52.7958      -0.00817316         150.016
0.518                  -0.307641        -130.526         -60.1551         51.0067         -60.1276         51.0687       -0.0082524          149.95
0.519                  -0.317421         -130.99         -60.0024         49.2824         -59.9747         49.3454      -0.00833311         149.883
0.52                   -0.327356        -131.457         -59.8507         47.5617         -59.8229         47.6254      -0.00841528         149.816
0.521                  -0.337449        -131.926         -59.7001         45.8442         -59.6723         45.9083       -0.0084989         149.749
0.522                  -0.347703        -132.397         -59.5506         44.1295         -59.5228         44.1937      -0.00858399         149.682
0.523                  -0.358124        -132.871         -59.4022         42.4171         -59.3746         42.4813      -0.00867052         149.615
0.524                  -0.368714        -133.347         -59.2549         40.7068         -59.2275         40.7708       -0.0087585         149.548
0.525                  -0.379478        -133.825         -59.1088         38.9983         -59.0816         39.0617      -0.00884792         149.481
0.526                   -0.39042        -134.306         -58.9638         37.2911         -58.9369         37.3539      -0.00893878         149.414
0.527                  -0.401545        -134.789         -58.8199          35.585         -58.7935          35.647      -0.00903106         149.346
0.528                  -0.412856        -135.274         -58.6773         33.8797         -58.6513         33.9406      -0.00912475         149.279
0.529                  -0.424358        -135.762         -58.5358         32.1749         -58.5103         32.2347      -0.00921985         149.211
0.53                   -0.436056        -136.252         -58.3955         30.4704         -58.3706         30.5289      -0.00931634         149.144
0.531                  -0.447955        -136.745         -58.2565          28.766         -58.2321         28.8231      -0.00941421         149.076
0.532                  -0.460058        -137.241         -58.1186         27.0614         -58.0949          27.117      -0.00951346         149.008
0.533                  -0.472371        -137.738          -57.982         25.3565         -57.9589         25.4104      -0.00961407          148.94
0.534                    -0.4849        -138.239         -57.8467          23.651         -57.8242         23.7031      -0.00971602         148.872
0.535                  -0.497649        -138.742         -57.7126         21.9449         -57.6908         21.9951      -0.00981932         148.804
0.536                  -0.510623        -139.247         -57.5797         20.2378         -57.5587         20.2861      -0.00992394         148.736
0.537                  -0.523828        -139.756         -57.4481         18.5298         -57.4279         18.5761       -0.0100299         148.667
0.538                   -0.53727        -140.266         -57.3178         16.8206         -57.2984          16.865       -0.0101371         148.599
0.539                  -0.550954         -140.78         -57.1888         15.1103         -57.1702         15.1525       -0.0102456          148.53
0.54                   -0.564886        -141.296         -57.0611         13.3986         -57.0432         13.4387       -0.0103554         148.462
0.541                  -0.579072        -141.815         -56.9347         11.6855         -56.9176         11.7235       -0.0104665         148.393
0.542                  -0.593517        -142.337         -56.8096         9.97096         -56.7934         10.0069       -0.0105789         148.324
0.543                  -0.608229        -142.861         -56.6858          8.2549         -56.6704         8.28869       -0.0106925         148.255
0.544                  -0.623214        -143.388         -56.5633          6.5373         -56.5487         6.56897       -0.0108073         148.186
0.545                  -0.638478        -143.919         -56.4421         4.81812         -56.4284         4.84769       -0.0109234         148.117
0.546                  -0.654028        -144.451         -56.3223         3.09736         -56.3094         3.12485       -0.0110407         148.048
0.547                   -0.66987        -144.987         -56.2038           1.375         -56.1918         1.40044       -0.0111592         147.978
0.548                  -0.686013        -145.526         -56.0867       -0.348926         -56.0755       -0.325502        -0.011279         147.909
0.549                  -0.702462        -146.067         -55.9708        -2.07441         -55.9605        -2.05296       -0.0113999         147.839
0.55                   -0.719226        -146.612         -55.8564        -3.80142         -55.8468        -3.78189       -0.0115221          147.77
0.551                  -0.736311        -147.159         -55.7432         -5.5299         -55.7345        -5.51224       -0.0116455           147.7
0.552                  -0.753727         -147.71         -55.6315        -7.25981         -55.6235        -7.24396         -0.01177          147.63
0.553                   -0.77148        -148.263          -55.521        -8.99108         -55.5139        -8.97697       -0.0118958          147.56
0.554                  -0.789579         -148.82         -55.4119        -10.7236         -55.4055        -10.7112       -0.0120228          147.49
0.555                  -0.808032        -149.379         -55.3042        -12.4574         -55.2986        -12.4466        -0.012151         147.419
0.556                  -0.826848        -149.942         -55.1978        -14.1922         -55.1929         -14.183       -0.0122804         147.349
0.557                  -0.846034        -150.508         -55.0928        -15.9281         -55.0886        -15.9203        -0.012411         147.278
0.558                  -0.865602        -151.076          -54.989        -17.6649         -54.9855        -17.6585       -0.0125428         147.208
0.559                  -0.885558        -151.648         -54.8867        -19.4025         -54.8838        -19.3973       -0.0126758         147.137
0.56                   -0.905913        -152.223         -54.7856        -21.1407         -54.7834        -21.1368       -0.0128101         147.066
0.561                  -0.926677        -152.802         -54.6859        -22.8795         -54.6844        -22.8767       -0.0129455         146.995
0.562                  -0.947859        -153.383         -54.5875        -24.6186         -54.5865         -24.617       -0.0130822         146.924
0.563                  -0.969469        -153.968         -54.4904        -26.3581           -54.49        -26.3574       -0.0132202         146.853
0.564                  -0.991517        -154.556         -54.3946        -28.0976         -54.3948        -28.0979       -0.0133594         146.781
0.565                   -1.01401        -155.147         -54.3001        -29.8372         -54.3008        -29.8382       -0.0134998          146.71
0.566                   -1.03697        -155.741         -54.2069        -31.5765         -54.2081        -31.5783       -0.0136416         146.638
0.567                    -1.0604        -156.339         -54.1149        -33.3155         -54.1166         -33.318       -0.0137846         146.566
0.568                   -1.08431         -156.94         -54.0242        -35.0541         -54.0263        -35.0572       -0.0139289         146.494
0.569                   -1.10871        -157.545         -53.9348        -36.7919         -53.9373        -36.7956       -0.0140745         146.422
0.57                    -1.13362        -158.152         -53.8465         -38.529         -53.8495        -38.5331       -0.0142214          146.35
0.571                   -1.15904        -158.763         -53.7595        -40.2651         -53.7628        -40.2696       -0.0143697         146.278
0.572                   -1.18499        -159.378         -53.6737             -42         -53.6773        -42.0049       -0.0145193         146.205
0.573                   -1.21149        -159.995         -53.5891        -43.7336          -53.593        -43.7388       -0.0146703         146.133
0.574                   -1.23854        -160.617         -53.5056        -45.4657         -53.5098        -45.4711       -0.0148227          146.06
0.575                   -1.26615        -161.241         -53.4233        -47.1962         -53.4277        -47.2018       -0.0149765         145.987
0.576                   -1.29435        -161.869         -53.3421        -48.9249         -53.3467        -48.9306       -0.0151317         145.914
0.577                   -1.32314          -162.5          -53.262        -50.6516         -53.2668        -50.6574       -0.0152883         145.841
0.578                   -1.35255        -163.135          -53.183        -52.3762          -53.188         -52.382       -0.0154464         145.767
0.579                   -1.38257        -163.773         -53.1051        -54.0985         -53.1102        -54.1043        -0.015606         145.694
0.58                    -1.41323        -164.415         -53.0282        -55.8184         -53.0334        -55.8241       -0.0157671          145.62
0.581                   -1.44454         -165.06         -52.9523        -57.5356         -52.9576        -57.5412       -0.0159298         145.546
0.582                   -1.47652        -165.708         -52.8774        -59.2501         -52.8827        -59.2556       -0.0160939         145.473
0.583                   -1.50918         -166.36         -52.8035        -60.9617         -52.8088        -60.9671       -0.0162597         145.398
0.584                   -1.54254        -167.015         -52.7306        -62.6703         -52.7358        -62.6755       -0.0164271         145.324
0.585                   -1.57662        -167.674         -52.6585        -64.3757         -52.6637        -64.3806       -0.0165961          145.25
0.586                   -1.61142        -168.336         -52.5873        -66.0777         -52.5925        -66.0825       -0.0167667         145.175
0.587                   -1.64697        -169.002          -52.517        -67.7763         -52.5221        -67.7809       -0.0169391           145.1
0.588                   -1.68328         -169.67         -52.4476        -69.4714         -52.4526        -69.4757       -0.0171131         145.025
0.589                   -1.72038        -170.343          -52.379        -71.1627         -52.3838        -71.1668       -0.0172889          144.95
0.59                    -1.75827        -171.018         -52.3111        -72.8503         -52.3158        -72.8541       -0.0174664         144.875
0.591                   -1.79697        -171.697          -52.244        -74.5339         -52.2486        -74.5374       -0.0176458           144.8
0.592                   -1.83651        -172.379         -52.1776        -76.2135          -52.182        -76.2168        -0.017827         144.724
0.593                   -1.87691        -173.064          -52.112        -77.8889         -52.1162         -77.892         -0.01801         144.648
0.594                   -1.91817        -173.753          -52.047        -79.5601          -52.051         -79.563        -0.018195         144.572
0.595                   -1.96032        -174.445         -51.9827        -81.2271         -51.9864        -81.2297       -0.0183819         144.496
0.596                   -2.00338         -175.14          -51.919        -82.8896         -51.9225        -82.8919       -0.0185707          144.42
0.597                   -2.04737        -175.838         -51.8558        -84.5476         -51.8591        -84.5498       -0.0187616         144.343
0.598                    -2.0923        -176.539         -51.7933        -86.2011         -51.7963        -86.2031       -0.0189545         144.267
0.599                   -2.13821        -177.244         -51.7313          -87.85          -51.734        -87.8518       -0.0191495          144.19
0.6                      -2.1851        -177.951         -51.6698        -89.4942         -51.6722        -89.4958       -0.0193465         144.113
0.601                   -2.23299        -178.661         -51.6087        -91.1337         -51.6108        -91.1351       -0.0195458         144.036
0.602                   -2.28192        -179.374         -51.5482        -92.7684         -51.5499        -92.7697       -0.0197472         143.958
0.603                   -2.33189          179.91          -51.488        -94.3983         -51.4895        -94.3994       -0.0199509         143.881
0.604                   -2.38294         179.191         -51.4283        -96.0233         -51.4294        -96.0243       -0.0201568         143.803
0.605                   -2.43507         178.469         -51.3689        -97.6435         -51.3697        -97.6443       -0.0203651         143.725
0.606                   -2.48832         177.745         -51.3099        -99.2587         -51.3104        -99.2594       -0.0205758         143.646
0.607                   -2.54271         177.018         -51.2512        -100.869         -51.2514         -100.87       -0.0207888         143.568
0.608                   -2.59825         176.289         -51.1928        -102.474         -51.1926        -102.475       -0.0210043         143.489
0.609                   -2.65496         175.558         -51.1347        -104.075         -51.1342        -104.075       -0.0212223          143.41
0.61                    -2.71288         174.824         -51.0768         -105.67          -51.076         -105.67       -0.0214429         143.331
0.611                   -2.77202         174.088         -51.0192         -107.26          -51.018        -107.261       -0.0216661         143.252
0.612                   -2.83241          173.35         -50.9617        -108.846         -50.9602        -108.846       -0.0218919         143.173
0.613                   -2.89406         172.609         -50.9045        -110.426         -50.9026        -110.427       -0.0221204         143.093
0.614                     -2.957         171.867         -50.8473        -112.001         -50.8451        -112.002       -0.0223517         143.013
0.615                   -3.02125         171.123         -50.7904        -113.572         -50.7878        -113.573       -0.0225858         142.933
0.616                   -3.08684         170.378         -50.7335        -115.137         -50.7306        -115.138       -0.0228228         142.852
0.617                   -3.15379         169.631         -50.6767        -116.698         -50.6735        -116.699       -0.0230627         142.772
0.618                   -3.22211         168.882           -50.62        -118.254         -50.6165        -118.255       -0.0233056         142.691
0.619                   -3.29184         168.133         -50.5633        -119.804         -50.5595        -119.806       -0.0235515          142.61
0.62                    -3.36298         167.382         -50.5067        -121.351         -50.5026        -121.352       -0.0238005         142.528
0.621                   -3.43558          166.63           -50.45        -122.892         -50.4457        -122.893       -0.0240527         142.447
0.622                   -3.50964         165.878         -50.3934        -124.428         -50.3888         -124.43       -0.0243082         142.365
0.623                    -3.5852         165.124         -50.3367         -125.96         -50.3318        -125.962       -0.0245669         142.283
0.624                   -3.66226         164.371           -50.28        -127.487         -50.2749         -127.49        -0.024829         142.201
0.625                   -3.74086         163.617         -50.2233         -129.01         -50.2178        -129.012       -0.0250945         142.118
0.626                   -3.82101         162.863         -50.1664        -130.528         -50.1608        -130.531       -0.0253636         142.035
0.627                   -3.90274         162.109         -50.1095        -132.042         -50.1036        -132.045       -0.0256362         141.952
0.628                   -3.98607         161.355         -50.0524        -133.551         -50.0463        -133.554       -0.0259124         141.869
0.629                   -4.07101         160.602         -49.9952        -135.056         -49.9889        -135.059       -0.0261924         141.785
