! TOUCHSTONE file generated by CST MICROWAVE STUDIO
! Date and time: Wed Oct 28 19:40:44 2020
! Project name: Scenario_1_Circular_Tissue_out_of_Line_v2.cst
! Parameters = {dy1=311.4; L_HA=400; MT=2.54; Rad_Dielectric=30; Rad_Lower=7.3; Rad_Upper=30; a_HA=580; a_WG=246; b_HA=500; b_WG=121; c_HA=0; c_WG=187; d_feed=85; dx1=346; h_feed=15; h_lower=18; h_upper=40}
! Header version: 2018
! Port assignment regex: !\s*Touchstone port\s*([0-9]+)\s*=\s*(CST MWS port|CST DS port)\s*([0-9]+|Zmin|Zmax)\s*\(\"(.*)\"\)(\s*mode\s*([0-9]+))?.*
! Touchstone port assignment:
! Touchstone port 1 = CST MWS port 1 ("")
! Touchstone port 2 = CST MWS port 2 ("")
# GHz S DB R 50
0.5                    -0.141348        -122.231         -63.3295        -15.4009         -63.3283        -15.4006      -0.00779786         151.146
0.501                  -0.145214        -122.682         -63.2258        -17.7614         -63.2245        -17.7622      -0.00785239         151.081
0.502                  -0.149325        -123.135         -63.1145        -20.0853         -63.1131        -20.0871      -0.00790766         151.016
0.503                  -0.153688         -123.59          -62.996        -22.3707         -62.9946        -22.3734      -0.00796371         150.951
0.504                  -0.158305        -124.047          -62.871         -24.616         -62.8696        -24.6195      -0.00802051         150.885
0.505                  -0.163182        -124.506         -62.7402        -26.8201         -62.7387        -26.8244       -0.0080781          150.82
0.506                  -0.168323        -124.968          -62.604        -28.9822         -62.6024        -28.9872      -0.00813647         150.754
0.507                  -0.173733        -125.432         -62.4631        -31.1021         -62.4614        -31.1077      -0.00819562         150.688
0.508                  -0.179416        -125.898         -62.3179        -33.1796         -62.3162        -33.1857      -0.00825558         150.623
0.509                  -0.185378        -126.366         -62.1691        -35.2149         -62.1673        -35.2215      -0.00831634         150.557
0.51                   -0.191623        -126.837          -62.017        -37.2086         -62.0151        -37.2155      -0.00837792         150.491
0.511                  -0.198156        -127.309         -61.8622        -39.1612         -61.8603        -39.1685      -0.00844031         150.425
0.512                  -0.204981        -127.784         -61.7051        -41.0738         -61.7031        -41.0813      -0.00850354         150.359
0.513                  -0.212104        -128.261         -61.5461        -42.9472          -61.544        -42.9549       -0.0085676         150.293
0.514                  -0.219529        -128.741         -61.3855        -44.7827         -61.3833        -44.7906      -0.00863251         150.227
0.515                  -0.227261        -129.222         -61.2237        -46.5816         -61.2215        -46.5895      -0.00869828          150.16
0.516                  -0.235305        -129.705         -61.0611         -48.345         -61.0588        -48.3529      -0.00876491         150.094
0.517                  -0.243666        -130.191         -60.8978        -50.0745         -60.8955        -50.0824      -0.00883241         150.028
0.518                  -0.252348        -130.679         -60.7342        -51.7714         -60.7318        -51.7792       -0.0089008         149.961
0.519                  -0.261357        -131.169         -60.5705        -53.4372         -60.5681        -53.4449      -0.00897007         149.895
0.52                   -0.270697        -131.661          -60.407        -55.0734         -60.4044        -55.0809      -0.00904025         149.828
0.521                  -0.280373        -132.155         -60.2437        -56.6813         -60.2411        -56.6886      -0.00911133         149.761
0.522                   -0.29039        -132.652         -60.0808        -58.2625         -60.0782        -58.2696      -0.00918334         149.694
0.523                  -0.300753         -133.15         -59.9186        -59.8184          -59.916        -59.8252      -0.00925627         149.627
0.524                  -0.311466        -133.651         -59.7572        -61.3503         -59.7545        -61.3569      -0.00933015          149.56
0.525                  -0.322534        -134.153         -59.5966        -62.8598          -59.594         -62.866      -0.00940497         149.493
0.526                  -0.333961        -134.658          -59.437         -64.348         -59.4344        -64.3539      -0.00948075         149.426
0.527                  -0.345754        -135.165         -59.2785        -65.8164         -59.2758         -65.822      -0.00955751         149.358
0.528                  -0.357915        -135.673         -59.1211        -67.2662         -59.1185        -67.2714      -0.00963525         149.291
0.529                  -0.370449        -136.184          -58.965        -68.6986         -58.9623        -68.7035      -0.00971397         149.223
0.53                   -0.383362        -136.697         -58.8101         -70.115         -58.8075        -70.1195      -0.00979371         149.156
0.531                  -0.396657        -137.212         -58.6566        -71.5163          -58.654        -71.5204      -0.00987445         149.088
0.532                  -0.410338        -137.729         -58.5045        -72.9038         -58.5019        -72.9076      -0.00995623          149.02
0.533                   -0.42441        -138.247         -58.3538        -74.2786         -58.3513         -74.282        -0.010039         148.952
0.534                  -0.438877        -138.768         -58.2046        -75.6417         -58.2021        -75.6447       -0.0101229         148.884
0.535                  -0.453743         -139.29         -58.0569        -76.9942         -58.0544        -76.9967       -0.0102078         148.816
0.536                  -0.469011        -139.815         -57.9106        -78.3369         -57.9082        -78.3391       -0.0102938         148.748
0.537                  -0.484687        -140.341         -57.7659         -79.671         -57.7636        -79.6728       -0.0103809          148.68
0.538                  -0.500772        -140.869         -57.6228        -80.9973         -57.6205        -80.9987       -0.0104691         148.611
0.539                  -0.517271        -141.399         -57.4812        -82.3167         -57.4789        -82.3178       -0.0105584         148.543
0.54                   -0.534187        -141.931         -57.3411        -83.6301          -57.339        -83.6308       -0.0106488         148.474
0.541                  -0.551524        -142.464         -57.2027        -84.9384         -57.2006        -84.9387       -0.0107404         148.406
0.542                  -0.569283        -142.999         -57.0658        -86.2422         -57.0638        -86.2423       -0.0108331         148.337
0.543                  -0.587469        -143.536         -56.9304        -87.5425         -56.9285        -87.5423        -0.010927         148.268
0.544                  -0.606084        -144.075         -56.7967          -88.84         -56.7949        -88.8395       -0.0110221         148.199
0.545                   -0.62513        -144.615         -56.6645        -90.1355         -56.6628        -90.1346       -0.0111184          148.13
0.546                  -0.644609        -145.157         -56.5339        -91.4297         -56.5323        -91.4285       -0.0112158         148.061
0.547                  -0.664524        -145.701         -56.4049        -92.7232         -56.4034        -92.7218       -0.0113145         147.991
0.548                  -0.684877        -146.246         -56.2774        -94.0168         -56.2761        -94.0153       -0.0114145         147.922
0.549                  -0.705668        -146.793         -56.1515        -95.3112         -56.1503        -95.3095       -0.0115157         147.852
0.55                     -0.7269        -147.341         -56.0272        -96.6071         -56.0261        -96.6052       -0.0116182         147.783
0.551                  -0.748573        -147.891         -55.9044         -97.905         -55.9034         -97.903        -0.011722         147.713
0.552                  -0.770689        -148.442         -55.7832        -99.2057         -55.7823        -99.2035        -0.011827         147.643
0.553                  -0.793247        -148.994         -55.6634         -100.51         -55.6627        -100.507       -0.0119334         147.573
0.554                  -0.816248        -149.549         -55.5453        -101.818         -55.5447        -101.815       -0.0120412         147.503
0.555                  -0.839693        -150.104         -55.4286         -103.13         -55.4282        -103.128       -0.0121503         147.432
0.556                   -0.86358        -150.661         -55.3135        -104.448         -55.3132        -104.446       -0.0122607         147.362
0.557                  -0.887909        -151.219         -55.1999        -105.772         -55.1998         -105.77       -0.0123726         147.292
0.558                   -0.91268        -151.779         -55.0878        -107.102         -55.0878          -107.1       -0.0124859         147.221
0.559                   -0.93789        -152.339         -54.9772        -108.439         -54.9774        -108.437       -0.0126006          147.15
0.56                   -0.963539        -152.901         -54.8681        -109.784         -54.8684        -109.782       -0.0127167         147.079
0.561                  -0.989624        -153.465         -54.7604        -111.137          -54.761        -111.136       -0.0128344         147.008
0.562                   -1.01614        -154.029         -54.6543        -112.499          -54.655        -112.498       -0.0129535         146.937
0.563                   -1.04309        -154.595         -54.5496         -113.87         -54.5505        -113.869       -0.0130741         146.866
0.564                   -1.07048        -155.162         -54.4464        -115.251         -54.4474        -115.251       -0.0131962         146.795
0.565                   -1.09828         -155.73         -54.3446        -116.643         -54.3458        -116.644       -0.0133199         146.723
0.566                   -1.12651          -156.3         -54.2443        -118.046         -54.2457        -118.047       -0.0134452         146.651
0.567                   -1.15516         -156.87         -54.1454        -119.461         -54.1469        -119.463       -0.0135721          146.58
0.568                   -1.18422        -157.442         -54.0479        -120.889         -54.0496        -120.892       -0.0137005         146.508
0.569                   -1.21369        -158.015         -53.9518        -122.329         -53.9537        -122.333       -0.0138306         146.436
0.57                    -1.24356        -158.589          -53.857        -123.784         -53.8591        -123.789       -0.0139624         146.363
0.571                   -1.27384        -159.164         -53.7637        -125.253         -53.7659        -125.259       -0.0140958         146.291
0.572                   -1.30451        -159.741         -53.6717        -126.737         -53.6741        -126.744        -0.014231         146.219
0.573                   -1.33557        -160.318          -53.581        -128.237         -53.5835        -128.245       -0.0143679         146.146
0.574                   -1.36702        -160.897         -53.4915        -129.754         -53.4942        -129.763       -0.0145065         146.073
0.575                   -1.39884        -161.477         -53.4033        -131.287         -53.4062        -131.298       -0.0146469             146
0.576                   -1.43104        -162.059         -53.3164        -132.839         -53.3193        -132.851       -0.0147891         145.927
0.577                   -1.46361        -162.641         -53.2305        -134.409         -53.2336        -134.423       -0.0149332         145.854
0.578                   -1.49654        -163.225         -53.1458        -135.999          -53.149        -136.014       -0.0150791         145.781
0.579                   -1.52982        -163.811         -53.0621        -137.609         -53.0654        -137.625       -0.0152269         145.707
0.58                    -1.56345        -164.398         -52.9794        -139.239         -52.9827        -139.258       -0.0153766         145.634
0.581                   -1.59743        -164.986         -52.8976        -140.891         -52.9009        -140.912       -0.0155282          145.56
0.582                   -1.63175        -165.576         -52.8166        -142.566           -52.82        -142.588       -0.0156818         145.486
0.583                    -1.6664        -166.168         -52.7363        -144.263         -52.7397        -144.288       -0.0158374         145.412
0.584                   -1.70138        -166.761         -52.6566        -145.985         -52.6599        -146.011        -0.015995         145.338
0.585                   -1.73668        -167.356         -52.5774         -147.73         -52.5806        -147.758       -0.0161547         145.263
0.586                   -1.77231        -167.953         -52.4985          -149.5         -52.5016         -149.53       -0.0163165         145.189
0.587                   -1.80826        -168.552         -52.4197        -151.296         -52.4227        -151.328       -0.0164803         145.114
0.588                   -1.84452        -169.153          -52.341        -153.118         -52.3438        -153.152       -0.0166464         145.039
0.589                    -1.8811        -169.756          -52.262        -154.966         -52.2647        -155.002       -0.0168146         144.964
0.59                    -1.91799        -170.361         -52.1826        -156.841         -52.1851        -156.878        -0.016985         144.889
0.591                   -1.95519        -170.969         -52.1027        -158.742         -52.1049        -158.781       -0.0171576         144.813
0.592                   -1.99272         -171.58         -52.0218         -160.67         -52.0237        -160.711       -0.0173326         144.738
0.593                   -2.03056        -172.193         -51.9399        -162.625         -51.9415        -162.667       -0.0175098         144.662
0.594                   -2.06872        -172.809         -51.8565        -164.605         -51.8578        -164.648       -0.0176895         144.586
0.595                   -2.10721        -173.429         -51.7716        -166.611         -51.7725        -166.655       -0.0178715          144.51
0.596                   -2.14604        -174.051         -51.6847        -168.642         -51.6852        -168.686       -0.0180559         144.434
0.597                   -2.18521        -174.677         -51.5956        -170.695         -51.5958        -170.739       -0.0182428         144.357
0.598                   -2.22473        -175.306         -51.5041        -172.771         -51.5038        -172.815       -0.0184322          144.28
0.599                   -2.26463        -175.939         -51.4099        -174.867         -51.4092         -174.91       -0.0186241         144.204
0.6                     -2.30491        -176.576         -51.3128         -176.98         -51.3117        -177.022       -0.0188186         144.127
0.601                   -2.34559        -177.217         -51.2126        -179.109          -51.211         -179.15       -0.0190157         144.049
0.602                   -2.38668        -177.862          -51.109         178.748         -51.1071         178.709       -0.0192155         143.972
0.603                   -2.42822        -178.512         -51.0021         176.596         -50.9998         176.559        -0.019418         143.894
0.604                   -2.47022        -179.166         -50.8916         174.437         -50.8891         174.402       -0.0196232         143.816
0.605                   -2.51272        -179.825         -50.7777         172.274         -50.7749         172.241       -0.0198313         143.738
0.606                   -2.55573         179.511         -50.6604          170.11         -50.6573          170.08       -0.0200421          143.66
0.607                    -2.5993         178.842         -50.5397         167.949         -50.5365         167.923       -0.0202559         143.582
0.608                   -2.64345         178.167         -50.4159         165.795         -50.4127         165.771       -0.0204726         143.503
0.609                   -2.68823         177.487         -50.2893         163.649          -50.286         163.629       -0.0206922         143.424
0.61                    -2.73367         176.801         -50.1601         161.516         -50.1569         161.499       -0.0209149         143.345
0.611                   -2.77982          176.11         -50.0287         159.398         -50.0256         159.384       -0.0211406         143.266
0.612                   -2.82672         175.412         -49.8955         157.297         -49.8926         157.285       -0.0213695         143.186
0.613                   -2.87441         174.708         -49.7611         155.215         -49.7583         155.206       -0.0216016         143.107
0.614                   -2.92296         173.999         -49.6257         153.153         -49.6233         153.146       -0.0218369         143.027
0.615                   -2.97241         173.282         -49.4901         151.113         -49.4879         151.108       -0.0220754         142.947
0.616                   -3.02281          172.56         -49.3545         149.095         -49.3526         149.092       -0.0223174         142.866
0.617                   -3.07424         171.831         -49.2195         147.099          -49.218         147.098       -0.0225627         142.786
0.618                   -3.12673         171.095         -49.0856         145.126         -49.0843         145.126       -0.0228114         142.705
0.619                   -3.18036         170.353         -48.9531         143.174         -48.9522         143.174       -0.0230637         142.624
0.62                    -3.23519         169.605         -48.8225         141.243         -48.8219         141.244       -0.0233196         142.542
0.621                   -3.29129         168.849         -48.6941         139.332         -48.6938         139.332       -0.0235791         142.461
0.622                   -3.34872         168.088         -48.5681         137.438         -48.5681         137.439       -0.0238423         142.379
0.623                   -3.40754         167.319         -48.4449         135.562         -48.4452         135.563       -0.0241092         142.297
0.624                   -3.46783         166.545         -48.3247         133.701         -48.3252         133.701       -0.0243801         142.215
0.625                   -3.52966         165.764         -48.2075         131.854         -48.2082         131.854       -0.0246548         142.132
0.626                    -3.5931         164.977         -48.0936          130.02         -48.0944         130.018       -0.0249335         142.049
0.627                   -3.65821         164.184         -47.9829         128.196         -47.9839         128.193       -0.0252162         141.966
0.628                   -3.72508         163.385         -47.8756         126.381         -47.8767         126.378       -0.0255031         141.883
0.629                   -3.79376          162.58         -47.7716         124.574         -47.7728          124.57       -0.0257942         141.799
