! TOUCHSTONE file generated by CST MICROWAVE STUDIO
! Date and time: Fri Oct 30 08:05:09 2020
! Project name: Scenario_1_Circular_Tissue_out_of_Line.cst
! Parameters = {dy1=312.958; L_HA=400; MT=2.54; Rad_Dielectric=30; Rad_Lower=7.3; Rad_Upper=30; a_HA=580; a_WG=246; b_HA=500; b_WG=121; c_HA=0; c_WG=187; d_feed=85; dx1=520; h_feed=15; h_lower=18; h_upper=40}
! Header version: 2018
! Port assignment regex: !\s*Touchstone port\s*([0-9]+)\s*=\s*(CST MWS port|CST DS port)\s*([0-9]+|Zmin|Zmax)\s*\(\"(.*)\"\)(\s*mode\s*([0-9]+))?.*
! Touchstone port assignment:
! Touchstone port 1 = CST MWS port 1 ("")
! Touchstone port 2 = CST MWS port 2 ("")
# GHz S DB R 50
0.5                    -0.149904        -122.466         -63.5979        -92.7529         -63.5972        -92.7521      -0.00731411         151.127
0.501                  -0.158424        -122.891         -63.4581        -95.2085         -63.4573        -95.2072      -0.00739322         151.062
0.502                  -0.166965        -123.317         -63.3142          -97.64         -63.3133        -97.6382      -0.00747281         150.997
0.503                   -0.17553        -123.745         -63.1665        -100.047         -63.1655        -100.045      -0.00755287         150.931
0.504                  -0.184122        -124.175         -63.0153        -102.429         -63.0142        -102.427      -0.00763341         150.866
0.505                  -0.192745        -124.607          -62.861        -104.787         -62.8597        -104.784      -0.00771444           150.8
0.506                    -0.2014        -125.041         -62.7038         -107.12         -62.7025        -107.117      -0.00779597         150.734
0.507                  -0.210093        -125.476         -62.5441        -109.429         -62.5428        -109.425      -0.00787799         150.669
0.508                  -0.218825        -125.913         -62.3822        -111.714         -62.3808         -111.71      -0.00796052         150.603
0.509                  -0.227602        -126.353         -62.2184        -113.976          -62.217        -113.972      -0.00804357         150.537
0.51                   -0.236425        -126.794         -62.0529        -116.215         -62.0514         -116.21      -0.00812714         150.471
0.511                  -0.245301        -127.238          -61.886        -118.432         -61.8845        -118.427      -0.00821123         150.405
0.512                  -0.254231        -127.683         -61.7179        -120.628         -61.7163        -120.622      -0.00829587         150.339
0.513                  -0.263221        -128.131         -61.5488        -122.803         -61.5472        -122.797      -0.00838105         150.273
0.514                  -0.272275        -128.581         -61.3789        -124.958         -61.3773        -124.952      -0.00846677         150.206
0.515                  -0.281397        -129.033         -61.2085        -127.094         -61.2069        -127.088      -0.00855306          150.14
0.516                  -0.290593        -129.487         -61.0376        -129.212         -61.0361        -129.206      -0.00863992         150.074
0.517                  -0.299865        -129.943         -60.8665        -131.313          -60.865        -131.307      -0.00872736         150.007
0.518                  -0.309221        -130.402         -60.6954        -133.398         -60.6938        -133.391      -0.00881538         149.941
0.519                  -0.318664        -130.863         -60.5242        -135.467         -60.5227        -135.461      -0.00890399         149.874
0.52                   -0.328201        -131.327         -60.3533        -137.522         -60.3518        -137.515      -0.00899321         149.807
0.521                  -0.337836        -131.793         -60.1826        -139.563         -60.1811        -139.556      -0.00908304          149.74
0.522                  -0.347575        -132.262         -60.0124        -141.591         -60.0109        -141.584       -0.0091735         149.673
0.523                  -0.357424        -132.733         -59.8426        -143.607         -59.8411        -143.601      -0.00926458         149.606
0.524                  -0.367389        -133.207         -59.6734        -145.612          -59.672        -145.606      -0.00935631         149.539
0.525                  -0.377476        -133.683          -59.505        -147.607         -59.5035        -147.601      -0.00944869         149.472
0.526                  -0.387692        -134.162         -59.3372        -149.593         -59.3358        -149.587      -0.00954174         149.405
0.527                  -0.398043        -134.643         -59.1703         -151.57         -59.1689        -151.564      -0.00963545         149.337
0.528                  -0.408537        -135.128         -59.0042        -153.539         -59.0029        -153.533      -0.00972985          149.27
0.529                  -0.419179        -135.615         -58.8391          -155.5         -58.8378        -155.495      -0.00982495         149.202
0.53                   -0.429978        -136.105          -58.675        -157.456         -58.6738         -157.45      -0.00992075         149.135
0.531                  -0.440941        -136.597         -58.5119        -159.405         -58.5107          -159.4       -0.0100173         149.067
0.532                  -0.452076        -137.093         -58.3499         -161.35         -58.3487        -161.345       -0.0101145         148.999
0.533                   -0.46339        -137.592          -58.189         -163.29         -58.1879        -163.285       -0.0102125         148.931
0.534                  -0.474892        -138.093         -58.0293        -165.226         -58.0282        -165.221       -0.0103113         148.863
0.535                  -0.486591        -138.598         -57.8707        -167.158         -57.8697        -167.154       -0.0104108         148.795
0.536                  -0.498494        -139.105         -57.7134        -169.088         -57.7124        -169.084       -0.0105111         148.727
0.537                  -0.510612        -139.616         -57.5573        -171.016         -57.5564        -171.012       -0.0106122         148.659
0.538                  -0.522953         -140.13         -57.4025        -172.942         -57.4016        -172.938       -0.0107141          148.59
0.539                  -0.535528        -140.647         -57.2489        -174.867         -57.2481        -174.863       -0.0108168         148.522
0.54                   -0.548345        -141.167         -57.0967        -176.791         -57.0959        -176.788       -0.0109203         148.453
0.541                  -0.561415         -141.69         -56.9458        -178.714          -56.945        -178.711       -0.0110247         148.384
0.542                  -0.574748        -142.216         -56.7962         179.362         -56.7955         179.365         -0.01113         148.316
0.543                  -0.588356        -142.746          -56.648         177.438         -56.6473         177.441       -0.0112362         148.247
0.544                  -0.602249         -143.28         -56.5011         175.514         -56.5005         175.516       -0.0113432         148.178
0.545                  -0.616439        -143.816         -56.3557         173.588         -56.3551          173.59       -0.0114512         148.109
0.546                  -0.630937        -144.356         -56.2116         171.661         -56.2111         171.662         -0.01156         148.039
0.547                  -0.645756        -144.899         -56.0689         169.732         -56.0684         169.733       -0.0116699          147.97
0.548                  -0.660908        -145.446         -55.9276         167.802         -55.9272         167.803       -0.0117807         147.901
0.549                  -0.676406        -145.996         -55.7878         165.869         -55.7874         165.869       -0.0118924         147.831
0.55                   -0.692263         -146.55         -55.6493         163.934          -55.649         163.934       -0.0120052         147.761
0.551                  -0.708492        -147.107         -55.5123         161.996          -55.512         161.996        -0.012119         147.692
0.552                  -0.725108        -147.668         -55.3767         160.055         -55.3764         160.055       -0.0122338         147.622
0.553                  -0.742124        -148.233         -55.2425         158.112         -55.2423         158.112       -0.0123496         147.552
0.554                  -0.759555          -148.8         -55.1098         156.166         -55.1096         156.165       -0.0124666         147.481
0.555                  -0.777417        -149.372         -54.9785         154.216         -54.9784         154.215       -0.0125846         147.411
0.556                  -0.795724        -149.947         -54.8486         152.263         -54.8486         152.262       -0.0127037         147.341
0.557                  -0.814493        -150.526         -54.7202         150.307         -54.7202         150.306       -0.0128239          147.27
0.558                  -0.833739        -151.108         -54.5932         148.348         -54.5932         148.346       -0.0129454           147.2
0.559                  -0.853479        -151.694         -54.4677         146.385         -54.4677         146.383       -0.0130679         147.129
0.56                    -0.87373        -152.284         -54.3435         144.418         -54.3436         144.416       -0.0131917         147.058
0.561                  -0.894509        -152.878         -54.2208         142.448          -54.221         142.446       -0.0133167         146.987
0.562                  -0.915834        -153.475         -54.0995         140.475         -54.0997         140.473       -0.0134429         146.916
0.563                  -0.937722        -154.075         -53.9797         138.498         -53.9799         138.496       -0.0135704         146.845
0.564                  -0.960193        -154.679         -53.8612         136.518         -53.8614         136.515       -0.0136992         146.773
0.565                  -0.983264        -155.287         -53.7441         134.534         -53.7444         134.532       -0.0138292         146.702
0.566                   -1.00696        -155.899         -53.6285         132.547         -53.6288         132.544       -0.0139606          146.63
0.567                   -1.03129        -156.514         -53.5142         130.557         -53.5145         130.554       -0.0140934         146.559
0.568                   -1.05627        -157.132         -53.4013         128.563         -53.4017         128.561       -0.0142276         146.487
0.569                   -1.08194        -157.754         -53.2897         126.567         -53.2902         126.564       -0.0143631         146.415
0.57                     -1.1083        -158.379         -53.1796         124.567           -53.18         124.564       -0.0145001         146.343
0.571                   -1.13538        -159.008         -53.0707         122.565         -53.0712         122.562       -0.0146386          146.27
0.572                    -1.1632         -159.64         -52.9632          120.56         -52.9637         120.557       -0.0147785         146.198
0.573                   -1.19178        -160.276          -52.857         118.552         -52.8575         118.549         -0.01492         146.125
0.574                   -1.22114        -160.915         -52.7521         116.542         -52.7526         116.539        -0.015063         146.052
0.575                   -1.25129        -161.556         -52.6484         114.529          -52.649         114.527       -0.0152076          145.98
0.576                   -1.28227        -162.201         -52.5461         112.515         -52.5466         112.512       -0.0153538         145.907
0.577                   -1.31408        -162.849         -52.4449         110.498         -52.4455         110.496       -0.0155016         145.833
0.578                   -1.34675          -163.5          -52.345          108.48         -52.3457         108.477       -0.0156511          145.76
0.579                    -1.3803        -164.153         -52.2463          106.46          -52.247         106.457       -0.0158023         145.687
0.58                    -1.41474        -164.809         -52.1488         104.439         -52.1495         104.436       -0.0159553         145.613
0.581                    -1.4501        -165.468         -52.0525         102.416         -52.0532         102.413         -0.01611         145.539
0.582                   -1.48639        -166.129         -51.9573         100.392          -51.958          100.39       -0.0162664         145.465
0.583                   -1.52362        -166.792         -51.8632         98.3674         -51.8639          98.365       -0.0164248         145.391
0.584                   -1.56183        -167.458         -51.7702          96.342         -51.7709         96.3397       -0.0165849         145.317
0.585                   -1.60101        -168.125         -51.6783         94.3161          -51.679         94.3139        -0.016747         145.243
0.586                   -1.64119        -168.795         -51.5875         92.2899         -51.5882         92.2878        -0.016911         145.168
0.587                   -1.68237        -169.466         -51.4976         90.2636         -51.4983         90.2615        -0.017077         145.093
0.588                   -1.72457        -170.138         -51.4088         88.2373         -51.4095         88.2354       -0.0172449         145.018
0.589                   -1.76779        -170.812         -51.3209         86.2113         -51.3216         86.2094       -0.0174149         144.943
0.59                    -1.81205        -171.486          -51.234         84.1857         -51.2346         84.1839        -0.017587         144.868
0.591                   -1.85736        -172.162          -51.148         82.1607         -51.1486         82.1591       -0.0177612         144.793
0.592                    -1.9037        -172.838         -51.0628         80.1366         -51.0635         80.1351       -0.0179375         144.717
0.593                   -1.95109        -173.515         -50.9785         78.1134         -50.9792          78.112       -0.0181161         144.641
0.594                   -1.99953        -174.192         -50.8951         76.0914         -50.8957         76.0902       -0.0182968         144.566
0.595                   -2.04902        -174.869         -50.8125         74.0708         -50.8131         74.0697       -0.0184798         144.489
0.596                   -2.09954        -175.547         -50.7306         72.0517         -50.7312         72.0507       -0.0186652         144.413
0.597                   -2.15109        -176.223         -50.6495         70.0343         -50.6501         70.0334       -0.0188528         144.337
0.598                   -2.20367        -176.899         -50.5691         68.0187         -50.5697         68.0179       -0.0190429          144.26
0.599                   -2.25725        -177.575         -50.4894         66.0052         -50.4899         66.0045       -0.0192353         144.183
0.6                     -2.31183         -178.25         -50.4103         63.9938         -50.4108         63.9932       -0.0194302         144.106
0.601                   -2.36739        -178.923         -50.3319         61.9847         -50.3324         61.9842       -0.0196277         144.029
0.602                    -2.4239        -179.595         -50.2541          59.978         -50.2546         59.9777       -0.0198276         143.952
0.603                   -2.48134         179.734         -50.1768         57.9739         -50.1773         57.9737       -0.0200302         143.874
0.604                   -2.53968         179.065         -50.1001         55.9725         -50.1006         55.9724       -0.0202353         143.796
0.605                   -2.59891         178.397         -50.0239         53.9739         -50.0244         53.9739       -0.0204431         143.718
0.606                   -2.65898         177.732         -49.9483         51.9783         -49.9487         51.9784       -0.0206537          143.64
0.607                   -2.71988         177.068          -49.873         49.9857         -49.8734         49.9859       -0.0208669         143.562
0.608                   -2.78155         176.406         -49.7983         47.9963         -49.7986         47.9965        -0.021083         143.483
0.609                   -2.84398         175.747         -49.7239         46.0101         -49.7242         46.0104       -0.0213018         143.404
0.61                    -2.90711         175.089         -49.6499         44.0272         -49.6503         44.0276       -0.0215235         143.325
0.611                   -2.97093         174.434         -49.5763         42.0477         -49.5766         42.0482       -0.0217481         143.246
0.612                   -3.03538          173.78         -49.5031         40.0718         -49.5033         40.0723       -0.0219757         143.167
0.613                   -3.10044         173.128         -49.4301         38.0993         -49.4304         38.0999       -0.0222062         143.087
0.614                   -3.16607         172.479         -49.3575         36.1305         -49.3577         36.1312       -0.0224398         143.007
0.615                   -3.23223         171.831         -49.2851         34.1654         -49.2853         34.1661       -0.0226764         142.927
0.616                   -3.29889         171.184          -49.213          32.204         -49.2131         32.2047       -0.0229161         142.847
0.617                   -3.36603         170.539         -49.1411         30.2463         -49.1412         30.2471       -0.0231589         142.766
0.618                   -3.43361         169.895         -49.0694         28.2924         -49.0695         28.2933       -0.0234049         142.685
0.619                    -3.5016         169.253         -48.9979         26.3424          -48.998         26.3433       -0.0236542         142.604
0.62                    -3.56999         168.611         -48.9266         24.3962         -48.9267         24.3971       -0.0239067         142.523
0.621                   -3.63876         167.969         -48.8555         22.4539         -48.8555         22.4548       -0.0241625         142.441
0.622                    -3.7079         167.327         -48.7844         20.5154         -48.7844         20.5164       -0.0244216          142.36
0.623                    -3.7774         166.686         -48.7135         18.5809         -48.7135         18.5818       -0.0246841         142.278
0.624                   -3.84724         166.044         -48.6427         16.6502         -48.6427         16.6512       -0.0249501         142.195
0.625                   -3.91745         165.401          -48.572         14.7234          -48.572         14.7244       -0.0252196         142.113
0.626                   -3.98801         164.757         -48.5014         12.8005         -48.5013         12.8014       -0.0254926          142.03
0.627                   -4.05895         164.111         -48.4309         10.8814         -48.4307         10.8824       -0.0257691         141.947
0.628                   -4.13029         163.463         -48.3603          8.9662         -48.3602         8.96714       -0.0260494         141.864
0.629                   -4.20203         162.813         -48.2899         7.05479         -48.2897         7.05571       -0.0263333          141.78
