! TOUCHSTONE file generated by CST MICROWAVE STUDIO
! Date and time: Wed Oct 28 19:20:52 2020
! Project name: Scenario_1_Circular_Tissue_out_of_Line.cst
! Parameters = {dy1=312.958; L_HA=400; MT=2.54; Rad_Dielectric=30; Rad_Lower=7.3; Rad_Upper=30; a_HA=580; a_WG=246; b_HA=500; b_WG=121; c_HA=0; c_WG=187; d_feed=85; dx1=693; h_feed=15; h_lower=18; h_upper=40}
! Header version: 2018
! Port assignment regex: !\s*Touchstone port\s*([0-9]+)\s*=\s*(CST MWS port|CST DS port)\s*([0-9]+|Zmin|Zmax)\s*\(\"(.*)\"\)(\s*mode\s*([0-9]+))?.*
! Touchstone port assignment:
! Touchstone port 1 = CST MWS port 1 ("")
! Touchstone port 2 = CST MWS port 2 ("")
# GHz S DB R 50
0.5                    -0.143457        -122.241         -64.1532          164.75         -64.2184         164.914      -0.00769697         151.138
0.501                  -0.148432        -122.706         -64.0459         162.795         -64.1102         162.958      -0.00775154         151.073
0.502                   -0.15367        -123.173         -63.9351          160.84         -63.9985         161.001      -0.00780697         151.008
0.503                   -0.15917        -123.641         -63.8206         158.886         -63.8831         159.046      -0.00786326         150.942
0.504                  -0.164934        -124.111         -63.7028         156.932         -63.7644         157.091      -0.00792042         150.877
0.505                  -0.170964        -124.582         -63.5815         154.981         -63.6423         155.138      -0.00797846         150.811
0.506                  -0.177258        -125.054          -63.457         153.031          -63.517         153.187      -0.00803738         150.746
0.507                  -0.183819        -125.527         -63.3293         151.084         -63.3885         151.238      -0.00809719          150.68
0.508                  -0.190647        -126.002         -63.1985         149.139          -63.257         149.292       -0.0081579         150.614
0.509                  -0.197742        -126.478         -63.0648         147.198         -63.1226          147.35      -0.00821952         150.548
0.51                   -0.205106        -126.956         -62.9282          145.26         -62.9853          145.41      -0.00828204         150.482
0.511                  -0.212737        -127.434         -62.7889         143.325         -62.8454         143.474      -0.00834548         150.416
0.512                  -0.220638        -127.914          -62.647         141.395         -62.7029         141.542      -0.00840985          150.35
0.513                  -0.228807        -128.395         -62.5026         139.468         -62.5579         139.613      -0.00847516         150.284
0.514                  -0.237245        -128.878         -62.3558         137.545         -62.4105         137.688       -0.0085414         150.218
0.515                  -0.245952        -129.361         -62.2068         135.626         -62.2609         135.768      -0.00860859         150.152
0.516                  -0.254929        -129.846         -62.0555         133.711         -62.1092          133.85      -0.00867674         150.085
0.517                  -0.264174        -130.332         -61.9023         131.799         -61.9554         131.937      -0.00874586         150.019
0.518                  -0.273688         -130.82         -61.7471         129.892         -61.7998         130.027      -0.00881594         149.952
0.519                  -0.283471        -131.309         -61.5901         127.987         -61.6423          128.12      -0.00888701         149.886
0.52                   -0.293521        -131.798         -61.4313         126.086         -61.4831         126.217      -0.00895907         149.819
0.521                  -0.303839         -132.29          -61.271         124.189         -61.3224         124.317      -0.00903213         149.752
0.522                  -0.314425        -132.782         -61.1092         122.294         -61.1602         122.419       -0.0091062         149.685
0.523                  -0.325276        -133.276         -60.9459         120.401         -60.9966         120.524      -0.00918129         149.618
0.524                  -0.336393        -133.771         -60.7814         118.511         -60.8317         118.631       -0.0092574         149.551
0.525                  -0.347775        -134.267         -60.6157         116.623         -60.6656          116.74      -0.00933455         149.484
0.526                  -0.359421        -134.764         -60.4488         114.736         -60.4985          114.85      -0.00941274         149.417
0.527                   -0.37133        -135.263          -60.281         112.851         -60.3303         112.961      -0.00949199         149.349
0.528                  -0.383501        -135.763         -60.1122         110.966         -60.1613         111.073       -0.0095723         149.282
0.529                  -0.395933        -136.264         -59.9426         109.081         -59.9914         109.185      -0.00965369         149.214
0.53                   -0.408625        -136.766         -59.7723         107.197         -59.8208         107.296      -0.00973617         149.146
0.531                  -0.421575         -137.27         -59.6013         105.311         -59.6495         105.407      -0.00981974         149.079
0.532                  -0.434782        -137.775         -59.4297         103.425         -59.4777         103.517      -0.00990442         149.011
0.533                  -0.448245        -138.282         -59.2576         101.537         -59.3054         101.626      -0.00999022         148.943
0.534                  -0.461964         -138.79         -59.0851         99.6477         -59.1327          99.732       -0.0100771         148.875
0.535                  -0.475935        -139.299         -58.9123         97.7555         -58.9596         97.8357       -0.0101652         148.807
0.536                  -0.490158        -139.809         -58.7392         95.8603         -58.7863         95.9364       -0.0102544         148.739
0.537                  -0.504633        -140.321         -58.5659         93.9617         -58.6128         94.0335       -0.0103448          148.67
0.538                  -0.519356        -140.834         -58.3925         92.0591         -58.4392         92.1267       -0.0104364         148.602
0.539                  -0.534328        -141.349         -58.2191          90.152         -58.2656         90.2153       -0.0105291         148.533
0.54                   -0.549547        -141.865         -58.0456           88.24          -58.092         88.2989       -0.0106231         148.465
0.541                  -0.565011        -142.383         -57.8723         86.3226         -57.9185         86.3771       -0.0107183         148.396
0.542                   -0.58072        -142.902         -57.6992         84.3992         -57.7452         84.4493       -0.0108146         148.327
0.543                  -0.596673        -143.423         -57.5262         82.4694         -57.5721          82.515       -0.0109123         148.258
0.544                  -0.612869        -143.945         -57.3536         80.5326         -57.3993         80.5738       -0.0110112         148.189
0.545                  -0.629307        -144.469         -57.1813         78.5885         -57.2269         78.6252       -0.0111113          148.12
0.546                  -0.645986        -144.994         -57.0095         76.6365         -57.0549         76.6688       -0.0112128         148.051
0.547                  -0.662907        -145.522         -56.8382         74.6763         -56.8835         74.7041       -0.0113155         147.981
0.548                  -0.680069        -146.051         -56.6675         72.7072         -56.7126         72.7307       -0.0114195         147.912
0.549                  -0.697473        -146.582         -56.4974          70.729         -56.5424         70.7481       -0.0115249         147.842
0.55                   -0.715118        -147.114          -56.328         68.7412         -56.3729          68.756       -0.0116316         147.772
0.551                  -0.733005        -147.649         -56.1594         66.7434         -56.2042          66.754       -0.0117397         147.702
0.552                  -0.751136        -148.185         -55.9917         64.7352         -56.0363         64.7416       -0.0118491         147.633
0.553                  -0.769512        -148.724         -55.8249         62.7162         -55.8694         62.7185         -0.01196         147.562
0.554                  -0.788135        -149.264         -55.6591         60.6861         -55.7034         60.6844       -0.0120722         147.492
0.555                  -0.807007        -149.807         -55.4943         58.6446         -55.5385          58.639       -0.0121858         147.422
0.556                   -0.82613        -150.352         -55.3307         56.5913         -55.3748          56.582       -0.0123009         147.352
0.557                  -0.845509        -150.899         -55.1682          54.526         -55.2122          54.513       -0.0124175         147.281
0.558                  -0.865146        -151.448         -55.0071         52.4484         -55.0509         52.4319       -0.0125355          147.21
0.559                  -0.885046            -152         -54.8473         50.3583          -54.891         50.3384        -0.012655          147.14
0.56                   -0.905214        -152.554         -54.6889         48.2554         -54.7325         48.2324        -0.012776         147.069
0.561                  -0.925655        -153.111          -54.532         46.1396         -54.5754         46.1136       -0.0128985         146.998
0.562                  -0.946376         -153.67         -54.3766         44.0108           -54.42         43.9819       -0.0130226         146.926
0.563                  -0.967384        -154.232         -54.2229         41.8688         -54.2661         41.8373       -0.0131482         146.855
0.564                  -0.988686        -154.797          -54.071         39.7135          -54.114         39.6796       -0.0132755         146.784
0.565                   -1.01029        -155.365         -53.9207         37.5449         -53.9636         37.5088       -0.0134043         146.712
0.566                   -1.03221        -155.935         -53.7724         35.3629          -53.815         35.3249       -0.0135347          146.64
0.567                   -1.05445        -156.509         -53.6259         33.1677         -53.6684         33.1279       -0.0136668         146.569
0.568                   -1.07702        -157.085         -53.4815         30.9592         -53.5237         30.9179       -0.0138006         146.497
0.569                   -1.09993        -157.665         -53.3391         28.7375         -53.3811          28.695       -0.0139361         146.425
0.57                    -1.12321        -158.248         -53.1988         26.5028         -53.2406         26.4593       -0.0140732         146.352
0.571                   -1.14685        -158.834         -53.0607         24.2552         -53.1022          24.211       -0.0142121          146.28
0.572                   -1.17088        -159.423         -52.9248         21.9949         -52.9661         21.9502       -0.0143528         146.207
0.573                   -1.19532        -160.016         -52.7912         19.7222         -52.8322         19.6773       -0.0144952         146.135
0.574                   -1.22016        -160.613           -52.66         17.4373         -52.7006         17.3926       -0.0146394         146.062
0.575                   -1.24545        -161.213         -52.5312         15.1406         -52.5715         15.0962       -0.0147855         145.989
0.576                   -1.27118        -161.816         -52.4048         12.8323         -52.4447         12.7886       -0.0149334         145.916
0.577                   -1.29739        -162.423          -52.281         10.5129         -52.3205         10.4702       -0.0150832         145.843
0.578                   -1.32409        -163.034         -52.1596         8.18281         -52.1987         8.14127       -0.0152349         145.769
0.579                    -1.3513        -163.649         -52.0408         5.84243         -52.0794         5.80238       -0.0153885         145.696
0.58                    -1.37904        -164.268         -51.9247         3.49223         -51.9628         3.45397        -0.015544         145.622
0.581                   -1.40734         -164.89         -51.8111         1.13274         -51.8487         1.09653       -0.0157016         145.548
0.582                   -1.43622        -165.517         -51.7002        -1.23553         -51.7372        -1.26943       -0.0158611         145.474
0.583                    -1.4657        -166.147         -51.5919        -3.61202         -51.6283        -3.64335       -0.0160227           145.4
0.584                   -1.49581        -166.781         -51.4863        -5.99617          -51.522        -6.02467       -0.0161864         145.326
0.585                   -1.52658         -167.42         -51.3833        -8.38739         -51.4184        -8.41282       -0.0163521         145.251
0.586                   -1.55802        -168.062          -51.283        -10.7851         -51.3173        -10.8072         -0.01652         145.177
0.587                   -1.59016        -168.708         -51.1853        -13.1886         -51.2189        -13.2072       -0.0166901         145.102
0.588                   -1.62304        -169.358         -51.0902        -15.5973          -51.123        -15.6122       -0.0168623         145.027
0.589                   -1.65668        -170.012         -50.9977        -18.0106         -51.0297        -18.0215       -0.0170367         144.952
0.59                    -1.69109         -170.67         -50.9078        -20.4279         -50.9389        -20.4347       -0.0172134         144.877
0.591                   -1.72632        -171.332         -50.8204        -22.8484         -50.8506        -22.8509       -0.0173924         144.801
0.592                   -1.76239        -171.998         -50.7355        -25.2716         -50.7648        -25.2696       -0.0175737         144.726
0.593                   -1.79933        -172.667         -50.6531        -27.6968         -50.6813        -27.6902       -0.0177573          144.65
0.594                   -1.83716         -173.34          -50.573        -30.1235         -50.6002        -30.1121       -0.0179433         144.574
0.595                   -1.87591        -174.017         -50.4952        -32.5509         -50.5214        -32.5347       -0.0181318         144.498
0.596                   -1.91561        -174.698         -50.4197        -34.9785         -50.4448        -34.9573       -0.0183227         144.421
0.597                   -1.95628        -175.382         -50.3464        -37.4057         -50.3703        -37.3794       -0.0185161         144.345
0.598                   -1.99795        -176.069         -50.2752        -39.8319          -50.298        -39.8004        -0.018712         144.268
0.599                   -2.04065         -176.76          -50.206        -42.2565         -50.2276        -42.2199       -0.0189105         144.191
0.6                     -2.08439        -177.454         -50.1388        -44.6791         -50.1592        -44.6372       -0.0191116         144.114
0.601                   -2.12922        -178.151         -50.0735         -47.099         -50.0926        -47.0518       -0.0193153         144.037
0.602                   -2.17514        -178.851         -50.0099        -49.5159         -50.0277        -49.4634       -0.0195218         143.959
0.603                   -2.22218        -179.554          -49.948        -51.9292         -49.9646        -51.8713        -0.019731         143.882
0.604                   -2.27037         179.741         -49.8878        -54.3385          -49.903        -54.2753       -0.0199429         143.804
0.605                   -2.31972         179.033          -49.829        -56.7434         -49.8429        -56.6748       -0.0201577         143.726
0.606                   -2.37026         178.322         -49.7717        -59.1434         -49.7842        -59.0695       -0.0203753         143.647
0.607                     -2.422          177.61         -49.7156        -61.5382         -49.7268        -61.4591       -0.0205958         143.569
0.608                   -2.47496         176.895         -49.6608        -63.9275         -49.6707        -63.8431       -0.0208193          143.49
0.609                   -2.52917         176.178         -49.6071        -66.3109         -49.6156        -66.2213       -0.0210458         143.411
0.61                    -2.58463          175.46         -49.5545        -68.6881         -49.5616        -68.5934       -0.0212753         143.332
0.611                   -2.64137         174.739         -49.5028        -71.0589         -49.5085        -70.9592       -0.0215079         143.253
0.612                    -2.6994         174.018         -49.4519         -73.423         -49.4563        -73.3183       -0.0217437         143.173
0.613                   -2.75872         173.295         -49.4017        -75.7802         -49.4048        -75.6706       -0.0219826         143.094
0.614                   -2.81936         172.571         -49.3522        -78.1302         -49.3539        -78.0158       -0.0222249         143.014
0.615                   -2.88133         171.846         -49.3033        -80.4729         -49.3036        -80.3539       -0.0224704         142.933
0.616                   -2.94463          171.12         -49.2549        -82.8081         -49.2539        -82.6845       -0.0227192         142.853
0.617                   -3.00928         170.394         -49.2068        -85.1357         -49.2045        -85.0077       -0.0229715         142.772
0.618                   -3.07528         169.667         -49.1591        -87.4556         -49.1555        -87.3232       -0.0232272         142.691
0.619                   -3.14265          168.94         -49.1115        -89.7676         -49.1067        -89.6309       -0.0234864          142.61
0.62                    -3.21138         168.213         -49.0642        -92.0716          -49.058        -91.9309       -0.0237493         142.529
0.621                    -3.2815         167.486         -49.0169        -94.3676         -49.0095        -94.2229       -0.0240157         142.447
0.622                   -3.35299         166.759         -48.9696        -96.6555          -48.961         -96.507       -0.0242859         142.365
0.623                   -3.42588         166.033         -48.9222        -98.9353         -48.9125        -98.7831       -0.0245598         142.283
0.624                   -3.50015         165.307         -48.8747        -101.207         -48.8638        -101.051       -0.0248376         142.201
0.625                   -3.57583         164.582          -48.827         -103.47          -48.815        -103.311       -0.0251192         142.118
0.626                    -3.6529         163.858         -48.7791        -105.725          -48.766        -105.563       -0.0254048         142.036
0.627                   -3.73138         163.135         -48.7308        -107.972         -48.7167        -107.807       -0.0256945         141.952
0.628                   -3.81126         162.413         -48.6822        -110.211         -48.6671        -110.043       -0.0259882         141.869
0.629                   -3.89255         161.693         -48.6332        -112.442         -48.6171        -112.271        -0.026286         141.785
