! TOUCHSTONE file generated by CST MICROWAVE STUDIO
! Date and time: Mon Oct 26 12:28:39 2020
! Project name: Scenario_1_Circular_Tissue_out_of_Line.cst
! Parameters = {dy1=312.958; L_HA=400; MT=2.54; Rad_Dielectric=30; Rad_Lower=7.3; Rad_Upper=30; a_HA=580; a_WG=246; b_HA=500; b_WG=121; c_HA=0; c_WG=187; d_feed=85; dx1=866; h_feed=15; h_lower=18; h_upper=40}
! Header version: 2018
! Port assignment regex: !\s*Touchstone port\s*([0-9]+)\s*=\s*(CST MWS port|CST DS port)\s*([0-9]+|Zmin|Zmax)\s*\(\"(.*)\"\)(\s*mode\s*([0-9]+))?.*
! Touchstone port assignment:
! Touchstone port 1 = CST MWS port 1 ("")
! Touchstone port 2 = CST MWS port 2 ("")
# GHz S DB R 50
0.5                    -0.151169        -122.358         -64.5706          77.511         -64.5919         77.3878      -0.00744223         151.141
0.501                  -0.156591        -122.788         -64.4707         75.0307          -64.479         74.8217      -0.00752914         151.076
0.502                  -0.162155         -123.22         -64.3656         72.5515         -64.3612          72.264       -0.0076158         151.011
0.503                  -0.167866        -123.653         -64.2554         70.0746         -64.2387         69.7154      -0.00770221         150.945
0.504                  -0.173725        -124.089         -64.1403         67.6011         -64.1119          67.177       -0.0077884          150.88
0.505                  -0.179738        -124.528         -64.0206         65.1321         -63.9808         64.6494      -0.00787438         150.815
0.506                  -0.185905        -124.968         -63.8963         62.6683         -63.8458         62.1332      -0.00796018         150.749
0.507                  -0.192232         -125.41         -63.7676         60.2105          -63.707         59.6289      -0.00804581         150.683
0.508                  -0.198721        -125.855         -63.6349         57.7595         -63.5648         57.1368      -0.00813129         150.618
0.509                  -0.205377        -126.302         -63.4982         55.3157         -63.4194         54.6573      -0.00821664         150.552
0.51                   -0.212201        -126.751         -63.3579         52.8796         -63.2709         52.1903      -0.00830188         150.486
0.511                  -0.219199        -127.203          -63.214         50.4515         -63.1197         49.7361      -0.00838704          150.42
0.512                  -0.226373        -127.657         -63.0668         48.0318         -62.9659         47.2944      -0.00847213         150.354
0.513                  -0.233728        -128.113         -62.9166         45.6206         -62.8098         44.8652      -0.00855718         150.288
0.514                  -0.241268        -128.571         -62.7635         43.2179         -62.6516         42.4482       -0.0086422         150.222
0.515                  -0.248997        -129.032         -62.6077         40.8237         -62.4915         40.0432      -0.00872723         150.155
0.516                  -0.256919        -129.495         -62.4494         38.4379         -62.3297         37.6498      -0.00881227         150.089
0.517                  -0.265038         -129.96         -62.2889         36.0605         -62.1663         35.2676      -0.00889737         150.023
0.518                  -0.273358        -130.428         -62.1263         33.6911         -62.0016         32.8961      -0.00898253         149.956
0.519                  -0.281885        -130.899         -61.9618         31.3295         -61.8358         30.5349      -0.00906779         149.889
0.52                   -0.290623        -131.372         -61.7955         28.9754         -61.6689         28.1833      -0.00915316         149.823
0.521                  -0.299576        -131.847         -61.6278         26.6283         -61.5012          25.841      -0.00923868         149.756
0.522                   -0.30875        -132.325         -61.4587         24.2878         -61.3328         23.5071      -0.00932437         149.689
0.523                   -0.31815        -132.805         -61.2884         21.9536         -61.1638         21.1812      -0.00941025         149.622
0.524                   -0.32778        -133.288          -61.117          19.625         -60.9944         18.8627      -0.00949635         149.555
0.525                  -0.337646        -133.773         -60.9447         17.3016         -60.8247         16.5509       -0.0095827         149.488
0.526                  -0.347755        -134.261         -60.7717         14.9828         -60.6548         14.2452      -0.00966932         149.421
0.527                   -0.35811        -134.752         -60.5981         12.6682         -60.4848         11.9449      -0.00975624         149.353
0.528                  -0.368719        -135.245         -60.4241         10.3571         -60.3149          9.6495      -0.00984349         149.286
0.529                  -0.379587         -135.74         -60.2496         8.04895         -60.1451         7.35827      -0.00993109         149.218
0.53                    -0.39072        -136.239          -60.075         5.74321         -59.9755         5.07062       -0.0100191         149.151
0.531                  -0.402125         -136.74         -59.9003         3.43931         -59.8062         2.78596       -0.0101075         149.083
0.532                  -0.413809        -137.244         -59.7256         1.13668         -59.6374        0.503688       -0.0101963         149.015
0.533                  -0.425778         -137.75          -59.551        -1.16524          -59.469        -1.77678       -0.0102856         148.947
0.534                  -0.438038        -138.259         -59.3767        -3.46701         -59.3012        -4.05602       -0.0103754         148.879
0.535                  -0.450598        -138.771         -59.2027        -5.76915          -59.134        -6.33456       -0.0104658         148.811
0.536                  -0.463465        -139.286         -59.0291        -8.07218         -58.9676        -8.61294       -0.0105566         148.743
0.537                  -0.476646        -139.804         -58.8561        -10.3766         -58.8018        -10.8917       -0.0106481         148.675
0.538                   -0.49015        -140.324         -58.6837         -12.683         -58.6369        -13.1712       -0.0107402         148.607
0.539                  -0.503984        -140.847         -58.5121        -14.9916         -58.4729        -15.4521        -0.010833         148.538
0.54                   -0.518156        -141.373         -58.3412        -17.3031         -58.3098        -17.7347       -0.0109264         148.469
0.541                  -0.532676        -141.902         -58.1712        -19.6178         -58.1477        -20.0195       -0.0110205         148.401
0.542                  -0.547553        -142.434         -58.0022        -21.9361         -57.9866        -22.3069       -0.0111154         148.332
0.543                  -0.562795        -142.968         -57.8343        -24.2584         -57.8266        -24.5972        -0.011211         148.263
0.544                  -0.578412        -143.506         -57.6674         -26.585         -57.6677        -26.8908       -0.0113074         148.194
0.545                  -0.594414        -144.046         -57.5018        -28.9162           -57.51         -29.188       -0.0114047         148.125
0.546                   -0.61081        -144.589         -57.3374        -31.2523         -57.3535        -31.4891       -0.0115028         148.056
0.547                  -0.627612        -145.136         -57.1743        -33.5936         -57.1982        -33.7944       -0.0116019         147.987
0.548                   -0.64483        -145.685         -57.0127        -35.9402         -57.0442        -36.1042       -0.0117018         147.917
0.549                  -0.662474        -146.237         -56.8525        -38.2923         -56.8915        -38.4186       -0.0118027         147.848
0.55                   -0.680557        -146.792         -56.6938        -40.6502         -56.7401        -40.7378       -0.0119047         147.778
0.551                   -0.69909         -147.35         -56.5367        -43.0138         -56.5901        -43.0621       -0.0120076         147.708
0.552                  -0.718084        -147.911         -56.3812        -45.3833         -56.4415        -45.3916       -0.0121116         147.638
0.553                  -0.737553        -148.474         -56.2274        -47.7588         -56.2943        -47.7263       -0.0122167         147.568
0.554                  -0.757508        -149.041         -56.0753        -50.1402         -56.1486        -50.0665       -0.0123229         147.498
0.555                  -0.777962        -149.611          -55.925        -52.5276         -56.0043        -52.4121       -0.0124302         147.428
0.556                  -0.798929        -150.183         -55.7765        -54.9208         -55.8616        -54.7632       -0.0125387         147.358
0.557                  -0.820423        -150.759         -55.6299        -57.3199         -55.7203        -57.1199       -0.0126485         147.287
0.558                  -0.842456        -151.337         -55.4852        -59.7247         -55.5805         -59.482       -0.0127595         147.217
0.559                  -0.865043        -151.918         -55.3424         -62.135         -55.4423        -61.8497       -0.0128718         147.146
0.56                   -0.888199        -152.502         -55.2015        -64.5507         -55.3056        -64.2229       -0.0129854         147.075
0.561                  -0.911936        -153.089         -55.0626        -66.9716         -55.1705        -66.6015       -0.0131004         147.004
0.562                  -0.936271        -153.678         -54.9257        -69.3975         -55.0369        -68.9853       -0.0132167         146.933
0.563                  -0.961218         -154.27         -54.7909        -71.8281         -54.9049        -71.3744       -0.0133345         146.862
0.564                  -0.986791        -154.865          -54.658        -74.2632         -54.7745        -73.7686       -0.0134537          146.79
0.565                   -1.01301        -155.462         -54.5272        -76.7024         -54.6456        -76.1677       -0.0135744         146.719
0.566                   -1.03988        -156.062         -54.3984        -79.1455         -54.5183        -78.5717       -0.0136966         146.647
0.567                   -1.06742        -156.664         -54.2716        -81.5922         -54.3926        -80.9802       -0.0138204         146.576
0.568                   -1.09564        -157.269         -54.1469         -84.042         -54.2684        -83.3932       -0.0139457         146.504
0.569                   -1.12456        -157.876         -54.0242        -86.4946         -54.1458        -85.8104       -0.0140727         146.432
0.57                     -1.1542        -158.485         -53.9035        -88.9497         -54.0247        -88.2317       -0.0142014         146.359
0.571                   -1.18456        -159.096         -53.7848        -91.4069         -53.9052        -90.6567       -0.0143317         146.287
0.572                   -1.21565        -159.709          -53.668        -93.8657         -53.7872        -93.0853       -0.0144638         146.215
0.573                   -1.24749        -160.323         -53.5531         -96.326         -53.6706        -95.5172       -0.0145976         146.142
0.574                   -1.28009         -160.94         -53.4402        -98.7871         -53.5556        -97.9522       -0.0147333          146.07
0.575                   -1.31345        -161.558         -53.3291        -101.249          -53.442         -100.39       -0.0148707         145.997
0.576                   -1.34759        -162.177         -53.2198        -103.711         -53.3298         -102.83       -0.0150101         145.924
0.577                    -1.3825        -162.798         -53.1123        -106.172         -53.2191        -105.273       -0.0151514          145.85
0.578                   -1.41819        -163.419         -53.0065        -108.633         -53.1097        -107.718       -0.0152946         145.777
0.579                   -1.45467        -164.041         -52.9024        -111.093         -53.0017        -110.164       -0.0154399         145.704
0.58                    -1.49192        -164.664         -52.7999        -113.552          -52.895        -112.612       -0.0155872          145.63
0.581                   -1.52994        -165.288          -52.699        -116.009         -52.7896        -115.061       -0.0157365         145.556
0.582                   -1.56873        -165.912         -52.5995        -118.465         -52.6854        -117.511        -0.015888         145.482
0.583                   -1.60827        -166.536         -52.5015        -120.918         -52.5825        -119.962       -0.0160417         145.408
0.584                   -1.64856         -167.16         -52.4048        -123.368         -52.4807        -122.413       -0.0161976         145.334
0.585                   -1.68956        -167.783         -52.3094        -125.815         -52.3801        -124.864       -0.0163557          145.26
0.586                   -1.73126        -168.406         -52.2153         -128.26         -52.2805        -127.316       -0.0165162         145.185
0.587                   -1.77363        -169.028         -52.1223        -130.701         -52.1821        -129.767        -0.016679         145.111
0.588                   -1.81664         -169.65         -52.0304        -133.139         -52.0846        -132.217       -0.0168443         145.036
0.589                   -1.86025        -170.271         -51.9395        -135.573         -51.9882        -134.667       -0.0170121         144.961
0.59                    -1.90442         -170.89         -51.8495        -138.003         -51.8926        -137.116       -0.0171824         144.885
0.591                   -1.94912        -171.509         -51.7604        -140.429          -51.798        -139.563       -0.0173553          144.81
0.592                   -1.99428        -172.126          -51.672        -142.851         -51.7042         -142.01       -0.0175309         144.734
0.593                   -2.03987        -172.742         -51.5844        -145.268         -51.6112        -144.454       -0.0177092         144.659
0.594                   -2.08582        -173.357         -51.4974        -147.682         -51.5189        -146.897       -0.0178904         144.583
0.595                   -2.13209        -173.971         -51.4109        -150.091         -51.4274        -149.339       -0.0180745         144.507
0.596                   -2.17861        -174.583          -51.325        -152.495         -51.3366        -151.778       -0.0182616          144.43
0.597                   -2.22533        -175.195         -51.2395        -154.895         -51.2464        -154.215       -0.0184518         144.354
0.598                   -2.27219        -175.807         -51.1543        -157.291         -51.1567        -156.649       -0.0186452         144.277
0.599                   -2.31913        -176.418         -51.0694        -159.683         -51.0677        -159.082       -0.0188419           144.2
0.6                     -2.36612        -177.029         -50.9847         -162.07         -50.9791        -161.512       -0.0190421         144.123
0.601                    -2.4131         -177.64         -50.9002        -164.454          -50.891        -163.939       -0.0192459         144.046
0.602                   -2.46002        -178.252         -50.8158        -166.833         -50.8033        -166.364       -0.0194534         143.969
0.603                   -2.50686        -178.866         -50.7314        -169.208          -50.716        -168.786       -0.0196648         143.891
0.604                   -2.55359        -179.482          -50.647         -171.58          -50.629        -171.205       -0.0198802         143.813
0.605                   -2.60019           179.9         -50.5625        -173.948         -50.5424        -173.622       -0.0200997         143.735
0.606                   -2.64665         179.278          -50.478        -176.313         -50.4561        -176.035       -0.0203235         143.657
0.607                   -2.69299         178.653         -50.3932        -178.674           -50.37        -178.446       -0.0205517         143.579
0.608                   -2.73921         178.023         -50.3083         178.967         -50.2841         179.145       -0.0207841           143.5
0.609                   -2.78534         177.388         -50.2232         176.611         -50.1984          176.74       -0.0210208         143.421
0.61                    -2.83143         176.747         -50.1378         174.257         -50.1128         174.337       -0.0212613         143.342
0.611                   -2.87752           176.1          -50.052         171.906         -50.0274         171.937       -0.0215051         143.263
0.612                   -2.92367         175.445          -49.966         169.556         -49.9421         169.539       -0.0217514         143.184
0.613                   -2.96995         174.783         -49.8796         167.208         -49.8569         167.144       -0.0219989         143.104
0.614                   -3.01646         174.113         -49.7929         164.862         -49.7718         164.751       -0.0222461         143.025
0.615                   -3.06328         173.434         -49.7058         162.516         -49.6867         162.361       -0.0224915         142.945
0.616                    -3.1105         172.745         -49.6183         160.171         -49.6016         159.973       -0.0227337         142.865
0.617                   -3.15825         172.047         -49.5305         157.826         -49.5166         157.587       -0.0229716         142.784
0.618                   -3.20664         171.338         -49.4422         155.481         -49.4315         155.203       -0.0232055         142.704
0.619                   -3.25577          170.62         -49.3536         153.135         -49.3465         152.822       -0.0234362         142.623
0.62                    -3.30578         169.891         -49.2647         150.789         -49.2614         150.441       -0.0236656         142.542
0.621                    -3.3568         169.151         -49.1754         148.442         -49.1764         148.063       -0.0238957          142.46
0.622                   -3.40895           168.4         -49.0858         146.093         -49.0913         145.686       -0.0241288         142.378
0.623                   -3.46236         167.638         -48.9959         143.743         -49.0062          143.31       -0.0243664         142.296
0.624                   -3.51717         166.865         -48.9058          141.39          -48.921         140.936       -0.0246099         142.214
0.625                   -3.57351         166.082         -48.8154         139.035         -48.8359         138.563       -0.0248598         142.132
0.626                   -3.63152         165.288         -48.7249         136.678         -48.7507          136.19       -0.0251167         142.049
0.627                   -3.69133         164.483         -48.6343         134.317         -48.6656         133.818       -0.0253804         141.966
0.628                   -3.75306         163.668         -48.5435         131.953         -48.5805         131.447        -0.025651         141.882
0.629                   -3.81686         162.844         -48.4528         129.586         -48.4954         129.076       -0.0259283         141.798
