! TOUCHSTONE file generated by CST MICROWAVE STUDIO
! Date and time: Sat Oct 24 11:50:18 2020
! Project name: Scenario_1_Circular_Tissue_out_of_Line.cst
! Parameters = {dy1=312.958; L_HA=400; MT=2.54; Rad_Dielectric=30; Rad_Lower=7.3; Rad_Upper=30; a_HA=580; a_WG=246; b_HA=500; b_WG=121; c_HA=0; c_WG=187; d_feed=85; dx1=1039; h_feed=15; h_lower=18; h_upper=40}
! Header version: 2018
! Port assignment regex: !\s*Touchstone port\s*([0-9]+)\s*=\s*(CST MWS port|CST DS port)\s*([0-9]+|Zmin|Zmax)\s*\(\"(.*)\"\)(\s*mode\s*([0-9]+))?.*
! Touchstone port assignment:
! Touchstone port 1 = CST MWS port 1 ("")
! Touchstone port 2 = CST MWS port 2 ("")
# GHz S DB R 50
0.5                    -0.142282        -122.261         -65.1672        -21.3717         -65.1672        -21.3717      -0.00757802         151.136
0.501                  -0.152573        -122.702          -65.138        -23.9635         -65.1388        -23.9614       -0.0076394         151.071
0.502                  -0.162914        -123.143          -65.101        -26.5762         -65.1027        -26.5722      -0.00770159         151.006
0.503                  -0.173304        -123.587         -65.0561        -29.2069         -65.0586        -29.2015      -0.00776459          150.94
0.504                  -0.183747        -124.031         -65.0032        -31.8531         -65.0066        -31.8465      -0.00782841         150.875
0.505                  -0.194243        -124.477         -64.9422         -34.512         -64.9464        -34.5046      -0.00789306         150.809
0.506                  -0.204794        -124.925         -64.8732        -37.1807         -64.8782        -37.1728      -0.00795853         150.744
0.507                  -0.215401        -125.374         -64.7962        -39.8566          -64.802        -39.8485      -0.00802484         150.678
0.508                  -0.226068        -125.824         -64.7113        -42.5368         -64.7178        -42.5288      -0.00809199         150.612
0.509                  -0.236796        -126.277         -64.6185        -45.2188         -64.6257        -45.2112      -0.00815999         150.546
0.51                   -0.247586         -126.73         -64.5182           -47.9          -64.526         -47.893      -0.00822884          150.48
0.511                  -0.258443        -127.186         -64.4103         -50.578         -64.4188        -50.5719      -0.00829855         150.414
0.512                  -0.269367        -127.643         -64.2953        -53.2507         -64.3043        -53.2456      -0.00836912         150.348
0.513                  -0.280361        -128.101         -64.1732        -55.9159         -64.1828         -55.912      -0.00844056         150.282
0.514                  -0.291429        -128.562         -64.0444        -58.5719         -64.0545        -58.5693      -0.00851288         150.216
0.515                  -0.302573        -129.024         -63.9093        -61.2168         -63.9197        -61.2157      -0.00858608         150.149
0.516                  -0.313796        -129.488          -63.768        -63.8494         -63.7788        -63.8498      -0.00866018         150.083
0.517                  -0.325102        -129.954         -63.6209        -66.4683         -63.6321        -66.4703      -0.00873517         150.017
0.518                  -0.336493        -130.422         -63.4684        -69.0724         -63.4798         -69.076      -0.00881106          149.95
0.519                  -0.347973        -130.891         -63.3107        -71.6611         -63.3224        -71.6663      -0.00888786         149.883
0.52                   -0.359546        -131.363         -63.1483        -74.2336         -63.1601        -74.2405      -0.00896559         149.816
0.521                  -0.371216        -131.837         -62.9814        -76.7896         -62.9934         -76.798      -0.00904423          149.75
0.522                  -0.382986        -132.312         -62.8105        -79.3287         -62.8225        -79.3386      -0.00912381         149.683
0.523                  -0.394861         -132.79         -62.6357        -81.8509         -62.6478        -81.8623      -0.00920433         149.616
0.524                  -0.406844         -133.27         -62.4575        -84.3564         -62.4696        -84.3691       -0.0092858         149.549
0.525                  -0.418941        -133.752         -62.2761        -86.8453         -62.2882        -86.8593      -0.00936823         149.481
0.526                  -0.431156        -134.236          -62.092         -89.318          -62.104        -89.3332      -0.00945162         149.414
0.527                  -0.443493        -134.723         -61.9052         -91.775         -61.9171        -91.7912      -0.00953598         149.347
0.528                  -0.455958        -135.211         -61.7162        -94.2169          -61.728         -94.234      -0.00962133         149.279
0.529                  -0.468556        -135.702         -61.5252        -96.6443         -61.5368        -96.6623      -0.00970766         149.212
0.53                   -0.481293        -136.195         -61.3324        -99.0582         -61.3438        -99.0768        -0.009795         149.144
0.531                  -0.494173        -136.691         -61.1382        -101.459         -61.1494        -101.478      -0.00988334         149.076
0.532                  -0.507202        -137.189         -60.9426        -103.848         -60.9536        -103.868       -0.0099727         149.008
0.533                  -0.520387         -137.69          -60.746        -106.226         -60.7567        -106.246       -0.0100631          148.94
0.534                  -0.533733        -138.193         -60.5486        -108.595          -60.559        -108.615       -0.0101545         148.872
0.535                  -0.547247        -138.698         -60.3505        -110.954         -60.3606        -110.974        -0.010247         148.804
0.536                  -0.560936        -139.206         -60.1519        -113.305         -60.1616        -113.325       -0.0103405         148.736
0.537                  -0.574805        -139.717          -59.953        -115.649         -59.9624        -115.669       -0.0104351         148.668
0.538                  -0.588863         -140.23          -59.754        -117.988          -59.763        -118.007       -0.0105308         148.599
0.539                  -0.603115        -140.746         -59.5549        -120.322         -59.5637        -120.341       -0.0106275         148.531
0.54                    -0.61757        -141.265         -59.3561        -122.652         -59.3644         -122.67       -0.0107254         148.462
0.541                  -0.632235        -141.786         -59.1576        -124.979         -59.1655        -124.997       -0.0108244         148.393
0.542                  -0.647118         -142.31         -58.9594        -127.305          -58.967        -127.322       -0.0109245         148.325
0.543                  -0.662226        -142.837         -58.7619         -129.63         -58.7691        -129.647       -0.0110257         148.256
0.544                  -0.677569        -143.367          -58.565        -131.956         -58.5718        -131.972       -0.0111281         148.187
0.545                  -0.693153        -143.899          -58.369        -134.283         -58.3753        -134.298       -0.0112316         148.117
0.546                  -0.708989        -144.435         -58.1738        -136.612         -58.1797        -136.626       -0.0113363         148.048
0.547                  -0.725085        -144.973         -57.9797        -138.945         -57.9852        -138.958       -0.0114422         147.979
0.548                   -0.74145        -145.514         -57.7867        -141.282         -57.7917        -141.294       -0.0115493         147.909
0.549                  -0.758092        -146.059         -57.5949        -143.624         -57.5995        -143.635       -0.0116576          147.84
0.55                   -0.775023        -146.606         -57.4044        -145.973         -57.4086        -145.982       -0.0117671          147.77
0.551                  -0.792251        -147.156         -57.2153        -148.327          -57.219        -148.336       -0.0118779           147.7
0.552                  -0.809787         -147.71         -57.0277         -150.69          -57.031        -150.697       -0.0119899          147.63
0.553                   -0.82764        -148.266         -56.8417         -153.06         -56.8446        -153.066       -0.0121031          147.56
0.554                  -0.845822        -148.826         -56.6574         -155.44         -56.6599        -155.445       -0.0122177          147.49
0.555                  -0.864342        -149.389         -56.4749        -157.829         -56.4769        -157.833       -0.0123335          147.42
0.556                  -0.883212        -149.954         -56.2942        -160.228         -56.2958        -160.231       -0.0124507         147.349
0.557                  -0.902443        -150.523         -56.1155        -162.638         -56.1166        -162.639       -0.0125692         147.279
0.558                  -0.922045        -151.096         -55.9388        -165.059         -55.9395        -165.059        -0.012689         147.208
0.559                  -0.942031        -151.671         -55.7642        -167.492         -55.7644        -167.491       -0.0128102         147.137
0.56                   -0.962413         -152.25         -55.5917        -169.936         -55.5916        -169.935       -0.0129328         147.067
0.561                  -0.983201        -152.832         -55.4216        -172.393          -55.421        -172.391       -0.0130567         146.996
0.562                   -1.00441        -153.417         -55.2538        -174.863         -55.2528         -174.86       -0.0131821         146.924
0.563                   -1.02605        -154.005         -55.0884        -177.346          -55.087        -177.342       -0.0133089         146.853
0.564                   -1.04813        -154.597         -54.9255        -179.842         -54.9237        -179.837       -0.0134372         146.782
0.565                   -1.07067        -155.192         -54.7651         177.649          -54.763         177.655       -0.0135669          146.71
0.566                   -1.09368         -155.79         -54.6074         175.126          -54.605         175.133       -0.0136981         146.639
0.567                   -1.11717        -156.392         -54.4524         172.591         -54.4496         172.598       -0.0138308         146.567
0.568                   -1.14115        -156.997         -54.3002         170.041          -54.297         170.049       -0.0139651         146.495
0.569                   -1.16565        -157.605         -54.1507         167.479         -54.1472         167.487       -0.0141009         146.423
0.57                    -1.19067        -158.216         -54.0041         164.903         -54.0004         164.912       -0.0142382         146.351
0.571                   -1.21622        -158.831         -53.8605         162.315         -53.8564         162.324       -0.0143772         146.278
0.572                   -1.24233        -159.449         -53.7198         159.714         -53.7155         159.724       -0.0145177         146.206
0.573                   -1.26899         -160.07         -53.5822         157.101         -53.5776          157.11       -0.0146599         146.133
0.574                   -1.29624        -160.695         -53.4475         154.475         -53.4427         154.485       -0.0148038          146.06
0.575                   -1.32407        -161.323          -53.316         151.838         -53.3109         151.848       -0.0149493         145.987
0.576                   -1.35252        -161.954         -53.1875          149.19         -53.1823           149.2       -0.0150965         145.914
0.577                   -1.38158        -162.588         -53.0621         146.531         -53.0568         146.541       -0.0152455         145.841
0.578                   -1.41128        -163.226         -52.9399         143.862         -52.9344         143.872       -0.0153962         145.768
0.579                   -1.44162        -163.866         -52.8207         141.184         -52.8151         141.193       -0.0155487         145.694
0.58                    -1.47263         -164.51         -52.7047         138.496          -52.699         138.505        -0.015703         145.621
0.581                   -1.50432        -165.157         -52.5917           135.8         -52.5859         135.809       -0.0158591         145.547
0.582                   -1.53669        -165.807         -52.4818         133.096          -52.476         133.104       -0.0160171         145.473
0.583                   -1.56978         -166.46         -52.3749         130.385         -52.3691         130.393        -0.016177         145.399
0.584                   -1.60358        -167.116          -52.271         127.667         -52.2653         127.675       -0.0163388         145.325
0.585                   -1.63812        -167.776         -52.1701         124.944         -52.1644         124.951       -0.0165025          145.25
0.586                   -1.67341        -168.438         -52.0721         122.216         -52.0664         122.223       -0.0166682         145.176
0.587                   -1.70947        -169.103         -51.9769         119.483         -51.9713         119.489        -0.016836         145.101
0.588                    -1.7463        -169.771         -51.8844         116.746         -51.8789         116.752       -0.0170057         145.026
0.589                   -1.78392        -170.442         -51.7946         114.007         -51.7893         114.012       -0.0171775         144.951
0.59                    -1.82235        -171.115         -51.7074         111.265         -51.7022          111.27       -0.0173515         144.876
0.591                    -1.8616        -171.791         -51.6227         108.521         -51.6178         108.526       -0.0175275           144.8
0.592                   -1.90168         -172.47         -51.5405         105.777         -51.5357         105.781       -0.0177058         144.725
0.593                   -1.94261        -173.152         -51.4605         103.032         -51.4559         103.035       -0.0178862         144.649
0.594                    -1.9844        -173.836         -51.3827         100.287         -51.3784          100.29       -0.0180689         144.573
0.595                   -2.02707        -174.522          -51.307         97.5428          -51.303         97.5454       -0.0182538         144.497
0.596                   -2.07062        -175.211         -51.2333         94.8001         -51.2296         94.8022       -0.0184411          144.42
0.597                   -2.11506        -175.903         -51.1614         92.0592          -51.158          92.061       -0.0186307         144.344
0.598                   -2.16042        -176.597         -51.0913         89.3207         -51.0882         89.3222       -0.0188227         144.267
0.599                   -2.20671        -177.292         -51.0227         86.5851           -51.02         86.5862       -0.0190171          144.19
0.6                     -2.25392        -177.991         -50.9557         83.8527         -50.9533         83.8536        -0.019214         144.113
0.601                   -2.30209        -178.691           -50.89          81.124          -50.888         81.1248       -0.0194135         144.036
0.602                   -2.35121        -179.393         -50.8255         78.3994         -50.8239         78.4001       -0.0196155         143.959
0.603                   -2.40131         179.903         -50.7622         75.6793         -50.7609         75.6798       -0.0198201         143.881
0.604                   -2.45238         179.197         -50.6998         72.9639          -50.699         72.9643       -0.0200273         143.803
0.605                   -2.50445         178.489         -50.6383         70.2535         -50.6379         70.2539       -0.0202372         143.725
0.606                   -2.55751          177.78         -50.5775         67.5484         -50.5775         67.5489       -0.0204499         143.647
0.607                   -2.61159         177.069         -50.5174         64.8488         -50.5178         64.8494       -0.0206654         143.568
0.608                   -2.66669         176.356         -50.4577         62.1549         -50.4585         62.1557       -0.0208837          143.49
0.609                   -2.72281         175.642         -50.3984         59.4668         -50.3997         59.4678       -0.0211049         143.411
0.61                    -2.77998         174.926         -50.3394         56.7848         -50.3411         56.7861        -0.021329         143.332
0.611                   -2.83819         174.209         -50.2806          54.109         -50.2826         54.1105       -0.0215562         143.253
0.612                   -2.89745         173.491         -50.2218         51.4393         -50.2243         51.4412       -0.0217864         143.173
0.613                   -2.95778         172.772          -50.163          48.776         -50.1659         48.7782       -0.0220197         143.093
0.614                   -3.01917         172.052         -50.1041          46.119         -50.1073         46.1216       -0.0222561         143.013
0.615                   -3.08165          171.33         -50.0449         43.4683         -50.0485         43.4714       -0.0224958         142.933
0.616                    -3.1452         170.608         -49.9855          40.824         -49.9894         40.8276       -0.0227388         142.853
0.617                   -3.20985         169.885         -49.9256          38.186           -49.93         38.1902       -0.0229851         142.772
0.618                   -3.27559         169.161         -49.8653         35.5543           -49.87         35.5591       -0.0232349         142.691
0.619                   -3.34243         168.437         -49.8044         32.9289         -49.8095         32.9342       -0.0234881          142.61
0.62                    -3.41038         167.711         -49.7429         30.3096         -49.7483         30.3156       -0.0237448         142.529
0.621                   -3.47945         166.986         -49.6808         27.6965         -49.6865         27.7031       -0.0240052         142.447
0.622                   -3.54963         166.259         -49.6179         25.0893         -49.6239         25.0966       -0.0242692         142.366
0.623                   -3.62094         165.533         -49.5543          22.488         -49.5606          22.496        -0.024537         142.283
0.624                   -3.69337         164.806         -49.4898         19.8924         -49.4964         19.9011       -0.0248085         142.201
0.625                   -3.76694         164.078         -49.4245         17.3025         -49.4313         17.3119        -0.025084         142.119
0.626                   -3.84165          163.35         -49.3583          14.718         -49.3654         14.7282       -0.0253634         142.036
0.627                    -3.9175         162.622         -49.2912         12.1388         -49.2984         12.1497       -0.0256469         141.953
0.628                   -3.99451         161.894         -49.2231         9.56476         -49.2305         9.57641       -0.0259344         141.869
0.629                   -4.07266         161.166          -49.154         6.99565         -49.1617         7.00805       -0.0262262         141.786
