! TOUCHSTONE file generated by CST MICROWAVE STUDIO
! Date and time: Mon Oct 26 12:04:13 2020
! Project name: Scenario_1_Circular_Tissue_out_of_Line_v2.cst
! Parameters = {dy1=-311.4; L_HA=400; MT=2.54; Rad_Dielectric=30; Rad_Lower=7.3; Rad_Upper=30; a_HA=580; a_WG=246; b_HA=500; b_WG=121; c_HA=0; c_WG=187; d_feed=85; dx1=173; h_feed=15; h_lower=18; h_upper=40}
! Header version: 2018
! Port assignment regex: !\s*Touchstone port\s*([0-9]+)\s*=\s*(CST MWS port|CST DS port)\s*([0-9]+|Zmin|Zmax)\s*\(\"(.*)\"\)(\s*mode\s*([0-9]+))?.*
! Touchstone port assignment:
! Touchstone port 1 = CST MWS port 1 ("")
! Touchstone port 2 = CST MWS port 2 ("")
# GHz S DB R 50
0.5                    -0.154746        -122.503         -63.2657         92.5667         -63.2657         92.5667       -0.0070015         151.137
0.501                   -0.16219         -122.93         -63.1091         90.9395          -63.109         90.9405        -0.007068         151.071
0.502                   -0.16973        -123.359         -62.9526         89.3143         -62.9525         89.3163      -0.00713535         151.006
0.503                  -0.177369         -123.79         -62.7964         87.6907         -62.7962         87.6936      -0.00720354          150.94
0.504                   -0.18511        -124.222         -62.6404         86.0684         -62.6401         86.0721      -0.00727258         150.875
0.505                  -0.192954        -124.657         -62.4847         84.4471         -62.4843         84.4516      -0.00734247         150.809
0.506                  -0.200905        -125.094         -62.3293         82.8265         -62.3289         82.8318      -0.00741322         150.744
0.507                  -0.208965        -125.532         -62.1742         81.2064         -62.1738         81.2124      -0.00748484         150.678
0.508                  -0.217138        -125.973         -62.0196         79.5865         -62.0191         79.5931      -0.00755733         150.612
0.509                  -0.225424        -126.416         -61.8653         77.9666         -61.8648         77.9737       -0.0076307         150.546
0.51                   -0.233829         -126.86         -61.7116         76.3463         -61.7111          76.354      -0.00770495          150.48
0.511                  -0.242354        -127.307         -61.5583         74.7254         -61.5578         74.7337      -0.00778009         150.414
0.512                  -0.251002        -127.756         -61.4056         73.1038          -61.405         73.1125      -0.00785613         150.348
0.513                  -0.259778        -128.207         -61.2535         71.4813         -61.2529         71.4903      -0.00793307         150.282
0.514                  -0.268683         -128.66         -61.1019         69.8575         -61.1013         69.8669      -0.00801092         150.216
0.515                  -0.277721        -129.115          -60.951         68.2323         -60.9503         68.2421      -0.00808968         150.149
0.516                  -0.286896        -129.573         -60.8008         66.6056         -60.8001         66.6156      -0.00816937         150.083
0.517                  -0.296211        -130.032         -60.6512         64.9771         -60.6505         64.9874      -0.00824999         150.016
0.518                   -0.30567        -130.494         -60.5024         63.3468         -60.5017         63.3572      -0.00833154         149.949
0.519                  -0.315276        -130.958         -60.3543         61.7144         -60.3536          61.725      -0.00841404         149.883
0.52                   -0.325033        -131.425          -60.207         60.0798         -60.2063         60.0905      -0.00849748         149.816
0.521                  -0.334946        -131.894         -60.0606         58.4429         -60.0598         58.4538      -0.00858189         149.749
0.522                  -0.345017        -132.365          -59.915         56.8036         -59.9142         56.8145      -0.00866726         149.682
0.523                  -0.355252        -132.838         -59.7702         55.1618         -59.7695         55.1728      -0.00875361         149.615
0.524                  -0.365654        -133.314         -59.6264         53.5175         -59.6257         53.5284      -0.00884093         149.548
0.525                  -0.376227        -133.792         -59.4835         51.8704         -59.4828         51.8813      -0.00892925         149.481
0.526                  -0.386977        -134.273         -59.3416         50.2207         -59.3409         50.2315      -0.00901857         149.413
0.527                  -0.397907        -134.756         -59.2007         48.5682            -59.2         48.5789      -0.00910889         149.346
0.528                  -0.409023        -135.241         -59.0608         46.9128         -59.0601         46.9235      -0.00920022         149.278
0.529                  -0.420328        -135.729          -58.922         45.2547         -58.9212         45.2652      -0.00929258         149.211
0.53                   -0.431829         -136.22         -58.7842         43.5937         -58.7835         43.6041      -0.00938598         149.143
0.531                   -0.44353        -136.713         -58.6476           41.93         -58.6468         41.9402      -0.00948041         149.075
0.532                  -0.455437        -137.208          -58.512         40.2634         -58.5113         40.2734      -0.00957589         149.007
0.533                  -0.467554        -137.707         -58.3777         38.5941         -58.3769         38.6038      -0.00967244         148.939
0.534                  -0.479887        -138.207         -58.2445          36.922         -58.2437         36.9316      -0.00977005         148.871
0.535                  -0.492442        -138.711         -58.1125         35.2473         -58.1118         35.2566      -0.00986875         148.803
0.536                  -0.505225        -139.217         -57.9817         33.5699          -57.981          33.579      -0.00996853         148.735
0.537                  -0.518241        -139.726         -57.8522         31.8901         -57.8515         31.8989       -0.0100694         148.667
0.538                  -0.531497        -140.238          -57.724         30.2078         -57.7233         30.2164       -0.0101714         148.598
0.539                  -0.544998        -140.752          -57.597         28.5233         -57.5963         28.5315       -0.0102745         148.529
0.54                   -0.558752        -141.269         -57.4714         26.8365         -57.4707         26.8444       -0.0103788         148.461
0.541                  -0.572764        -141.789         -57.3471         25.1477         -57.3464         25.1553       -0.0104841         148.392
0.542                  -0.587042        -142.312         -57.2241         23.4569         -57.2235         23.4642       -0.0105907         148.323
0.543                  -0.601592        -142.837         -57.1025         21.7643         -57.1019         21.7713       -0.0106984         148.254
0.544                  -0.616421        -143.366         -56.9823         20.0701         -56.9817         20.0768       -0.0108073         148.185
0.545                  -0.631537        -143.897         -56.8634         18.3745         -56.8628         18.3808       -0.0109173         148.116
0.546                  -0.646946        -144.431          -56.746         16.6775         -56.7454         16.6835       -0.0110286         148.047
0.547                  -0.662658        -144.969           -56.63         14.9795         -56.6294         14.9852       -0.0111411         147.977
0.548                  -0.678678        -145.509         -56.5153         13.2805         -56.5148         13.2859       -0.0112548         147.908
0.549                  -0.695016        -146.052         -56.4022         11.5808         -56.4016         11.5859       -0.0113697         147.838
0.55                   -0.711679        -146.598         -56.2904         9.88067         -56.2898         9.88536       -0.0114859         147.768
0.551                  -0.728676        -147.147         -56.1801          8.1802         -56.1795         8.18456       -0.0116034         147.698
0.552                  -0.746015          -147.7         -56.0712         6.47964         -56.0706         6.48369       -0.0117221         147.628
0.553                  -0.763705        -148.255         -55.9637         4.77923         -55.9632         4.78296       -0.0118422         147.558
0.554                  -0.781754        -148.814         -55.8577         3.07918         -55.8572         3.08259       -0.0119635         147.488
0.555                  -0.800173        -149.375         -55.7531         1.37972         -55.7526         1.38282       -0.0120861         147.418
0.556                  -0.818971         -149.94           -55.65       -0.318915         -55.6495       -0.316119       -0.0122101         147.347
0.557                  -0.838156        -150.508         -55.5482         -2.0165         -55.5478          -2.014       -0.0123355         147.277
0.558                   -0.85774        -151.079         -55.4479         -3.7128         -55.4475        -3.71059       -0.0124622         147.206
0.559                   -0.87773        -151.653          -55.349        -5.40759         -55.3486        -5.40566       -0.0125902         147.135
0.56                   -0.898139         -152.23         -55.2515        -7.10063         -55.2511        -7.09897       -0.0127197         147.064
0.561                  -0.918977        -152.811         -55.1554        -8.79168          -55.155         -8.7903       -0.0128506         146.993
0.562                  -0.940253        -153.395         -55.0606        -10.4805         -55.0603        -10.4794       -0.0129829         146.922
0.563                   -0.96198        -153.982         -54.9672        -12.1669         -54.9669        -12.1661       -0.0131167         146.851
0.564                  -0.984168        -154.573         -54.8751        -13.8507         -54.8748          -13.85       -0.0132519         146.779
0.565                   -1.00683        -155.167         -54.7844        -15.5316         -54.7841        -15.5311       -0.0133886         146.708
0.566                   -1.02997        -155.764         -54.6949        -17.2093         -54.6946        -17.2091       -0.0135269         146.636
0.567                   -1.05361        -156.364         -54.6067        -18.8838         -54.6065        -18.8838       -0.0136666         146.564
0.568                   -1.07776        -156.968         -54.5198        -20.5548         -54.5196         -20.555       -0.0138078         146.492
0.569                   -1.10243        -157.575         -54.4341         -22.222         -54.4339        -22.2224       -0.0139507          146.42
0.57                    -1.12763        -158.185         -54.3496        -23.8853         -54.3494        -23.8859        -0.014095         146.348
0.571                   -1.15338        -158.799         -54.2663        -25.5446         -54.2661        -25.5453        -0.014241         146.276
0.572                   -1.17968        -159.416         -54.1841        -27.1995         -54.1839        -27.2004       -0.0143886         146.203
0.573                   -1.20656        -160.036          -54.103          -28.85         -54.1028         -28.851       -0.0145379          146.13
0.574                   -1.23402         -160.66          -54.023        -30.4959         -54.0229        -30.4971       -0.0146887         146.058
0.575                   -1.26209        -161.287         -53.9441         -32.137          -53.944        -32.1383       -0.0148413         145.985
0.576                   -1.29076        -161.918         -53.8662        -33.7732         -53.8661        -33.7746       -0.0149956         145.912
0.577                   -1.32006        -162.551         -53.7893        -35.4043         -53.7892        -35.4058       -0.0151515         145.838
0.578                   -1.35001        -163.189         -53.7134        -37.0302         -53.7133        -37.0318       -0.0153093         145.765
0.579                   -1.38061        -163.829         -53.6384        -38.6508         -53.6383        -38.6525       -0.0154688         145.691
0.58                    -1.41188        -164.473         -53.5643         -40.266         -53.5642        -40.2677         -0.01563         145.618
0.581                   -1.44384         -165.12          -53.491        -41.8756          -53.491        -41.8774       -0.0157931         145.544
0.582                    -1.4765         -165.77         -53.4186        -43.4795         -53.4185        -43.4814       -0.0159581          145.47
0.583                   -1.50988        -166.424          -53.347        -45.0778         -53.3469        -45.0797       -0.0161249         145.396
0.584                   -1.54399        -167.081         -53.2762        -46.6702         -53.2761        -46.6721       -0.0162936         145.321
0.585                   -1.57885        -167.741          -53.206        -48.2567          -53.206        -48.2587       -0.0164642         145.247
0.586                   -1.61447        -168.405         -53.1366        -49.8373         -53.1365        -49.8393       -0.0166367         145.172
0.587                   -1.65088        -169.072         -53.0678        -51.4119         -53.0678        -51.4139       -0.0168112         145.098
0.588                   -1.68809        -169.741         -52.9996        -52.9804         -52.9996        -52.9824       -0.0169877         145.023
0.589                   -1.72611        -170.414         -52.9321        -54.5428          -52.932        -54.5448       -0.0171663         144.948
0.59                    -1.76496         -171.09         -52.8651        -56.0992          -52.865        -56.1011       -0.0173469         144.872
0.591                   -1.80466         -171.77         -52.7986        -57.6493         -52.7985        -57.6513       -0.0175296         144.797
0.592                   -1.84523        -172.452         -52.7325        -59.1934         -52.7325        -59.1953       -0.0177144         144.721
0.593                   -1.88669        -173.137          -52.667        -60.7313          -52.667        -60.7332       -0.0179013         144.645
0.594                   -1.92905        -173.825         -52.6019         -62.263         -52.6018        -62.2649       -0.0180904         144.569
0.595                   -1.97232        -174.516         -52.5371        -63.7886         -52.5371        -63.7904       -0.0182818         144.493
0.596                   -2.01654         -175.21         -52.4727         -65.308         -52.4727        -65.3098       -0.0184754         144.417
0.597                   -2.06171        -175.907         -52.4087        -66.8213         -52.4086        -66.8231       -0.0186712          144.34
0.598                   -2.10785        -176.607         -52.3449        -68.3286         -52.3449        -68.3303       -0.0188694         144.264
0.599                   -2.15499        -177.309         -52.2814        -69.8298         -52.2814        -69.8314       -0.0190699         144.187
0.6                     -2.20313        -178.014         -52.2181         -71.325         -52.2181        -71.3266       -0.0192728          144.11
0.601                   -2.25231        -178.721         -52.1551        -72.8142          -52.155        -72.8157       -0.0194781         144.032
0.602                   -2.30253        -179.431         -52.0922        -74.2976         -52.0921         -74.299       -0.0196859         143.955
0.603                   -2.35382         179.857         -52.0294         -75.775         -52.0294        -75.7764       -0.0198962         143.877
0.604                   -2.40619         179.143         -51.9668        -77.2467         -51.9668         -77.248        -0.020109         143.799
0.605                   -2.45967         178.426         -51.9043        -78.7127         -51.9042        -78.7139       -0.0203244         143.721
0.606                   -2.51427         177.707         -51.8419         -80.173         -51.8418        -80.1742       -0.0205424         143.643
0.607                   -2.57001         176.986         -51.7794        -81.6277         -51.7794        -81.6288       -0.0207631         143.565
0.608                   -2.62691         176.263         -51.7171         -83.077          -51.717         -83.078       -0.0209865         143.486
0.609                   -2.68498         175.538         -51.6547        -84.5208         -51.6546        -84.5217       -0.0212126         143.407
0.61                    -2.74425         174.812         -51.5923        -85.9593         -51.5922        -85.9602       -0.0214415         143.328
0.611                   -2.80474         174.083         -51.5298        -87.3926         -51.5297        -87.3933       -0.0216733         143.249
0.612                   -2.86645         173.354         -51.4672        -88.8207         -51.4671        -88.8214       -0.0219079         143.169
0.613                   -2.92942         172.622         -51.4046        -90.2438         -51.4045        -90.2444       -0.0221454         143.089
0.614                   -2.99366          171.89         -51.3419        -91.6619         -51.3418        -91.6625        -0.022386         143.009
0.615                   -3.05918         171.156          -51.279        -93.0752         -51.2789        -93.0757       -0.0226296         142.929
0.616                   -3.12601         170.421          -51.216        -94.4838         -51.2158        -94.4842       -0.0228762         142.849
0.617                   -3.19415         169.686         -51.1528        -95.8877         -51.1526         -95.888        -0.023126         142.768
0.618                   -3.26364         168.949         -51.0894        -97.2871         -51.0892        -97.2874        -0.023379         142.687
0.619                   -3.33448         168.212         -51.0258        -98.6821         -51.0256        -98.6823       -0.0236352         142.606
0.62                     -3.4067         167.475          -50.962        -100.073         -50.9618        -100.073       -0.0238948         142.525
0.621                    -3.4803         166.737         -50.8979        -101.459         -50.8977        -101.459       -0.0241576         142.443
0.622                   -3.55531         165.999         -50.8336        -102.842         -50.8334        -102.842       -0.0244239         142.361
0.623                   -3.63174         165.261          -50.769         -104.22         -50.7688         -104.22       -0.0246937         142.279
0.624                    -3.7096         164.523         -50.7041        -105.595          -50.704        -105.595        -0.024967         142.197
0.625                   -3.78892         163.785          -50.639        -106.966         -50.6388        -106.966       -0.0252439         142.114
0.626                    -3.8697         163.048         -50.5735        -108.334         -50.5733        -108.333       -0.0255245         142.031
0.627                   -3.95197         162.312         -50.5077        -109.698         -50.5075        -109.697       -0.0258088         141.948
0.628                   -4.03573         161.576         -50.4416        -111.058         -50.4414        -111.058       -0.0260969         141.865
0.629                     -4.121         160.842         -50.3752        -112.416          -50.375        -112.415       -0.0263889         141.781
