! TOUCHSTONE file generated by CST MICROWAVE STUDIO
! Date and time: Wed Oct 28 19:33:47 2020
! Project name: Scenario_1_Circular_Tissue_out_of_Line_v2.cst
! Parameters = {dy1=-311.4; L_HA=400; MT=2.54; Rad_Dielectric=30; Rad_Lower=7.3; Rad_Upper=30; a_HA=580; a_WG=246; b_HA=500; b_WG=121; c_HA=0; c_WG=187; d_feed=85; dx1=346; h_feed=15; h_lower=18; h_upper=40}
! Header version: 2018
! Port assignment regex: !\s*Touchstone port\s*([0-9]+)\s*=\s*(CST MWS port|CST DS port)\s*([0-9]+|Zmin|Zmax)\s*\(\"(.*)\"\)(\s*mode\s*([0-9]+))?.*
! Touchstone port assignment:
! Touchstone port 1 = CST MWS port 1 ("")
! Touchstone port 2 = CST MWS port 2 ("")
# GHz S DB R 50
0.5                    -0.141404        -122.296         -63.9078        -9.28789         -63.9078        -9.28789      -0.00779536         151.143
0.501                  -0.144758        -122.767         -63.7384        -11.0207         -63.7384        -11.0206      -0.00784995         151.078
0.502                  -0.148454         -123.24         -63.5694        -12.7284         -63.5693        -12.7283      -0.00790535         151.013
0.503                  -0.152495        -123.714         -63.4008        -14.4126         -63.4007        -14.4123      -0.00796156         150.947
0.504                   -0.15688        -124.189         -63.2327        -16.0743         -63.2326         -16.074      -0.00801859         150.882
0.505                  -0.161613        -124.666         -63.0653         -17.715         -63.0651        -17.7146      -0.00807645         150.816
0.506                  -0.166695        -125.145         -62.8986        -19.3358         -62.8984        -19.3353      -0.00813514         150.751
0.507                  -0.172126        -125.625         -62.7327        -20.9379         -62.7325        -20.9373      -0.00819466         150.685
0.508                  -0.177908        -126.107         -62.5677        -22.5225         -62.5675        -22.5219      -0.00825504         150.619
0.509                  -0.184043        -126.591         -62.4037        -24.0908         -62.4035        -24.0901      -0.00831626         150.554
0.51                   -0.190531        -127.075         -62.2406        -25.6438         -62.2404         -25.643      -0.00837835         150.488
0.511                  -0.197374        -127.561         -62.0786        -27.1827         -62.0784        -27.1817       -0.0084413         150.422
0.512                  -0.204573        -128.049         -61.9177        -28.7083         -61.9175        -28.7073      -0.00850513         150.356
0.513                  -0.212128        -128.538         -61.7579        -30.2217         -61.7576        -30.2207      -0.00856984          150.29
0.514                  -0.220041        -129.029         -61.5991        -31.7239         -61.5989        -31.7228      -0.00863543         150.223
0.515                  -0.228312        -129.521         -61.4415        -33.2158         -61.4413        -33.2146      -0.00870193         150.157
0.516                  -0.236942        -130.014         -61.2851        -34.6982         -61.2848        -34.6969      -0.00876933         150.091
0.517                  -0.245931        -130.509         -61.1298         -36.172         -61.1295        -36.1707      -0.00883764         150.024
0.518                   -0.25528        -131.005         -60.9757         -37.638         -60.9754        -37.6366      -0.00890688         149.958
0.519                   -0.26499        -131.502         -60.8227        -39.0969         -60.8225        -39.0955      -0.00897704         149.891
0.52                   -0.275061        -132.001         -60.6709        -40.5496         -60.6707        -40.5481      -0.00904815         149.824
0.521                  -0.285493        -132.501         -60.5203        -41.9967           -60.52        -41.9952      -0.00912019         149.758
0.522                  -0.296287        -133.003         -60.3708         -43.439         -60.3705        -43.4374       -0.0091932         149.691
0.523                  -0.307442        -133.505         -60.2225         -44.877         -60.2222        -44.8754      -0.00926717         149.624
0.524                  -0.318959         -134.01         -60.0753        -46.3115          -60.075        -46.3099      -0.00934211         149.557
0.525                  -0.330838        -134.515         -59.9292        -47.7431         -59.9289        -47.7414      -0.00941803          149.49
0.526                  -0.343078        -135.021         -59.7842        -49.1723         -59.7839        -49.1705      -0.00949495         149.422
0.527                   -0.35568        -135.529         -59.6403        -50.5997           -59.64        -50.5979      -0.00957286         149.355
0.528                  -0.368644        -136.039         -59.4974        -52.0258         -59.4972         -52.024      -0.00965179         149.288
0.529                  -0.381969        -136.549         -59.3557        -53.4512         -59.3554        -53.4494      -0.00973174          149.22
0.53                   -0.395655        -137.061          -59.215        -54.8763         -59.2147        -54.8745      -0.00981271         149.152
0.531                  -0.409701        -137.574         -59.0753        -56.3018          -59.075        -56.2999      -0.00989473         149.085
0.532                  -0.424108        -138.088         -58.9366        -57.7279         -58.9363         -57.726       -0.0099778         149.017
0.533                  -0.438875        -138.603         -58.7989        -59.1551         -58.7986        -59.1533       -0.0100619         148.949
0.534                  -0.454001         -139.12         -58.6622         -60.584         -58.6619        -60.5821       -0.0101471         148.881
0.535                  -0.469485        -139.637         -58.5264        -62.0148         -58.5261         -62.013       -0.0102334         148.813
0.536                  -0.485328        -140.157         -58.3915         -63.448         -58.3913        -63.4462       -0.0103208         148.745
0.537                  -0.501529        -140.677         -58.2576         -64.884         -58.2574        -64.8821       -0.0104093         148.676
0.538                  -0.518086        -141.198         -58.1246        -66.3231         -58.1244        -66.3212       -0.0104989         148.608
0.539                     -0.535        -141.721         -57.9924        -67.7657         -57.9922        -67.7638       -0.0105897         148.539
0.54                   -0.552269        -142.245         -57.8611         -69.212         -57.8609        -69.2101       -0.0106815         148.471
0.541                  -0.569893         -142.77         -57.7306        -70.6625         -57.7305        -70.6606       -0.0107746         148.402
0.542                  -0.587871        -143.296          -57.601        -72.1173         -57.6008        -72.1155       -0.0108688         148.333
0.543                  -0.606203        -143.824         -57.4722        -73.5769          -57.472        -73.5751       -0.0109641         148.264
0.544                  -0.624886        -144.353         -57.3441        -75.0415         -57.3439        -75.0397       -0.0110607         148.195
0.545                  -0.643921        -144.883         -57.2168        -76.5113         -57.2167        -76.5095       -0.0111585         148.126
0.546                  -0.663307        -145.414         -57.0903        -77.9866         -57.0901        -77.9848       -0.0112575         148.057
0.547                  -0.683043        -145.947         -56.9645        -79.4676         -56.9643        -79.4659       -0.0113577         147.988
0.548                  -0.703129        -146.481         -56.8394        -80.9546         -56.8392        -80.9529       -0.0114592         147.918
0.549                  -0.723562        -147.016          -56.715        -82.4478         -56.7149        -82.4461       -0.0115619         147.849
0.55                   -0.744344        -147.552         -56.5913        -83.9474         -56.5912        -83.9457       -0.0116659         147.779
0.551                  -0.765472         -148.09         -56.4682        -85.4535         -56.4681        -85.4519       -0.0117712         147.709
0.552                  -0.786947        -148.629         -56.3458        -86.9664         -56.3458        -86.9648       -0.0118778         147.639
0.553                  -0.808767        -149.169         -56.2241        -88.4862          -56.224        -88.4847       -0.0119857         147.569
0.554                  -0.830932         -149.71          -56.103        -90.0131         -56.1029        -90.0116        -0.012095         147.499
0.555                  -0.853441        -150.253         -55.9825        -91.5472         -55.9824        -91.5457       -0.0122056         147.429
0.556                  -0.876294        -150.798         -55.8626        -93.0886         -55.8625        -93.0872       -0.0123176         147.358
0.557                  -0.899491        -151.343         -55.7432        -94.6375         -55.7432        -94.6361       -0.0124309         147.288
0.558                   -0.92303        -151.891         -55.6245         -96.194         -55.6245        -96.1927       -0.0125457         147.217
0.559                  -0.946913        -152.439         -55.5064        -97.7582         -55.5063        -97.7569       -0.0126619         147.146
0.56                   -0.971138        -152.989         -55.3887        -99.3302         -55.3888        -99.3289       -0.0127795         147.076
0.561                  -0.995705        -153.541         -55.2717         -100.91         -55.2717        -100.909       -0.0128986         147.005
0.562                   -1.02061        -154.094         -55.1552        -102.498         -55.1552        -102.496       -0.0130191         146.933
0.563                   -1.04587        -154.649         -55.0392        -104.093         -55.0392        -104.092       -0.0131411         146.862
0.564                   -1.07146        -155.205         -54.9237        -105.697         -54.9238        -105.696       -0.0132647         146.791
0.565                    -1.0974        -155.763         -54.8088        -107.309         -54.8088        -107.308       -0.0133897         146.719
0.566                   -1.12368        -156.322         -54.6944        -108.928         -54.6944        -108.927       -0.0135164         146.648
0.567                   -1.15031        -156.883         -54.5804        -110.556         -54.5805        -110.555       -0.0136445         146.576
0.568                   -1.17728        -157.446          -54.467        -112.192         -54.4671        -112.191       -0.0137743         146.504
0.569                    -1.2046        -158.011         -54.3541        -113.836         -54.3542        -113.835       -0.0139057         146.432
0.57                    -1.23226        -158.577         -54.2417        -115.487         -54.2418        -115.487       -0.0140387          146.36
0.571                   -1.26028        -159.145         -54.1297        -117.147         -54.1298        -117.146       -0.0141733         146.287
0.572                   -1.28864        -159.715         -54.0183        -118.815         -54.0184        -118.814       -0.0143097         146.215
0.573                   -1.31736        -160.287         -53.9073         -120.49         -53.9074         -120.49       -0.0144477         146.142
0.574                   -1.34644        -160.862         -53.7968        -122.174          -53.797        -122.173       -0.0145874         146.069
0.575                   -1.37587        -161.438         -53.6869        -123.864          -53.687        -123.864       -0.0147289         145.996
0.576                   -1.40566        -162.016         -53.5774        -125.563         -53.5775        -125.562       -0.0148722         145.923
0.577                   -1.43581        -162.596         -53.4684        -127.269         -53.4685        -127.268       -0.0150172          145.85
0.578                   -1.46633        -163.178         -53.3598        -128.982           -53.36        -128.982       -0.0151641         145.777
0.579                   -1.49722        -163.763         -53.2518        -130.703          -53.252        -130.702       -0.0153128         145.703
0.58                    -1.52848         -164.35         -53.1443         -132.43         -53.1444         -132.43       -0.0154634          145.63
0.581                   -1.56012         -164.94         -53.0372        -134.165         -53.0374        -134.164       -0.0156158         145.556
0.582                   -1.59214        -165.531         -52.9307        -135.906         -52.9309        -135.905       -0.0157702         145.482
0.583                   -1.62456        -166.126         -52.8247        -137.653         -52.8249        -137.653       -0.0159266         145.408
0.584                   -1.65736        -166.722         -52.7191        -139.408         -52.7193        -139.407       -0.0160849         145.334
0.585                   -1.69057        -167.322         -52.6141        -141.168         -52.6143        -141.168       -0.0162452         145.259
0.586                   -1.72418        -167.924         -52.5096        -142.934         -52.5098        -142.934       -0.0164075         145.185
0.587                    -1.7582        -168.529         -52.4057        -144.706         -52.4059        -144.706       -0.0165719          145.11
0.588                   -1.79265        -169.137         -52.3022        -146.484         -52.3024        -146.484       -0.0167385         145.035
0.589                   -1.82752        -169.747         -52.1993        -148.267         -52.1995        -148.267       -0.0169071          144.96
0.59                    -1.86283        -170.361         -52.0969        -150.054         -52.0972        -150.055       -0.0170779         144.884
0.591                   -1.89859        -170.978         -51.9951        -151.847         -51.9954        -151.847       -0.0172509         144.809
0.592                   -1.93481        -171.597         -51.8939        -153.644         -51.8941        -153.645       -0.0174261         144.733
0.593                   -1.97149         -172.22         -51.7932        -155.446         -51.7934        -155.446       -0.0176036         144.658
0.594                   -2.00865        -172.847          -51.693        -157.252         -51.6933        -157.252       -0.0177833         144.582
0.595                   -2.04631        -173.476         -51.5935        -159.061         -51.5937        -159.061       -0.0179654         144.506
0.596                   -2.08446         -174.11         -51.4945        -160.874         -51.4948        -160.874       -0.0181499         144.429
0.597                   -2.12313        -174.746         -51.3961         -162.69         -51.3964         -162.69       -0.0183367         144.353
0.598                   -2.16234        -175.387         -51.2983        -164.508         -51.2986        -164.509        -0.018526         144.276
0.599                   -2.20209        -176.031         -51.2011         -166.33         -51.2014         -166.33       -0.0187178         144.199
0.6                      -2.2424        -176.679         -51.1045        -168.154         -51.1048        -168.154       -0.0189121         144.122
0.601                    -2.2833        -177.331         -51.0085        -169.979         -51.0088         -169.98        -0.019109         144.045
0.602                   -2.32479        -177.987         -50.9132        -171.807         -50.9134        -171.807       -0.0193084         143.967
0.603                   -2.36691        -178.647         -50.8184        -173.636         -50.8187        -173.636       -0.0195105          143.89
0.604                   -2.40965        -179.311         -50.7243        -175.465         -50.7246        -175.466       -0.0197153         143.812
0.605                   -2.45306         -179.98         -50.6308        -177.296         -50.6311        -177.296       -0.0199228         143.734
0.606                   -2.49716         179.347         -50.5379        -179.127         -50.5382        -179.127       -0.0201331         143.656
0.607                   -2.54196          178.67         -50.4457         179.042          -50.446         179.041       -0.0203462         143.577
0.608                   -2.58749         177.988         -50.3541         177.211         -50.3544          177.21       -0.0205622         143.498
0.609                   -2.63378         177.301         -50.2631          175.38         -50.2634          175.38       -0.0207811          143.42
0.61                    -2.68085          176.61         -50.1728          173.55         -50.1731          173.55        -0.021003         143.341
0.611                   -2.72874         175.914         -50.0831         171.722         -50.0834         171.721       -0.0212279         143.261
0.612                   -2.77748         175.213         -49.9941         169.894         -49.9944         169.894       -0.0214558         143.182
0.613                    -2.8271         174.507         -49.9057         168.068          -49.906         168.068       -0.0216869         143.102
0.614                   -2.87763         173.795          -49.818         166.244         -49.8182         166.244       -0.0219211         143.022
0.615                   -2.92911         173.079         -49.7308         164.423         -49.7311         164.422       -0.0221586         142.942
0.616                   -2.98157         172.357         -49.6443         162.604         -49.6446         162.603       -0.0223994         142.861
0.617                   -3.03506         171.631         -49.5585         160.787         -49.5587         160.787       -0.0226435         142.781
0.618                   -3.08962         170.898         -49.4733         158.974         -49.4735         158.973       -0.0228911           142.7
0.619                   -3.14529         170.161         -49.3887         157.163         -49.3889         157.163        -0.023142         142.619
0.62                    -3.20211         169.418         -49.3047         155.357         -49.3049         155.356       -0.0233966         142.537
0.621                   -3.26014         168.669         -49.2213         153.554         -49.2215         153.553       -0.0236547         142.456
0.622                   -3.31941         167.915         -49.1385         151.755         -49.1388         151.754       -0.0239165         142.374
0.623                   -3.37999         167.155         -49.0564          149.96         -49.0566         149.959        -0.024182         142.292
0.624                   -3.44191          166.39         -48.9748         148.169          -48.975         148.169       -0.0244513          142.21
0.625                   -3.50525         165.619         -48.8938         146.384          -48.894         146.383       -0.0247244         142.127
0.626                   -3.57006         164.842         -48.8134         144.603         -48.8136         144.602       -0.0250015         142.044
0.627                   -3.63639          164.06         -48.7335         142.827         -48.7337         142.826       -0.0252826         141.961
0.628                   -3.70431         163.273         -48.6542         141.056         -48.6544         141.056       -0.0255678         141.878
0.629                   -3.77388          162.48         -48.5755          139.29         -48.5757          139.29       -0.0258572         141.794
