! TOUCHSTONE file generated by CST MICROWAVE STUDIO
! Date and time: Fri Oct 30 07:48:14 2020
! Project name: Scenario_1_Circular_Tissue_out_of_Line.cst
! Parameters = {dy1=-311.318; L_HA=400; MT=2.54; Rad_Dielectric=30; Rad_Lower=7.3; Rad_Upper=30; a_HA=580; a_WG=246; b_HA=500; b_WG=121; c_HA=0; c_WG=187; d_feed=85; dx1=520; h_feed=15; h_lower=18; h_upper=40}
! Header version: 2018
! Port assignment regex: !\s*Touchstone port\s*([0-9]+)\s*=\s*(CST MWS port|CST DS port)\s*([0-9]+|Zmin|Zmax)\s*\(\"(.*)\"\)(\s*mode\s*([0-9]+))?.*
! Touchstone port assignment:
! Touchstone port 1 = CST MWS port 1 ("")
! Touchstone port 2 = CST MWS port 2 ("")
# GHz S DB R 50
0.5                    -0.149864        -122.428         -63.7832        -88.4804         -63.8662        -87.9269      -0.00732887         151.142
0.501                  -0.154275          -122.9         -63.7369        -89.9681          -63.817        -89.3555      -0.00740428         151.077
0.502                   -0.15895        -123.373         -63.6885        -91.4734         -63.7658        -90.8016      -0.00748004         151.011
0.503                  -0.163889        -123.847         -63.6378        -92.9962         -63.7126        -92.2651      -0.00755616         150.946
0.504                  -0.169095        -124.324         -63.5847        -94.5366         -63.6572        -93.7461      -0.00763267         150.881
0.505                  -0.174571        -124.802         -63.5293        -96.0943         -63.5996        -95.2444      -0.00770957         150.815
0.506                  -0.180318        -125.281         -63.4715        -97.6692         -63.5398        -96.7601      -0.00778688          150.75
0.507                   -0.18634        -125.763         -63.4111        -99.2612         -63.4776         -98.293      -0.00786463         150.684
0.508                  -0.192638        -126.246         -63.3482         -100.87         -63.4131        -99.8431      -0.00794284         150.618
0.509                  -0.199214        -126.731         -63.2827        -102.496         -63.3462         -101.41      -0.00802151         150.552
0.51                   -0.206072        -127.217         -63.2145        -104.138         -63.2768        -102.994      -0.00810066         150.487
0.511                  -0.213214        -127.705         -63.1437        -105.796         -63.2048        -104.595      -0.00818032         150.421
0.512                  -0.220641        -128.195           -63.07         -107.47         -63.1303        -106.213       -0.0082605         150.355
0.513                  -0.228356        -128.687         -62.9936         -109.16         -63.0531        -107.847      -0.00834122         150.288
0.514                  -0.236363         -129.18         -62.9143        -110.865         -62.9733        -109.497       -0.0084225         150.222
0.515                  -0.244662        -129.675         -62.8322        -112.586         -62.8908        -111.163      -0.00850435         150.156
0.516                  -0.253257        -130.171         -62.7471        -114.321         -62.8056        -112.845      -0.00858678          150.09
0.517                  -0.262149        -130.669         -62.6591        -116.071         -62.7175        -114.543      -0.00866983         150.023
0.518                  -0.271342        -131.169         -62.5681        -117.835         -62.6267        -116.256       -0.0087535         149.957
0.519                  -0.280838        -131.671         -62.4742        -119.612          -62.533        -117.984      -0.00883781          149.89
0.52                   -0.290639        -132.174         -62.3772        -121.403         -62.4364        -119.727      -0.00892277         149.823
0.521                  -0.300747        -132.679         -62.2773        -123.207          -62.337        -121.485      -0.00900842         149.756
0.522                  -0.311166        -133.186         -62.1743        -125.024         -62.2347        -123.256      -0.00909475          149.69
0.523                  -0.321897        -133.694         -62.0683        -126.853         -62.1295        -125.042       -0.0091818         149.623
0.524                  -0.332943        -134.205         -61.9594        -128.694         -62.0213        -126.841      -0.00926957         149.555
0.525                  -0.344307        -134.716         -61.8475        -130.546         -61.9103        -128.654      -0.00935808         149.488
0.526                  -0.355991         -135.23         -61.7326        -132.409         -61.7964         -130.48      -0.00944735         149.421
0.527                  -0.367997        -135.745         -61.6147        -134.283         -61.6796        -132.318       -0.0095374         149.354
0.528                  -0.380328        -136.262          -61.494        -136.168           -61.56        -134.169      -0.00962825         149.286
0.529                  -0.392988        -136.781         -61.3704        -138.063         -61.4375        -136.032       -0.0097199         149.219
0.53                   -0.405977        -137.301         -61.2439        -139.967         -61.3122        -137.906      -0.00981238         149.151
0.531                  -0.419299        -137.823         -61.1147         -141.88         -61.1841        -139.793      -0.00990571         149.083
0.532                  -0.432957        -138.347         -60.9828        -143.803         -61.0533         -141.69       -0.0099999         149.016
0.533                  -0.446953        -138.872         -60.8482        -145.734         -60.9198        -143.598        -0.010095         148.948
0.534                  -0.461289        -139.399          -60.711        -147.674         -60.7836        -145.517       -0.0101909          148.88
0.535                  -0.475969        -139.928         -60.5712        -149.622         -60.6449        -147.447       -0.0102878         148.811
0.536                  -0.490995        -140.459          -60.429        -151.578         -60.5036        -149.386       -0.0103856         148.743
0.537                   -0.50637        -140.991         -60.2845        -153.541         -60.3599        -151.336       -0.0104843         148.675
0.538                  -0.522096        -141.525         -60.1376        -155.512         -60.2138        -153.295       -0.0105841         148.606
0.539                  -0.538176        -142.061         -59.9885         -157.49         -60.0654        -155.264       -0.0106848         148.538
0.54                   -0.554614        -142.599         -59.8374        -159.474         -59.9147        -157.242       -0.0107864         148.469
0.541                  -0.571411        -143.138         -59.6842        -161.466          -59.762         -159.23       -0.0108891         148.401
0.542                  -0.588571        -143.679         -59.5291        -163.464         -59.6072        -161.226       -0.0109929         148.332
0.543                  -0.606096        -144.222         -59.3722        -165.469         -59.4504        -163.231       -0.0110977         148.263
0.544                   -0.62399        -144.766         -59.2136        -167.481         -59.2918        -165.244       -0.0112035         148.194
0.545                  -0.642256        -145.313         -59.0534        -169.498         -59.1315        -167.267       -0.0113105         148.125
0.546                  -0.660896        -145.861         -58.8917        -171.522         -58.9696        -169.297       -0.0114185         148.055
0.547                  -0.679913         -146.41         -58.7287        -173.552         -58.8061        -171.336       -0.0115277         147.986
0.548                  -0.699311        -146.962         -58.5644        -175.588         -58.6412        -173.383        -0.011638         147.916
0.549                  -0.719093        -147.515          -58.399         -177.63         -58.4751        -175.439       -0.0117494         147.847
0.55                   -0.739261         -148.07         -58.2326        -179.677         -58.3078        -177.502        -0.011862         147.777
0.551                  -0.759819        -148.627         -58.0654         178.269         -58.1394        -179.574       -0.0119758         147.707
0.552                  -0.780771        -149.186         -57.8974         176.209         -57.9702         178.347       -0.0120909         147.637
0.553                  -0.802119        -149.747         -57.7288         174.144         -57.8002          176.26       -0.0122071         147.567
0.554                  -0.823867        -150.309         -57.5597         172.072         -57.6295         174.165       -0.0123246         147.497
0.555                  -0.846018        -150.873         -57.3902         169.995         -57.4584         172.062       -0.0124434         147.427
0.556                  -0.868576        -151.439         -57.2206         167.912         -57.2869         169.952       -0.0125634         147.356
0.557                  -0.891544        -152.007         -57.0508         165.824         -57.1152         167.834       -0.0126848         147.286
0.558                  -0.914927        -152.576         -56.8811          163.73         -56.9434         165.709       -0.0128075         147.215
0.559                  -0.938727        -153.148         -56.7115          161.63         -56.7716         163.577       -0.0129315         147.144
0.56                   -0.962948        -153.721         -56.5423         159.524            -56.6         161.437       -0.0130568         147.074
0.561                  -0.987594        -154.296         -56.3734         157.414         -56.4288          159.29       -0.0131836         147.003
0.562                   -1.01267        -154.873         -56.2052         155.298          -56.258         157.137       -0.0133117         146.931
0.563                   -1.03818        -155.452         -56.0376         153.176         -56.0879         154.976       -0.0134413          146.86
0.564                   -1.06412        -156.033         -55.8708          151.05         -55.9185         152.809       -0.0135723         146.789
0.565                   -1.09051        -156.616          -55.705         148.918           -55.75         150.636       -0.0137048         146.717
0.566                   -1.11734          -157.2         -55.5402         146.782         -55.5825         148.457       -0.0138388         146.645
0.567                   -1.14463        -157.787         -55.3766         144.641         -55.4162         146.271       -0.0139742         146.574
0.568                   -1.17237        -158.375         -55.2143         142.496         -55.2512         144.081       -0.0141112         146.502
0.569                   -1.20056        -158.966         -55.0534         140.347         -55.0875         141.885       -0.0142497          146.43
0.57                    -1.22922        -159.558          -54.894         138.194         -54.9254         139.684       -0.0143898         146.357
0.571                   -1.25835        -160.153         -54.7362         136.038          -54.765         137.479       -0.0145315         146.285
0.572                   -1.28795        -160.749         -54.5801         133.878         -54.6063          135.27       -0.0146748         146.213
0.573                   -1.31804        -161.347         -54.4259         131.716         -54.4495         133.057       -0.0148197          146.14
0.574                    -1.3486        -161.947         -54.2736         129.551         -54.2947         130.841       -0.0149663         146.067
0.575                   -1.37966         -162.55         -54.1232         127.384         -54.1419         128.623       -0.0151145         145.994
0.576                    -1.4112        -163.154         -53.9749         125.215         -53.9914         126.402       -0.0152645         145.921
0.577                   -1.44325        -163.761         -53.8288         123.045          -53.843          124.18       -0.0154162         145.848
0.578                   -1.47581        -164.369         -53.6848         120.874          -53.697         121.957       -0.0155696         145.775
0.579                   -1.50888         -164.98         -53.5432         118.703         -53.5534         119.734       -0.0157249         145.701
0.58                    -1.54247        -165.592         -53.4038         116.532         -53.4122          117.51       -0.0158819         145.627
0.581                   -1.57658        -166.207         -53.2669         114.362         -53.2735         115.288       -0.0160407         145.554
0.582                   -1.61122        -166.824         -53.1323         112.194         -53.1374         113.067       -0.0162015          145.48
0.583                    -1.6464        -167.443         -53.0002         110.027         -53.0039         110.848        -0.016364         145.405
0.584                   -1.68213        -168.064         -52.8705         107.862          -52.873         108.632       -0.0165285         145.331
0.585                   -1.71841        -168.688         -52.7433           105.7         -52.7447          106.42        -0.016695         145.257
0.586                   -1.75525        -169.313         -52.6187         103.541         -52.6191         104.211       -0.0168634         145.182
0.587                   -1.79266        -169.941         -52.4965         101.387         -52.4961         102.007       -0.0170337         145.107
0.588                   -1.83064        -170.571         -52.3768         99.2367         -52.3757         99.8083       -0.0172061         145.032
0.589                   -1.86921        -171.204         -52.2596         97.0916          -52.258         97.6155       -0.0173806         144.957
0.59                    -1.90837        -171.838         -52.1449         94.9519         -52.1429         95.4293       -0.0175571         144.882
0.591                   -1.94813        -172.475         -52.0326         92.8181         -52.0304         93.2502       -0.0177358         144.807
0.592                    -1.9885        -173.114         -51.9227         90.6909         -51.9204         91.0787       -0.0179166         144.731
0.593                   -2.02949        -173.756         -51.8152         88.5705          -51.813         88.9154       -0.0180995         144.655
0.594                   -2.07111          -174.4           -51.71         86.4575          -51.708         86.7608       -0.0182847         144.579
0.595                   -2.11337        -175.046         -51.6071         84.3522         -51.6054         84.6154       -0.0184721         144.503
0.596                   -2.15628        -175.695         -51.5064         82.2552         -51.5051         82.4796       -0.0186618         144.427
0.597                   -2.19986        -176.346          -51.408         80.1666         -51.4071         80.3538       -0.0188538          144.35
0.598                    -2.2441            -177         -51.3116          78.087         -51.3113         78.2384       -0.0190481         144.274
0.599                   -2.28903        -177.656         -51.2173         76.0166         -51.2176         76.1339       -0.0192448         144.197
0.6                     -2.33465        -178.314         -51.1249         73.9556          -51.126         74.0404        -0.019444          144.12
0.601                   -2.38098        -178.975         -51.0345         71.9044         -51.0363         71.9582       -0.0196455         144.042
0.602                   -2.42804        -179.639         -50.9459         69.8631         -50.9485         69.8876       -0.0198496         143.965
0.603                   -2.47583         179.695         -50.8591         67.8321         -50.8626         67.8288       -0.0200562         143.887
0.604                   -2.52437         179.026         -50.7739         65.8113         -50.7783          65.782       -0.0202654         143.809
0.605                   -2.57367         178.355         -50.6904          63.801         -50.6957         63.7472       -0.0204772         143.731
0.606                   -2.62375         177.681         -50.6083         61.8013         -50.6146         61.7246       -0.0206917         143.653
0.607                   -2.67463         177.005         -50.5277         59.8123          -50.535         59.7142       -0.0209088         143.575
0.608                   -2.72632         176.325         -50.4485         57.8339         -50.4567         57.7161       -0.0211287         143.496
0.609                   -2.77884         175.643         -50.3705         55.8663         -50.3797         55.7303       -0.0213514         143.417
0.61                    -2.83221         174.959         -50.2938         53.9094         -50.3038         53.7567        -0.021577         143.338
0.611                   -2.88644         174.271         -50.2181         51.9632         -50.2291         51.7952       -0.0218054         143.259
0.612                   -2.94156         173.581         -50.1435         50.0276         -50.1554         49.8458       -0.0220367         143.179
0.613                   -2.99758         172.888         -50.0699         48.1025         -50.0826         47.9084        -0.022271         143.099
0.614                   -3.05453         172.193         -49.9971          46.188         -50.0106         45.9827       -0.0225083         143.019
0.615                   -3.11243         171.494         -49.9252         44.2837         -49.9394         44.0687       -0.0227488         142.939
0.616                   -3.17131         170.793         -49.8539         42.3897         -49.8689         42.1662       -0.0229923         142.859
0.617                   -3.23118         170.089         -49.7833         40.5057          -49.799         40.2749       -0.0232391         142.778
0.618                   -3.29207         169.382         -49.7133         38.6316         -49.7296         38.3946       -0.0234891         142.697
0.619                   -3.35402         168.672         -49.6439         36.7671         -49.6607         36.5252       -0.0237424         142.616
0.62                    -3.41705         167.959         -49.5748         34.9121         -49.5922         34.6662        -0.023999         142.535
0.621                   -3.48118         167.244         -49.5062         33.0663          -49.524         32.8175       -0.0242591         142.453
0.622                   -3.54646         166.526         -49.4379         31.2296         -49.4561         30.9789       -0.0245226         142.371
0.623                    -3.6129         165.805         -49.3698         29.4016         -49.3883         29.1499       -0.0247897         142.289
0.624                   -3.68056         165.081          -49.302         27.5822         -49.3208         27.3303       -0.0250604         142.207
0.625                   -3.74946         164.354         -49.2343          25.771         -49.2533         25.5197       -0.0253348         142.124
0.626                   -3.81965         163.624         -49.1667         23.9678         -49.1858          23.718       -0.0256129         142.042
0.627                   -3.89117         162.892         -49.0991         22.1723         -49.1183         21.9247       -0.0258949         141.958
0.628                   -3.96406         162.157         -49.0316         20.3843         -49.0508         20.1395       -0.0261807         141.875
0.629                   -4.03836         161.419          -48.964         18.6034         -48.9831         18.3621       -0.0264705         141.791
