! TOUCHSTONE file generated by CST MICROWAVE STUDIO
! Date and time: Wed Oct 28 19:13:49 2020
! Project name: Scenario_1_Circular_Tissue_out_of_Line.cst
! Parameters = {dy1=-311.318; L_HA=400; MT=2.54; Rad_Dielectric=30; Rad_Lower=7.3; Rad_Upper=30; a_HA=580; a_WG=246; b_HA=500; b_WG=121; c_HA=0; c_WG=187; d_feed=85; dx1=693; h_feed=15; h_lower=18; h_upper=40}
! Header version: 2018
! Port assignment regex: !\s*Touchstone port\s*([0-9]+)\s*=\s*(CST MWS port|CST DS port)\s*([0-9]+|Zmin|Zmax)\s*\(\"(.*)\"\)(\s*mode\s*([0-9]+))?.*
! Touchstone port assignment:
! Touchstone port 1 = CST MWS port 1 ("")
! Touchstone port 2 = CST MWS port 2 ("")
# GHz S DB R 50
0.5                    -0.143512        -122.242         -64.4359         168.619         -64.4682         168.561      -0.00769089         151.139
0.501                  -0.141647        -122.692         -64.5318         167.351         -64.5725         167.411      -0.00774887         151.073
0.502                  -0.140034        -123.145         -64.6289         166.048         -64.6785         166.228      -0.00780766         151.008
0.503                  -0.138676          -123.6          -64.727         164.709         -64.7863         165.012      -0.00786727         150.943
0.504                  -0.137578        -124.056         -64.8261         163.333         -64.8958         163.759       -0.0079277         150.877
0.505                  -0.136744        -124.516         -64.9259         161.918          -65.007         162.469      -0.00798897         150.812
0.506                  -0.136177        -124.977         -65.0265         160.462         -65.1198         161.139      -0.00805107         150.746
0.507                  -0.135882        -125.441         -65.1276         158.963          -65.234         159.767      -0.00811402          150.68
0.508                  -0.135864        -125.906          -65.229         157.421         -65.3496         158.352      -0.00817782         150.614
0.509                  -0.136127        -126.375         -65.3306         155.832         -65.4665         156.891      -0.00824247         150.548
0.51                   -0.136674        -126.845         -65.4322         154.195         -65.5845         155.382      -0.00830798         150.483
0.511                  -0.137511        -127.317         -65.5334         152.508         -65.7034         153.822      -0.00837437         150.417
0.512                  -0.138643        -127.792          -65.634          150.77         -65.8229          152.21      -0.00844163          150.35
0.513                  -0.140073         -128.27         -65.7337         148.978         -65.9429         150.542      -0.00850977         150.284
0.514                  -0.141806        -128.749         -65.8321         147.131         -66.0631         148.817       -0.0085788         150.218
0.515                  -0.143846        -129.231         -65.9288         145.226          -66.183         147.031      -0.00864873         150.152
0.516                    -0.1462        -129.715         -66.0233         143.263         -66.3023         145.181      -0.00871956         150.085
0.517                   -0.14887        -130.201         -66.1152          141.24         -66.4206         143.266      -0.00879131         150.019
0.518                  -0.151863        -130.689          -66.204         139.154         -66.5373         141.283      -0.00886397         149.952
0.519                  -0.155182         -131.18         -66.2891         137.006          -66.652          139.23      -0.00893757         149.885
0.52                   -0.158833        -131.673         -66.3698         134.794         -66.7638         137.103       -0.0090121         149.819
0.521                   -0.16282        -132.169         -66.4454         132.518         -66.8723         134.901      -0.00908757         149.752
0.522                  -0.167149        -132.667         -66.5154         130.178         -66.9765         132.623      -0.00916399         149.685
0.523                  -0.171825        -133.167         -66.5789         127.773         -67.0757         130.266      -0.00924138         149.618
0.524                  -0.176852        -133.669         -66.6352         125.305          -67.169          127.83      -0.00931973         149.551
0.525                  -0.182236        -134.174         -66.6835         122.774         -67.2553         125.315      -0.00939906         149.484
0.526                  -0.187981        -134.681          -66.723         120.184         -67.3336          122.72      -0.00947938         149.416
0.527                  -0.194093         -135.19         -66.7529         117.535         -67.4029         120.048       -0.0095607         149.349
0.528                  -0.200578        -135.701         -66.7725         114.831         -67.4621         117.299      -0.00964303         149.281
0.529                   -0.20744        -136.215         -66.7809         112.077           -67.51         114.477      -0.00972637         149.214
0.53                   -0.214685        -136.731         -66.7775         109.276         -67.5455         111.585      -0.00981073         149.146
0.531                  -0.222318         -137.25         -66.7617         106.434         -67.5676         108.629      -0.00989613         149.078
0.532                  -0.230344         -137.77         -66.7329         103.556         -67.5752         105.615      -0.00998258         149.011
0.533                  -0.238769        -138.293         -66.6906         100.649         -67.5675         102.548       -0.0100701         148.943
0.534                  -0.247599        -138.819         -66.6345         97.7182         -67.5436         99.4379       -0.0101587         148.875
0.535                  -0.256839        -139.346         -66.5645         94.7716         -67.5028         96.2926       -0.0102483         148.806
0.536                  -0.266494        -139.876         -66.4803         91.8158         -67.4448         93.1215        -0.010339         148.738
0.537                   -0.27657        -140.408          -66.382         88.8579         -67.3692         89.9343       -0.0104309          148.67
0.538                  -0.287072        -140.943         -66.2697         85.9049          -67.276          86.741       -0.0105238         148.601
0.539                  -0.298007        -141.479         -66.1439         82.9635         -67.1653         83.5515       -0.0106179         148.533
0.54                   -0.309381        -142.018         -66.0048         80.0401         -67.0373         80.3755       -0.0107131         148.464
0.541                  -0.321197         -142.56         -65.8529         77.1404         -66.8926         77.2221       -0.0108095         148.396
0.542                  -0.333464        -143.103         -65.6889           74.27         -66.7319         74.0999        -0.010907         148.327
0.543                  -0.346186        -143.649         -65.5133         71.4336          -66.556         71.0165       -0.0110057         148.258
0.544                  -0.359369        -144.197         -65.3271         68.6352         -66.3659         67.9785       -0.0111056         148.189
0.545                  -0.373019        -144.747         -65.1308         65.8784         -66.1625         64.9918       -0.0112067          148.12
0.546                  -0.387143        -145.299         -64.9252         63.1659         -65.9469         62.0609        -0.011309          148.05
0.547                  -0.401745        -145.854         -64.7113         60.4997         -65.7203         59.1894       -0.0114125         147.981
0.548                  -0.416832        -146.411         -64.4897         57.8815         -65.4838           56.38       -0.0115173         147.911
0.549                  -0.432411         -146.97         -64.2613         55.3121         -65.2384         53.6342       -0.0116233         147.842
0.55                   -0.448486        -147.531         -64.0267         52.7921         -64.9852         50.9529       -0.0117306         147.772
0.551                  -0.465065        -148.095         -63.7868         50.3212         -64.7253         48.3363       -0.0118392         147.702
0.552                  -0.482153         -148.66         -63.5422         47.8991         -64.4597         45.7836       -0.0119491         147.632
0.553                  -0.499756        -149.228         -63.2936         45.5249         -64.1891         43.2938       -0.0120603         147.562
0.554                  -0.517881        -149.798         -63.0415         43.1976         -63.9144         40.8653       -0.0121728         147.492
0.555                  -0.536534         -150.37         -62.7865         40.9157         -63.6365         38.4962       -0.0122867         147.422
0.556                  -0.555721        -150.945         -62.5292         38.6777         -63.3559         36.1841       -0.0124019         147.351
0.557                  -0.575448        -151.521         -62.2699         36.4819         -63.0734         33.9268       -0.0125185         147.281
0.558                  -0.595722          -152.1         -62.0092         34.3264         -62.7894         31.7215       -0.0126366          147.21
0.559                  -0.616549         -152.68         -61.7474         32.2094         -62.5044         29.5656        -0.012756          147.14
0.56                   -0.637935        -153.263         -61.4849         30.1287          -62.219         27.4564       -0.0128769         147.069
0.561                  -0.659886        -153.848         -61.2219         28.0825         -61.9334          25.391       -0.0129992         146.998
0.562                   -0.68241        -154.434         -60.9588         26.0687          -61.648         23.3669       -0.0131231         146.926
0.563                  -0.705513        -155.023         -60.6959         24.0853         -61.3631         21.3811       -0.0132484         146.855
0.564                    -0.7292        -155.614         -60.4332         22.1303          -61.079         19.4312       -0.0133752         146.784
0.565                  -0.753479        -156.207         -60.1711         20.2016         -60.7959         17.5144       -0.0135035         146.712
0.566                  -0.778356        -156.802         -59.9098         18.2975         -60.5139         15.6283       -0.0136334         146.641
0.567                  -0.803837        -157.399         -59.6493         16.4159         -60.2333         13.7705       -0.0137649         146.569
0.568                   -0.82993        -157.998         -59.3898         14.5551         -59.9542         11.9386       -0.0138979         146.497
0.569                   -0.85664        -158.598         -59.1315         12.7133         -59.6766         10.1304       -0.0140326         146.425
0.57                   -0.883975        -159.201         -58.8744         10.8887         -59.4008         8.34371       -0.0141689         146.353
0.571                  -0.911941        -159.806         -58.6187         9.07965         -59.1267         6.57643       -0.0143069          146.28
0.572                  -0.940545        -160.412         -58.3644         7.28461         -58.8545         4.82662       -0.0144465         146.208
0.573                  -0.969793        -161.021         -58.1116         5.50199         -58.5843         3.09238       -0.0145879         146.135
0.574                  -0.999693        -161.631         -57.8604         3.73029          -58.316         1.37188        -0.014731         146.062
0.575                   -1.03025        -162.243         -57.6108         1.96807         -58.0497       -0.336584       -0.0148758          145.99
0.576                   -1.06147        -162.857         -57.3629         0.21396         -57.7855        -2.03468       -0.0150224         145.916
0.577                   -1.09337        -163.472         -57.1167        -1.53338         -57.5233        -3.72398       -0.0151708         145.843
0.578                   -1.12594         -164.09         -56.8724        -3.27522         -57.2633          -5.406       -0.0153211          145.77
0.579                    -1.1592        -164.709         -56.6298        -5.01278         -57.0054        -7.08217       -0.0154732         145.696
0.58                    -1.19315         -165.33         -56.3892        -6.74723         -56.7496        -8.75388       -0.0156272         145.623
0.581                    -1.2278        -165.953         -56.1504        -8.47971         -56.4961        -10.4224        -0.015783         145.549
0.582                   -1.26316        -166.577         -55.9136        -10.2113         -56.2447        -12.0891       -0.0159409         145.475
0.583                   -1.29923        -167.203         -55.6788         -11.943         -55.9956         -13.755       -0.0161007         145.401
0.584                   -1.33602         -167.83          -55.446        -13.6758         -55.7487        -15.4215       -0.0162624         145.327
0.585                   -1.37354         -168.46         -55.2153        -15.4107         -55.5041        -17.0894       -0.0164262         145.252
0.586                    -1.4118         -169.09         -54.9866        -17.1485         -55.2617        -18.7599       -0.0165921         145.178
0.587                    -1.4508        -169.723         -54.7601        -18.8901         -55.0217        -20.4341         -0.01676         145.103
0.588                   -1.49055        -170.357         -54.5357        -20.6364          -54.784        -22.1127       -0.0169301         145.028
0.589                   -1.53106        -170.992         -54.3136        -22.3881         -54.5486        -23.7968       -0.0171023         144.953
0.59                    -1.57233        -171.629         -54.0937        -24.1459         -54.3156        -25.4872       -0.0172767         144.878
0.591                   -1.61437        -172.267         -53.8761        -25.9105         -54.0851        -27.1847       -0.0174533         144.802
0.592                    -1.6572        -172.907         -53.6609        -27.6826          -53.857        -28.8901       -0.0176321         144.727
0.593                   -1.70081        -173.548          -53.448        -29.4628         -53.6314        -30.6042       -0.0178133         144.651
0.594                   -1.74522        -174.191         -53.2376        -31.2516         -53.4083        -32.3275       -0.0179967         144.575
0.595                   -1.79044        -174.835         -53.0296        -33.0497         -53.1878        -34.0608       -0.0181825         144.499
0.596                   -1.83646         -175.48         -52.8242        -34.8574         -52.9699        -35.8046       -0.0183707         144.422
0.597                   -1.88331        -176.127         -52.6214        -36.6752         -52.7547        -37.5595       -0.0185613         144.346
0.598                   -1.93098        -176.774         -52.4213        -38.5035         -52.5423        -39.3261       -0.0187544         144.269
0.599                   -1.97949        -177.423         -52.2238        -40.3427         -52.3326        -41.1048         -0.01895         144.192
0.6                     -2.02885        -178.074         -52.0292        -42.1931         -52.1257        -42.8959       -0.0191482         144.115
0.601                   -2.07905        -178.725         -51.8373         -44.055         -51.9218           -44.7        -0.019349         144.038
0.602                   -2.13012        -179.378         -51.6484        -45.9285         -51.7209        -46.5173       -0.0195523         143.961
0.603                   -2.18206         179.969         -51.4624         -47.814         -51.5229        -48.3481       -0.0197584         143.883
0.604                   -2.23489         179.314         -51.2794        -49.7114         -51.3281        -50.1926       -0.0199672         143.805
0.605                   -2.28859         178.658         -51.0995        -51.6209         -51.1365         -52.051       -0.0201787         143.727
0.606                    -2.3432         178.001         -50.9228        -53.5425         -50.9481        -53.9235        -0.020393         143.649
0.607                   -2.39872         177.343         -50.7492        -55.4763          -50.763        -55.8101       -0.0206103         143.571
0.608                   -2.45515         176.684          -50.579        -57.4221         -50.5814        -57.7108       -0.0208304         143.492
0.609                    -2.5125         176.025          -50.412        -59.3798         -50.4032        -59.6256       -0.0210534         143.413
0.61                     -2.5708         175.364         -50.2485        -61.3494         -50.2285        -61.5544       -0.0212795         143.334
0.611                   -2.63004         174.703         -50.0884        -63.3306         -50.0574        -63.4972       -0.0215086         143.255
0.612                   -2.69023         174.041         -49.9319        -65.3231         -49.8901        -65.4536       -0.0217409         143.175
0.613                    -2.7514         173.378         -49.7789        -67.3268         -49.7264        -67.4235       -0.0219763         143.095
0.614                   -2.81354         172.714         -49.6295        -69.3411         -49.5666        -69.4065       -0.0222149         143.015
0.615                   -2.87667          172.05         -49.4837        -71.3659         -49.4107        -71.4023       -0.0224567         142.935
0.616                    -2.9408         171.384         -49.3417        -73.4005         -49.2587        -73.4105       -0.0227019         142.855
0.617                   -3.00594         170.719         -49.2034        -75.4447         -49.1107        -75.4306       -0.0229505         142.774
0.618                   -3.07211         170.053         -49.0688        -77.4979         -48.9667        -77.4622       -0.0232026         142.693
0.619                   -3.13931         169.386         -48.9381        -79.5596         -48.8269        -79.5046       -0.0234581         142.612
0.62                    -3.20756         168.719         -48.8111        -81.6293         -48.6911        -81.5574       -0.0237172         142.531
0.621                   -3.27686         168.051          -48.688        -83.7062         -48.5595        -83.6199         -0.02398         142.449
0.622                   -3.34724         167.383         -48.5687          -85.79         -48.4321        -85.6914       -0.0242464         142.368
0.623                   -3.41871         166.715         -48.4532        -87.8799         -48.3088        -87.7713       -0.0245166         142.285
0.624                   -3.49128         166.046         -48.3415        -89.9752         -48.1898        -89.8588       -0.0247906         142.203
0.625                   -3.56496         165.377         -48.2336        -92.0755         -48.0749        -91.9532       -0.0250685         142.121
0.626                   -3.63976         164.708         -48.1295        -94.1799         -47.9642        -94.0537       -0.0253504         142.038
0.627                   -3.71571         164.039         -48.0292        -96.2878         -47.8577        -96.1596       -0.0256364         141.955
0.628                   -3.79282          163.37         -47.9325        -98.3986         -47.7554        -98.2701       -0.0259264         141.871
0.629                    -3.8711         162.701         -47.8395        -100.512         -47.6571        -100.384       -0.0262206         141.788
