! TOUCHSTONE file generated by CST MICROWAVE STUDIO
! Date and time: Mon Oct 26 12:25:01 2020
! Project name: Scenario_1_Circular_Tissue_out_of_Line.cst
! Parameters = {dy1=-311.318; L_HA=400; MT=2.54; Rad_Dielectric=30; Rad_Lower=7.3; Rad_Upper=30; a_HA=580; a_WG=246; b_HA=500; b_WG=121; c_HA=0; c_WG=187; d_feed=85; dx1=866; h_feed=15; h_lower=18; h_upper=40}
! Header version: 2018
! Port assignment regex: !\s*Touchstone port\s*([0-9]+)\s*=\s*(CST MWS port|CST DS port)\s*([0-9]+|Zmin|Zmax)\s*\(\"(.*)\"\)(\s*mode\s*([0-9]+))?.*
! Touchstone port assignment:
! Touchstone port 1 = CST MWS port 1 ("")
! Touchstone port 2 = CST MWS port 2 ("")
# GHz S DB R 50
0.5                     -0.15096        -122.374         -64.7148         80.6456         -64.7148         80.6456      -0.00746148         151.133
0.501                  -0.150149        -122.811         -64.6661         78.8666         -64.6661         78.8676      -0.00753429         151.067
0.502                  -0.149655         -123.25         -64.6144         77.0599         -64.6142          77.062      -0.00760754         151.002
0.503                  -0.149485        -123.692         -64.5594         75.2257         -64.5592         75.2288      -0.00768125         150.937
0.504                  -0.149645        -124.136         -64.5011         73.3641         -64.5008         73.3683      -0.00775542         150.871
0.505                  -0.150139        -124.584         -64.4394         71.4754          -64.439         71.4806      -0.00783007         150.806
0.506                  -0.150974        -125.034          -64.374         69.5598         -64.3736         69.5661       -0.0079052          150.74
0.507                  -0.152155        -125.486          -64.305         67.6177         -64.3045         67.6249      -0.00798083         150.674
0.508                  -0.153689        -125.941         -64.2323         65.6493         -64.2317         65.6575      -0.00805697         150.609
0.509                  -0.155581        -126.399         -64.1556         63.6552          -64.155         63.6643      -0.00813362         150.543
0.51                   -0.157837        -126.859          -64.075         61.6357         -64.0743         61.6458      -0.00821079         150.477
0.511                  -0.160464        -127.322         -63.9904         59.5915         -63.9897         59.6024      -0.00828851         150.411
0.512                  -0.163466        -127.788         -63.9017         57.5229         -63.9009         57.5348      -0.00836677         150.345
0.513                  -0.166849        -128.256         -63.8088         55.4307         -63.8079         55.4434      -0.00844559         150.279
0.514                  -0.170621        -128.727         -63.7116         53.3155         -63.7108         53.3289      -0.00852498         150.212
0.515                  -0.174786        -129.201         -63.6102         51.1779         -63.6093         51.1921      -0.00860495         150.146
0.516                   -0.17935        -129.677         -63.5045         49.0186         -63.5036         49.0335      -0.00868552          150.08
0.517                  -0.184319        -130.156         -63.3945         46.8384         -63.3936          46.854      -0.00876669         150.013
0.518                    -0.1897        -130.637         -63.2801          44.638         -63.2792         44.6542      -0.00884847         149.947
0.519                  -0.195498        -131.121         -63.1614         42.4182         -63.1605         42.4349      -0.00893088          149.88
0.52                   -0.201718        -131.607         -63.0384         40.1797         -63.0375         40.1969      -0.00901393         149.813
0.521                  -0.208367        -132.096         -62.9112         37.9233         -62.9102          37.941      -0.00909763         149.747
0.522                   -0.21545        -132.587         -62.7796         35.6498         -62.7787         35.6679        -0.009182          149.68
0.523                  -0.222972        -133.081         -62.6439         33.3599          -62.643         33.3784      -0.00926704         149.613
0.524                  -0.230941        -133.578         -62.5041         31.0545         -62.5032         31.0733      -0.00935278         149.546
0.525                  -0.239361        -134.077         -62.3603         28.7343         -62.3593         28.7534      -0.00943921         149.478
0.526                  -0.248237        -134.578         -62.2125         26.4001         -62.2116         26.4193      -0.00952636         149.411
0.527                  -0.257575        -135.082         -62.0609         24.0524           -62.06         24.0718      -0.00961424         149.344
0.528                  -0.267382        -135.588         -61.9056          21.692         -61.9047         21.7116      -0.00970286         149.276
0.529                  -0.277661        -136.097         -61.7468         19.3196         -61.7459         19.3392      -0.00979224         149.209
0.53                   -0.288418        -136.608         -61.5845         16.9358         -61.5836         16.9554      -0.00988239         149.141
0.531                  -0.299659        -137.122          -61.419         14.5411         -61.4181         14.5606      -0.00997333         149.073
0.532                  -0.311389        -137.637         -61.2504         12.1362         -61.2495         12.1555       -0.0100651         149.006
0.533                  -0.323612        -138.156         -61.0788         9.72139          -61.078         9.74058       -0.0101576         148.938
0.534                  -0.336334        -138.676         -60.9046          7.2973         -60.9037         7.31627        -0.010251          148.87
0.535                  -0.349558        -139.199         -60.7277         4.86431         -60.7269         4.88303       -0.0103452         148.801
0.536                  -0.363291        -139.724         -60.5486         2.42284         -60.5478         2.44126       -0.0104403         148.733
0.537                  -0.377537        -140.251         -60.3672      -0.0267604         -60.3665     -0.00868669       -0.0105362         148.665
0.538                  -0.392299        -140.781          -60.184        -2.48415         -60.1833        -2.46646       -0.0106331         148.596
0.539                  -0.407583        -141.313          -59.999        -4.94902         -59.9983        -4.93175       -0.0107308         148.528
0.54                   -0.423393        -141.846         -59.8126        -7.42109         -59.8119        -7.40428       -0.0108295         148.459
0.541                  -0.439732        -142.383         -59.6248        -9.90011         -59.6241        -9.88379       -0.0109291         148.391
0.542                  -0.456605        -142.921          -59.436        -12.3858         -59.4353          -12.37       -0.0110297         148.322
0.543                  -0.474014        -143.461         -59.2464         -14.878         -59.2457        -14.8628       -0.0111313         148.253
0.544                  -0.491965        -144.003         -59.0561        -17.3765         -59.0555        -17.3618       -0.0112338         148.184
0.545                   -0.51046        -144.547         -58.8655         -19.881         -58.8648        -19.8669       -0.0113373         148.115
0.546                  -0.529503        -145.094         -58.6747        -22.3914          -58.674        -22.3779       -0.0114419         148.045
0.547                  -0.549096        -145.642         -58.4839        -24.9073         -58.4833        -24.8945       -0.0115476         147.976
0.548                  -0.569243        -146.192         -58.2934        -27.4287         -58.2928        -27.4165       -0.0116542         147.906
0.549                  -0.589945        -146.744         -58.1034        -29.9553         -58.1029        -29.9437        -0.011762         147.837
0.55                   -0.611207        -147.298         -57.9141        -32.4868         -57.9136        -32.4759       -0.0118709         147.767
0.551                  -0.633029        -147.854         -57.7257        -35.0229         -57.7252        -35.0127       -0.0119809         147.697
0.552                  -0.655415        -148.412         -57.5384        -37.5635         -57.5379        -37.5539       -0.0120921         147.627
0.553                  -0.678365        -148.971         -57.3524        -40.1081         -57.3519        -40.0992       -0.0122044         147.557
0.554                  -0.701882        -149.532         -57.1678        -42.6565         -57.1674        -42.6482       -0.0123179         147.487
0.555                  -0.725967        -150.095          -56.985        -45.2082         -56.9845        -45.2007       -0.0124326         147.417
0.556                  -0.750621         -150.66         -56.8039         -47.763         -56.8035        -47.7561       -0.0125485         147.346
0.557                  -0.775845        -151.226         -56.6248        -50.3204         -56.6244        -50.3141       -0.0126657         147.276
0.558                   -0.80164        -151.794         -56.4478        -52.8799         -56.4474        -52.8742       -0.0127841         147.205
0.559                  -0.828006        -152.363         -56.2731        -55.4411         -56.2728         -55.436       -0.0129039         147.134
0.56                   -0.854943        -152.934         -56.1008        -58.0035         -56.1005         -57.999        -0.013025         147.063
0.561                  -0.882453        -153.507         -55.9309        -60.5666         -55.9307        -60.5627       -0.0131474         146.992
0.562                  -0.910533        -154.081         -55.7637        -63.1299         -55.7635        -63.1265       -0.0132711         146.921
0.563                  -0.939183        -154.656         -55.5992        -65.6927          -55.599        -65.6898       -0.0133963          146.85
0.564                  -0.968403        -155.233         -55.4375        -68.2546         -55.4373        -68.2522       -0.0135229         146.778
0.565                  -0.998192        -155.811         -55.2786         -70.815         -55.2784        -70.8131       -0.0136509         146.707
0.566                   -1.02855        -156.391         -55.1226        -73.3733         -55.1225        -73.3718       -0.0137804         146.635
0.567                   -1.05947        -156.972         -54.9695        -75.9289         -54.9694        -75.9279       -0.0139114         146.563
0.568                   -1.09095        -157.554         -54.8194        -78.4813         -54.8194        -78.4806       -0.0140439         146.491
0.569                     -1.123        -158.138         -54.6723        -81.0298         -54.6723        -81.0295       -0.0141779         146.419
0.57                     -1.1556        -158.723         -54.5282         -83.574         -54.5282         -83.574       -0.0143135         146.347
0.571                   -1.18876        -159.309         -54.3871        -86.1133         -54.3871        -86.1136       -0.0144507         146.275
0.572                   -1.22247        -159.897         -54.2489        -88.6471          -54.249        -88.6477       -0.0145896         146.202
0.573                   -1.25674        -160.486         -54.1137         -91.175         -54.1138        -91.1758       -0.0147301          146.13
0.574                   -1.29154        -161.076         -53.9814        -93.6966         -53.9815        -93.6976       -0.0148723         146.057
0.575                   -1.32689        -161.667         -53.8519        -96.2113          -53.852        -96.2125       -0.0150162         145.984
0.576                   -1.36277        -162.259         -53.7252        -98.7189         -53.7253        -98.7202       -0.0151619         145.911
0.577                   -1.39919        -162.853         -53.6012        -101.219         -53.6014         -101.22       -0.0153094         145.837
0.578                   -1.43613        -163.447         -53.4799        -103.711         -53.4801        -103.713       -0.0154586         145.764
0.579                   -1.47359        -164.043         -53.3611        -106.195         -53.3613        -106.197       -0.0156098         145.691
0.58                    -1.51157         -164.64         -53.2448        -108.671          -53.245        -108.672       -0.0157628         145.617
0.581                   -1.55006        -165.238         -53.1309        -111.138         -53.1311         -111.14       -0.0159177         145.543
0.582                   -1.58905        -165.837         -53.0193        -113.596         -53.0195        -113.598       -0.0160745         145.469
0.583                   -1.62854        -166.438         -52.9099        -116.046         -52.9101        -116.048       -0.0162334         145.395
0.584                   -1.66852        -167.039         -52.8025        -118.487         -52.8028        -118.489       -0.0163943         145.321
0.585                   -1.70898        -167.642         -52.6972        -120.919         -52.6975        -120.921       -0.0165572         145.246
0.586                   -1.74992        -168.246         -52.5937        -123.342          -52.594        -123.344       -0.0167222         145.171
0.587                   -1.79132        -168.851          -52.492        -125.757         -52.4923        -125.759       -0.0168893         145.097
0.588                   -1.83318        -169.458          -52.392        -128.163         -52.3923        -128.165       -0.0170586         145.022
0.589                    -1.8755        -170.066         -52.2936        -130.561         -52.2938        -130.563       -0.0172301         144.946
0.59                    -1.91825        -170.675         -52.1966        -132.951         -52.1968        -132.953       -0.0174038         144.871
0.591                   -1.96144        -171.285          -52.101        -135.333         -52.1012        -135.335       -0.0175797         144.796
0.592                   -2.00506        -171.897         -52.0066        -137.708         -52.0068        -137.709        -0.017758          144.72
0.593                   -2.04908         -172.51         -51.9134        -140.075         -51.9136        -140.076       -0.0179387         144.644
0.594                   -2.09352        -173.125         -51.8212        -142.435         -51.8214        -142.436       -0.0181217         144.568
0.595                   -2.13835        -173.742         -51.7301        -144.789         -51.7303         -144.79       -0.0183071         144.492
0.596                   -2.18356         -174.36         -51.6398        -147.136           -51.64        -147.137       -0.0184949         144.416
0.597                   -2.22915         -174.98         -51.5503        -149.478         -51.5505        -149.479       -0.0186853         144.339
0.598                   -2.27511        -175.602         -51.4616        -151.814         -51.4617        -151.815       -0.0188781         144.262
0.599                   -2.32142        -176.225         -51.3735        -154.146         -51.3736        -154.147       -0.0190735         144.185
0.6                     -2.36808        -176.851          -51.286        -156.473         -51.2861        -156.474       -0.0192714         144.108
0.601                   -2.41508        -177.479          -51.199        -158.796         -51.1991        -158.797        -0.019472         144.031
0.602                    -2.4624         -178.11         -51.1124        -161.116         -51.1125        -161.116       -0.0196752         143.954
0.603                   -2.51004        -178.742         -51.0263        -163.433         -51.0263        -163.433        -0.019881         143.876
0.604                   -2.55798        -179.378         -50.9405        -165.747         -50.9405        -165.747       -0.0200895         143.798
0.605                   -2.60623         179.984          -50.855        -168.059          -50.855        -168.059       -0.0203006          143.72
0.606                   -2.65476         179.342         -50.7697        -170.369         -50.7697        -170.369       -0.0205145         143.642
0.607                   -2.70358         178.698         -50.6847        -172.679         -50.6847        -172.679       -0.0207311         143.563
0.608                   -2.75268          178.05         -50.5999        -174.987         -50.5999        -174.987       -0.0209504         143.484
0.609                   -2.80205         177.398         -50.5153        -177.296         -50.5152        -177.296       -0.0211724         143.405
0.61                    -2.85169         176.742         -50.4308        -179.605         -50.4307        -179.604       -0.0213972         143.326
0.611                   -2.90159         176.082         -50.3464         178.086         -50.3463         178.086       -0.0216247         143.247
0.612                   -2.95176         175.417         -50.2621         175.776          -50.262         175.776        -0.021855         143.167
0.613                   -3.00219         174.748          -50.178         173.464         -50.1779         173.464       -0.0220881         143.088
0.614                   -3.05289         174.073          -50.094         171.151         -50.0939         171.151       -0.0223239         143.008
0.615                   -3.10387         173.392         -50.0101         168.835         -50.0099         168.835       -0.0225625         142.928
0.616                   -3.15513         172.706         -49.9263         166.517         -49.9261         166.517       -0.0228039         142.847
0.617                   -3.20669         172.013         -49.8426         164.196         -49.8425         164.197       -0.0230481         142.766
0.618                   -3.25857         171.313         -49.7591         161.873         -49.7589         161.873       -0.0232952         142.685
0.619                   -3.31079         170.605         -49.6757         159.546         -49.6756         159.546       -0.0235453         142.604
0.62                    -3.36338         169.889         -49.5925         157.215         -49.5924         157.216       -0.0237983         142.523
0.621                   -3.41637         169.165         -49.5095         154.881         -49.5094         154.882       -0.0240543         142.441
0.622                   -3.46982         168.432         -49.4268         152.544         -49.4266         152.544       -0.0243135         142.359
0.623                   -3.52377         167.689         -49.3443         150.202         -49.3442         150.202       -0.0245758         142.277
0.624                   -3.57829         166.936         -49.2621         147.856          -49.262         147.857       -0.0248415         142.195
0.625                   -3.63345         166.171         -49.1803         145.507         -49.1801         145.507       -0.0251107         142.112
0.626                   -3.68933         165.394         -49.0988         143.153         -49.0986         143.153       -0.0253833         142.029
0.627                   -3.74604         164.605         -49.0177         140.796         -49.0176         140.796       -0.0256597         141.946
0.628                    -3.8037         163.803          -48.937         138.434         -48.9369         138.434       -0.0259399         141.863
0.629                   -3.86245         162.986         -48.8569         136.069         -48.8568         136.069       -0.0262241         141.779
