! TOUCHSTONE file generated by CST MICROWAVE STUDIO
! Date and time: Sat Oct 24 11:42:51 2020
! Project name: Scenario_1_Circular_Tissue_out_of_Line.cst
! Parameters = {dy1=-311.318; L_HA=400; MT=2.54; Rad_Dielectric=30; Rad_Lower=7.3; Rad_Upper=30; a_HA=580; a_WG=246; b_HA=500; b_WG=121; c_HA=0; c_WG=187; d_feed=85; dx1=1039; h_feed=15; h_lower=18; h_upper=40}
! Header version: 2018
! Port assignment regex: !\s*Touchstone port\s*([0-9]+)\s*=\s*(CST MWS port|CST DS port)\s*([0-9]+|Zmin|Zmax)\s*\(\"(.*)\"\)(\s*mode\s*([0-9]+))?.*
! Touchstone port assignment:
! Touchstone port 1 = CST MWS port 1 ("")
! Touchstone port 2 = CST MWS port 2 ("")
# GHz S DB R 50
0.5                    -0.142538        -122.278         -65.3004        -17.9715         -65.2505         -18.096      -0.00761861         151.131
0.501                  -0.149943         -122.72         -65.1668        -21.2186         -65.1641        -20.9727      -0.00767633         151.066
0.502                  -0.157509        -123.164         -65.0239        -24.4133         -65.0689        -23.8376      -0.00773498         151.001
0.503                  -0.165237        -123.611         -64.8726        -27.5532         -64.9653        -26.6877      -0.00779456         150.935
0.504                   -0.17313        -124.059         -64.7139        -30.6372         -64.8535        -29.5201      -0.00785506          150.87
0.505                   -0.18119        -124.509         -64.5487        -33.6644          -64.734        -32.3322      -0.00791651         150.804
0.506                  -0.189419        -124.961          -64.378        -36.6349         -64.6073        -35.1221      -0.00797889         150.739
0.507                  -0.197819        -125.415         -64.2025        -39.5492         -64.4739        -37.8877      -0.00804222         150.673
0.508                  -0.206393        -125.871          -64.023        -42.4081         -64.3341        -40.6276       -0.0081065         150.607
0.509                  -0.215143        -126.329         -63.8404        -45.2132         -64.1885        -43.3407      -0.00817173         150.541
0.51                   -0.224071        -126.788         -63.6551         -47.966         -64.0376        -46.0261      -0.00823793         150.475
0.511                  -0.233181         -127.25          -63.468        -50.6686         -63.8818        -48.6832      -0.00830509         150.409
0.512                  -0.242473        -127.714         -63.2794         -53.323         -63.7217        -51.3119      -0.00837322         150.343
0.513                  -0.251951         -128.18         -63.0899        -55.9314         -63.5575        -53.9119      -0.00844233         150.277
0.514                  -0.261617        -128.648            -62.9        -58.4963         -63.3898        -56.4837      -0.00851241          150.21
0.515                  -0.271474        -129.118           -62.71          -61.02          -63.219        -59.0275      -0.00858349         150.144
0.516                  -0.281524         -129.59         -62.5203         -63.505         -63.0454        -61.5439      -0.00865556         150.078
0.517                   -0.29177        -130.064         -62.3312        -65.9538         -62.8695        -64.0338      -0.00872862         150.011
0.518                  -0.302214         -130.54         -62.1429        -68.3687         -62.6916         -66.498       -0.0088027         149.945
0.519                  -0.312859        -131.019         -61.9557        -70.7521          -62.512        -68.9375      -0.00887778         149.878
0.52                   -0.323708        -131.499         -61.7698        -73.1063          -62.331        -71.3534      -0.00895387         149.811
0.521                  -0.334763        -131.981         -61.5854        -75.4337         -62.1489        -73.7469      -0.00903099         149.744
0.522                  -0.346027        -132.466         -61.4025        -77.7363         -61.9659        -76.1192      -0.00910914         149.677
0.523                  -0.357502        -132.953         -61.2214        -80.0164         -61.7823        -78.4716      -0.00918833          149.61
0.524                  -0.369193        -133.441          -61.042        -82.2761         -61.5983        -80.8054      -0.00926856         149.543
0.525                  -0.381101        -133.932         -60.8646        -84.5172         -61.4141        -83.1219      -0.00934983         149.476
0.526                  -0.393229        -134.426         -60.6891        -86.7417           -61.23        -85.4225      -0.00943217         149.409
0.527                   -0.40558        -134.921         -60.5156        -88.9514         -61.0459        -87.7086      -0.00951556         149.341
0.528                  -0.418158        -135.418         -60.3441        -91.1482         -60.8622        -89.9815      -0.00960003         149.274
0.529                  -0.430965        -135.918         -60.1747        -93.3335          -60.679        -92.2425      -0.00968557         149.206
0.53                   -0.444004         -136.42         -60.0074        -95.5092         -60.4963         -94.493       -0.0097722         149.138
0.531                  -0.457278        -136.924         -59.8422        -97.6767         -60.3143        -96.7344      -0.00985993         149.071
0.532                  -0.470791         -137.43         -59.6791        -99.8376         -60.1331        -98.9678      -0.00994875         149.003
0.533                  -0.484545        -137.939          -59.518        -101.993         -59.9527        -101.195       -0.0100387         148.935
0.534                  -0.498545         -138.45          -59.359        -104.145         -59.7734        -103.416       -0.0101297         148.867
0.535                  -0.512792        -138.963         -59.2021        -106.294          -59.595        -105.633       -0.0102219         148.799
0.536                  -0.527291        -139.478         -59.0472        -108.442         -59.4178        -107.848       -0.0103152          148.73
0.537                  -0.542044        -139.996         -58.8943         -110.59         -59.2418         -110.06       -0.0104097         148.662
0.538                  -0.557056        -140.516         -58.7433        -112.739         -59.0669        -112.272       -0.0105053         148.594
0.539                   -0.57233        -141.039         -58.5943         -114.89         -58.8934        -114.484        -0.010602         148.525
0.54                   -0.587869        -141.563         -58.4472        -117.044         -58.7212        -116.698          -0.0107         148.456
0.541                  -0.603677         -142.09         -58.3019        -119.202         -58.5503        -118.914       -0.0107991         148.388
0.542                  -0.619757         -142.62         -58.1585        -121.366         -58.3808        -121.134       -0.0108994         148.319
0.543                  -0.636114        -143.152         -58.0168        -123.536         -58.2128        -123.358       -0.0110009          148.25
0.544                  -0.652751        -143.686         -57.8769        -125.714         -58.0462        -125.588       -0.0111036         148.181
0.545                  -0.669672        -144.222         -57.7386        -127.899         -57.8811        -127.824       -0.0112076         148.112
0.546                  -0.686881        -144.761          -57.602        -130.093         -57.7175        -130.067       -0.0113127         148.042
0.547                  -0.704383        -145.303          -57.467        -132.297         -57.5554        -132.319       -0.0114191         147.973
0.548                   -0.72218        -145.847         -57.3335        -134.511         -57.3949        -134.579       -0.0115268         147.903
0.549                  -0.740278        -146.393         -57.2015        -136.737          -57.236        -136.849       -0.0116357         147.834
0.55                    -0.75868        -146.942         -57.0709        -138.974         -57.0787        -139.129       -0.0117459         147.764
0.551                  -0.777392        -147.494         -56.9418        -141.225         -56.9229        -141.421       -0.0118574         147.694
0.552                  -0.796417        -148.048         -56.8139        -143.488         -56.7689        -143.724       -0.0119702         147.624
0.553                   -0.81576        -148.604         -56.6874        -145.766         -56.6164         -146.04       -0.0120843         147.554
0.554                  -0.835426        -149.163          -56.562        -148.058         -56.4656        -148.369       -0.0121997         147.484
0.555                  -0.855419        -149.725         -56.4379        -150.365         -56.3165        -150.712       -0.0123165         147.414
0.556                  -0.875745        -150.289         -56.3149        -152.688         -56.1691        -153.069       -0.0124346         147.343
0.557                  -0.896408        -150.856         -56.1929        -155.027         -56.0234        -155.441       -0.0125541         147.273
0.558                  -0.917413        -151.426          -56.072        -157.383         -55.8794        -157.828       -0.0126749         147.202
0.559                  -0.938767        -151.998          -55.952        -159.756         -55.7372        -160.231       -0.0127972         147.131
0.56                   -0.960473        -152.573         -55.8329        -162.147         -55.5967         -162.65       -0.0129209          147.06
0.561                  -0.982538         -153.15         -55.7147        -164.555         -55.4579        -165.085       -0.0130459         146.989
0.562                   -1.00497        -153.731         -55.5973        -166.982         -55.3209        -167.537       -0.0131725         146.918
0.563                   -1.02777        -154.314         -55.4807        -169.427         -55.1857        -170.006       -0.0133004         146.847
0.564                   -1.05094        -154.899         -55.3647        -171.891         -55.0522        -172.493       -0.0134299         146.775
0.565                    -1.0745        -155.488         -55.2494        -174.375         -54.9205        -174.997       -0.0135608         146.704
0.566                   -1.09844        -156.079         -55.1347        -176.878         -54.7907        -177.519       -0.0136933         146.632
0.567                   -1.12278        -156.674         -55.0205          -179.4         -54.6626         179.941       -0.0138272          146.56
0.568                   -1.14752        -157.271         -54.9069         178.058         -54.5364         177.383       -0.0139627         146.489
0.569                   -1.17267         -157.87         -54.7936         175.497          -54.412         174.807       -0.0140997         146.416
0.57                    -1.19824        -158.473         -54.6809         172.915         -54.2894         172.213       -0.0142384         146.344
0.571                   -1.22422        -159.079         -54.5684         170.314         -54.1686         169.601       -0.0143786         146.272
0.572                   -1.25064        -159.688         -54.4563         167.694         -54.0496         166.972       -0.0145204         146.199
0.573                   -1.27749        -160.299         -54.3445         165.053         -53.9324         164.324       -0.0146639         146.127
0.574                   -1.30478        -160.914         -54.2329         162.393         -53.8171         161.659        -0.014809         146.054
0.575                   -1.33253        -161.531         -54.1215         159.714         -53.7036         158.977       -0.0149558         145.981
0.576                   -1.36074        -162.152         -54.0103         157.016         -53.5918         156.278       -0.0151042         145.908
0.577                   -1.38942        -162.776         -53.8993         154.299         -53.4818         153.562       -0.0152544         145.835
0.578                   -1.41858        -163.402         -53.7884         151.564         -53.3737          150.83       -0.0154063         145.761
0.579                   -1.44822        -164.032         -53.6776         148.811         -53.2672         148.082         -0.01556         145.688
0.58                    -1.47836        -164.665         -53.5668          146.04         -53.1625         145.318       -0.0157155         145.614
0.581                     -1.509        -165.301         -53.4562         143.252         -53.0596          142.54       -0.0158728         145.541
0.582                   -1.54016        -165.941         -53.3455         140.448         -52.9583         139.747       -0.0160319         145.467
0.583                   -1.57185        -166.583         -53.2349         137.627         -52.8586          136.94       -0.0161928         145.392
0.584                   -1.60407        -167.229         -53.1244         134.791         -52.7606         134.121       -0.0163557         145.318
0.585                   -1.63684        -167.878         -53.0139         131.941         -52.6642         131.288       -0.0165204         145.244
0.586                   -1.67017         -168.53         -52.9034         129.076         -52.5694         128.444       -0.0166871         145.169
0.587                   -1.70406        -169.186         -52.7929         126.198         -52.4761         125.589       -0.0168558         145.094
0.588                   -1.73854        -169.845         -52.6825         123.308         -52.3842         122.724       -0.0170264         145.019
0.589                   -1.77361        -170.507         -52.5722         120.406         -52.2938         119.849        -0.017199         144.944
0.59                    -1.80929        -171.173          -52.462         117.493         -52.2048         116.965       -0.0173737         144.869
0.591                   -1.84558        -171.842         -52.3518          114.57         -52.1171         114.074       -0.0175505         144.794
0.592                   -1.88251        -172.514         -52.2418         111.639         -52.0307         111.175       -0.0177294         144.718
0.593                   -1.92008         -173.19         -52.1319         108.699         -51.9455         108.271       -0.0179104         144.642
0.594                   -1.95832         -173.87         -52.0223         105.752         -51.8615         105.361       -0.0180936         144.566
0.595                   -1.99723        -174.553         -51.9128         102.799         -51.7786         102.446       -0.0182791          144.49
0.596                   -2.03683        -175.239         -51.8036         99.8405         -51.6968         99.5288       -0.0184667         144.414
0.597                   -2.07714        -175.929         -51.6947         96.8781          -51.616         96.6085       -0.0186566         144.337
0.598                   -2.11816        -176.622         -51.5862         93.9126         -51.5361         93.6865       -0.0188489         144.261
0.599                   -2.15993        -177.319          -51.478         90.9449         -51.4571         90.7638       -0.0190434         144.184
0.6                     -2.20246         -178.02         -51.3703         87.9761         -51.3789         87.8412       -0.0192404         144.107
0.601                   -2.24576        -178.724          -51.263         85.0072         -51.3014         84.9196       -0.0194398          144.03
0.602                   -2.28985        -179.432         -51.1563         82.0392         -51.2247         81.9999       -0.0196416         143.952
0.603                   -2.33475         179.856         -51.0501          79.073         -51.1486         79.0829        -0.019846         143.874
0.604                   -2.38049         179.141         -50.9446         76.1097         -51.0731         76.1695       -0.0200529         143.797
0.605                   -2.42707         178.423         -50.8397         73.1502          -50.998         73.2604       -0.0202624         143.719
0.606                   -2.47453           177.7         -50.7355         70.1954         -50.9235         70.3565       -0.0204745          143.64
0.607                   -2.52288         176.974         -50.6321         67.2463         -50.8493         67.4585       -0.0206893         143.562
0.608                   -2.57215         176.245         -50.5294         64.3037         -50.7755         64.5671       -0.0209068         143.483
0.609                   -2.62235         175.511         -50.4277         61.3684         -50.7021         61.6831       -0.0211271         143.404
0.61                    -2.67352         174.774         -50.3267         58.4414         -50.6288         58.8072       -0.0213502         143.325
0.611                   -2.72567         174.034         -50.2267         55.5234         -50.5558         55.9399       -0.0215761         143.246
0.612                   -2.77883          173.29         -50.1277         52.6151         -50.4829         53.0818        -0.021805         143.167
0.613                   -2.83303         172.542         -50.0296         49.7173         -50.4102         50.2337       -0.0220368         143.087
0.614                   -2.88829          171.79         -49.9326         46.8307         -50.3375         47.3959       -0.0222717         143.007
0.615                   -2.94464         171.035         -49.8366         43.9558         -50.2649         44.5691       -0.0225096         142.927
0.616                   -3.00211         170.277         -49.7416         41.0933         -50.1924         41.7536       -0.0227507         142.846
0.617                   -3.06072         169.515         -49.6478         38.2438         -50.1198         38.9498        -0.022995         142.766
0.618                   -3.12051         168.749          -49.555         35.4077         -50.0471         36.1583       -0.0232425         142.685
0.619                    -3.1815         167.981         -49.4634         32.5856         -49.9744         33.3793       -0.0234933         142.604
0.62                    -3.24372         167.208         -49.3729         29.7778         -49.9017         30.6132       -0.0237475         142.522
0.621                   -3.30721         166.433         -49.2836         26.9848         -49.8288         27.8602       -0.0240051         142.441
0.622                     -3.372         165.654         -49.1954         24.2069         -49.7558         25.1205       -0.0242662         142.359
0.623                   -3.43813         164.872         -49.1084         21.4444         -49.6826         22.3945       -0.0245309         142.277
0.624                   -3.50561         164.087         -49.0225         18.6976         -49.6093         19.6823       -0.0247992         142.194
0.625                    -3.5745         163.299         -48.9378         15.9667         -49.5359         16.9839       -0.0250712         142.112
0.626                   -3.64482         162.508         -48.8542         13.2518         -49.4623         14.2996        -0.025347         142.029
0.627                   -3.71661         161.714         -48.7717         10.5532         -49.3885         11.6295       -0.0256267         141.946
0.628                   -3.78991         160.917         -48.6904         7.87093         -49.3145         8.97344       -0.0259102         141.863
0.629                   -3.86475         160.118         -48.6102         5.20507         -49.2404         6.33161       -0.0261978         141.779
