! TOUCHSTONE file generated by CST MICROWAVE STUDIO
! Date and time: Mon Oct 26 12:10:26 2020
! Project name: Scenario_1_Circular_Tissue_out_of_Line_v2.cst
! Parameters = {dy1=328.7; L_HA=400; MT=2.54; Rad_Dielectric=30; Rad_Lower=7.3; Rad_Upper=30; a_HA=580; a_WG=246; b_HA=500; b_WG=121; c_HA=0; c_WG=187; d_feed=85; dx1=173; h_feed=15; h_lower=18; h_upper=40}
! Header version: 2018
! Port assignment regex: !\s*Touchstone port\s*([0-9]+)\s*=\s*(CST MWS port|CST DS port)\s*([0-9]+|Zmin|Zmax)\s*\(\"(.*)\"\)(\s*mode\s*([0-9]+))?.*
! Touchstone port assignment:
! Touchstone port 1 = CST MWS port 1 ("")
! Touchstone port 2 = CST MWS port 2 ("")
# GHz S DB R 50
0.5                    -0.156363        -122.477          -63.607         75.2192          -63.607         75.2192      -0.00713098         151.133
0.501                  -0.162505        -122.905         -63.4926         73.6285         -63.4927         73.6282      -0.00710403         151.068
0.502                  -0.168773        -123.335         -63.3769         72.0322          -63.377         72.0316      -0.00708779         151.004
0.503                   -0.17517        -123.768         -63.2598         70.4305         -63.2599         70.4295      -0.00708175         150.939
0.504                  -0.181698        -124.202         -63.1413         68.8233         -63.1415         68.8221      -0.00708524         150.873
0.505                   -0.18836        -124.638         -63.0215         67.2108         -63.0218         67.2093      -0.00709755         150.808
0.506                  -0.195159        -125.076         -62.9005         65.5931         -62.9008         65.5912        -0.007118         150.742
0.507                  -0.202098        -125.516         -62.7782         63.9701         -62.7786          63.968      -0.00714591         150.677
0.508                  -0.209179        -125.959         -62.6548          62.342         -62.6552         62.3396      -0.00718067         150.611
0.509                  -0.216407        -126.403         -62.5303         60.7089         -62.5307         60.7062       -0.0072217         150.545
0.51                   -0.223785         -126.85         -62.4046         59.0707         -62.4051         59.0677      -0.00726848         150.479
0.511                  -0.231314        -127.299         -62.2779         57.4276         -62.2784         57.4243      -0.00732053         150.413
0.512                     -0.239        -127.749         -62.1503         55.7795         -62.1508         55.7759      -0.00737744         150.347
0.513                  -0.246844        -128.203         -62.0217         54.1265         -62.0222         54.1227      -0.00743881         150.281
0.514                  -0.254852        -128.658         -61.8922         52.4686         -61.8928         52.4646      -0.00750429         150.215
0.515                  -0.263025        -129.115         -61.7619         50.8059         -61.7625         50.8016      -0.00757359         150.148
0.516                  -0.271368        -129.575         -61.6308         49.1384         -61.6314         49.1339      -0.00764642         150.082
0.517                  -0.279885        -130.037          -61.499         47.4661         -61.4996         47.4614      -0.00772252         150.015
0.518                  -0.288579        -130.502         -61.3665          45.789         -61.3672         45.7841      -0.00780168         149.949
0.519                  -0.297455        -130.968         -61.2334         44.1071         -61.2341          44.102      -0.00788368         149.882
0.52                   -0.306515        -131.437         -61.0997         42.4205         -61.1005         42.4152      -0.00796836         149.815
0.521                  -0.315765        -131.908         -60.9656         40.7292         -60.9663         40.7237      -0.00805553         149.748
0.522                  -0.325209        -132.382          -60.831         39.0331         -60.8317         39.0275      -0.00814506         149.681
0.523                   -0.33485        -132.858          -60.696         37.3323         -60.6968         37.3266      -0.00823681         149.614
0.524                  -0.344693        -133.336         -60.5607         35.6269         -60.5615          35.621      -0.00833065         149.547
0.525                  -0.354743        -133.817         -60.4251         33.9167         -60.4259         33.9107      -0.00842648          149.48
0.526                  -0.365004        -134.301         -60.2894         32.2019         -60.2902         32.1958      -0.00852419         149.412
0.527                  -0.375481        -134.786         -60.1535         30.4825         -60.1543         30.4763      -0.00862371         149.345
0.528                  -0.386178        -135.275         -60.0175         28.7584         -60.0183         28.7521      -0.00872494         149.277
0.529                  -0.397101        -135.765         -59.8815         27.0297         -59.8823         27.0233      -0.00882781         149.209
0.53                   -0.408254        -136.259         -59.7455         25.2965         -59.7464           25.29      -0.00893225         149.142
0.531                  -0.419643        -136.754         -59.6097         23.5587         -59.6105         23.5522      -0.00903821         149.074
0.532                  -0.431272        -137.253          -59.474         21.8164         -59.4749         21.8098      -0.00914563         149.006
0.533                  -0.443147        -137.754         -59.3386         20.0696         -59.3394          20.063      -0.00925446         148.938
0.534                  -0.455274        -138.257         -59.2034         18.3184         -59.2043         18.3118      -0.00936465          148.87
0.535                  -0.467658        -138.764         -59.0686         16.5629         -59.0695         16.5563      -0.00947617         148.802
0.536                  -0.480305        -139.273         -58.9343         14.8031         -58.9351         14.7965      -0.00958897         148.733
0.537                   -0.49322        -139.784         -58.8004         13.0391         -58.8012         13.0325      -0.00970303         148.665
0.538                  -0.506409        -140.298          -58.667         11.2709         -58.6678         11.2643       -0.0098183         148.596
0.539                  -0.519879        -140.815         -58.5342         9.49873          -58.535         9.49216      -0.00993478         148.528
0.54                   -0.533636        -141.335         -58.4021         7.72258         -58.4029         7.71605       -0.0100524         148.459
0.541                  -0.547686        -141.857         -58.2707         5.94259         -58.2715         5.93612       -0.0101712          148.39
0.542                  -0.562036        -142.382         -58.1401         4.15889         -58.1408         4.15248       -0.0102912         148.321
0.543                  -0.576691         -142.91         -58.0103         2.37159          -58.011         2.36525       -0.0104122         148.252
0.544                  -0.591659        -143.441         -57.8813        0.580842         -57.8821        0.574581       -0.0105344         148.183
0.545                  -0.606947        -143.974         -57.7533        -1.21321         -57.7541        -1.21938       -0.0106576         148.114
0.546                  -0.622562        -144.511         -57.6263        -3.01041          -57.627        -3.01648        -0.010782         148.045
0.547                  -0.638511         -145.05         -57.5003        -4.81058          -57.501        -4.81655       -0.0109074         147.975
0.548                  -0.654801        -145.592         -57.3754        -6.61355         -57.3761        -6.61941       -0.0110338         147.906
0.549                   -0.67144        -146.137         -57.2516        -8.41912         -57.2523        -8.42487       -0.0111614         147.836
0.55                   -0.688435        -146.685          -57.129        -10.2271         -57.1297        -10.2327       -0.0112899         147.766
0.551                  -0.705794        -147.236         -57.0076        -12.0373         -57.0083        -12.0428       -0.0114196         147.696
0.552                  -0.723525        -147.789         -56.8875        -13.8494         -56.8881        -13.8548       -0.0115503         147.626
0.553                  -0.741636        -148.346         -56.7686        -15.6633         -56.7693        -15.6685        -0.011682         147.556
0.554                  -0.760136        -148.906         -56.6511        -17.4787         -56.6517        -17.4838       -0.0118148         147.486
0.555                  -0.779032        -149.468          -56.535        -19.2954         -56.5355        -19.3003       -0.0119487         147.416
0.556                  -0.798334        -150.034         -56.4202        -21.1131         -56.4208        -21.1179       -0.0120836         147.345
0.557                   -0.81805        -150.603         -56.3069        -22.9316         -56.3074        -22.9362       -0.0122195         147.275
0.558                  -0.838189        -151.174          -56.195        -24.7505         -56.1955        -24.7549       -0.0123566         147.204
0.559                   -0.85876        -151.749         -56.0846        -26.5696         -56.0851        -26.5739       -0.0124947         147.133
0.56                   -0.879772        -152.327         -55.9757        -28.3888         -55.9761        -28.3929       -0.0126339         147.062
0.561                  -0.901236        -152.907         -55.8682        -30.2075         -55.8687        -30.2115       -0.0127742         146.991
0.562                  -0.923159        -153.491         -55.7624        -32.0257         -55.7628        -32.0294       -0.0129156          146.92
0.563                  -0.945553        -154.078          -55.658        -33.8429         -55.6584        -33.8465       -0.0130581         146.849
0.564                  -0.968427        -154.668         -55.5552         -35.659         -55.5556        -35.6624       -0.0132017         146.777
0.565                  -0.991792        -155.261         -55.4539        -37.4736         -55.4543        -37.4768       -0.0133465         146.706
0.566                   -1.01566        -155.857         -55.3542        -39.2864         -55.3546        -39.2895       -0.0134924         146.634
0.567                   -1.04003        -156.457         -55.2561        -41.0972         -55.2564        -41.1001       -0.0136395         146.562
0.568                   -1.06493        -157.059         -55.1595        -42.9056         -55.1598        -42.9084       -0.0137877          146.49
0.569                   -1.09036        -157.664         -55.0645        -44.7115         -55.0647         -44.714       -0.0139372         146.418
0.57                    -1.11634        -158.273          -54.971        -46.5144         -54.9712        -46.5168       -0.0140878         146.346
0.571                   -1.14287        -158.885          -54.879        -48.3143         -54.8792        -48.3165       -0.0142397         146.274
0.572                   -1.16996          -159.5         -54.7885        -50.1107         -54.7887        -50.1127       -0.0143927         146.201
0.573                   -1.19764        -160.118         -54.6996        -51.9034         -54.6997        -51.9053       -0.0145471         146.129
0.574                    -1.2259        -160.739         -54.6121        -53.6922         -54.6122         -53.694       -0.0147027         146.056
0.575                   -1.25477        -161.363         -54.5261        -55.4769         -54.5261        -55.4785       -0.0148597         145.983
0.576                   -1.28425         -161.99         -54.4415        -57.2572         -54.4415        -57.2586       -0.0150179          145.91
0.577                   -1.31436        -162.621         -54.3583        -59.0328         -54.3584        -59.0341       -0.0151775         145.837
0.578                    -1.3451        -163.254         -54.2765        -60.8036         -54.2766        -60.8047       -0.0153384         145.763
0.579                    -1.3765        -163.891         -54.1961        -62.5694         -54.1961        -62.5704       -0.0155007          145.69
0.58                    -1.40856        -164.531         -54.1171        -64.3299          -54.117        -64.3308       -0.0156644         145.616
0.581                   -1.44131        -165.173         -54.0393        -66.0851         -54.0392        -66.0858       -0.0158296         145.542
0.582                   -1.47474        -165.819         -53.9628        -67.8346         -53.9627        -67.8352       -0.0159961         145.469
0.583                   -1.50887        -166.468         -53.8875        -69.5784         -53.8874        -69.5788       -0.0161642         145.394
0.584                   -1.54373         -167.12         -53.8134        -71.3163         -53.8133        -71.3166       -0.0163338          145.32
0.585                   -1.57932        -167.775         -53.7405        -73.0482         -53.7403        -73.0484       -0.0165049         145.246
0.586                   -1.61565        -168.433         -53.6686         -74.774         -53.6685         -74.774       -0.0166776         145.171
0.587                   -1.65275        -169.094         -53.5979        -76.4934         -53.5977        -76.4934       -0.0168518         145.096
0.588                   -1.69062        -169.758         -53.5282        -78.2066          -53.528        -78.2064       -0.0170277         145.021
0.589                   -1.72928        -170.425         -53.4595        -79.9132         -53.4593        -79.9129       -0.0172052         144.946
0.59                    -1.76874        -171.094         -53.3918        -81.6134         -53.3916         -81.613       -0.0173844         144.871
0.591                   -1.80903        -171.767          -53.325         -83.307         -53.3247        -83.3065       -0.0175653         144.796
0.592                   -1.85015        -172.442         -53.2591        -84.9939         -53.2588        -84.9933       -0.0177479          144.72
0.593                   -1.89212        -173.121          -53.194        -86.6742         -53.1937        -86.6735       -0.0179323         144.644
0.594                   -1.93495        -173.802         -53.1297        -88.3478         -53.1294         -88.347       -0.0181185         144.568
0.595                   -1.97867        -174.486         -53.0662        -90.0146         -53.0659        -90.0138       -0.0183066         144.492
0.596                   -2.02328        -175.172         -53.0034        -91.6747          -53.003        -91.6738       -0.0184965         144.416
0.597                    -2.0688        -175.861         -52.9412        -93.3281         -52.9409        -93.3271       -0.0186884         144.339
0.598                   -2.11525        -176.553         -52.8797        -94.9748         -52.8794        -94.9737       -0.0188822         144.263
0.599                   -2.16265        -177.247         -52.8188        -96.6149         -52.8184        -96.6137       -0.0190781         144.186
0.6                     -2.21101        -177.944         -52.7585        -98.2482         -52.7581         -98.247       -0.0192759         144.109
0.601                   -2.26034        -178.643         -52.6986         -99.875         -52.6982        -99.8737       -0.0194758         144.032
0.602                   -2.31067        -179.345         -52.6393        -101.495         -52.6388        -101.494       -0.0196779         143.954
0.603                   -2.36201         179.951         -52.5803        -103.109         -52.5799        -103.107       -0.0198821         143.877
0.604                   -2.41438         179.245         -52.5218        -104.716         -52.5213        -104.715       -0.0200885         143.799
0.605                    -2.4678         178.536         -52.4636        -106.317         -52.4631        -106.315       -0.0202971         143.721
0.606                   -2.52227         177.825         -52.4058        -107.912         -52.4053         -107.91       -0.0205081         143.642
0.607                   -2.57782         177.113         -52.3482          -109.5         -52.3477        -109.498       -0.0207214         143.564
0.608                   -2.63447         176.398         -52.2909        -111.082         -52.2904        -111.081       -0.0209371         143.485
0.609                   -2.69223         175.681         -52.2338        -112.658         -52.2333        -112.657       -0.0211552         143.407
0.61                    -2.75112         174.962         -52.1769        -114.229         -52.1764        -114.227       -0.0213758         143.327
0.611                   -2.81116         174.242         -52.1202        -115.793         -52.1197        -115.792        -0.021599         143.248
0.612                   -2.87237          173.52         -52.0636        -117.352         -52.0631         -117.35       -0.0218248         143.169
0.613                   -2.93476         172.796          -52.007        -118.906         -52.0065        -118.904       -0.0220532         143.089
0.614                   -2.99834         172.071         -51.9506        -120.453         -51.9501        -120.452       -0.0222843         143.009
0.615                   -3.06315         171.345         -51.8942        -121.996         -51.8937        -121.994       -0.0225182         142.929
0.616                   -3.12919         170.617         -51.8377        -123.533         -51.8372        -123.531       -0.0227549         142.848
0.617                   -3.19649         169.888         -51.7813        -125.066         -51.7808        -125.064       -0.0229945         142.768
0.618                   -3.26506         169.158         -51.7248        -126.593         -51.7243        -126.591        -0.023237         142.687
0.619                   -3.33491         168.426         -51.6683        -128.115         -51.6678        -128.113       -0.0234826         142.606
0.62                    -3.40608         167.694         -51.6117        -129.633         -51.6112        -129.631       -0.0237312         142.524
0.621                   -3.47856         166.962         -51.5549        -131.146         -51.5544        -131.145        -0.023983         142.443
0.622                   -3.55239         166.228          -51.498        -132.655         -51.4975        -132.653       -0.0242379         142.361
0.623                   -3.62758         165.495          -51.441         -134.16         -51.4405        -134.158       -0.0244962         142.279
0.624                   -3.70415          164.76         -51.3837        -135.661         -51.3832        -135.659       -0.0247577         142.197
0.625                   -3.78211         164.026         -51.3263        -137.157         -51.3258        -137.155       -0.0250227         142.114
0.626                   -3.86148         163.292         -51.2686         -138.65         -51.2682        -138.648       -0.0252912         142.031
0.627                   -3.94229         162.557         -51.2107        -140.139         -51.2103        -140.137       -0.0255633         141.948
0.628                   -4.02454         161.823         -51.1526        -141.625         -51.1521        -141.623        -0.025839         141.865
0.629                   -4.10826         161.089         -51.0942        -143.107         -51.0937        -143.105       -0.0261184         141.781
