! TOUCHSTONE file generated by CST MICROWAVE STUDIO
! Date and time: Wed Oct 28 19:40:54 2020
! Project name: Scenario_1_Circular_Tissue_out_of_Line_v2.cst
! Parameters = {dy1=328.7; L_HA=400; MT=2.54; Rad_Dielectric=30; Rad_Lower=7.3; Rad_Upper=30; a_HA=580; a_WG=246; b_HA=500; b_WG=121; c_HA=0; c_WG=187; d_feed=85; dx1=346; h_feed=15; h_lower=18; h_upper=40}
! Header version: 2018
! Port assignment regex: !\s*Touchstone port\s*([0-9]+)\s*=\s*(CST MWS port|CST DS port)\s*([0-9]+|Zmin|Zmax)\s*\(\"(.*)\"\)(\s*mode\s*([0-9]+))?.*
! Touchstone port assignment:
! Touchstone port 1 = CST MWS port 1 ("")
! Touchstone port 2 = CST MWS port 2 ("")
# GHz S DB R 50
0.5                    -0.140274         -122.33         -63.9036        -20.1948         -63.9023        -20.1958      -0.00778321         151.142
0.501                  -0.145259        -122.775         -63.7778        -21.5786         -63.7766        -21.5793      -0.00784018         151.077
0.502                  -0.150394        -123.222         -63.6505        -22.9688         -63.6493        -22.9692      -0.00789782         151.012
0.503                  -0.155681        -123.671         -63.5217        -24.3654         -63.5205        -24.3656      -0.00795615         150.946
0.504                  -0.161122        -124.121         -63.3915        -25.7685         -63.3903        -25.7685      -0.00801518         150.881
0.505                  -0.166717        -124.573         -63.2598        -27.1782         -63.2586        -27.1779      -0.00807492         150.815
0.506                  -0.172469        -125.028         -63.1268        -28.5944         -63.1256        -28.5939      -0.00813538          150.75
0.507                   -0.17838        -125.484         -62.9924        -30.0172         -62.9912        -30.0165      -0.00819657         150.684
0.508                  -0.184452        -125.942         -62.8566        -31.4468         -62.8555        -31.4459       -0.0082585         150.618
0.509                  -0.190687        -126.402         -62.7197         -32.883         -62.7185         -32.882      -0.00832118         150.552
0.51                   -0.197089        -126.864         -62.5815        -34.3261         -62.5803        -34.3249      -0.00838463         150.486
0.511                  -0.203659        -127.328         -62.4421        -35.7761         -62.4409        -35.7747      -0.00844885          150.42
0.512                  -0.210402        -127.795         -62.3016         -37.233         -62.3005        -37.2314      -0.00851385         150.354
0.513                  -0.217321        -128.263           -62.16        -38.6969         -62.1589        -38.6952      -0.00857965         150.288
0.514                   -0.22442        -128.734         -62.0174        -40.1679         -62.0163        -40.1661      -0.00864625         150.222
0.515                  -0.231704        -129.207         -61.8738        -41.6461         -61.8727        -41.6442      -0.00871368         150.156
0.516                  -0.239178        -129.682         -61.7293        -43.1315         -61.7282        -43.1295      -0.00878193         150.089
0.517                  -0.246846         -130.16         -61.5839        -44.6243         -61.5828        -44.6222      -0.00885102         150.023
0.518                  -0.254716         -130.64         -61.4377        -46.1244         -61.4366        -46.1223      -0.00892097         149.956
0.519                  -0.262794        -131.123         -61.2906        -47.6321         -61.2896        -47.6299      -0.00899178         149.889
0.52                   -0.271087        -131.608         -61.1429        -49.1474         -61.1418        -49.1451      -0.00906347         149.823
0.521                  -0.279603        -132.096         -60.9945        -50.6702         -60.9934        -50.6679      -0.00913605         149.756
0.522                  -0.288352        -132.587         -60.8454        -52.2008         -60.8444        -52.1985      -0.00920953         149.689
0.523                  -0.297344         -133.08         -60.6959        -53.7392         -60.6948        -53.7369      -0.00928392         149.622
0.524                  -0.306589        -133.576         -60.5458        -55.2855         -60.5447        -55.2831      -0.00935924         149.555
0.525                    -0.3161        -134.075         -60.3952        -56.8397         -60.3942        -56.8373       -0.0094355         149.488
0.526                  -0.325889        -134.577         -60.2443        -58.4019         -60.2433        -58.3995      -0.00951271          149.42
0.527                  -0.335971        -135.082          -60.093        -59.9722          -60.092        -59.9698      -0.00959089         149.353
0.528                  -0.346362        -135.589         -59.9415        -61.5505         -59.9405        -61.5481      -0.00967005         149.285
0.529                  -0.357078          -136.1         -59.7897         -63.137         -59.7888        -63.1346      -0.00975019         149.218
0.53                   -0.368138        -136.614         -59.6378        -64.7316         -59.6369        -64.7293      -0.00983134          149.15
0.531                  -0.379563        -137.131         -59.4859        -66.3345         -59.4849        -66.3322      -0.00991352         149.082
0.532                  -0.391372        -137.651         -59.3338        -67.9456         -59.3329        -67.9434      -0.00999672         149.014
0.533                  -0.403591        -138.174         -59.1818        -69.5649         -59.1809        -69.5628        -0.010081         148.946
0.534                  -0.416242        -138.701         -59.0299        -71.1925          -59.029        -71.1904       -0.0101663         148.878
0.535                  -0.429352        -139.231         -58.8781        -72.8283         -58.8773        -72.8263       -0.0102527          148.81
0.536                  -0.442947        -139.764         -58.7265        -74.4724         -58.7257        -74.4704       -0.0103401         148.742
0.537                  -0.457057          -140.3         -58.5752        -76.1246         -58.5744        -76.1227       -0.0104287         148.674
0.538                   -0.47171        -140.839         -58.4242         -77.785         -58.4234        -77.7831       -0.0105184         148.605
0.539                  -0.486935        -141.381         -58.2736        -79.4534         -58.2728        -79.4516       -0.0106093         148.537
0.54                   -0.502764        -141.926         -58.1234        -81.1299         -58.1226        -81.1282       -0.0107013         148.468
0.541                  -0.519225        -142.473         -57.9737        -82.8144         -57.9729        -82.8128       -0.0107944         148.399
0.542                  -0.536347        -143.024         -57.8245        -84.5068         -57.8238        -84.5052       -0.0108888          148.33
0.543                  -0.554158        -143.576         -57.6759        -86.2069         -57.6752        -86.2054       -0.0109843         148.261
0.544                  -0.572683        -144.131          -57.528        -87.9147         -57.5273        -87.9133        -0.011081         148.192
0.545                  -0.591943        -144.688         -57.3808          -89.63         -57.3801        -89.6287        -0.011179         148.123
0.546                  -0.611957        -145.247         -57.2343        -91.3528         -57.2337        -91.3515       -0.0112783         148.053
0.547                  -0.632739        -145.807         -57.0886        -93.0828          -57.088        -93.0816       -0.0113788         147.984
0.548                  -0.654294        -146.368         -56.9437          -94.82         -56.9432        -94.8188       -0.0114805         147.914
0.549                  -0.676626         -146.93         -56.7998        -96.5641         -56.7993         -96.563       -0.0115836         147.845
0.55                   -0.699729        -147.492         -56.6568        -98.3149         -56.6563        -98.3139        -0.011688         147.775
0.551                  -0.723587        -148.055         -56.5147        -100.072         -56.5142        -100.071       -0.0117937         147.705
0.552                  -0.748181        -148.617         -56.3736        -101.836         -56.3732        -101.835       -0.0119008         147.635
0.553                  -0.773481        -149.178         -56.2336        -103.606         -56.2332        -103.605       -0.0120093         147.565
0.554                   -0.79945        -149.739         -56.0947        -105.382         -56.0943        -105.381       -0.0121191         147.495
0.555                  -0.826042        -150.298         -55.9569        -107.164         -55.9565        -107.163       -0.0122304         147.424
0.556                  -0.853209        -150.856         -55.8202        -108.951         -55.8198         -108.95       -0.0123431         147.354
0.557                  -0.880892        -151.413         -55.6846        -110.743         -55.6843        -110.743       -0.0124572         147.283
0.558                  -0.909033        -151.968         -55.5503        -112.541           -55.55         -112.54       -0.0125728         147.213
0.559                  -0.937569        -152.521         -55.4171        -114.343         -55.4168        -114.342       -0.0126899         147.142
0.56                   -0.966438        -153.073         -55.2852         -116.15          -55.285        -116.149       -0.0128085         147.071
0.561                  -0.995577        -153.623         -55.1545        -117.961         -55.1543         -117.96       -0.0129286             147
0.562                   -1.02493        -154.171         -55.0251        -119.776         -55.0249        -119.775       -0.0130503         146.928
0.563                   -1.05443        -154.718         -54.8969        -121.594         -54.8967        -121.594       -0.0131736         146.857
0.564                   -1.08405        -155.265           -54.77        -123.417         -54.7699        -123.416       -0.0132984         146.785
0.565                   -1.11372         -155.81         -54.6444        -125.242         -54.6443        -125.242       -0.0134249         146.714
0.566                   -1.14342        -156.355         -54.5201        -127.071         -54.5199         -127.07        -0.013553         146.642
0.567                   -1.17311          -156.9          -54.397        -128.902         -54.3969        -128.902       -0.0136828          146.57
0.568                   -1.20278        -157.446         -54.2752        -130.736         -54.2751        -130.736       -0.0138142         146.498
0.569                   -1.23242        -157.992         -54.1547        -132.572         -54.1546        -132.572       -0.0139474         146.426
0.57                      -1.262        -158.539         -54.0354        -134.411         -54.0353         -134.41       -0.0140823         146.354
0.571                   -1.29154        -159.087         -53.9174        -136.251         -53.9173         -136.25        -0.014219         146.281
0.572                   -1.32104        -159.637         -53.8006        -138.093         -53.8005        -138.092       -0.0143575         146.209
0.573                   -1.35051         -160.19          -53.685        -139.936          -53.685        -139.935       -0.0144977         146.136
0.574                   -1.37997        -160.744         -53.5707         -141.78         -53.5707         -141.78       -0.0146398         146.063
0.575                   -1.40943        -161.301         -53.4576        -143.626         -53.4576        -143.625       -0.0147838          145.99
0.576                   -1.43893        -161.862         -53.3456        -145.472         -53.3456        -145.472       -0.0149296         145.917
0.577                   -1.46849        -162.425         -53.2348        -147.319         -53.2348        -147.319       -0.0150774         145.844
0.578                   -1.49813        -162.992         -53.1251        -149.167         -53.1252        -149.166       -0.0152271          145.77
0.579                   -1.52789        -163.562         -53.0166        -151.015         -53.0166        -151.014       -0.0153788         145.696
0.58                     -1.5578        -164.137         -52.9091        -152.863         -52.9092        -152.862       -0.0155325         145.623
0.581                   -1.58789        -164.715         -52.8027        -154.711         -52.8028        -154.711       -0.0156882         145.549
0.582                   -1.61819        -165.297         -52.6974         -156.56         -52.6975        -156.559        -0.015846         145.475
0.583                   -1.64873        -165.883         -52.5931        -158.408         -52.5931        -158.407       -0.0160058           145.4
0.584                   -1.67956        -166.474         -52.4898        -160.256         -52.4898        -160.255       -0.0161678         145.326
0.585                   -1.71069        -167.069         -52.3874        -162.104         -52.3875        -162.103       -0.0163319         145.251
0.586                   -1.74216        -167.669          -52.286        -163.951         -52.2861         -163.95       -0.0164982         145.177
0.587                     -1.774        -168.273         -52.1856        -165.798         -52.1856        -165.797       -0.0166668         145.102
0.588                   -1.80625        -168.881          -52.086        -167.645         -52.0861        -167.644       -0.0168375         145.027
0.589                   -1.83892        -169.494         -51.9873        -169.491         -51.9874         -169.49       -0.0170106         144.952
0.59                    -1.87206        -170.112         -51.8895        -171.336         -51.8895        -171.335        -0.017186         144.876
0.591                   -1.90569        -170.735         -51.7924        -173.181         -51.7925         -173.18       -0.0173637         144.801
0.592                   -1.93983        -171.362         -51.6962        -175.025         -51.6963        -175.024       -0.0175438         144.725
0.593                   -1.97453        -171.994         -51.6008        -176.869         -51.6008        -176.867       -0.0177263         144.649
0.594                   -2.00979        -172.631         -51.5061        -178.712         -51.5062         -178.71       -0.0179112         144.573
0.595                   -2.04566        -173.273         -51.4122         179.446         -51.4122         179.447       -0.0180987         144.497
0.596                   -2.08216        -173.919          -51.319         177.604          -51.319         177.606       -0.0182887          144.42
0.597                   -2.11932         -174.57         -51.2264         175.763         -51.2265         175.765       -0.0184812         144.343
0.598                   -2.15716        -175.226         -51.1346         173.923         -51.1346         173.924       -0.0186764         144.267
0.599                   -2.19571        -175.887         -51.0434         172.083         -51.0435         172.084       -0.0188741          144.19
0.6                       -2.235        -176.552         -50.9529         170.244         -50.9529         170.245       -0.0190746         144.112
0.601                   -2.27506        -177.223          -50.863         168.405          -50.863         168.406       -0.0192777         144.035
0.602                    -2.3159        -177.898         -50.7737         166.567         -50.7738         166.568       -0.0194836         143.957
0.603                   -2.35757        -178.578         -50.6851         164.729         -50.6851         164.731       -0.0196923          143.88
0.604                   -2.40008        -179.263          -50.597         162.892          -50.597         162.894       -0.0199037         143.802
0.605                   -2.44347        -179.952         -50.5095         161.056         -50.5095         161.057        -0.020118         143.724
0.606                   -2.48776         179.353         -50.4226         159.219         -50.4226         159.221       -0.0203352         143.645
0.607                   -2.53298         178.654         -50.3363         157.384         -50.3363         157.385       -0.0205552         143.567
0.608                   -2.57917          177.95         -50.2505         155.548         -50.2505         155.549       -0.0207781         143.488
0.609                   -2.62634         177.242         -50.1653         153.713         -50.1653         153.714       -0.0210038         143.409
0.61                    -2.67454         176.528         -50.0806         151.878         -50.0806          151.88       -0.0212325          143.33
0.611                   -2.72379          175.81         -49.9965         150.044         -49.9965         150.045       -0.0214639          143.25
0.612                   -2.77412         175.087         -49.9129          148.21         -49.9129         148.211        -0.021698         143.171
0.613                   -2.82556          174.36         -49.8299         146.376         -49.8298         146.378       -0.0219347         143.091
0.614                   -2.87815         173.628         -49.7474         144.543         -49.7473         144.544       -0.0221738         143.011
0.615                   -2.93193         172.892         -49.6654          142.71         -49.6654         142.711        -0.022415          142.93
0.616                   -2.98691         172.151          -49.584         140.878         -49.5839         140.879       -0.0226577          142.85
0.617                   -3.04315         171.405         -49.5031         139.045         -49.5031         139.046       -0.0229014         142.769
0.618                   -3.10067         170.655         -49.4228         137.213         -49.4227         137.214       -0.0231451         142.688
0.619                   -3.15951         169.901          -49.343         135.382         -49.3429         135.383       -0.0233878         142.607
0.62                    -3.21971         169.142         -49.2637         133.551         -49.2636         133.552       -0.0236283         142.526
0.621                    -3.2813          168.38          -49.185         131.721         -49.1849         131.721       -0.0238657         142.444
0.622                   -3.34432         167.613         -49.1069         129.891         -49.1068         129.892       -0.0241009         142.362
0.623                   -3.40881         166.842         -49.0293         128.061         -49.0292         128.062        -0.024338          142.28
0.624                   -3.47482         166.067         -48.9522         126.233         -48.9521         126.233       -0.0245845         142.197
0.625                   -3.54237         165.288         -48.8757         124.405         -48.8756         124.405       -0.0248484         142.114
0.626                   -3.61152         164.506         -48.7998         122.577         -48.7997         122.578       -0.0251332          142.03
0.627                   -3.68231          163.72         -48.7244         120.751         -48.7243         120.752       -0.0254361         141.947
0.628                   -3.75477         162.931         -48.6496         118.926         -48.6495         118.926       -0.0257512         141.863
0.629                   -3.82895         162.138         -48.5754         117.101         -48.5753         117.102       -0.0260732         141.779
