! TOUCHSTONE file generated by CST MICROWAVE STUDIO
! Date and time: Fri Oct 30 08:05:00 2020
! Project name: Scenario_1_Circular_Tissue_out_of_Line.cst
! Parameters = {dy1=330.299; L_HA=400; MT=2.54; Rad_Dielectric=30; Rad_Lower=7.3; Rad_Upper=30; a_HA=580; a_WG=246; b_HA=500; b_WG=121; c_HA=0; c_WG=187; d_feed=85; dx1=520; h_feed=15; h_lower=18; h_upper=40}
! Header version: 2018
! Port assignment regex: !\s*Touchstone port\s*([0-9]+)\s*=\s*(CST MWS port|CST DS port)\s*([0-9]+|Zmin|Zmax)\s*\(\"(.*)\"\)(\s*mode\s*([0-9]+))?.*
! Touchstone port assignment:
! Touchstone port 1 = CST MWS port 1 ("")
! Touchstone port 2 = CST MWS port 2 ("")
# GHz S DB R 50
0.5                    -0.151683        -122.442         -63.8042        -97.1626         -63.8023        -97.1581      -0.00734349         151.135
0.501                  -0.156078        -122.919         -64.0497        -98.9701         -64.0472        -98.9659      -0.00741663          151.07
0.502                  -0.160766        -123.398         -64.2984        -100.869         -64.2952        -100.865      -0.00749052         151.004
0.503                  -0.165752        -123.879         -64.5496        -102.866         -64.5457        -102.862      -0.00756515         150.939
0.504                  -0.171038        -124.361         -64.8029        -104.968         -64.7982        -104.963      -0.00764054         150.873
0.505                  -0.176626        -124.845         -65.0572        -107.182         -65.0518        -107.177      -0.00771669         150.808
0.506                  -0.182519        -125.331         -65.3117        -109.517         -65.3055         -109.51      -0.00779359         150.742
0.507                  -0.188719        -125.818         -65.5652        -111.978         -65.5581         -111.97      -0.00787125         150.676
0.508                  -0.195229        -126.307         -65.8162        -114.575         -65.8083        -114.564      -0.00794968          150.61
0.509                  -0.202052        -126.798         -66.0629        -117.313         -66.0542          -117.3      -0.00802888         150.544
0.51                   -0.209189         -127.29         -66.3035        -120.199         -66.2939        -120.182      -0.00810885         150.478
0.511                  -0.216644        -127.784         -66.5356        -123.238         -66.5252        -123.216       -0.0081896         150.412
0.512                  -0.224418         -128.28         -66.7567        -126.432         -66.7455        -126.406      -0.00827112         150.346
0.513                  -0.232515        -128.778         -66.9638        -129.784         -66.9518        -129.751      -0.00835343          150.28
0.514                  -0.240937        -129.277         -67.1539        -133.289         -67.1413         -133.25      -0.00843653         150.214
0.515                  -0.249686        -129.777         -67.3237        -136.944         -67.3105        -136.898      -0.00852042         150.147
0.516                  -0.258764         -130.28         -67.4699        -140.739         -67.4563        -140.685      -0.00860511         150.081
0.517                  -0.268174        -130.783         -67.5894        -144.659         -67.5755        -144.596      -0.00869059         150.014
0.518                  -0.277919        -131.289         -67.6792        -148.687         -67.6652        -148.615      -0.00877689         149.948
0.519                  -0.288001        -131.796         -67.7368          -152.8         -67.7229        -152.718      -0.00886399         149.881
0.52                   -0.298421        -132.305         -67.7603        -156.971         -67.7467        -156.881      -0.00895191         149.814
0.521                  -0.309183        -132.815         -67.7486        -161.174         -67.7354        -161.074      -0.00904064         149.747
0.522                  -0.320289        -133.327         -67.7014        -165.377         -67.6889        -165.269      -0.00913021         149.681
0.523                  -0.331741        -133.841         -67.6193        -169.552         -67.6075        -169.437       -0.0092206         149.614
0.524                  -0.343541        -134.356         -67.5035        -173.671         -67.4927        -173.549      -0.00931183         149.546
0.525                  -0.355692        -134.873         -67.3562        -177.708         -67.3465        -177.581       -0.0094039         149.479
0.526                  -0.368196        -135.391         -67.1801         178.357         -67.1715         178.489      -0.00949682         149.412
0.527                  -0.381055        -135.911         -66.9782         174.541         -66.9707         174.676       -0.0095906         149.345
0.528                  -0.394272        -136.432         -66.7536         170.858         -66.7473         170.995      -0.00968523         149.277
0.529                  -0.407848        -136.955         -66.5097         167.315         -66.5045         167.453      -0.00978073          149.21
0.53                   -0.421786         -137.48         -66.2498         163.916         -66.2457         164.055       -0.0098771         149.142
0.531                  -0.436088        -138.006         -65.9768         160.663         -65.9737         160.802      -0.00997436         149.074
0.532                  -0.450757        -138.534         -65.6935         157.555         -65.6914         157.692       -0.0100725         149.006
0.533                  -0.465794        -139.063         -65.4025         154.587         -65.4013         154.723       -0.0101715         148.938
0.534                  -0.481202        -139.594         -65.1059         151.754         -65.1055         151.888       -0.0102715          148.87
0.535                  -0.496982        -140.126         -64.8056         149.049          -64.806         149.181       -0.0103723         148.802
0.536                  -0.513138         -140.66         -64.5033         146.467         -64.5044         146.595       -0.0104741         148.734
0.537                   -0.52967        -141.195         -64.2003         143.998          -64.202         144.124       -0.0105767         148.666
0.538                  -0.546582        -141.732         -63.8978         141.636         -63.9001         141.759       -0.0106804         148.597
0.539                  -0.563876         -142.27         -63.5967         139.373         -63.5995         139.493       -0.0107849         148.529
0.54                   -0.581553         -142.81         -63.2977         137.202          -63.301         137.318       -0.0108904          148.46
0.541                  -0.599616        -143.352         -63.0015         135.115         -63.0052         135.228       -0.0109969         148.391
0.542                  -0.618067        -143.894         -62.7086         133.107         -62.7126         133.217       -0.0111043         148.323
0.543                  -0.636908        -144.439         -62.4193          131.17         -62.4236         131.277       -0.0112127         148.254
0.544                  -0.656141        -144.985         -62.1338           129.3         -62.1384         129.404       -0.0113221         148.185
0.545                  -0.675768        -145.532         -61.8525          127.49         -61.8573         127.591       -0.0114325         148.116
0.546                  -0.695793        -146.081         -61.5754         125.736         -61.5803         125.834       -0.0115439         148.046
0.547                  -0.716215        -146.632         -61.3026         124.033         -61.3077         124.128       -0.0116564         147.977
0.548                  -0.737039        -147.184         -61.0341         122.376         -61.0394         122.468       -0.0117698         147.908
0.549                  -0.758266        -147.737         -60.7701         120.762         -60.7755         120.851       -0.0118843         147.838
0.55                   -0.779898        -148.292         -60.5104         119.187         -60.5159         119.273       -0.0119998         147.768
0.551                  -0.801937        -148.848         -60.2551         117.647         -60.2606          117.73       -0.0121164         147.698
0.552                  -0.824386        -149.406          -60.004         116.139         -60.0097          116.22       -0.0122341         147.629
0.553                  -0.847248        -149.966         -59.7572         114.661         -59.7629         114.739       -0.0123529         147.559
0.554                  -0.870523        -150.527         -59.5145          113.21         -59.5202         113.286       -0.0124727         147.488
0.555                  -0.894215        -151.089         -59.2759         111.783         -59.2816         111.856       -0.0125937         147.418
0.556                  -0.918326        -151.653         -59.0413         110.377          -59.047         110.448       -0.0127158         147.348
0.557                  -0.942859        -152.218         -58.8105         108.992         -58.8162         109.061        -0.012839         147.277
0.558                  -0.967815        -152.785         -58.5836         107.625         -58.5892         107.691       -0.0129634         147.207
0.559                  -0.993197        -153.354         -58.3603         106.273          -58.366         106.337        -0.013089         147.136
0.56                    -1.01901        -153.923         -58.1407         104.936         -58.1463         104.998       -0.0132157         147.065
0.561                   -1.04525        -154.495         -57.9246         103.612         -57.9301         103.672       -0.0133436         146.994
0.562                   -1.07193        -155.068         -57.7119         102.299         -57.7174         102.357       -0.0134728         146.923
0.563                   -1.09904        -155.642         -57.5025         100.996         -57.5079         101.052       -0.0136032         146.852
0.564                   -1.12659        -156.218         -57.2963         99.7014         -57.3017         99.7555       -0.0137348         146.781
0.565                   -1.15458        -156.796         -57.0934         98.4144         -57.0987         98.4667       -0.0138677         146.709
0.566                   -1.18302        -157.375         -56.8934         97.1338         -56.8987         97.1843       -0.0140018         146.638
0.567                   -1.21191        -157.956         -56.6965         95.8584         -56.7016         95.9072       -0.0141373         146.566
0.568                   -1.24124        -158.538         -56.5025         94.5874         -56.5075         94.6344        -0.014274         146.494
0.569                   -1.27103        -159.121         -56.3113         93.3197         -56.3162         93.3651       -0.0144121         146.422
0.57                    -1.30128        -159.707         -56.1228         92.0545         -56.1277         92.0982       -0.0145516          146.35
0.571                   -1.33199        -160.294          -55.937         90.7909         -55.9418          90.833       -0.0146924         146.278
0.572                   -1.36316        -160.882         -55.7538         89.5282         -55.7585         89.5688       -0.0148346         146.205
0.573                   -1.39479        -161.472         -55.5732         88.2656         -55.5778         88.3047       -0.0149783         146.133
0.574                    -1.4269        -162.064          -55.395         87.0024         -55.3995           87.04       -0.0151233          146.06
0.575                   -1.45948        -162.657         -55.2193         85.7379         -55.2236         85.7741       -0.0152698         145.987
0.576                   -1.49254        -163.252         -55.0459         84.4716         -55.0501         84.5064       -0.0154178         145.914
0.577                   -1.52607        -163.849         -54.8748         83.2028         -54.8789         83.2362       -0.0155673         145.841
0.578                    -1.5601        -164.447         -54.7059         81.9309         -54.7099         81.9629       -0.0157183         145.768
0.579                   -1.59461        -165.047         -54.5392         80.6554         -54.5432         80.6861       -0.0158709         145.694
0.58                    -1.62962        -165.648         -54.3747         79.3758         -54.3785         79.4052        -0.016025         145.621
0.581                   -1.66512        -166.251         -54.2122         78.0915         -54.2159         78.1197       -0.0161808         145.547
0.582                   -1.70113        -166.856         -54.0519         76.8021         -54.0554          76.829       -0.0163381         145.473
0.583                   -1.73765        -167.463         -53.8935         75.5071         -53.8969         75.5329       -0.0164971         145.399
0.584                   -1.77467        -168.071          -53.737         74.2062         -53.7404         74.2307       -0.0166578         145.325
0.585                   -1.81222        -168.682         -53.5825         72.8988         -53.5858         72.9222       -0.0168202          145.25
0.586                   -1.85028        -169.293         -53.4299         71.5846          -53.433         71.6069       -0.0169843         145.176
0.587                   -1.88888        -169.907         -53.2792         70.2631         -53.2821         70.2844       -0.0171502         145.101
0.588                   -1.92801        -170.523         -53.1302         68.9341         -53.1331         68.9543       -0.0173178         145.026
0.589                   -1.96767         -171.14          -52.983         67.5972         -52.9858         67.6164       -0.0174873         144.951
0.59                    -2.00789        -171.759         -52.8376          66.252         -52.8403         66.2702       -0.0176587         144.876
0.591                   -2.04865         -172.38          -52.694         64.8983         -52.6965         64.9155       -0.0178319         144.801
0.592                   -2.08998        -173.003          -52.552         63.5356         -52.5544         63.5519        -0.018007         144.725
0.593                   -2.13187        -173.628         -52.4117         62.1638         -52.4139         62.1791       -0.0181841          144.65
0.594                   -2.17433        -174.255          -52.273         60.7825         -52.2752         60.7969       -0.0183632         144.574
0.595                   -2.21737        -174.884          -52.136         59.3915          -52.138          59.405       -0.0185443         144.498
0.596                     -2.261        -175.514         -52.0006         57.9905         -52.0025         58.0032       -0.0187275         144.422
0.597                   -2.30522        -176.147         -51.8668         56.5793         -51.8686         56.5911       -0.0189128         144.345
0.598                   -2.35005        -176.782         -51.7345         55.1577         -51.7362         55.1687       -0.0191002         144.269
0.599                   -2.39549        -177.419         -51.6038         53.7254         -51.6054         53.7356       -0.0192898         144.192
0.6                     -2.44156        -178.058         -51.4747         52.2822         -51.4761         52.2916       -0.0194816         144.115
0.601                   -2.48825        -178.699         -51.3471          50.828         -51.3484         50.8367       -0.0196756         144.038
0.602                   -2.53558        -179.342         -51.2209         49.3626         -51.2221         49.3705        -0.019872          143.96
0.603                   -2.58357        -179.987         -51.0963         47.8858         -51.0974          47.893       -0.0200707         143.883
0.604                   -2.63221         179.366         -50.9732         46.3975         -50.9741          46.404       -0.0202718         143.805
0.605                   -2.68153         178.716         -50.8515         44.8975         -50.8524         44.9034       -0.0204753         143.727
0.606                   -2.73153         178.064         -50.7313         43.3857         -50.7321         43.3909       -0.0206813         143.649
0.607                   -2.78223          177.41         -50.6126          41.862         -50.6132         41.8666       -0.0208899          143.57
0.608                   -2.83363         176.754         -50.4953         40.3264         -50.4958         40.3304        -0.021101         143.492
0.609                   -2.88576         176.095         -50.3794         38.7786         -50.3798         38.7821       -0.0213147         143.413
0.61                    -2.93861         175.434          -50.265         37.2188         -50.2653         37.2217       -0.0215312         143.334
0.611                   -2.99222         174.771         -50.1519         35.6467         -50.1522         35.6491       -0.0217503         143.255
0.612                   -3.04658         174.105         -50.0404         34.0624         -50.0405         34.0643       -0.0219723         143.176
0.613                   -3.10173         173.437         -49.9302         32.4659         -49.9302         32.4673       -0.0221971         143.096
0.614                   -3.15766         172.766         -49.8214         30.8571         -49.8213          30.858       -0.0224248         143.016
0.615                    -3.2144         172.093          -49.714         29.2361         -49.7139         29.2365       -0.0226555         142.936
0.616                   -3.27197         171.418          -49.608         27.6028         -49.6078         27.6029       -0.0228892         142.856
0.617                   -3.33038          170.74         -49.5034         25.9574         -49.5031          25.957       -0.0231261         142.775
0.618                   -3.38965         170.059         -49.4002         24.2998         -49.3998         24.2991        -0.023366         142.694
0.619                   -3.44981         169.376         -49.2983         22.6302         -49.2978         22.6291       -0.0236092         142.613
0.62                    -3.51086         168.691         -49.1978         20.9486         -49.1972         20.9471       -0.0238556         142.532
0.621                   -3.57282         168.002         -49.0987         19.2551          -49.098         19.2533       -0.0241054          142.45
0.622                   -3.63573         167.311         -49.0009         17.5499         -49.0002         17.5478       -0.0243587         142.369
0.623                   -3.69961         166.618         -48.9045         15.8331         -48.9037         15.8307       -0.0246154         142.287
0.624                   -3.76447         165.922         -48.8094         14.1047         -48.8085         14.1021       -0.0248757         142.204
0.625                   -3.83033         165.223         -48.7156         12.3651         -48.7147         12.3622       -0.0251396         142.122
0.626                   -3.89723         164.522         -48.6232         10.6143         -48.6222         10.6111       -0.0254073         142.039
0.627                   -3.96519         163.818          -48.532         8.85253          -48.531         8.84919       -0.0256787         141.956
0.628                   -4.03424         163.111         -48.4422         7.08006         -48.4412         7.07653       -0.0259541         141.873
0.629                    -4.1044         162.402         -48.3537         5.29707         -48.3526         5.29338       -0.0262334         141.789
