! TOUCHSTONE file generated by CST MICROWAVE STUDIO
! Date and time: Wed Oct 28 19:21:00 2020
! Project name: Scenario_1_Circular_Tissue_out_of_Line.cst
! Parameters = {dy1=330.299; L_HA=400; MT=2.54; Rad_Dielectric=30; Rad_Lower=7.3; Rad_Upper=30; a_HA=580; a_WG=246; b_HA=500; b_WG=121; c_HA=0; c_WG=187; d_feed=85; dx1=693; h_feed=15; h_lower=18; h_upper=40}
! Header version: 2018
! Port assignment regex: !\s*Touchstone port\s*([0-9]+)\s*=\s*(CST MWS port|CST DS port)\s*([0-9]+|Zmin|Zmax)\s*\(\"(.*)\"\)(\s*mode\s*([0-9]+))?.*
! Touchstone port assignment:
! Touchstone port 1 = CST MWS port 1 ("")
! Touchstone port 2 = CST MWS port 2 ("")
# GHz S DB R 50
0.5                    -0.142411        -122.295          -64.492           161.1          -64.492           161.1      -0.00767779          151.14
0.501                  -0.145353        -122.759         -64.3493         159.534         -64.3495         159.534      -0.00773546         151.075
0.502                  -0.148688        -123.225         -64.2053         157.952         -64.2057         157.952      -0.00779388          151.01
0.503                  -0.152417        -123.692           -64.06         156.353         -64.0606         156.353      -0.00785303         150.944
0.504                  -0.156541        -124.162         -63.9135         154.738         -63.9142         154.738      -0.00791293         150.879
0.505                   -0.16106        -124.633         -63.7658         153.106         -63.7667         153.106      -0.00797358         150.813
0.506                  -0.165973        -125.105         -63.6169         151.457         -63.6179         151.457      -0.00803499         150.748
0.507                   -0.17128        -125.579         -63.4669         149.791          -63.468         149.792      -0.00809716         150.682
0.508                  -0.176981        -126.055         -63.3157         148.108          -63.317         148.109      -0.00816011         150.616
0.509                  -0.183075        -126.532         -63.1634         146.409         -63.1648          146.41      -0.00822383          150.55
0.51                   -0.189562         -127.01         -63.0101         144.692         -63.0116         144.693      -0.00828834         150.484
0.511                  -0.196441         -127.49         -62.8558         142.958         -62.8574         142.959      -0.00835364         150.418
0.512                  -0.203711        -127.972         -62.7005         141.208         -62.7022         141.209      -0.00841974         150.352
0.513                  -0.211371        -128.455         -62.5443          139.44          -62.546         139.441      -0.00848664         150.286
0.514                   -0.21942        -128.939         -62.3872         137.655          -62.389         137.656      -0.00855436          150.22
0.515                  -0.227856        -129.425         -62.2292         135.852         -62.2311         135.854       -0.0086229         150.154
0.516                  -0.236678        -129.912         -62.0705         134.033         -62.0724         134.035      -0.00869227         150.087
0.517                  -0.245885        -130.401         -61.9111         132.196          -61.913         132.198      -0.00876248         150.021
0.518                  -0.255474         -130.89         -61.7509         130.343         -61.7529         130.345      -0.00883353         149.954
0.519                  -0.265443        -131.382         -61.5902         128.472         -61.5921         128.474      -0.00890544         149.888
0.52                   -0.275791        -131.874         -61.4289         126.585         -61.4308         126.587      -0.00897821         149.821
0.521                  -0.286516        -132.368         -61.2671          124.68         -61.2691         124.683      -0.00905185         149.754
0.522                  -0.297614        -132.863         -61.1049         122.759         -61.1068         122.761      -0.00912638         149.687
0.523                  -0.309084        -133.359         -60.9423         120.821         -60.9442         120.823       -0.0092018          149.62
0.524                  -0.320923        -133.856         -60.7794         118.866         -60.7813         118.869      -0.00927811         149.553
0.525                  -0.333129        -134.355         -60.6163         116.895         -60.6182         116.898      -0.00935534         149.486
0.526                  -0.345697        -134.854         -60.4531         114.907         -60.4549         114.911      -0.00943349         149.419
0.527                  -0.358627        -135.355         -60.2898         112.904         -60.2915         112.907      -0.00951256         149.351
0.528                  -0.371914        -135.858         -60.1264         110.884         -60.1281         110.888      -0.00959258         149.284
0.529                  -0.385554        -136.361         -59.9631         108.849         -59.9648         108.853      -0.00967355         149.216
0.53                   -0.399546        -136.865            -59.8         106.799         -59.8016         106.802      -0.00975548         149.148
0.531                  -0.413886        -137.371         -59.6371         104.733         -59.6386         104.736      -0.00983839         149.081
0.532                  -0.428569        -137.878         -59.4745         102.652         -59.4759         102.656      -0.00992228         149.013
0.533                  -0.443593        -138.386         -59.3122         100.557         -59.3135         100.561       -0.0100072         148.945
0.534                  -0.458954        -138.895         -59.1504         98.4474         -59.1516          98.451       -0.0100931         148.877
0.535                  -0.474647        -139.405         -58.9891          96.324         -58.9902         96.3275         -0.01018         148.809
0.536                  -0.490669        -139.916         -58.8284         94.1871         -58.8294         94.1904       -0.0102679         148.741
0.537                  -0.507017        -140.429         -58.6683          92.037         -58.6693         92.0402       -0.0103569         148.672
0.538                  -0.523686        -140.943          -58.509         89.8741         -58.5098         89.8772        -0.010447         148.604
0.539                  -0.540671        -141.458         -58.3505          87.699         -58.3512          87.702       -0.0105381         148.535
0.54                    -0.55797        -141.974         -58.1929         85.5121         -58.1935         85.5148       -0.0106303         148.467
0.541                  -0.575577        -142.491         -58.0361         83.3138         -58.0366         83.3163       -0.0107236         148.398
0.542                  -0.593489        -143.009         -57.8804         81.1046         -57.8808         81.1068        -0.010818         148.329
0.543                  -0.611701        -143.529         -57.7257          78.885          -57.726          78.887       -0.0109135          148.26
0.544                  -0.630209         -144.05         -57.5722         76.6557         -57.5724         76.6573       -0.0110102         148.191
0.545                  -0.649009        -144.572         -57.4197          74.417         -57.4198         74.4183        -0.011108         148.122
0.546                  -0.668096        -145.095         -57.2685         72.1695         -57.2685         72.1705        -0.011207         148.053
0.547                  -0.687467         -145.62         -57.1185         69.9138         -57.1184         69.9144       -0.0113072         147.983
0.548                  -0.707117        -146.146         -56.9698         67.6505         -56.9696         67.6507       -0.0114085         147.914
0.549                  -0.727043        -146.674         -56.8224         65.3801         -56.8222         65.3799       -0.0115111         147.844
0.55                   -0.747239        -147.202         -56.6764         63.1031         -56.6761         63.1025       -0.0116149         147.775
0.551                  -0.767702        -147.733         -56.5317         60.8202         -56.5313         60.8191         -0.01172         147.705
0.552                  -0.788429        -148.264         -56.3884         58.5319          -56.388         58.5304       -0.0118263         147.635
0.553                  -0.809415        -148.798         -56.2466         56.2388          -56.246         56.2368       -0.0119339         147.565
0.554                  -0.830657        -149.332         -56.1061         53.9414         -56.1055          53.939       -0.0120427         147.495
0.555                  -0.852151        -149.869         -55.9671         51.6403         -55.9664         51.6374       -0.0121529         147.424
0.556                  -0.873895        -150.407         -55.8295          49.336         -55.8288         49.3326       -0.0122644         147.354
0.557                  -0.895884        -150.947         -55.6933          47.029         -55.6926         47.0251       -0.0123773         147.283
0.558                  -0.918116        -151.489         -55.5586         44.7198         -55.5578         44.7154       -0.0124915         147.213
0.559                   -0.94059        -152.032         -55.4252         42.4089         -55.4244         42.4041        -0.012607         147.142
0.56                   -0.963301        -152.577         -55.2933         40.0967         -55.2924         40.0915        -0.012724         147.071
0.561                  -0.986248        -153.125         -55.1627         37.7838         -55.1619         37.7782       -0.0128423             147
0.562                   -1.00943        -153.674         -55.0335         35.4705         -55.0326         35.4645       -0.0129621         146.929
0.563                   -1.03285        -154.226         -54.9056         33.1573         -54.9047         33.1508       -0.0130834         146.857
0.564                   -1.05649         -154.78          -54.779         30.8444         -54.7782         30.8376       -0.0132061         146.786
0.565                   -1.08037        -155.336         -54.6537         28.5323         -54.6529         28.5251       -0.0133302         146.715
0.566                   -1.10449        -155.894         -54.5297         26.2213         -54.5288         26.2137       -0.0134559         146.643
0.567                   -1.12883        -156.455         -54.4068         23.9115          -54.406         23.9037       -0.0135831         146.571
0.568                   -1.15341        -157.019         -54.2851         21.6034         -54.2843         21.5953       -0.0137118         146.499
0.569                   -1.17823        -157.585         -54.1646         19.2971         -54.1638         19.2888       -0.0138422         146.427
0.57                    -1.20328        -158.154         -54.0451         16.9929         -54.0443         16.9843        -0.013974         146.355
0.571                   -1.22858        -158.726         -53.9267         14.6909          -53.926         14.6821       -0.0141076         146.283
0.572                   -1.25413        -159.301         -53.8093         12.3912         -53.8086         12.3822       -0.0142427          146.21
0.573                   -1.27992        -159.879         -53.6929          10.094         -53.6922         10.0849       -0.0143796         146.137
0.574                   -1.30598         -160.46         -53.5774         7.79932         -53.5768         7.79012       -0.0145182         146.065
0.575                    -1.3323        -161.045         -53.4628         5.50729         -53.4623         5.49802       -0.0146586         145.992
0.576                   -1.35889        -161.633         -53.3491         3.21791         -53.3486          3.2086       -0.0148009         145.919
0.577                   -1.38576        -162.225         -53.2362        0.931191         -53.2358        0.921887       -0.0149451         145.846
0.578                   -1.41293        -162.821         -53.1242        -1.35287         -53.1237        -1.36214       -0.0150913         145.772
0.579                    -1.4404        -163.421         -53.0128         -3.6343         -53.0124        -3.64352       -0.0152398         145.699
0.58                    -1.46819        -164.024         -52.9022        -5.91318         -52.9019         -5.9223       -0.0153905         145.625
0.581                   -1.49632        -164.632         -52.7923        -8.18956          -52.792        -8.19856       -0.0155438         145.551
0.582                   -1.52479        -165.245          -52.683        -10.4635         -52.6828        -10.4724       -0.0156999         145.477
0.583                   -1.55364        -165.861         -52.5744        -12.7352         -52.5742        -12.7439       -0.0158589         145.403
0.584                   -1.58287        -166.483         -52.4664        -15.0048         -52.4663        -15.0132       -0.0160214         145.329
0.585                   -1.61252        -167.109          -52.359        -17.2723         -52.3589        -17.2805       -0.0161875         145.255
0.586                    -1.6426        -167.741         -52.2521        -19.5379         -52.2521        -19.5459       -0.0163577          145.18
0.587                   -1.67314        -168.377         -52.1459        -21.8018         -52.1459        -21.8095       -0.0165323         145.105
0.588                   -1.70418        -169.019         -52.0401        -24.0641         -52.0402        -24.0716       -0.0167115         145.031
0.589                   -1.73573        -169.667         -51.9349        -26.3251         -51.9351        -26.3322       -0.0168953         144.956
0.59                    -1.76784        -170.319         -51.8303        -28.5849         -51.8304        -28.5917       -0.0170837          144.88
0.591                   -1.80054        -170.978         -51.7262        -30.8437         -51.7264        -30.8501       -0.0172764         144.805
0.592                   -1.83387        -171.643         -51.6225        -33.1016         -51.6228        -33.1077       -0.0174726         144.729
0.593                   -1.86787        -172.313         -51.5195        -35.3589         -51.5197        -35.3646       -0.0176719         144.654
0.594                   -1.90259         -172.99         -51.4169        -37.6157         -51.4172         -37.621       -0.0178734         144.578
0.595                   -1.93807        -173.673         -51.3149        -39.8722         -51.3152        -39.8771       -0.0180765         144.501
0.596                   -1.97436        -174.362         -51.2134        -42.1285         -51.2138        -42.1331       -0.0182808         144.425
0.597                   -2.01152        -175.058         -51.1125         -44.385         -51.1129        -44.3892        -0.018486         144.348
0.598                    -2.0496         -175.76         -51.0122        -46.6416         -51.0126        -46.6454       -0.0186918         144.272
0.599                   -2.08866        -176.469         -50.9125        -48.8985         -50.9129         -48.902       -0.0188985         144.195
0.6                     -2.12876        -177.184         -50.8133         -51.156         -50.8138         -51.159       -0.0191062         144.118
0.601                   -2.16996        -177.906         -50.7149         -53.414         -50.7153        -53.4167        -0.019315          144.04
0.602                   -2.21234        -178.634          -50.617        -55.6728         -50.6175        -55.6751       -0.0195253         143.963
0.603                   -2.25595        -179.369         -50.5199        -57.9323         -50.5203        -57.9343       -0.0197372         143.885
0.604                   -2.30088         179.889         -50.4234        -60.1927         -50.4239        -60.1943       -0.0199511         143.807
0.605                   -2.34719         179.142         -50.3278        -62.4541         -50.3282        -62.4554       -0.0201671         143.729
0.606                   -2.39496         178.388         -50.2328        -64.7164         -50.2333        -64.7174       -0.0203854         143.651
0.607                   -2.44426         177.628         -50.1387        -66.9797         -50.1392        -66.9804       -0.0206063         143.572
0.608                   -2.49517         176.862         -50.0454         -69.244         -50.0459        -69.2444       -0.0208298         143.494
0.609                   -2.54777         176.091          -49.953        -71.5093         -49.9534        -71.5094       -0.0210561         143.415
0.61                    -2.60213         175.315         -49.8615        -73.7756         -49.8619        -73.7754       -0.0212853         143.335
0.611                   -2.65832         174.533         -49.7709        -76.0427         -49.7713        -76.0423       -0.0215176         143.256
0.612                   -2.71642         173.748         -49.6813        -78.3105         -49.6817        -78.3099       -0.0217529         143.177
0.613                    -2.7765         172.958         -49.5926        -80.5791          -49.593        -80.5783       -0.0219915         143.097
0.614                   -2.83863         172.165          -49.505        -82.8482         -49.5054        -82.8472       -0.0222334         143.017
0.615                   -2.90286         171.368         -49.4185        -85.1177         -49.4188        -85.1166       -0.0224785         142.937
0.616                   -2.96925          170.57          -49.333        -87.3875         -49.3334        -87.3862       -0.0227271         142.856
0.617                   -3.03786          169.77         -49.2487        -89.6572          -49.249        -89.6559       -0.0229792         142.776
0.618                   -3.10874         168.968         -49.1655        -91.9268         -49.1658        -91.9254       -0.0232348         142.695
0.619                    -3.1819         168.167         -49.0834         -94.196         -49.0837        -94.1945       -0.0234941         142.614
0.62                     -3.2574         167.365         -49.0026        -96.4646         -49.0029         -96.463       -0.0237569         142.532
0.621                   -3.33524         166.565         -48.9229        -98.7322         -48.9232        -98.7306       -0.0240235         142.451
0.622                   -3.41544         165.767         -48.8445        -100.999         -48.8447        -100.997       -0.0242939         142.369
0.623                   -3.49799         164.971         -48.7673        -103.264         -48.7675        -103.262       -0.0245681         142.287
0.624                   -3.58289         164.179         -48.6913        -105.527         -48.6915        -105.525       -0.0248462         142.204
0.625                   -3.67012         163.391         -48.6165        -107.788         -48.6168        -107.786       -0.0251283         142.122
0.626                   -3.75963         162.608         -48.5431        -110.046         -48.5433        -110.045       -0.0254144         142.039
0.627                   -3.85139         161.832         -48.4708        -112.302          -48.471        -112.301       -0.0257045         141.956
0.628                   -3.94534         161.062         -48.3998        -114.555            -48.4        -114.553       -0.0259988         141.872
0.629                   -4.04141         160.299         -48.3301        -116.804         -48.3302        -116.803       -0.0262972         141.789
