! TOUCHSTONE file generated by CST MICROWAVE STUDIO
! Date and time: Mon Oct 26 12:28:30 2020
! Project name: Scenario_1_Circular_Tissue_out_of_Line.cst
! Parameters = {dy1=330.299; L_HA=400; MT=2.54; Rad_Dielectric=30; Rad_Lower=7.3; Rad_Upper=30; a_HA=580; a_WG=246; b_HA=500; b_WG=121; c_HA=0; c_WG=187; d_feed=85; dx1=866; h_feed=15; h_lower=18; h_upper=40}
! Header version: 2018
! Port assignment regex: !\s*Touchstone port\s*([0-9]+)\s*=\s*(CST MWS port|CST DS port)\s*([0-9]+|Zmin|Zmax)\s*\(\"(.*)\"\)(\s*mode\s*([0-9]+))?.*
! Touchstone port assignment:
! Touchstone port 1 = CST MWS port 1 ("")
! Touchstone port 2 = CST MWS port 2 ("")
# GHz S DB R 50
0.5                    -0.152255         -122.35         -64.7434         74.4834         -64.8148         73.6312      -0.00744343         151.132
0.501                  -0.153869        -122.784         -64.6096         69.5296         -64.8183         69.0018      -0.00751492         151.067
0.502                  -0.155753         -123.22         -64.4405         64.7788         -64.7806         64.4185      -0.00758696         151.001
0.503                   -0.15791        -123.658         -64.2424          60.247          -64.704         59.9171      -0.00765955         150.936
0.504                  -0.160345        -124.099         -64.0215         55.9408         -64.5918         55.5284      -0.00773269         150.871
0.505                  -0.163064        -124.542         -63.7835          51.859         -64.4481          51.277      -0.00780641         150.805
0.506                  -0.166071        -124.988         -63.5334         47.9951          -64.277         47.1809      -0.00788069          150.74
0.507                   -0.16937        -125.437         -63.2755         44.3384         -64.0832         43.2515      -0.00795556         150.674
0.508                  -0.172968        -125.888         -63.0134         40.8758         -63.8709         39.4946      -0.00803102         150.608
0.509                  -0.176867        -126.341         -62.7499          37.593         -63.6443         35.9109      -0.00810708         150.542
0.51                   -0.181074        -126.797         -62.4873         34.4751          -63.407         32.4973      -0.00818374         150.476
0.511                  -0.185593        -127.256         -62.2275         31.5073         -63.1623         29.2476      -0.00826102         150.411
0.512                   -0.19043        -127.717         -61.9718         28.6755         -62.9129         26.1537      -0.00833892         150.344
0.513                  -0.195588         -128.18         -61.7212         25.9665         -62.6612         23.2061      -0.00841745         150.278
0.514                  -0.201074        -128.646         -61.4765         23.3677         -62.4093         20.3947      -0.00849663         150.212
0.515                  -0.206891        -129.115         -61.2382         20.8677         -62.1586         17.7089      -0.00857645         150.146
0.516                  -0.213045        -129.586         -61.0067         18.4561         -61.9106         15.1384      -0.00865694         150.079
0.517                  -0.219541        -130.059         -60.7821         16.1233         -61.6661          12.673      -0.00873809         150.013
0.518                  -0.226383        -130.535         -60.5645         13.8607          -61.426         10.3032      -0.00881992         149.946
0.519                  -0.233577        -131.013          -60.354         11.6605         -61.1909         8.01981      -0.00890244          149.88
0.52                   -0.241127        -131.494         -60.1504         9.51546         -60.9612         5.81434      -0.00898566         149.813
0.521                  -0.249038        -131.978         -59.9538         7.41929         -60.7374         3.67885      -0.00906959         149.746
0.522                  -0.257316        -132.463         -59.7638         5.36614         -60.5194           1.606      -0.00915423         149.679
0.523                  -0.265964        -132.952         -59.5805         3.35076         -60.3076       -0.410969      -0.00923961         149.612
0.524                  -0.274988        -133.442         -59.4035         1.36837          -60.102         -2.3783      -0.00932572         149.545
0.525                  -0.284392        -133.935         -59.2327       -0.585349         -59.9025        -4.30174      -0.00941258         149.478
0.526                  -0.294182        -134.431         -59.0678        -2.51435         -59.7091        -6.18654      -0.00950021         149.411
0.527                  -0.304362        -134.929         -58.9087        -4.42222         -59.5218        -8.03756       -0.0095886         149.344
0.528                  -0.314936        -135.429         -58.7552        -6.31225         -59.3404        -9.85927      -0.00967778         149.276
0.529                   -0.32591        -135.931         -58.6069        -8.18743         -59.1649        -11.6558      -0.00976775         149.209
0.53                   -0.337287        -136.436         -58.4637        -10.0505         -58.9951        -13.4308      -0.00985853         149.141
0.531                  -0.349073        -136.943         -58.3254        -11.9041         -58.8308         -15.188      -0.00995013         149.073
0.532                  -0.361272        -137.453         -58.1918        -13.7504          -58.672        -16.9304       -0.0100426         149.005
0.533                  -0.373889        -137.965         -58.0627        -15.5916         -58.5184        -18.6611       -0.0101358         148.938
0.534                  -0.386927        -138.479         -57.9377        -17.4297         -58.3698        -20.3829       -0.0102299          148.87
0.535                  -0.400391        -138.996         -57.8169        -19.2666         -58.2262        -22.0983       -0.0103249         148.801
0.536                  -0.414286        -139.514         -57.6999        -21.1039         -58.0872        -23.8098       -0.0104208         148.733
0.537                  -0.428615        -140.035         -57.5865        -22.9433         -57.9529        -25.5196       -0.0105176         148.665
0.538                  -0.443383        -140.558         -57.4767        -24.7862         -57.8229        -27.2298       -0.0106153         148.597
0.539                  -0.458594        -141.084         -57.3701        -26.6339         -57.6971        -28.9423       -0.0107138         148.528
0.54                   -0.474252        -141.611         -57.2666        -28.4879         -57.5753         -30.659       -0.0108134         148.459
0.541                   -0.49036        -142.141         -57.1661        -30.3492         -57.4573        -32.3816       -0.0109139         148.391
0.542                  -0.506923        -142.673         -57.0682         -32.219         -57.3431        -34.1118       -0.0110153         148.322
0.543                  -0.523944        -143.207          -56.973        -34.0983         -57.2323        -35.8509       -0.0111177         148.253
0.544                  -0.541426        -143.743         -56.8802        -35.9881         -57.1248        -37.6006       -0.0112211         148.184
0.545                  -0.559375        -144.281         -56.7896        -37.8892         -57.0205        -39.3621       -0.0113255         148.115
0.546                  -0.577791        -144.822          -56.701        -39.8026         -56.9191        -41.1366        -0.011431         148.046
0.547                   -0.59668        -145.364         -56.6144         -41.729         -56.8205        -42.9255       -0.0115375         147.976
0.548                  -0.616045        -145.908         -56.5295        -43.6691         -56.7245        -44.7297        -0.011645         147.907
0.549                  -0.635887        -146.455         -56.4462        -45.6236         -56.6309        -46.5503       -0.0117536         147.837
0.55                   -0.656212        -147.003         -56.3643         -47.593         -56.5396        -48.3884       -0.0118633         147.768
0.551                   -0.67702        -147.553         -56.2836         -49.578         -56.4503        -50.2447       -0.0119741         147.698
0.552                  -0.698315        -148.106         -56.2041         -51.579         -56.3629        -52.1202        -0.012086         147.628
0.553                  -0.720101         -148.66         -56.1255        -53.5965         -56.2773        -54.0155       -0.0121991         147.558
0.554                  -0.742378        -149.216         -56.0477        -55.6308         -56.1931        -55.9315       -0.0123133         147.488
0.555                   -0.76515        -149.774         -55.9706        -57.6823         -56.1104        -57.8687       -0.0124287         147.417
0.556                  -0.788419        -150.334          -55.894        -59.7512         -56.0288        -59.8277       -0.0125453         147.347
0.557                  -0.812186        -150.895         -55.8177        -61.8379         -55.9481         -61.809       -0.0126631         147.277
0.558                  -0.836455        -151.459         -55.7417        -63.9424         -55.8683        -63.8131       -0.0127821         147.206
0.559                  -0.861226        -152.024         -55.6657         -66.065         -55.7892        -65.8402       -0.0129024         147.135
0.56                   -0.886502        -152.591         -55.5896        -68.2056         -55.7104        -67.8907       -0.0130239         147.064
0.561                  -0.912284         -153.16         -55.5134        -70.3643          -55.632        -69.9647       -0.0131468         146.993
0.562                  -0.938574        -153.731         -55.4368        -72.5411         -55.5536        -72.0625       -0.0132709         146.922
0.563                  -0.965372        -154.303         -55.3598        -74.7358         -55.4752         -74.184       -0.0133964         146.851
0.564                   -0.99268        -154.877         -55.2822        -76.9484         -55.3965        -76.3293       -0.0135233          146.78
0.565                    -1.0205        -155.453         -55.2039        -79.1787         -55.3175        -78.4982       -0.0136515         146.708
0.566                   -1.04883         -156.03         -55.1248        -81.4264         -55.2378        -80.6907       -0.0137811         146.636
0.567                   -1.07767         -156.61         -55.0448        -83.6912         -55.1574        -82.9063       -0.0139121         146.565
0.568                   -1.10703         -157.19         -54.9637        -85.9728         -55.0761        -85.1449       -0.0140446         146.493
0.569                    -1.1369        -157.773         -54.8815        -88.2709         -54.9938         -87.406       -0.0141785         146.421
0.57                    -1.16728        -158.357         -54.7982         -90.585         -54.9104        -89.6891        -0.014314         146.348
0.571                   -1.19818        -158.942         -54.7135        -92.9146         -54.8256        -91.9938       -0.0144509         146.276
0.572                   -1.22959        -159.529         -54.6275        -95.2593         -54.7394        -94.3193       -0.0145894         146.204
0.573                   -1.26151        -160.118         -54.5401        -97.6185         -54.6517         -96.665       -0.0147294         146.131
0.574                   -1.29395        -160.708         -54.4512        -99.9916         -54.5624        -99.0302       -0.0148711         146.058
0.575                    -1.3269          -161.3         -54.3607        -102.378         -54.4714        -101.414       -0.0150143         145.985
0.576                   -1.36036        -161.894         -54.2687        -104.777         -54.3785        -103.816       -0.0151593         145.912
0.577                   -1.39433        -162.489          -54.175        -107.189         -54.2838        -106.234       -0.0153058         145.839
0.578                   -1.42881        -163.086         -54.0798        -109.611         -54.1872        -108.669       -0.0154541         145.766
0.579                    -1.4638        -163.684         -53.9829        -112.045         -54.0886        -111.118       -0.0156041         145.692
0.58                    -1.49931        -164.283         -53.8843        -114.488          -53.988        -113.582       -0.0157559         145.619
0.581                   -1.53531        -164.885         -53.7841        -116.941         -53.8855        -116.059       -0.0159094         145.545
0.582                   -1.57183        -165.488         -53.6823        -119.403         -53.7809        -118.547       -0.0160647         145.471
0.583                   -1.60885        -166.092         -53.5788        -121.872         -53.6744        -121.047       -0.0162219         145.397
0.584                   -1.64637        -166.698         -53.4738        -124.349         -53.5659        -123.556        -0.016381         145.323
0.585                   -1.68439        -167.306         -53.3672        -126.832         -53.4555        -126.074        -0.016542         145.248
0.586                   -1.72291        -167.915         -53.2592        -129.321         -53.3433          -128.6       -0.0167049         145.174
0.587                   -1.76193        -168.526         -53.1497        -131.815         -53.2292        -131.133       -0.0168699         145.099
0.588                   -1.80145        -169.139         -53.0388        -134.314         -53.1134        -133.672       -0.0170368         145.024
0.589                   -1.84146        -169.754         -52.9266        -136.817          -52.996        -136.216       -0.0172057         144.949
0.59                    -1.88197         -170.37         -52.8132        -139.323         -52.8771        -138.764       -0.0173768         144.874
0.591                   -1.92296        -170.988         -52.6987        -141.832         -52.7568        -141.315       -0.0175499         144.798
0.592                   -1.96445        -171.608         -52.5831        -144.343         -52.6351        -143.868       -0.0177252         144.723
0.593                   -2.00642        -172.229         -52.4665        -146.856         -52.5122        -146.422       -0.0179027         144.647
0.594                   -2.04889        -172.853          -52.349         -149.37         -52.3883        -148.978       -0.0180824         144.571
0.595                   -2.09183        -173.479         -52.2308        -151.885         -52.2634        -151.534       -0.0182644         144.495
0.596                   -2.13526        -174.107         -52.1118          -154.4         -52.1378        -154.089       -0.0184487         144.419
0.597                   -2.17918        -174.736         -51.9924        -156.915         -52.0114        -156.643       -0.0186353         144.342
0.598                   -2.22357        -175.368         -51.8724        -159.429         -51.8846        -159.195       -0.0188244         144.265
0.599                   -2.26845        -176.003         -51.7521        -161.942         -51.7574        -161.745       -0.0190158         144.189
0.6                     -2.31381        -176.639         -51.6315        -164.455           -51.63        -164.293       -0.0192097         144.112
0.601                   -2.35965        -177.278         -51.5108        -166.965         -51.5024        -166.837       -0.0194062         144.034
0.602                   -2.40598         -177.92         -51.3901        -169.474          -51.375        -169.378       -0.0196052         143.957
0.603                   -2.45279        -178.564         -51.2694        -171.981         -51.2477        -171.916       -0.0198068         143.879
0.604                   -2.50009        -179.212         -51.1489        -174.486         -51.1208        -174.449        -0.020011         143.801
0.605                   -2.54788        -179.862         -51.0287        -176.988         -50.9943        -176.979       -0.0202179         143.723
0.606                   -2.59616         179.485         -50.9089        -179.487         -50.8685        -179.504       -0.0204276         143.645
0.607                   -2.64494         178.829         -50.7896         178.016         -50.7434         177.976       -0.0206401         143.567
0.608                   -2.69422         178.169         -50.6709         175.523         -50.6191          175.46       -0.0208554         143.488
0.609                   -2.74401         177.506         -50.5529         173.032         -50.4958          172.95       -0.0210735         143.409
0.61                    -2.79433         176.839         -50.4356         170.544         -50.3736         170.444       -0.0212946          143.33
0.611                   -2.84517         176.169         -50.3192          168.06         -50.2526         167.943       -0.0215187         143.251
0.612                   -2.89655         175.494         -50.2038          165.58         -50.1329         165.447       -0.0217458         143.171
0.613                   -2.94848         174.815         -50.0894         163.102         -50.0145         162.956        -0.021976         143.092
0.614                   -3.00098         174.131         -49.9761         160.629         -49.8977         160.471       -0.0222092         143.012
0.615                   -3.05407         173.443          -49.864         158.158         -49.7824          157.99       -0.0224456         142.932
0.616                   -3.10777         172.749         -49.7532         155.692         -49.6687         155.515       -0.0226852         142.851
0.617                    -3.1621         172.051         -49.6437         153.229         -49.5568         153.044       -0.0229279         142.771
0.618                   -3.21709         171.347         -49.5356          150.77         -49.4466         150.579       -0.0231739          142.69
0.619                   -3.27277         170.637         -49.4289         148.315         -49.3382         148.119       -0.0234231         142.609
0.62                    -3.32918          169.92         -49.3237         145.863         -49.2317         145.664       -0.0236754         142.528
0.621                   -3.38635         169.198           -49.22         143.415         -49.1272         143.214       -0.0239309         142.446
0.622                   -3.44434         168.468          -49.118         140.972         -49.0246         140.768       -0.0241895         142.364
0.623                   -3.50319         167.732         -49.0175         138.532         -48.9239         138.328        -0.024451         142.282
0.624                   -3.56296         166.988         -48.9187         136.096         -48.8253         135.892       -0.0247153           142.2
0.625                   -3.62372         166.236         -48.8216         133.663         -48.7287         133.462        -0.024982         142.117
0.626                   -3.68554         165.476         -48.7262         131.235         -48.6342         131.036        -0.025251         142.035
0.627                   -3.74849         164.708         -48.6325         128.811         -48.5417         128.615       -0.0255216         141.952
0.628                   -3.81268          163.93         -48.5405         126.391         -48.4513         126.198       -0.0257934         141.868
0.629                   -3.87819         163.144         -48.4503         123.975         -48.3629         123.786       -0.0260656         141.785
