! TOUCHSTONE file generated by CST MICROWAVE STUDIO
! Date and time: Sat Oct 24 11:50:27 2020
! Project name: Scenario_1_Circular_Tissue_out_of_Line.cst
! Parameters = {dy1=330.299; L_HA=400; MT=2.54; Rad_Dielectric=30; Rad_Lower=7.3; Rad_Upper=30; a_HA=580; a_WG=246; b_HA=500; b_WG=121; c_HA=0; c_WG=187; d_feed=85; dx1=1039; h_feed=15; h_lower=18; h_upper=40}
! Header version: 2018
! Port assignment regex: !\s*Touchstone port\s*([0-9]+)\s*=\s*(CST MWS port|CST DS port)\s*([0-9]+|Zmin|Zmax)\s*\(\"(.*)\"\)(\s*mode\s*([0-9]+))?.*
! Touchstone port assignment:
! Touchstone port 1 = CST MWS port 1 ("")
! Touchstone port 2 = CST MWS port 2 ("")
# GHz S DB R 50
0.5                    -0.142333        -122.203         -65.4971         -23.645         -65.3651        -24.1705      -0.00757535         151.143
0.501                  -0.148453        -122.657         -65.3517        -26.3062         -65.2253        -26.8165      -0.00763371         151.078
0.502                   -0.15481        -123.113         -65.2022        -28.9492         -65.0814        -29.4453      -0.00769295         151.012
0.503                  -0.161404         -123.57         -65.0491        -31.5737         -64.9338        -32.0565      -0.00775308         150.947
0.504                  -0.168236        -124.029         -64.8926        -34.1798         -64.7827        -34.6502      -0.00781411         150.882
0.505                  -0.175308        -124.489          -64.733        -36.7675         -64.6284        -37.2264      -0.00787603         150.816
0.506                  -0.182621        -124.951         -64.5706        -39.3371         -64.4713        -39.7851      -0.00793885          150.75
0.507                  -0.190174        -125.414         -64.4058        -41.8889         -64.3116        -42.3268      -0.00800258         150.685
0.508                   -0.19797        -125.879         -64.2387        -44.4233         -64.1495        -44.8517      -0.00806721         150.619
0.509                   -0.20601        -126.346         -64.0697         -46.941         -63.9853        -47.3604      -0.00813277         150.553
0.51                   -0.214293        -126.814         -63.8989        -49.4425         -63.8193        -49.8535      -0.00819924         150.487
0.511                  -0.222821        -127.283         -63.7267        -51.9286         -63.6517        -52.3316      -0.00826664         150.421
0.512                  -0.231595        -127.754         -63.5531        -54.3999         -63.4827        -54.7953      -0.00833496         150.355
0.513                  -0.240616        -128.227         -63.3785        -56.8574         -63.3124        -57.2455      -0.00840423         150.289
0.514                  -0.249883        -128.701          -63.203        -59.3018         -63.1411        -59.6829      -0.00847443         150.223
0.515                  -0.259399        -129.176         -63.0267        -61.7341          -62.969        -62.1084      -0.00854558         150.156
0.516                  -0.269162        -129.653         -62.8499         -64.155         -62.7961        -64.5228      -0.00861768          150.09
0.517                  -0.279175        -130.132         -62.6727        -66.5656         -62.6228         -66.927      -0.00869074         150.023
0.518                  -0.289437        -130.612         -62.4952        -68.9668          -62.449        -69.3218      -0.00876476         149.957
0.519                   -0.29995        -131.094         -62.3176        -71.3594          -62.275        -71.7083      -0.00883976          149.89
0.52                   -0.310712        -131.577           -62.14        -73.7444         -62.1008        -74.0871      -0.00891573         149.824
0.521                  -0.321726        -132.062         -61.9625        -76.1227         -61.9267        -76.4593      -0.00899268         149.757
0.522                  -0.332991        -132.548         -61.7852        -78.4952         -61.7525        -78.8258      -0.00907062          149.69
0.523                  -0.344508        -133.036         -61.6081        -80.8629         -61.5786        -81.1873      -0.00914956         149.623
0.524                  -0.356277        -133.526         -61.4315        -83.2266         -61.4049        -83.5449       -0.0092295         149.556
0.525                  -0.368298        -134.017         -61.2553        -85.5871         -61.2315        -85.8992      -0.00931045         149.489
0.526                  -0.380572         -134.51         -61.0796        -87.9454         -61.0586        -88.2512      -0.00939242         149.421
0.527                  -0.393098        -135.004         -60.9045        -90.3021         -60.8861        -90.6017      -0.00947541         149.354
0.528                  -0.405878          -135.5         -60.7301        -92.6583         -60.7142        -92.9515      -0.00955944         149.286
0.529                  -0.418911        -135.997         -60.5564        -95.0145         -60.5429        -95.3013      -0.00964451         149.219
0.53                   -0.432197        -136.497         -60.3835        -97.3717         -60.3722        -97.6519      -0.00973063         149.151
0.531                  -0.445737        -136.997         -60.2114        -99.7304         -60.2023        -100.004      -0.00981781         149.084
0.532                  -0.459531          -137.5         -60.0402        -102.091          -60.033        -102.358      -0.00990605         149.016
0.533                  -0.473578        -138.004         -59.8699        -104.456         -59.8646        -104.716      -0.00999537         148.948
0.534                   -0.48788         -138.51         -59.7005        -106.823         -59.6971        -107.076       -0.0100858          148.88
0.535                  -0.502435        -139.017         -59.5321        -109.195         -59.5304        -109.441       -0.0101773         148.812
0.536                  -0.517245        -139.526         -59.3647        -111.572         -59.3646        -111.811       -0.0102699         148.744
0.537                   -0.53231        -140.037         -59.1983        -113.954         -59.1997        -114.186       -0.0103636         148.675
0.538                  -0.547629         -140.55          -59.033        -116.342         -59.0358        -116.567       -0.0104584         148.607
0.539                  -0.563203        -141.065         -58.8688        -118.737         -58.8729        -118.954       -0.0105544         148.538
0.54                   -0.579032        -141.581         -58.7057        -121.138          -58.711        -121.349       -0.0106515          148.47
0.541                  -0.595117        -142.099         -58.5437        -123.547         -58.5502         -123.75       -0.0107498         148.401
0.542                  -0.611457        -142.619         -58.3829        -125.964         -58.3904        -126.159       -0.0108493         148.332
0.543                  -0.628053        -143.141         -58.2233        -128.389         -58.2317        -128.577       -0.0109499         148.263
0.544                  -0.644906        -143.665         -58.0649        -130.822         -58.0741        -131.003       -0.0110517         148.194
0.545                  -0.662017        -144.191         -57.9077        -133.264         -57.9177        -133.438       -0.0111547         148.125
0.546                  -0.679385        -144.718         -57.7517        -135.716         -57.7624        -135.882       -0.0112589         148.056
0.547                  -0.697011        -145.248          -57.597        -138.176         -57.6082        -138.335       -0.0113644         147.986
0.548                  -0.714898         -145.78         -57.4435        -140.647         -57.4553        -140.798       -0.0114711         147.917
0.549                  -0.733045        -146.314         -57.2913        -143.127         -57.3035        -143.271        -0.011579         147.847
0.55                   -0.751454         -146.85         -57.1404        -145.618          -57.153        -145.755       -0.0116883         147.778
0.551                  -0.770127        -147.389         -56.9908        -148.118         -57.0036        -148.248       -0.0117988         147.708
0.552                  -0.789064        -147.929         -56.8425        -150.629         -56.8556        -150.752       -0.0119106         147.638
0.553                  -0.808269        -148.472         -56.6956        -153.151         -56.7087        -153.266       -0.0120237         147.568
0.554                  -0.827743        -149.017         -56.5499        -155.683         -56.5632        -155.791       -0.0121381         147.498
0.555                  -0.847489        -149.565         -56.4056        -158.225         -56.4189        -158.327       -0.0122539         147.428
0.556                   -0.86751        -150.115         -56.2627        -160.778         -56.2759        -160.873        -0.012371         147.357
0.557                  -0.887808        -150.667         -56.1211        -163.342         -56.1343         -163.43       -0.0124895         147.287
0.558                  -0.908389        -151.223         -55.9809        -165.916         -55.9939        -165.998       -0.0126094         147.216
0.559                  -0.929255        -151.781          -55.842          -168.5         -55.8549        -168.576       -0.0127307         147.145
0.56                   -0.950412        -152.341         -55.7045        -171.095         -55.7171        -171.165       -0.0128535         147.075
0.561                  -0.971864        -152.905         -55.5684          -173.7         -55.5808        -173.764       -0.0129776         147.004
0.562                  -0.993618        -153.471         -55.4337        -176.314         -55.4458        -176.373       -0.0131033         146.932
0.563                   -1.01568         -154.04         -55.3003        -178.939         -55.3121        -178.992       -0.0132304         146.861
0.564                   -1.03806        -154.612         -55.1684         178.427         -55.1798         178.379        -0.013359          146.79
0.565                   -1.06076        -155.188         -55.0378         175.783         -55.0488         175.741       -0.0134892         146.718
0.566                   -1.08379        -155.766         -54.9086          173.13         -54.9192         173.093       -0.0136208         146.647
0.567                   -1.10717        -156.348         -54.7807         170.468          -54.791         170.436       -0.0137541         146.575
0.568                    -1.1309        -156.933         -54.6543         167.798         -54.6641          167.77       -0.0138889         146.503
0.569                     -1.155        -157.522         -54.5292         165.119         -54.5386         165.096       -0.0140253         146.431
0.57                    -1.17947        -158.115         -54.4055         162.433         -54.4145         162.414       -0.0141633         146.359
0.571                   -1.20434        -158.711         -54.2831         159.738         -54.2917         159.723        -0.014303         146.286
0.572                   -1.22962        -159.311         -54.1621         157.036         -54.1702         157.026       -0.0144444         146.214
0.573                   -1.25533        -159.914         -54.0424         154.328         -54.0502         154.321       -0.0145875         146.141
0.574                   -1.28149        -160.522         -53.9241         151.613         -53.9314         151.609       -0.0147323         146.069
0.575                   -1.30811        -161.134          -53.807         148.891          -53.814         148.891       -0.0148788         145.996
0.576                   -1.33523         -161.75         -53.6913         146.164         -53.6979         146.168       -0.0150271         145.923
0.577                   -1.36287        -162.371         -53.5768         143.432         -53.5831         143.438       -0.0151772          145.85
0.578                   -1.39105        -162.995         -53.4636         140.694         -53.4696         140.704       -0.0153291         145.776
0.579                   -1.41981        -163.625         -53.3517         137.952         -53.3574         137.965       -0.0154829         145.703
0.58                    -1.44918        -164.258          -53.241         135.206         -53.2464         135.222       -0.0156385         145.629
0.581                   -1.47918        -164.897         -53.1315         132.457         -53.1367         132.475       -0.0157961         145.556
0.582                   -1.50987         -165.54         -53.0233         129.703         -53.0282         129.724       -0.0159556         145.482
0.583                   -1.54127        -166.188         -52.9162         126.948          -52.921         126.971       -0.0161171         145.408
0.584                   -1.57344        -166.841         -52.8102         124.189         -52.8149         124.215       -0.0162805         145.333
0.585                   -1.60641        -167.498         -52.7054         121.429           -52.71         121.458        -0.016446         145.259
0.586                   -1.64023        -168.161         -52.6017         118.667         -52.6063         118.698       -0.0166136         145.184
0.587                   -1.67496        -168.828         -52.4991         115.904         -52.5037         115.938       -0.0167832          145.11
0.588                   -1.71064          -169.5         -52.3976          113.14         -52.4021         113.176        -0.016955         145.035
0.589                   -1.74733        -170.176         -52.2971         110.375         -52.3017         110.414       -0.0171289          144.96
0.59                    -1.78508        -170.857         -52.1976         107.611         -52.2023         107.653       -0.0173051         144.884
0.591                   -1.82395        -171.543         -52.0992         104.847          -52.104         104.891       -0.0174834         144.809
0.592                     -1.864        -172.233         -52.0017         102.084         -52.0067         102.131       -0.0176641         144.734
0.593                   -1.90528        -172.927         -51.9051          99.322         -51.9103         99.3712        -0.017847         144.658
0.594                   -1.94785        -173.624         -51.8095         96.5614         -51.8149         96.6133       -0.0180322         144.582
0.595                   -1.99177        -174.325         -51.7147         93.8025         -51.7204         93.8572       -0.0182199         144.506
0.596                   -2.03708        -175.029         -51.6209         91.0458         -51.6269         91.1032       -0.0184099          144.43
0.597                   -2.08383        -175.736         -51.5279         88.2914         -51.5342         88.3518       -0.0186024         144.353
0.598                   -2.13208        -176.445         -51.4357         85.5398         -51.4424         85.6031       -0.0187974         144.276
0.599                   -2.18184        -177.155         -51.3443         82.7912         -51.3513         82.8574       -0.0189949           144.2
0.6                     -2.23317        -177.866         -51.2537         80.0458         -51.2611         80.1151       -0.0191949         144.123
0.601                   -2.28606        -178.579         -51.1639         77.3039         -51.1717         77.3763       -0.0193976         144.045
0.602                   -2.34054         -179.29         -51.0748         74.5657          -51.083         74.6414       -0.0196029         143.968
0.603                   -2.39661         179.998         -50.9864         71.8315         -50.9951         71.9104       -0.0198108          143.89
0.604                   -2.45424         179.289         -50.8988         69.1015         -50.9078         69.1837       -0.0200215         143.813
0.605                   -2.51342         178.581         -50.8118         66.3759         -50.8212         66.4614        -0.020235         143.735
0.606                   -2.57411         177.876         -50.7254         63.6548         -50.7353         63.7437       -0.0204512         143.657
0.607                   -2.63625         177.175         -50.6397         60.9384           -50.65         61.0307       -0.0206702         143.578
0.608                   -2.69977         176.477         -50.5546         58.2268         -50.5654         58.3226       -0.0208922           143.5
0.609                    -2.7646         175.785         -50.4701         55.5203         -50.4813         55.6195        -0.021117         143.421
0.61                    -2.83064         175.097         -50.3861         52.8189         -50.3978         52.9215       -0.0213447         143.342
0.611                   -2.89778         174.414         -50.3028         50.1227         -50.3148         50.2288       -0.0215754         143.263
0.612                   -2.96592         173.738           -50.22         47.4319         -50.2324         47.5414       -0.0218091         143.183
0.613                   -3.03494         173.067         -50.1377         44.7466         -50.1505         44.8593       -0.0220459         143.104
0.614                   -3.10471         172.402         -50.0559         42.0667         -50.0691         42.1827       -0.0222856         143.024
0.615                    -3.1751         171.743         -49.9747         39.3924         -49.9882         39.5116       -0.0225285         142.944
0.616                     -3.246          171.09         -49.8939         36.7238         -49.9077          36.846       -0.0227745         142.863
0.617                   -3.31727         170.443         -49.8136         34.0608         -49.8277          34.186       -0.0230236         142.783
0.618                   -3.38881           169.8         -49.7337         31.4035         -49.7481         31.5315       -0.0232758         142.702
0.619                    -3.4605         169.163         -49.6543          28.752         -49.6689         28.8826       -0.0235313         142.621
0.62                    -3.53225         168.529         -49.5753         26.1062         -49.5901         26.2393       -0.0237899          142.54
0.621                   -3.60397         167.899         -49.4968         23.4663         -49.5117         23.6016       -0.0240517         142.458
0.622                    -3.6756         167.272         -49.4186          20.832         -49.4337         20.9694       -0.0243167         142.377
0.623                   -3.74707         166.646         -49.3408         18.2035          -49.356         18.3427        -0.024585         142.295
0.624                   -3.81836         166.022         -49.2634         15.5808         -49.2787         15.7214       -0.0248566         142.212
0.625                   -3.88943         165.397         -49.1864         12.9638         -49.2017         13.1056       -0.0251314          142.13
0.626                   -3.96027         164.772         -49.1097         10.3524          -49.125         10.4952       -0.0254095         142.047
0.627                   -4.03091         164.146         -49.0334         7.74673         -49.0487         7.89011       -0.0256909         141.964
0.628                   -4.10135         163.517         -48.9573         5.14663         -48.9726         5.29028       -0.0259757         141.881
0.629                   -4.17164         162.885         -48.8816         2.55209         -48.8968         2.69564       -0.0262639         141.797
