! TOUCHSTONE file generated by CST MICROWAVE STUDIO
! Date and time: Wed Oct 28 19:41:05 2020
! Project name: Scenario_1_Circular_Tissue_out_of_Line_v2.cst
! Parameters = {dy1=346; L_HA=400; MT=2.54; Rad_Dielectric=30; Rad_Lower=7.3; Rad_Upper=30; a_HA=580; a_WG=246; b_HA=500; b_WG=121; c_HA=0; c_WG=187; d_feed=85; dx1=346; h_feed=15; h_lower=18; h_upper=40}
! Header version: 2018
! Port assignment regex: !\s*Touchstone port\s*([0-9]+)\s*=\s*(CST MWS port|CST DS port)\s*([0-9]+|Zmin|Zmax)\s*\(\"(.*)\"\)(\s*mode\s*([0-9]+))?.*
! Touchstone port assignment:
! Touchstone port 1 = CST MWS port 1 ("")
! Touchstone port 2 = CST MWS port 2 ("")
# GHz S DB R 50
0.5                    -0.139114        -122.267         -64.4898        -24.9724         -64.4898        -24.9724      -0.00774539         151.133
0.501                  -0.146067         -122.74         -64.2975        -26.9453         -64.2978         -26.944      -0.00780197         151.068
0.502                  -0.153276        -123.214         -64.1066        -28.8854         -64.1073        -28.8829      -0.00785934         151.003
0.503                  -0.160739        -123.689         -63.9173        -30.7947         -63.9183        -30.7912      -0.00791749         150.937
0.504                  -0.168458        -124.166         -63.7296        -32.6751         -63.7308        -32.6708      -0.00797644         150.872
0.505                  -0.176431        -124.643         -63.5436        -34.5285         -63.5451        -34.5235       -0.0080362         150.806
0.506                  -0.184661        -125.121         -63.3594        -36.3566         -63.3611        -36.3509      -0.00809676         150.741
0.507                  -0.193145          -125.6         -63.1769         -38.161         -63.1789        -38.1548      -0.00815815         150.675
0.508                  -0.201885        -126.081         -62.9964        -39.9434         -62.9986        -39.9367      -0.00822036         150.609
0.509                   -0.21088        -126.562         -62.8176        -41.7052           -62.82        -41.6981       -0.0082834         150.543
0.51                    -0.22013        -127.045         -62.6408        -43.4478         -62.6433        -43.4404      -0.00834729         150.477
0.511                  -0.229636        -127.529         -62.4658        -45.1726         -62.4685         -45.165      -0.00841202         150.411
0.512                  -0.239398        -128.013         -62.2927        -46.8809         -62.2956        -46.8731      -0.00847762         150.345
0.513                  -0.249415        -128.499         -62.1215         -48.574         -62.1244         -48.566      -0.00854407         150.279
0.514                  -0.259687        -128.986         -61.9521        -50.2528         -61.9552        -50.2448      -0.00861141         150.213
0.515                  -0.270215        -129.474         -61.7846        -51.9187         -61.7877        -51.9105      -0.00867962         150.146
0.516                  -0.280999        -129.963         -61.6189        -53.5725         -61.6221        -53.5643      -0.00874873          150.08
0.517                  -0.292038        -130.453          -61.455        -55.2153         -61.4582         -55.207      -0.00881873         150.013
0.518                  -0.303333        -130.944         -61.2928        -56.8479         -61.2961        -56.8398      -0.00888965         149.947
0.519                  -0.314883        -131.436         -61.1324        -58.4714         -61.1357        -58.4633      -0.00896148          149.88
0.52                   -0.326689         -131.93         -60.9737        -60.0866          -60.977        -60.0785      -0.00903424         149.813
0.521                   -0.33875        -132.424         -60.8166        -61.6941           -60.82        -61.6861      -0.00910793         149.746
0.522                  -0.351067         -132.92         -60.6613        -63.2949         -60.6646         -63.287      -0.00918257         149.679
0.523                   -0.36364        -133.417         -60.5075        -64.8896         -60.5108        -64.8818      -0.00925817         149.612
0.524                  -0.376469        -133.915         -60.3553         -66.479         -60.3586        -66.4712      -0.00933473         149.545
0.525                  -0.389554        -134.414         -60.2046        -68.0636         -60.2079         -68.056      -0.00941227         149.478
0.526                  -0.402896        -134.914         -60.0554        -69.6441         -60.0587        -69.6366      -0.00949079         149.411
0.527                  -0.416493        -135.415         -59.9077        -71.2211          -59.911        -71.2138      -0.00957031         149.343
0.528                  -0.430347        -135.918         -59.7614        -72.7952         -59.7647         -72.788      -0.00965084         149.276
0.529                  -0.444458        -136.422         -59.6166        -74.3668         -59.6198        -74.3598      -0.00973238         149.208
0.53                   -0.458826        -136.927          -59.473        -75.9366         -59.4762        -75.9298      -0.00981495          149.14
0.531                  -0.473451        -137.433         -59.3309         -77.505         -59.3339        -77.4983      -0.00989856         149.073
0.532                  -0.488334        -137.941           -59.19        -79.0725          -59.193         -79.066      -0.00998321         149.005
0.533                  -0.503475        -138.449         -59.0503        -80.6396         -59.0533        -80.6332       -0.0100689         148.937
0.534                  -0.518875        -138.959         -58.9119        -82.2065         -58.9148        -82.2003       -0.0101557         148.869
0.535                  -0.534533        -139.471         -58.7747        -83.7739         -58.7775        -83.7678       -0.0102436           148.8
0.536                   -0.55045        -139.983         -58.6387         -85.342         -58.6414        -85.3361       -0.0103326         148.732
0.537                  -0.566628        -140.497         -58.5038        -86.9113         -58.5064        -86.9056       -0.0104227         148.664
0.538                  -0.583066        -141.013           -58.37        -88.4821         -58.3725        -88.4765       -0.0105139         148.595
0.539                  -0.599766        -141.529         -58.2372        -90.0547         -58.2397        -90.0493       -0.0106062         148.527
0.54                   -0.616727        -142.047         -58.1055        -91.6294         -58.1079        -91.6242       -0.0106997         148.458
0.541                  -0.633952        -142.567         -57.9748        -93.2067         -57.9771        -93.2016       -0.0107943         148.389
0.542                   -0.65144        -143.087         -57.8451        -94.7867         -57.8473        -94.7818       -0.0108901          148.32
0.543                  -0.669193         -143.61         -57.7164        -96.3698         -57.7185        -96.3651       -0.0109871         148.251
0.544                  -0.687211        -144.133         -57.5885        -97.9563         -57.5906        -97.9517       -0.0110853         148.182
0.545                  -0.705497        -144.658         -57.4616        -99.5463         -57.4635        -99.5419       -0.0111848         148.113
0.546                   -0.72405        -145.185         -57.3356         -101.14         -57.3374        -101.136       -0.0112854         148.044
0.547                  -0.742874        -145.713         -57.2104        -102.738         -57.2122        -102.734       -0.0113873         147.974
0.548                  -0.761968        -146.243         -57.0861         -104.34         -57.0877        -104.336       -0.0114904         147.905
0.549                  -0.781334        -146.775         -56.9626        -105.947         -56.9641        -105.943       -0.0115949         147.835
0.55                   -0.800975        -147.308         -56.8398        -107.559         -56.8413        -107.555       -0.0117006         147.765
0.551                  -0.820891        -147.842         -56.7179        -109.175         -56.7192        -109.172       -0.0118076         147.695
0.552                  -0.841085        -148.379         -56.5967        -110.797         -56.5979        -110.793       -0.0119159         147.625
0.553                  -0.861559        -148.917         -56.4762        -112.424         -56.4773         -112.42       -0.0120256         147.555
0.554                  -0.882315        -149.456         -56.3565        -114.056         -56.3575        -114.053       -0.0121366         147.485
0.555                  -0.903355        -149.998         -56.2374        -115.694         -56.2384        -115.691        -0.012249         147.415
0.556                  -0.924681        -150.541         -56.1191        -117.338         -56.1199        -117.335       -0.0123627         147.344
0.557                  -0.946297        -151.086         -56.0014        -118.987         -56.0021        -118.984       -0.0124779         147.274
0.558                  -0.968204        -151.633         -55.8844        -120.643          -55.885         -120.64       -0.0125945         147.203
0.559                  -0.990406        -152.182          -55.768        -122.304         -55.7685        -122.302       -0.0127125         147.132
0.56                    -1.01291        -152.733         -55.6522        -123.972         -55.6527         -123.97        -0.012832         147.061
0.561                   -1.03571        -153.285         -55.5371        -125.647         -55.5375        -125.644       -0.0129529          146.99
0.562                   -1.05881         -153.84         -55.4226        -127.327         -55.4229        -127.325       -0.0130754         146.919
0.563                   -1.08223        -154.397         -55.3087        -129.014         -55.3089        -129.012       -0.0131993         146.848
0.564                   -1.10595        -154.956         -55.1954        -130.708         -55.1955        -130.706       -0.0133248         146.776
0.565                      -1.13        -155.517         -55.0826        -132.409         -55.0826        -132.407       -0.0134518         146.705
0.566                   -1.15436         -156.08         -54.9705        -134.116         -54.9704        -134.114       -0.0135805         146.633
0.567                   -1.17905        -156.645         -54.8589        -135.829         -54.8588        -135.828       -0.0137107         146.561
0.568                   -1.20407        -157.213         -54.7479         -137.55         -54.7477        -137.548       -0.0138425         146.489
0.569                   -1.22942        -157.783         -54.6375        -139.277         -54.6372        -139.276       -0.0139759         146.417
0.57                    -1.25511        -158.355         -54.5276        -141.011         -54.5272         -141.01        -0.014111         146.344
0.571                   -1.28115        -158.929         -54.4183        -142.752         -54.4179        -142.751       -0.0142478         146.272
0.572                   -1.30754        -159.506         -54.3096          -144.5         -54.3091        -144.499       -0.0143863         146.199
0.573                   -1.33429        -160.086         -54.2014        -146.254         -54.2008        -146.253       -0.0145265         146.127
0.574                   -1.36141        -160.668         -54.0938        -148.016         -54.0932        -148.014       -0.0146685         146.054
0.575                   -1.38889        -161.252         -53.9867        -149.783          -53.986        -149.782       -0.0148122         145.981
0.576                   -1.41675        -161.839         -53.8803        -151.558         -53.8795        -151.557       -0.0149577         145.908
0.577                     -1.445        -162.429         -53.7743         -153.34         -53.7735        -153.339       -0.0151051         145.835
0.578                   -1.47364        -163.022          -53.669        -155.127         -53.6682        -155.127       -0.0152543         145.761
0.579                   -1.50269        -163.617         -53.5642        -156.922         -53.5633        -156.921       -0.0154053         145.688
0.58                    -1.53214        -164.215         -53.4601        -158.723         -53.4591        -158.722       -0.0155583         145.614
0.581                   -1.56202        -164.816         -53.3565         -160.53         -53.3555        -160.529       -0.0157132          145.54
0.582                   -1.59232         -165.42         -53.2535        -162.343         -53.2525        -162.343         -0.01587         145.466
0.583                   -1.62306        -166.027         -53.1511        -164.163           -53.15        -164.163       -0.0160289         145.392
0.584                   -1.65426        -166.637         -53.0493        -165.989         -53.0482        -165.988       -0.0161897         145.317
0.585                   -1.68591         -167.25         -52.9481         -167.82          -52.947         -167.82       -0.0163526         145.243
0.586                   -1.71803        -167.866         -52.8476        -169.658         -52.8465        -169.658       -0.0165175         145.168
0.587                   -1.75064        -168.485         -52.7477        -171.501         -52.7465        -171.501       -0.0166846         145.093
0.588                   -1.78374        -169.108         -52.6484        -173.349         -52.6472        -173.349       -0.0168538         145.018
0.589                   -1.81736        -169.734         -52.5498        -175.203         -52.5486        -175.203       -0.0170251         144.943
0.59                    -1.85149        -170.363         -52.4519        -177.062         -52.4507        -177.062       -0.0171987         144.868
0.591                   -1.88616        -170.995         -52.3546        -178.926         -52.3534        -178.926       -0.0173744         144.792
0.592                   -1.92139        -171.632          -52.258         179.205         -52.2568         179.205       -0.0175525         144.716
0.593                   -1.95718        -172.271         -52.1621         177.331         -52.1609         177.331       -0.0177328          144.64
0.594                   -1.99355        -172.914         -52.0669         175.453         -52.0656         175.453       -0.0179155         144.564
0.595                   -2.03052        -173.561         -51.9724         173.571         -51.9712         173.571       -0.0181005         144.488
0.596                   -2.06811        -174.212         -51.8787         171.685         -51.8774         171.685        -0.018288         144.412
0.597                   -2.10633        -174.866         -51.7856         169.795         -51.7844         169.795       -0.0184779         144.335
0.598                   -2.14521        -175.524         -51.6933         167.902         -51.6921         167.902       -0.0186703         144.258
0.599                   -2.18476        -176.186         -51.6018         166.005         -51.6006         166.005       -0.0188652         144.181
0.6                       -2.225        -176.852          -51.511         164.105         -51.5098         164.105       -0.0190627         144.104
0.601                   -2.26596        -177.522          -51.421         162.202         -51.4198         162.202       -0.0192627         144.027
0.602                   -2.30765        -178.195         -51.3318         160.297         -51.3306         160.297       -0.0194655         143.949
0.603                   -2.35011        -178.873         -51.2433         158.389         -51.2421         158.389       -0.0196709         143.872
0.604                   -2.39334        -179.555         -51.1557         156.479         -51.1545         156.479       -0.0198791         143.794
0.605                   -2.43739         179.759         -51.0688         154.568         -51.0677         154.568       -0.0200901         143.715
0.606                   -2.48227         179.069         -50.9828         152.655         -50.9817         152.655       -0.0203039         143.637
0.607                   -2.52801         178.374         -50.8975          150.74         -50.8964          150.74       -0.0205206         143.559
0.608                   -2.57464         177.676         -50.8131         148.825          -50.812         148.825       -0.0207403          143.48
0.609                   -2.62219         176.973         -50.7295         146.908         -50.7285         146.908       -0.0209629         143.401
0.61                    -2.67068         176.266         -50.6467         144.992         -50.6457         144.992       -0.0211886         143.322
0.611                   -2.72014         175.554         -50.5648         143.075         -50.5638         143.075       -0.0214174         143.242
0.612                   -2.77062         174.839         -50.4837         141.158         -50.4827         141.158       -0.0216494         143.163
0.613                   -2.82214         174.118         -50.4034         139.241         -50.4024         139.241       -0.0218846         143.083
0.614                   -2.87473         173.394         -50.3239         137.325          -50.323         137.325       -0.0221231         143.003
0.615                   -2.92843         172.665         -50.2452          135.41         -50.2444          135.41       -0.0223649         142.922
0.616                   -2.98328         171.932         -50.1674         133.496         -50.1666         133.496       -0.0226101         142.842
0.617                   -3.03931         171.195         -50.0904         131.583         -50.0896         131.583       -0.0228588         142.761
0.618                   -3.09657         170.453         -50.0142         129.672         -50.0135         129.672       -0.0231111          142.68
0.619                   -3.15508         169.707         -49.9389         127.763         -49.9381         127.763        -0.023367         142.599
0.62                     -3.2149         168.957         -49.8643         125.856         -49.8636         125.856       -0.0236265         142.517
0.621                   -3.27606         168.202         -49.7905         123.951         -49.7899         123.952       -0.0238899         142.436
0.622                    -3.3386         167.443         -49.7175          122.05         -49.7169          122.05       -0.0241571         142.354
0.623                   -3.40258         166.681         -49.6454         120.151         -49.6448         120.151       -0.0244282         142.271
0.624                   -3.46803         165.914         -49.5739         118.255         -49.5734         118.255       -0.0247034         142.189
0.625                     -3.535         165.143         -49.5033         116.362         -49.5028         116.363       -0.0249826         142.106
0.626                   -3.60354         164.369         -49.4334         114.473         -49.4329         114.474       -0.0252661         142.023
0.627                    -3.6737          163.59         -49.3642         112.588         -49.3638         112.589       -0.0255538          141.94
0.628                   -3.74553         162.809         -49.2958         110.707         -49.2954         110.708       -0.0258459         141.856
0.629                   -3.81907         162.023          -49.228          108.83         -49.2277         108.831       -0.0261426         141.773
