! TOUCHSTONE file generated by CST MICROWAVE STUDIO
! Date and time: Fri Oct 30 08:04:50 2020
! Project name: Scenario_1_Circular_Tissue_out_of_Line.cst
! Parameters = {dy1=346; L_HA=400; MT=2.54; Rad_Dielectric=30; Rad_Lower=7.3; Rad_Upper=30; a_HA=580; a_WG=246; b_HA=500; b_WG=121; c_HA=0; c_WG=187; d_feed=85; dx1=520; h_feed=15; h_lower=18; h_upper=40}
! Header version: 2018
! Port assignment regex: !\s*Touchstone port\s*([0-9]+)\s*=\s*(CST MWS port|CST DS port)\s*([0-9]+|Zmin|Zmax)\s*\(\"(.*)\"\)(\s*mode\s*([0-9]+))?.*
! Touchstone port assignment:
! Touchstone port 1 = CST MWS port 1 ("")
! Touchstone port 2 = CST MWS port 2 ("")
# GHz S DB R 50
0.5                    -0.152805        -122.401         -64.2601        -100.179         -64.1827        -100.558      -0.00737472         151.142
0.501                  -0.163696        -122.879         -64.3177        -101.232         -64.2462        -101.419      -0.00747482         151.077
0.502                  -0.174774        -123.357         -64.3761        -102.308         -64.3112        -102.297      -0.00757487         151.012
0.503                   -0.18604        -123.836         -64.4353        -103.407         -64.3776        -103.196      -0.00767488         150.946
0.504                  -0.197494        -124.317         -64.4953         -104.53         -64.4454        -104.114      -0.00777486         150.881
0.505                  -0.209135        -124.798          -64.556        -105.678         -64.5147        -105.053      -0.00787481         150.815
0.506                  -0.220964        -125.279         -64.6174        -106.853         -64.5854        -106.015      -0.00797475          150.75
0.507                  -0.232982        -125.762         -64.6795        -108.054         -64.6575        -106.999      -0.00807469         150.684
0.508                  -0.245187        -126.246         -64.7422        -109.284         -64.7312        -108.007      -0.00817463         150.618
0.509                  -0.257582        -126.731         -64.8055        -110.543         -64.8063         -109.04      -0.00827458         150.552
0.51                   -0.270165        -127.217         -64.8692        -111.831         -64.8828          -110.1      -0.00837457         150.486
0.511                  -0.282937        -127.703         -64.9333        -113.151         -64.9608        -111.186      -0.00847459          150.42
0.512                  -0.295899        -128.191         -64.9976        -114.504         -65.0403        -112.301      -0.00857465         150.354
0.513                  -0.309051         -128.68         -65.0622         -115.89         -65.1212        -113.446      -0.00867477         150.288
0.514                  -0.322394         -129.17         -65.1268        -117.311         -65.2035        -114.622      -0.00877496         150.222
0.515                  -0.335927         -129.66         -65.1913        -118.768         -65.2871        -115.831      -0.00887523         150.156
0.516                  -0.349652        -130.152         -65.2557        -120.262         -65.3721        -117.074      -0.00897559         150.089
0.517                   -0.36357        -130.645         -65.3196        -121.795         -65.4582        -118.353      -0.00907605         150.023
0.518                   -0.37768        -131.139          -65.383        -123.368         -65.5456        -119.669      -0.00917662         149.956
0.519                  -0.391984        -131.634         -65.4456        -124.981          -65.634        -121.025      -0.00927732         149.889
0.52                   -0.406482        -132.131         -65.5072        -126.637         -65.7234        -122.422      -0.00937816         149.823
0.521                  -0.421176        -132.628         -65.5676        -128.336         -65.8136        -123.862      -0.00947915         149.756
0.522                  -0.436066        -133.127         -65.6265        -130.081         -65.9045        -125.347       -0.0095803         149.689
0.523                  -0.451153        -133.627         -65.6836        -131.871         -65.9959        -126.879      -0.00968163         149.622
0.524                  -0.466439        -134.128         -65.7386        -133.707         -66.0876         -128.46      -0.00978315         149.555
0.525                  -0.481924         -134.63         -65.7911        -135.592         -66.1794        -130.093      -0.00988486         149.488
0.526                   -0.49761        -135.133         -65.8409        -137.526         -66.2709        -131.779       -0.0099868         149.421
0.527                  -0.513497        -135.638         -65.8874        -139.508          -66.362        -133.522        -0.010089         149.353
0.528                  -0.529588        -136.144         -65.9303        -141.541         -66.4522        -135.322       -0.0101914         149.286
0.529                  -0.545883        -136.651         -65.9692        -143.625         -66.5412        -137.183        -0.010294         149.218
0.53                   -0.562385         -137.16         -66.0035        -145.759         -66.6285        -139.107        -0.010397         149.151
0.531                  -0.579094         -137.67         -66.0328        -147.943         -66.7136        -141.095       -0.0105002         149.083
0.532                  -0.596013        -138.181         -66.0566        -150.177         -66.7959         -143.15       -0.0106038         149.015
0.533                  -0.613143        -138.694         -66.0744        -152.461          -66.875        -145.273       -0.0107076         148.947
0.534                  -0.630485        -139.208         -66.0857        -154.794           -66.95        -147.467       -0.0108118         148.879
0.535                  -0.648043        -139.724         -66.0899        -157.174         -67.0204        -149.732       -0.0109163         148.811
0.536                  -0.665817        -140.241         -66.0865        -159.599         -67.0852        -152.069       -0.0110212         148.743
0.537                   -0.68381        -140.759          -66.075        -162.068         -67.1438        -154.479       -0.0111265         148.675
0.538                  -0.702024        -141.279          -66.055        -164.577         -67.1952        -156.962       -0.0112322         148.606
0.539                  -0.720461          -141.8         -66.0259        -167.125         -67.2385        -159.516       -0.0113383         148.538
0.54                   -0.739125        -142.324         -65.9873        -169.708         -67.2728        -162.141       -0.0114449         148.469
0.541                  -0.758016        -142.848         -65.9388        -172.323         -67.2971        -164.835       -0.0115519         148.401
0.542                  -0.777138        -143.374         -65.8802        -174.965         -67.3104        -167.595       -0.0116594         148.332
0.543                  -0.796494        -143.902         -65.8111        -177.631         -67.3118        -170.417       -0.0117673         148.263
0.544                  -0.816086        -144.432         -65.7313         179.683         -67.3005        -173.296       -0.0118758         148.194
0.545                  -0.835918        -144.963         -65.6407         176.982         -67.2755        -176.227       -0.0119848         148.125
0.546                  -0.855992        -145.496         -65.5392         174.271         -67.2361        -179.204       -0.0120944         148.056
0.547                  -0.876311         -146.03         -65.4267         171.554         -67.1817         177.779       -0.0122045         147.986
0.548                  -0.896879        -146.567         -65.3035         168.836         -67.1117         174.731       -0.0123152         147.917
0.549                  -0.917699        -147.105         -65.1696          166.12         -67.0257          171.66       -0.0124265         147.847
0.55                   -0.938775        -147.645         -65.0253         163.412         -66.9236         168.573       -0.0125385         147.778
0.551                   -0.96011        -148.186         -64.8708         160.715         -66.8053         165.479       -0.0126511         147.708
0.552                  -0.981708         -148.73         -64.7064         158.033         -66.6708         162.387       -0.0127644         147.638
0.553                   -1.00357        -149.276         -64.5327         155.369         -66.5205         159.305       -0.0128783         147.568
0.554                   -1.02571        -149.823         -64.3499         152.727         -66.3548         156.241        -0.012993         147.498
0.555                   -1.04812        -150.372         -64.1586         150.109         -66.1742         153.202       -0.0131085         147.428
0.556                   -1.07082        -150.924         -63.9593         147.518         -65.9794         150.194       -0.0132247         147.358
0.557                   -1.09379        -151.477         -63.7524         144.955         -65.7712         147.223       -0.0133416         147.287
0.558                   -1.11706        -152.032         -63.5386         142.421         -65.5505         144.296       -0.0134594         147.217
0.559                   -1.14062         -152.59         -63.3182          139.92         -65.3181         141.414       -0.0135781         147.146
0.56                    -1.16448        -153.149          -63.092          137.45         -65.0751         138.583       -0.0136975         147.075
0.561                   -1.18864        -153.711         -62.8603         135.013         -64.8223         135.804       -0.0138179         147.004
0.562                   -1.21311        -154.275         -62.6237         132.608         -64.5608         133.079       -0.0139392         146.933
0.563                    -1.2379        -154.841         -62.3827         130.236         -64.2914         130.409       -0.0140614         146.862
0.564                   -1.26301        -155.409         -62.1377         127.897         -64.0151         127.795       -0.0141846          146.79
0.565                   -1.28844        -155.979         -61.8892          125.59         -63.7326         125.236       -0.0143088         146.719
0.566                   -1.31421        -156.552         -61.6376         123.313          -63.445         122.731        -0.014434         146.647
0.567                   -1.34032        -157.127         -61.3834         121.067         -63.1527         120.279       -0.0145603         146.576
0.568                   -1.36678        -157.705         -61.1268         118.851         -62.8567         117.879       -0.0146876         146.504
0.569                   -1.39358        -158.284         -60.8683         116.662         -62.5575         115.529        -0.014816         146.432
0.57                    -1.42075        -158.866         -60.6082           114.5         -62.2557         113.226       -0.0149456          146.36
0.571                   -1.44828        -159.451         -60.3467         112.364         -61.9518         110.969       -0.0150763         146.287
0.572                   -1.47619        -160.038         -60.0843         110.252         -61.6463         108.755       -0.0152083         146.215
0.573                   -1.50448        -160.627          -59.821         108.162         -61.3397         106.581       -0.0153414         146.142
0.574                   -1.53315        -161.219         -59.5573         106.094         -61.0323         104.446       -0.0154759          146.07
0.575                   -1.56223        -161.814         -59.2933         104.046         -60.7246         102.346       -0.0156116         145.997
0.576                   -1.59171        -162.411         -59.0291         102.016         -60.4167         100.279       -0.0157486         145.924
0.577                   -1.62161        -163.011         -58.7651         100.004         -60.1089         98.2433        -0.015887         145.851
0.578                   -1.65193        -163.613         -58.5014         98.0063         -59.8016         96.2354       -0.0160268         145.777
0.579                   -1.68268        -164.218         -58.2381         96.0232         -59.4949         94.2532        -0.016168         145.704
0.58                    -1.71388        -164.826         -57.9755         94.0527         -59.1891         92.2944       -0.0163107          145.63
0.581                   -1.74552        -165.437         -57.7136         92.0936         -58.8842         90.3568       -0.0164548         145.557
0.582                   -1.77763         -166.05         -57.4525         90.1444         -58.5804         88.4381       -0.0166005         145.483
0.583                   -1.81021        -166.666         -57.1925         88.2039          -58.278         86.5361       -0.0167478         145.409
0.584                   -1.84327        -167.285         -56.9337         86.2708         -57.9769         84.6489       -0.0168967         145.334
0.585                   -1.87683        -167.907          -56.676         84.3438         -57.6773         82.7743       -0.0170472          145.26
0.586                   -1.91089        -168.531         -56.4197         82.4218         -57.3793         80.9105       -0.0171995         145.185
0.587                   -1.94546        -169.159         -56.1649         80.5036         -57.0831         79.0556       -0.0173534         145.111
0.588                   -1.98057        -169.789         -55.9116         78.5881         -56.7886         77.2078       -0.0175091         145.036
0.589                   -2.01621        -170.423           -55.66         76.6742          -56.496         75.3654       -0.0176667         144.961
0.59                     -2.0524        -171.059         -55.4101         74.7609         -56.2053         73.5268        -0.017826         144.886
0.591                   -2.08917        -171.698         -55.1621         72.8473         -55.9166         71.6904       -0.0179873          144.81
0.592                    -2.1265        -172.341          -54.916         70.9324         -55.6301         69.8547       -0.0181505         144.735
0.593                   -2.16444        -172.986         -54.6719         69.0153         -55.3457         68.0182       -0.0183157         144.659
0.594                   -2.20297        -173.635           -54.43         67.0952         -55.0636         66.1796       -0.0184829         144.583
0.595                   -2.24213        -174.287         -54.1902         65.1713         -54.7838         64.3376       -0.0186522         144.507
0.596                   -2.28192        -174.942         -53.9527          63.243         -54.5064         62.4908       -0.0188236          144.43
0.597                   -2.32237          -175.6         -53.7176         61.3095         -54.2315         60.6382       -0.0189972         144.354
0.598                   -2.36347        -176.261          -53.485         59.3702         -53.9592         58.7786        -0.019173         144.277
0.599                   -2.40526        -176.925         -53.2549         57.4245         -53.6895         56.9109       -0.0193511         144.201
0.6                     -2.44775        -177.593         -53.0275          55.472         -53.4226         55.0343       -0.0195315         144.123
0.601                   -2.49095        -178.263         -52.8028         53.5122         -53.1586         53.1476       -0.0197142         144.046
0.602                   -2.53489        -178.937          -52.581         51.5446         -52.8975         51.2502       -0.0198994         143.969
0.603                   -2.57957        -179.615         -52.3621          49.569         -52.6395         49.3413        -0.020087         143.891
0.604                   -2.62502         179.705         -52.1462         47.5851         -52.3846         47.4201       -0.0202772         143.813
0.605                   -2.67126         179.021         -51.9335         45.5927         -52.1331          45.486         -0.02047         143.735
0.606                    -2.7183         178.334          -51.724         43.5915         -51.8849         43.5385       -0.0206654         143.657
0.607                   -2.76617         177.644         -51.5177         41.5816         -51.6403         41.5772       -0.0208635         143.579
0.608                   -2.81488          176.95         -51.3149         39.5628         -51.3994         39.6016       -0.0210643           143.5
0.609                   -2.86446         176.253         -51.1155         37.5352         -51.1623         37.6115        -0.021268         143.421
0.61                    -2.91493         175.553         -50.9198          35.499          -50.929         35.6066       -0.0214746         143.342
0.611                    -2.9663          174.85         -50.7276         33.4541         -50.6999          33.587       -0.0216841         143.263
0.612                   -3.01861         174.143         -50.5392         31.4009          -50.475         31.5525       -0.0218966         143.183
0.613                   -3.07186         173.433         -50.3547         29.3397         -50.2544         29.5033       -0.0221121         143.104
0.614                    -3.1261          172.72          -50.174         27.2707         -50.0383         27.4395       -0.0223309         143.024
0.615                   -3.18133         172.004         -49.9973         25.1943         -49.8268         25.3614       -0.0225528         142.943
0.616                   -3.23759         171.284         -49.8245         23.1111           -49.62         23.2695        -0.022778         142.863
0.617                    -3.2949         170.561         -49.6559         21.0213         -49.4181         21.1642       -0.0230065         142.782
0.618                   -3.35328         169.835         -49.4914         18.9257         -49.2213         19.0461       -0.0232384         142.701
0.619                   -3.41277         169.106         -49.3311         16.8248         -49.0295         16.9159       -0.0234738          142.62
0.62                    -3.47338         168.374          -49.175         14.7192         -48.8429         14.7743       -0.0237128         142.539
0.621                   -3.53515         167.639         -49.0231         12.6096         -48.6617         12.6222       -0.0239554         142.457
0.622                    -3.5981         166.901         -48.8755         10.4967         -48.4859         10.4606       -0.0242018         142.375
0.623                   -3.66226         166.159         -48.7321          8.3811         -48.3156         8.29042       -0.0244519         142.293
0.624                   -3.72766         165.415         -48.5931         6.26366         -48.1508         6.11279       -0.0247059         142.211
0.625                   -3.79433         164.668         -48.4583         4.14511         -47.9916         3.92886       -0.0249638         142.128
0.626                    -3.8623         163.918         -48.3277         2.02622         -47.8381         1.73982       -0.0252258         142.045
0.627                   -3.93161         163.166         -48.2014       -0.092223         -47.6902       -0.453074       -0.0254919         141.962
0.628                   -4.00228         162.411         -48.0793        -2.20945          -47.548        -2.64855       -0.0257622         141.879
0.629                   -4.07434         161.653         -47.9613        -4.32468         -47.4115         -4.8453       -0.0260369         141.795
