! TOUCHSTONE file generated by CST MICROWAVE STUDIO
! Date and time: Mon Oct 26 12:28:21 2020
! Project name: Scenario_1_Circular_Tissue_out_of_Line.cst
! Parameters = {dy1=346; L_HA=400; MT=2.54; Rad_Dielectric=30; Rad_Lower=7.3; Rad_Upper=30; a_HA=580; a_WG=246; b_HA=500; b_WG=121; c_HA=0; c_WG=187; d_feed=85; dx1=866; h_feed=15; h_lower=18; h_upper=40}
! Header version: 2018
! Port assignment regex: !\s*Touchstone port\s*([0-9]+)\s*=\s*(CST MWS port|CST DS port)\s*([0-9]+|Zmin|Zmax)\s*\(\"(.*)\"\)(\s*mode\s*([0-9]+))?.*
! Touchstone port assignment:
! Touchstone port 1 = CST MWS port 1 ("")
! Touchstone port 2 = CST MWS port 2 ("")
# GHz S DB R 50
0.5                    -0.152983        -122.415         -64.7568         70.7768         -64.7995         70.9419      -0.00747553         151.135
0.501                  -0.157709        -122.826         -64.6455          69.009          -64.706         68.7474      -0.00754851          151.07
0.502                   -0.16249        -123.241         -64.5319         67.2173          -64.609           66.54      -0.00762192         151.005
0.503                  -0.167332        -123.659         -64.4161         65.4013         -64.5084         64.3204      -0.00769578         150.939
0.504                  -0.172246        -124.079          -64.298         63.5611         -64.4042         62.0891      -0.00777009         150.874
0.505                  -0.177241        -124.503         -64.1777         61.6965         -64.2965         59.8468      -0.00784486         150.808
0.506                  -0.182327        -124.931          -64.055         59.8074         -64.1853         57.5939      -0.00792011         150.743
0.507                  -0.187513        -125.361         -63.9301         57.8938         -64.0707         55.3312      -0.00799585         150.677
0.508                  -0.192808        -125.795         -63.8028         55.9555         -63.9527         53.0592      -0.00807209         150.611
0.509                  -0.198224        -126.232         -63.6733         53.9926         -63.8314         50.7784      -0.00814884         150.545
0.51                    -0.20377        -126.672         -63.5415          52.005         -63.7068         48.4893       -0.0082261          150.48
0.511                  -0.209456        -127.116         -63.4074         49.9927          -63.579         46.1924       -0.0083039         150.414
0.512                  -0.215294        -127.563          -63.271         47.9557         -63.4481         43.8883      -0.00838223         150.347
0.513                  -0.221293        -128.013         -63.1324          45.894         -63.3142         41.5772      -0.00846113         150.281
0.514                  -0.227465        -128.467         -62.9915         43.8077         -63.1773         39.2597      -0.00854058         150.215
0.515                  -0.233821        -128.924         -62.8485         41.6967         -63.0376         36.9361      -0.00862062         150.149
0.516                  -0.240372        -129.384         -62.7033         39.5613         -62.8952         34.6069      -0.00870124         150.082
0.517                  -0.247128        -129.848          -62.556         37.4014         -62.7502         32.2722      -0.00878247         150.016
0.518                  -0.254103        -130.315         -62.4067         35.2173         -62.6026         29.9324      -0.00886431         149.949
0.519                  -0.261306        -130.785         -62.2554          33.009         -62.4527         27.5877      -0.00894678         149.883
0.52                    -0.26875        -131.259         -62.1022         30.7766         -62.3004         25.2384      -0.00902988         149.816
0.521                  -0.276446        -131.737         -61.9471         28.5205          -62.146         22.8847      -0.00911364         149.749
0.522                  -0.284407        -132.217         -61.7903         26.2408         -61.9896         20.5267      -0.00919806         149.682
0.523                  -0.292643        -132.701         -61.6319         23.9377         -61.8313         18.1645      -0.00928316         149.615
0.524                  -0.301168        -133.189         -61.4718         21.6115         -61.6712         15.7983      -0.00936895         149.548
0.525                  -0.309993         -133.68         -61.3103         19.2625         -61.5094         13.4282      -0.00945545         149.481
0.526                   -0.31913        -134.174         -61.1474          16.891         -61.3461         11.0542      -0.00954266         149.414
0.527                  -0.328592        -134.672         -60.9833         14.4974         -61.1814          8.6764      -0.00963061         149.347
0.528                   -0.33839        -135.173         -60.8181          12.082         -61.0155         6.29473       -0.0097193         149.279
0.529                  -0.348536        -135.677         -60.6519          9.6453         -60.8484         3.90925      -0.00980875         149.212
0.53                   -0.359044        -136.185         -60.4849         7.18772         -60.6804         1.51993      -0.00989898         149.144
0.531                  -0.369924        -136.695         -60.3172         4.70977         -60.5115       -0.873252      -0.00998999         149.076
0.532                  -0.381188         -137.21         -60.1489         2.21198         -60.3418        -3.27033       -0.0100818         149.008
0.533                   -0.39285        -137.727         -59.9802       -0.305087         -60.1716        -5.67134       -0.0101745         148.941
0.534                  -0.404919        -138.247         -59.8112        -2.84081         -60.0009        -8.07634       -0.0102679         148.873
0.535                  -0.417409        -138.771         -59.6422        -5.39452         -59.8299        -10.4854       -0.0103622         148.804
0.536                  -0.430331        -139.298         -59.4732        -7.96554         -59.6586        -12.8985       -0.0104574         148.736
0.537                  -0.443695        -139.828         -59.3045        -10.5531         -59.4873        -15.3158       -0.0105535         148.668
0.538                  -0.457514        -140.361         -59.1361        -13.1564          -59.316        -17.7372       -0.0106505         148.599
0.539                  -0.471798        -140.897         -58.9683        -15.7747         -59.1449        -20.1629       -0.0107483         148.531
0.54                   -0.486558        -141.435         -58.8013         -18.407         -58.9741        -22.5929       -0.0108471         148.462
0.541                  -0.501805        -141.977          -58.635        -21.0524         -58.8036        -25.0271       -0.0109469         148.394
0.542                  -0.517548        -142.522         -58.4698          -23.71         -58.6337        -27.4657       -0.0110476         148.325
0.543                  -0.533798        -143.069         -58.3058        -26.3788         -58.4644        -29.9085       -0.0111493         148.256
0.544                  -0.550564        -143.619          -58.143        -29.0578         -58.2959        -32.3557        -0.011252         148.187
0.545                  -0.567855        -144.172         -57.9817        -31.7458         -58.1282         -34.807       -0.0113557         148.118
0.546                   -0.58568        -144.727         -57.8219        -34.4418         -57.9614        -37.2626       -0.0114604         148.048
0.547                  -0.604048        -145.285         -57.6639        -37.1446         -57.7957        -39.7223       -0.0115662         147.979
0.548                  -0.622966        -145.846         -57.5076        -39.8531         -57.6311         -42.186        -0.011673          147.91
0.549                  -0.642441        -146.408         -57.3532        -42.5663         -57.4678        -44.6537        -0.011781          147.84
0.55                   -0.662481        -146.974         -57.2008        -45.2827         -57.3058        -47.1252         -0.01189          147.77
0.551                  -0.683092        -147.541         -57.0505        -48.0015         -57.1452        -49.6003       -0.0120002         147.701
0.552                   -0.70428         -148.11         -56.9023        -50.7212          -56.986         -52.079       -0.0121115         147.631
0.553                   -0.72605        -148.682         -56.7563        -53.4408         -56.8285        -54.5609       -0.0122239         147.561
0.554                  -0.748406        -149.256         -56.6125        -56.1592         -56.6725        -57.0459       -0.0123376          147.49
0.555                  -0.771353        -149.831         -56.4709        -58.8752         -56.5182        -59.5338       -0.0124524          147.42
0.556                  -0.794893        -150.408         -56.3316        -61.5878         -56.3657        -62.0244       -0.0125685          147.35
0.557                   -0.81903        -150.988         -56.1946        -64.2957          -56.215        -64.5173       -0.0126858         147.279
0.558                  -0.843766        -151.568         -56.0599        -66.9982         -56.0661        -67.0123       -0.0128043         147.209
0.559                    -0.8691        -152.151         -55.9274        -69.6941         -55.9191        -69.5091       -0.0129242         147.138
0.56                   -0.895035        -152.735         -55.7971        -72.3825          -55.774        -72.0074       -0.0130453         147.067
0.561                  -0.921569         -153.32          -55.669        -75.0626         -55.6309        -74.5069       -0.0131678         146.996
0.562                  -0.948702        -153.907         -55.5431        -77.7335         -55.4898        -77.0073       -0.0132916         146.925
0.563                  -0.976432        -154.495         -55.4192        -80.3946         -55.3506        -79.5082       -0.0134168         146.853
0.564                   -1.00476        -155.084         -55.2974        -83.0451         -55.2135        -82.0093       -0.0135434         146.782
0.565                   -1.03367        -155.675         -55.1775        -85.6844         -55.0783        -84.5103       -0.0136713          146.71
0.566                   -1.06317        -156.266         -55.0595        -88.3119         -54.9452        -87.0108       -0.0138008         146.639
0.567                   -1.09325        -156.858         -54.9432        -90.9273         -54.8141        -89.5105       -0.0139316         146.567
0.568                   -1.12391        -157.452         -54.8287          -93.53         -54.6849        -92.0091        -0.014064         146.495
0.569                   -1.15513        -158.046         -54.7157        -96.1198         -54.5578        -94.5062       -0.0141979         146.423
0.57                    -1.18692        -158.641         -54.6043        -98.6964         -54.4326        -97.0016       -0.0143333         146.351
0.571                   -1.21926        -159.237         -54.4942         -101.26         -54.3093        -99.4949       -0.0144702         146.278
0.572                   -1.25214        -159.833         -54.3855        -103.809          -54.188        -101.986       -0.0146087         146.206
0.573                   -1.28555         -160.43          -54.278        -106.345         -54.0685        -104.474       -0.0147489         146.133
0.574                   -1.31949        -161.027         -54.1716        -108.868         -53.9508        -106.959       -0.0148906         146.061
0.575                   -1.35394        -161.626         -54.0662        -111.377         -53.8349        -109.441        -0.015034         145.988
0.576                   -1.38889        -162.224         -53.9617        -113.872         -53.7208         -111.92       -0.0151791         145.915
0.577                   -1.42433        -162.823          -53.858        -116.354         -53.6083        -114.395       -0.0153259         145.841
0.578                   -1.46025        -163.423         -53.7551        -118.824         -53.4975        -116.866       -0.0154744         145.768
0.579                   -1.49662        -164.023         -53.6528         -121.28         -53.3883        -119.333       -0.0156247         145.694
0.58                    -1.53345        -164.623          -53.551        -123.724         -53.2805        -121.796       -0.0157768         145.621
0.581                    -1.5707        -165.224         -53.4497        -126.157         -53.1743        -124.254       -0.0159306         145.547
0.582                   -1.60838        -165.826         -53.3488        -128.577         -53.0694        -126.708       -0.0160864         145.473
0.583                   -1.64645        -166.428         -53.2482        -130.986         -52.9658        -129.158       -0.0162439         145.399
0.584                   -1.68492        -167.031         -53.1478        -133.385         -52.8635        -131.602       -0.0164034         145.325
0.585                   -1.72375        -167.634         -53.0476        -135.773         -52.7624        -134.043       -0.0165648          145.25
0.586                   -1.76295        -168.238         -52.9475        -138.152         -52.6625        -136.478       -0.0167282         145.176
0.587                   -1.80249        -168.843         -52.8474        -140.521         -52.5636        -138.909       -0.0168936         145.101
0.588                   -1.84235        -169.448         -52.7473        -142.882         -52.4657        -141.335        -0.017061         145.026
0.589                   -1.88253        -170.055         -52.6472        -145.235         -52.3688        -143.757       -0.0172304         144.951
0.59                    -1.92301        -170.662         -52.5469         -147.58         -52.2727        -146.174       -0.0174019         144.875
0.591                   -1.96377        -171.271         -52.4465        -149.919         -52.1774        -148.586       -0.0175755           144.8
0.592                   -2.00481        -171.881         -52.3459        -152.251         -52.0829        -150.994       -0.0177513         144.724
0.593                   -2.04611        -172.492         -52.2451        -154.578          -51.989        -153.398       -0.0179292         144.649
0.594                   -2.08766        -173.105          -52.144          -156.9         -51.8958        -155.798       -0.0181093         144.573
0.595                   -2.12945         -173.72         -52.0428        -159.217         -51.8031        -158.193       -0.0182917         144.496
0.596                   -2.17147        -174.337         -51.9412        -161.531          -51.711        -160.585       -0.0184764          144.42
0.597                   -2.21372        -174.956         -51.8394        -163.842         -51.6193        -162.974       -0.0186633         144.344
0.598                   -2.25619        -175.577         -51.7372        -166.151          -51.528        -165.359       -0.0188527         144.267
0.599                   -2.29889        -176.201         -51.6348        -168.457         -51.4371         -167.74       -0.0190444          144.19
0.6                      -2.3418        -176.828         -51.5322        -170.763         -51.3464        -170.119       -0.0192385         144.113
0.601                   -2.38493        -177.458         -51.4292        -173.068         -51.2561        -172.495        -0.019435         144.036
0.602                   -2.42829        -178.092          -51.326        -175.373          -51.166        -174.869       -0.0196341         143.958
0.603                   -2.47188        -178.729         -51.2226        -177.678          -51.076        -177.241       -0.0198357          143.88
0.604                   -2.51572         -179.37         -51.1189        -179.985         -50.9863         -179.61       -0.0200399         143.803
0.605                   -2.55981         179.984         -51.0151         177.706         -50.8966         178.022       -0.0202467         143.724
0.606                   -2.60419         179.335         -50.9111         175.395          -50.807         175.656       -0.0204561         143.646
0.607                   -2.64886          178.68          -50.807         173.082         -50.7176         173.291       -0.0206683         143.568
0.608                   -2.69385          178.02         -50.7029         170.765         -50.6281         170.926       -0.0208831         143.489
0.609                    -2.7392         177.354         -50.5987         168.444         -50.5387         168.562       -0.0211008          143.41
0.61                    -2.78494         176.682         -50.4945          166.12         -50.4494         166.199       -0.0213213         143.331
0.611                    -2.8311         176.005         -50.3904          163.79           -50.36         163.835       -0.0215447         143.252
0.612                   -2.87774          175.32         -50.2865         161.456         -50.2706         161.471        -0.021771         143.172
0.613                   -2.92491         174.629         -50.1827         159.116         -50.1813         159.107       -0.0220002         143.092
0.614                   -2.97265          173.93         -50.0792         156.771         -50.0919         156.741       -0.0222326         143.012
0.615                   -3.02103         173.224          -49.976         154.419         -50.0025         154.375        -0.022468         142.932
0.616                   -3.07013          172.51         -49.8732         152.061         -49.9132         152.007       -0.0227065         142.852
0.617                      -3.12         171.788         -49.7708         149.697         -49.8239         149.638       -0.0229482         142.771
0.618                   -3.17074         171.058          -49.669         147.327         -49.7346         147.266       -0.0231932          142.69
0.619                   -3.22243         170.319         -49.5678         144.949         -49.6454         144.893       -0.0234415         142.609
0.62                    -3.27515         169.571         -49.4673         142.565         -49.5562         142.517       -0.0236932         142.528
0.621                   -3.32901         168.814         -49.3675         140.173         -49.4672         140.139       -0.0239484         142.446
0.622                   -3.38412         168.047         -49.2686         137.775         -49.3782         137.757       -0.0242071         142.364
0.623                   -3.44058         167.271         -49.1707          135.37         -49.2894         135.373       -0.0244694         142.282
0.624                   -3.49851         166.486         -49.0737         132.958         -49.2009         132.986       -0.0247354           142.2
0.625                   -3.55803         165.691         -48.9778          130.54         -49.1125         130.596       -0.0250051         142.117
0.626                   -3.61926         164.887         -48.8831         128.114         -49.0244         128.202       -0.0252787         142.034
0.627                   -3.68235         164.074         -48.7897         125.683         -48.9366         125.805       -0.0255563         141.951
0.628                   -3.74742         163.251         -48.6976         123.246         -48.8492         123.405       -0.0258379         141.868
0.629                   -3.81461         162.419         -48.6069         120.803         -48.7622         121.001       -0.0261237         141.784
