! TOUCHSTONE file generated by CST MICROWAVE STUDIO
! Date and time: Fri Oct 30 07:48:25 2020
! Project name: Scenario_1_Circular_Tissue_out_of_Line.cst
! Parameters = {dy1=-293.977; L_HA=400; MT=2.54; Rad_Dielectric=30; Rad_Lower=7.3; Rad_Upper=30; a_HA=580; a_WG=246; b_HA=500; b_WG=121; c_HA=0; c_WG=187; d_feed=85; dx1=520; h_feed=15; h_lower=18; h_upper=40}
! Header version: 2018
! Port assignment regex: !\s*Touchstone port\s*([0-9]+)\s*=\s*(CST MWS port|CST DS port)\s*([0-9]+|Zmin|Zmax)\s*\(\"(.*)\"\)(\s*mode\s*([0-9]+))?.*
! Touchstone port assignment:
! Touchstone port 1 = CST MWS port 1 ("")
! Touchstone port 2 = CST MWS port 2 ("")
# GHz S DB R 50
0.5                    -0.148276        -122.489         -63.6484        -83.9582         -63.6484        -83.9582      -0.00728826         151.122
0.501                  -0.155265        -122.932         -63.4401        -85.5871          -63.441        -85.5899      -0.00735608         151.057
0.502                  -0.162446        -123.376         -63.2321        -87.2382         -63.2338        -87.2432       -0.0074249         150.991
0.503                  -0.169821        -123.821         -63.0244        -88.9113         -63.0269        -88.9182      -0.00749474         150.926
0.504                  -0.177391        -124.268         -62.8171        -90.6067         -62.8203         -90.615      -0.00756559          150.86
0.505                  -0.185155        -124.717         -62.6105        -92.3241         -62.6143        -92.3335      -0.00763747         150.795
0.506                  -0.193113        -125.166         -62.4046        -94.0636          -62.409        -94.0737      -0.00771038         150.729
0.507                  -0.201267        -125.618         -62.1995         -95.825         -62.2044        -95.8356      -0.00778432         150.663
0.508                  -0.209617        -126.071         -61.9954        -97.6083         -62.0007        -97.6189       -0.0078593         150.598
0.509                  -0.218161        -126.525         -61.7924        -99.4131          -61.798        -99.4236      -0.00793532         150.532
0.51                   -0.226899        -126.981         -61.5906        -101.239         -61.5964        -101.249       -0.0080124         150.466
0.511                  -0.235833        -127.438         -61.3901        -103.086         -61.3962        -103.096      -0.00809052           150.4
0.512                  -0.244959        -127.897         -61.1911        -104.954         -61.1973        -104.963      -0.00816971         150.333
0.513                  -0.254279        -128.357         -60.9937        -106.843              -61         -106.85      -0.00824996         150.267
0.514                  -0.263791        -128.819          -60.798        -108.751         -60.8043        -108.758      -0.00833127         150.201
0.515                  -0.273493        -129.282         -60.6042        -110.678         -60.6105        -110.684      -0.00841366         150.134
0.516                  -0.283385        -129.747         -60.4123        -112.624         -60.4185        -112.629      -0.00849712         150.068
0.517                  -0.293465        -130.213         -60.2225        -114.588         -60.2286        -114.592      -0.00858165         150.001
0.518                  -0.303731        -130.681         -60.0349         -116.57         -60.0408        -116.572      -0.00866727         149.935
0.519                  -0.314182        -131.151         -59.8496        -118.568         -59.8553        -118.569      -0.00875396         149.868
0.52                   -0.324815        -131.621         -59.6668        -120.582         -59.6722        -120.583      -0.00884174         149.801
0.521                  -0.335628        -132.094         -59.4864        -122.611         -59.4915        -122.611       -0.0089306         149.734
0.522                  -0.346619        -132.568         -59.3086        -124.655         -59.3134        -124.654      -0.00902055         149.667
0.523                  -0.357785        -133.043         -59.1335        -126.712          -59.138         -126.71      -0.00911157           149.6
0.524                  -0.369123         -133.52         -58.9611        -128.781         -58.9652        -128.778      -0.00920369         149.533
0.525                   -0.38063        -133.999         -58.7916        -130.861         -58.7952        -130.858      -0.00929688         149.466
0.526                  -0.392304        -134.479         -58.6249        -132.952         -58.6281        -132.948      -0.00939115         149.399
0.527                   -0.40414        -134.961          -58.461        -135.052         -58.4639        -135.048      -0.00948649         149.331
0.528                  -0.416137        -135.445         -58.3001         -137.16         -58.3026        -137.156      -0.00958291         149.264
0.529                   -0.42829        -135.931         -58.1422        -139.275         -58.1442        -139.272      -0.00968039         149.196
0.53                   -0.440596        -136.418         -57.9872        -141.397         -57.9888        -141.394      -0.00977893         149.128
0.531                  -0.453052        -136.907         -57.8352        -143.524         -57.8363        -143.521      -0.00987852         149.061
0.532                  -0.465655        -137.398         -57.6861        -145.654         -57.6868        -145.652      -0.00997916         148.993
0.533                  -0.478402        -137.891         -57.5399        -147.788         -57.5403        -147.786       -0.0100808         148.925
0.534                  -0.491289        -138.386         -57.3966        -149.924         -57.3966        -149.922       -0.0101835         148.857
0.535                  -0.504315        -138.883         -57.2562        -152.061         -57.2558         -152.06       -0.0102873         148.789
0.536                  -0.517476        -139.382         -57.1185        -154.197         -57.1178        -154.198        -0.010392          148.72
0.537                  -0.530771        -139.883         -56.9836        -156.333         -56.9825        -156.335       -0.0104977         148.652
0.538                  -0.544199        -140.386         -56.8513        -158.468           -56.85         -158.47       -0.0106044         148.584
0.539                  -0.557758        -140.892         -56.7216          -160.6           -56.72        -160.603       -0.0107121         148.515
0.54                   -0.571449          -141.4         -56.5944        -162.728         -56.5926        -162.733       -0.0108207         148.446
0.541                  -0.585271        -141.911         -56.4697        -164.853         -56.4676        -164.859       -0.0109303         148.378
0.542                  -0.599227        -142.425         -56.3472        -166.973         -56.3449         -166.98       -0.0110408         148.309
0.543                  -0.613319        -142.941         -56.2269        -169.088         -56.2245        -169.096       -0.0111522          148.24
0.544                  -0.627549         -143.46         -56.1088        -171.197         -56.1063        -171.206       -0.0112645         148.171
0.545                  -0.641924        -143.982         -55.9926          -173.3           -55.99         -173.31       -0.0113777         148.102
0.546                  -0.656449        -144.507         -55.8784        -175.396         -55.8757        -175.407       -0.0114918         148.033
0.547                  -0.671131        -145.035         -55.7659        -177.486         -55.7631        -177.498       -0.0116067         147.963
0.548                  -0.685979        -145.567         -55.6551        -179.568         -55.6523        -179.581       -0.0117225         147.894
0.549                  -0.701003        -146.102         -55.5459         178.358         -55.5431         178.344       -0.0118391         147.824
0.55                   -0.716216        -146.641         -55.4381         176.291         -55.4353         176.276       -0.0119565         147.754
0.551                  -0.731632        -147.183         -55.3317         174.231          -55.329         174.216       -0.0120748         147.685
0.552                  -0.747265         -147.73         -55.2265          172.18         -55.2238         172.164       -0.0121939         147.615
0.553                  -0.763135         -148.28         -55.1225         170.137         -55.1199          170.12       -0.0123138         147.545
0.554                  -0.779259        -148.834         -55.0195         168.101          -55.017         168.084       -0.0124345         147.475
0.555                  -0.795659        -149.393         -54.9175         166.073         -54.9151         166.056        -0.012556         147.404
0.556                  -0.812358        -149.956         -54.8163         164.053          -54.814         164.036       -0.0126784         147.334
0.557                  -0.829381        -150.523          -54.716          162.04         -54.7137         162.023       -0.0128016         147.263
0.558                  -0.846755        -151.095         -54.6162         160.035         -54.6141         160.018       -0.0129256         147.193
0.559                  -0.864508        -151.671         -54.5172         158.037         -54.5152         158.021       -0.0130505         147.122
0.56                   -0.882669        -152.252         -54.4186         156.046         -54.4167          156.03       -0.0131763         147.051
0.561                  -0.901271        -152.838         -54.3205         154.062         -54.3188         154.046       -0.0133031          146.98
0.562                  -0.920345        -153.429         -54.2228         152.084         -54.2212         152.068       -0.0134307         146.909
0.563                  -0.939926        -154.025         -54.1255         150.112          -54.124         150.097       -0.0135593         146.838
0.564                  -0.960048        -154.625         -54.0285         148.146         -54.0271         148.131        -0.013689         146.767
0.565                  -0.980747         -155.23         -53.9317         146.185         -53.9304         146.171       -0.0138196         146.695
0.566                   -1.00206        -155.841         -53.8351          144.23          -53.834         144.217       -0.0139514         146.623
0.567                   -1.02402        -156.456         -53.7387         142.279         -53.7377         142.267       -0.0140842         146.552
0.568                   -1.04667        -157.076         -53.6425         140.333         -53.6415         140.321       -0.0142183          146.48
0.569                   -1.07004          -157.7         -53.5463         138.391         -53.5455          138.38       -0.0143535         146.408
0.57                    -1.09418         -158.33         -53.4503         136.452         -53.4495         136.443         -0.01449         146.336
0.571                   -1.11911        -158.964         -53.3543         134.517         -53.3536         134.509       -0.0146279         146.263
0.572                   -1.14487        -159.602         -53.2583         132.586         -53.2577         132.577       -0.0147671         146.191
0.573                    -1.1715        -160.245         -53.1625         130.656         -53.1619         130.649       -0.0149077         146.118
0.574                   -1.19903        -160.892         -53.0666         128.729         -53.0662         128.723       -0.0150497         146.045
0.575                   -1.22749        -161.543         -52.9709         126.805         -52.9704         126.799       -0.0151933         145.973
0.576                   -1.25692        -162.199         -52.8752         124.882         -52.8748         124.877       -0.0153385           145.9
0.577                   -1.28734        -162.858         -52.7795          122.96         -52.7791         122.956       -0.0154853         145.826
0.578                   -1.31878         -163.52         -52.6839         121.039         -52.6836         121.036       -0.0156338         145.753
0.579                   -1.35127        -164.186         -52.5885          119.12         -52.5881         119.117        -0.015784         145.679
0.58                    -1.38484        -164.855         -52.4931         117.201         -52.4927         117.199        -0.015936         145.606
0.581                    -1.4195        -165.528         -52.3978         115.282         -52.3975         115.281       -0.0160899         145.532
0.582                   -1.45528        -166.202         -52.3028         113.364         -52.3024         113.363       -0.0162456         145.458
0.583                   -1.49219         -166.88         -52.2078         111.446         -52.2075         111.446       -0.0164032         145.384
0.584                   -1.53026        -167.559         -52.1132         109.527         -52.1128         109.527       -0.0165628          145.31
0.585                   -1.56949        -168.241         -52.0187         107.608         -52.0183         107.609       -0.0167245         145.235
0.586                   -1.60989        -168.925         -51.9245         105.689         -51.9241          105.69       -0.0168882         145.161
0.587                   -1.65149         -169.61         -51.8307         103.769         -51.8302          103.77        -0.017054         145.086
0.588                   -1.69428        -170.296         -51.7371         101.848         -51.7367          101.85        -0.017222         145.011
0.589                   -1.73827        -170.983          -51.644         99.9273         -51.6435         99.9289       -0.0173922         144.936
0.59                    -1.78346        -171.671         -51.5512         98.0054         -51.5507          98.007       -0.0175646         144.861
0.591                   -1.82985         -172.36          -51.459         96.0828         -51.4584         96.0843       -0.0177392         144.785
0.592                   -1.87744        -173.048         -51.3672         94.1594         -51.3666         94.1609       -0.0179162          144.71
0.593                   -1.92623        -173.737         -51.2759         92.2354         -51.2753         92.2367       -0.0180956         144.634
0.594                    -1.9762        -174.425         -51.1851         90.3108         -51.1846         90.3119       -0.0182773         144.558
0.595                   -2.02735        -175.113          -51.095         88.3857         -51.0944         88.3865       -0.0184614         144.482
0.596                   -2.07967          -175.8         -51.0055         86.4601         -51.0049         86.4606       -0.0186481         144.405
0.597                   -2.13313        -176.486         -50.9166         84.5343          -50.916         84.5344       -0.0188372         144.329
0.598                   -2.18773        -177.171         -50.8284         82.6084         -50.8278          82.608       -0.0190288         144.252
0.599                   -2.24344        -177.854          -50.741         80.6824         -50.7404         80.6816        -0.019223         144.175
0.6                     -2.30024        -178.535         -50.6542         78.7568         -50.6536         78.7554       -0.0194198         144.098
0.601                   -2.35811        -179.215         -50.5682         76.8315         -50.5677         76.8296       -0.0196193         144.021
0.602                   -2.41702        -179.892          -50.483         74.9069         -50.4825         74.9045       -0.0198214         143.943
0.603                   -2.47694         179.433         -50.3986         72.9832         -50.3981         72.9802       -0.0200262         143.866
0.604                   -2.53783          178.76          -50.315         71.0606         -50.3145          71.057       -0.0202338         143.788
0.605                   -2.59967          178.09         -50.2322         69.1394         -50.2318         69.1353       -0.0204442          143.71
0.606                   -2.66241         177.423         -50.1502         67.2199         -50.1499         67.2152       -0.0206574         143.632
0.607                   -2.72603         176.759         -50.0691         65.3023         -50.0688          65.297       -0.0208734         143.553
0.608                   -2.79048         176.098         -49.9888         63.3869         -49.9886          63.381       -0.0210924         143.474
0.609                   -2.85572         175.439         -49.9093          61.474         -49.9092         61.4676       -0.0213143         143.395
0.61                    -2.92171         174.784         -49.8307         59.5639         -49.8306          59.557       -0.0215391         143.316
0.611                    -2.9884         174.132         -49.7529         57.6568         -49.7529         57.6494        -0.021767         143.237
0.612                   -3.05577         173.483         -49.6759         55.7531         -49.6759         55.7452        -0.021998         143.158
0.613                   -3.12375         172.837         -49.5996          53.853         -49.5998         53.8447        -0.022232         143.078
0.614                   -3.19231         172.194         -49.5241         51.9567         -49.5244         51.9481       -0.0224692         142.998
0.615                    -3.2614         171.554         -49.4494         50.0647         -49.4498         50.0556       -0.0227096         142.918
0.616                   -3.33099         170.917         -49.3754          48.177         -49.3759         48.1676       -0.0229533         142.837
0.617                   -3.40103         170.283         -49.3021         46.2939         -49.3026         46.2843       -0.0232002         142.757
0.618                   -3.47148         169.651         -49.2295         44.4158         -49.2301          44.406       -0.0234505         142.676
0.619                   -3.54231         169.021         -49.1574         42.5427         -49.1581         42.5327       -0.0237041         142.595
0.62                    -3.61348         168.394          -49.086         40.6749         -49.0868         40.6649       -0.0239612         142.513
0.621                   -3.68496         167.768         -49.0151         38.8126          -49.016         38.8025       -0.0242218         142.432
0.622                   -3.75671         167.144         -48.9448          36.956         -48.9457         36.9458       -0.0244859          142.35
0.623                   -3.82872         166.521         -48.8749         35.1052         -48.8759          35.095       -0.0247536         142.268
0.624                   -3.90097         165.899         -48.8054         33.2603         -48.8066         33.2502        -0.025025         142.185
0.625                   -3.97343         165.278         -48.7363         31.4214         -48.7375         31.4115       -0.0253001         142.103
0.626                   -4.04609         164.657         -48.6676         29.5887         -48.6689          29.579        -0.025579          142.02
0.627                   -4.11895         164.036         -48.5991         27.7623         -48.6005         27.7527       -0.0258617         141.937
0.628                     -4.192         163.414         -48.5309         25.9421         -48.5323         25.9328       -0.0261484         141.853
0.629                   -4.26525         162.791         -48.4629         24.1283         -48.4644         24.1192       -0.0264391          141.77
