! TOUCHSTONE file generated by CST MICROWAVE STUDIO
! Date and time: Wed Oct 28 19:13:58 2020
! Project name: Scenario_1_Circular_Tissue_out_of_Line.cst
! Parameters = {dy1=-293.977; L_HA=400; MT=2.54; Rad_Dielectric=30; Rad_Lower=7.3; Rad_Upper=30; a_HA=580; a_WG=246; b_HA=500; b_WG=121; c_HA=0; c_WG=187; d_feed=85; dx1=693; h_feed=15; h_lower=18; h_upper=40}
! Header version: 2018
! Port assignment regex: !\s*Touchstone port\s*([0-9]+)\s*=\s*(CST MWS port|CST DS port)\s*([0-9]+|Zmin|Zmax)\s*\(\"(.*)\"\)(\s*mode\s*([0-9]+))?.*
! Touchstone port assignment:
! Touchstone port 1 = CST MWS port 1 ("")
! Touchstone port 2 = CST MWS port 2 ("")
# GHz S DB R 50
0.5                    -0.144287        -122.277         -64.2939         174.337         -64.2584         170.574      -0.00763011         151.147
0.501                  -0.158082        -122.618         -64.2432         172.454         -64.2084         168.466      -0.00768826         151.081
0.502                  -0.171885        -122.961          -64.189         170.554         -64.1534         166.347      -0.00774734         151.016
0.503                    -0.1857        -123.307         -64.1311         168.636         -64.0933         164.218      -0.00780736          150.95
0.504                   -0.19953        -123.656         -64.0695         166.702         -64.0282         162.081      -0.00786831         150.885
0.505                  -0.213378        -124.008         -64.0041         164.753          -63.958         159.937       -0.0079302         150.819
0.506                  -0.227249        -124.363         -63.9349         162.788         -63.8827         157.787      -0.00799304         150.753
0.507                  -0.241146        -124.721         -63.8618         160.809         -63.8025         155.634      -0.00805682         150.688
0.508                  -0.255073        -125.082         -63.7848         158.817         -63.7172         153.477      -0.00812155         150.622
0.509                  -0.269033        -125.445         -63.7038         156.812         -63.6271         151.318      -0.00818723         150.556
0.51                   -0.283032        -125.812         -63.6188         154.796         -63.5322         149.159      -0.00825387          150.49
0.511                  -0.297072        -126.182         -63.5298         152.768         -63.4326             147      -0.00832146         150.424
0.512                  -0.311159        -126.556         -63.4369         150.731         -63.3283         144.843      -0.00839002         150.358
0.513                  -0.325295        -126.932         -63.3399         148.684         -63.2196         142.689      -0.00845953         150.291
0.514                  -0.339487        -127.312         -63.2389          146.63         -63.1065         140.539      -0.00853002         150.225
0.515                  -0.353738        -127.695         -63.1341         144.567         -62.9892         138.393      -0.00860148         150.159
0.516                  -0.368052        -128.082         -63.0253         142.499         -62.8678         136.253      -0.00867391         150.092
0.517                  -0.382434        -128.472         -62.9126         140.424         -62.7425         134.119      -0.00874732         150.026
0.518                  -0.396889        -128.866         -62.7961         138.345         -62.6134         131.992      -0.00882172         149.959
0.519                  -0.411422        -129.263         -62.6759         136.261         -62.4807         129.873       -0.0088971         149.892
0.52                   -0.426036        -129.664          -62.552         134.174         -62.3445         127.761      -0.00897348         149.826
0.521                  -0.440738        -130.068         -62.4246         132.084         -62.2051         125.658      -0.00905085         149.759
0.522                  -0.455531        -130.477         -62.2936         129.992         -62.0626         123.564      -0.00912923         149.692
0.523                  -0.470421        -130.889         -62.1592         127.898         -61.9172         121.478      -0.00920862         149.625
0.524                  -0.485412        -131.305         -62.0216         125.803          -61.769         119.401      -0.00928902         149.557
0.525                   -0.50051        -131.726         -61.8807         123.708         -61.6183         117.334      -0.00937044          149.49
0.526                  -0.515719         -132.15         -61.7368         121.613         -61.4651         115.276      -0.00945288         149.423
0.527                  -0.531044        -132.578         -61.5899         119.519         -61.3096         113.227      -0.00953636         149.355
0.528                  -0.546489        -133.011         -61.4402         117.425         -61.1521         111.187      -0.00962087         149.288
0.529                  -0.562061        -133.448         -61.2877         115.332         -60.9926         109.157      -0.00970642          149.22
0.53                   -0.577763        -133.889         -61.1327         113.241         -60.8313         107.135      -0.00979303         149.153
0.531                  -0.593601        -134.334         -60.9753         111.151         -60.6685         105.121      -0.00988069         149.085
0.532                  -0.609578        -134.785         -60.8155         109.064         -60.5041         103.116      -0.00996941         149.017
0.533                    -0.6257        -135.239         -60.6536         106.978         -60.3384         101.119       -0.0100592         148.949
0.534                  -0.641971        -135.698         -60.4896         104.894         -60.1714         99.1291       -0.0101501         148.881
0.535                  -0.658394        -136.163         -60.3237         102.813         -60.0034         97.1466        -0.010242         148.813
0.536                  -0.674975        -136.631          -60.156         100.733         -59.8345         95.1709       -0.0103351         148.745
0.537                  -0.691717        -137.105         -59.9867         98.6557         -59.6647         93.2015       -0.0104292         148.676
0.538                  -0.708623        -137.584          -59.816         96.5803         -59.4942          91.238       -0.0105245         148.608
0.539                  -0.725697        -138.067         -59.6438         94.5068         -59.3231         89.2798       -0.0106209         148.539
0.54                   -0.742943        -138.556         -59.4704         92.4351         -59.1516         87.3266       -0.0107184          148.47
0.541                  -0.760362         -139.05         -59.2959         90.3651         -58.9796         85.3778       -0.0108171         148.402
0.542                  -0.777958         -139.55         -59.1204         88.2965         -58.8074         83.4328       -0.0109169         148.333
0.543                  -0.795732        -140.055         -58.9441         86.2291          -58.635         81.4913       -0.0110178         148.264
0.544                  -0.813686        -140.565         -58.7671         84.1628         -58.4625         79.5525         -0.01112         148.195
0.545                  -0.831821        -141.081         -58.5895         82.0972           -58.29         77.6161       -0.0112233         148.126
0.546                  -0.850138        -141.602         -58.4114         80.0322         -58.1176         75.6816       -0.0113278         148.056
0.547                  -0.868637        -142.129          -58.233         77.9674         -57.9454         73.7483       -0.0114335         147.987
0.548                  -0.887318        -142.662         -58.0543         75.9026         -57.7734         71.8157       -0.0115404         147.917
0.549                  -0.906179        -143.201         -57.8756         73.8374         -57.6018         69.8835       -0.0116485         147.848
0.55                   -0.925219        -143.746         -57.6968         71.7717         -57.4305          67.951       -0.0117579         147.778
0.551                  -0.944437        -144.296         -57.5181          69.705         -57.2598         66.0177       -0.0118685         147.708
0.552                  -0.963829        -144.853         -57.3397         67.6372         -57.0896         64.0832       -0.0119804         147.638
0.553                  -0.983392        -145.416         -57.1616         65.5679         -56.9199         62.1471       -0.0120935         147.568
0.554                   -1.00312        -145.985         -56.9839         63.4968          -56.751         60.2088        -0.012208         147.498
0.555                   -1.02301        -146.561         -56.8068         61.4237         -56.5828         58.2678       -0.0123237         147.428
0.556                   -1.04306        -147.142         -56.6303         59.3482         -56.4155         56.3239       -0.0124408         147.357
0.557                   -1.06326         -147.73         -56.4546         57.2701          -56.249         54.3764       -0.0125592         147.287
0.558                    -1.0836        -148.324         -56.2797         55.1892         -56.0834         52.4251       -0.0126789         147.216
0.559                   -1.10408        -148.924         -56.1057         53.1053         -55.9189         50.4696          -0.0128         147.145
0.56                    -1.12469        -149.531         -55.9327          51.018         -55.7553         48.5094       -0.0129225         147.074
0.561                   -1.14542        -150.144         -55.7609         48.9272         -55.5929         46.5443       -0.0130464         147.003
0.562                   -1.16626        -150.763         -55.5903         46.8326         -55.4317         44.5739       -0.0131717         146.932
0.563                   -1.18722        -151.389         -55.4209         44.7342         -55.2716         42.5978       -0.0132984         146.861
0.564                   -1.20826         -152.02          -55.253         42.6318         -55.1129         40.6159       -0.0134266         146.789
0.565                    -1.2294        -152.658         -55.0865         40.5251         -54.9554         38.6278       -0.0135562         146.718
0.566                   -1.25062        -153.302         -54.9215         38.4142         -54.7994         36.6332       -0.0136873         146.646
0.567                   -1.27192        -153.951         -54.7581         36.2988         -54.6447          34.632         -0.01382         146.574
0.568                   -1.29329        -154.607         -54.5964          34.179         -54.4915          32.624       -0.0139541         146.502
0.569                   -1.31472        -155.268         -54.4365         32.0547         -54.3399         30.6089       -0.0140898          146.43
0.57                    -1.33621        -155.934         -54.2784         29.9258         -54.1898         28.5866       -0.0142271         146.358
0.571                   -1.35777        -156.606         -54.1222         27.7924         -54.0414         26.5571        -0.014366         146.286
0.572                   -1.37939        -157.283          -53.968         25.6544         -53.8946           24.52       -0.0145064         146.213
0.573                   -1.40107        -157.964         -53.8158         23.5119         -53.7495         22.4755       -0.0146485         146.141
0.574                   -1.42283         -158.65         -53.6656         21.3649         -53.6062         20.4234       -0.0147923         146.068
0.575                   -1.44466        -159.341         -53.5176         19.2136         -53.4646         18.3636       -0.0149377         145.995
0.576                   -1.46659        -160.035         -53.3717         17.0581         -53.3249         16.2962       -0.0150849         145.922
0.577                   -1.48862        -160.734          -53.228         14.8983         -53.1871         14.2213       -0.0152337         145.849
0.578                   -1.51079        -161.435         -53.0866         12.7346         -53.0511         12.1387       -0.0153844         145.775
0.579                    -1.5331        -162.141         -52.9475         10.5671         -52.9171         10.0486       -0.0155368         145.702
0.58                    -1.55558        -162.849         -52.8108         8.39587         -52.7851         7.95105        -0.015691         145.628
0.581                   -1.57828        -163.559         -52.6763          6.2212          -52.655         5.84618        -0.015847         145.554
0.582                   -1.60122        -164.272         -52.5443         4.04328          -52.527         3.73411       -0.0160049          145.48
0.583                   -1.62444        -164.987         -52.4147         1.86233         -52.4011         1.61498       -0.0161648         145.406
0.584                   -1.64799        -165.704         -52.2875       -0.321403         -52.2772       -0.511033       -0.0163265         145.332
0.585                   -1.67191        -166.422         -52.1627        -2.50767         -52.1554        -2.64373       -0.0164902         145.258
0.586                   -1.69625        -167.141         -52.0404        -4.69622         -52.0357        -4.78291       -0.0166558         145.183
0.587                   -1.72107        -167.861         -51.9205        -6.88679         -51.9181        -6.92834       -0.0168235         145.108
0.588                   -1.74642        -168.582          -51.803        -9.07908         -51.8027        -9.07976       -0.0169933         145.033
0.589                   -1.77236        -169.303          -51.688        -11.2728         -51.6894        -11.2369       -0.0171651         144.958
0.59                    -1.79896        -170.024         -51.5755        -13.4678         -51.5783        -13.3995        -0.017339         144.883
0.591                   -1.82627        -170.746         -51.4653        -15.6636         -51.4693        -15.5673       -0.0175151         144.807
0.592                   -1.85436        -171.467         -51.3575          -17.86         -51.3624        -17.7399       -0.0176934         144.732
0.593                    -1.8833        -172.188         -51.2521        -20.0568         -51.2577        -19.9171       -0.0178739         144.656
0.594                   -1.91314        -172.909         -51.1491        -22.2536         -51.1551        -22.0985       -0.0180567          144.58
0.595                   -1.94395        -173.629         -51.0484        -24.4501         -51.0546        -24.2838       -0.0182417         144.504
0.596                   -1.97579        -174.349         -50.9499        -26.6462         -50.9561        -26.4726       -0.0184291         144.427
0.597                   -2.00873        -175.068         -50.8537        -28.8415         -50.8598        -28.6645       -0.0186189         144.351
0.598                   -2.04282        -175.786         -50.7597        -31.0357         -50.7655        -30.8593       -0.0188111         144.274
0.599                   -2.07812        -176.504         -50.6678        -33.2287         -50.6733        -33.0566       -0.0190058         144.197
0.6                     -2.11469        -177.221         -50.5781        -35.4202          -50.583         -35.256        -0.019203          144.12
0.601                   -2.15258        -177.938         -50.4904          -37.61         -50.4947        -37.4572       -0.0194027         144.043
0.602                   -2.19183        -178.653         -50.4048        -39.7977         -50.4083        -39.6597        -0.019605         143.966
0.603                    -2.2325        -179.369          -50.321        -41.9834         -50.3237        -41.8634         -0.01981         143.888
0.604                   -2.27463         179.917         -50.2392        -44.1667          -50.241        -44.0677       -0.0200176          143.81
0.605                   -2.31826         179.203         -50.1592        -46.3475         -50.1601        -46.2724        -0.020228         143.732
0.606                   -2.36343         178.489          -50.081        -48.5255          -50.081        -48.4771       -0.0204411         143.654
0.607                   -2.41017         177.776         -50.0045        -50.7008         -50.0035        -50.6815       -0.0206571         143.575
0.608                   -2.45851         177.063         -49.9296        -52.8731         -49.9276        -52.8853        -0.020876         143.496
0.609                   -2.50849         176.351         -49.8563        -55.0423         -49.8534        -55.0882       -0.0210978         143.418
0.61                    -2.56012         175.639         -49.7845        -57.2083         -49.7806        -57.2898       -0.0213226         143.338
0.611                   -2.61343         174.928         -49.7141        -59.3711         -49.7094        -59.4899       -0.0215504         143.259
0.612                   -2.66844         174.216         -49.6452        -61.5304         -49.6395        -61.6881       -0.0217814          143.18
0.613                   -2.72516         173.506         -49.5775        -63.6864         -49.5709        -63.8843       -0.0220155           143.1
0.614                   -2.78362         172.795         -49.5111        -65.8388         -49.5037        -66.0781       -0.0222528          143.02
0.615                   -2.84383         172.085         -49.4458        -67.9877         -49.4376        -68.2693       -0.0224934          142.94
0.616                   -2.90579         171.376         -49.3817        -70.1331         -49.3727        -70.4577       -0.0227373         142.859
0.617                   -2.96951         170.667         -49.3185        -72.2748         -49.3089         -72.643       -0.0229846         142.779
0.618                   -3.03501         169.958         -49.2564         -74.413         -49.2461        -74.8251       -0.0232354         142.698
0.619                   -3.10228          169.25         -49.1951        -76.5476         -49.1842        -77.0037       -0.0234897         142.616
0.62                    -3.17134         168.542         -49.1346        -78.6785         -49.1233        -79.1786       -0.0237475         142.535
0.621                   -3.24218         167.836          -49.075         -80.806         -49.0631        -81.3497       -0.0240091         142.453
0.622                    -3.3148          167.13          -49.016        -82.9298         -49.0037        -83.5169       -0.0242743         142.372
0.623                   -3.38922         166.425         -48.9577        -85.0502          -48.945        -85.6799       -0.0245434         142.289
0.624                   -3.46541         165.721         -48.8999        -87.1671         -48.8869        -87.8386       -0.0248163         142.207
0.625                    -3.5434         165.018         -48.8426        -89.2805         -48.8294        -89.9929       -0.0250931         142.124
0.626                   -3.62316         164.316         -48.7858        -91.3906         -48.7724        -92.1427        -0.025374         142.042
0.627                    -3.7047         163.616         -48.7294        -93.4973         -48.7158        -94.2879        -0.025659         141.958
0.628                   -3.78802         162.917         -48.6733        -95.6008         -48.6596        -96.4283       -0.0259481         141.875
0.629                    -3.8731          162.22         -48.6175         -97.701         -48.6037         -98.564       -0.0262414         141.791
