! TOUCHSTONE file generated by CST MICROWAVE STUDIO
! Date and time: Mon Oct 26 12:25:09 2020
! Project name: Scenario_1_Circular_Tissue_out_of_Line.cst
! Parameters = {dy1=-293.977; L_HA=400; MT=2.54; Rad_Dielectric=30; Rad_Lower=7.3; Rad_Upper=30; a_HA=580; a_WG=246; b_HA=500; b_WG=121; c_HA=0; c_WG=187; d_feed=85; dx1=866; h_feed=15; h_lower=18; h_upper=40}
! Header version: 2018
! Port assignment regex: !\s*Touchstone port\s*([0-9]+)\s*=\s*(CST MWS port|CST DS port)\s*([0-9]+|Zmin|Zmax)\s*\(\"(.*)\"\)(\s*mode\s*([0-9]+))?.*
! Touchstone port assignment:
! Touchstone port 1 = CST MWS port 1 ("")
! Touchstone port 2 = CST MWS port 2 ("")
# GHz S DB R 50
0.5                    -0.149887        -122.406         -64.6032         83.6766         -64.6032         83.6766      -0.00743238         151.136
0.501                  -0.154681         -122.86         -64.8993         82.4699         -64.8977         82.4292      -0.00749697          151.07
0.502                  -0.159721        -123.316         -65.2066         81.1878          -65.203         81.1042      -0.00756238         151.005
0.503                   -0.16501        -123.773         -65.5255         79.8218         -65.5195         79.6931      -0.00762863         150.939
0.504                  -0.170553        -124.233         -65.8565         78.3621         -65.8477          78.186      -0.00769571         150.874
0.505                  -0.176352        -124.695         -66.2003         76.7973         -66.1879         76.5714      -0.00776363         150.808
0.506                  -0.182412        -125.159         -66.5571         75.1144         -66.5405         74.8363      -0.00783239         150.743
0.507                  -0.188737        -125.625         -66.9274         73.2983         -66.9059         72.9656        -0.007902         150.677
0.508                   -0.19533        -126.093         -67.3114         71.3314         -67.2839         70.9418      -0.00797246         150.611
0.509                  -0.202195        -126.562         -67.7091         69.1936         -67.6745          68.745      -0.00804377         150.545
0.51                   -0.209336        -127.034         -68.1202         66.8613         -68.0771         66.3524      -0.00811595         150.479
0.511                  -0.216757        -127.508         -68.5439         64.3077         -68.4908         63.7379      -0.00818899         150.413
0.512                  -0.224462        -127.985         -68.9789         61.5022         -68.9139         60.8721      -0.00826291         150.347
0.513                  -0.232454        -128.463         -69.4229         58.4104         -69.3439         57.7227       -0.0083377         150.281
0.514                  -0.240737        -128.943         -69.8725         54.9944         -69.7769         54.2545      -0.00841336         150.215
0.515                  -0.249316        -129.425         -70.3225         51.2141         -70.2078         50.4315      -0.00848992         150.148
0.516                  -0.258194        -129.909         -70.7658         47.0293         -70.6292         46.2186      -0.00856736         150.082
0.517                  -0.267376        -130.395         -71.1929          42.404         -71.0316         41.5862       -0.0086457         150.015
0.518                  -0.276864        -130.884         -71.5915         37.3118         -71.4032         36.5154      -0.00872495         149.949
0.519                  -0.286663        -131.374         -71.9463         31.7449         -71.7299         31.0061       -0.0088051         149.882
0.52                   -0.296777        -131.866         -72.2404         25.7238         -71.9959         25.0847      -0.00888616         149.815
0.521                  -0.307209         -132.36          -72.456         19.3059         -72.1857         18.8112      -0.00896815         149.748
0.522                  -0.317964        -132.857         -72.5774         12.5898         -72.2858         12.2809      -0.00905106         149.682
0.523                  -0.329045        -133.355         -72.5936         5.71088         -72.2873         5.61902       -0.0091349         149.614
0.524                  -0.340457        -133.855         -72.5006        -1.17393         -72.1876        -1.03288      -0.00921968         149.547
0.525                  -0.352203        -134.357         -72.3025        -7.90779         -71.9908        -7.53556      -0.00930541          149.48
0.526                  -0.364286        -134.861         -72.0104         -14.356         -71.7073          -13.77      -0.00939208         149.413
0.527                  -0.376712        -135.368         -71.6402        -20.4205         -71.3511        -19.6492      -0.00947972         149.345
0.528                  -0.389483        -135.876         -71.2095        -26.0446         -70.9382        -25.1219      -0.00956832         149.278
0.529                  -0.402603        -136.386         -70.7354        -31.2086         -70.4839        -30.1686       -0.0096579          149.21
0.53                   -0.416076        -136.898         -70.2329        -35.9207         -70.0018        -34.7947      -0.00974846         149.143
0.531                  -0.429906        -137.412         -69.7144        -40.2073         -69.5033        -39.0225         -0.00984         149.075
0.532                  -0.444097        -137.928         -69.1895        -44.1049         -68.9973        -42.8833      -0.00993255         149.007
0.533                  -0.458652        -138.445          -68.665        -47.6536         -68.4905        -46.4127       -0.0100261         148.939
0.534                  -0.473575        -138.965         -68.1462        -50.8936         -67.9879         -49.647       -0.0101207         148.871
0.535                  -0.488869        -139.487         -67.6364        -53.8628         -67.4928        -52.6207       -0.0102162         148.803
0.536                  -0.504538         -140.01          -67.138        -56.5955         -67.0076        -55.3656       -0.0103128         148.735
0.537                  -0.520586        -140.536         -66.6522        -59.1226         -66.5337        -57.9103       -0.0104105         148.666
0.538                  -0.537016        -141.063         -66.1798        -61.4708         -66.0721        -60.2801       -0.0105092         148.598
0.539                  -0.553831        -141.592         -65.7212        -63.6636         -65.6231        -62.4974       -0.0106089         148.529
0.54                   -0.571035        -142.123         -65.2762        -65.7214         -65.1868        -64.5816       -0.0107098         148.461
0.541                  -0.588632        -142.656         -64.8447        -67.6617         -64.7632        -66.5495       -0.0108117         148.392
0.542                  -0.606624        -143.191         -64.4264        -69.4998         -64.3519        -68.4159       -0.0109146         148.323
0.543                  -0.625015        -143.727         -64.0207        -71.2488         -63.9525        -70.1936       -0.0110187         148.254
0.544                  -0.643808        -144.265         -63.6272        -72.9201         -63.5648        -71.8938       -0.0111239         148.185
0.545                  -0.663007        -144.806         -63.2453        -74.5237         -63.1882        -73.5261       -0.0112302         148.116
0.546                  -0.682613        -145.347         -62.8745        -76.0682         -62.8222        -75.0991       -0.0113376         148.047
0.547                  -0.702631        -145.891         -62.5144        -77.5612         -62.4664        -76.6203       -0.0114462         147.977
0.548                  -0.723063        -146.437         -62.1643        -79.0094         -62.1203        -78.0963       -0.0115559         147.908
0.549                  -0.743912        -146.984         -61.8239        -80.4187         -61.7834        -79.5328       -0.0116668         147.838
0.55                   -0.765181        -147.533         -61.4926        -81.7942         -61.4554        -80.9352       -0.0117789         147.769
0.551                  -0.786873        -148.083         -61.1699        -83.1405         -61.1358        -82.3078       -0.0118921         147.699
0.552                   -0.80899        -148.636         -60.8555        -84.4618         -60.8243         -83.655       -0.0120066         147.629
0.553                  -0.831535         -149.19          -60.549        -85.7617         -60.5203        -84.9803       -0.0121222         147.559
0.554                  -0.854511        -149.745           -60.25        -87.0436         -60.2237        -86.2871       -0.0122391         147.489
0.555                  -0.877919        -150.303          -59.958        -88.3105         -59.9339        -87.5783       -0.0123572         147.418
0.556                  -0.901763        -150.862         -59.6729         -89.565         -59.6509        -88.8567       -0.0124766         147.348
0.557                  -0.926044        -151.423         -59.3943        -90.8096         -59.3741        -90.1248       -0.0125972         147.277
0.558                  -0.950765        -151.985         -59.1219        -92.0466         -59.1034        -91.3848       -0.0127192         147.207
0.559                  -0.975928        -152.549         -58.8553        -93.2781         -58.8385        -92.6388       -0.0128424         147.136
0.56                    -1.00153        -153.115         -58.5945        -94.5058         -58.5791        -93.8887       -0.0129669         147.065
0.561                   -1.02759        -153.682          -58.339        -95.7317          -58.325        -95.1362       -0.0130928         146.994
0.562                   -1.05408        -154.251         -58.0887        -96.9572          -58.076        -96.3831         -0.01322         146.923
0.563                   -1.08103        -154.821         -57.8434         -98.184         -57.8319        -97.6308       -0.0133486         146.852
0.564                   -1.10843        -155.393         -57.6029        -99.4134         -57.5924        -98.8808       -0.0134785          146.78
0.565                   -1.13628        -155.967          -57.367        -100.647         -57.3575        -100.134       -0.0136098         146.709
0.566                   -1.16459        -156.542         -57.1355        -101.885         -57.1269        -101.393       -0.0137426         146.637
0.567                   -1.19335        -157.119         -56.9082         -103.13         -56.9005        -102.657       -0.0138768         146.565
0.568                   -1.22256        -157.697          -56.685        -104.383         -56.6781        -103.929       -0.0140124         146.493
0.569                   -1.25223        -158.277         -56.4657        -105.644         -56.4595        -105.208       -0.0141495         146.421
0.57                    -1.28237        -158.858         -56.2503        -106.914         -56.2448        -106.497       -0.0142881         146.349
0.571                   -1.31295        -159.441         -56.0385        -108.195         -56.0336        -107.797       -0.0144282         146.277
0.572                     -1.344        -160.025         -55.8304        -109.488          -55.826        -109.107       -0.0145698         146.204
0.573                   -1.37551        -160.611         -55.6256        -110.793         -55.6218        -110.429        -0.014713         146.131
0.574                   -1.40748        -161.199         -55.4242        -112.111         -55.4208        -111.764       -0.0148577         146.059
0.575                   -1.43991        -161.788          -55.226        -113.442         -55.2231        -113.113       -0.0150041         145.986
0.576                   -1.47281        -162.379          -55.031        -114.789         -55.0285        -114.476        -0.015152         145.913
0.577                   -1.50616        -162.971         -54.8391        -116.151         -54.8369        -115.854       -0.0153016          145.84
0.578                   -1.53998        -163.564         -54.6502        -117.529         -54.6483        -117.249       -0.0154529         145.766
0.579                   -1.57426         -164.16         -54.4641        -118.925         -54.4625        -118.659       -0.0156058         145.693
0.58                      -1.609        -164.756          -54.281        -120.338         -54.2796        -120.088       -0.0157605         145.619
0.581                    -1.6442        -165.355         -54.1006        -121.769         -54.0995        -121.534       -0.0159168         145.545
0.582                   -1.67987        -165.955         -53.9229        -123.219          -53.922        -122.998        -0.016075         145.471
0.583                   -1.71599        -166.556          -53.748        -124.688         -53.7472        -124.482       -0.0162349         145.397
0.584                   -1.75258        -167.159         -53.5756        -126.178          -53.575        -125.986       -0.0163967         145.323
0.585                   -1.78962        -167.764         -53.4058        -127.688         -53.4054         -127.51       -0.0165603         145.248
0.586                   -1.82713         -168.37         -53.2386         -129.22         -53.2383        -129.055       -0.0167258         145.174
0.587                   -1.86509        -168.978         -53.0739        -130.773         -53.0736        -130.621       -0.0168931         145.099
0.588                   -1.90352        -169.588         -52.9117        -132.349         -52.9115        -132.209       -0.0170625         145.024
0.589                    -1.9424          -170.2         -52.7519        -133.947         -52.7518         -133.82       -0.0172337         144.949
0.59                    -1.98174        -170.813         -52.5945        -135.569         -52.5945        -135.454        -0.017407         144.874
0.591                   -2.02153        -171.428         -52.4396        -137.214         -52.4395         -137.11       -0.0175823         144.798
0.592                   -2.06178        -172.045          -52.287        -138.883          -52.287        -138.791       -0.0177597         144.723
0.593                   -2.10248        -172.664         -52.1368        -140.576         -52.1368        -140.495       -0.0179391         144.647
0.594                   -2.14364        -173.285          -51.989        -142.295          -51.989        -142.224       -0.0181207         144.571
0.595                   -2.18525        -173.907         -51.8435        -144.038         -51.8435        -143.978       -0.0183045         144.495
0.596                   -2.22732        -174.532         -51.7004        -145.807         -51.7004        -145.756       -0.0184905         144.419
0.597                   -2.26984        -175.159         -51.5596        -147.601         -51.5596         -147.56       -0.0186787         144.342
0.598                   -2.31281        -175.788         -51.4211        -149.421         -51.4212        -149.389       -0.0188692         144.265
0.599                   -2.35623         -176.42          -51.285        -151.267         -51.2851        -151.244        -0.019062         144.188
0.6                      -2.4001        -177.053         -51.1513         -153.14         -51.1513        -153.124       -0.0192572         144.111
0.601                   -2.44443         -177.69         -51.0199        -155.038         -51.0199        -155.031       -0.0194548         144.034
0.602                   -2.48921        -178.328         -50.8909        -156.963         -50.8908        -156.963       -0.0196548         143.957
0.603                   -2.53445         -178.97         -50.7642        -158.913         -50.7641        -158.921       -0.0198573         143.879
0.604                   -2.58014        -179.614         -50.6399        -160.891         -50.6398        -160.904       -0.0200624         143.801
0.605                   -2.62629         179.739          -50.518        -162.894         -50.5179        -162.914         -0.02027         143.723
0.606                    -2.6729         179.089         -50.3985        -164.923         -50.3983        -164.948       -0.0204803         143.645
0.607                   -2.71998         178.436         -50.2813        -166.978         -50.2812        -167.009       -0.0206933         143.566
0.608                   -2.76753          177.78         -50.1666        -169.058         -50.1664        -169.094        -0.020909         143.488
0.609                   -2.81555          177.12         -50.0542        -171.164         -50.0541        -171.204       -0.0211275         143.409
0.61                    -2.86404         176.457         -49.9443        -173.295         -49.9442        -173.339       -0.0213488          143.33
0.611                   -2.91303          175.79         -49.8368         -175.45         -49.8367        -175.497        -0.021573          143.25
0.612                   -2.96251         175.119         -49.7317        -177.629         -49.7315        -177.679       -0.0218002         143.171
0.613                    -3.0125         174.443          -49.629        -179.831         -49.6289        -179.884       -0.0220303         143.091
0.614                     -3.063         173.764         -49.5287         177.944         -49.5286         177.888       -0.0222635         143.011
0.615                   -3.11404         173.079         -49.4308         175.696         -49.4307         175.638       -0.0224999         142.931
0.616                   -3.16562          172.39         -49.3353         173.427         -49.3352         173.368       -0.0227394          142.85
0.617                   -3.21777         171.696         -49.2422         171.137          -49.242         171.077       -0.0229821          142.77
0.618                    -3.2705         170.996         -49.1514         168.827         -49.1512         168.766       -0.0232282         142.689
0.619                   -3.32384         170.291         -49.0629         166.498         -49.0628         166.436       -0.0234776         142.608
0.62                    -3.37782          169.58         -48.9767          164.15         -48.9766         164.089       -0.0237305         142.526
0.621                   -3.43247         168.862         -48.8928         161.785         -48.8927         161.724       -0.0239869         142.445
0.622                   -3.48783         168.138         -48.8111         159.403          -48.811         159.343       -0.0242469         142.363
0.623                   -3.54392         167.406         -48.7316         157.006         -48.7315         156.947       -0.0245105          142.28
0.624                   -3.60081         166.668         -48.6541         154.595         -48.6541         154.537       -0.0247779         142.198
0.625                   -3.65854         165.921         -48.5788          152.17         -48.5787         152.113       -0.0250491         142.115
0.626                   -3.71717         165.166         -48.5055         149.732         -48.5054         149.678       -0.0253242         142.033
0.627                   -3.77677         164.403         -48.4341         147.284          -48.434         147.231       -0.0256032         141.949
0.628                   -3.83742         163.631         -48.3646         144.825         -48.3645         144.775       -0.0258863         141.866
0.629                   -3.89918         162.849         -48.2969         142.358         -48.2969          142.31       -0.0261735         141.782
