! TOUCHSTONE file generated by CST MICROWAVE STUDIO
! Date and time: Sat Oct 24 11:43:08 2020
! Project name: Scenario_1_Circular_Tissue_out_of_Line.cst
! Parameters = {dy1=-293.977; L_HA=400; MT=2.54; Rad_Dielectric=30; Rad_Lower=7.3; Rad_Upper=30; a_HA=580; a_WG=246; b_HA=500; b_WG=121; c_HA=0; c_WG=187; d_feed=85; dx1=1039; h_feed=15; h_lower=18; h_upper=40}
! Header version: 2018
! Port assignment regex: !\s*Touchstone port\s*([0-9]+)\s*=\s*(CST MWS port|CST DS port)\s*([0-9]+|Zmin|Zmax)\s*\(\"(.*)\"\)(\s*mode\s*([0-9]+))?.*
! Touchstone port assignment:
! Touchstone port 1 = CST MWS port 1 ("")
! Touchstone port 2 = CST MWS port 2 ("")
# GHz S DB R 50
0.5                    -0.143442         -122.28         -65.0704        -15.3824          -65.068        -15.3799      -0.00763337         151.143
0.501                  -0.141118        -122.703         -65.1041        -16.5878         -65.0316        -16.2892      -0.00769011         151.077
0.502                  -0.139053        -123.128          -65.138        -17.8176         -64.9946        -17.2132      -0.00774779         151.012
0.503                  -0.137253        -123.557         -65.1722        -19.0726          -64.957        -18.1521       -0.0078064         150.947
0.504                  -0.135723        -123.989         -65.2067        -20.3537         -64.9188        -19.1063      -0.00786596         150.881
0.505                  -0.134471        -124.425         -65.2413        -21.6617         -64.8799        -20.0763      -0.00792646         150.816
0.506                  -0.133504        -124.863         -65.2761        -22.9977         -64.8404        -21.0626      -0.00798791          150.75
0.507                  -0.132827        -125.305         -65.3109        -24.3625         -64.8001        -22.0655      -0.00805032         150.684
0.508                  -0.132447         -125.75         -65.3457        -25.7572         -64.7591        -23.0855      -0.00811369         150.619
0.509                  -0.132372        -126.198         -65.3805        -27.1827         -64.7173        -24.1232      -0.00817802         150.553
0.51                   -0.132608        -126.649         -65.4151        -28.6402         -64.6747         -25.179      -0.00824332         150.487
0.511                  -0.133161        -127.103         -65.4494        -30.1306         -64.6312        -26.2534       -0.0083096         150.421
0.512                  -0.134039        -127.561         -65.4833        -31.6551         -64.5868         -27.347      -0.00837685         150.355
0.513                  -0.135248        -128.022         -65.5168        -33.2148         -64.5415        -28.4603       -0.0084451         150.289
0.514                  -0.136796        -128.486         -65.5496        -34.8108         -64.4951        -29.5939      -0.00851433         150.222
0.515                  -0.138689        -128.953         -65.5817        -36.4443         -64.4478        -30.7484      -0.00858456         150.156
0.516                  -0.140935        -129.423         -65.6128        -38.1165         -64.3992        -31.9243       -0.0086558         150.089
0.517                  -0.143539        -129.897         -65.6429        -39.8284         -64.3496        -33.1223      -0.00872804         150.023
0.518                   -0.14651        -130.374         -65.6716        -41.5813         -64.2987        -34.3431       -0.0088013         149.956
0.519                  -0.149855        -130.853         -65.6989        -43.3764         -64.2465        -35.5872      -0.00887558          149.89
0.52                   -0.153579        -131.336         -65.7245        -45.2147          -64.193        -36.8555      -0.00895088         149.823
0.521                  -0.157692        -131.822         -65.7481        -47.0975          -64.138        -38.1484      -0.00902722         149.756
0.522                  -0.162199        -132.312         -65.7695        -49.0256         -64.0815        -39.4669      -0.00910461         149.689
0.523                  -0.167107        -132.804         -65.7884        -51.0002         -64.0235        -40.8116      -0.00918304         149.622
0.524                  -0.172424        -133.299         -65.8045        -53.0222         -63.9637        -42.1833      -0.00926252         149.555
0.525                  -0.178157        -133.798         -65.8175        -55.0925         -63.9022        -43.5827      -0.00934306         149.488
0.526                  -0.184313        -134.299         -65.8271        -57.2117         -63.8389        -45.0107      -0.00942468          149.42
0.527                  -0.190899        -134.804         -65.8328        -59.3806         -63.7736         -46.468      -0.00950737         149.353
0.528                  -0.197921        -135.311         -65.8343        -61.5995         -63.7062        -47.9556      -0.00959114         149.286
0.529                  -0.205387        -135.822         -65.8313         -63.869         -63.6366        -49.4742      -0.00967601         149.218
0.53                   -0.213304        -136.335         -65.8232         -66.189         -63.5648        -51.0246      -0.00976198          149.15
0.531                  -0.221679        -136.851         -65.8097        -68.5595         -63.4905        -52.6079      -0.00984905         149.083
0.532                  -0.230517        -137.371         -65.7903        -70.9803         -63.4137        -54.2249      -0.00993724         149.015
0.533                  -0.239828        -137.893         -65.7647        -73.4508         -63.3342        -55.8764       -0.0100266         148.947
0.534                  -0.249616        -138.418         -65.7322        -75.9703         -63.2519        -57.5635        -0.010117         148.879
0.535                  -0.259888        -138.946         -65.6925        -78.5376         -63.1667         -59.287       -0.0102086         148.811
0.536                  -0.270652        -139.477         -65.6452        -81.1514         -63.0782        -61.0479       -0.0103013         148.742
0.537                  -0.281914        -140.011         -65.5898        -83.8102         -62.9865        -62.8472       -0.0103952         148.674
0.538                   -0.29368        -140.547         -65.5259        -86.5119         -62.8914        -64.6857       -0.0104903         148.605
0.539                  -0.305956        -141.086         -65.4531        -89.2545         -62.7926        -66.5644       -0.0105866         148.537
0.54                    -0.31875        -141.628         -65.3711        -92.0353           -62.69        -68.4844        -0.010684         148.468
0.541                  -0.332066        -142.173         -65.2795        -94.8518         -62.5834        -70.4465       -0.0107827         148.399
0.542                  -0.345912         -142.72         -65.1781         -97.701         -62.4726        -72.4517       -0.0108825         148.331
0.543                  -0.360293         -143.27         -65.0666         -100.58         -62.3575        -74.5009       -0.0109836         148.262
0.544                  -0.375215        -143.822         -64.9448        -103.485         -62.2378        -76.5951       -0.0110859         148.193
0.545                  -0.390684        -144.377         -64.8128        -106.413         -62.1132        -78.7352       -0.0111894         148.123
0.546                  -0.406706        -144.935         -64.6703         -109.36         -61.9838        -80.9221       -0.0112943         148.054
0.547                  -0.423286        -145.495         -64.5173        -112.323         -61.8491        -83.1567       -0.0114003         147.985
0.548                  -0.440429        -146.057          -64.354        -115.299          -61.709        -85.4398       -0.0115077         147.915
0.549                  -0.458141        -146.622         -64.1805        -118.285         -61.5634        -87.7723       -0.0116163         147.846
0.55                   -0.476426         -147.19         -63.9968        -121.276          -61.412        -90.1551       -0.0117263         147.776
0.551                  -0.495291        -147.759         -63.8034         -124.27         -61.2546        -92.5889       -0.0118375         147.706
0.552                  -0.514739        -148.331         -63.6003        -127.265         -61.0911        -95.0745       -0.0119501         147.636
0.553                  -0.534776        -148.905         -63.3881        -130.258         -60.9213        -97.6128        -0.012064         147.566
0.554                  -0.555405        -149.482         -63.1669        -133.246          -60.745        -100.204       -0.0121793         147.496
0.555                  -0.576633        -150.061         -62.9373        -136.227         -60.5621         -102.85       -0.0122959         147.425
0.556                  -0.598461        -150.642         -62.6997        -139.201         -60.3725        -105.551        -0.012414         147.355
0.557                  -0.620895        -151.225         -62.4544        -142.165         -60.1761        -108.307       -0.0125334         147.284
0.558                  -0.643939         -151.81         -62.2021        -145.119         -59.9729         -111.12       -0.0126542         147.214
0.559                  -0.667596        -152.397         -61.9431        -148.062         -59.7627        -113.989       -0.0127765         147.143
0.56                    -0.69187        -152.986         -61.6779        -150.993         -59.5457        -116.916       -0.0129002         147.072
0.561                  -0.716765        -153.577          -61.407        -153.913         -59.3218        -119.902       -0.0130253         147.001
0.562                  -0.742282         -154.17          -61.131        -156.822         -59.0911        -122.947        -0.013152          146.93
0.563                  -0.768427        -154.765         -60.8503         -159.72         -58.8539        -126.051       -0.0132801         146.858
0.564                    -0.7952        -155.362         -60.5654        -162.608         -58.6102        -129.217       -0.0134097         146.787
0.565                  -0.822606         -155.96         -60.2768        -165.486         -58.3603        -132.443       -0.0135409         146.715
0.566                  -0.850647        -156.561         -59.9848        -168.356         -58.1045        -135.732       -0.0136736         146.644
0.567                  -0.879325        -157.163         -59.6901         -171.22         -57.8433        -139.084       -0.0138078         146.572
0.568                  -0.908641        -157.767          -59.393        -174.077          -57.577        -142.499       -0.0139437           146.5
0.569                    -0.9386        -158.372          -59.094        -176.931         -57.3063        -145.978       -0.0140811         146.428
0.57                   -0.969201        -158.979         -58.7935        -179.782         -57.0316        -149.521       -0.0142201         146.355
0.571                   -1.00045        -159.588         -58.4919         177.369         -56.7537         -153.13       -0.0143608         146.283
0.572                   -1.03234        -160.198         -58.1896         174.518         -56.4733        -156.804       -0.0145031         146.211
0.573                   -1.06488         -160.81         -57.8871         171.666         -56.1914        -160.542       -0.0146472         146.138
0.574                   -1.09807        -161.423         -57.5848          168.81         -55.9088        -164.345       -0.0147929         146.065
0.575                   -1.13191        -162.038          -57.283         165.948         -55.6264        -168.212       -0.0149403         145.992
0.576                    -1.1664        -162.654         -56.9822         163.079         -55.3455        -172.141       -0.0150894         145.919
0.577                   -1.20154        -163.271         -56.6827         160.201         -55.0671        -176.131       -0.0152404         145.846
0.578                   -1.23733         -163.89          -56.385         157.314         -54.7923         179.822       -0.0153931         145.772
0.579                   -1.27378        -164.511         -56.0894         154.415         -54.5224         175.719       -0.0155476         145.699
0.58                    -1.31088        -165.132         -55.7964         151.503         -54.2585         171.567       -0.0157039         145.625
0.581                   -1.34863        -165.755         -55.5064         148.578         -54.0019         167.368       -0.0158622         145.551
0.582                   -1.38704        -166.379         -55.2197         145.638         -53.7537          163.13       -0.0160222         145.477
0.583                    -1.4261        -167.004         -54.9367         142.683         -53.5149         158.858       -0.0161842         145.403
0.584                   -1.46581        -167.631         -54.6579         139.711         -53.2866          154.56       -0.0163482         145.329
0.585                   -1.50618        -168.258         -54.3836         136.724         -53.0696         150.244       -0.0165141         145.254
0.586                    -1.5472        -168.887         -54.1142          133.72         -52.8646         145.918        -0.016682          145.18
0.587                   -1.58887        -169.517         -53.8501           130.7         -52.6722         141.593       -0.0168519         145.105
0.588                    -1.6312        -170.148         -53.5918         127.663         -52.4927         137.276       -0.0170238          145.03
0.589                   -1.67418         -170.78         -53.3394         124.611         -52.3263         132.978       -0.0171978         144.955
0.59                    -1.71781        -171.414         -53.0934         121.545          -52.173         128.707       -0.0173739         144.879
0.591                   -1.76209        -172.048         -52.8542         118.465         -52.0327         124.472       -0.0175522         144.804
0.592                   -1.80702        -172.684         -52.6219         115.373         -51.9049         120.282       -0.0177326         144.728
0.593                   -1.85261         -173.32         -52.3969          112.27         -51.7891         116.145       -0.0179153         144.652
0.594                   -1.89884        -173.958         -52.1795         109.157         -51.6848         112.066       -0.0181001         144.576
0.595                   -1.94573        -174.597         -51.9697         106.038         -51.5911         108.052       -0.0182872           144.5
0.596                   -1.99326        -175.237         -51.7679         102.913         -51.5071         104.108       -0.0184766         144.424
0.597                   -2.04145        -175.878         -51.5741         99.7862         -51.4321         100.237       -0.0186684         144.347
0.598                   -2.09028         -176.52         -51.3884         96.6585         -51.3651          96.443       -0.0188625         144.271
0.599                   -2.13977        -177.164         -51.2108         93.5327         -51.3052          92.727        -0.019059         144.194
0.6                     -2.18991        -177.808         -51.0415         90.4114         -51.2514         89.0905        -0.019258         144.116
0.601                   -2.24069        -178.454         -50.8803         87.2971         -51.2028         85.5337       -0.0194595         144.039
0.602                   -2.29213        -179.101         -50.7271         84.1923         -51.1586         82.0563       -0.0196635         143.962
0.603                   -2.34422        -179.749         -50.5818         81.0994         -51.1181         78.6573         -0.01987         143.884
0.604                   -2.39696         179.602         -50.4443         78.0208         -51.0803         75.3352       -0.0200791         143.806
0.605                   -2.45036         178.952         -50.3143         74.9587         -51.0446          72.088       -0.0202909         143.728
0.606                   -2.50442           178.3         -50.1915         71.9152         -51.0104         68.9134       -0.0205054          143.65
0.607                   -2.55913         177.647         -50.0759         68.8924         -50.9771          65.809       -0.0207226         143.571
0.608                   -2.61451         176.992         -49.9669         65.8919         -50.9442         62.7719       -0.0209426         143.492
0.609                   -2.67054         176.337         -49.8643         62.9154         -50.9112         59.7993       -0.0211654         143.413
0.61                    -2.72725         175.679         -49.7678         59.9642         -50.8777         56.8881       -0.0213911         143.334
0.611                   -2.78462          175.02         -49.6769         57.0395         -50.8433         54.0353       -0.0216197         143.255
0.612                   -2.84267          174.36         -49.5914         54.1424         -50.8078         51.2378       -0.0218513         143.175
0.613                    -2.9014         173.698         -49.5109         51.2735         -50.7707         48.4926       -0.0220859         143.095
0.614                   -2.96081         173.034         -49.4349         48.4333          -50.732         45.7966       -0.0223235         143.015
0.615                   -3.02092         172.369         -49.3631         45.6224         -50.6914         43.1469       -0.0225643         142.935
0.616                   -3.08172         171.702         -49.2952         42.8408         -50.6487         40.5404       -0.0228083         142.855
0.617                   -3.14323         171.033         -49.2307         40.0885         -50.6037         37.9744       -0.0230556         142.774
0.618                   -3.20545         170.362         -49.1693         37.3654         -50.5565          35.446       -0.0233061         142.693
0.619                   -3.26839         169.688         -49.1107         34.6712         -50.5068         32.9526         -0.02356         142.612
0.62                    -3.33206         169.013         -49.0545         32.0055         -50.4546         30.4916       -0.0238173          142.53
0.621                   -3.39648         168.336         -49.0004         29.3675         -50.3999         28.0604       -0.0240781         142.449
0.622                   -3.46165         167.656          -48.948         26.7568         -50.3425         25.6566       -0.0243424         142.367
0.623                    -3.5276         166.974         -48.8972         24.1725         -50.2826         23.2778       -0.0246103         142.284
0.624                   -3.59432         166.289         -48.8476         21.6137           -50.22         20.9218        -0.024882         142.202
0.625                   -3.66185         165.602         -48.7989         19.0795         -50.1549         18.5865       -0.0251573         142.119
0.626                   -3.73019         164.912          -48.751          16.569         -50.0871         16.2697       -0.0254365         142.036
0.627                   -3.79937         164.219         -48.7035         14.0811         -50.0167         13.9694       -0.0257196         141.953
0.628                    -3.8694         163.523         -48.6563         11.6146         -49.9438         11.6837       -0.0260066          141.87
0.629                   -3.94032         162.824         -48.6092         9.16861         -49.8683         9.41071       -0.0262977         141.786
