! TOUCHSTONE file generated by CST MICROWAVE STUDIO
! Date and time: Mon Oct 26 12:04:45 2020
! Project name: Scenario_1_Circular_Tissue_out_of_Line_v2.cst
! Parameters = {dy1=-276.8; L_HA=400; MT=2.54; Rad_Dielectric=30; Rad_Lower=7.3; Rad_Upper=30; a_HA=580; a_WG=246; b_HA=500; b_WG=121; c_HA=0; c_WG=187; d_feed=85; dx1=173; h_feed=15; h_lower=18; h_upper=40}
! Header version: 2018
! Port assignment regex: !\s*Touchstone port\s*([0-9]+)\s*=\s*(CST MWS port|CST DS port)\s*([0-9]+|Zmin|Zmax)\s*\(\"(.*)\"\)(\s*mode\s*([0-9]+))?.*
! Touchstone port assignment:
! Touchstone port 1 = CST MWS port 1 ("")
! Touchstone port 2 = CST MWS port 2 ("")
# GHz S DB R 50
0.5                    -0.148362        -122.547         -62.0192         105.528         -62.0192         105.528       -0.0068621         151.131
0.501                  -0.157816         -122.98         -61.8604         103.877         -61.8604         103.877      -0.00693019         151.066
0.502                  -0.167349        -123.415         -61.7006          102.23         -61.7006          102.23      -0.00699913             151
0.503                  -0.176963        -123.851         -61.5402         100.586         -61.5402         100.586      -0.00706892         150.935
0.504                  -0.186658        -124.289          -61.379         98.9442          -61.379         98.9442      -0.00713957         150.869
0.505                  -0.196436        -124.728         -61.2173         97.3057         -61.2173         97.3057      -0.00721109         150.803
0.506                  -0.206297        -125.168         -61.0551         95.6698          -61.055         95.6697      -0.00728347         150.738
0.507                  -0.216244         -125.61         -60.8923         94.0362         -60.8923         94.0361      -0.00735673         150.672
0.508                  -0.226276        -126.054         -60.7292         92.4048         -60.7292         92.4047      -0.00743087         150.606
0.509                  -0.236396        -126.499         -60.5658         90.7753         -60.5658         90.7753       -0.0075059          150.54
0.51                   -0.246604        -126.945         -60.4021         89.1476         -60.4021         89.1476      -0.00758182         150.474
0.511                  -0.256903        -127.393         -60.2382         87.5214         -60.2382         87.5213      -0.00765864         150.408
0.512                  -0.267294        -127.843         -60.0741         85.8964         -60.0741         85.8964      -0.00773637         150.341
0.513                  -0.277777        -128.295           -59.91         84.2726           -59.91         84.2725      -0.00781501         150.275
0.514                  -0.288356        -128.748         -59.7459         82.6495         -59.7459         82.6495      -0.00789456         150.209
0.515                  -0.299032        -129.203         -59.5819         81.0271         -59.5818         81.0271      -0.00797504         150.142
0.516                  -0.309807        -129.659         -59.4179         79.4051         -59.4179         79.4051      -0.00805646         150.076
0.517                  -0.320682        -130.118         -59.2541         77.7833         -59.2541         77.7832      -0.00813881         150.009
0.518                   -0.33166        -130.578         -59.0905         76.1614         -59.0905         76.1614      -0.00822211         149.942
0.519                  -0.342743         -131.04         -58.9272         74.5393         -58.9272         74.5392      -0.00830637         149.876
0.52                   -0.353933        -131.504         -58.7643         72.9167         -58.7643         72.9167      -0.00839158         149.809
0.521                  -0.365232         -131.97         -58.6017         71.2935         -58.6017         71.2935      -0.00847776         149.742
0.522                  -0.376644        -132.438         -58.4396         69.6695         -58.4396         69.6694      -0.00856493         149.675
0.523                   -0.38817        -132.907         -58.2779         68.0444         -58.2779         68.0443      -0.00865307         149.608
0.524                  -0.399814        -133.379         -58.1169         66.4181         -58.1168         66.4181      -0.00874221         149.541
0.525                  -0.411578        -133.853         -57.9564         64.7905         -57.9563         64.7904      -0.00883235         149.473
0.526                  -0.423465        -134.329         -57.7965         63.1613         -57.7965         63.1613       -0.0089235         149.406
0.527                  -0.435478        -134.807         -57.6373         61.5305         -57.6373         61.5304      -0.00901567         149.338
0.528                  -0.447621        -135.287         -57.4789         59.8978         -57.4789         59.8978      -0.00910887         149.271
0.529                  -0.459896        -135.769         -57.3213         58.2632         -57.3213         58.2632       -0.0092031         149.203
0.53                   -0.472308        -136.253         -57.1645         56.6266         -57.1645         56.6265      -0.00929838         149.135
0.531                  -0.484859         -136.74         -57.0086         54.9878         -57.0086         54.9877      -0.00939472         149.068
0.532                  -0.497555        -137.229         -56.8537         53.3467         -56.8537         53.3466      -0.00949212             149
0.533                  -0.510398         -137.72         -56.6997         51.7032         -56.6997         51.7032       -0.0095906         148.932
0.534                  -0.523392        -138.214         -56.5467         50.0574         -56.5467         50.0573      -0.00969016         148.864
0.535                  -0.536543         -138.71         -56.3948          48.409         -56.3948          48.409      -0.00979081         148.795
0.536                  -0.549854        -139.208          -56.244         46.7582          -56.244         46.7582      -0.00989257         148.727
0.537                   -0.56333        -139.709         -56.0944         45.1048         -56.0944         45.1047      -0.00999545         148.659
0.538                  -0.576975        -140.212         -55.9459         43.4488         -55.9459         43.4488       -0.0100995          148.59
0.539                  -0.590795        -140.718         -55.7987         41.7902         -55.7987         41.7902       -0.0102046         148.522
0.54                   -0.604795        -141.227         -55.6527         40.1291         -55.6527         40.1291       -0.0103109         148.453
0.541                  -0.618981        -141.738         -55.5081         38.4654         -55.5081         38.4654       -0.0104184         148.384
0.542                  -0.633357        -142.252         -55.3648         36.7992         -55.3648         36.7992        -0.010527         148.315
0.543                  -0.647929        -142.768         -55.2228         35.1306         -55.2228         35.1305       -0.0106368         148.246
0.544                  -0.662704        -143.288         -55.0823         33.4595         -55.0823         33.4595       -0.0107478         148.177
0.545                  -0.677688         -143.81         -54.9432         31.7861         -54.9432         31.7861         -0.01086         148.108
0.546                  -0.692886        -144.334         -54.8056         30.1104         -54.8056         30.1104       -0.0109735         148.039
0.547                  -0.708306        -144.862         -54.6695         28.4326         -54.6695         28.4326       -0.0110882         147.969
0.548                  -0.723955        -145.393         -54.5349         26.7528         -54.5349         26.7528       -0.0112041           147.9
0.549                  -0.739839        -145.926         -54.4019          25.071         -54.4019          25.071       -0.0113213          147.83
0.55                   -0.755966        -146.463         -54.2705         23.3875         -54.2705         23.3875       -0.0114397          147.76
0.551                  -0.772344        -147.002         -54.1407         21.7024         -54.1407         21.7024       -0.0115595          147.69
0.552                   -0.78898        -147.545         -54.0125         20.0158         -54.0125         20.0157       -0.0116806          147.62
0.553                  -0.805883        -148.091         -53.8859         18.3278         -53.8859         18.3278        -0.011803          147.55
0.554                  -0.823061         -148.64          -53.761         16.6388          -53.761         16.6388       -0.0119267          147.48
0.555                  -0.840523        -149.192         -53.6378         14.9488         -53.6378         14.9488       -0.0120517          147.41
0.556                  -0.858278        -149.747         -53.5162          13.258         -53.5162          13.258       -0.0121782         147.339
0.557                  -0.876336        -150.306         -53.3964         11.5668         -53.3964         11.5667        -0.012306         147.269
0.558                  -0.894705        -150.868         -53.2783         9.87514         -53.2783         9.87513       -0.0124352         147.198
0.559                  -0.913396        -151.433         -53.1618         8.18339         -53.1618         8.18339       -0.0125658         147.127
0.56                   -0.932419        -152.002         -53.0471         6.49175         -53.0471         6.49174       -0.0126979         147.056
0.561                  -0.951785        -152.574         -52.9342         4.80042         -52.9341         4.80042       -0.0128314         146.985
0.562                  -0.971505        -153.149         -52.8229         3.10965         -52.8229         3.10965       -0.0129663         146.914
0.563                   -0.99159        -153.729         -52.7133         1.41966         -52.7133         1.41966       -0.0131028         146.843
0.564                   -1.01205        -154.311         -52.6055       -0.269319         -52.6055        -0.26932       -0.0132407         146.771
0.565                    -1.0329        -154.898         -52.4994        -1.95705         -52.4994        -1.95705       -0.0133802           146.7
0.566                   -1.05415        -155.488         -52.3949        -3.64329         -52.3949        -3.64329       -0.0135212         146.628
0.567                   -1.07582        -156.081         -52.2922        -5.32782         -52.2922        -5.32782       -0.0136637         146.556
0.568                   -1.09791        -156.678         -52.1911         -7.0104         -52.1911        -7.01039       -0.0138078         146.484
0.569                   -1.12045         -157.28         -52.0917        -8.69079         -52.0917        -8.69079       -0.0139536         146.412
0.57                    -1.14344        -157.884         -51.9939        -10.3688         -51.9939        -10.3688       -0.0141009          146.34
0.571                   -1.16689        -158.493         -51.8977        -12.0441         -51.8977        -12.0441       -0.0142499         146.267
0.572                   -1.19084        -159.106         -51.8031        -13.7166         -51.8031        -13.7166       -0.0144005         146.195
0.573                   -1.21528        -159.722         -51.7101         -15.386         -51.7101         -15.386       -0.0145528         146.122
0.574                   -1.24024        -160.342         -51.6186        -17.0521         -51.6186        -17.0521       -0.0147068         146.049
0.575                   -1.26572        -160.966         -51.5287        -18.7147         -51.5287        -18.7147       -0.0148625         145.976
0.576                   -1.29176        -161.595         -51.4402        -20.3737         -51.4402        -20.3736         -0.01502         145.903
0.577                   -1.31836        -162.227         -51.3532        -22.0287         -51.3532        -22.0287       -0.0151793          145.83
0.578                   -1.34554        -162.863         -51.2677        -23.6797         -51.2677        -23.6797       -0.0153403         145.757
0.579                   -1.37333        -163.503         -51.1835        -25.3264         -51.1835        -25.3264       -0.0155031         145.683
0.58                    -1.40173        -164.148         -51.1007        -26.9687         -51.1007        -26.9687       -0.0156678         145.609
0.581                   -1.43077        -164.796         -51.0193        -28.6064         -51.0193        -28.6064       -0.0158344         145.536
0.582                   -1.46047        -165.448         -50.9391        -30.2394         -50.9391        -30.2394       -0.0160028         145.462
0.583                   -1.49084        -166.105         -50.8602        -31.8676         -50.8602        -31.8676       -0.0161732         145.387
0.584                   -1.52191        -166.765         -50.7825        -33.4907         -50.7825        -33.4907       -0.0163455         145.313
0.585                    -1.5537         -167.43          -50.706        -35.1087          -50.706        -35.1087       -0.0165197         145.239
0.586                   -1.58622        -168.099         -50.6306        -36.7215         -50.6306        -36.7214        -0.016696         145.164
0.587                   -1.61951        -168.772         -50.5563        -38.3289         -50.5563        -38.3288       -0.0168742         145.089
0.588                   -1.65358        -169.449         -50.4831        -39.9308         -50.4831        -39.9308       -0.0170546         145.014
0.589                   -1.68846         -170.13         -50.4109        -41.5272         -50.4109        -41.5272        -0.017237         144.939
0.59                    -1.72416        -170.815         -50.3397        -43.1181         -50.3397        -43.1181       -0.0174215         144.864
0.591                   -1.76072        -171.504         -50.2695        -44.7032         -50.2695        -44.7032       -0.0176081         144.788
0.592                   -1.79815        -172.198         -50.2001        -46.2826         -50.2001        -46.2826        -0.017797         144.713
0.593                   -1.83648        -172.895         -50.1316        -47.8563         -50.1316        -47.8562        -0.017988         144.637
0.594                   -1.87574        -173.596          -50.064        -49.4241          -50.064         -49.424       -0.0181813         144.561
0.595                   -1.91595        -174.302         -49.9971         -50.986         -49.9971         -50.986       -0.0183768         144.485
0.596                   -1.95713        -175.011         -49.9309        -52.5421         -49.9309         -52.542       -0.0185746         144.408
0.597                   -1.99932        -175.724         -49.8655        -54.0922         -49.8655        -54.0922       -0.0187748         144.332
0.598                   -2.04253        -176.441         -49.8007        -55.6365         -49.8007        -55.6365       -0.0189773         144.255
0.599                    -2.0868        -177.162         -49.7365        -57.1748         -49.7365        -57.1748       -0.0191822         144.178
0.6                     -2.13215        -177.886         -49.6729        -58.7073         -49.6729        -58.7073       -0.0193896         144.101
0.601                   -2.17862        -178.614         -49.6099        -60.2338         -49.6099        -60.2338       -0.0195994         144.024
0.602                   -2.22621        -179.346         -49.5474        -61.7546         -49.5474        -61.7545       -0.0198117         143.946
0.603                   -2.27498         179.919         -49.4853        -63.2694         -49.4853        -63.2694       -0.0200266         143.869
0.604                   -2.32494         179.181         -49.4237        -64.7785         -49.4237        -64.7785       -0.0202441         143.791
0.605                   -2.37612         178.439         -49.3625        -66.2818         -49.3625        -66.2818       -0.0204642         143.713
0.606                   -2.42855         177.694         -49.3016        -67.7794         -49.3016        -67.7794        -0.020687         143.634
0.607                   -2.48225         176.946         -49.2411        -69.2713         -49.2411        -69.2713       -0.0209125         143.556
0.608                   -2.53727         176.195         -49.1809        -70.7577         -49.1809        -70.7576       -0.0211407         143.477
0.609                   -2.59362         175.441         -49.1209        -72.2384         -49.1209        -72.2384       -0.0213717         143.398
0.61                    -2.65134         174.684         -49.0612        -73.7137         -49.0612        -73.7137       -0.0216056         143.319
0.611                   -2.71045         173.925         -49.0017        -75.1836         -49.0017        -75.1836       -0.0218423          143.24
0.612                   -2.77098         173.163         -48.9423        -76.6481         -48.9423        -76.6481        -0.022082          143.16
0.613                   -2.83296         172.399         -48.8831        -78.1073         -48.8831        -78.1073       -0.0223246         143.081
0.614                   -2.89643         171.633          -48.824        -79.5614          -48.824        -79.5614       -0.0225703         143.001
0.615                   -2.96139         170.865          -48.765        -81.0104          -48.765        -81.0104        -0.022819          142.92
0.616                    -3.0279         170.095         -48.7061        -82.4543         -48.7061        -82.4543       -0.0230709          142.84
0.617                   -3.09596         169.323         -48.6472        -83.8933         -48.6472        -83.8933       -0.0233259         142.759
0.618                   -3.16562          168.55         -48.5883        -85.3275         -48.5883        -85.3275       -0.0235841         142.678
0.619                   -3.23689         167.776         -48.5294        -86.7569         -48.5294        -86.7569       -0.0238457         142.597
0.62                    -3.30981         167.001         -48.4704        -88.1817         -48.4704        -88.1817       -0.0241105         142.516
0.621                   -3.38439         166.226         -48.4114        -89.6019         -48.4114        -89.6019       -0.0243787         142.434
0.622                   -3.46066          165.45         -48.3523        -91.0176         -48.3523        -91.0176       -0.0246504         142.352
0.623                   -3.53865         164.673         -48.2931         -92.429         -48.2931         -92.429       -0.0249256          142.27
0.624                   -3.61839         163.897         -48.2338        -93.8361         -48.2338        -93.8361       -0.0252043         142.188
0.625                   -3.69988         163.121         -48.1743         -95.239         -48.1743         -95.239       -0.0254867         142.105
0.626                   -3.78316         162.345         -48.1147        -96.6379         -48.1147        -96.6379       -0.0257727         142.022
0.627                   -3.86825          161.57         -48.0549        -98.0328         -48.0549        -98.0328       -0.0260624         141.939
0.628                   -3.95516         160.797         -47.9949        -99.4239         -47.9949        -99.4239        -0.026356         141.856
0.629                   -4.04391         160.024         -47.9346        -100.811         -47.9346        -100.811       -0.0266535         141.772
