! TOUCHSTONE file generated by CST MICROWAVE STUDIO
! Date and time: Wed Oct 28 19:34:06 2020
! Project name: Scenario_1_Circular_Tissue_out_of_Line_v2.cst
! Parameters = {dy1=-276.8; L_HA=400; MT=2.54; Rad_Dielectric=30; Rad_Lower=7.3; Rad_Upper=30; a_HA=580; a_WG=246; b_HA=500; b_WG=121; c_HA=0; c_WG=187; d_feed=85; dx1=346; h_feed=15; h_lower=18; h_upper=40}
! Header version: 2018
! Port assignment regex: !\s*Touchstone port\s*([0-9]+)\s*=\s*(CST MWS port|CST DS port)\s*([0-9]+|Zmin|Zmax)\s*\(\"(.*)\"\)(\s*mode\s*([0-9]+))?.*
! Touchstone port assignment:
! Touchstone port 1 = CST MWS port 1 ("")
! Touchstone port 2 = CST MWS port 2 ("")
# GHz S DB R 50
0.5                    -0.145303        -122.286         -62.6377         -1.1345         -62.6377         -1.1345      -0.00795285         151.127
0.501                  -0.147183        -122.759         -62.4212        -2.92652         -62.4212        -2.92732      -0.00800558         151.062
0.502                   -0.14943        -123.234         -62.2087        -4.67589         -62.2087        -4.67744      -0.00805912         150.996
0.503                  -0.152045         -123.71         -62.0002        -6.38621         -62.0002        -6.38845      -0.00811348         150.931
0.504                  -0.155031        -124.188         -61.7957         -8.0608         -61.7957        -8.06369      -0.00816868         150.866
0.505                  -0.158392        -124.668         -61.5951        -9.70273         -61.5951        -9.70622      -0.00822472           150.8
0.506                  -0.162129         -125.15         -61.3985        -11.3149         -61.3985        -11.3189       -0.0082816         150.734
0.507                  -0.166244        -125.633         -61.2057        -12.8998         -61.2057        -12.9043      -0.00833934         150.669
0.508                   -0.17074        -126.118         -61.0166          -14.46         -61.0166         -14.465      -0.00839793         150.603
0.509                  -0.175619        -126.605         -60.8312        -15.9977         -60.8312        -16.0031       -0.0084574         150.537
0.51                   -0.180884        -127.093         -60.6495         -17.515         -60.6494        -17.5208      -0.00851775         150.471
0.511                  -0.186535        -127.583         -60.4712        -19.0139         -60.4711          -19.02      -0.00857898         150.405
0.512                  -0.192575        -128.074         -60.2963         -20.496         -60.2963        -20.5025      -0.00864111         150.339
0.513                  -0.199006        -128.567         -60.1248        -21.9632         -60.1247          -21.97      -0.00870414         150.273
0.514                   -0.20583        -129.061         -59.9564        -23.4169         -59.9563         -23.424      -0.00876808         150.207
0.515                  -0.213048        -129.557         -59.7912        -24.8587         -59.7911         -24.866      -0.00883294          150.14
0.516                  -0.220662        -130.055         -59.6289        -26.2897         -59.6288        -26.2973      -0.00889874         150.074
0.517                  -0.228673        -130.554         -59.4696        -27.7114         -59.4695        -27.7191      -0.00896546         150.008
0.518                  -0.237083        -131.054         -59.3132        -29.1249          -59.313        -29.1328      -0.00903314         149.941
0.519                  -0.245893        -131.556         -59.1594        -30.5312         -59.1592        -30.5392      -0.00910177         149.874
0.52                   -0.255105        -132.059         -59.0083        -31.9314         -59.0081        -31.9396      -0.00917137         149.808
0.521                  -0.264719        -132.564         -58.8597        -33.3265         -58.8595        -33.3348      -0.00924193         149.741
0.522                  -0.274737         -133.07         -58.7136        -34.7174         -58.7134        -34.7257      -0.00931349         149.674
0.523                   -0.28516        -133.577         -58.5698        -36.1048         -58.5696        -36.1132      -0.00938603         149.607
0.524                  -0.295989        -134.086         -58.4284        -37.4896         -58.4281        -37.4981      -0.00945958          149.54
0.525                  -0.307224        -134.597         -58.2891        -38.8726         -58.2888        -38.8811      -0.00953414         149.472
0.526                  -0.318866        -135.108         -58.1519        -40.2545         -58.1516         -40.263      -0.00960973         149.405
0.527                  -0.330916        -135.621         -58.0167        -41.6358         -58.0164        -41.6443      -0.00968634         149.338
0.528                  -0.343375        -136.135         -57.8835        -43.0172         -57.8832        -43.0258        -0.009764          149.27
0.529                  -0.356242        -136.651         -57.7522        -44.3994         -57.7518        -44.4079      -0.00984271         149.203
0.53                    -0.36952        -137.167         -57.6227        -45.7828         -57.6223        -45.7913      -0.00992248         149.135
0.531                  -0.383206        -137.685         -57.4948        -47.1681         -57.4944        -47.1765       -0.0100033         149.067
0.532                  -0.397303        -138.205         -57.3687        -48.5555         -57.3682        -48.5639       -0.0100853         148.999
0.533                  -0.411811        -138.725          -57.244        -49.9458         -57.2436        -49.9541       -0.0101683         148.931
0.534                  -0.426728        -139.247         -57.1209        -51.3392         -57.1205        -51.3474       -0.0102524         148.863
0.535                  -0.442056         -139.77         -56.9993        -52.7362         -56.9988        -52.7443       -0.0103377         148.795
0.536                  -0.457794        -140.294          -56.879        -54.1371         -56.8785        -54.1452       -0.0104241         148.727
0.537                  -0.473942        -140.819           -56.76        -55.5424         -56.7595        -55.5504       -0.0105116         148.659
0.538                  -0.490501        -141.346         -56.6422        -56.9524         -56.6417        -56.9603       -0.0106003          148.59
0.539                  -0.507469        -141.873         -56.5257        -58.3674         -56.5252        -58.3751       -0.0106901         148.522
0.54                   -0.524846        -142.402         -56.4102        -59.7877         -56.4097        -59.7953       -0.0107811         148.453
0.541                  -0.542633        -142.932         -56.2958        -61.2135         -56.2953        -61.2211       -0.0108733         148.384
0.542                  -0.560828        -143.464         -56.1824        -62.6453         -56.1819        -62.6527       -0.0109668         148.315
0.543                  -0.579431        -143.996           -56.07        -64.0831         -56.0694        -64.0904       -0.0110614         148.246
0.544                  -0.598442        -144.529         -55.9584        -65.5273         -55.9578        -65.5344       -0.0111572         148.177
0.545                   -0.61786        -145.064         -55.8477        -66.9781         -55.8471         -66.985       -0.0112543         148.108
0.546                  -0.637684        -145.599         -55.7377        -68.4356         -55.7371        -68.4424       -0.0113527         148.039
0.547                  -0.657913        -146.136         -55.6285           -69.9         -55.6279        -69.9066       -0.0114523         147.969
0.548                  -0.678547        -146.674         -55.5199        -71.3715         -55.5193         -71.378       -0.0115532           147.9
0.549                  -0.699586        -147.213          -55.412        -72.8503         -55.4114        -72.8566       -0.0116554          147.83
0.55                   -0.721027        -147.753         -55.3046        -74.3365          -55.304        -74.3426       -0.0117589          147.76
0.551                  -0.742871        -148.295         -55.1978        -75.8302         -55.1972        -75.8362       -0.0118637          147.69
0.552                  -0.765117        -148.837         -55.0915        -77.3315         -55.0909        -77.3373       -0.0119699          147.62
0.553                  -0.787763        -149.381         -54.9856        -78.8406          -54.985        -78.8462       -0.0120774          147.55
0.554                  -0.810809        -149.925         -54.8801        -80.3574         -54.8795        -80.3628       -0.0121863          147.48
0.555                  -0.834253        -150.471         -54.7749        -81.8821         -54.7743        -81.8874       -0.0122965          147.41
0.556                  -0.858096        -151.018         -54.6701        -83.4148         -54.6695        -83.4198       -0.0124082         147.339
0.557                  -0.882335        -151.566         -54.5655        -84.9554         -54.5649        -84.9602       -0.0125213         147.269
0.558                  -0.906971        -152.115         -54.4612         -86.504         -54.4606        -86.5087       -0.0126358         147.198
0.559                  -0.932002        -152.666         -54.3571        -88.0606         -54.3565        -88.0651       -0.0127518         147.127
0.56                   -0.957427        -153.217         -54.2531        -89.6253         -54.2525        -89.6296       -0.0128692         147.056
0.561                  -0.983245         -153.77         -54.1493        -91.1979         -54.1487         -91.202       -0.0129881         146.985
0.562                   -1.00946        -154.324         -54.0456        -92.7786          -54.045        -92.7825       -0.0131085         146.914
0.563                   -1.03606        -154.879         -53.9419        -94.3672         -53.9413        -94.3709       -0.0132304         146.842
0.564                   -1.06305        -155.436         -53.8383        -95.9637         -53.8377        -95.9672       -0.0133539         146.771
0.565                   -1.09044        -155.994         -53.7347        -97.5681         -53.7341        -97.5714       -0.0134789         146.699
0.566                   -1.11821        -156.553          -53.631        -99.1803         -53.6304        -99.1834       -0.0136055         146.627
0.567                   -1.14637        -157.113         -53.5273          -100.8         -53.5268        -100.803       -0.0137337         146.556
0.568                   -1.17493        -157.675         -53.4236        -102.428          -53.423         -102.43       -0.0138635         146.484
0.569                   -1.20387        -158.238         -53.3198        -104.063         -53.3192        -104.065       -0.0139949         146.411
0.57                    -1.23319        -158.802         -53.2159        -105.705         -53.2153        -105.708        -0.014128         146.339
0.571                   -1.26291        -159.368         -53.1118        -107.355         -53.1112        -107.357       -0.0142627         146.267
0.572                   -1.29301        -159.935         -53.0076        -109.012         -53.0071        -109.014       -0.0143992         146.194
0.573                    -1.3235        -160.504         -52.9033        -110.676         -52.9027        -110.678       -0.0145373         146.121
0.574                   -1.35438        -161.074         -52.7988        -112.347         -52.7983        -112.349       -0.0146772         146.049
0.575                   -1.38565        -161.645         -52.6941        -114.025         -52.6936        -114.026       -0.0148188         145.976
0.576                   -1.41731        -162.219         -52.5893        -115.709         -52.5887        -115.711       -0.0149623         145.902
0.577                   -1.44935        -162.794         -52.4842          -117.4         -52.4837        -117.401       -0.0151075         145.829
0.578                   -1.48179         -163.37          -52.379        -119.097         -52.3785        -119.098       -0.0152546         145.756
0.579                   -1.51461        -163.948         -52.2735          -120.8         -52.2731        -120.801       -0.0154035         145.682
0.58                    -1.54783        -164.528         -52.1679        -122.509         -52.1674         -122.51       -0.0155543         145.608
0.581                   -1.58145         -165.11         -52.0621        -124.224         -52.0616        -124.225       -0.0157069         145.534
0.582                   -1.61546        -165.694          -51.956        -125.944         -51.9556        -125.945       -0.0158616          145.46
0.583                   -1.64986        -166.279         -51.8498         -127.67         -51.8494         -127.67       -0.0160181         145.386
0.584                   -1.68467        -166.866         -51.7434          -129.4          -51.743        -129.401       -0.0161767         145.312
0.585                   -1.71988        -167.456         -51.6368        -131.136         -51.6364        -131.136       -0.0163372         145.237
0.586                   -1.75549        -168.047           -51.53        -132.876         -51.5296        -132.876       -0.0164998         145.162
0.587                   -1.79151        -168.641         -51.4231        -134.621         -51.4227        -134.621       -0.0166645         145.088
0.588                   -1.82795        -169.237          -51.316         -136.37         -51.3156        -136.369       -0.0168312         145.012
0.589                    -1.8648        -169.835         -51.2088        -138.123         -51.2084        -138.122       -0.0170001         144.937
0.59                    -1.90207        -170.435         -51.1015         -139.88         -51.1011        -139.879       -0.0171711         144.862
0.591                   -1.93976        -171.038          -50.994         -141.64         -50.9937        -141.639       -0.0173443         144.786
0.592                   -1.97789        -171.643         -50.8865        -143.404         -50.8862        -143.403       -0.0175197         144.711
0.593                   -2.01645        -172.251         -50.7789         -145.17         -50.7786        -145.169       -0.0176974         144.635
0.594                   -2.05545        -172.861         -50.6713         -146.94         -50.6709        -146.939       -0.0178773         144.559
0.595                    -2.0949        -173.474         -50.5636        -148.712         -50.5633        -148.711       -0.0180596         144.482
0.596                    -2.1348         -174.09         -50.4559        -150.487         -50.4556        -150.486       -0.0182442         144.406
0.597                   -2.17517        -174.708         -50.3483        -152.264          -50.348        -152.263       -0.0184312         144.329
0.598                   -2.21601         -175.33         -50.2407        -154.043         -50.2404        -154.041       -0.0186207         144.252
0.599                   -2.25733        -175.954         -50.1331        -155.824         -50.1328        -155.822       -0.0188126         144.175
0.6                     -2.29914        -176.582         -50.0257        -157.606         -50.0254        -157.604        -0.019007         144.098
0.601                   -2.34145        -177.213         -49.9183        -159.389          -49.918        -159.388       -0.0192039         144.021
0.602                   -2.38428        -177.847         -49.8111        -161.174         -49.8108        -161.172       -0.0194034         143.943
0.603                   -2.42762        -178.484         -49.7041        -162.959         -49.7038        -162.958       -0.0196055         143.865
0.604                   -2.47151        -179.125         -49.5973        -164.746          -49.597        -164.744       -0.0198103         143.787
0.605                   -2.51594         -179.77         -49.4907        -166.532         -49.4904         -166.53       -0.0200178         143.709
0.606                   -2.56094         179.582         -49.3843        -168.319         -49.3841        -168.317        -0.020228         143.631
0.607                   -2.60652         178.929         -49.2782        -170.106          -49.278        -170.104       -0.0204411         143.552
0.608                   -2.65269         178.273         -49.1725        -171.892         -49.1722         -171.89       -0.0206569         143.474
0.609                   -2.69948         177.613         -49.0671        -173.679         -49.0668        -173.677       -0.0208757         143.395
0.61                    -2.74691         176.949          -48.962        -175.464         -48.9618        -175.462       -0.0210974         143.315
0.611                   -2.79499          176.28         -48.8573        -177.249         -48.8571        -177.247       -0.0213221         143.236
0.612                   -2.84375         175.607          -48.753        -179.033         -48.7528        -179.031       -0.0215498         143.156
0.613                    -2.8932          174.93         -48.6492         179.184          -48.649         179.186       -0.0217806         143.076
0.614                   -2.94338         174.248         -48.5458         177.403         -48.5456         177.405       -0.0220145         142.996
0.615                    -2.9943         173.561          -48.443         175.623         -48.4428         175.625       -0.0222516         142.916
0.616                   -3.04601         172.869         -48.3406         173.845         -48.3404         173.847        -0.022492         142.835
0.617                   -3.09851         172.172         -48.2388         172.068         -48.2386          172.07       -0.0227357         142.754
0.618                   -3.15186         171.471         -48.1375         170.294         -48.1373         170.296       -0.0229828         142.673
0.619                   -3.20607         170.764         -48.0368         168.522         -48.0366         168.524       -0.0232333         142.592
0.62                    -3.26118         170.051         -47.9368         166.752         -47.9366         166.754       -0.0234873         142.511
0.621                   -3.31724         169.333         -47.8373         164.984         -47.8371         164.987       -0.0237448         142.429
0.622                   -3.37427          168.61         -47.7385          163.22         -47.7383         163.222        -0.024006         142.347
0.623                   -3.43232         167.881         -47.6403         161.458         -47.6401          161.46       -0.0242708         142.265
0.624                   -3.49144         167.146         -47.5428         159.699         -47.5426         159.701       -0.0245395         142.182
0.625                   -3.55166         166.405          -47.446         157.943         -47.4458         157.945       -0.0248119         142.099
0.626                   -3.61303         165.658         -47.3499          156.19         -47.3497         156.192       -0.0250882         142.016
0.627                   -3.67562         164.905         -47.2545         154.441         -47.2543         154.443       -0.0253685         141.933
0.628                   -3.73946         164.145         -47.1599         152.695         -47.1597         152.697       -0.0256529         141.849
0.629                   -3.80462          163.38         -47.0659         150.952         -47.0658         150.954       -0.0259414         141.766
