! TOUCHSTONE file generated by CST MICROWAVE STUDIO
! Date and time: Fri Oct 30 07:49:26 2020
! Project name: Scenario_1_Circular_Tissue_out_of_Line.cst
! Parameters = {dy1=-276.636; L_HA=400; MT=2.54; Rad_Dielectric=30; Rad_Lower=7.3; Rad_Upper=30; a_HA=580; a_WG=246; b_HA=500; b_WG=121; c_HA=0; c_WG=187; d_feed=85; dx1=520; h_feed=15; h_lower=18; h_upper=40}
! Header version: 2018
! Port assignment regex: !\s*Touchstone port\s*([0-9]+)\s*=\s*(CST MWS port|CST DS port)\s*([0-9]+|Zmin|Zmax)\s*\(\"(.*)\"\)(\s*mode\s*([0-9]+))?.*
! Touchstone port assignment:
! Touchstone port 1 = CST MWS port 1 ("")
! Touchstone port 2 = CST MWS port 2 ("")
# GHz S DB R 50
0.5                    -0.145796        -122.279         -63.4904        -79.6217         -63.4549        -80.0637      -0.00725128         151.149
0.501                  -0.153912        -122.717         -63.2748        -81.7728         -63.2281        -82.1252      -0.00731877         151.084
0.502                  -0.162154        -123.156          -63.061        -83.9037         -63.0039         -84.171       -0.0073872         151.018
0.503                  -0.170522        -123.596         -62.8491        -86.0156         -62.7822        -86.2027      -0.00745658         150.953
0.504                  -0.179018        -124.038         -62.6392        -88.1098          -62.563        -88.2214      -0.00752691         150.888
0.505                  -0.187641        -124.482         -62.4312        -90.1878         -62.3464        -90.2282       -0.0075982         150.822
0.506                  -0.196391        -124.926         -62.2252        -92.2505         -62.1324        -92.2243      -0.00767046         150.757
0.507                  -0.205271        -125.373         -62.0213        -94.2992          -61.921        -94.2108      -0.00774368         150.691
0.508                  -0.214279        -125.821         -61.8195        -96.3349         -61.7122        -96.1884      -0.00781786         150.625
0.509                  -0.223416         -126.27         -61.6199        -98.3587         -61.5059        -98.1583      -0.00789303         150.559
0.51                   -0.232684        -126.721         -61.4223        -100.372         -61.3022        -100.121      -0.00796916         150.494
0.511                  -0.242082        -127.173         -61.2269        -102.374          -61.101        -102.078      -0.00804628         150.428
0.512                  -0.251612        -127.628         -61.0336        -104.368         -60.9024        -104.029      -0.00812438         150.362
0.513                  -0.261274        -128.083         -60.8424        -106.353         -60.7063        -105.975      -0.00820346         150.296
0.514                  -0.271068        -128.541         -60.6534         -108.33         -60.5127        -107.918      -0.00828354         150.229
0.515                  -0.280997            -129         -60.4665        -110.301         -60.3215        -109.856       -0.0083646         150.163
0.516                   -0.29106        -129.461         -60.2817        -112.265         -60.1328        -111.792      -0.00844666         150.097
0.517                  -0.301258        -129.923         -60.0991        -114.224         -59.9465        -113.725      -0.00852972          150.03
0.518                  -0.311594        -130.388         -59.9185        -116.178         -59.7627        -115.656      -0.00861377         149.964
0.519                  -0.322067        -130.854           -59.74        -118.127         -59.5812        -117.585      -0.00869882         149.897
0.52                   -0.332679        -131.322         -59.5636        -120.072         -59.4021        -119.514      -0.00878488         149.831
0.521                  -0.343431        -131.791         -59.3893        -122.014         -59.2253        -121.441      -0.00887194         149.764
0.522                  -0.354325        -132.263          -59.217        -123.952         -59.0509        -123.368         -0.00896         149.697
0.523                  -0.365362        -132.736         -59.0467        -125.888         -58.8787        -125.294      -0.00904907          149.63
0.524                  -0.376544        -133.212         -58.8784        -127.822         -58.7088        -127.221      -0.00913914         149.563
0.525                  -0.387873        -133.689         -58.7121        -129.755         -58.5411        -129.148      -0.00923022         149.496
0.526                  -0.399349        -134.169         -58.5477        -131.685         -58.3757        -131.076      -0.00932231         149.429
0.527                  -0.410976         -134.65         -58.3853        -133.615         -58.2124        -133.004       -0.0094154         149.362
0.528                  -0.422754        -135.134         -58.2248        -135.543         -58.0512        -134.934       -0.0095095         149.294
0.529                  -0.434688         -135.62         -58.0662        -137.471         -57.8922        -136.864       -0.0096046         149.227
0.53                   -0.446778        -136.107         -57.9094        -139.399         -57.7353        -138.796      -0.00970071          149.16
0.531                  -0.459027        -136.597         -57.7545        -141.327         -57.5805        -140.729      -0.00979781         149.092
0.532                  -0.471438         -137.09         -57.6015        -143.255         -57.4276        -142.664      -0.00989592         149.024
0.533                  -0.484014        -137.584         -57.4502        -145.183         -57.2769          -144.6      -0.00999502         148.956
0.534                  -0.496758        -138.081         -57.3006        -147.112          -57.128        -146.538       -0.0100951         148.889
0.535                  -0.509673         -138.58         -57.1529        -149.041         -56.9812        -148.478       -0.0101962         148.821
0.536                  -0.522763        -139.082         -57.0068        -150.971         -56.8362         -150.42       -0.0102983         148.753
0.537                  -0.536032        -139.586         -56.8625        -152.902         -56.6932        -152.363       -0.0104014         148.684
0.538                  -0.549482        -140.093         -56.7198        -154.835          -56.552        -154.309       -0.0105054         148.616
0.539                  -0.563119        -140.602         -56.5788        -156.768         -56.4127        -156.256       -0.0106104         148.548
0.54                   -0.576948        -141.114         -56.4394        -158.703         -56.2751        -158.205       -0.0107165         148.479
0.541                  -0.590972        -141.628         -56.3016        -160.639         -56.1393        -160.157       -0.0108234         148.411
0.542                  -0.605197        -142.145         -56.1654        -162.577         -56.0053         -162.11       -0.0109314         148.342
0.543                  -0.619628        -142.665         -56.0307        -164.516         -55.8729        -164.065       -0.0110403         148.273
0.544                  -0.634272        -143.188         -55.8976        -166.457         -55.7423        -166.022       -0.0111502         148.205
0.545                  -0.649134        -143.714         -55.7659        -168.399         -55.6133        -167.981        -0.011261         148.136
0.546                  -0.664221        -144.242         -55.6358        -170.343         -55.4858        -169.942       -0.0113728         148.067
0.547                   -0.67954        -144.774          -55.507        -172.289           -55.36        -171.905       -0.0114855         147.997
0.548                  -0.695098        -145.308         -55.3798        -174.236         -55.2357        -173.869       -0.0115992         147.928
0.549                  -0.710903        -145.846         -55.2539        -176.185          -55.113        -175.835       -0.0117139         147.859
0.55                   -0.726964        -146.387         -55.1294        -178.136         -54.9917        -177.803       -0.0118295         147.789
0.551                  -0.743289        -146.931         -55.0062         179.911         -54.8718        -179.772        -0.011946          147.72
0.552                  -0.759888        -147.479         -54.8844         177.957         -54.7534         178.257       -0.0120635          147.65
0.553                  -0.776771        -148.029         -54.7639         176.001         -54.6364         176.284        -0.012182          147.58
0.554                  -0.793949        -148.583         -54.6447         174.043         -54.5207         174.311       -0.0123014          147.51
0.555                  -0.811432        -149.141         -54.5267         172.084         -54.4064         172.335       -0.0124217          147.44
0.556                  -0.829233        -149.702           -54.41         170.123         -54.2933         170.359        -0.012543          147.37
0.557                  -0.847365        -150.267         -54.2945          168.16         -54.1815         168.381       -0.0126653           147.3
0.558                  -0.865841        -150.836         -54.1801         166.196         -54.0709         166.402       -0.0127886         147.229
0.559                  -0.884675        -151.408          -54.067         164.231         -53.9615         164.422       -0.0129129         147.159
0.56                   -0.903881        -151.984          -53.955         162.264         -53.8533         162.441       -0.0130382         147.088
0.561                  -0.923477        -152.564         -53.8441         160.295         -53.7462         160.459       -0.0131644         147.018
0.562                  -0.943479        -153.148         -53.7343         158.325         -53.6402         158.477       -0.0132918         146.947
0.563                  -0.963904        -153.736         -53.6255         156.354         -53.5353         156.493       -0.0134201         146.876
0.564                  -0.984772        -154.327         -53.5179         154.382         -53.4314         154.509       -0.0135496         146.805
0.565                    -1.0061        -154.923         -53.4113         152.408         -53.3286         152.524       -0.0136801         146.733
0.566                   -1.02791        -155.524         -53.3057         150.434         -53.2267         150.539       -0.0138117         146.662
0.567                   -1.05023        -156.128          -53.201         148.458         -53.1258         148.553       -0.0139445          146.59
0.568                   -1.07307        -156.737         -53.0974         146.481         -53.0258         146.567       -0.0140784         146.519
0.569                   -1.09647         -157.35         -52.9947         144.504         -52.9268          144.58       -0.0142135         146.447
0.57                    -1.12044        -157.967          -52.893         142.526         -52.8286         142.593       -0.0143499         146.375
0.571                   -1.14501        -158.588         -52.7922         140.547         -52.7313         140.607       -0.0144875         146.303
0.572                   -1.17022        -159.215         -52.6922         138.567         -52.6348          138.62       -0.0146264         146.231
0.573                   -1.19608        -159.845         -52.5932         136.587         -52.5392         136.633       -0.0147666         146.159
0.574                   -1.22263         -160.48          -52.495         134.607         -52.4443         134.646       -0.0149081         146.086
0.575                    -1.2499        -161.119         -52.3977         132.626         -52.3502         132.659       -0.0150511         146.014
0.576                   -1.27793        -161.763         -52.3012         130.645         -52.2568         130.673       -0.0151955         145.941
0.577                   -1.30674        -162.411         -52.2055         128.663         -52.1641         128.686       -0.0153413         145.868
0.578                   -1.33636        -163.064         -52.1106         126.682         -52.0722         126.701       -0.0154887         145.795
0.579                   -1.36684        -163.721         -52.0165         124.701         -51.9809         124.716       -0.0156376         145.722
0.58                    -1.39822        -164.382         -51.9232          122.72         -51.8903         122.731       -0.0157881         145.648
0.581                   -1.43051        -165.047         -51.8306         120.739         -51.8004         120.747       -0.0159403         145.575
0.582                   -1.46378        -165.717         -51.7388         118.758          -51.711         118.764       -0.0160941         145.501
0.583                   -1.49804         -166.39         -51.6476         116.778         -51.6223         116.781       -0.0162496         145.428
0.584                   -1.53335        -167.068         -51.5572         114.798         -51.5342           114.8        -0.016407         145.354
0.585                   -1.56973        -167.749         -51.4675         112.819         -51.4467         112.819       -0.0165661         145.279
0.586                   -1.60723        -168.434         -51.3785         110.841         -51.3597          110.84       -0.0167271         145.205
0.587                   -1.64588        -169.122         -51.2902         108.864         -51.2733         108.861         -0.01689         145.131
0.588                   -1.68573        -169.813         -51.2025         106.888         -51.1875         106.884       -0.0170548         145.056
0.589                    -1.7268        -170.508         -51.1154         104.913         -51.1022         104.909       -0.0172216         144.982
0.59                    -1.76913        -171.205          -51.029         102.939         -51.0174         102.935       -0.0173905         144.907
0.591                   -1.81276        -171.904         -50.9433         100.966         -50.9331         100.962       -0.0175614         144.832
0.592                   -1.85771        -172.606         -50.8581          98.995         -50.8493         98.9907       -0.0177344         144.756
0.593                   -1.90402         -173.31         -50.7735         97.0255          -50.766         97.0214       -0.0179096         144.681
0.594                    -1.9517        -174.015         -50.6896         95.0576         -50.6832         95.0538        -0.018087         144.605
0.595                   -2.00078        -174.721         -50.6062         93.0916         -50.6008         93.0881       -0.0182666          144.53
0.596                   -2.05128        -175.428         -50.5234         91.1275          -50.519         91.1244       -0.0184485         144.454
0.597                   -2.10321        -176.135         -50.4411         89.1654         -50.4375         89.1629       -0.0186328         144.377
0.598                   -2.15658        -176.843         -50.3595         87.2055         -50.3566         87.2035       -0.0188194         144.301
0.599                   -2.21138        -177.549         -50.2783         85.2479          -50.276         85.2464       -0.0190084         144.225
0.6                     -2.26763        -178.255         -50.1977         83.2927         -50.1959         83.2917       -0.0191999         144.148
0.601                   -2.32531         -178.96         -50.1176           81.34         -50.1162         81.3395       -0.0193938         144.071
0.602                    -2.3844        -179.662          -50.038         79.3899          -50.037         79.3899       -0.0195903         143.994
0.603                    -2.4449         179.637         -49.9589         77.4426         -49.9582          77.443       -0.0197894         143.917
0.604                   -2.50675         178.939         -49.8803         75.4982         -49.8797         75.4989       -0.0199911          143.84
0.605                   -2.56994         178.245         -49.8022         73.5568         -49.8017         73.5578       -0.0201954         143.762
0.606                   -2.63443         177.554         -49.7246         71.6184         -49.7241         71.6196       -0.0204024         143.684
0.607                   -2.70016         176.866         -49.6474         69.6833         -49.6469         69.6846       -0.0206122         143.606
0.608                   -2.76708         176.183         -49.5707         67.7516           -49.57         67.7528       -0.0208248         143.528
0.609                   -2.83513         175.505         -49.4944         65.8233         -49.4935         65.8243       -0.0210402         143.449
0.61                    -2.90425         174.831         -49.4185         63.8986         -49.4174         63.8992       -0.0212584         143.371
0.611                   -2.97437         174.163         -49.3431         61.9775         -49.3417         61.9777       -0.0214796         143.292
0.612                   -3.04541           173.5         -49.2681         60.0602         -49.2663         60.0599       -0.0217037         143.213
0.613                    -3.1173         172.842         -49.1934         58.1468         -49.1913         58.1458       -0.0219309         143.134
0.614                   -3.18995          172.19         -49.1192         56.2375         -49.1166         56.2356       -0.0221611         143.054
0.615                    -3.2633         171.543         -49.0453         54.3322         -49.0423         54.3293       -0.0223943         142.975
0.616                   -3.33724         170.902         -48.9718         52.4311         -48.9683         52.4271       -0.0226308         142.895
0.617                   -3.41172         170.266         -48.8986         50.5343         -48.8946          50.529       -0.0228704         142.815
0.618                   -3.48663         169.635         -48.8258         48.6419         -48.8212         48.6352       -0.0231133         142.734
0.619                   -3.56192         169.009         -48.7533          46.754         -48.7481         46.7458       -0.0233594         142.654
0.62                     -3.6375         168.388         -48.6811         44.8706         -48.6753         44.8608       -0.0236089         142.573
0.621                    -3.7133         167.772         -48.6092         42.9919         -48.6028         42.9803       -0.0238618         142.492
0.622                   -3.78927          167.16         -48.5375          41.118         -48.5306         41.1045       -0.0241182          142.41
0.623                   -3.86534         166.551         -48.4661         39.2489         -48.4586         39.2335        -0.024378         142.329
0.624                   -3.94147         165.946          -48.395         37.3846         -48.3869         37.3672       -0.0246415         142.247
0.625                    -4.0176         165.343         -48.3241         35.5254         -48.3154         35.5058       -0.0249085         142.165
0.626                   -4.09372         164.742         -48.2534         33.6711         -48.2441         33.6494       -0.0251792         142.083
0.627                   -4.16978         164.143          -48.183          31.822         -48.1731          31.798       -0.0254537             142
0.628                   -4.24577         163.546         -48.1127          29.978         -48.1022         29.9518       -0.0257319         141.918
0.629                   -4.32168         162.949         -48.0425         28.1393         -48.0315         28.1107       -0.0260141         141.835
