! TOUCHSTONE file generated by CST MICROWAVE STUDIO
! Date and time: Mon Oct 26 12:25:17 2020
! Project name: Scenario_1_Circular_Tissue_out_of_Line.cst
! Parameters = {dy1=-276.636; L_HA=400; MT=2.54; Rad_Dielectric=30; Rad_Lower=7.3; Rad_Upper=30; a_HA=580; a_WG=246; b_HA=500; b_WG=121; c_HA=0; c_WG=187; d_feed=85; dx1=866; h_feed=15; h_lower=18; h_upper=40}
! Header version: 2018
! Port assignment regex: !\s*Touchstone port\s*([0-9]+)\s*=\s*(CST MWS port|CST DS port)\s*([0-9]+|Zmin|Zmax)\s*\(\"(.*)\"\)(\s*mode\s*([0-9]+))?.*
! Touchstone port assignment:
! Touchstone port 1 = CST MWS port 1 ("")
! Touchstone port 2 = CST MWS port 2 ("")
# GHz S DB R 50
0.5                    -0.148542        -122.367          -64.511         86.5521         -64.5166         86.5741      -0.00743064          151.13
0.501                  -0.154964         -122.79          -64.343         84.2983         -64.3502         84.3297      -0.00750313         151.065
0.502                  -0.161513        -123.217         -64.1727         82.0467         -64.1815         82.0857      -0.00757619         150.999
0.503                  -0.168195        -123.647         -64.0005         79.7974         -64.0106         79.8419      -0.00764983         150.934
0.504                  -0.175018         -124.08         -63.8264         77.5501         -63.8377         77.5983      -0.00772404         150.868
0.505                  -0.181989        -124.516         -63.6507         75.3049         -63.6629          75.355      -0.00779884         150.803
0.506                  -0.189115        -124.954         -63.4733         73.0615         -63.4864         73.1119      -0.00787423         150.737
0.507                  -0.196403        -125.396         -63.2945         70.8197         -63.3082         70.8687      -0.00795021         150.671
0.508                  -0.203861        -125.841         -63.1145         68.5792         -63.1285         68.6254       -0.0080268         150.606
0.509                  -0.211495        -126.289         -62.9333         66.3399         -62.9475         66.3818        -0.008104          150.54
0.51                   -0.219312         -126.74         -62.7511         64.1015         -62.7653         64.1376      -0.00818181         150.474
0.511                   -0.22732        -127.194          -62.568         61.8635          -62.582         61.8927      -0.00826024         150.408
0.512                  -0.235526        -127.651         -62.3842         59.6258         -62.3977         59.6467      -0.00833931         150.342
0.513                  -0.243936        -128.111         -62.1998         57.3879         -62.2126         57.3995      -0.00841901         150.276
0.514                   -0.25256        -128.573         -62.0149         55.1495         -62.0269         55.1506      -0.00849935         150.209
0.515                  -0.261402        -129.039         -61.8296         52.9103         -61.8406            52.9      -0.00858035         150.143
0.516                  -0.270471        -129.508          -61.644         50.6699         -61.6538         50.6471        -0.008662         150.077
0.517                  -0.279773        -129.979         -61.4584         48.4278         -61.4667         48.3918      -0.00874431          150.01
0.518                  -0.289317        -130.454         -61.2727         46.1839         -61.2795         46.1336       -0.0088273         149.943
0.519                  -0.299108        -130.931         -61.0871         43.9376         -61.0921         43.8724      -0.00891098         149.877
0.52                   -0.309154        -131.412         -60.9017         41.6886         -60.9049         41.6077      -0.00899534          149.81
0.521                  -0.319463        -131.895         -60.7166         39.4366         -60.7177         39.3393       -0.0090804         149.743
0.522                  -0.330041        -132.381         -60.5319         37.1812         -60.5309         37.0669      -0.00916616         149.676
0.523                  -0.340894         -132.87         -60.3478         34.9221         -60.3444         34.7902      -0.00925264         149.609
0.524                  -0.352031        -133.362         -60.1642         32.6589         -60.1585         32.5089      -0.00933985         149.542
0.525                  -0.363458        -133.856         -59.9814         30.3915         -59.9731         30.2227      -0.00942779         149.475
0.526                  -0.375182        -134.354         -59.7994         28.1194         -59.7885         27.9314      -0.00951647         149.408
0.527                   -0.38721        -134.854         -59.6183         25.8423         -59.6047         25.6349       -0.0096059          149.34
0.528                  -0.399549        -135.357         -59.4381         23.5602         -59.4218         23.3327       -0.0096961         149.273
0.529                  -0.412205        -135.863         -59.2591         21.2726         -59.2399         21.0248      -0.00978707         149.205
0.53                   -0.425185        -136.371         -59.0812         18.9795         -59.0592         18.7111      -0.00987882         149.138
0.531                  -0.438495        -136.882         -58.9046         16.6806         -58.8797         16.3913      -0.00997136          149.07
0.532                  -0.452143        -137.396         -58.7293         14.3758         -58.7014         14.0653       -0.0100647         149.002
0.533                  -0.466134        -137.913         -58.5555         12.0649         -58.5246         11.7331       -0.0101589         148.934
0.534                  -0.480476        -138.432         -58.3831         9.74785         -58.3493         9.39454       -0.0102539         148.866
0.535                  -0.495173        -138.954         -58.2123         7.42456         -58.1755         7.04966       -0.0103497         148.798
0.536                  -0.510234        -139.478         -58.0431         5.09497         -58.0034         4.69841       -0.0104464          148.73
0.537                  -0.525662        -140.005         -57.8756         2.75906          -57.833         2.34082       -0.0105439         148.662
0.538                  -0.541466        -140.534         -57.7098        0.416836         -57.6644      -0.0230565       -0.0106423         148.593
0.539                   -0.55765        -141.066         -57.5459        -1.93168         -57.4977        -2.39315       -0.0107416         148.525
0.54                    -0.57422        -141.601         -57.3839        -4.28643          -57.333        -4.76935       -0.0108418         148.456
0.541                  -0.591181        -142.138         -57.2238        -6.64732         -57.1702        -7.15152       -0.0109429         148.387
0.542                  -0.608541        -142.677         -57.0657        -9.01424         -57.0096         -9.5395       -0.0110449         148.319
0.543                  -0.626303        -143.219         -56.9096        -11.3871          -56.851        -11.9331       -0.0111479          148.25
0.544                  -0.644473        -143.763         -56.7556        -13.7656         -56.6946        -14.3321       -0.0112518         148.181
0.545                  -0.663057        -144.309         -56.6037        -16.1498         -56.5405        -16.7363       -0.0113567         148.112
0.546                  -0.682059        -144.858         -56.4539        -18.5392         -56.3886        -19.1454       -0.0114625         148.042
0.547                  -0.701484        -145.409         -56.3063        -20.9338          -56.239         -21.559       -0.0115694         147.973
0.548                  -0.721336        -145.962         -56.1609        -23.3332         -56.0917         -23.977       -0.0116772         147.903
0.549                  -0.741622        -146.517         -56.0178        -25.7373         -55.9468         -26.399       -0.0117861         147.834
0.55                   -0.762344        -147.075         -55.8768        -28.1457         -55.8042        -28.8247       -0.0118961         147.764
0.551                  -0.783507        -147.635         -55.7381        -30.5581         -55.6641        -31.2536        -0.012007         147.694
0.552                  -0.805115        -148.197         -55.6016        -32.9742         -55.5263        -33.6855       -0.0121191         147.625
0.553                  -0.827172        -148.761         -55.4674        -35.3937         -55.3909        -36.1199       -0.0122322         147.555
0.554                  -0.849682        -149.327         -55.3355        -37.8163         -55.2579        -38.5565       -0.0123465         147.484
0.555                  -0.872648        -149.895         -55.2057        -40.2416         -55.1274        -40.9949       -0.0124619         147.414
0.556                  -0.896073        -150.465         -55.0782        -42.6693         -54.9991        -43.4347       -0.0125784         147.344
0.557                  -0.919962        -151.037         -54.9529         -45.099         -54.8733        -45.8755       -0.0126961         147.273
0.558                  -0.944316        -151.611         -54.8297        -47.5304         -54.7497        -48.3169       -0.0128149         147.203
0.559                  -0.969139        -152.187         -54.7087        -49.9632         -54.6285        -50.7586        -0.012935         147.132
0.56                   -0.994434        -152.765         -54.5899        -52.3969         -54.5095        -53.2001       -0.0130563         147.061
0.561                    -1.0202        -153.345         -54.4731        -54.8314         -54.3927        -55.6411       -0.0131788          146.99
0.562                   -1.04645        -153.926         -54.3583        -57.2662         -54.2781        -58.0812       -0.0133025         146.919
0.563                   -1.07317        -154.509         -54.2455         -59.701         -54.1657        -60.5201       -0.0134276         146.848
0.564                   -1.10037        -155.094         -54.1347        -62.1356         -54.0553        -62.9575       -0.0135539         146.776
0.565                   -1.12805        -155.681         -54.0258        -64.5695          -53.947         -65.393       -0.0136815         146.705
0.566                   -1.15622        -156.269         -53.9187        -67.0026         -53.8406        -67.8263       -0.0138105         146.633
0.567                   -1.18487        -156.859         -53.8134        -69.4345         -53.7361        -70.2571       -0.0139409         146.561
0.568                     -1.214        -157.451         -53.7098         -71.865         -53.6335        -72.6853       -0.0140726          146.49
0.569                   -1.24363        -158.044         -53.6079        -74.2939         -53.5326        -75.1105       -0.0142058         146.418
0.57                    -1.27373        -158.639         -53.5075        -76.7209         -53.4334        -77.5325       -0.0143403         146.345
0.571                   -1.30433        -159.235         -53.4087        -79.1458         -53.3358        -79.9511       -0.0144763         146.273
0.572                   -1.33541        -159.833         -53.3114        -81.5684         -53.2398        -82.3662       -0.0146139         146.201
0.573                   -1.36698        -160.433         -53.2155        -83.9885         -53.1453        -84.7775       -0.0147529         146.128
0.574                   -1.39904        -161.034         -53.1209        -86.4061         -53.0522         -87.185       -0.0148934         146.055
0.575                   -1.43159        -161.637         -53.0275        -88.8209         -52.9604        -89.5885       -0.0150355         145.982
0.576                   -1.46462        -162.241         -52.9353        -91.2328         -52.8698        -91.9879       -0.0151792         145.909
0.577                   -1.49814        -162.846         -52.8443        -93.6418         -52.7804        -94.3832       -0.0153245         145.836
0.578                   -1.53215        -163.453         -52.7542        -96.0477         -52.6921        -96.7744       -0.0154714         145.763
0.579                   -1.56664        -164.061         -52.6652        -98.4505         -52.6048        -99.1613         -0.01562          145.69
0.58                    -1.60161        -164.671         -52.5771         -100.85         -52.5185        -101.544       -0.0157702         145.616
0.581                   -1.63707        -165.282         -52.4898        -103.247          -52.433        -103.922       -0.0159222         145.542
0.582                   -1.67301        -165.895         -52.4032         -105.64         -52.3484        -106.297        -0.016076         145.468
0.583                   -1.70942        -166.509         -52.3174         -108.03         -52.2644        -108.667       -0.0162315         145.394
0.584                   -1.74632        -167.125         -52.2322        -110.417         -52.1811        -111.033       -0.0163889          145.32
0.585                   -1.78369        -167.742         -52.1476          -112.8         -52.0985        -113.395       -0.0165481         145.246
0.586                   -1.82154         -168.36         -52.0635        -115.181         -52.0163        -115.753       -0.0167091         145.171
0.587                   -1.85986         -168.98         -51.9798        -117.558         -51.9346        -118.107       -0.0168721         145.096
0.588                   -1.89865        -169.602         -51.8966        -119.932         -51.8533        -120.458       -0.0170371         145.021
0.589                   -1.93791        -170.224         -51.8137        -122.304         -51.7723        -122.805        -0.017204         144.946
0.59                    -1.97764        -170.849         -51.7311        -124.672         -51.6916        -125.148       -0.0173729         144.871
0.591                   -2.01784        -171.475         -51.6487        -127.038         -51.6112        -127.489       -0.0175439         144.796
0.592                    -2.0585        -172.102         -51.5665        -129.401         -51.5309        -129.826       -0.0177169          144.72
0.593                   -2.09962        -172.732         -51.4845        -131.762         -51.4508         -132.16       -0.0178921         144.644
0.594                   -2.14121        -173.363         -51.4026         -134.12         -51.3707        -134.491       -0.0180695         144.568
0.595                   -2.18325        -173.995         -51.3207        -136.476         -51.2907         -136.82        -0.018249         144.492
0.596                   -2.22575        -174.629         -51.2389         -138.83         -51.2107        -139.147       -0.0184308         144.416
0.597                   -2.26871        -175.266         -51.1571        -141.182         -51.1306        -141.471       -0.0186149          144.34
0.598                   -2.31212        -175.904         -51.0752        -143.532         -51.0505        -143.793       -0.0188013         144.263
0.599                   -2.35599        -176.544         -50.9933         -145.88         -50.9702        -146.113       -0.0189901         144.186
0.6                     -2.40032        -177.186         -50.9112        -148.226         -50.8899        -148.432       -0.0191813         144.109
0.601                    -2.4451         -177.83         -50.8291        -150.571         -50.8094        -150.749       -0.0193749         144.032
0.602                   -2.49033        -178.476         -50.7468        -152.915         -50.7287        -153.064        -0.019571         143.954
0.603                   -2.53603        -179.125         -50.6644        -155.257         -50.6478        -155.379       -0.0197697         143.877
0.604                   -2.58218        -179.776         -50.5818        -157.599         -50.5667        -157.693        -0.019971         143.799
0.605                   -2.62879         179.571          -50.499         -159.94         -50.4854        -160.006       -0.0201748         143.721
0.606                   -2.67587         178.915          -50.416         -162.28         -50.4038        -162.318       -0.0203814         143.643
0.607                   -2.72341         178.256         -50.3329        -164.619          -50.322        -164.631       -0.0205908         143.564
0.608                   -2.77143         177.594         -50.2495        -166.958         -50.2399        -166.943       -0.0208029         143.486
0.609                   -2.81992          176.93         -50.1659        -169.297         -50.1576        -169.255       -0.0210178         143.407
0.61                     -2.8689         176.262         -50.0822        -171.635          -50.075        -171.567       -0.0212356         143.328
0.611                   -2.91837         175.591         -49.9982        -173.973         -49.9922         -173.88       -0.0214564         143.249
0.612                   -2.96835         174.916         -49.9141        -176.312         -49.9091        -176.193       -0.0216802         143.169
0.613                   -3.01884         174.238         -49.8297         -178.65         -49.8258        -178.507        -0.021907          143.09
0.614                   -3.06985         173.556         -49.7452         179.011         -49.7423         179.179       -0.0221369          143.01
0.615                   -3.12141         172.869         -49.6606         176.671         -49.6585         176.863         -0.02237         142.929
0.616                   -3.17353         172.179         -49.5758         174.332         -49.5745         174.547       -0.0226062         142.849
0.617                   -3.22622         171.484         -49.4909         171.991         -49.4904         172.229       -0.0228458         142.768
0.618                   -3.27952         170.784         -49.4058          169.65         -49.4061          169.91       -0.0230887         142.688
0.619                   -3.33344         170.079         -49.3208         167.308         -49.3217          167.59        -0.023335         142.607
0.62                    -3.38802          169.37         -49.2356         164.966         -49.2371         165.268       -0.0235848         142.525
0.621                   -3.44327         168.654         -49.1504         162.622         -49.1524         162.945        -0.023838         142.444
0.622                   -3.49925         167.933         -49.0652         160.278         -49.0677          160.62       -0.0240949         142.362
0.623                   -3.55599         167.206           -48.98         157.933          -48.983         158.293       -0.0243553          142.28
0.624                   -3.61353         166.473         -48.8949         155.587         -48.8982         155.965       -0.0246194         142.198
0.625                   -3.67192         165.733         -48.8099          153.24         -48.8135         153.635       -0.0248873         142.115
0.626                   -3.73123         164.986          -48.725         150.892         -48.7288         151.304        -0.025159         142.032
0.627                   -3.79149         164.231         -48.6402         148.543         -48.6442         148.971       -0.0254345         141.949
0.628                    -3.8528         163.469         -48.5556         146.194         -48.5598         146.636       -0.0257138         141.866
0.629                   -3.91521           162.7         -48.4712         143.843         -48.4755           144.3       -0.0259971         141.782
