! TOUCHSTONE file generated by CST MICROWAVE STUDIO
! Date and time: Sat Oct 24 11:43:18 2020
! Project name: Scenario_1_Circular_Tissue_out_of_Line.cst
! Parameters = {dy1=-276.636; L_HA=400; MT=2.54; Rad_Dielectric=30; Rad_Lower=7.3; Rad_Upper=30; a_HA=580; a_WG=246; b_HA=500; b_WG=121; c_HA=0; c_WG=187; d_feed=85; dx1=1039; h_feed=15; h_lower=18; h_upper=40}
! Header version: 2018
! Port assignment regex: !\s*Touchstone port\s*([0-9]+)\s*=\s*(CST MWS port|CST DS port)\s*([0-9]+|Zmin|Zmax)\s*\(\"(.*)\"\)(\s*mode\s*([0-9]+))?.*
! Touchstone port assignment:
! Touchstone port 1 = CST MWS port 1 ("")
! Touchstone port 2 = CST MWS port 2 ("")
# GHz S DB R 50
0.5                    -0.143004        -122.084          -65.027        -12.6158          -65.027        -12.6158      -0.00755699         151.136
0.501                   -0.15478        -122.539         -64.9992        -13.8145         -64.9994        -13.8108      -0.00761973         151.071
0.502                  -0.166709        -122.994         -64.9707        -15.0337          -64.971        -15.0262      -0.00768313         151.005
0.503                  -0.178788         -123.45         -64.9414        -16.2739         -64.9419        -16.2626      -0.00774719          150.94
0.504                  -0.191017        -123.907         -64.9112        -17.5356         -64.9119        -17.5205      -0.00781194         150.875
0.505                  -0.203391        -124.364         -64.8801        -18.8194          -64.881        -18.8004      -0.00787737         150.809
0.506                   -0.21591        -124.822         -64.8481        -20.1258         -64.8492        -20.1029      -0.00794349         150.744
0.507                  -0.228572         -125.28         -64.8151        -21.4552         -64.8163        -21.4285      -0.00801032         150.678
0.508                  -0.241373        -125.739         -64.7809        -22.8083         -64.7824        -22.7777      -0.00807785         150.613
0.509                  -0.254313        -126.199         -64.7457        -24.1856         -64.7474        -24.1511       -0.0081461         150.547
0.51                   -0.267387         -126.66         -64.7092        -25.5877         -64.7112        -25.5493      -0.00821507         150.481
0.511                  -0.280596        -127.121         -64.6714        -27.0151         -64.6737        -26.9728      -0.00828478         150.415
0.512                  -0.293935        -127.583         -64.6323        -28.4684         -64.6348        -28.4222      -0.00835523         150.349
0.513                  -0.307404        -128.045         -64.5918        -29.9482         -64.5945        -29.8981      -0.00842643         150.283
0.514                  -0.320999        -128.509         -64.5497         -31.455         -64.5527         -31.401      -0.00849839         150.217
0.515                  -0.334718        -128.973          -64.506        -32.9894         -64.5093        -32.9315      -0.00857111         150.151
0.516                   -0.34856        -129.438         -64.4606         -34.552         -64.4642        -34.4903      -0.00864462         150.084
0.517                  -0.362521        -129.903         -64.4134        -36.1434         -64.4174        -36.0778      -0.00871891         150.018
0.518                    -0.3766         -130.37         -64.3642        -37.7641         -64.3686        -37.6947      -0.00879399         149.952
0.519                  -0.390794        -130.837         -64.3131        -39.4147         -64.3178        -39.3415      -0.00886988         149.885
0.52                   -0.405101        -131.306         -64.2598        -41.0957         -64.2649        -41.0188      -0.00894659         149.818
0.521                  -0.419518        -131.775         -64.2043        -42.8077         -64.2097        -42.7271      -0.00902412         149.752
0.522                  -0.434044        -132.245         -64.1464        -44.5513         -64.1522         -44.467      -0.00910248         149.685
0.523                  -0.448675        -132.716         -64.0861        -46.3269         -64.0923         -46.239      -0.00918169         149.618
0.524                   -0.46341        -133.188         -64.0231         -48.135         -64.0297        -48.0435      -0.00926175         149.551
0.525                  -0.478247        -133.662         -63.9573         -49.976         -63.9644        -49.8812      -0.00934268         149.484
0.526                  -0.493182        -134.136         -63.8887        -51.8505         -63.8961        -51.7523      -0.00942448         149.417
0.527                  -0.508214        -134.611          -63.817        -53.7589         -63.8249        -53.6574      -0.00950717         149.349
0.528                  -0.523341        -135.088         -63.7421        -55.7015         -63.7505        -55.5968      -0.00959075         149.282
0.529                   -0.53856        -135.565          -63.664        -57.6787         -63.6728        -57.5709      -0.00967525         149.215
0.53                    -0.55387        -136.044         -63.5823        -59.6908         -63.5916          -59.58      -0.00976066         149.147
0.531                  -0.569267        -136.524          -63.497         -61.738         -63.5068        -61.6244        -0.009847          149.08
0.532                   -0.58475        -137.006          -63.408        -63.8207         -63.4183        -63.7043      -0.00993429         149.012
0.533                  -0.600316        -137.489          -63.315        -65.9389         -63.3258        -65.8199       -0.0100225         148.944
0.534                  -0.615964        -137.973          -63.218        -68.0928         -63.2292        -67.9714       -0.0101117         148.876
0.535                  -0.631693        -138.459         -63.1167        -70.2826         -63.1284        -70.1589       -0.0102019         148.808
0.536                  -0.647498        -138.946          -63.011        -72.5082         -63.0233        -72.3824       -0.0102931          148.74
0.537                   -0.66338        -139.434         -62.9009        -74.7696         -62.9136        -74.6418       -0.0103853         148.672
0.538                  -0.679336        -139.925         -62.7861        -77.0668         -62.7993        -76.9372       -0.0104785         148.604
0.539                  -0.695365        -140.417         -62.6665        -79.3995         -62.6802        -79.2683       -0.0105727         148.535
0.54                   -0.711465         -140.91          -62.542        -81.7677         -62.5562        -81.6351        -0.010668         148.467
0.541                  -0.727634        -141.406         -62.4125        -84.1711         -62.4271        -84.0372       -0.0107643         148.398
0.542                  -0.743872        -141.903         -62.2778        -86.6094         -62.2929        -86.4744       -0.0108617         148.329
0.543                  -0.760177        -142.402          -62.138        -89.0823         -62.1535        -88.9464       -0.0109602         148.261
0.544                  -0.776548        -142.903         -61.9929        -91.5894         -62.0088        -91.4529       -0.0110597         148.192
0.545                  -0.792985        -143.407         -61.8424        -94.1302         -61.8588        -93.9932       -0.0111604         148.123
0.546                  -0.809487        -143.912         -61.6866        -96.7044         -61.7033        -96.5672       -0.0112622         148.054
0.547                  -0.826054         -144.42         -61.5253        -99.3115         -61.5423        -99.1741       -0.0113652         147.984
0.548                  -0.842685         -144.93         -61.3586        -101.951         -61.3759        -101.814       -0.0114693         147.915
0.549                  -0.859382        -145.442         -61.1864        -104.622         -61.2041        -104.485       -0.0115746         147.846
0.55                   -0.876144        -145.957         -61.0089        -107.325         -61.0268        -107.188       -0.0116811         147.776
0.551                  -0.892973        -146.474          -60.826        -110.058         -60.8441        -109.922       -0.0117887         147.706
0.552                  -0.909871        -146.994         -60.6378        -112.821         -60.6562        -112.686       -0.0118976         147.637
0.553                  -0.926838        -147.517         -60.4445        -115.614          -60.463         -115.48       -0.0120078         147.567
0.554                  -0.943878        -148.043         -60.2461        -118.437         -60.2647        -118.303       -0.0121192         147.497
0.555                  -0.960993        -148.572         -60.0428        -121.287         -60.0615        -121.155       -0.0122318         147.426
0.556                  -0.978188        -149.104         -59.8348        -124.166         -59.8535        -124.035       -0.0123458         147.356
0.557                  -0.995465        -149.639         -59.6223        -127.073         -59.6409        -126.943        -0.012461         147.286
0.558                   -1.01283        -150.178         -59.4054        -130.006          -59.424        -129.879       -0.0125776         147.215
0.559                   -1.03029         -150.72         -59.1845        -132.967          -59.203        -132.841       -0.0126955         147.145
0.56                    -1.04785        -151.266         -58.9597        -135.953         -58.9781        -135.829       -0.0128148         147.074
0.561                   -1.06552        -151.815         -58.7315        -138.966         -58.7496        -138.844       -0.0129354         147.003
0.562                   -1.08331        -152.369         -58.5001        -142.004         -58.5179        -141.884       -0.0130575         146.932
0.563                   -1.10123        -152.927         -58.2658        -145.068         -58.2834         -144.95        -0.013181         146.861
0.564                   -1.11929        -153.489          -58.029        -148.156         -58.0463         -148.04       -0.0133059          146.79
0.565                    -1.1375        -154.055         -57.7901        -151.269          -57.807        -151.155       -0.0134322         146.719
0.566                   -1.15588        -154.626         -57.5495        -154.406          -57.566        -154.294       -0.0135601         146.647
0.567                   -1.17444        -155.202         -57.3077        -157.566         -57.3237        -157.457       -0.0136894         146.576
0.568                   -1.19321        -155.783         -57.0649         -160.75         -57.0804        -160.644       -0.0138203         146.504
0.569                   -1.21221        -156.369         -56.8218        -163.956         -56.8367        -163.853       -0.0139527         146.432
0.57                    -1.23145        -156.961         -56.5787        -167.185         -56.5931        -167.084       -0.0140867          146.36
0.571                   -1.25097        -157.558         -56.3361        -170.435         -56.3499        -170.337       -0.0142223         146.288
0.572                   -1.27079        -158.161         -56.0945        -173.706         -56.1077        -173.611       -0.0143595         146.216
0.573                   -1.29094         -158.77         -55.8544        -176.996         -55.8669        -176.904       -0.0144983         146.143
0.574                   -1.31147        -159.385         -55.6162         179.695         -55.6281         179.784       -0.0146388         146.071
0.575                   -1.33241        -160.006         -55.3804         176.368         -55.3916         176.454        -0.014781         145.998
0.576                    -1.3538        -160.634         -55.1475         173.025         -55.1581         173.107       -0.0149248         145.925
0.577                   -1.37569        -161.269         -54.9179         169.667         -54.9278         169.746       -0.0150705         145.852
0.578                   -1.39812         -161.91         -54.6921         166.296         -54.7013         166.372       -0.0152178         145.779
0.579                   -1.42117        -162.559         -54.4705         162.914          -54.479         162.986        -0.015367         145.706
0.58                    -1.44488        -163.215         -54.2534         159.523         -54.2612          159.59        -0.015518         145.632
0.581                   -1.46933        -163.879         -54.0413         156.124         -54.0484         156.188       -0.0156708         145.559
0.582                   -1.49458         -164.55         -53.8344          152.72         -53.8408          152.78       -0.0158255         145.485
0.583                    -1.5207        -165.229          -53.633         149.313         -53.6388         149.369       -0.0159821         145.411
0.584                   -1.54779        -165.915         -53.4375         145.906         -53.4426         145.958       -0.0161406         145.337
0.585                   -1.57593        -166.609         -53.2479         142.502         -53.2525         142.549        -0.016301         145.263
0.586                    -1.6052        -167.311         -53.0645         139.102         -53.0685         139.146       -0.0164635         145.189
0.587                    -1.6357         -168.02         -52.8875          135.71         -52.8909         135.749        -0.016628         145.114
0.588                   -1.66754        -168.737         -52.7168         132.328         -52.7197         132.363       -0.0167945         145.039
0.589                   -1.70082        -169.461         -52.5524         128.959         -52.5549          128.99       -0.0169631         144.965
0.59                    -1.73563        -170.193         -52.3945         125.605         -52.3966         125.631       -0.0171338          144.89
0.591                    -1.7721        -170.931         -52.2429         122.268         -52.2446         122.291       -0.0173066         144.814
0.592                   -1.81032        -171.675         -52.0976         118.952         -52.0988          118.97       -0.0174817         144.739
0.593                    -1.8504        -172.425         -51.9583         115.657         -51.9592         115.671       -0.0176589         144.664
0.594                   -1.89245         -173.18         -51.8249         112.386         -51.8256         112.397       -0.0178384         144.588
0.595                   -1.93655        -173.939         -51.6973         109.142         -51.6977         109.149       -0.0180202         144.512
0.596                    -1.9828        -174.702         -51.5752         105.924         -51.5754         105.928       -0.0182042         144.436
0.597                   -2.03127        -175.467         -51.4583         102.736         -51.4583         102.736       -0.0183907          144.36
0.598                   -2.08203        -176.235         -51.3464          99.577         -51.3462         99.5738       -0.0185795         144.283
0.599                   -2.13512        -177.002         -51.2392         96.4493         -51.2389         96.4431       -0.0187707         144.207
0.6                     -2.19058         -177.77         -51.1364         93.3535          -51.136         93.3444       -0.0189645          144.13
0.601                    -2.2484        -178.535         -51.0377         90.2899         -51.0372         90.2781       -0.0191607         144.053
0.602                   -2.30858        -179.297         -50.9427         87.2589         -50.9422         87.2448       -0.0193595         143.976
0.603                   -2.37107         179.945         -50.8513         84.2609         -50.8508         84.2444       -0.0195608         143.899
0.604                   -2.43581         179.193         -50.7631         81.2957         -50.7625         81.2772       -0.0197648         143.821
0.605                   -2.50271         178.448         -50.6778         78.3631         -50.6772         78.3428       -0.0199714         143.744
0.606                   -2.57163          177.71         -50.5951          75.463         -50.5945         75.4409       -0.0201808         143.666
0.607                   -2.64244         176.982         -50.5147         72.5947         -50.5142         72.5712       -0.0203929         143.588
0.608                   -2.71497         176.264         -50.4364         69.7578         -50.4359          69.733       -0.0206078         143.509
0.609                   -2.78903         175.556         -50.3599         66.9515         -50.3595         66.9256       -0.0208256         143.431
0.61                    -2.86441          174.86         -50.2849          64.175         -50.2846         64.1482       -0.0210462         143.352
0.611                    -2.9409         174.176         -50.2113         61.4275          -50.211         61.3999       -0.0212698         143.273
0.612                   -3.01827         173.503         -50.1389          58.708         -50.1386         58.6798       -0.0214963         143.194
0.613                   -3.09629         172.843         -50.0673         56.0155         -50.0672         55.9868       -0.0217259         143.115
0.614                   -3.17474         172.194         -49.9965          53.349         -49.9964           53.32       -0.0219585         143.035
0.615                    -3.2534         171.557         -49.9262         50.7073         -49.9262         50.6782       -0.0221943         142.955
0.616                   -3.33206         170.931         -49.8564         48.0894         -49.8564         48.0602       -0.0224332         142.875
0.617                   -3.41054         170.315         -49.7867          45.494         -49.7869         45.4649       -0.0226754         142.795
0.618                   -3.48866         169.707         -49.7172           42.92         -49.7174         42.8911       -0.0229208         142.715
0.619                   -3.56629         169.108         -49.6477         40.3663          -49.648         40.3376       -0.0231696         142.634
0.62                    -3.64329         168.516         -49.5781         37.8316         -49.5784         37.8034       -0.0234217         142.553
0.621                   -3.71957         167.929         -49.5082         35.3149         -49.5086         35.2871       -0.0236773         142.472
0.622                   -3.79506         167.347         -49.4381         32.8148         -49.4385         32.7876       -0.0239364         142.391
0.623                    -3.8697         166.767         -49.3675         30.3303         -49.3681         30.3037       -0.0241989         142.309
0.624                   -3.94348          166.19         -49.2965         27.8603         -49.2971         27.8344       -0.0244651         142.227
0.625                   -4.01641         165.613          -49.225         25.4036         -49.2257         25.3784       -0.0247349         142.145
0.626                   -4.08849         165.035          -49.153         22.9591         -49.1536         22.9348       -0.0250084         142.063
0.627                   -4.15978         164.455         -49.0803         20.5258          -49.081         20.5023       -0.0252857          141.98
0.628                   -4.23034         163.872         -49.0071         18.1025         -49.0078           18.08       -0.0255667         141.897
0.629                   -4.30023         163.285         -48.9331         15.6884         -48.9339         15.6667       -0.0258516         141.814
