! TOUCHSTONE file generated by CST MICROWAVE STUDIO
! Date and time: Mon Oct 26 12:04:54 2020
! Project name: Scenario_1_Circular_Tissue_out_of_Line_v2.cst
! Parameters = {dy1=-259.5; L_HA=400; MT=2.54; Rad_Dielectric=30; Rad_Lower=7.3; Rad_Upper=30; a_HA=580; a_WG=246; b_HA=500; b_WG=121; c_HA=0; c_WG=187; d_feed=85; dx1=173; h_feed=15; h_lower=18; h_upper=40}
! Header version: 2018
! Port assignment regex: !\s*Touchstone port\s*([0-9]+)\s*=\s*(CST MWS port|CST DS port)\s*([0-9]+|Zmin|Zmax)\s*\(\"(.*)\"\)(\s*mode\s*([0-9]+))?.*
! Touchstone port assignment:
! Touchstone port 1 = CST MWS port 1 ("")
! Touchstone port 2 = CST MWS port 2 ("")
# GHz S DB R 50
0.5                    -0.144229         -122.48         -61.3397         110.587         -61.3362         110.548      -0.00680771         151.143
0.501                  -0.154566         -122.92         -61.1393          108.71         -61.1877         107.662      -0.00687547         151.077
0.502                  -0.164991        -123.361         -60.9397         106.857         -61.0258         104.867      -0.00694408         151.012
0.503                  -0.175506        -123.803          -60.741         105.026         -60.8526         102.165      -0.00701357         150.946
0.504                  -0.186109        -124.247         -60.5432         103.215           -60.67         99.5568      -0.00708394         150.881
0.505                  -0.196802        -124.691         -60.3465         101.425         -60.4796         97.0421      -0.00715519         150.815
0.506                  -0.207583        -125.137         -60.1509         99.6522         -60.2831         94.6189      -0.00722733         150.749
0.507                  -0.218453        -125.584         -59.9566         97.8971          -60.082         92.2845      -0.00730037         150.683
0.508                  -0.229413        -126.032         -59.7636         96.1582         -59.8774         90.0351      -0.00737431         150.617
0.509                  -0.240462        -126.481         -59.5719         94.4345         -59.6706         87.8668      -0.00744916         150.551
0.51                   -0.251601        -126.932         -59.3816         92.7249         -59.4624         85.7752      -0.00752493         150.485
0.511                   -0.26283        -127.384         -59.1928         91.0285         -59.2539         83.7556      -0.00760162         150.419
0.512                  -0.274149        -127.837         -59.0055         89.3444         -59.0456         81.8033      -0.00767924         150.353
0.513                   -0.28556        -128.291         -58.8197         87.6717         -58.8381         79.9137       -0.0077578         150.287
0.514                  -0.297062        -128.747         -58.6355         86.0096         -58.6321         78.0822       -0.0078373          150.22
0.515                  -0.308656        -129.205         -58.4528         84.3571         -58.4279         76.3043      -0.00791776         150.154
0.516                  -0.320343        -129.663         -58.2717         82.7137         -58.2258         74.5757      -0.00799918         150.087
0.517                  -0.332124        -130.124         -58.0922         81.0785         -58.0261         72.8923      -0.00808156         150.021
0.518                     -0.344        -130.585         -57.9144         79.4509         -57.8291         71.2503      -0.00816492         149.954
0.519                  -0.355971        -131.049         -57.7382         77.8301         -57.6348         69.6459      -0.00824926         149.887
0.52                   -0.368038        -131.513         -57.5636         76.2156         -57.4435         68.0757       -0.0083346         149.821
0.521                  -0.380204         -131.98         -57.3907         74.6068         -57.2552         66.5364      -0.00842093         149.754
0.522                  -0.392468        -132.448         -57.2194          73.003           -57.07         65.0251      -0.00850828         149.687
0.523                  -0.404833        -132.917         -57.0498         71.4037         -56.8878         63.5388      -0.00859664          149.62
0.524                    -0.4173        -133.389         -56.8819         69.8085         -56.7088          62.075      -0.00868602         149.552
0.525                   -0.42987        -133.862         -56.7157         68.2169         -56.5329         60.6312      -0.00877644         149.485
0.526                  -0.442545        -134.337         -56.5511         66.6283         -56.3601          59.205      -0.00886791         149.418
0.527                  -0.455327        -134.814         -56.3881         65.0423         -56.1903         57.7944      -0.00896043          149.35
0.528                  -0.468218        -135.292         -56.2269         63.4586         -56.0235         56.3973        -0.009054         149.283
0.529                   -0.48122        -135.773         -56.0673         61.8768         -55.8597          55.012      -0.00914866         149.215
0.53                   -0.494335        -136.255         -55.9094         60.2964         -55.6988         53.6367      -0.00924439         149.147
0.531                  -0.507566        -136.739         -55.7531         58.7172         -55.5408         52.2699      -0.00934121         149.079
0.532                  -0.520914        -137.225         -55.5985         57.1388         -55.3855           50.91      -0.00943914         149.012
0.533                  -0.534383        -137.714         -55.4455         55.5609          -55.233         49.5557      -0.00953817         148.943
0.534                  -0.547975        -138.204         -55.2943         53.9833         -55.0831         48.2058      -0.00963833         148.875
0.535                  -0.561693        -138.697         -55.1446         52.4057         -54.9358         46.8591      -0.00973962         148.807
0.536                   -0.57554        -139.191         -54.9966         50.8279          -54.791         45.5145      -0.00984205         148.739
0.537                   -0.58952        -139.688         -54.8503         49.2495         -54.6486         44.1709      -0.00994564          148.67
0.538                  -0.603636        -140.187         -54.7056         47.6705         -54.5086         42.8276       -0.0100504         148.602
0.539                  -0.617891        -140.689         -54.5625         46.0906         -54.3709         41.4835       -0.0101563         148.533
0.54                   -0.632289        -141.193          -54.421         44.5097         -54.2354          40.138       -0.0102634         148.465
0.541                  -0.646835        -141.699         -54.2812         42.9276         -54.1021         38.7902       -0.0103718         148.396
0.542                  -0.661532        -142.207         -54.1431         41.3441         -53.9709         37.4395       -0.0104813         148.327
0.543                  -0.676385        -142.718         -54.0065         39.7592         -53.8418         36.0853       -0.0105921         148.258
0.544                  -0.691398        -143.232         -53.8715         38.1727         -53.7146         34.7271        -0.010704         148.189
0.545                  -0.706576        -143.748         -53.7382         36.5845         -53.5893         33.3642       -0.0108173          148.12
0.546                  -0.721925        -144.267         -53.6065         34.9946         -53.4659         31.9962       -0.0109318          148.05
0.547                  -0.737449        -144.788         -53.4763         33.4029         -53.3443         30.6227       -0.0110476         147.981
0.548                  -0.753154        -145.313         -53.3478         31.8093         -53.2245         29.2433       -0.0111646         147.911
0.549                  -0.769046        -145.839         -53.2208         30.2137         -53.1064         27.8576        -0.011283         147.842
0.55                   -0.785131        -146.369         -53.0954         28.6162         -52.9899         26.4653       -0.0114027         147.772
0.551                  -0.801416        -146.902         -52.9716         27.0168          -52.875         25.0662       -0.0115237         147.702
0.552                  -0.817906        -147.437         -52.8494         25.4153         -52.7617         23.6598       -0.0116461         147.632
0.553                  -0.834609        -147.976         -52.7287         23.8119         -52.6498         22.2462       -0.0117698         147.562
0.554                  -0.851532        -148.518         -52.6096         22.2065         -52.5395          20.825       -0.0118949         147.492
0.555                  -0.868683        -149.062         -52.4921         20.5992         -52.4305          19.396       -0.0120214         147.421
0.556                  -0.886068         -149.61          -52.376         18.9899          -52.323         17.9593       -0.0121493         147.351
0.557                  -0.903698        -150.161         -52.2615         17.3788         -52.2168         16.5145       -0.0122786          147.28
0.558                  -0.921579        -150.715         -52.1485         15.7658         -52.1119         15.0617       -0.0124094          147.21
0.559                  -0.939722        -151.273         -52.0371         14.1511         -52.0083         13.6009       -0.0125416         147.139
0.56                   -0.958134        -151.834         -51.9271         12.5347         -51.9059         12.1319       -0.0126753         147.068
0.561                  -0.976827        -152.398         -51.8186         10.9166         -51.8048         10.6547       -0.0128104         146.997
0.562                  -0.995809        -152.966         -51.7116         9.29707         -51.7048         9.16943       -0.0129471         146.926
0.563                   -1.01509        -153.537          -51.606         7.67605          -51.606         7.67605       -0.0130853         146.854
0.564                   -1.03469        -154.112         -51.5019         6.05367         -51.5083         6.17461        -0.013225         146.783
0.565                    -1.0546        -154.691         -51.3993         4.43004         -51.4118          4.6652       -0.0133663         146.711
0.566                   -1.07485        -155.273          -51.298         2.80527         -51.3163          3.1479       -0.0135092          146.64
0.567                   -1.09545        -155.859         -51.1982         1.17947         -51.2218         1.62283       -0.0136536         146.568
0.568                    -1.1164        -156.449         -51.0997       -0.447247         -51.1284       0.0901093       -0.0137997         146.496
0.569                   -1.13773        -157.042         -51.0026        -2.07475          -51.036        -1.45011       -0.0139474         146.424
0.57                    -1.15944         -157.64         -50.9069        -3.70293         -50.9446        -2.99767       -0.0140968         146.351
0.571                   -1.18156        -158.241         -50.8125        -5.33164         -50.8542         -4.5524       -0.0142478         146.279
0.572                   -1.20408        -158.847         -50.7195        -6.96075         -50.7647        -6.11409       -0.0144005         146.207
0.573                   -1.22704        -159.457         -50.6277        -8.59013         -50.6762        -7.68254        -0.014555         146.134
0.574                   -1.25044         -160.07         -50.5372        -10.2196         -50.5886        -9.25754       -0.0147112         146.061
0.575                    -1.2743        -160.688          -50.448        -11.8491         -50.5018        -10.8389       -0.0148691         145.988
0.576                   -1.29864         -161.31           -50.36        -13.4785          -50.416        -12.4262       -0.0150289         145.915
0.577                   -1.32348        -161.937         -50.2733        -15.1075          -50.331        -14.0194       -0.0151904         145.842
0.578                   -1.34883        -162.568         -50.1877        -16.7361         -50.2469        -15.6181       -0.0153538         145.769
0.579                   -1.37472        -163.203         -50.1033        -18.3642         -50.1636        -17.2221        -0.015519         145.695
0.58                    -1.40115        -163.842         -50.0201        -19.9914         -50.0812         -18.831       -0.0156861         145.621
0.581                   -1.42816        -164.486         -49.9379        -21.6179         -49.9996        -20.4446       -0.0158551         145.548
0.582                   -1.45576        -165.135         -49.8569        -23.2433         -49.9187        -22.0626        -0.016026         145.474
0.583                   -1.48397        -165.788          -49.777        -24.8675         -49.8387        -23.6846       -0.0161988         145.399
0.584                   -1.51282        -166.445         -49.6981        -26.4904         -49.7594        -25.3104       -0.0163737         145.325
0.585                   -1.54233        -167.107         -49.6202        -28.1119         -49.6809        -26.9396       -0.0165505         145.251
0.586                   -1.57251        -167.774         -49.5433        -29.7318         -49.6031        -28.5719       -0.0167294         145.176
0.587                   -1.60341        -168.446         -49.4674        -31.3499         -49.5261        -30.2069       -0.0169103         145.101
0.588                   -1.63503        -169.122         -49.3924        -32.9662         -49.4497        -31.8444       -0.0170934         145.026
0.589                   -1.66741        -169.803         -49.3184        -34.5805         -49.3741        -33.4839       -0.0172785         144.951
0.59                    -1.70057        -170.488         -49.2452        -36.1927         -49.2992        -35.1252       -0.0174658         144.876
0.591                   -1.73454        -171.179         -49.1729        -37.8026          -49.225        -36.7679       -0.0176552         144.801
0.592                   -1.76935        -171.874         -49.1015        -39.4101         -49.1514        -38.4116       -0.0178469         144.725
0.593                   -1.80502        -172.573         -49.0308        -41.0152         -49.0785        -40.0561       -0.0180408         144.649
0.594                   -1.84158        -173.278         -48.9609        -42.6175         -49.0062         -41.701       -0.0182369         144.573
0.595                   -1.87906        -173.987         -48.8918        -44.2172         -48.9346        -43.3459       -0.0184354         144.497
0.596                    -1.9175        -174.701         -48.8233         -45.814         -48.8635        -44.9906       -0.0186362         144.421
0.597                   -1.95693         -175.42         -48.7556        -47.4078         -48.7931        -46.6346       -0.0188393         144.344
0.598                   -1.99737        -176.143         -48.6885        -48.9985         -48.7233        -48.2777       -0.0190448         144.268
0.599                   -2.03885        -176.871         -48.6221        -50.5861          -48.654        -49.9196       -0.0192528         144.191
0.6                     -2.08142        -177.604         -48.5562        -52.1703         -48.5852        -51.5599       -0.0194633         144.114
0.601                   -2.12511        -178.341          -48.491        -53.7512          -48.517        -53.1984       -0.0196762         144.037
0.602                   -2.16994        -179.083         -48.4262        -55.3286         -48.4494        -54.8346       -0.0198917         143.959
0.603                   -2.21596        -179.829          -48.362        -56.9025         -48.3822        -56.4684       -0.0201097         143.882
0.604                    -2.2632         179.421         -48.2983        -58.4727         -48.3155        -58.0995       -0.0203304         143.804
0.605                    -2.3117         178.666         -48.2351        -60.0393         -48.2493        -59.7275       -0.0205537         143.726
0.606                   -2.36149         177.907         -48.1723         -61.602         -48.1835        -61.3523       -0.0207798         143.648
0.607                   -2.41261         177.144         -48.1099        -63.1608         -48.1182        -62.9735       -0.0210085         143.569
0.608                   -2.46509         176.377         -48.0479        -64.7157         -48.0533        -64.5909       -0.0212401         143.491
0.609                   -2.51898         175.606         -47.9862        -66.2666         -47.9889        -66.2042       -0.0214744         143.412
0.61                    -2.57431         174.831         -47.9249        -67.8134         -47.9248        -67.8133       -0.0217116         143.333
0.611                   -2.63112         174.052         -47.8639        -69.3562          -47.861        -69.4179       -0.0219517         143.253
0.612                   -2.68946         173.271         -47.8031        -70.8947         -47.7977        -71.0177       -0.0221948         143.174
0.613                   -2.74934         172.485         -47.7427         -72.429         -47.7347        -72.6127       -0.0224409         143.094
0.614                   -2.81083         171.697         -47.6824         -73.959         -47.6719        -74.2025         -0.02269         143.014
0.615                   -2.87394         170.906         -47.6224        -75.4848         -47.6095        -75.7871       -0.0229422         142.934
0.616                   -2.93873         170.112         -47.5625        -77.0061         -47.5474        -77.3663       -0.0231975         142.854
0.617                   -3.00523         169.315         -47.5028        -78.5231         -47.4855        -78.9398        -0.023456         142.773
0.618                   -3.07348         168.517         -47.4433        -80.0357         -47.4239        -80.5076       -0.0237178         142.692
0.619                   -3.14352         167.716         -47.3838        -81.5438         -47.3625        -82.0695       -0.0239828         142.611
0.62                    -3.21537         166.913         -47.3245        -83.0474         -47.3014        -83.6253       -0.0242512          142.53
0.621                   -3.28909         166.109         -47.2653        -84.5466         -47.2404        -85.1751        -0.024523         142.449
0.622                    -3.3647         165.303          -47.206        -86.0412         -47.1796        -86.7186       -0.0247982         142.367
0.623                   -3.44224         164.497         -47.1469        -87.5313         -47.1189        -88.2558       -0.0250769         142.285
0.624                   -3.52174          163.69         -47.0877        -89.0169         -47.0584        -89.7865       -0.0253592         142.203
0.625                   -3.60324         162.882         -47.0286        -90.4979          -46.998        -91.3108       -0.0256451          142.12
0.626                   -3.68677         162.075         -46.9694        -91.9743         -46.9377        -92.8286       -0.0259348         142.037
0.627                   -3.77236         161.268         -46.9102        -93.4462         -46.8776        -94.3397       -0.0262281         141.954
0.628                   -3.86003         160.461         -46.8509        -94.9135         -46.8174        -95.8442       -0.0265253         141.871
0.629                   -3.94982         159.656         -46.7916        -96.3763         -46.7574         -97.342       -0.0268263         141.787
