! TOUCHSTONE file generated by CST MICROWAVE STUDIO
! Date and time: Wed Oct 28 19:14:16 2020
! Project name: Scenario_1_Circular_Tissue_out_of_Line.cst
! Parameters = {dy1=-259.295; L_HA=400; MT=2.54; Rad_Dielectric=30; Rad_Lower=7.3; Rad_Upper=30; a_HA=580; a_WG=246; b_HA=500; b_WG=121; c_HA=0; c_WG=187; d_feed=85; dx1=693; h_feed=15; h_lower=18; h_upper=40}
! Header version: 2018
! Port assignment regex: !\s*Touchstone port\s*([0-9]+)\s*=\s*(CST MWS port|CST DS port)\s*([0-9]+|Zmin|Zmax)\s*\(\"(.*)\"\)(\s*mode\s*([0-9]+))?.*
! Touchstone port assignment:
! Touchstone port 1 = CST MWS port 1 ("")
! Touchstone port 2 = CST MWS port 2 ("")
# GHz S DB R 50
0.5                    -0.146851        -122.263         -63.6735         178.848         -63.6735         178.848      -0.00770683         151.128
0.501                  -0.144928        -122.707         -63.5547         177.133         -63.5547         177.133      -0.00776645         151.063
0.502                  -0.143654        -123.153         -63.4338          175.41         -63.4337         175.411       -0.0078266         150.998
0.503                  -0.143025        -123.602         -63.3109          173.68         -63.3107         173.681      -0.00788727         150.932
0.504                  -0.143038        -124.053         -63.1858         171.943         -63.1856         171.944      -0.00794849         150.867
0.505                  -0.143687        -124.506         -63.0588         170.198         -63.0585         170.199      -0.00801026         150.801
0.506                  -0.144969        -124.962         -62.9298         168.445         -62.9294         168.447      -0.00807259         150.736
0.507                  -0.146878         -125.42         -62.7989         166.686         -62.7985         166.687       -0.0081355          150.67
0.508                  -0.149409        -125.881         -62.6661         164.919         -62.6656          164.92      -0.00819899         150.604
0.509                  -0.152557        -126.345         -62.5314         163.145         -62.5308         163.146      -0.00826309         150.539
0.51                   -0.156317         -126.81         -62.3948         161.363         -62.3942         161.365       -0.0083278         150.473
0.511                  -0.160683        -127.279         -62.2565         159.574         -62.2559         159.577      -0.00839313         150.407
0.512                  -0.165651         -127.75         -62.1165         157.779         -62.1158         157.781      -0.00845911         150.341
0.513                  -0.171214        -128.223         -61.9748         155.975         -61.9741         155.978      -0.00852573         150.275
0.514                  -0.177366        -128.699         -61.8315         154.165         -61.8307         154.168      -0.00859303         150.209
0.515                  -0.184103        -129.177         -61.6865         152.347         -61.6857          152.35        -0.008661         150.142
0.516                  -0.191419        -129.657         -61.5401         150.522         -61.5392         150.525      -0.00872967         150.076
0.517                  -0.199308         -130.14         -61.3922         148.689         -61.3913         148.692      -0.00879904         150.009
0.518                  -0.207764        -130.626         -61.2428         146.849         -61.2419         146.852      -0.00886915         149.943
0.519                  -0.216782        -131.113         -61.0921         145.001         -61.0911         145.005      -0.00893999         149.876
0.52                   -0.226356        -131.603         -60.9401         143.146         -60.9391         143.149      -0.00901159          149.81
0.521                   -0.23648        -132.095         -60.7868         141.283         -60.7858         141.286      -0.00908396         149.743
0.522                  -0.247149         -132.59         -60.6323         139.411         -60.6313         139.415      -0.00915712         149.676
0.523                  -0.258358        -133.087         -60.4768         137.532         -60.4757         137.536      -0.00923108         149.609
0.524                    -0.2701        -133.585         -60.3201         135.645         -60.3191         135.649      -0.00930587         149.542
0.525                   -0.28237        -134.086         -60.1625          133.75         -60.1614         133.754       -0.0093815         149.475
0.526                  -0.295163        -134.589          -60.004         131.846         -60.0029          131.85        -0.009458         149.407
0.527                  -0.308473        -135.094         -59.8446         129.934         -59.8435         129.938      -0.00953537          149.34
0.528                  -0.322293        -135.601         -59.6844         128.013         -59.6833         128.017      -0.00961364         149.273
0.529                   -0.33662         -136.11         -59.5235         126.084         -59.5224         126.088      -0.00969284         149.205
0.53                   -0.351446        -136.621          -59.362         124.146         -59.3608          124.15      -0.00977297         149.137
0.531                  -0.366767        -137.134         -59.1999         122.199         -59.1987         122.203      -0.00985407          149.07
0.532                  -0.382576        -137.649         -59.0373         120.243         -59.0361         120.247      -0.00993616         149.002
0.533                  -0.398868        -138.165         -58.8743         118.278         -58.8731         118.282       -0.0100193         148.934
0.534                  -0.415637        -138.683         -58.7109         116.303         -58.7098         116.307       -0.0101034         148.866
0.535                  -0.432877        -139.203         -58.5473          114.32         -58.5462         114.324       -0.0101886         148.798
0.536                  -0.450583        -139.724         -58.3835         112.327         -58.3824         112.331       -0.0102748          148.73
0.537                  -0.468747        -140.247         -58.2196         110.324         -58.2185         110.328       -0.0103622         148.661
0.538                  -0.487364        -140.772         -58.0557         108.312         -58.0546         108.316       -0.0104508         148.593
0.539                  -0.506428        -141.298         -57.8919          106.29         -57.8907         106.294       -0.0105405         148.524
0.54                   -0.525932        -141.825         -57.7281         104.259          -57.727         104.262       -0.0106314         148.456
0.541                   -0.54587        -142.354         -57.5646         102.218         -57.5635         102.221       -0.0107235         148.387
0.542                  -0.566235        -142.884         -57.4014         100.167         -57.4003          100.17       -0.0108169         148.318
0.543                  -0.587021        -143.416         -57.2386         98.1066         -57.2375         98.1099       -0.0109115         148.249
0.544                  -0.608221        -143.949         -57.0763         96.0364         -57.0752         96.0396       -0.0110076          148.18
0.545                  -0.629827        -144.483         -56.9144         93.9566         -56.9134         93.9597       -0.0111049         148.111
0.546                  -0.651833        -145.018         -56.7533         91.8673         -56.7522         91.8702       -0.0112037         148.042
0.547                   -0.67423        -145.555         -56.5928         89.7684         -56.5918         89.7713       -0.0113039         147.972
0.548                  -0.697012        -146.093         -56.4331         87.6601         -56.4321         87.6629       -0.0114056         147.903
0.549                  -0.720171        -146.632         -56.2743         85.5426         -56.2733         85.5452       -0.0115087         147.833
0.55                   -0.743699        -147.172         -56.1164         83.4159         -56.1155         83.4183       -0.0116135         147.763
0.551                  -0.767588        -147.713         -55.9596         81.2802         -55.9586         81.2825       -0.0117198         147.693
0.552                  -0.791828        -148.255         -55.8039         79.1357         -55.8029         79.1379       -0.0118277         147.623
0.553                  -0.816413        -148.798         -55.6493         76.9827         -55.6484         76.9847       -0.0119373         147.553
0.554                  -0.841333        -149.343         -55.4959         74.8213         -55.4951         74.8232       -0.0120486         147.483
0.555                  -0.866579        -149.888         -55.3439         72.6518          -55.343         72.6536       -0.0121617         147.413
0.556                  -0.892142        -150.434         -55.1932         70.4745         -55.1924         70.4762       -0.0122765         147.342
0.557                  -0.918012        -150.982          -55.044         68.2897         -55.0432         68.2912       -0.0123932         147.272
0.558                   -0.94418         -151.53         -54.8963         66.0977         -54.8955         66.0991       -0.0125117         147.201
0.559                  -0.970637        -152.079         -54.7501         63.8988         -54.7493         63.9001       -0.0126321          147.13
0.56                   -0.997371        -152.629         -54.6055         61.6935         -54.6048         61.6947       -0.0127543         147.059
0.561                   -1.02437        -153.181         -54.4625         59.4821         -54.4618         59.4832       -0.0128786         146.988
0.562                   -1.05163        -153.733         -54.3212         57.2649         -54.3206         57.2659       -0.0130048         146.917
0.563                   -1.07914        -154.286         -54.1817         55.0425         -54.1811         55.0434       -0.0131329         146.846
0.564                   -1.10688        -154.841         -54.0439         52.8152         -54.0433          52.816       -0.0132631         146.775
0.565                   -1.13485        -155.396         -53.9079         50.5835         -53.9074         50.5842       -0.0133953         146.703
0.566                   -1.16303        -155.953         -53.7737         48.3478         -53.7732         48.3484       -0.0135294         146.631
0.567                   -1.19141        -156.511         -53.6414         46.1086         -53.6409         46.1091       -0.0136656         146.559
0.568                   -1.21998         -157.07         -53.5109         43.8663         -53.5104         43.8668       -0.0138038         146.487
0.569                   -1.24873         -157.63         -53.3822         41.6214         -53.3818         41.6218       -0.0139439         146.415
0.57                    -1.27765        -158.192         -53.2554         39.3743          -53.255         39.3747        -0.014086         146.343
0.571                   -1.30672        -158.755         -53.1304         37.1256         -53.1301         37.1259       -0.0142301         146.271
0.572                   -1.33594         -159.32         -53.0073         34.8757          -53.007          34.876        -0.014376         146.198
0.573                   -1.36529        -159.886         -52.8861          32.625         -52.8857         32.6252       -0.0145238         146.126
0.574                   -1.39476        -160.454         -52.7666          30.374         -52.7663         30.3742       -0.0146735         146.053
0.575                   -1.42434        -161.024          -52.649         28.1231         -52.6487         28.1233        -0.014825          145.98
0.576                   -1.45402        -161.595         -52.5331         25.8727         -52.5328         25.8729       -0.0149782         145.907
0.577                   -1.48379        -162.169          -52.419         23.6233         -52.4187         23.6235       -0.0151332         145.834
0.578                   -1.51363        -162.745         -52.3065         21.3753         -52.3063         21.3754       -0.0152898         145.761
0.579                   -1.54354        -163.323         -52.1958         19.1289         -52.1956         19.1291       -0.0154481         145.687
0.58                    -1.57351        -163.904         -52.0867         16.8846         -52.0865         16.8848        -0.015608         145.613
0.581                   -1.60354        -164.487         -51.9791         14.6428          -51.979         14.6429       -0.0157695          145.54
0.582                    -1.6336        -165.074         -51.8731         12.4036          -51.873         12.4037       -0.0159326         145.466
0.583                    -1.6637        -165.663         -51.7686         10.1674         -51.7685         10.1676       -0.0160972         145.392
0.584                   -1.69383        -166.256         -51.6655         7.93454         -51.6655         7.93473       -0.0162633         145.317
0.585                   -1.72399        -166.852         -51.5638         5.70515         -51.5638         5.70536        -0.016431         145.243
0.586                   -1.75418        -167.453         -51.4635         3.47949         -51.4634         3.47971       -0.0166002         145.168
0.587                   -1.78439        -168.057         -51.3643         1.25772         -51.3643         1.25797        -0.016771         145.094
0.588                   -1.81463        -168.665         -51.2664       -0.959978         -51.2664       -0.959709       -0.0169434         145.019
0.589                   -1.84491        -169.279         -51.1697        -3.17348         -51.1696        -3.17319       -0.0171173         144.944
0.59                    -1.87523        -169.897          -51.074        -5.38268         -51.0739        -5.38236        -0.017293         144.869
0.591                    -1.9056        -170.521         -50.9793        -7.58749         -50.9793        -7.58715       -0.0174702         144.793
0.592                   -1.93605         -171.15         -50.8856        -9.78786         -50.8856         -9.7875       -0.0176493         144.718
0.593                   -1.96657        -171.786         -50.7928        -11.9838         -50.7927        -11.9834       -0.0178301         144.642
0.594                   -1.99722        -172.428         -50.7008        -14.1752         -50.7008        -14.1748       -0.0180127         144.566
0.595                     -2.028        -173.077         -50.6096        -16.3622         -50.6096        -16.3617       -0.0181972          144.49
0.596                   -2.05896        -173.733         -50.5191        -18.5447         -50.5191        -18.5443       -0.0183837         144.414
0.597                   -2.09013        -174.397         -50.4293        -20.7229         -50.4293        -20.7225       -0.0185723         144.337
0.598                   -2.12157        -175.069         -50.3402        -22.8969         -50.3401        -22.8964       -0.0187629         144.261
0.599                   -2.15333         -175.75         -50.2515        -25.0667         -50.2515        -25.0662       -0.0189557         144.184
0.6                     -2.18546        -176.439         -50.1634        -27.2324         -50.1634         -27.232       -0.0191507         144.107
0.601                   -2.21806        -177.139         -50.0758        -29.3943         -50.0758        -29.3939        -0.019348          144.03
0.602                   -2.25118        -177.848         -49.9886        -31.5525         -49.9885         -31.552       -0.0195477         143.952
0.603                   -2.28493        -178.568         -49.9018        -33.7071         -49.9017        -33.7067       -0.0197499         143.875
0.604                   -2.31941        -179.298         -49.8153        -35.8583         -49.8152        -35.8579       -0.0199546         143.797
0.605                   -2.35472          179.96         -49.7291        -38.0064          -49.729         -38.006       -0.0201619         143.719
0.606                   -2.39099         179.207         -49.6432        -40.1515         -49.6431        -40.1512       -0.0203718         143.641
0.607                   -2.42835         178.442         -49.5576        -42.2939         -49.5575        -42.2936       -0.0205846         143.562
0.608                   -2.46694         177.666         -49.4722        -44.4339         -49.4721        -44.4336       -0.0208001         143.484
0.609                   -2.50691         176.877         -49.3869        -46.5715         -49.3868        -46.5712       -0.0210185         143.405
0.61                    -2.54844         176.075         -49.3019        -48.7071         -49.3018        -48.7069       -0.0212399         143.326
0.611                   -2.59168         175.262          -49.217         -50.841         -49.2169        -50.8408       -0.0214643         143.247
0.612                   -2.63684         174.436         -49.1323        -52.9733         -49.1322        -52.9731       -0.0216918         143.167
0.613                   -2.68408         173.599         -49.0478        -55.1043         -49.0476        -55.1042       -0.0219225         143.087
0.614                    -2.7336          172.75         -48.9634        -57.2342         -48.9632        -57.2342       -0.0221564         143.008
0.615                    -2.7856          171.89         -48.8791        -59.3633         -48.8789        -59.3634       -0.0223937         142.927
0.616                   -2.84026          171.02          -48.795        -61.4919         -48.7948         -61.492       -0.0226343         142.847
0.617                   -2.89779          170.14         -48.7111        -63.6201         -48.7109        -63.6202       -0.0228784         142.766
0.618                   -2.95835         169.252         -48.6273        -65.7481         -48.6271        -65.7483        -0.023126         142.686
0.619                   -3.02214         168.356         -48.5437        -67.8762         -48.5436        -67.8764       -0.0233772         142.605
0.62                     -3.0893         167.455         -48.4604        -70.0045         -48.4602        -70.0048       -0.0236321         142.523
0.621                   -3.15997         166.548         -48.3772        -72.1333         -48.3771        -72.1336       -0.0238907         142.442
0.622                   -3.23428         165.639         -48.2944        -74.2626         -48.2942         -74.263       -0.0241531          142.36
0.623                   -3.31233         164.728         -48.2118        -76.3926         -48.2116        -76.3931       -0.0244194         142.278
0.624                   -3.39417         163.818         -48.1295        -78.5235         -48.1293        -78.5241       -0.0246897         142.196
0.625                   -3.47985          162.91         -48.0476        -80.6553         -48.0474        -80.6559        -0.024964         142.113
0.626                   -3.56938         162.006         -47.9661        -82.7881         -47.9659        -82.7888       -0.0252424          142.03
0.627                   -3.66272         161.108          -47.885         -84.922         -47.8848        -84.9227        -0.025525         141.947
0.628                   -3.75981         160.218         -47.8044         -87.057         -47.8042        -87.0577       -0.0258118         141.864
0.629                   -3.86056         159.338         -47.7243         -89.193         -47.7241        -89.1938        -0.026103          141.78
