! TOUCHSTONE file generated by CST MICROWAVE STUDIO
! Date and time: Mon Oct 26 12:25:24 2020
! Project name: Scenario_1_Circular_Tissue_out_of_Line.cst
! Parameters = {dy1=-259.295; L_HA=400; MT=2.54; Rad_Dielectric=30; Rad_Lower=7.3; Rad_Upper=30; a_HA=580; a_WG=246; b_HA=500; b_WG=121; c_HA=0; c_WG=187; d_feed=85; dx1=866; h_feed=15; h_lower=18; h_upper=40}
! Header version: 2018
! Port assignment regex: !\s*Touchstone port\s*([0-9]+)\s*=\s*(CST MWS port|CST DS port)\s*([0-9]+|Zmin|Zmax)\s*\(\"(.*)\"\)(\s*mode\s*([0-9]+))?.*
! Touchstone port assignment:
! Touchstone port 1 = CST MWS port 1 ("")
! Touchstone port 2 = CST MWS port 2 ("")
# GHz S DB R 50
0.5                     -0.14803        -122.451         -64.3798         89.1679         -64.3784         89.1728      -0.00747044         151.118
0.501                  -0.155036        -122.884         -64.1998         86.7901         -64.1987         86.7812        -0.007542         151.053
0.502                  -0.162157        -123.318         -64.0197         84.4194         -64.0189         84.3978      -0.00761454         150.988
0.503                  -0.169393        -123.754         -63.8396         82.0553         -63.8391         82.0222      -0.00768803         150.922
0.504                  -0.176747        -124.192         -63.6596         79.6977         -63.6593         79.6541      -0.00776245         150.857
0.505                   -0.18422        -124.632         -63.4798          77.346         -63.4798          77.293       -0.0078378         150.791
0.506                  -0.191814        -125.074         -63.3004         74.9999         -63.3006         74.9385      -0.00791406         150.725
0.507                   -0.19953        -125.517         -63.1213         72.6591         -63.1217         72.5902       -0.0079912         150.659
0.508                   -0.20737        -125.963         -62.9427         70.3232         -62.9433         70.2478      -0.00806922         150.594
0.509                  -0.215336         -126.41         -62.7646         67.9919         -62.7654         67.9109       -0.0081481         150.528
0.51                   -0.223431        -126.859         -62.5872         65.6648         -62.5881          65.579      -0.00822781         150.462
0.511                  -0.231655         -127.31         -62.4104         63.3416         -62.4115         63.2518      -0.00830835         150.396
0.512                  -0.240012        -127.763         -62.2343         61.0221         -62.2356          60.929      -0.00838968         150.329
0.513                  -0.248503        -128.218          -62.059         58.7057         -62.0605         58.6102       -0.0084718         150.263
0.514                  -0.257132        -128.676         -61.8846         56.3924         -61.8862          56.295      -0.00855469         150.197
0.515                    -0.2659        -129.135          -61.711         54.0818         -61.7127         53.9832      -0.00863833          150.13
0.516                   -0.27481        -129.596         -61.5384         51.7736         -61.5402         51.6745       -0.0087227         150.064
0.517                  -0.283865         -130.06         -61.3667         49.4675         -61.3687         49.3684      -0.00880778         149.997
0.518                  -0.293068        -130.525          -61.196         47.1634         -61.1981         47.0649      -0.00889356         149.931
0.519                  -0.302421        -130.993         -61.0263          44.861         -61.0286         44.7635      -0.00898002         149.864
0.52                   -0.311929        -131.463         -60.8577           42.56         -60.8601          42.464      -0.00906714         149.797
0.521                  -0.321594        -131.936         -60.6902         40.2602         -60.6927         40.1662      -0.00915491          149.73
0.522                   -0.33142         -132.41         -60.5238         37.9615         -60.5263         37.8699      -0.00924332         149.663
0.523                  -0.341411        -132.887         -60.3585         35.6637         -60.3611         35.5748      -0.00933235         149.596
0.524                  -0.351571        -133.367         -60.1944         33.3665          -60.197         33.2806      -0.00942199         149.529
0.525                  -0.361903        -133.848         -60.0314         31.0699         -60.0341         30.9873      -0.00951223         149.462
0.526                  -0.372412        -134.333         -59.8696         28.7736         -59.8723         28.6946      -0.00960306         149.395
0.527                  -0.383103        -134.819         -59.7089         26.4775         -59.7117         26.4024      -0.00969447         149.327
0.528                   -0.39398        -135.308         -59.5495         24.1814         -59.5523         24.1104      -0.00978645          149.26
0.529                  -0.405049          -135.8         -59.3912         21.8853          -59.394         21.8185      -0.00987901         149.192
0.53                   -0.416315        -136.294         -59.2341         19.5891         -59.2369         19.5266      -0.00997213         149.124
0.531                  -0.427783        -136.791         -59.0782         17.2925          -59.081         17.2345       -0.0100658         149.057
0.532                  -0.439459        -137.291         -58.9236         14.9955         -58.9263         14.9421       -0.0101601         148.989
0.533                   -0.45135        -137.793         -58.7701         12.6981         -58.7727         12.6493       -0.0102549         148.921
0.534                  -0.463462        -138.299         -58.6178            10.4         -58.6204         10.3559       -0.0103503         148.853
0.535                  -0.475802        -138.807         -58.4666         8.10128         -58.4691         8.06189       -0.0104462         148.785
0.536                  -0.488378        -139.317         -58.3167         5.80178         -58.3191         5.76709       -0.0105428         148.716
0.537                  -0.501196        -139.831         -58.1679         3.50144         -58.1702         3.47142       -0.0106399         148.648
0.538                  -0.514266        -140.348         -58.0202         1.20019         -58.0224         1.17479       -0.0107377          148.58
0.539                  -0.527595        -140.867         -57.8737        -1.10205         -57.8757        -1.12289       -0.0108361         148.511
0.54                   -0.541192         -141.39         -57.7284        -3.40533         -57.7302         -3.4217       -0.0109351         148.442
0.541                  -0.555068        -141.915         -57.5841        -5.70973         -57.5858        -5.72173       -0.0110347         148.374
0.542                  -0.569231        -142.444          -57.441        -8.01531         -57.4425        -8.02306       -0.0111351         148.305
0.543                  -0.583693        -142.976         -57.2989        -10.3221         -57.3002        -10.3258       -0.0112361         148.236
0.544                  -0.598464        -143.511         -57.1579        -12.6302          -57.159        -12.6299       -0.0113379         148.167
0.545                  -0.613556        -144.049          -57.018        -14.9397         -57.0189        -14.9355       -0.0114404         148.098
0.546                  -0.628981        -144.591         -56.8791        -17.2506         -56.8798        -17.2428       -0.0115437         148.028
0.547                  -0.644752        -145.136         -56.7413        -19.5629         -56.7417        -19.5516       -0.0116478         147.959
0.548                  -0.660882        -145.684         -56.6044        -21.8767         -56.6046        -21.8622       -0.0117527         147.889
0.549                  -0.677386        -146.235         -56.4686        -24.1921         -56.4684        -24.1746       -0.0118585          147.82
0.55                   -0.694278         -146.79         -56.3337        -26.5092         -56.3333        -26.4887       -0.0119653          147.75
0.551                  -0.711574        -147.349         -56.1997        -28.8279         -56.1991        -28.8048       -0.0120729          147.68
0.552                  -0.729289         -147.91         -56.0667        -31.1483         -56.0659        -31.1228       -0.0121815          147.61
0.553                  -0.747441        -148.476         -55.9347        -33.4705         -55.9336        -33.4428       -0.0122911          147.54
0.554                  -0.766048        -149.045         -55.8035        -35.7946         -55.8021        -35.7649       -0.0124018          147.47
0.555                  -0.785128        -149.617         -55.6732        -38.1205         -55.6716        -38.0891       -0.0125136         147.399
0.556                  -0.804701        -150.193         -55.5438        -40.4484          -55.542        -40.4154       -0.0126265         147.329
0.557                  -0.824786        -150.773         -55.4153        -42.7783         -55.4132        -42.7439       -0.0127405         147.258
0.558                  -0.845404        -151.356         -55.2876        -45.1102         -55.2853        -45.0747       -0.0128558         147.188
0.559                  -0.866576        -151.942         -55.1607        -47.4442         -55.1582        -47.4078       -0.0129723         147.117
0.56                   -0.888326        -152.532         -55.0347        -49.7803          -55.032        -49.7433       -0.0130902         147.046
0.561                  -0.910676        -153.126         -54.9095        -52.1186         -54.9066        -52.0811       -0.0132093         146.975
0.562                   -0.93365        -153.723         -54.7851        -54.4591          -54.782        -54.4214       -0.0133298         146.904
0.563                  -0.957272        -154.324         -54.6615        -56.8019         -54.6582        -56.7641       -0.0134518         146.832
0.564                  -0.981567        -154.928         -54.5386         -59.147         -54.5352        -59.1093       -0.0135752         146.761
0.565                   -1.00656        -155.535         -54.4166        -61.4945          -54.413        -61.4571       -0.0137001         146.689
0.566                   -1.03228        -156.146         -54.2953        -63.8443         -54.2915        -63.8074       -0.0138266         146.617
0.567                   -1.05874        -156.759         -54.1747        -66.1966         -54.1709        -66.1602       -0.0139547         146.545
0.568                   -1.08598        -157.376          -54.055        -68.5512          -54.051        -68.5157       -0.0140844         146.473
0.569                   -1.11402        -157.996         -53.9359        -70.9084         -53.9319        -70.8737       -0.0142158         146.401
0.57                    -1.14289        -158.619         -53.8177         -73.268         -53.8136        -73.2343       -0.0143489         146.329
0.571                    -1.1726        -159.244         -53.7002          -75.63         -53.6961        -75.5975       -0.0144837         146.257
0.572                   -1.20319        -159.872         -53.5834        -77.9946         -53.5793        -77.9634       -0.0146204         146.184
0.573                   -1.23468        -160.502         -53.4675        -80.3616         -53.4633        -80.3317       -0.0147588         146.111
0.574                   -1.26709        -161.134         -53.3522        -82.7311         -53.3481        -82.7027       -0.0148992         146.038
0.575                   -1.30043        -161.768         -53.2378        -85.1031         -53.2337        -85.0761       -0.0150415         145.965
0.576                   -1.33473        -162.404         -53.1241        -87.4775           -53.12        -87.4521       -0.0151857         145.892
0.577                   -1.36999        -163.042         -53.0111        -89.8543         -53.0072        -89.8304       -0.0153319         145.819
0.578                   -1.40623         -163.68          -52.899        -92.2334         -52.8951        -92.2112       -0.0154802         145.745
0.579                   -1.44347        -164.319         -52.7876        -94.6148         -52.7838        -94.5943       -0.0156305         145.672
0.58                    -1.48169        -164.959          -52.677        -96.9985         -52.6734        -96.9796       -0.0157829         145.598
0.581                    -1.5209        -165.599         -52.5673        -99.3843         -52.5638         -99.367       -0.0159374         145.524
0.582                    -1.5611        -166.239         -52.4583        -101.772         -52.4549        -101.757       -0.0160942          145.45
0.583                   -1.60228        -166.878         -52.3502        -104.162          -52.347        -104.148       -0.0162531         145.376
0.584                   -1.64441        -167.517         -52.2428        -106.554         -52.2398        -106.541       -0.0164142         145.301
0.585                   -1.68747        -168.155         -52.1364        -108.948         -52.1335        -108.936       -0.0165776         145.227
0.586                   -1.73145        -168.791         -52.0307        -111.343         -52.0281        -111.333       -0.0167433         145.152
0.587                   -1.77629        -169.425         -51.9259         -113.74         -51.9235        -113.731       -0.0169113         145.077
0.588                   -1.82196        -170.058          -51.822        -116.138         -51.8198        -116.131       -0.0170816         145.002
0.589                   -1.86841        -170.688          -51.719        -118.537          -51.717        -118.531       -0.0172544         144.927
0.59                    -1.91559        -171.315         -51.6168        -120.937          -51.615        -120.933       -0.0174295         144.851
0.591                   -1.96343         -171.94         -51.5155        -123.339          -51.514        -123.335       -0.0176071         144.776
0.592                   -2.01187        -172.562         -51.4151        -125.741         -51.4138        -125.738       -0.0177871           144.7
0.593                   -2.06083        -173.181         -51.3155        -128.143         -51.3145        -128.141       -0.0179696         144.624
0.594                   -2.11024        -173.797         -51.2169        -130.546         -51.2161        -130.545       -0.0181545         144.548
0.595                   -2.16003         -174.41         -51.1192        -132.949         -51.1186        -132.948        -0.018342         144.472
0.596                   -2.21011         -175.02         -51.0224        -135.351          -51.022        -135.351       -0.0185321         144.395
0.597                    -2.2604        -175.627         -50.9264        -137.754         -50.9263        -137.754       -0.0187247         144.319
0.598                   -2.31082        -176.231         -50.8314        -140.155         -50.8315        -140.156       -0.0189199         144.242
0.599                   -2.36129        -176.834         -50.7373        -142.556         -50.7375        -142.558       -0.0191177         144.165
0.6                     -2.41175        -177.434          -50.644        -144.956         -50.6445        -144.958        -0.019318         144.088
0.601                   -2.46211        -178.032         -50.5516        -147.355         -50.5523        -147.356       -0.0195211          144.01
0.602                   -2.51231         -178.63         -50.4601        -149.752         -50.4609        -149.753       -0.0197268         143.933
0.603                   -2.56231        -179.226         -50.3694        -152.147         -50.3704        -152.149       -0.0199351         143.855
0.604                   -2.61205        -179.823         -50.2796        -154.541         -50.2807        -154.542       -0.0201461         143.777
0.605                   -2.66149         179.579         -50.1905        -156.932         -50.1918        -156.933       -0.0203599         143.699
0.606                   -2.71061          178.98         -50.1023         -159.32         -50.1037        -159.321       -0.0205763         143.621
0.607                    -2.7594         178.379         -50.0149        -161.706         -50.0163        -161.707       -0.0207955         143.542
0.608                   -2.80785         177.775         -49.9282         -164.09         -49.9297        -164.089       -0.0210174         143.463
0.609                   -2.85597         177.167         -49.8422         -166.47         -49.8438        -166.469       -0.0212421         143.384
0.61                    -2.90378         176.555         -49.7569        -168.846         -49.7586        -168.845       -0.0214696         143.305
0.611                   -2.95132         175.938         -49.6723         -171.22          -49.674        -171.218       -0.0216999         143.226
0.612                   -2.99862         175.315         -49.5884         -173.59         -49.5901        -173.588        -0.021933         143.146
0.613                   -3.04574         174.686          -49.505        -175.955         -49.5067        -175.953        -0.022169         143.066
0.614                   -3.09275         174.049         -49.4222        -178.318         -49.4239        -178.315       -0.0224079         142.986
0.615                   -3.13972         173.405         -49.3399         179.324         -49.3416         179.328       -0.0226496         142.906
0.616                   -3.18673         172.752         -49.2581          176.97         -49.2598         176.974       -0.0228944         142.825
0.617                   -3.23388          172.09         -49.1768         174.621         -49.1784         174.625       -0.0231421         142.744
0.618                   -3.28126         171.419         -49.0959         172.275         -49.0974         172.279       -0.0233928         142.663
0.619                   -3.32899         170.738         -49.0153         169.934         -49.0168         169.938       -0.0236465         142.582
0.62                    -3.37716         170.046         -48.9351         167.597         -48.9365         167.602       -0.0239034         142.501
0.621                    -3.4259         169.344         -48.8552         165.264         -48.8565         165.269       -0.0241634         142.419
0.622                   -3.47533          168.63         -48.7755         162.935         -48.7768         162.941       -0.0244267         142.337
0.623                   -3.52556         167.906         -48.6961         160.611         -48.6972         160.616       -0.0246932         142.255
0.624                   -3.57674          167.17         -48.6168         158.291         -48.6178         158.296        -0.024963         142.172
0.625                   -3.62897         166.422         -48.5376         155.974         -48.5386          155.98       -0.0252363          142.09
0.626                   -3.68241         165.663         -48.4586         153.662         -48.4594         153.667       -0.0255131         142.007
0.627                   -3.73718         164.891         -48.3796         151.353         -48.3803         151.358       -0.0257934         141.923
0.628                   -3.79341         164.108         -48.3006         149.047         -48.3012         149.052       -0.0260775          141.84
0.629                   -3.85124         163.314         -48.2217         146.745         -48.2222          146.75       -0.0263652         141.756
