! TOUCHSTONE file generated by CST MICROWAVE STUDIO
! Date and time: Sat Oct 24 11:43:24 2020
! Project name: Scenario_1_Circular_Tissue_out_of_Line.cst
! Parameters = {dy1=-259.295; L_HA=400; MT=2.54; Rad_Dielectric=30; Rad_Lower=7.3; Rad_Upper=30; a_HA=580; a_WG=246; b_HA=500; b_WG=121; c_HA=0; c_WG=187; d_feed=85; dx1=1039; h_feed=15; h_lower=18; h_upper=40}
! Header version: 2018
! Port assignment regex: !\s*Touchstone port\s*([0-9]+)\s*=\s*(CST MWS port|CST DS port)\s*([0-9]+|Zmin|Zmax)\s*\(\"(.*)\"\)(\s*mode\s*([0-9]+))?.*
! Touchstone port assignment:
! Touchstone port 1 = CST MWS port 1 ("")
! Touchstone port 2 = CST MWS port 2 ("")
# GHz S DB R 50
0.5                    -0.144486        -122.278         -64.8755        -9.93732         -64.8755        -9.93732      -0.00761302         151.136
0.501                  -0.148897        -122.732         -64.7262        -11.9451         -64.7262        -11.9453      -0.00767073         151.071
0.502                  -0.153586        -123.187         -64.5752        -13.9709         -64.5752        -13.9712       -0.0077292         151.005
0.503                  -0.158557        -123.644         -64.4226        -16.0147         -64.4225        -16.0152      -0.00778844          150.94
0.504                  -0.163813        -124.103         -64.2684        -18.0767         -64.2683        -18.0772      -0.00784845         150.875
0.505                  -0.169357        -124.564         -64.1126        -20.1568         -64.1126        -20.1574      -0.00790927         150.809
0.506                  -0.175193        -125.027         -63.9554        -22.2551         -63.9553        -22.2558      -0.00797088         150.743
0.507                  -0.181324        -125.492         -63.7967        -24.3717         -63.7966        -24.3725      -0.00803332         150.678
0.508                  -0.187752        -125.959         -63.6366        -26.5066         -63.6365        -26.5076      -0.00809659         150.612
0.509                  -0.194482        -126.428         -63.4752          -28.66          -63.475         -28.661       -0.0081607         150.546
0.51                   -0.201516        -126.898         -63.3124        -30.8317         -63.3123        -30.8328      -0.00822567          150.48
0.511                  -0.208856         -127.37         -63.1485        -33.0219         -63.1484         -33.023      -0.00829152         150.414
0.512                  -0.216506        -127.845         -62.9834        -35.2305         -62.9833        -35.2316      -0.00835825         150.348
0.513                  -0.224468         -128.32         -62.8173        -37.4576         -62.8171        -37.4587      -0.00842588         150.282
0.514                  -0.232744        -128.798         -62.6501         -39.703           -62.65        -39.7042      -0.00849443         150.216
0.515                  -0.241338        -129.278          -62.482        -41.9669         -62.4819        -41.9681      -0.00856391          150.15
0.516                   -0.25025        -129.759         -62.3131        -44.2491          -62.313        -44.2504      -0.00863433         150.083
0.517                  -0.259484        -130.242         -62.1435        -46.5496         -62.1433        -46.5509      -0.00870571         150.017
0.518                  -0.269042        -130.727         -61.9732        -48.8684          -61.973        -48.8696      -0.00877806          149.95
0.519                  -0.278924        -131.213         -61.8023        -51.2052         -61.8021        -51.2065      -0.00885141         149.883
0.52                   -0.289134        -131.701         -61.6309          -53.56         -61.6308        -53.5612      -0.00892576         149.817
0.521                  -0.299671        -132.191         -61.4592        -55.9326         -61.4591        -55.9339      -0.00900113          149.75
0.522                  -0.310538        -132.682         -61.2872        -58.3229         -61.2871        -58.3241      -0.00907754         149.683
0.523                  -0.321736        -133.175         -61.1151        -60.7307         -61.1149        -60.7319        -0.009155         149.616
0.524                  -0.333266         -133.67         -60.9429        -63.1557         -60.9427        -63.1569      -0.00923353         149.549
0.525                  -0.345127        -134.166         -60.7707        -65.5977         -60.7706        -65.5988      -0.00931315         149.482
0.526                  -0.357322        -134.664         -60.5987        -68.0564         -60.5986        -68.0574      -0.00939387         149.414
0.527                  -0.369849        -135.163          -60.427        -70.5314         -60.4269        -70.5325      -0.00947571         149.347
0.528                   -0.38271        -135.664         -60.2556        -73.0225         -60.2555        -73.0235      -0.00955869          149.28
0.529                  -0.395904        -136.166         -60.0848        -75.5293         -60.0847        -75.5302      -0.00964282         149.212
0.53                    -0.40943         -136.67         -59.9145        -78.0512         -59.9144        -78.0521      -0.00972813         149.144
0.531                  -0.423288        -137.176         -59.7449         -80.588         -59.7448        -80.5888      -0.00981462         149.077
0.532                  -0.437477        -137.682         -59.5761        -83.1391          -59.576        -83.1398      -0.00990233         149.009
0.533                  -0.451995        -138.191         -59.4083        -85.7039         -59.4082        -85.7046      -0.00999126         148.941
0.534                  -0.466842          -138.7         -59.2414         -88.282         -59.2413        -88.2826       -0.0100814         148.873
0.535                  -0.482015        -139.212         -59.0757        -90.8728         -59.0756        -90.8733       -0.0101729         148.805
0.536                  -0.497512        -139.724         -58.9111        -93.4756         -58.9111        -93.4761       -0.0102656         148.736
0.537                  -0.513331        -140.238         -58.7478        -96.0898         -58.7478        -96.0902       -0.0103596         148.668
0.538                   -0.52947        -140.753          -58.586        -98.7147         -58.5859        -98.7151       -0.0104549           148.6
0.539                  -0.545924         -141.27         -58.4255         -101.35         -58.4255         -101.35       -0.0105516         148.531
0.54                   -0.562692        -141.788         -58.2666        -103.994         -58.2666        -103.994       -0.0106496         148.462
0.541                  -0.579769        -142.308         -58.1093        -106.647         -58.1093        -106.647        -0.010749         148.394
0.542                  -0.597152        -142.829         -57.9536        -109.308         -57.9536        -109.308       -0.0108497         148.325
0.543                  -0.614836        -143.351         -57.7996        -111.976         -57.7996        -111.976       -0.0109519         148.256
0.544                  -0.632818        -143.874         -57.6474         -114.65         -57.6474         -114.65       -0.0110555         148.187
0.545                  -0.651091        -144.399         -57.4969         -117.33         -57.4969        -117.329       -0.0111605         148.118
0.546                  -0.669652        -144.926         -57.3483        -120.014         -57.3483        -120.014        -0.011267         148.048
0.547                  -0.688494        -145.454         -57.2014        -122.702         -57.2014        -122.702       -0.0113749         147.979
0.548                  -0.707613        -145.983         -57.0564        -125.394         -57.0565        -125.394       -0.0114843          147.91
0.549                  -0.727002        -146.514         -56.9133        -128.088         -56.9133        -128.088       -0.0115952          147.84
0.55                   -0.746656        -147.046          -56.772        -130.784          -56.772        -130.784       -0.0117076          147.77
0.551                  -0.766569        -147.579         -56.6326        -133.481         -56.6326        -133.481       -0.0118216           147.7
0.552                  -0.786733        -148.115         -56.4949        -136.178         -56.4949        -136.178        -0.011937          147.63
0.553                  -0.807143        -148.651          -56.359        -138.875         -56.3591        -138.875        -0.012054          147.56
0.554                  -0.827792         -149.19         -56.2249        -141.571          -56.225        -141.571       -0.0121725          147.49
0.555                  -0.848674         -149.73         -56.0926        -144.265         -56.0926        -144.265       -0.0122925          147.42
0.556                  -0.869783        -150.272         -55.9618        -146.958         -55.9619        -146.957       -0.0124141          147.35
0.557                  -0.891111        -150.816         -55.8328        -149.647         -55.8328        -149.646       -0.0125372         147.279
0.558                  -0.912653        -151.361         -55.7052        -152.333         -55.7053        -152.332       -0.0126618         147.208
0.559                  -0.934404        -151.909         -55.5792        -155.016         -55.5792        -155.015        -0.012788         147.138
0.56                   -0.956357        -152.459         -55.4547        -157.694         -55.4547        -157.694       -0.0129157         147.067
0.561                  -0.978507        -153.011         -55.3315        -160.369         -55.3315        -160.368       -0.0130449         146.996
0.562                   -1.00085        -153.565         -55.2096        -163.038         -55.2096        -163.038       -0.0131757         146.925
0.563                   -1.02339        -154.122         -55.0889        -165.703          -55.089        -165.702       -0.0133079         146.853
0.564                   -1.04611        -154.681         -54.9695        -168.363         -54.9695        -168.362       -0.0134415         146.782
0.565                   -1.06901        -155.243         -54.8511        -171.017         -54.8511        -171.016       -0.0135766          146.71
0.566                   -1.09211        -155.808         -54.7337        -173.666         -54.7337        -173.665       -0.0137132         146.639
0.567                   -1.11539        -156.375         -54.6172        -176.309         -54.6172        -176.308       -0.0138511         146.567
0.568                   -1.13885        -156.946         -54.5017        -178.947         -54.5017        -178.946       -0.0139904         146.495
0.569                   -1.16252        -157.521         -54.3869         178.421         -54.3869         178.421        -0.014131         146.423
0.57                    -1.18638        -158.099         -54.2728         175.794         -54.2728         175.794       -0.0142729         146.351
0.571                   -1.21045        -158.681         -54.1594         173.172         -54.1594         173.172       -0.0144161         146.279
0.572                   -1.23474        -159.266         -54.0466         170.555         -54.0466         170.556       -0.0145605         146.206
0.573                   -1.25927        -159.856         -53.9343         167.944         -53.9343         167.944       -0.0147062         146.134
0.574                   -1.28406         -160.45         -53.8225         165.337         -53.8225         165.338        -0.014853         146.061
0.575                   -1.30911        -161.049         -53.7111         162.735          -53.711         162.735        -0.015001         145.988
0.576                   -1.33447        -161.653            -53.6         160.137            -53.6         160.137       -0.0151502         145.915
0.577                   -1.36015        -162.262         -53.4892         157.543         -53.4892         157.543       -0.0153005         145.842
0.578                    -1.3862        -162.876         -53.3787         154.953         -53.3787         154.953       -0.0154519         145.769
0.579                   -1.41264        -163.496         -53.2684         152.366         -53.2684         152.366       -0.0156045         145.695
0.58                    -1.43952        -164.121         -53.1583         149.782         -53.1583         149.782       -0.0157583         145.622
0.581                   -1.46689        -164.753         -53.0484           147.2         -53.0484         147.201       -0.0159132         145.548
0.582                   -1.49479        -165.391         -52.9386         144.621         -52.9385         144.621       -0.0160694         145.474
0.583                   -1.52329        -166.035         -52.8288         142.044         -52.8288         142.044       -0.0162268           145.4
0.584                   -1.55244        -166.685         -52.7192         139.468         -52.7192         139.468       -0.0163856         145.326
0.585                   -1.58231        -167.342         -52.6097         136.893         -52.6097         136.893       -0.0165458         145.252
0.586                   -1.61297        -168.006         -52.5003         134.319         -52.5003         134.319       -0.0167074         145.177
0.587                   -1.64449        -168.676         -52.3909         131.745         -52.3909         131.745       -0.0168706         145.102
0.588                   -1.67695        -169.353         -52.2816         129.171         -52.2816         129.171       -0.0170355         145.027
0.589                   -1.71043        -170.037         -52.1725         126.596         -52.1725         126.596       -0.0172021         144.952
0.59                    -1.74501        -170.727         -52.0634         124.021         -52.0634         124.021       -0.0173706         144.877
0.591                   -1.78078        -171.424         -51.9545         121.444         -51.9545         121.444       -0.0175411         144.802
0.592                   -1.81783        -172.128         -51.8457         118.865         -51.8457         118.865       -0.0177137         144.726
0.593                   -1.85623        -172.837         -51.7372         116.285         -51.7372         116.285       -0.0178884          144.65
0.594                   -1.89607        -173.552         -51.6289         113.702         -51.6289         113.702       -0.0180656         144.574
0.595                   -1.93743        -174.272         -51.5208         111.117         -51.5208         111.117       -0.0182451         144.498
0.596                   -1.98038        -174.997         -51.4131         108.528         -51.4131         108.528       -0.0184272         144.422
0.597                     -2.025        -175.726         -51.3057         105.937         -51.3057         105.937        -0.018612         144.346
0.598                   -2.07135        -176.459         -51.1988         103.343         -51.1988         103.343       -0.0187995         144.269
0.599                   -2.11948        -177.195         -51.0923         100.745         -51.0923         100.745       -0.0189899         144.192
0.6                     -2.16944        -177.934         -50.9863         98.1435         -50.9863         98.1435       -0.0191832         144.115
0.601                   -2.22127        -178.675         -50.8809         95.5385         -50.8809         95.5385       -0.0193795         144.038
0.602                   -2.27498        -179.416         -50.7762         92.9298         -50.7762         92.9298       -0.0195789          143.96
0.603                    -2.3306         179.842         -50.6721         90.3174         -50.6721         90.3174       -0.0197814         143.883
0.604                   -2.38812         179.101         -50.5689         87.7014         -50.5689         87.7013       -0.0199872         143.805
0.605                   -2.44753         178.361         -50.4664         85.0817         -50.4664         85.0817       -0.0201962         143.727
0.606                   -2.50881         177.623         -50.3649         82.4585         -50.3649         82.4585       -0.0204085         143.649
0.607                    -2.5719         176.888         -50.2643          79.832         -50.2643          79.832       -0.0206241          143.57
0.608                   -2.63678         176.157         -50.1647         77.2023         -50.1647         77.2023       -0.0208432         143.492
0.609                   -2.70336         175.429         -50.0662         74.5697         -50.0662         74.5697       -0.0210656         143.413
0.61                    -2.77158         174.707         -49.9688         71.9345         -49.9688         71.9345       -0.0212915         143.334
0.611                   -2.84136         173.989         -49.8726          69.297         -49.8726          69.297       -0.0215209         143.254
0.612                   -2.91261         173.278         -49.7776         66.6575         -49.7776         66.6575       -0.0217538         143.175
0.613                   -2.98521         172.573         -49.6839         64.0164         -49.6839         64.0164       -0.0219902         143.095
0.614                   -3.05908         171.875         -49.5915         61.3741         -49.5915         61.3741       -0.0222301         143.015
0.615                    -3.1341         171.183         -49.5004         58.7311         -49.5004         58.7311       -0.0224736         142.935
0.616                   -3.21016         170.499         -49.4107         56.0879         -49.4107         56.0879       -0.0227206         142.855
0.617                   -3.28714         169.822         -49.3223         53.4449         -49.3223         53.4449       -0.0229713         142.774
0.618                   -3.36493         169.152         -49.2354         50.8027         -49.2354         50.8027       -0.0232255         142.693
0.619                   -3.44341         168.489         -49.1499         48.1618         -49.1499         48.1618       -0.0234834         142.612
0.62                    -3.52248         167.833         -49.0658         45.5227         -49.0658         45.5227       -0.0237448         142.531
0.621                   -3.60202         167.185         -48.9831          42.886         -48.9831          42.886         -0.02401         142.449
0.622                   -3.68192         166.543         -48.9017         40.2523         -48.9017         40.2523       -0.0242788         142.367
0.623                    -3.7621         165.907         -48.8218          37.622         -48.8218          37.622       -0.0245512         142.285
0.624                   -3.84245         165.276         -48.7432         34.9957         -48.7432         34.9957       -0.0248274         142.203
0.625                   -3.92288         164.651         -48.6658          32.374         -48.6658          32.374       -0.0251074         142.121
0.626                   -4.00332         164.031         -48.5898         29.7572         -48.5898         29.7572       -0.0253911         142.038
0.627                    -4.0837         163.416         -48.5149         27.1459         -48.5149         27.1459       -0.0256785         141.955
0.628                   -4.16394         162.803         -48.4412         24.5406         -48.4412         24.5406       -0.0259698         141.872
0.629                     -4.244         162.194         -48.3686         21.9417         -48.3686         21.9417        -0.026265         141.788
