! TOUCHSTONE file generated by CST MICROWAVE STUDIO
! Date and time: Mon Oct 26 12:05:03 2020
! Project name: Scenario_1_Circular_Tissue_out_of_Line_v2.cst
! Parameters = {dy1=-242.2; L_HA=400; MT=2.54; Rad_Dielectric=30; Rad_Lower=7.3; Rad_Upper=30; a_HA=580; a_WG=246; b_HA=500; b_WG=121; c_HA=0; c_WG=187; d_feed=85; dx1=173; h_feed=15; h_lower=18; h_upper=40}
! Header version: 2018
! Port assignment regex: !\s*Touchstone port\s*([0-9]+)\s*=\s*(CST MWS port|CST DS port)\s*([0-9]+|Zmin|Zmax)\s*\(\"(.*)\"\)(\s*mode\s*([0-9]+))?.*
! Touchstone port assignment:
! Touchstone port 1 = CST MWS port 1 ("")
! Touchstone port 2 = CST MWS port 2 ("")
# GHz S DB R 50
0.5                    -0.140551        -122.575         -60.8829         115.804         -60.8829         115.804      -0.00678885         151.119
0.501                  -0.146257        -123.027         -60.6975         114.611         -60.6977         114.611      -0.00684723         151.053
0.502                   -0.15228        -123.481         -60.5098         113.406         -60.5101         113.405      -0.00690609         150.988
0.503                  -0.158625        -123.937         -60.3198         112.188         -60.3202         112.187      -0.00696549         150.922
0.504                  -0.165294        -124.394         -60.1277         110.956         -60.1282         110.954      -0.00702548         150.857
0.505                   -0.17229        -124.853         -59.9336         109.708         -59.9342         109.706      -0.00708613         150.791
0.506                  -0.179616        -125.314         -59.7377         108.444         -59.7383         108.442      -0.00714751         150.725
0.507                  -0.187272        -125.776           -59.54         107.163         -59.5408         107.161       -0.0072097          150.66
0.508                  -0.195263         -126.24         -59.3408         105.865         -59.3416         105.863      -0.00727277         150.594
0.509                  -0.203588        -126.705         -59.1402         104.547         -59.1411         104.546      -0.00733681         150.528
0.51                    -0.21225        -127.172         -58.9385         103.211         -58.9393         103.209      -0.00740189         150.462
0.511                  -0.221249        -127.641         -58.7357         101.855         -58.7366         101.853      -0.00746808         150.395
0.512                  -0.230586        -128.111         -58.5321         100.478          -58.533         100.477      -0.00753549         150.329
0.513                  -0.240262        -128.582         -58.3279           99.08         -58.3288          99.079      -0.00760417         150.263
0.514                  -0.250276        -129.054         -58.1234         97.6608         -58.1242           97.66      -0.00767421         150.196
0.515                  -0.260627        -129.528         -57.9186         96.2199         -57.9195         96.2193      -0.00774568          150.13
0.516                  -0.271316        -130.003         -57.7139         94.7571         -57.7147         94.7567      -0.00781865         150.063
0.517                   -0.28234         -130.48         -57.5095         93.2721         -57.5102          93.272      -0.00789318         149.997
0.518                  -0.293698        -130.957         -57.3055         91.7651         -57.3063         91.7651      -0.00796934          149.93
0.519                  -0.305387        -131.436         -57.1023         90.2361          -57.103         90.2363      -0.00804718         149.863
0.52                   -0.317405        -131.916            -56.9         88.6852         -56.9006         88.6856      -0.00812674         149.796
0.521                  -0.329749        -132.397         -56.6989         87.1129         -56.6994         87.1134      -0.00820807         149.729
0.522                  -0.342414        -132.879         -56.4991         85.5195         -56.4996           85.52       -0.0082912         149.662
0.523                  -0.355398        -133.362          -56.301         83.9054         -56.3014          83.906      -0.00837615         149.595
0.524                  -0.368695        -133.846         -56.1046         82.2714         -56.1049          82.272      -0.00846295         149.528
0.525                  -0.382301        -134.331         -55.9102         80.6181         -55.9105         80.6187       -0.0085516          149.46
0.526                  -0.396208        -134.817         -55.7179         78.9464         -55.7181         78.9469      -0.00864212         149.393
0.527                  -0.410413        -135.303          -55.528         77.2571         -55.5281         77.2575      -0.00873451         149.325
0.528                  -0.424907        -135.791         -55.3406         75.5511         -55.3406         75.5515      -0.00882876         149.257
0.529                  -0.439684         -136.28         -55.1557         73.8295         -55.1557         73.8297      -0.00892485          149.19
0.53                   -0.454736        -136.769         -54.9736         72.0934         -54.9735         72.0934      -0.00902279         149.122
0.531                  -0.470056        -137.259         -54.7943         70.3438         -54.7942         70.3437      -0.00912254         149.054
0.532                  -0.485634         -137.75          -54.618          68.582         -54.6179         68.5817      -0.00922408         148.986
0.533                  -0.501462        -138.241         -54.4447          66.809         -54.4445         66.8085       -0.0093274         148.918
0.534                  -0.517531        -138.734         -54.2745         65.0262         -54.2742         65.0255      -0.00943246          148.85
0.535                  -0.533831        -139.227         -54.1074         63.2346         -54.1071         63.2337      -0.00953924         148.781
0.536                  -0.550352        -139.721         -53.9435         61.4354         -53.9431         61.4343      -0.00964771         148.713
0.537                  -0.567083        -140.216         -53.7827         59.6299         -53.7823         59.6286      -0.00975783         148.644
0.538                  -0.584015        -140.712          -53.625         57.8191         -53.6247         57.8176      -0.00986959         148.576
0.539                  -0.601137        -141.209         -53.4706         56.0041         -53.4702         56.0024      -0.00998294         148.507
0.54                   -0.618438        -141.706         -53.3192         54.1861         -53.3188         54.1842       -0.0100979         148.438
0.541                  -0.635906        -142.204         -53.1709         52.3659         -53.1705         52.3639       -0.0102143         148.369
0.542                  -0.653532        -142.704         -53.0257         50.5446         -53.0253         50.5425       -0.0103323           148.3
0.543                  -0.671303        -143.204         -52.8834          48.723          -52.883         48.7208       -0.0104518         148.231
0.544                   -0.68921        -143.706         -52.7441         46.9021         -52.7437         46.8997       -0.0105727         148.162
0.545                  -0.707242        -144.208         -52.6075         45.0825         -52.6071         45.0801       -0.0106951         148.093
0.546                  -0.725387        -144.712         -52.4737         43.2649         -52.4734         43.2625       -0.0108189         148.023
0.547                  -0.743637        -145.217         -52.3426         41.4501         -52.3423         41.4477       -0.0109441         147.954
0.548                  -0.761982        -145.723         -52.2141         39.6386         -52.2138         39.6362       -0.0110707         147.884
0.549                  -0.780412        -146.231         -52.0881         37.8308         -52.0877         37.8285       -0.0111987         147.815
0.55                   -0.798919        -146.741         -51.9644         36.0274         -51.9641         36.0252       -0.0113281         147.745
0.551                  -0.817495        -147.252         -51.8431         34.2286         -51.8428         34.2265       -0.0114588         147.675
0.552                  -0.836133        -147.765          -51.724         32.4348         -51.7237         32.4328       -0.0115908         147.605
0.553                  -0.854827         -148.28         -51.6069         30.6463         -51.6067         30.6444       -0.0117242         147.535
0.554                  -0.873572        -148.797          -51.492         28.8633         -51.4917         28.8616       -0.0118589         147.464
0.555                  -0.892364        -149.316         -51.3789          27.086         -51.3787         27.0845        -0.011995         147.394
0.556                  -0.911198        -149.837         -51.2677         25.3145         -51.2675         25.3132       -0.0121323         147.323
0.557                  -0.930075        -150.361         -51.1583          23.549         -51.1581         23.5479        -0.012271         147.253
0.558                  -0.948993        -150.887         -51.0506         21.7895         -51.0504         21.7886       -0.0124111         147.182
0.559                  -0.967953        -151.417         -50.9445         20.0361         -50.9443         20.0354       -0.0125525         147.111
0.56                   -0.986957        -151.949         -50.8399         18.2888         -50.8397         18.2883       -0.0126952          147.04
0.561                   -1.00601        -152.484         -50.7368         16.5474         -50.7366         16.5472       -0.0128393         146.969
0.562                   -1.02512        -153.023          -50.635         14.8121         -50.6349         14.8121       -0.0129847         146.898
0.563                   -1.04428        -153.565         -50.5347         13.0827         -50.5345          13.083       -0.0131315         146.827
0.564                   -1.06352        -154.111         -50.4356         11.3592         -50.4354         11.3597       -0.0132797         146.755
0.565                   -1.08284         -154.66         -50.3377          9.6414         -50.3375         9.64211       -0.0134292         146.683
0.566                   -1.10224        -155.214         -50.2409         7.92928         -50.2407         7.93021       -0.0135802         146.612
0.567                   -1.12176        -155.772         -50.1453         6.22271         -50.1451         6.22386       -0.0137326          146.54
0.568                    -1.1414        -156.334         -50.0508         4.52156         -50.0506         4.52292       -0.0138864         146.468
0.569                   -1.16118          -156.9         -49.9573         2.82571         -49.9571         2.82727       -0.0140416         146.396
0.57                    -1.18112        -157.471         -49.8648         1.13504         -49.8646         1.13679       -0.0141983         146.323
0.571                   -1.20124        -158.047         -49.7733       -0.550594          -49.773       -0.548658       -0.0143565         146.251
0.572                   -1.22156        -158.628         -49.6827        -2.23131         -49.6824         -2.2292       -0.0145162         146.179
0.573                   -1.24212        -159.214          -49.593        -3.90723         -49.5927        -3.90496       -0.0146774         146.106
0.574                   -1.26293        -159.806         -49.5041        -5.57848         -49.5038        -5.57607       -0.0148401         146.033
0.575                   -1.28402        -160.403         -49.4161        -7.24519         -49.4158        -7.24264       -0.0150044          145.96
0.576                   -1.30543        -161.006          -49.329        -8.90747         -49.3286         -8.9048       -0.0151703         145.887
0.577                   -1.32719        -161.614         -49.2426        -10.5654         -49.2423        -10.5627       -0.0153378         145.814
0.578                   -1.34932        -162.228          -49.157        -12.2192         -49.1567        -12.2163       -0.0155069          145.74
0.579                   -1.37187        -162.848         -49.0722        -13.8688         -49.0719        -13.8658       -0.0156776         145.667
0.58                    -1.39487        -163.474         -48.9882        -15.5144         -48.9878        -15.5114         -0.01585         145.593
0.581                   -1.41835        -164.107         -48.9049        -17.1561         -48.9045         -17.153       -0.0160241         145.519
0.582                   -1.44236        -164.745         -48.8223        -18.7939         -48.8219        -18.7908          -0.0162         145.445
0.583                   -1.46694         -165.39         -48.7404        -20.4279           -48.74        -20.4247       -0.0163775         145.371
0.584                   -1.49212        -166.041         -48.6593        -22.0582         -48.6588         -22.055       -0.0165569         145.297
0.585                   -1.51794        -166.699         -48.5788        -23.6848         -48.5783        -23.6816        -0.016738         145.222
0.586                   -1.54445        -167.363          -48.499        -25.3078         -48.4986        -25.3046        -0.016921         145.148
0.587                   -1.57169        -168.034           -48.42        -26.9272         -48.4195         -26.924       -0.0171059         145.073
0.588                   -1.59971        -168.711         -48.3415        -28.5431          -48.341        -28.5399       -0.0172926         144.998
0.589                   -1.62854        -169.394         -48.2638        -30.1554         -48.2633        -30.1523       -0.0174813         144.923
0.59                    -1.65823        -170.084         -48.1867        -31.7642         -48.1862        -31.7611       -0.0176719         144.847
0.591                   -1.68882        -170.781         -48.1103        -33.3695         -48.1097        -33.3665       -0.0178645         144.772
0.592                   -1.72036        -171.483         -48.0345        -34.9714         -48.0339        -34.9684       -0.0180591         144.696
0.593                    -1.7529        -172.192         -47.9593        -36.5697         -47.9588        -36.5668       -0.0182558         144.621
0.594                   -1.78647        -172.908         -47.8848        -38.1645         -47.8842        -38.1617       -0.0184545         144.545
0.595                   -1.82112        -173.629         -47.8109        -39.7559         -47.8104        -39.7531       -0.0186554         144.468
0.596                    -1.8569        -174.357         -47.7376        -41.3437         -47.7371         -41.341       -0.0188584         144.392
0.597                   -1.89384        -175.091          -47.665        -42.9279         -47.6644        -42.9253       -0.0190636         144.316
0.598                   -1.93199         -175.83         -47.5929        -44.5086         -47.5923        -44.5061       -0.0192711         144.239
0.599                    -1.9714        -176.576         -47.5215        -46.0857         -47.5209        -46.0833       -0.0194808         144.162
0.6                      -2.0121        -177.327         -47.4506        -47.6592           -47.45        -47.6569       -0.0196928         144.085
0.601                   -2.05414        -178.083         -47.3803         -49.229         -47.3797        -49.2268       -0.0199072         144.008
0.602                   -2.09756        -178.845         -47.3106         -50.795           -47.31        -50.7929       -0.0201239          143.93
0.603                    -2.1424        -179.612         -47.2414        -52.3574         -47.2409        -52.3554       -0.0203431         143.852
0.604                   -2.18869         179.617         -47.1728        -53.9159         -47.1723         -53.914       -0.0205647         143.775
0.605                   -2.23647          178.84         -47.1048        -55.4706         -47.1042        -55.4688       -0.0207889         143.697
0.606                   -2.28579         178.059         -47.0372        -57.0214         -47.0367        -57.0197       -0.0210156         143.618
0.607                   -2.33668         177.273         -46.9702        -58.5683         -46.9697        -58.5667       -0.0212449          143.54
0.608                   -2.38918         176.484         -46.9037        -60.1112         -46.9032        -60.1097       -0.0214768         143.461
0.609                   -2.44331          175.69         -46.8377          -61.65         -46.8372        -61.6487       -0.0217115         143.382
0.61                    -2.49912         174.893         -46.7722        -63.1848         -46.7717        -63.1836       -0.0219488         143.303
0.611                   -2.55664         174.092         -46.7072        -64.7155         -46.7067        -64.7143        -0.022189         143.224
0.612                   -2.61589         173.288         -46.6426        -66.2419         -46.6421        -66.2409        -0.022432         143.144
0.613                   -2.67692         172.481         -46.5785        -67.7642          -46.578        -67.7633        -0.022678         143.065
0.614                   -2.73975         171.672         -46.5148        -69.2822         -46.5143        -69.2814       -0.0229268         142.985
0.615                    -2.8044          170.86         -46.4515        -70.7959         -46.4511        -70.7952       -0.0231787         142.905
0.616                   -2.87092         170.045         -46.3886        -72.3052         -46.3882        -72.3046       -0.0234336         142.824
0.617                   -2.93931         169.229         -46.3262        -73.8101         -46.3257        -73.8096       -0.0236916         142.744
0.618                   -3.00962         168.412          -46.264        -75.3106         -46.2636        -75.3102       -0.0239528         142.663
0.619                   -3.08187         167.593         -46.2023        -76.8066         -46.2019        -76.8062       -0.0242173         142.582
0.62                    -3.15608         166.773         -46.1409        -78.2981         -46.1405        -78.2978        -0.024485           142.5
0.621                   -3.23227         165.952         -46.0798        -79.7851         -46.0794        -79.7849       -0.0247561         142.419
0.622                   -3.31046         165.131          -46.019        -81.2675         -46.0187        -81.2673       -0.0250306         142.337
0.623                   -3.39069          164.31         -45.9585        -82.7452         -45.9582        -82.7452       -0.0253086         142.255
0.624                   -3.47296         163.489         -45.8983        -84.2184          -45.898        -84.2184       -0.0255901         142.172
0.625                    -3.5573         162.668         -45.8383        -85.6869          -45.838         -85.687       -0.0258753          142.09
0.626                   -3.64372         161.849         -45.7786        -87.1508         -45.7783        -87.1509       -0.0261641         142.007
0.627                   -3.73225         161.031         -45.7191        -88.6099         -45.7188        -88.6101       -0.0264567         141.924
0.628                    -3.8229         160.214         -45.6597        -90.0644         -45.6595        -90.0646       -0.0267532          141.84
0.629                   -3.91569         159.399         -45.6006        -91.5142         -45.6004        -91.5145       -0.0270536         141.757
