! TOUCHSTONE file generated by CST MICROWAVE STUDIO
! Date and time: Wed Oct 28 19:34:23 2020
! Project name: Scenario_1_Circular_Tissue_out_of_Line_v2.cst
! Parameters = {dy1=-242.2; L_HA=400; MT=2.54; Rad_Dielectric=30; Rad_Lower=7.3; Rad_Upper=30; a_HA=580; a_WG=246; b_HA=500; b_WG=121; c_HA=0; c_WG=187; d_feed=85; dx1=346; h_feed=15; h_lower=18; h_upper=40}
! Header version: 2018
! Port assignment regex: !\s*Touchstone port\s*([0-9]+)\s*=\s*(CST MWS port|CST DS port)\s*([0-9]+|Zmin|Zmax)\s*\(\"(.*)\"\)(\s*mode\s*([0-9]+))?.*
! Touchstone port assignment:
! Touchstone port 1 = CST MWS port 1 ("")
! Touchstone port 2 = CST MWS port 2 ("")
# GHz S DB R 50
0.5                     -0.15005        -122.224         -61.3555         6.90482         -61.4625         6.77107      -0.00800288         151.149
0.501                  -0.154432        -122.656         -61.2384          5.6261         -61.3579         5.44709      -0.00806853         151.083
0.502                  -0.158919        -123.091         -61.1204         4.34182         -61.2518         4.11999      -0.00813421         151.018
0.503                  -0.163514        -123.528         -61.0017         3.05197         -61.1443         2.78979      -0.00819994         150.953
0.504                  -0.168225        -123.967         -60.8822         1.75654         -61.0352         1.45648      -0.00826574         150.888
0.505                  -0.173057         -124.41         -60.7619        0.455507         -60.9247        0.120064      -0.00833163         150.822
0.506                  -0.178017        -124.854         -60.6409       -0.851131         -60.8128        -1.21948      -0.00839764         150.757
0.507                  -0.183111        -125.302         -60.5192        -2.16339         -60.6994        -2.56217      -0.00846378         150.691
0.508                  -0.188347        -125.752         -60.3967        -3.48129         -60.5847        -3.90802      -0.00853007         150.626
0.509                   -0.19373        -126.205         -60.2735        -4.80485         -60.4685        -5.25708      -0.00859655          150.56
0.51                    -0.19927         -126.66         -60.1496        -6.13409         -60.3511        -6.60938      -0.00866323         150.494
0.511                  -0.204973        -127.119          -60.025        -7.46901         -60.2322        -7.96497      -0.00873014         150.428
0.512                  -0.210847         -127.58         -59.8997        -8.80965         -60.1121        -9.32389       -0.0087973         150.362
0.513                  -0.216901        -128.044         -59.7737         -10.156         -59.9907        -10.6862      -0.00886474         150.296
0.514                  -0.223144        -128.511          -59.647        -11.5081          -59.868         -12.052      -0.00893247          150.23
0.515                  -0.229585        -128.981         -59.5197         -12.866         -59.7441        -13.4213      -0.00900054         150.164
0.516                  -0.236232        -129.454         -59.3917        -14.2297         -59.6189        -14.7942      -0.00906896         150.098
0.517                  -0.243095         -129.93         -59.2631        -15.5993         -59.4926        -16.1708      -0.00913775         150.031
0.518                  -0.250185        -130.409         -59.1338        -16.9746         -59.3651        -17.5512      -0.00920695         149.965
0.519                  -0.257511        -130.891         -59.0039        -18.3559         -59.2365        -18.9354      -0.00927658         149.898
0.52                   -0.265084        -131.376         -58.8735         -19.743         -59.1068        -20.3236      -0.00934667         149.832
0.521                  -0.272915        -131.864         -58.7424        -21.1361          -58.976        -21.7159      -0.00941724         149.765
0.522                  -0.281015        -132.355         -58.6108        -22.5352         -58.8442        -23.1124      -0.00948833         149.698
0.523                  -0.289396        -132.849         -58.4786        -23.9402         -58.7113        -24.5131      -0.00955995         149.631
0.524                  -0.298069        -133.347         -58.3459        -25.3512         -58.5775        -25.9183      -0.00963214         149.564
0.525                  -0.307046        -133.847         -58.2126        -26.7683         -58.4427        -27.3279      -0.00970493         149.497
0.526                   -0.31634        -134.351         -58.0789        -28.1915         -58.3069        -28.7423      -0.00977835          149.43
0.527                  -0.325965        -134.858         -57.9446        -29.6208         -58.1703        -30.1613      -0.00985241         149.363
0.528                  -0.335932        -135.368         -57.8099        -31.0562         -58.0328        -31.5853      -0.00992715         149.295
0.529                  -0.346254        -135.881         -57.6747        -32.4978         -57.8945        -33.0144       -0.0100026         149.228
0.53                   -0.356947        -136.397         -57.5391        -33.9456         -57.7554        -34.4486       -0.0100788          149.16
0.531                  -0.368023        -136.917         -57.4031        -35.3997         -57.6156        -35.8881       -0.0101558         149.092
0.532                  -0.379496         -137.44         -57.2667          -36.86          -57.475         -37.333       -0.0102335         149.025
0.533                  -0.391381        -137.966         -57.1299        -38.3266         -57.3337        -38.7835       -0.0103121         148.957
0.534                  -0.403692        -138.495         -56.9927        -39.7995         -57.1918        -40.2398       -0.0103915         148.889
0.535                  -0.416443        -139.027         -56.8552        -41.2789         -57.0493        -41.7019       -0.0104718         148.821
0.536                   -0.42965        -139.562         -56.7174        -42.7646         -56.9062          -43.17       -0.0105531         148.753
0.537                  -0.443326          -140.1         -56.5794        -44.2567         -56.7626        -44.6442       -0.0106352         148.684
0.538                  -0.457487        -140.641          -56.441        -45.7553         -56.6185        -46.1247       -0.0107184         148.616
0.539                  -0.472147        -141.185         -56.3024        -47.2604         -56.4739        -47.6115       -0.0108025         148.547
0.54                   -0.487322        -141.733         -56.1636         -48.772          -56.329        -49.1049       -0.0108876         148.479
0.541                  -0.503025        -142.283         -56.0246        -50.2901         -56.1837         -50.605       -0.0109739          148.41
0.542                  -0.519272        -142.835         -55.8855        -51.8148          -56.038        -52.1118       -0.0110612         148.341
0.543                  -0.536076        -143.391         -55.7462        -53.3461         -55.8922        -53.6255       -0.0111496         148.273
0.544                  -0.553451        -143.949         -55.6068         -54.884          -55.746        -55.1462       -0.0112391         148.203
0.545                  -0.571412         -144.51         -55.4673        -56.4285         -55.5997         -56.674       -0.0113298         148.134
0.546                  -0.589971        -145.074         -55.3278        -57.9796         -55.4533        -58.2089       -0.0114217         148.065
0.547                  -0.609141         -145.64         -55.1882        -59.5374         -55.3068        -59.7512       -0.0115149         147.996
0.548                  -0.628936        -146.208         -55.0486        -61.1018         -55.1603        -61.3008       -0.0116093         147.926
0.549                  -0.649365        -146.779         -54.9091        -62.6729         -55.0138        -62.8579       -0.0117049         147.857
0.55                   -0.670441        -147.352         -54.7696        -64.2507         -54.8673        -64.4225       -0.0118019         147.787
0.551                  -0.692174        -147.927         -54.6303        -65.8352          -54.721        -65.9946       -0.0119002         147.717
0.552                  -0.714574        -148.503          -54.491        -67.4263         -54.5749        -67.5743       -0.0119999         147.647
0.553                  -0.737648        -149.082          -54.352         -69.024          -54.429        -69.1616        -0.012101         147.577
0.554                  -0.761404        -149.663         -54.2131        -70.6284         -54.2833        -70.7566       -0.0122034         147.507
0.555                  -0.785849        -150.245         -54.0744        -72.2393          -54.138        -72.3592       -0.0123074         147.437
0.556                  -0.810989        -150.828          -53.936        -73.8569         -53.9931        -73.9694       -0.0124127         147.367
0.557                  -0.836827        -151.413         -53.7979         -75.481         -53.8487        -75.5872       -0.0125196         147.296
0.558                  -0.863366        -151.999         -53.6602        -77.1116         -53.7047        -77.2126        -0.012628         147.225
0.559                  -0.890609        -152.587         -53.5228        -78.7487         -53.5613        -78.8454        -0.012738         147.155
0.56                   -0.918553        -153.175         -53.3858        -80.3922         -53.4184        -80.4857       -0.0128495         147.084
0.561                    -0.9472        -153.764         -53.2493         -82.042         -53.2763        -82.1333       -0.0129626         147.013
0.562                  -0.976545        -154.354         -53.1132        -83.6981         -53.1348        -83.7882       -0.0130773         146.942
0.563                   -1.00658        -154.944         -52.9776        -85.3604         -52.9941        -85.4501       -0.0131936          146.87
0.564                   -1.03731        -155.534         -52.8426        -87.0288         -52.8542         -87.119       -0.0133117         146.799
0.565                   -1.06872        -156.125         -52.7082        -88.7032         -52.7151        -88.7947       -0.0134314         146.727
0.566                   -1.10079        -156.716         -52.5743        -90.3835          -52.577         -90.477       -0.0135528         146.656
0.567                   -1.13353        -157.307         -52.4412        -92.0696         -52.4398        -92.1658        -0.013676         146.584
0.568                   -1.16691        -157.898         -52.3087        -93.7614         -52.3036        -93.8608       -0.0138009         146.512
0.569                   -1.20093        -158.489          -52.177        -95.4587         -52.1685        -95.5617       -0.0139276          146.44
0.57                    -1.23556        -159.079          -52.046        -97.1614         -52.0344        -97.2684       -0.0140561         146.368
0.571                   -1.27079        -159.669         -51.9159        -98.8694         -51.9015        -98.9806       -0.0141864         146.295
0.572                   -1.30661        -160.258         -51.7866        -100.582         -51.7697        -100.698       -0.0143186         146.223
0.573                   -1.34298        -160.846         -51.6581          -102.3         -51.6391         -102.42       -0.0144527          146.15
0.574                   -1.37989        -161.434         -51.5306        -104.023         -51.5098        -104.147       -0.0145886         146.077
0.575                   -1.41731        -162.021          -51.404         -105.75         -51.3817        -105.879       -0.0147265         146.005
0.576                   -1.45523        -162.607         -51.2783        -107.481         -51.2549        -107.614       -0.0148663         145.931
0.577                   -1.49361        -163.193         -51.1537        -109.217         -51.1294        -109.353       -0.0150081         145.858
0.578                   -1.53244        -163.777         -51.0301        -110.956         -51.0052        -111.095       -0.0151519         145.785
0.579                   -1.57168        -164.361         -50.9075        -112.699         -50.8823         -112.84       -0.0152977         145.711
0.58                     -1.6113        -164.944         -50.7861        -114.445         -50.7608        -114.587       -0.0154454         145.638
0.581                   -1.65129        -165.525         -50.6657        -116.194         -50.6407        -116.337       -0.0155953         145.564
0.582                   -1.69161        -166.106         -50.5465        -117.945          -50.522        -118.089       -0.0157472          145.49
0.583                   -1.73224        -166.687         -50.4284          -119.7         -50.4046        -119.842       -0.0159012         145.416
0.584                   -1.77314        -167.266         -50.3115        -121.456         -50.2886        -121.596       -0.0160574         145.342
0.585                    -1.8143        -167.845         -50.1958        -123.214         -50.1739        -123.351       -0.0162156         145.267
0.586                   -1.85569        -168.423         -50.0812        -124.974         -50.0606        -125.106       -0.0163761         145.193
0.587                   -1.89727        -169.001         -49.9679        -126.735         -49.9487        -126.861       -0.0165387         145.118
0.588                   -1.93904        -169.579         -49.8558        -128.497          -49.838        -128.615       -0.0167035         145.043
0.589                   -1.98096        -170.157          -49.745        -130.259         -49.7287        -130.369       -0.0168706         144.968
0.59                    -2.02301        -170.734         -49.6354        -132.022         -49.6207        -132.122       -0.0170399         144.892
0.591                   -2.06518        -171.312          -49.527        -133.784         -49.5139        -133.874       -0.0172114         144.817
0.592                   -2.10744        -171.891         -49.4198        -135.546         -49.4084        -135.623       -0.0173853         144.741
0.593                   -2.14979         -172.47         -49.3138        -137.307          -49.304        -137.371       -0.0175616         144.666
0.594                    -2.1922         -173.05         -49.2091        -139.066         -49.2009        -139.116       -0.0177401          144.59
0.595                   -2.23467        -173.631         -49.1056        -140.825         -49.0988        -140.859       -0.0179211         144.514
0.596                   -2.27718        -174.213         -49.0032        -142.581         -48.9978        -142.599       -0.0181044         144.437
0.597                   -2.31973        -174.797          -48.902        -144.334         -48.8979        -144.335       -0.0182902         144.361
0.598                   -2.36231        -175.383         -48.8019        -146.086          -48.799        -146.069       -0.0184785         144.284
0.599                   -2.40493        -175.971          -48.703        -147.834         -48.7011        -147.798       -0.0186692         144.207
0.6                     -2.44758        -176.561         -48.6051        -149.579          -48.604        -149.524       -0.0188625          144.13
0.601                   -2.49027        -177.155         -48.5083         -151.32         -48.5078        -151.247       -0.0190583         144.053
0.602                     -2.533        -177.751         -48.4125        -153.058         -48.4124        -152.965       -0.0192566         143.975
0.603                   -2.57579         -178.35         -48.3176        -154.791         -48.3178        -154.679       -0.0194576         143.898
0.604                   -2.61865        -178.953         -48.2237         -156.52         -48.2239        -156.389       -0.0196612          143.82
0.605                   -2.66159         -179.56         -48.1306        -158.244         -48.1307        -158.095       -0.0198675         143.742
0.606                   -2.70463         179.829         -48.0384        -159.964          -48.038        -159.796       -0.0200765         143.664
0.607                   -2.74779         179.214         -47.9469        -161.678          -47.946        -161.493       -0.0202883         143.585
0.608                    -2.7911         178.594         -47.8561        -163.387         -47.8544        -163.185       -0.0205028         143.507
0.609                   -2.83458         177.968         -47.7661        -165.091         -47.7633        -164.873       -0.0207202         143.428
0.61                    -2.87827         177.338         -47.6766        -166.789         -47.6726        -166.557       -0.0209403         143.349
0.611                    -2.9222         176.702         -47.5876        -168.481         -47.5822        -168.237       -0.0211634          143.27
0.612                    -2.9664          176.06         -47.4992        -170.168         -47.4922        -169.912       -0.0213895          143.19
0.613                   -3.01092         175.412         -47.4111        -171.849         -47.4024        -171.583       -0.0216185          143.11
0.614                   -3.05579         174.758         -47.3234        -173.524         -47.3129         -173.25       -0.0218505          143.03
0.615                   -3.10105         174.097          -47.236        -175.194         -47.2236        -174.913       -0.0220856          142.95
0.616                   -3.14677         173.429         -47.1488        -176.858         -47.1343        -176.573       -0.0223238          142.87
0.617                   -3.19297         172.755         -47.0618        -178.516         -47.0452        -178.229       -0.0225652         142.789
0.618                   -3.23973         172.073         -46.9749         179.831         -46.9562        -179.881       -0.0228097         142.708
0.619                   -3.28709         171.383          -46.888         178.183         -46.8672          178.47       -0.0230576         142.627
0.62                     -3.3351         170.686         -46.8011         176.541         -46.7782         176.824       -0.0233088         142.546
0.621                   -3.38384         169.981         -46.7141         174.903         -46.6891         175.181       -0.0235633         142.464
0.622                   -3.43336         169.268          -46.627          173.27            -46.6         173.541       -0.0238213         142.383
0.623                   -3.48372         168.546         -46.5397         171.641         -46.5109         171.903       -0.0240827         142.301
0.624                   -3.53499         167.817         -46.4523         170.016         -46.4216         170.267       -0.0243477         142.218
0.625                   -3.58724         167.079         -46.3645         168.395         -46.3322         168.633       -0.0246163         142.136
0.626                   -3.64054         166.332         -46.2764         166.777         -46.2426         167.001       -0.0248886         142.053
0.627                   -3.69497         165.577          -46.188         165.162         -46.1529         165.371       -0.0251647          141.97
0.628                    -3.7506         164.813         -46.0993          163.55         -46.0631         163.742       -0.0254446         141.886
0.629                   -3.80751          164.04         -46.0102          161.94         -45.9731         162.114       -0.0257283         141.803
