! TOUCHSTONE file generated by CST MICROWAVE STUDIO
! Date and time: Wed Oct 28 19:14:31 2020
! Project name: Scenario_1_Circular_Tissue_out_of_Line.cst
! Parameters = {dy1=-241.954; L_HA=400; MT=2.54; Rad_Dielectric=30; Rad_Lower=7.3; Rad_Upper=30; a_HA=580; a_WG=246; b_HA=500; b_WG=121; c_HA=0; c_WG=187; d_feed=85; dx1=693; h_feed=15; h_lower=18; h_upper=40}
! Header version: 2018
! Port assignment regex: !\s*Touchstone port\s*([0-9]+)\s*=\s*(CST MWS port|CST DS port)\s*([0-9]+|Zmin|Zmax)\s*\(\"(.*)\"\)(\s*mode\s*([0-9]+))?.*
! Touchstone port assignment:
! Touchstone port 1 = CST MWS port 1 ("")
! Touchstone port 2 = CST MWS port 2 ("")
# GHz S DB R 50
0.5                    -0.147041        -122.155         -63.7103        -177.707         -63.5634        -178.671      -0.00766653         151.142
0.501                  -0.153464         -122.62         -63.7068        -179.899         -63.5772         178.648      -0.00772184         151.077
0.502                  -0.160156        -123.088         -63.6968         177.884         -63.5793         175.944      -0.00777795         151.011
0.503                  -0.167119        -123.556         -63.6801         175.643         -63.5695         173.222      -0.00783488         150.946
0.504                  -0.174354        -124.026         -63.6564         173.382         -63.5475         170.487      -0.00789263         150.881
0.505                  -0.181863        -124.497         -63.6255         171.101         -63.5133         167.745      -0.00795121         150.815
0.506                  -0.189647         -124.97         -63.5874         168.804         -63.4671         165.003      -0.00801062          150.75
0.507                  -0.197708        -125.445         -63.5419         166.493         -63.4088         162.265      -0.00807087         150.684
0.508                  -0.206047        -125.921          -63.489          164.17         -63.3388         159.538      -0.00813196         150.618
0.509                  -0.214665        -126.398         -63.4285         161.839         -63.2573         156.827      -0.00819391         150.553
0.51                   -0.223565        -126.877         -63.3604         159.501         -63.1648         154.137      -0.00825671         150.487
0.511                  -0.232746        -127.357         -63.2849          157.16         -63.0619         151.471      -0.00832038         150.421
0.512                   -0.24221        -127.838         -63.2019         154.818         -62.9489         148.836      -0.00838492         150.355
0.513                  -0.251959        -128.321         -63.1115         152.478         -62.8265         146.233      -0.00845034         150.289
0.514                  -0.261993        -128.806         -63.0139         150.141         -62.6953         143.666      -0.00851665         150.223
0.515                  -0.272313        -129.291         -62.9093         147.811         -62.5561         141.137      -0.00858384         150.156
0.516                  -0.282921        -129.779         -62.7977          145.49         -62.4093         138.649      -0.00865194          150.09
0.517                  -0.293817        -130.267         -62.6795         143.179         -62.2557         136.202      -0.00872094         150.024
0.518                  -0.305002        -130.757         -62.5548         140.881          -62.096         133.799      -0.00879086         149.957
0.519                  -0.316477        -131.249          -62.424         138.598         -61.9308         131.439       -0.0088617         149.891
0.52                   -0.328243        -131.741         -62.2873          136.33         -61.7606         129.123      -0.00893348         149.824
0.521                    -0.3403        -132.236         -62.1449          134.08         -61.5861          126.85      -0.00900619         149.757
0.522                  -0.352649        -132.731         -61.9972         131.848         -61.4079         124.621      -0.00907984         149.691
0.523                  -0.365291        -133.228         -61.8446         129.635         -61.2264         122.434      -0.00915446         149.624
0.524                  -0.378226        -133.726         -61.6872         127.443         -61.0423         120.288      -0.00923004         149.557
0.525                  -0.391455        -134.226         -61.5253         125.271         -60.8558         118.183      -0.00930659          149.49
0.526                  -0.404977        -134.727         -61.3594         123.121         -60.6675         116.117      -0.00938412         149.422
0.527                  -0.418795        -135.229         -61.1897         120.993         -60.4777         114.089      -0.00946264         149.355
0.528                  -0.432906        -135.733         -61.0165         118.886         -60.2868         112.096      -0.00954216         149.288
0.529                  -0.447313        -136.238         -60.8401         116.802         -60.0952         110.138      -0.00962269          149.22
0.53                   -0.462015        -136.744         -60.6608         114.738          -59.903         108.214      -0.00970425         149.153
0.531                  -0.477012        -137.252         -60.4788         112.697         -59.7106          106.32      -0.00978683         149.085
0.532                  -0.492304        -137.761         -60.2943         110.676         -59.5183         104.456      -0.00987044         149.017
0.533                  -0.507892        -138.272         -60.1078         108.676         -59.3262          102.62      -0.00995511          148.95
0.534                  -0.523775        -138.783         -59.9193         106.697         -59.1344          100.81       -0.0100408         148.882
0.535                  -0.539953        -139.296         -59.7291         104.736         -58.9433         99.0241       -0.0101276         148.814
0.536                  -0.556427        -139.811         -59.5375         102.795         -58.7529         97.2615       -0.0102155         148.746
0.537                  -0.573195        -140.327         -59.3445         100.872         -58.5634         95.5201       -0.0103045         148.677
0.538                  -0.590258        -140.844         -59.1505          98.966         -58.3748         93.7985       -0.0103946         148.609
0.539                  -0.607615        -141.363         -58.9555         97.0768         -58.1874         92.0951       -0.0104858         148.541
0.54                   -0.625266        -141.883         -58.7599         95.2032         -58.0011         90.4084       -0.0105781         148.472
0.541                  -0.643211        -142.404         -58.5636         93.3446          -57.816         88.7369       -0.0106715         148.404
0.542                   -0.66145        -142.927         -58.3669         91.4999         -57.6323         87.0793       -0.0107662         148.335
0.543                  -0.679981        -143.451         -58.1698         89.6684         -57.4499         85.4341       -0.0108619         148.266
0.544                  -0.698804        -143.977         -57.9726         87.8491         -57.2689         83.8001       -0.0109589         148.197
0.545                  -0.717919        -144.504         -57.7753          86.041         -57.0894         82.1761        -0.011057         148.128
0.546                  -0.737326        -145.032         -57.5781         84.2434         -56.9114         80.5606       -0.0111564         148.059
0.547                  -0.757023        -145.562         -57.3811         82.4553         -56.7349         78.9526       -0.0112569          147.99
0.548                   -0.77701        -146.093         -57.1842         80.6757         -56.5599          77.351       -0.0113587         147.921
0.549                  -0.797287        -146.626         -56.9878         78.9038         -56.3865         75.7545       -0.0114617         147.851
0.55                   -0.817853         -147.16         -56.7917         77.1387         -56.2146         74.1621        -0.011566         147.782
0.551                  -0.838707        -147.696         -56.5962         75.3795         -56.0444         72.5728       -0.0116716         147.712
0.552                  -0.859848        -148.233         -56.4013         73.6254         -55.8756         70.9855       -0.0117784         147.642
0.553                  -0.881277        -148.772          -56.207         71.8755         -55.7085         69.3992       -0.0118866         147.572
0.554                  -0.902992        -149.313         -56.0134         70.1289          -55.543         67.8131       -0.0119961         147.502
0.555                  -0.924993        -149.855         -55.8207         68.3849          -55.379         66.2262       -0.0121069         147.432
0.556                  -0.947279        -150.399         -55.6288         66.6426         -55.2167         64.6376        -0.012219         147.362
0.557                  -0.969849        -150.944         -55.4378         64.9012         -55.0559         63.0465       -0.0123326         147.292
0.558                  -0.992704        -151.491         -55.2477         63.1599         -54.8966         61.4519       -0.0124475         147.221
0.559                   -1.01584         -152.04         -55.0587          61.418          -54.739         59.8532       -0.0125638         147.151
0.56                    -1.03927         -152.59         -54.8708         59.6748         -54.5829         58.2494       -0.0126815          147.08
0.561                   -1.06297        -153.143          -54.684         57.9294         -54.4284         56.6399       -0.0128007         147.009
0.562                   -1.08696        -153.697         -54.4984         56.1812         -54.2754         55.0239       -0.0129213         146.938
0.563                   -1.11123        -154.253          -54.314         54.4295         -54.1239         53.4007       -0.0130434         146.867
0.564                   -1.13578         -154.81         -54.1309         52.6736          -53.974         51.7696        -0.013167         146.796
0.565                   -1.16062         -155.37         -53.9491         50.9129         -53.8256         50.1299        -0.013292         146.724
0.566                   -1.18574        -155.932         -53.7687         49.1467         -53.6788          48.481       -0.0134187         146.653
0.567                   -1.21114        -156.496         -53.5898         47.3744         -53.5334         46.8222       -0.0135468         146.581
0.568                   -1.23683        -157.062         -53.4123         45.5954         -53.3896         45.1529       -0.0136766          146.51
0.569                    -1.2628         -157.63         -53.2364          43.809         -53.2472         43.4725       -0.0138079         146.438
0.57                    -1.28906        -158.201         -53.0621         42.0149         -53.1064         41.7805       -0.0139408         146.366
0.571                    -1.3156        -158.773         -52.8894         40.2123          -52.967         40.0762       -0.0140754         146.294
0.572                   -1.34243        -159.348         -52.7184         38.4008         -52.8291         38.3592       -0.0142117         146.221
0.573                   -1.36955        -159.926         -52.5491         36.5799         -52.6927          36.629       -0.0143496         146.149
0.574                   -1.39697        -160.506         -52.3817          34.749         -52.5578          34.885       -0.0144892         146.076
0.575                   -1.42468        -161.088         -52.2161         32.9079         -52.4243         33.1268       -0.0146305         146.004
0.576                   -1.45269        -161.673         -52.0524         31.0559         -52.2923         31.3539       -0.0147736         145.931
0.577                   -1.48099        -162.261         -51.8907         29.1927         -52.1618         29.5659       -0.0149185         145.858
0.578                   -1.50961        -162.851          -51.731          27.318         -52.0327         27.7625       -0.0150651         145.785
0.579                   -1.53853        -163.445         -51.5734         25.4313         -51.9051         25.9432       -0.0152136         145.712
0.58                    -1.56776        -164.041         -51.4179         23.5324         -51.7789         24.1076       -0.0153639         145.638
0.581                   -1.59732        -164.641         -51.2647         21.6209         -51.6542         22.2555       -0.0155161         145.565
0.582                   -1.62719        -165.244         -51.1137         19.6966          -51.531         20.3866       -0.0156702         145.491
0.583                    -1.6574         -165.85         -50.9651         17.7591         -51.4092         18.5006       -0.0158263         145.417
0.584                   -1.68795        -166.459         -50.8188         15.8084         -51.2889         16.5972       -0.0159843         145.343
0.585                   -1.71884        -167.072          -50.675         13.8441         -51.1701         14.6763       -0.0161442         145.269
0.586                   -1.75009        -167.688         -50.5337         11.8662         -51.0527         12.7376       -0.0163062         145.195
0.587                   -1.78171        -168.309         -50.3949         9.87444         -50.9368          10.781       -0.0164703          145.12
0.588                    -1.8137        -168.933         -50.2588         7.86883         -50.8223         8.80647       -0.0166364         145.045
0.589                   -1.84608        -169.561         -50.1254         5.84926         -50.7094         6.81383       -0.0168046         144.971
0.59                    -1.87887        -170.193         -49.9947          3.8157         -50.5978         4.80307        -0.016975         144.896
0.591                   -1.91207         -170.83         -49.8667         1.76815         -50.4878         2.77418       -0.0171475          144.82
0.592                    -1.9457        -171.471         -49.7416       -0.293371         -50.3792        0.727208       -0.0173222         144.745
0.593                   -1.97978        -172.117         -49.6194        -2.36879         -50.2721        -1.33778       -0.0174992          144.67
0.594                   -2.01433        -172.767         -49.5001        -4.45803         -50.1665        -3.42068       -0.0176784         144.594
0.595                   -2.04938        -173.422         -49.3838        -6.56096         -50.0623        -5.52133         -0.01786         144.518
0.596                   -2.08493        -174.082         -49.2704        -8.67742         -49.9596        -7.63953       -0.0180438         144.442
0.597                   -2.12102        -174.748         -49.1601        -10.8072         -49.8584        -9.77506       -0.0182301         144.366
0.598                   -2.15768        -175.418         -49.0529        -12.9502         -49.7586        -11.9276       -0.0184188         144.289
0.599                   -2.19493        -176.095         -48.9487         -15.106         -49.6603        -14.0969       -0.0186099         144.213
0.6                      -2.2328        -176.777         -48.8476        -17.2745         -49.5635        -16.2825       -0.0188035         144.136
0.601                   -2.27134        -177.465         -48.7496        -19.4553         -49.4681        -18.4841       -0.0189997         144.059
0.602                   -2.31057        -178.159         -48.6547        -21.6482         -49.3741        -20.7012       -0.0191984         143.982
0.603                   -2.35053        -178.859          -48.563        -23.8527         -49.2815        -22.9333       -0.0193997         143.905
0.604                   -2.39128        -179.565         -48.4742        -26.0686         -49.1904        -25.1799       -0.0196037         143.827
0.605                   -2.43285         179.722         -48.3886        -28.2954         -49.1007        -27.4403       -0.0198104          143.75
0.606                   -2.47529         179.002          -48.306        -30.5328         -49.0124        -29.7141       -0.0200198         143.672
0.607                   -2.51866         178.276         -48.2264        -32.7803         -48.9255        -32.0005        -0.020232         143.594
0.608                   -2.56302         177.542         -48.1497        -35.0376         -48.8399        -34.2988       -0.0204471         143.515
0.609                   -2.60842         176.801          -48.076        -37.3041         -48.7556        -36.6084        -0.020665         143.437
0.61                    -2.65494         176.053          -48.005        -39.5794         -48.6727        -38.9284       -0.0208859         143.358
0.611                   -2.70264         175.298         -47.9369        -41.8631         -48.5911        -41.2582       -0.0211097         143.279
0.612                   -2.75159         174.535         -47.8714        -44.1547         -48.5107        -43.5968       -0.0213365           143.2
0.613                   -2.80188         173.765         -47.8085        -46.4536         -48.4316        -45.9435       -0.0215664         143.121
0.614                   -2.85359         172.987         -47.7482        -48.7595         -48.3537        -48.2974       -0.0217995         143.041
0.615                   -2.90681         172.202         -47.6902        -51.0718          -48.277        -50.6577       -0.0220357         142.962
0.616                   -2.96163         171.409         -47.6345          -53.39         -48.2014        -53.0234       -0.0222752         142.882
0.617                   -3.01815         170.608          -47.581        -55.7136         -48.1269        -55.3936       -0.0225179         142.801
0.618                   -3.07647           169.8         -47.5296        -58.0421         -48.0536        -57.7675        -0.022764         142.721
0.619                    -3.1367         168.985           -47.48        -60.3749         -47.9813        -60.1441       -0.0230135          142.64
0.62                    -3.19895         168.162         -47.4322        -62.7115           -47.91        -62.5225       -0.0232664         142.559
0.621                   -3.26333         167.333          -47.386        -65.0513         -47.8397        -64.9017       -0.0235228         142.478
0.622                   -3.32997         166.497         -47.3412        -67.3937         -47.7703         -67.281       -0.0237829         142.397
0.623                   -3.39898         165.655         -47.2978        -69.7383         -47.7018        -69.6594       -0.0240466         142.315
0.624                   -3.47049         164.807         -47.2555        -72.0842         -47.6342        -72.0359       -0.0243139         142.233
0.625                   -3.54461         163.954         -47.2142         -74.431         -47.5674        -74.4098       -0.0245851         142.151
0.626                   -3.62149         163.096         -47.1737         -76.778         -47.5014        -76.7801       -0.0248601         142.069
0.627                   -3.70123         162.235         -47.1339        -79.1246         -47.4361         -79.146       -0.0251389         141.986
0.628                   -3.78395          161.37         -47.0945        -81.4699         -47.3716        -81.5068       -0.0254218         141.903
0.629                   -3.86978         160.503         -47.0555        -83.8134         -47.3076        -83.8616       -0.0257087          141.82
