! TOUCHSTONE file generated by CST MICROWAVE STUDIO
! Date and time: Mon Oct 26 12:25:33 2020
! Project name: Scenario_1_Circular_Tissue_out_of_Line.cst
! Parameters = {dy1=-241.954; L_HA=400; MT=2.54; Rad_Dielectric=30; Rad_Lower=7.3; Rad_Upper=30; a_HA=580; a_WG=246; b_HA=500; b_WG=121; c_HA=0; c_WG=187; d_feed=85; dx1=866; h_feed=15; h_lower=18; h_upper=40}
! Header version: 2018
! Port assignment regex: !\s*Touchstone port\s*([0-9]+)\s*=\s*(CST MWS port|CST DS port)\s*([0-9]+|Zmin|Zmax)\s*\(\"(.*)\"\)(\s*mode\s*([0-9]+))?.*
! Touchstone port assignment:
! Touchstone port 1 = CST MWS port 1 ("")
! Touchstone port 2 = CST MWS port 2 ("")
# GHz S DB R 50
0.5                    -0.146972        -122.459         -64.2706         91.5918         -64.2706         91.5918      -0.00746633         151.127
0.501                  -0.154533        -122.897         -64.1042         90.3677         -64.0575          89.562      -0.00753619         151.061
0.502                  -0.162214        -123.336         -63.9268         89.0952         -63.8459         87.5095      -0.00760688         150.996
0.503                  -0.170015        -123.776         -63.7388         87.7668         -63.6359         85.4348      -0.00767841         150.931
0.504                  -0.177934        -124.218         -63.5406         86.3752         -63.4278         83.3383      -0.00775078         150.865
0.505                  -0.185972        -124.661         -63.3331         84.9132         -63.2215         81.2204      -0.00782399         150.799
0.506                  -0.194127        -125.105          -63.117         83.3742         -63.0171         79.0817      -0.00789804         150.734
0.507                    -0.2024        -125.551         -62.8935         81.7522         -62.8148         76.9226      -0.00797293         150.668
0.508                  -0.210791        -125.999         -62.6638         80.0423         -62.6146         74.7439      -0.00804867         150.602
0.509                  -0.219298        -126.448         -62.4292         78.2409         -62.4166         72.5461      -0.00812525         150.536
0.51                   -0.227921        -126.899         -62.1913         76.3454         -62.2208           70.33      -0.00820267          150.47
0.511                  -0.236662        -127.351         -61.9516          74.355         -62.0274         68.0963      -0.00828094         150.404
0.512                  -0.245519        -127.806         -61.7117         72.2704         -61.8365         65.8457      -0.00836005         150.338
0.513                  -0.254492        -128.261         -61.4731          70.094          -61.648         63.5792         -0.00844         150.272
0.514                  -0.263583        -128.719         -61.2374         67.8295          -61.462         61.2975      -0.00852079         150.206
0.515                  -0.272791        -129.178         -61.0058         65.4823         -61.2786         59.0016      -0.00860242         150.139
0.516                  -0.282116        -129.639         -60.7797         63.0588         -61.0978         56.6923      -0.00868489         150.073
0.517                  -0.291559        -130.102           -60.56         60.5666         -60.9197         54.3706      -0.00876819         150.006
0.518                  -0.301121        -130.567         -60.3477          58.014         -60.7442         52.0374      -0.00885231          149.94
0.519                  -0.310804        -131.034         -60.1433         55.4098         -60.5714         49.6938      -0.00893727         149.873
0.52                   -0.320607        -131.502         -59.9472         52.7628         -60.4013         47.3407      -0.00902305         149.806
0.521                  -0.330532        -131.973         -59.7598         50.0821         -60.2339          44.979      -0.00910964         149.739
0.522                  -0.340582        -132.446         -59.5809         47.3761         -60.0691         42.6098      -0.00919705         149.673
0.523                  -0.350757        -132.921         -59.4105          44.653          -59.907          40.234      -0.00928526         149.605
0.524                   -0.36106        -133.398         -59.2483         41.9201         -59.7474         37.8525      -0.00937428         149.538
0.525                  -0.371492        -133.877         -59.0938         39.1843         -59.5905         35.4663      -0.00946409         149.471
0.526                  -0.382058        -134.359         -58.9465         36.4513          -59.436         33.0763       -0.0095547         149.404
0.527                  -0.392759        -134.843         -58.8059         33.7261          -59.284         30.6833      -0.00964608         149.336
0.528                    -0.4036        -135.329         -58.6713          31.013         -59.1344         28.2882      -0.00973824         149.269
0.529                  -0.414583        -135.818         -58.5422         28.3152         -58.9871         25.8918      -0.00983116         149.201
0.53                   -0.425713        -136.309         -58.4178         25.6355          -58.842         23.4949      -0.00992484         149.134
0.531                  -0.436994        -136.803         -58.2976         22.9757         -58.6991         21.0981       -0.0100193         149.066
0.532                  -0.448432        -137.299         -58.1809         20.3373         -58.5582         18.7022       -0.0101145         148.998
0.533                  -0.460032        -137.798         -58.0672          17.721         -58.4194         16.3076       -0.0102104          148.93
0.534                  -0.471799          -138.3          -57.956         15.1274         -58.2824         13.9151        -0.010307         148.862
0.535                  -0.483742        -138.805         -57.8467         12.5563         -58.1471         11.5251       -0.0104044         148.794
0.536                  -0.495867        -139.312          -57.739         10.0074         -58.0136         9.13803       -0.0105024         148.726
0.537                  -0.508181        -139.823         -57.6324         7.48038         -57.8816         6.75431       -0.0106012         148.658
0.538                  -0.520694        -140.336         -57.5266         4.97435          -57.751         4.37427       -0.0107006         148.589
0.539                  -0.533414        -140.853         -57.4213         2.48846         -57.6218         1.99821       -0.0108008         148.521
0.54                   -0.546352        -141.373         -57.3162       0.0217237         -57.4939       -0.373658       -0.0109016         148.452
0.541                  -0.559518        -141.896         -57.2111        -2.42693         -57.3671        -2.74114       -0.0110032         148.383
0.542                  -0.572925        -142.422         -57.1058        -4.85861         -57.2413        -5.10413       -0.0111054         148.315
0.543                  -0.586584        -142.952              -57        -7.27447         -57.1164        -7.46254       -0.0112082         148.246
0.544                   -0.60051        -143.485         -56.8937        -9.67568         -56.9924        -9.81634       -0.0113118         148.177
0.545                  -0.614716        -144.022         -56.7867        -12.0634         -56.8691        -12.1656        -0.011416         148.107
0.546                  -0.629218        -144.563         -56.6789        -14.4387         -56.7465        -14.5103       -0.0115209         148.038
0.547                  -0.644033        -145.107         -56.5704        -16.8028         -56.6244        -16.8506       -0.0116265         147.969
0.548                  -0.659177        -145.654         -56.4609        -19.1568         -56.5028        -19.1866       -0.0117328         147.899
0.549                   -0.67467        -146.206         -56.3505        -21.5016         -56.3816        -21.5185       -0.0118399          147.83
0.55                   -0.690532        -146.761         -56.2391        -23.8384         -56.2607        -23.8466       -0.0119476          147.76
0.551                  -0.706783        -147.321         -56.1268         -26.168         -56.1401         -26.171       -0.0120561          147.69
0.552                  -0.723445        -147.884         -56.0135        -28.4915         -56.0196        -28.4921       -0.0121654          147.62
0.553                  -0.740541        -148.451         -55.8992        -30.8097         -55.8993        -30.8101       -0.0122755          147.55
0.554                  -0.758096        -149.022          -55.784        -33.1236          -55.779        -33.1253       -0.0123864          147.48
0.555                  -0.776136        -149.597         -55.6679        -35.4338         -55.6587        -35.4382       -0.0124982          147.41
0.556                  -0.794686        -150.177         -55.5508        -37.7411         -55.5384         -37.749       -0.0126109         147.339
0.557                  -0.813774         -150.76         -55.4329        -40.0464         -55.4181        -40.0582       -0.0127245         147.269
0.558                  -0.833429        -151.348         -55.3143        -42.3503         -55.2977        -42.3661       -0.0128391         147.198
0.559                   -0.85368        -151.939         -55.1948        -44.6534         -55.1771        -44.6731       -0.0129548         147.128
0.56                   -0.874559        -152.535         -55.0747        -46.9563         -55.0564        -46.9796       -0.0130715         147.057
0.561                  -0.896094        -153.134         -54.9539        -49.2597         -54.9356         -49.286       -0.0131894         146.986
0.562                   -0.91832        -153.737         -54.8325         -51.564         -54.8146        -51.5927       -0.0133085         146.914
0.563                  -0.941266        -154.345         -54.7106        -53.8698         -54.6934        -53.9002       -0.0134288         146.843
0.564                  -0.964966        -154.955         -54.5882        -56.1775         -54.5721        -56.2088       -0.0135504         146.772
0.565                  -0.989451         -155.57         -54.4655        -58.4876         -54.4506        -58.5189       -0.0136735           146.7
0.566                   -1.01475        -156.188         -54.3424        -60.8004          -54.329        -60.8308        -0.013798         146.628
0.567                    -1.0409         -156.81         -54.2191        -63.1163         -54.2073        -63.1451        -0.013924         146.557
0.568                   -1.06793        -157.434         -54.0956        -65.4356         -54.0855         -65.462       -0.0140515         146.485
0.569                   -1.09587        -158.062         -53.9719        -67.7586         -53.9636        -67.7818       -0.0141807         146.413
0.57                    -1.12475        -158.693         -53.8483        -70.0856         -53.8417         -70.105       -0.0143117          146.34
0.571                   -1.15458        -159.326         -53.7247        -72.4168         -53.7198        -72.4318       -0.0144444         146.268
0.572                    -1.1854        -159.961         -53.6012        -74.7524          -53.598        -74.7625       -0.0145789         146.195
0.573                   -1.21723        -160.599         -53.4778        -77.0925         -53.4763        -77.0973       -0.0147153         146.123
0.574                   -1.25007        -161.238         -53.3548        -79.4373         -53.3547        -79.4366       -0.0148537          146.05
0.575                   -1.28396        -161.879         -53.2321        -81.7868         -53.2333        -81.7804       -0.0149941         145.977
0.576                   -1.31889        -162.521         -53.1097        -84.1412         -53.1122         -84.129       -0.0151366         145.904
0.577                   -1.35487        -163.164         -52.9879        -86.5003         -52.9915        -86.4826       -0.0152811         145.831
0.578                    -1.3919        -163.807         -52.8666        -88.8643         -52.8711        -88.8411       -0.0154279         145.757
0.579                   -1.42999        -164.451         -52.7459        -91.2332         -52.7511        -91.2048       -0.0155768         145.684
0.58                    -1.46911        -165.094         -52.6259        -93.6067         -52.6317        -93.5736        -0.015728          145.61
0.581                   -1.50925        -165.737         -52.5067        -95.9849         -52.5129        -95.9476       -0.0158814         145.536
0.582                   -1.55039        -166.379         -52.3882        -98.3675         -52.3947        -98.3267       -0.0160372         145.462
0.583                   -1.59251         -167.02         -52.2707        -100.755         -52.2772        -100.711       -0.0161953         145.388
0.584                   -1.63557        -167.659          -52.154        -103.146         -52.1605          -103.1       -0.0163558         145.313
0.585                   -1.67953        -168.296         -52.0384        -105.541         -52.0447        -105.494       -0.0165187         145.239
0.586                   -1.72435        -168.932         -51.9238         -107.94         -51.9298        -107.892        -0.016684         145.164
0.587                   -1.76998        -169.565         -51.8102        -110.342         -51.8158        -110.295       -0.0168518         145.089
0.588                   -1.81637        -170.195         -51.6978        -112.748         -51.7029        -112.702        -0.017022         145.014
0.589                   -1.86346        -170.823         -51.5865        -115.156         -51.5911        -115.113       -0.0171947         144.939
0.59                    -1.91118        -171.448         -51.4765        -117.567         -51.4804        -117.528       -0.0173699         144.864
0.591                   -1.95947         -172.07         -51.3677         -119.98         -51.3709        -119.945       -0.0175476         144.788
0.592                   -2.00827        -172.689         -51.2601        -122.395         -51.2627        -122.366       -0.0177278         144.713
0.593                   -2.05751        -173.305         -51.1538        -124.812         -51.1557        -124.788       -0.0179105         144.637
0.594                   -2.10712        -173.918         -51.0489        -127.229           -51.05        -127.213       -0.0180958         144.561
0.595                   -2.15702        -174.529         -50.9452        -129.648         -50.9457        -129.639       -0.0182836         144.485
0.596                   -2.20716        -175.137         -50.8428        -132.067         -50.8428        -132.066        -0.018474         144.408
0.597                   -2.25747        -175.743         -50.7418        -134.485         -50.7412        -134.494       -0.0186669         144.332
0.598                   -2.30789        -176.346         -50.6421        -136.904          -50.641        -136.922       -0.0188624         144.255
0.599                   -2.35835        -176.948         -50.5438        -139.321         -50.5423        -139.349       -0.0190605         144.178
0.6                     -2.40881        -177.548         -50.4467        -141.737         -50.4449        -141.775       -0.0192612         144.101
0.601                   -2.45922        -178.147         -50.3509        -144.152         -50.3489          -144.2       -0.0194644         144.023
0.602                   -2.50953        -178.746         -50.2564        -146.564         -50.2542        -146.623       -0.0196703         143.946
0.603                   -2.55971        -179.345         -50.1631        -148.974          -50.161        -149.043       -0.0198788         143.868
0.604                   -2.60973        -179.944         -50.0711        -151.382          -50.069         -151.46       -0.0200899          143.79
0.605                   -2.65957         179.456         -49.9802        -153.786         -49.9783        -153.874       -0.0203036         143.712
0.606                   -2.70921         178.855         -49.8905        -156.187         -49.8889        -156.284       -0.0205201         143.634
0.607                   -2.75865         178.251         -49.8019        -158.584         -49.8007         -158.69       -0.0207391         143.556
0.608                   -2.80789         177.645         -49.7143        -160.978         -49.7136        -161.091       -0.0209609         143.477
0.609                   -2.85693         177.036         -49.6278        -163.366         -49.6276        -163.488       -0.0211854         143.398
0.61                     -2.9058         176.423         -49.5422        -165.751         -49.5427        -165.879       -0.0214126         143.319
0.611                   -2.95451         175.805         -49.4575        -168.131         -49.4587        -168.264       -0.0216426         143.239
0.612                    -3.0031         175.183         -49.3737        -170.505         -49.3756        -170.644       -0.0218753          143.16
0.613                   -3.05161         174.555         -49.2907        -172.875         -49.2934        -173.018       -0.0221109          143.08
0.614                   -3.10008         173.921         -49.2084         -175.24         -49.2119        -175.386       -0.0223492             143
0.615                   -3.14856          173.28         -49.1268        -177.599         -49.1312        -177.747       -0.0225905          142.92
0.616                   -3.19712         172.632         -49.0459        -179.953          -49.051         179.898       -0.0228347          142.84
0.617                   -3.24582         171.977         -48.9655         177.699         -48.9715         177.549       -0.0230818         142.759
0.618                   -3.29473         171.314         -48.8856         175.356         -48.8924         175.207       -0.0233319         142.678
0.619                   -3.34392         170.642         -48.8061         173.018         -48.8137         172.871       -0.0235851         142.597
0.62                    -3.39349         169.961         -48.7271         170.686         -48.7354         170.541       -0.0238413         142.515
0.621                   -3.44351          169.27         -48.6483         168.359         -48.6573         168.217       -0.0241007         142.434
0.622                   -3.49408          168.57         -48.5699         166.037         -48.5794           165.9       -0.0243633         142.352
0.623                   -3.54531          167.86         -48.4917          163.72         -48.5018         163.588       -0.0246291          142.27
0.624                   -3.59729          167.14         -48.4136         161.409         -48.4241         161.282       -0.0248983         142.187
0.625                   -3.65013         166.409         -48.3357         159.102         -48.3466          158.98       -0.0251709         142.105
0.626                   -3.70394         165.667         -48.2578         156.799          -48.269         156.684       -0.0254469         142.022
0.627                   -3.75885         164.914           -48.18         154.501         -48.1914         154.393       -0.0257265         141.939
0.628                   -3.81496         164.149         -48.1021         152.207         -48.1136         152.106       -0.0260096         141.855
0.629                   -3.87242         163.374         -48.0242         149.917         -48.0357         149.823       -0.0262966         141.772
