! TOUCHSTONE file generated by CST MICROWAVE STUDIO
! Date and time: Sat Oct 24 11:43:32 2020
! Project name: Scenario_1_Circular_Tissue_out_of_Line.cst
! Parameters = {dy1=-241.954; L_HA=400; MT=2.54; Rad_Dielectric=30; Rad_Lower=7.3; Rad_Upper=30; a_HA=580; a_WG=246; b_HA=500; b_WG=121; c_HA=0; c_WG=187; d_feed=85; dx1=1039; h_feed=15; h_lower=18; h_upper=40}
! Header version: 2018
! Port assignment regex: !\s*Touchstone port\s*([0-9]+)\s*=\s*(CST MWS port|CST DS port)\s*([0-9]+|Zmin|Zmax)\s*\(\"(.*)\"\)(\s*mode\s*([0-9]+))?.*
! Touchstone port assignment:
! Touchstone port 1 = CST MWS port 1 ("")
! Touchstone port 2 = CST MWS port 2 ("")
# GHz S DB R 50
0.5                     -0.14494        -122.263         -64.7802        -7.46097         -64.7802        -7.46097        -0.007584         151.116
0.501                  -0.149077        -122.701         -64.6418        -9.68157         -64.6417        -9.68183      -0.00764361         151.051
0.502                  -0.153419        -123.141         -64.5003        -11.9081         -64.5001        -11.9085      -0.00770394         150.986
0.503                  -0.157974        -123.585         -64.3558        -14.1402         -64.3555        -14.1408      -0.00776499          150.92
0.504                  -0.162749         -124.03         -64.2085        -16.3779         -64.2081        -16.3784      -0.00782677         150.855
0.505                  -0.167753        -124.479         -64.0584        -18.6208         -64.0579        -18.6213      -0.00788927         150.789
0.506                  -0.172994         -124.93         -63.9057        -20.8689         -63.9052        -20.8694      -0.00795249         150.724
0.507                  -0.178479        -125.384         -63.7506        -23.1223         -63.7499        -23.1226      -0.00801644         150.658
0.508                  -0.184218        -125.841         -63.5931        -25.3808         -63.5924         -25.381      -0.00808113         150.592
0.509                  -0.190218          -126.3         -63.4335        -27.6446         -63.4328        -27.6445      -0.00814654         150.526
0.51                   -0.196488        -126.762         -63.2718        -29.9137         -63.2711        -29.9134      -0.00821268         150.461
0.511                  -0.203037        -127.227         -63.1083        -32.1883         -63.1075        -32.1877      -0.00827955         150.395
0.512                  -0.209874        -127.695         -62.9431        -34.4686         -62.9422        -34.4676      -0.00834715         150.328
0.513                  -0.217008        -128.165         -62.7762        -36.7547         -62.7754        -36.7534      -0.00841547         150.262
0.514                  -0.224448        -128.638         -62.6079        -39.0469          -62.607        -39.0452      -0.00848452         150.196
0.515                  -0.232204        -129.114         -62.4383        -41.3455         -62.4374        -41.3434       -0.0085543          150.13
0.516                  -0.240285        -129.592         -62.2675        -43.6508         -62.2666        -43.6483       -0.0086248         150.063
0.517                    -0.2487        -130.073         -62.0956         -45.963         -62.0948        -45.9601      -0.00869602         149.997
0.518                  -0.257459        -130.557         -61.9229        -48.2825         -61.9221        -48.2793      -0.00876796          149.93
0.519                  -0.266572        -131.043         -61.7494        -50.6097         -61.7486         -50.606      -0.00884061         149.863
0.52                   -0.276048        -131.532         -61.5753        -52.9448         -61.5745        -52.9408      -0.00891398         149.797
0.521                  -0.285897        -132.023         -61.4006        -55.2883         -61.3999        -55.2839      -0.00898807          149.73
0.522                  -0.296129        -132.516         -61.2256        -57.6405         -61.2249        -57.6358      -0.00906288         149.663
0.523                  -0.306752        -133.013         -61.0504        -60.0017         -61.0497        -59.9967      -0.00913841         149.596
0.524                  -0.317777        -133.511          -60.875        -62.3723         -60.8744         -62.367      -0.00921467         149.529
0.525                  -0.329211        -134.012         -60.6996        -64.7527          -60.699        -64.7471      -0.00929168         149.461
0.526                  -0.341065        -134.515         -60.5243        -67.1431         -60.5238        -67.1372      -0.00936945         149.394
0.527                  -0.353347         -135.02         -60.3493        -69.5439         -60.3488        -69.5378      -0.00944802         149.327
0.528                  -0.366064        -135.528         -60.1746        -71.9553         -60.1742         -71.949      -0.00952743         149.259
0.529                  -0.379224        -136.037         -60.0004        -74.3777              -60        -74.3712      -0.00960772         149.192
0.53                   -0.392835        -136.549         -59.8267        -76.8112         -59.8264        -76.8046      -0.00968896         149.124
0.531                  -0.406902        -137.062         -59.6537        -79.2562         -59.6534        -79.2494      -0.00977125         149.056
0.532                   -0.42143        -137.578         -59.4815        -81.7126         -59.4812        -81.7058      -0.00985468         148.988
0.533                  -0.436426        -138.094         -59.3101        -84.1809         -59.3099        -84.1739      -0.00993941          148.92
0.534                  -0.451891        -138.613         -59.1397        -86.6609         -59.1396        -86.6539       -0.0100256         148.852
0.535                  -0.467828        -139.133         -58.9703        -89.1529         -58.9703        -89.1458       -0.0101133         148.784
0.536                  -0.484238        -139.654         -58.8021        -91.6568         -58.8021        -91.6498       -0.0102029         148.716
0.537                   -0.50112        -140.177         -58.6352        -94.1726         -58.6352        -94.1657       -0.0102945         148.647
0.538                   -0.51847        -140.701         -58.4695        -96.7004         -58.4695        -96.6935       -0.0103883         148.579
0.539                  -0.536286        -141.226         -58.3052          -99.24         -58.3053        -99.2332       -0.0104844          148.51
0.54                   -0.554559        -141.752         -58.1424        -101.791         -58.1425        -101.785       -0.0105831         148.441
0.541                  -0.573281        -142.278         -57.9811        -104.354         -57.9812        -104.348       -0.0106843         148.372
0.542                   -0.59244        -142.806         -57.8214        -106.928         -57.8215        -106.922       -0.0107882         148.303
0.543                  -0.612021        -143.333         -57.6634        -109.513         -57.6635        -109.507       -0.0108946         148.234
0.544                  -0.632009        -143.861          -57.507        -112.109         -57.5071        -112.103       -0.0110035         148.165
0.545                  -0.652381         -144.39         -57.3524        -114.716         -57.3525         -114.71       -0.0111147         148.096
0.546                  -0.673116        -144.919         -57.1996        -117.332         -57.1997        -117.326        -0.011228         148.027
0.547                  -0.694187        -145.447         -57.0486        -119.958         -57.0487        -119.953       -0.0113432         147.957
0.548                  -0.715564        -145.976         -56.8994        -122.593         -56.8995        -122.588         -0.01146         147.888
0.549                  -0.737216        -146.505         -56.7522        -125.237         -56.7522        -125.232       -0.0115782         147.818
0.55                   -0.759108        -147.034         -56.6068        -127.888         -56.6068        -127.884       -0.0116977         147.748
0.551                  -0.781202        -147.562         -56.4633        -130.547         -56.4633        -130.543       -0.0118182         147.678
0.552                  -0.803459        -148.091         -56.3217        -133.214         -56.3216         -133.21       -0.0119397         147.608
0.553                  -0.825839         -148.62          -56.182        -135.886         -56.1819        -135.882       -0.0120621         147.538
0.554                    -0.8483        -149.149         -56.0442        -138.564          -56.044        -138.561       -0.0121853         147.468
0.555                  -0.870802        -149.678         -55.9083        -141.247         -55.9081        -141.244       -0.0123094         147.398
0.556                  -0.893304        -150.208         -55.7742        -143.935         -55.7739        -143.932       -0.0124343         147.327
0.557                  -0.915767        -150.739          -55.642        -146.626         -55.6416        -146.623         -0.01256         147.257
0.558                  -0.938158         -151.27         -55.5115         -149.32         -55.5111        -149.318       -0.0126866         147.186
0.559                  -0.960445        -151.803         -55.3828        -152.016         -55.3823        -152.014       -0.0128141         147.115
0.56                   -0.982603        -152.338         -55.2558        -154.714         -55.2553        -154.712       -0.0129426         147.044
0.561                   -1.00461        -152.875         -55.1305        -157.413         -55.1299        -157.411       -0.0130722         146.973
0.562                   -1.02646        -153.414         -55.0068        -160.111         -55.0061         -160.11       -0.0132027         146.902
0.563                   -1.04815        -153.956         -54.8846         -162.81         -54.8838        -162.809       -0.0133344         146.831
0.564                   -1.06968        -154.502         -54.7639        -165.507         -54.7631        -165.506       -0.0134673         146.759
0.565                   -1.09107        -155.052         -54.6447        -168.202         -54.6438        -168.202       -0.0136014         146.688
0.566                   -1.11234        -155.606         -54.5268        -170.895         -54.5258        -170.895       -0.0137367         146.616
0.567                   -1.13353        -156.165         -54.4103        -173.585         -54.4092        -173.585       -0.0138733         146.544
0.568                   -1.15468         -156.73         -54.2949        -176.271         -54.2938        -176.271       -0.0140113         146.472
0.569                   -1.17584        -157.299         -54.1807        -178.954         -54.1795        -178.953       -0.0141506           146.4
0.57                    -1.19706        -157.875         -54.0676         178.369         -54.0663         178.369       -0.0142914         146.328
0.571                   -1.21842        -158.458         -53.9556         175.697         -53.9542         175.697       -0.0144335         146.256
0.572                   -1.23998        -159.046         -53.8444          173.03          -53.843         173.031       -0.0145772         146.183
0.573                   -1.26182        -159.642         -53.7342          170.37         -53.7327          170.37       -0.0147223          146.11
0.574                     -1.284        -160.244         -53.6247         167.716         -53.6232         167.716        -0.014869         146.038
0.575                    -1.3066        -160.853          -53.516         165.069         -53.5144         165.069       -0.0150171         145.965
0.576                   -1.32971        -161.469         -53.4079         162.429         -53.4064         162.429       -0.0151668         145.892
0.577                   -1.35338        -162.092         -53.3005         159.796         -53.2989         159.797        -0.015318         145.818
0.578                   -1.37769        -162.721         -53.1936         157.171          -53.192         157.172       -0.0154707         145.745
0.579                   -1.40271        -163.358         -53.0872         154.555         -53.0856         154.555       -0.0156248         145.671
0.58                     -1.4285            -164         -52.9812         151.946         -52.9796         151.947       -0.0157803         145.598
0.581                    -1.4551        -164.649         -52.8757         149.345         -52.8741         149.346        -0.015937         145.524
0.582                   -1.48259        -165.304         -52.7704         146.753         -52.7688         146.754       -0.0160949          145.45
0.583                   -1.51098        -165.965         -52.6655         144.169         -52.6639          144.17       -0.0162536         145.375
0.584                   -1.54034        -166.631         -52.5608         141.594         -52.5592         141.595        -0.016413         145.301
0.585                    -1.5707        -167.302         -52.4563         139.027         -52.4548         139.028       -0.0165726         145.227
0.586                   -1.60207        -167.978          -52.352         136.468         -52.3506          136.47       -0.0167319         145.152
0.587                   -1.63449        -168.659         -52.2478         133.918         -52.2465          133.92       -0.0168905         145.077
0.588                   -1.66799        -169.344         -52.1438         131.376         -52.1425         131.378       -0.0170477         145.002
0.589                   -1.70256        -170.034         -52.0399         128.842         -52.0387         128.844       -0.0172033         144.927
0.59                    -1.73823        -170.727         -51.9361         126.316          -51.935         126.318       -0.0173579         144.852
0.591                     -1.775        -171.423         -51.8323         123.798         -51.8313           123.8       -0.0175131         144.776
0.592                   -1.81288        -172.123         -51.7287         121.287         -51.7278         121.289       -0.0176716         144.701
0.593                   -1.85187        -172.826         -51.6251         118.783         -51.6243         118.786        -0.017837         144.625
0.594                   -1.89196        -173.531         -51.5215         116.287         -51.5209         116.289       -0.0180115         144.549
0.595                   -1.93317        -174.239         -51.4181         113.797         -51.4175         113.799        -0.018196         144.473
0.596                   -1.97548         -174.95         -51.3147         111.313         -51.3143         111.316       -0.0183889         144.397
0.597                   -2.01889        -175.662         -51.2114         108.836         -51.2111         108.838       -0.0185884         144.321
0.598                   -2.06339        -176.377         -51.1082         106.364         -51.1081         106.366       -0.0187923         144.244
0.599                   -2.10897        -177.093         -51.0051         103.897         -51.0052         103.899       -0.0189993         144.167
0.6                     -2.15562        -177.811         -50.9021         101.436         -50.9024         101.437       -0.0192084          144.09
0.601                   -2.20334         -178.53         -50.7993         98.9783         -50.7997           98.98       -0.0194194         144.013
0.602                   -2.25212        -179.251         -50.6967         96.5252         -50.6973         96.5266       -0.0196319         143.935
0.603                   -2.30194        -179.972         -50.5943         94.0756          -50.595         94.0767       -0.0198461         143.858
0.604                   -2.35279         179.305         -50.4921         91.6292          -50.493           91.63        -0.020062          143.78
0.605                   -2.40466         178.582         -50.3901         89.1855         -50.3913         89.1859       -0.0202797         143.702
0.606                   -2.45755         177.857         -50.2885          86.744         -50.2898         86.7439       -0.0204994         143.623
0.607                   -2.51144         177.132         -50.1872         84.3043         -50.1887         84.3037       -0.0207212         143.545
0.608                   -2.56632         176.407         -50.0863         81.8658          -50.088         81.8647       -0.0209452         143.466
0.609                   -2.62218         175.681         -49.9858         79.4281         -49.9877         79.4265       -0.0211716         143.387
0.61                    -2.67901         174.955         -49.8857         76.9908         -49.8878         76.9885       -0.0214004         143.308
0.611                   -2.73681         174.229         -49.7862         74.5532         -49.7884         74.5503       -0.0216318         143.229
0.612                   -2.79556         173.503         -49.6871          72.115         -49.6895         72.1114       -0.0218658         143.149
0.613                   -2.85525         172.777         -49.5886         69.6756         -49.5912         69.6713       -0.0221025          143.07
0.614                   -2.91588         172.051         -49.4908         67.2346         -49.4935         67.2296        -0.022342          142.99
0.615                   -2.97745         171.325         -49.3936         64.7916         -49.3965         64.7858       -0.0225845         142.909
0.616                   -3.03994           170.6          -49.297          62.346         -49.3001         62.3394       -0.0228299         142.829
0.617                   -3.10335         169.875         -49.2013         59.8974         -49.2045         59.8899       -0.0230783         142.748
0.618                   -3.16768          169.15         -49.1063         57.4454         -49.1096         57.4371       -0.0233299         142.667
0.619                   -3.23292         168.426         -49.0121         54.9895         -49.0155         54.9804       -0.0235846         142.586
0.62                    -3.29908         167.703         -48.9187         52.5294         -48.9223         52.5194       -0.0238427         142.505
0.621                   -3.36616         166.981         -48.8263         50.0647           -48.83         50.0538        -0.024104         142.423
0.622                   -3.43415         166.259         -48.7348         47.5949         -48.7385         47.5831       -0.0243688         142.341
0.623                   -3.50307         165.539         -48.6442         45.1199         -48.6481         45.1072        -0.024637         142.259
0.624                   -3.57291         164.819         -48.5547         42.6391         -48.5586         42.6255       -0.0249087         142.177
0.625                   -3.64369         164.101         -48.4662         40.1524         -48.4702          40.138       -0.0251841         142.094
0.626                    -3.7154         163.384         -48.3787         37.6594         -48.3827         37.6441       -0.0254632         142.011
0.627                   -3.78806         162.667         -48.2923           35.16         -48.2964         35.1439        -0.025746         141.928
0.628                   -3.86169         161.953          -48.207         32.6539         -48.2112         32.6369       -0.0260327         141.845
0.629                   -3.93629         161.239         -48.1229         30.1408          -48.127         30.1231       -0.0263232         141.761
