! TOUCHSTONE file generated by CST MICROWAVE STUDIO
! Date and time: Mon Oct 26 12:05:28 2020
! Project name: Scenario_1_Circular_Tissue_out_of_Line_v2.cst
! Parameters = {dy1=-224.9; L_HA=400; MT=2.54; Rad_Dielectric=30; Rad_Lower=7.3; Rad_Upper=30; a_HA=580; a_WG=246; b_HA=500; b_WG=121; c_HA=0; c_WG=187; d_feed=85; dx1=173; h_feed=15; h_lower=18; h_upper=40}
! Header version: 2018
! Port assignment regex: !\s*Touchstone port\s*([0-9]+)\s*=\s*(CST MWS port|CST DS port)\s*([0-9]+|Zmin|Zmax)\s*\(\"(.*)\"\)(\s*mode\s*([0-9]+))?.*
! Touchstone port assignment:
! Touchstone port 1 = CST MWS port 1 ("")
! Touchstone port 2 = CST MWS port 2 ("")
# GHz S DB R 50
0.5                    -0.136387        -122.562         -60.3387         119.712         -60.3387         119.712      -0.00677111         151.129
0.501                  -0.148643        -123.016         -60.1013         118.268         -60.1016         118.269       -0.0068299         151.064
0.502                  -0.161012         -123.47         -59.8661         116.819         -59.8668          116.82      -0.00689013         150.998
0.503                  -0.173491        -123.924         -59.6333         115.364         -59.6342         115.366      -0.00695178         150.933
0.504                  -0.186079        -124.379         -59.4028         113.903          -59.404         113.905      -0.00701485         150.867
0.505                  -0.198772        -124.835         -59.1745         112.435         -59.1759         112.438      -0.00707934         150.801
0.506                  -0.211568        -125.291         -58.9485         110.961         -58.9501         110.964      -0.00714525         150.736
0.507                  -0.224465        -125.747         -58.7246          109.48         -58.7264         109.484      -0.00721257          150.67
0.508                  -0.237461        -126.204          -58.503         107.993          -58.505         107.997      -0.00728129         150.604
0.509                  -0.250552        -126.662         -58.2835         106.498         -58.2857         106.503      -0.00735142         150.538
0.51                   -0.263738         -127.12         -58.0663         104.997         -58.0686         105.002      -0.00742295         150.472
0.511                  -0.277015        -127.579         -57.8512         103.488         -57.8536         103.494      -0.00749588         150.405
0.512                  -0.290382        -128.038         -57.6382         101.973         -57.6408         101.979      -0.00757021         150.339
0.513                  -0.303836        -128.499         -57.4274          100.45         -57.4301         100.456      -0.00764593         150.273
0.514                  -0.317377         -128.96         -57.2188         98.9195         -57.2216         98.9263      -0.00772303         150.206
0.515                  -0.331001        -129.421         -57.0123          97.382         -57.0151         97.3893      -0.00780153          150.14
0.516                  -0.344708        -129.884          -56.808         95.8372         -56.8108         95.8449      -0.00788141         150.073
0.517                  -0.358495        -130.347         -56.6057         94.2852         -56.6087         94.2933      -0.00796268         150.006
0.518                  -0.372361        -130.811         -56.4057         92.7259         -56.4086         92.7344      -0.00804532          149.94
0.519                  -0.386304        -131.276         -56.2078         91.1594         -56.2107         91.1683      -0.00812935         149.873
0.52                   -0.400323        -131.742          -56.012         89.5858          -56.015          89.595      -0.00821476         149.806
0.521                  -0.414417        -132.209         -55.8183          88.005         -55.8213         88.0146      -0.00830155         149.739
0.522                  -0.428585        -132.677         -55.6268         86.4173         -55.6298         86.4271      -0.00838971         149.672
0.523                  -0.442825        -133.146         -55.4375         84.8226         -55.4405         84.8328      -0.00847925         149.605
0.524                  -0.457136        -133.616         -55.2503         83.2211         -55.2532         83.2315      -0.00857017         149.537
0.525                  -0.471518        -134.087         -55.0652         81.6129         -55.0682         81.6236      -0.00866247          149.47
0.526                  -0.485969         -134.56         -54.8823         79.9982         -54.8852          80.009      -0.00875614         149.403
0.527                   -0.50049        -135.033         -54.7016          78.377         -54.7044         78.3881      -0.00885118         149.335
0.528                  -0.515079        -135.508          -54.523         76.7496         -54.5258         76.7608       -0.0089476         149.267
0.529                  -0.529737        -135.984         -54.3466          75.116         -54.3493         75.1273       -0.0090454           149.2
0.53                   -0.544463        -136.462         -54.1723         73.4765          -54.175          73.488      -0.00914458         149.132
0.531                  -0.559257        -136.941         -54.0002         71.8313         -54.0028         71.8428      -0.00924514         149.064
0.532                  -0.574119        -137.421         -53.8303         70.1805         -53.8328         70.1921      -0.00934707         148.996
0.533                  -0.589049        -137.903         -53.6625         68.5243         -53.6649         68.5359      -0.00945039         148.928
0.534                  -0.604048        -138.386         -53.4969          66.863         -53.4992         66.8747      -0.00955509          148.86
0.535                  -0.619117        -138.872         -53.3334         65.1968         -53.3357         65.2084      -0.00966118         148.792
0.536                  -0.634256        -139.358         -53.1721         63.5259         -53.1742         63.5374      -0.00976865         148.723
0.537                  -0.649465        -139.847         -53.0129         61.8505          -53.015          61.862      -0.00987752         148.655
0.538                  -0.664748        -140.337         -52.8559         60.1709         -52.8578         60.1823      -0.00998778         148.586
0.539                  -0.680103        -140.829         -52.7009         58.4873         -52.7028         58.4985       -0.0100994         148.518
0.54                   -0.695534        -141.323         -52.5481            56.8           -52.55          56.811       -0.0102125         148.449
0.541                  -0.711042        -141.819         -52.3975         55.1091         -52.3992           55.12       -0.0103269          148.38
0.542                  -0.726628        -142.317         -52.2489         53.4151         -52.2505         53.4257       -0.0104428         148.311
0.543                  -0.742296        -142.817         -52.1024          51.718         -52.1039         51.7284       -0.0105601         148.242
0.544                  -0.758047        -143.319          -51.958         50.0182         -51.9594         50.0284       -0.0106787         148.173
0.545                  -0.773884        -143.823         -51.8156         48.3159          -51.817         48.3258       -0.0107989         148.104
0.546                  -0.789811         -144.33         -51.6753         46.6114         -51.6766          46.621       -0.0109204         148.034
0.547                   -0.80583        -144.839         -51.5371          44.905         -51.5382         44.9143       -0.0110433         147.965
0.548                  -0.821944         -145.35         -51.4008         43.1968         -51.4019         43.2058       -0.0111677         147.895
0.549                  -0.838159        -145.864         -51.2665         41.4872         -51.2675         41.4959       -0.0112936         147.825
0.55                   -0.854477         -146.38         -51.1342         39.7764         -51.1351         39.7847       -0.0114208         147.756
0.551                  -0.870904        -146.899         -51.0038         38.0646         -51.0047         38.0726       -0.0115496         147.686
0.552                  -0.887444        -147.421         -50.8754         36.3522         -50.8762         36.3597       -0.0116797         147.616
0.553                  -0.904101        -147.945         -50.7488         34.6392         -50.7495         34.6464       -0.0118114         147.546
0.554                  -0.920883        -148.472         -50.6242          32.926         -50.6248         32.9328       -0.0119445         147.475
0.555                  -0.937793        -149.002         -50.5013         31.2128         -50.5019         31.2192       -0.0120791         147.405
0.556                  -0.954839        -149.535         -50.3803         29.4999         -50.3808         29.5058       -0.0122152         147.334
0.557                  -0.972027        -150.071         -50.2611         27.7873         -50.2615         27.7929       -0.0123528         147.264
0.558                  -0.989365         -150.61         -50.1437         26.0754          -50.144         26.0806       -0.0124919         147.193
0.559                   -1.00686        -151.153         -50.0279         24.3644         -50.0282         24.3691       -0.0126325         147.122
0.56                    -1.02452        -151.698         -49.9139         22.6544         -49.9141         22.6587       -0.0127747         147.051
0.561                   -1.04235        -152.247         -49.8015         20.9456         -49.8017         20.9496       -0.0129183          146.98
0.562                   -1.06036          -152.8         -49.6908         19.2383          -49.691         19.2418       -0.0130635         146.909
0.563                   -1.07856        -153.356         -49.5817         17.5326         -49.5818         17.5357       -0.0132103         146.838
0.564                   -1.09696        -153.915         -49.4742         15.8286         -49.4742         15.8314       -0.0133586         146.766
0.565                   -1.11557        -154.478         -49.3682         14.1266         -49.3682         14.1289       -0.0135085         146.695
0.566                   -1.13441        -155.045         -49.2637         12.4267         -49.2637         12.4286         -0.01366         146.623
0.567                   -1.15348        -155.616         -49.1606          10.729         -49.1606         10.7306       -0.0138131         146.551
0.568                   -1.17279        -156.191         -49.0591         9.03365          -49.059         9.03486       -0.0139678         146.479
0.569                   -1.19236         -156.77         -48.9589         7.34082         -48.9588         7.34167       -0.0141242         146.407
0.57                    -1.21219        -157.353         -48.8601         5.65061           -48.86         5.65112       -0.0142821         146.335
0.571                   -1.23232         -157.94         -48.7626         3.96313         -48.7625         3.96331       -0.0144417         146.262
0.572                   -1.25274        -158.532         -48.6665          2.2785         -48.6664         2.27837        -0.014603          146.19
0.573                   -1.27348        -159.127         -48.5716        0.596822         -48.5715        0.596386        -0.014766         146.117
0.574                   -1.29454        -159.728          -48.478        -1.08182         -48.4779        -1.08254       -0.0149307         146.044
0.575                   -1.31595        -160.333         -48.3856        -2.75733         -48.3854        -2.75833        -0.015097         145.972
0.576                   -1.33773        -160.942         -48.2944        -4.42963         -48.2942        -4.43089       -0.0152651         145.898
0.577                   -1.35989        -161.556         -48.2043        -6.09865         -48.2041        -6.10015        -0.015435         145.825
0.578                   -1.38245        -162.175         -48.1153        -7.76431         -48.1151        -7.76605       -0.0156066         145.752
0.579                   -1.40542        -162.799         -48.0274        -9.42657         -48.0273        -9.42851         -0.01578         145.678
0.58                    -1.42884        -163.428         -47.9406        -11.0853         -47.9404        -11.0875       -0.0159551         145.605
0.581                   -1.45273        -164.062         -47.8548        -12.7406         -47.8546        -12.7429       -0.0161321         145.531
0.582                    -1.4771        -164.701           -47.77        -14.3923         -47.7699        -14.3948        -0.016311         145.457
0.583                   -1.50197        -165.345         -47.6862        -16.0404          -47.686         -16.043       -0.0164917         145.383
0.584                   -1.52738        -165.994         -47.6033        -17.6848         -47.6032        -17.6876       -0.0166742         145.308
0.585                   -1.55335        -166.649         -47.5213        -19.3256         -47.5212        -19.3285       -0.0168587         145.234
0.586                    -1.5799        -167.309         -47.4403        -20.9626         -47.4401        -20.9656       -0.0170451         145.159
0.587                   -1.60706        -167.975         -47.3601        -22.5959           -47.36         -22.599       -0.0172334         145.085
0.588                   -1.63486        -168.647         -47.2807        -24.2254         -47.2806        -24.2286       -0.0174237          145.01
0.589                   -1.66333        -169.323         -47.2022        -25.8512         -47.2021        -25.8544       -0.0176159         144.935
0.59                     -1.6925        -170.006         -47.1244        -27.4732         -47.1243        -27.4765       -0.0178102         144.859
0.591                    -1.7224        -170.694         -47.0474        -29.0913         -47.0473        -29.0947       -0.0180065         144.784
0.592                   -1.75306        -171.389         -46.9712        -30.7057         -46.9711         -30.709       -0.0182049         144.708
0.593                   -1.78452        -172.088         -46.8957        -32.3162         -46.8956        -32.3196       -0.0184054         144.633
0.594                   -1.81681        -172.794         -46.8208        -33.9229         -46.8208        -33.9263        -0.018608         144.557
0.595                   -1.84996        -173.506         -46.7467        -35.5257         -46.7467        -35.5291       -0.0188128          144.48
0.596                   -1.88402        -174.224         -46.6733        -37.1247         -46.6732         -37.128       -0.0190197         144.404
0.597                   -1.91902        -174.947         -46.6004        -38.7199         -46.6004        -38.7232       -0.0192288         144.328
0.598                     -1.955        -175.677         -46.5283        -40.3111         -46.5283        -40.3144       -0.0194402         144.251
0.599                     -1.992        -176.412         -46.4567        -41.8986         -46.4567        -41.9018       -0.0196538         144.174
0.6                     -2.03006        -177.154         -46.3857        -43.4821         -46.3857        -43.4853       -0.0198698         144.097
0.601                   -2.06923        -177.901         -46.3153        -45.0619         -46.3153        -45.0649       -0.0200881          144.02
0.602                   -2.10954        -178.655         -46.2454        -46.6377         -46.2455        -46.6407       -0.0203088         143.942
0.603                   -2.15105        -179.414         -46.1761        -48.2097         -46.1762        -48.2127       -0.0205319         143.865
0.604                   -2.19379         179.821         -46.1073        -49.7779         -46.1074        -49.7807       -0.0207574         143.787
0.605                   -2.23782          179.05         -46.0391        -51.3421         -46.0391        -51.3449       -0.0209854         143.709
0.606                   -2.28317         178.273         -45.9713        -52.9026         -45.9714        -52.9052        -0.021216         143.631
0.607                   -2.32991         177.491          -45.904        -54.4591         -45.9041        -54.4617       -0.0214491         143.552
0.608                   -2.37808         176.703         -45.8372        -56.0118         -45.8373        -56.0143       -0.0216849         143.474
0.609                   -2.42772         175.909         -45.7709        -57.5607          -45.771         -57.563       -0.0219233         143.395
0.61                     -2.4789          175.11          -45.705        -59.1056          -45.705        -59.1079       -0.0221644         143.316
0.611                   -2.53165         174.306         -45.6395        -60.6467         -45.6396        -60.6489       -0.0224082         143.237
0.612                   -2.58604         173.497         -45.5744        -62.1839         -45.5745         -62.186       -0.0226549         143.157
0.613                   -2.64211         172.683         -45.5098        -63.7173         -45.5099        -63.7192       -0.0229044         143.077
0.614                   -2.69992         171.864         -45.4455        -65.2467         -45.4456        -65.2486       -0.0231568         142.998
0.615                   -2.75952          171.04         -45.3817        -66.7723         -45.3818         -66.774       -0.0234121         142.917
0.616                   -2.82097         170.212         -45.3182         -68.294         -45.3183        -68.2956       -0.0236705         142.837
0.617                   -2.88431          169.38          -45.255        -69.8117         -45.2551        -69.8132        -0.023932         142.756
0.618                    -2.9496         168.544         -45.1923        -71.3256         -45.1924         -71.327       -0.0241965         142.676
0.619                   -3.01689         167.705         -45.1298        -72.8355         -45.1299        -72.8368       -0.0244643         142.595
0.62                    -3.08624         166.862         -45.0677        -74.3415         -45.0678        -74.3427       -0.0247352         142.513
0.621                   -3.15769         166.016         -45.0059        -75.8436          -45.006        -75.8447       -0.0250095         142.432
0.622                   -3.23131         165.168         -44.9445        -77.3417         -44.9446        -77.3427       -0.0252872          142.35
0.623                   -3.30713         164.317         -44.8833        -78.8358         -44.8834        -78.8367       -0.0255683         142.268
0.624                   -3.38521         163.464         -44.8224         -80.326         -44.8225        -80.3268       -0.0258529         142.186
0.625                    -3.4656          162.61         -44.7618        -81.8121         -44.7619        -81.8129       -0.0261411         142.103
0.626                   -3.54835         161.754         -44.7014        -83.2943         -44.7015         -83.295        -0.026433          142.02
0.627                    -3.6335         160.898         -44.6413        -84.7725         -44.6414        -84.7731       -0.0267286         141.937
0.628                   -3.72109         160.041         -44.5815        -86.2466         -44.5816        -86.2472        -0.027028         141.854
0.629                   -3.81118         159.185         -44.5219        -87.7167          -44.522        -87.7172       -0.0273313          141.77
