! TOUCHSTONE file generated by CST MICROWAVE STUDIO
! Date and time: Wed Oct 28 19:34:32 2020
! Project name: Scenario_1_Circular_Tissue_out_of_Line_v2.cst
! Parameters = {dy1=-224.9; L_HA=400; MT=2.54; Rad_Dielectric=30; Rad_Lower=7.3; Rad_Upper=30; a_HA=580; a_WG=246; b_HA=500; b_WG=121; c_HA=0; c_WG=187; d_feed=85; dx1=346; h_feed=15; h_lower=18; h_upper=40}
! Header version: 2018
! Port assignment regex: !\s*Touchstone port\s*([0-9]+)\s*=\s*(CST MWS port|CST DS port)\s*([0-9]+|Zmin|Zmax)\s*\(\"(.*)\"\)(\s*mode\s*([0-9]+))?.*
! Touchstone port assignment:
! Touchstone port 1 = CST MWS port 1 ("")
! Touchstone port 2 = CST MWS port 2 ("")
# GHz S DB R 50
0.5                     -0.15313        -122.279         -60.9614         10.0993         -60.9614         10.0993      -0.00803304         151.141
0.501                  -0.157434        -122.712         -60.8421          8.6747         -60.8425         8.67526      -0.00809615         151.076
0.502                  -0.161851        -123.147         -60.7227         7.25098         -60.7235         7.25221      -0.00815962          151.01
0.503                  -0.166385        -123.585         -60.6031         5.82822         -60.6042         5.83022      -0.00822346         150.945
0.504                  -0.171042        -124.025         -60.4834         4.40653         -60.4848         4.40938      -0.00828767          150.88
0.505                  -0.175826        -124.467         -60.3635         2.98603         -60.3651         2.98977      -0.00835226         150.814
0.506                  -0.180742        -124.912         -60.2434         1.56678         -60.2452         1.57147      -0.00841724         150.749
0.507                  -0.185797         -125.36         -60.1231        0.148867         -60.1251        0.154533      -0.00848263         150.683
0.508                  -0.190996         -125.81         -60.0025        -1.26766         -60.0047          -1.261      -0.00854841         150.617
0.509                  -0.196346        -126.263         -59.8817        -2.68275         -59.8839        -2.67511      -0.00861462         150.552
0.51                   -0.201852        -126.719         -59.7605        -4.09639         -59.7629        -4.08778      -0.00868125         150.486
0.511                  -0.207522        -127.177         -59.6391        -5.50856         -59.6415        -5.49901      -0.00874831          150.42
0.512                  -0.213362        -127.638         -59.5173        -6.91928         -59.5197        -6.90882      -0.00881582         150.354
0.513                  -0.219379        -128.102         -59.3951        -8.32857         -59.3975        -8.31724      -0.00888379         150.288
0.514                  -0.225581        -128.568         -59.2725        -9.73647         -59.2749        -9.72434      -0.00895221         150.222
0.515                  -0.231976        -129.038         -59.1495         -11.143         -59.1518        -11.1302      -0.00902112         150.156
0.516                  -0.238571         -129.51          -59.026        -12.5484         -59.0282        -12.5348      -0.00909051         150.089
0.517                  -0.245375        -129.986          -58.902        -13.9525         -58.9042        -13.9384      -0.00916039         150.023
0.518                  -0.252397        -130.464         -58.7775        -15.3557         -58.7796        -15.3411      -0.00923079         149.956
0.519                  -0.259645        -130.945         -58.6525        -16.7579         -58.6544        -16.7429       -0.0093017          149.89
0.52                   -0.267128        -131.429         -58.5268        -18.1594         -58.5287         -18.144      -0.00937315         149.823
0.521                  -0.274857        -131.916         -58.4006        -19.5603         -58.4023        -19.5447      -0.00944515         149.756
0.522                  -0.282842        -132.407         -58.2738        -20.9608         -58.2753         -20.945       -0.0095177         149.689
0.523                  -0.291091          -132.9         -58.1463        -22.3611         -58.1477        -22.3452      -0.00959083         149.623
0.524                  -0.299617        -133.396         -58.0181        -23.7614         -58.0194        -23.7456      -0.00966454         149.555
0.525                   -0.30843        -133.896         -57.8893        -25.1619         -57.8904        -25.1462      -0.00973886         149.488
0.526                  -0.317542        -134.398         -57.7598         -26.563         -57.7607        -26.5475      -0.00981379         149.421
0.527                  -0.326963        -134.904         -57.6295        -27.9648         -57.6303        -27.9495      -0.00988936         149.354
0.528                  -0.336707        -135.413         -57.4985        -29.3676         -57.4992        -29.3527      -0.00996557         149.286
0.529                  -0.346785        -135.925         -57.3668        -30.7717         -57.3673        -30.7572       -0.0100424         149.219
0.53                   -0.357211        -136.441         -57.2343        -32.1774         -57.2346        -32.1634         -0.01012         149.151
0.531                  -0.367997        -136.959         -57.1011         -33.585         -57.1013        -33.5715       -0.0101983         149.084
0.532                  -0.379156        -137.481          -56.967        -34.9949         -56.9671        -34.9819       -0.0102772         149.016
0.533                  -0.390703        -138.006         -56.8323        -36.4073         -56.8322         -36.395       -0.0103569         148.948
0.534                  -0.402651        -138.534         -56.6967        -37.8225         -56.6966        -37.8109       -0.0104374          148.88
0.535                  -0.415015        -139.065         -56.5604         -39.241         -56.5602        -39.2301       -0.0105186         148.812
0.536                  -0.427809          -139.6         -56.4234         -40.663         -56.4231        -40.6528       -0.0106007         148.744
0.537                  -0.441049        -140.137         -56.2856         -42.089         -56.2852        -42.0794       -0.0106835         148.676
0.538                  -0.454748        -140.678         -56.1471        -43.5191         -56.1466        -43.5103       -0.0107672         148.607
0.539                  -0.468924        -141.222         -56.0079        -44.9539         -56.0073        -44.9458       -0.0108518         148.539
0.54                    -0.48359        -141.769          -55.868        -46.3935         -55.8674        -46.3862       -0.0109372          148.47
0.541                  -0.498764        -142.319         -55.7274        -47.8385         -55.7268        -47.8319       -0.0110236         148.401
0.542                  -0.514459        -142.872         -55.5862         -49.289         -55.5855        -49.2831       -0.0111109         148.333
0.543                  -0.530693        -143.429         -55.4444        -50.7455         -55.4437        -50.7403       -0.0111991         148.264
0.544                  -0.547481        -143.988          -55.302        -52.2082         -55.3013        -52.2037       -0.0112883         148.195
0.545                  -0.564839         -144.55          -55.159        -53.6775         -55.1583        -53.6736       -0.0113786         148.126
0.546                  -0.582783        -145.115         -55.0156        -55.1537         -55.0149        -55.1504       -0.0114699         148.056
0.547                  -0.601327        -145.682         -54.8717        -56.6371         -54.8711        -56.6343       -0.0115622         147.987
0.548                  -0.620488        -146.253         -54.7274        -58.1279         -54.7268        -58.1256       -0.0116557         147.917
0.549                  -0.640281        -146.826         -54.5828        -59.6264         -54.5822        -59.6246       -0.0117502         147.848
0.55                    -0.66072        -147.401         -54.4378        -61.1329         -54.4372        -61.1316        -0.011846         147.778
0.551                  -0.681819        -147.979         -54.2926        -62.6477          -54.292        -62.6467       -0.0119429         147.708
0.552                  -0.703591        -148.559         -54.1472        -64.1708         -54.1467        -64.1701        -0.012041         147.638
0.553                  -0.726051        -149.142         -54.0017        -65.7026         -54.0012        -65.7022       -0.0121404         147.568
0.554                   -0.74921        -149.727          -53.856        -67.2431         -53.8556        -67.2429       -0.0122411         147.498
0.555                   -0.77308        -150.313         -53.7104        -68.7926           -53.71        -68.7926       -0.0123431         147.428
0.556                  -0.797671        -150.902         -53.5648        -70.3511         -53.5644        -70.3513       -0.0124465         147.357
0.557                  -0.822994        -151.492         -53.4194        -71.9188          -53.419        -71.9191       -0.0125512         147.287
0.558                  -0.849055        -152.084         -53.2741        -73.4957         -53.2738        -73.4961       -0.0126574         147.216
0.559                  -0.875863        -152.678         -53.1291        -75.0819         -53.1288        -75.0823       -0.0127651         147.145
0.56                   -0.903423        -153.273         -52.9844        -76.6774         -52.9842        -76.6778       -0.0128742         147.075
0.561                   -0.93174        -153.869         -52.8401        -78.2822         -52.8399        -78.2825       -0.0129849         147.004
0.562                  -0.960816        -154.466         -52.6963        -79.8963         -52.6961        -79.8965       -0.0130971         146.932
0.563                  -0.990654        -155.063          -52.553        -81.5195         -52.5529        -81.5196        -0.013211         146.861
0.564                   -1.02125        -155.662         -52.4103        -83.1518         -52.4102        -83.1518       -0.0133265          146.79
0.565                   -1.05261        -156.261         -52.2683        -84.7931         -52.2682        -84.7929       -0.0134437         146.718
0.566                   -1.08472        -156.861          -52.127        -86.4432          -52.127        -86.4428       -0.0135626         146.646
0.567                   -1.11757         -157.46         -51.9866        -88.1019         -51.9866        -88.1013       -0.0136832         146.574
0.568                   -1.15117         -158.06          -51.847         -89.769          -51.847        -89.7683       -0.0138057         146.502
0.569                    -1.1855         -158.66         -51.7084        -91.4442         -51.7084        -91.4433         -0.01393          146.43
0.57                    -1.22054        -159.259         -51.5708        -93.1274         -51.5708        -93.1263       -0.0140561         146.358
0.571                   -1.25628        -159.858         -51.4343        -94.8181         -51.4343        -94.8168       -0.0141842         146.286
0.572                   -1.29272        -160.456         -51.2988        -96.5161         -51.2989        -96.5146       -0.0143142         146.213
0.573                   -1.32982        -161.054         -51.1646         -98.221         -51.1646        -98.2194       -0.0144462         146.141
0.574                   -1.36756        -161.651         -51.0315        -99.9325         -51.0315        -99.9307       -0.0145802         146.068
0.575                   -1.40594        -162.246         -50.8998         -101.65         -50.8998        -101.648       -0.0147162         145.995
0.576                   -1.44491        -162.841         -50.7693        -103.374         -50.7693        -103.371       -0.0148543         145.922
0.577                   -1.48446        -163.435         -50.6402        -105.102         -50.6401          -105.1       -0.0149945         145.848
0.578                   -1.52456        -164.027         -50.5124        -106.836         -50.5123        -106.834       -0.0151369         145.775
0.579                   -1.56517        -164.618          -50.386        -108.574          -50.386        -108.572       -0.0152814         145.701
0.58                    -1.60627        -165.208         -50.2611        -110.316          -50.261        -110.314       -0.0154282         145.628
0.581                   -1.64783        -165.796         -50.1376        -112.062         -50.1375        -112.059       -0.0155771         145.554
0.582                   -1.68981        -166.383         -50.0155         -113.81         -50.0154        -113.808       -0.0157283          145.48
0.583                   -1.73219        -166.968         -49.8949        -115.562         -49.8948        -115.559       -0.0158818         145.406
0.584                   -1.77492        -167.552         -49.7758        -117.315         -49.7757        -117.312       -0.0160376         145.331
0.585                   -1.81798        -168.135         -49.6582         -119.07          -49.658        -119.067       -0.0161957         145.257
0.586                   -1.86133        -168.717          -49.542        -120.826         -49.5418        -120.824       -0.0163562         145.182
0.587                   -1.90494        -169.297         -49.4272        -122.583          -49.427        -122.581        -0.016519         145.107
0.588                   -1.94877        -169.876         -49.3139         -124.34         -49.3137        -124.338       -0.0166842         145.032
0.589                    -1.9928        -170.454          -49.202        -126.097         -49.2017        -126.095       -0.0168519         144.957
0.59                    -2.03699        -171.032         -49.0914        -127.853         -49.0912        -127.851       -0.0170219         144.882
0.591                   -2.08131        -171.608         -48.9822        -129.609          -48.982        -129.607       -0.0171944         144.806
0.592                   -2.12574        -172.185         -48.8744        -131.363         -48.8742        -131.361       -0.0173694         144.731
0.593                   -2.17026        -172.761         -48.7679        -133.115         -48.7676        -133.113       -0.0175469         144.655
0.594                   -2.21483        -173.337         -48.6626        -134.865         -48.6623        -134.863       -0.0177268         144.579
0.595                   -2.25944        -173.913         -48.5585        -136.612         -48.5583        -136.611       -0.0179093         144.503
0.596                   -2.30406        -174.489         -48.4556        -138.357         -48.4553        -138.356       -0.0180942         144.426
0.597                   -2.34869        -175.067         -48.3538        -140.099         -48.3536        -140.098       -0.0182817          144.35
0.598                   -2.39332        -175.645          -48.253        -141.837         -48.2529        -141.836       -0.0184718         144.273
0.599                   -2.43792        -176.225         -48.1534        -143.572         -48.1532        -143.571       -0.0186644         144.196
0.6                     -2.48249        -176.806         -48.0546        -145.303         -48.0545        -145.302       -0.0188596         144.119
0.601                   -2.52704        -177.389         -47.9569         -147.03         -47.9567         -147.03       -0.0190575         144.042
0.602                   -2.57156        -177.974         -47.8599        -148.754         -47.8598        -148.753       -0.0192579         143.964
0.603                   -2.61605        -178.562         -47.7638        -150.472         -47.7637        -150.472        -0.019461         143.886
0.604                   -2.66052        -179.153         -47.6685        -152.187         -47.6684        -152.186       -0.0196667         143.808
0.605                   -2.70498        -179.747         -47.5738        -153.897         -47.5738        -153.896       -0.0198751          143.73
0.606                   -2.74945         179.656         -47.4798        -155.602         -47.4798        -155.602       -0.0200862         143.652
0.607                   -2.79394         179.054         -47.3865        -157.303         -47.3864        -157.303          -0.0203         143.574
0.608                   -2.83846         178.449         -47.2936        -158.999         -47.2936        -158.999       -0.0205165         143.495
0.609                   -2.88306         177.839         -47.2013        -160.691         -47.2013        -160.691       -0.0207358         143.416
0.61                    -2.92774         177.224         -47.1094        -162.378         -47.1094        -162.378       -0.0209579         143.337
0.611                   -2.97255         176.604         -47.0179        -164.061         -47.0179        -164.061       -0.0211828         143.258
0.612                   -3.01751         175.979         -46.9267        -165.739         -46.9268        -165.739       -0.0214106         143.178
0.613                   -3.06266         175.348         -46.8359        -167.413         -46.8359        -167.413       -0.0216413         143.098
0.614                   -3.10805         174.711         -46.7452        -169.083         -46.7453        -169.083       -0.0218749         143.018
0.615                    -3.1537         174.068         -46.6549        -170.748         -46.6549        -170.748       -0.0221114         142.938
0.616                   -3.19967         173.419         -46.5646         -172.41         -46.5647        -172.409        -0.022351         142.858
0.617                   -3.24601         172.762         -46.4746        -174.067         -46.4747        -174.067       -0.0225936         142.777
0.618                   -3.29275         172.098         -46.3846        -175.721         -46.3847        -175.721       -0.0228393         142.696
0.619                   -3.33997         171.428         -46.2946        -177.372         -46.2948        -177.371       -0.0230881         142.615
0.62                     -3.3877         170.749         -46.2047        -179.018         -46.2049        -179.018       -0.0233402         142.534
0.621                   -3.43602         170.063         -46.1148         179.338          -46.115         179.338       -0.0235955         142.452
0.622                   -3.48497         169.369         -46.0249         177.697         -46.0251         177.698        -0.023854          142.37
0.623                   -3.53462         168.667         -45.9349         176.059         -45.9351          176.06        -0.024116         142.288
0.624                   -3.58503         167.957         -45.8449         174.424          -45.845         174.424       -0.0243814         142.206
0.625                   -3.63628         167.238         -45.7547         172.791         -45.7549         172.792       -0.0246503         142.123
0.626                   -3.68842         166.511         -45.6645          171.16         -45.6646         171.161       -0.0249227          142.04
0.627                   -3.74153         165.775         -45.5741         169.531         -45.5742         169.532       -0.0251988         141.957
0.628                   -3.79568          165.03         -45.4835         167.904         -45.4837         167.905       -0.0254785         141.874
0.629                   -3.85094         164.277         -45.3928         166.278          -45.393         166.279       -0.0257621          141.79
