! TOUCHSTONE file generated by CST MICROWAVE STUDIO
! Date and time: Fri Oct 30 07:49:55 2020
! Project name: Scenario_1_Circular_Tissue_out_of_Line.cst
! Parameters = {dy1=-224.613; L_HA=400; MT=2.54; Rad_Dielectric=30; Rad_Lower=7.3; Rad_Upper=30; a_HA=580; a_WG=246; b_HA=500; b_WG=121; c_HA=0; c_WG=187; d_feed=85; dx1=520; h_feed=15; h_lower=18; h_upper=40}
! Header version: 2018
! Port assignment regex: !\s*Touchstone port\s*([0-9]+)\s*=\s*(CST MWS port|CST DS port)\s*([0-9]+|Zmin|Zmax)\s*\(\"(.*)\"\)(\s*mode\s*([0-9]+))?.*
! Touchstone port assignment:
! Touchstone port 1 = CST MWS port 1 ("")
! Touchstone port 2 = CST MWS port 2 ("")
# GHz S DB R 50
0.5                    -0.140804        -122.496         -62.7765        -71.5794         -62.7765        -71.5794      -0.00730051         151.133
0.501                  -0.150428        -122.937         -62.5742         -73.016         -62.5749        -73.0254      -0.00737042         151.068
0.502                  -0.160157        -123.379          -62.371        -74.4746         -62.3723        -74.4928      -0.00744116         151.002
0.503                   -0.16999        -123.822         -62.1668        -75.9556         -62.1689        -75.9821      -0.00751274         150.937
0.504                  -0.179928        -124.266          -61.962        -77.4591         -61.9647        -77.4934      -0.00758516         150.871
0.505                  -0.189968        -124.712         -61.7564        -78.9857         -61.7599        -79.0271      -0.00765843         150.806
0.506                  -0.200111        -125.158         -61.5503        -80.5356         -61.5546        -80.5836      -0.00773255          150.74
0.507                  -0.210354        -125.605         -61.3438        -82.1091         -61.3488        -82.1632      -0.00780753         150.674
0.508                  -0.220698        -126.054          -61.137        -83.7064         -61.1427         -83.766      -0.00788337         150.608
0.509                  -0.231141        -126.503         -60.9299        -85.3278         -60.9364        -85.3923      -0.00796008         150.542
0.51                   -0.241683        -126.954         -60.7228        -86.9735           -60.73        -87.0423      -0.00803767         150.476
0.511                  -0.252323        -127.407         -60.5158        -88.6436         -60.5237        -88.7161      -0.00811614          150.41
0.512                   -0.26306         -127.86         -60.3089        -90.3382         -60.3176        -90.4139       -0.0081955         150.344
0.513                  -0.273895        -128.315         -60.1025        -92.0574         -60.1118        -92.1358      -0.00827575         150.278
0.514                  -0.284826        -128.771         -59.8965        -93.8013         -59.9066        -93.8817       -0.0083569         150.212
0.515                  -0.295852        -129.229         -59.6912        -95.5697          -59.702        -95.6516      -0.00843897         150.145
0.516                  -0.306975        -129.687         -59.4868        -97.3626         -59.4981        -97.4454      -0.00852194         150.079
0.517                  -0.318192        -130.148         -59.2833        -99.1798         -59.2953        -99.2631      -0.00860584         150.012
0.518                  -0.329505         -130.61          -59.081        -101.021         -59.0935        -101.104      -0.00869066         149.946
0.519                  -0.340913        -131.073           -58.88        -102.886         -58.8931        -102.969      -0.00877642         149.879
0.52                   -0.352416        -131.538         -58.6805        -104.775          -58.694        -104.856      -0.00886312         149.812
0.521                  -0.364013        -132.004         -58.4827        -106.686         -58.4966        -106.766      -0.00895077         149.745
0.522                  -0.375707        -132.472         -58.2866         -108.62          -58.301        -108.698      -0.00903938         149.678
0.523                  -0.387495        -132.942         -58.0926        -110.576         -58.1073        -110.651      -0.00912895         149.611
0.524                   -0.39938        -133.413         -57.9007        -112.552         -57.9157        -112.626       -0.0092195         149.544
0.525                  -0.411361        -133.887         -57.7111         -114.55         -57.7263         -114.62      -0.00931102         149.477
0.526                   -0.42344        -134.362          -57.524        -116.566         -57.5394        -116.633      -0.00940353          149.41
0.527                  -0.435617        -134.838         -57.3395        -118.602         -57.3549        -118.665      -0.00949704         149.342
0.528                  -0.447892        -135.317         -57.1577        -120.654         -57.1732        -120.714      -0.00959155         149.275
0.529                  -0.460268        -135.798         -56.9788        -122.724         -56.9942        -122.779      -0.00968708         149.207
0.53                   -0.472746         -136.28         -56.8028        -124.809         -56.8182         -124.86      -0.00978362         149.139
0.531                  -0.485326        -136.765           -56.63        -126.908         -56.6452        -126.955      -0.00988119         149.072
0.532                  -0.498012        -137.252         -56.4603        -129.019         -56.4753        -129.063       -0.0099798         149.004
0.533                  -0.510804        -137.741         -56.2938        -131.143         -56.3085        -131.182       -0.0100795         148.936
0.534                  -0.523705        -138.232         -56.1307        -133.277         -56.1451        -133.312       -0.0101802         148.868
0.535                  -0.536717        -138.725         -55.9709         -135.42         -55.9849         -135.45       -0.0102819           148.8
0.536                  -0.549843        -139.221         -55.8146         -137.57         -55.8281        -137.597       -0.0103848         148.731
0.537                  -0.563086        -139.718         -55.6617        -139.727         -55.6747        -139.749       -0.0104887         148.663
0.538                  -0.576448        -140.219         -55.5121        -141.888         -55.5246        -141.907       -0.0105937         148.595
0.539                  -0.589934        -140.722          -55.366        -144.053         -55.3779        -144.069       -0.0106998         148.526
0.54                   -0.603547        -141.227         -55.2233         -146.22         -55.2345        -146.232        -0.010807         148.458
0.541                  -0.617291        -141.735         -55.0839        -148.388         -55.0945        -148.397       -0.0109153         148.389
0.542                  -0.631171        -142.246         -54.9477        -150.555         -54.9577        -150.562       -0.0110248          148.32
0.543                  -0.645191         -142.76         -54.8148         -152.72          -54.824        -152.725       -0.0111353         148.251
0.544                  -0.659357        -143.276          -54.685        -154.883         -54.6935        -154.885        -0.011247         148.182
0.545                  -0.673674        -143.795         -54.5582        -157.042          -54.566        -157.042       -0.0113598         148.113
0.546                  -0.688148        -144.317         -54.4343        -159.195         -54.4414        -159.194       -0.0114738         148.044
0.547                  -0.702786        -144.843         -54.3132        -161.343         -54.3196         -161.34       -0.0115889         147.974
0.548                  -0.717595        -145.371         -54.1948        -163.483         -54.2005         -163.48       -0.0117052         147.905
0.549                  -0.732582        -145.903          -54.079        -165.616         -54.0839        -165.612       -0.0118227         147.835
0.55                   -0.747756        -146.437         -53.9655        -167.741         -53.9698        -167.736       -0.0119413         147.765
0.551                  -0.763125        -146.976         -53.8544        -169.856         -53.8579        -169.851        -0.012061         147.696
0.552                  -0.778697        -147.517         -53.7453        -171.962         -53.7482        -171.957        -0.012182         147.626
0.553                  -0.794484        -148.062         -53.6382        -174.058         -53.6404        -174.053       -0.0123041         147.556
0.554                  -0.810495        -148.611         -53.5329        -176.143         -53.5346        -176.139       -0.0124274         147.486
0.555                  -0.826743        -149.164         -53.4293        -178.218         -53.4304        -178.214       -0.0125519         147.415
0.556                  -0.843238         -149.72         -53.3273         179.719         -53.3278         179.721       -0.0126775         147.345
0.557                  -0.859993         -150.28         -53.2266         177.666         -53.2266         177.668       -0.0128043         147.274
0.558                  -0.877022        -150.844         -53.1271         175.625         -53.1267         175.625       -0.0129323         147.204
0.559                   -0.89434        -151.412         -53.0288         173.595          -53.028         173.594       -0.0130615         147.133
0.56                   -0.911962        -151.984         -52.9314         171.576         -52.9302         171.573       -0.0131918         147.062
0.561                  -0.929903         -152.56         -52.8349         169.568         -52.8333         169.564       -0.0133232         146.991
0.562                  -0.948182        -153.141         -52.7391         167.571         -52.7372         167.565       -0.0134558          146.92
0.563                  -0.966815        -153.726          -52.644         165.584         -52.6418         165.577       -0.0135896         146.849
0.564                  -0.985823        -154.315         -52.5493         163.608         -52.5468         163.599       -0.0137244         146.778
0.565                   -1.00523        -154.909          -52.455         161.641         -52.4523         161.632       -0.0138604         146.706
0.566                   -1.02505        -155.508         -52.3609         159.685         -52.3581         159.673       -0.0139975         146.635
0.567                    -1.0453        -156.111         -52.2671         157.737         -52.2642         157.725       -0.0141356         146.563
0.568                   -1.06602        -156.719         -52.1734         155.799         -52.1704         155.785       -0.0142749         146.491
0.569                   -1.08723        -157.332         -52.0798         153.868         -52.0766         153.853       -0.0144152         146.419
0.57                    -1.10895        -157.949         -51.9861         151.946         -51.9829          151.93       -0.0145565         146.347
0.571                   -1.13122        -158.572         -51.8923         150.031         -51.8891         150.014       -0.0146989         146.274
0.572                   -1.15405          -159.2         -51.7984         148.123         -51.7952         148.105       -0.0148424         146.202
0.573                   -1.17749        -159.833         -51.7043         146.222         -51.7011         146.202       -0.0149868          146.13
0.574                   -1.20156        -160.471         -51.6099         144.326         -51.6068         144.306       -0.0151324         146.057
0.575                   -1.22629        -161.114         -51.5153         142.436         -51.5122         142.415       -0.0152789         145.984
0.576                   -1.25173        -161.762         -51.4203         140.551         -51.4174         140.529       -0.0154265         145.911
0.577                    -1.2779        -162.416         -51.3251         138.671         -51.3222         138.648       -0.0155751         145.838
0.578                   -1.30484        -163.074         -51.2295         136.794         -51.2268         136.771       -0.0157249         145.765
0.579                    -1.3326        -163.738         -51.1335          134.92         -51.1309         134.897       -0.0158757         145.691
0.58                    -1.36121        -164.408         -51.0372          133.05         -51.0348         133.026       -0.0160277         145.618
0.581                   -1.39071        -165.082         -50.9405         131.181         -50.9382         131.158       -0.0161809         145.544
0.582                   -1.42115        -165.762         -50.8435         129.315         -50.8414         129.292       -0.0163353          145.47
0.583                   -1.45256        -166.446         -50.7462          127.45         -50.7442         127.427        -0.016491         145.396
0.584                     -1.485        -167.136         -50.6485         125.586         -50.6466         125.564       -0.0166481         145.322
0.585                   -1.51851        -167.831         -50.5505         123.723         -50.5488         123.701       -0.0168067         145.247
0.586                   -1.55313         -168.53         -50.4522          121.86         -50.4507         121.839       -0.0169667         145.173
0.587                   -1.58891        -169.235         -50.3537         119.997         -50.3523         119.976       -0.0171285         145.098
0.588                    -1.6259        -169.944          -50.255         118.133         -50.2538         118.113       -0.0172919         145.023
0.589                   -1.66415        -170.657         -50.1561         116.269          -50.155         116.249       -0.0174572         144.948
0.59                     -1.7037        -171.374          -50.057         114.403         -50.0561         114.384       -0.0176244         144.873
0.591                   -1.74459        -172.096         -49.9579         112.535         -49.9571         112.518       -0.0177937         144.798
0.592                   -1.78688        -172.821         -49.8587         110.666          -49.858          110.65       -0.0179651         144.722
0.593                    -1.8306         -173.55         -49.7595         108.795          -49.759          108.78       -0.0181387         144.646
0.594                   -1.87581        -174.282         -49.6603         106.922         -49.6599         106.908       -0.0183148          144.57
0.595                   -1.92254        -175.016         -49.5613         105.046          -49.561         105.033       -0.0184933         144.494
0.596                   -1.97083        -175.754         -49.4624         103.168         -49.4622         103.156       -0.0186743         144.418
0.597                   -2.02073        -176.493         -49.3637         101.287         -49.3636         101.277        -0.018858         144.341
0.598                   -2.07225        -177.235         -49.2653          99.404         -49.2652         99.3945       -0.0190444         144.265
0.599                   -2.12544        -177.977         -49.1672         97.5179         -49.1672         97.5096       -0.0192336         144.188
0.6                     -2.18032        -178.721         -49.0694          95.629         -49.0695         95.6219       -0.0194257         144.111
0.601                   -2.23691        -179.465         -48.9721         93.7375         -48.9722         93.7316       -0.0196207         144.034
0.602                   -2.29523         179.791         -48.8753         91.8432         -48.8754         91.8385       -0.0198187         143.956
0.603                   -2.35529         179.048          -48.779         89.9464         -48.7791         89.9428       -0.0200197         143.878
0.604                    -2.4171         178.306         -48.6834          88.047         -48.6835         88.0446       -0.0202239         143.801
0.605                   -2.48065         177.565         -48.5883         86.1453         -48.5884          86.144       -0.0204312         143.723
0.606                   -2.54595         176.827          -48.494         84.2415         -48.4941         84.2412       -0.0206417         143.644
0.607                   -2.61297         176.091         -48.4004         82.3356         -48.4005         82.3364       -0.0208554         143.566
0.608                   -2.68169         175.359         -48.3076          80.428         -48.3076         80.4297       -0.0210723         143.487
0.609                    -2.7521         174.631         -48.2156         78.5189         -48.2156         78.5215       -0.0212926         143.408
0.61                    -2.82415         173.906         -48.1245         76.6086         -48.1244          76.612       -0.0215162         143.329
0.611                    -2.8978         173.187         -48.0342         74.6973         -48.0342         74.7014       -0.0217431          143.25
0.612                     -2.973         172.473          -47.945         72.7854         -47.9448         72.7902       -0.0219734         143.171
0.613                   -3.04969         171.765         -47.8566         70.8732         -47.8564         70.8786       -0.0222071         143.091
0.614                   -3.12782         171.064         -47.7693          68.961          -47.769          68.967       -0.0224442         143.011
0.615                    -3.2073         170.369          -47.683         67.0492         -47.6826         67.0557       -0.0226849         142.931
0.616                   -3.28807         169.681         -47.5976         65.1383         -47.5973         65.1451        -0.022929          142.85
0.617                   -3.37003             169         -47.5133         63.2285         -47.5129         63.2357       -0.0231767          142.77
0.618                   -3.45311         168.328         -47.4301         61.3202         -47.4296         61.3277       -0.0234279         142.689
0.619                   -3.53721         167.663         -47.3479         59.4139         -47.3473         59.4216       -0.0236828         142.608
0.62                    -3.62223         167.006         -47.2667           57.51          -47.266         57.5177       -0.0239414         142.526
0.621                   -3.70808         166.358         -47.1865         55.6087         -47.1858         55.6166       -0.0242036         142.445
0.622                   -3.79466         165.718         -47.1073         53.7106         -47.1066         53.7184       -0.0244696         142.363
0.623                   -3.88186         165.086         -47.0292          51.816         -47.0284         51.8238       -0.0247394         142.281
0.624                   -3.96959         164.463          -46.952         49.9253         -46.9511         49.9329        -0.025013         142.199
0.625                   -4.05775         163.847         -46.8757         48.0388         -46.8748         48.0463       -0.0252905         142.116
0.626                   -4.14623         163.239         -46.8003         46.1569         -46.7994         46.1642        -0.025572         142.033
0.627                   -4.23496         162.639         -46.7259           44.28         -46.7249          44.287       -0.0258574          141.95
0.628                   -4.32383         162.046         -46.6522         42.4082         -46.6512          42.415        -0.026147         141.867
0.629                   -4.41276          161.46         -46.5794         40.5421         -46.5784         40.5485       -0.0264406         141.783
