! TOUCHSTONE file generated by CST MICROWAVE STUDIO
! Date and time: Wed Oct 28 19:14:45 2020
! Project name: Scenario_1_Circular_Tissue_out_of_Line.cst
! Parameters = {dy1=-224.613; L_HA=400; MT=2.54; Rad_Dielectric=30; Rad_Lower=7.3; Rad_Upper=30; a_HA=580; a_WG=246; b_HA=500; b_WG=121; c_HA=0; c_WG=187; d_feed=85; dx1=693; h_feed=15; h_lower=18; h_upper=40}
! Header version: 2018
! Port assignment regex: !\s*Touchstone port\s*([0-9]+)\s*=\s*(CST MWS port|CST DS port)\s*([0-9]+|Zmin|Zmax)\s*\(\"(.*)\"\)(\s*mode\s*([0-9]+))?.*
! Touchstone port assignment:
! Touchstone port 1 = CST MWS port 1 ("")
! Touchstone port 2 = CST MWS port 2 ("")
# GHz S DB R 50
0.5                    -0.149529        -122.345         -63.1905        -175.989         -63.1905        -175.989      -0.00768755         151.121
0.501                  -0.157302        -122.781         -63.1511        -176.571         -63.1508        -176.575      -0.00774013         151.056
0.502                  -0.165218        -123.219          -63.111        -177.167         -63.1104        -177.175      -0.00779371         150.991
0.503                  -0.173279        -123.658           -63.07        -177.778         -63.0691         -177.79       -0.0078483         150.925
0.504                  -0.181488          -124.1         -63.0281        -178.404         -63.0269         -178.42       -0.0079039          150.86
0.505                  -0.189846        -124.542         -62.9854        -179.046         -62.9838        -179.066      -0.00796051         150.794
0.506                  -0.198358        -124.987         -62.9417        -179.704         -62.9398        -179.728      -0.00801815         150.728
0.507                  -0.207024        -125.433         -62.8971         179.622         -62.8949         179.593      -0.00807682         150.663
0.508                  -0.215849        -125.881         -62.8515          178.93         -62.8489         178.897      -0.00813652         150.597
0.509                  -0.224834        -126.331         -62.8048          178.22          -62.802         178.184      -0.00819725         150.531
0.51                   -0.233984        -126.782         -62.7571         177.492          -62.754         177.452      -0.00825903         150.465
0.511                    -0.2433        -127.236         -62.7083         176.746         -62.7048         176.701      -0.00832185         150.399
0.512                  -0.252786        -127.691         -62.6584          175.98         -62.6545          175.93      -0.00838572         150.333
0.513                  -0.262446        -128.148         -62.6072         175.193         -62.6031         175.139      -0.00845065         150.267
0.514                  -0.272282        -128.607         -62.5549         174.386         -62.5504         174.328      -0.00851664           150.2
0.515                  -0.282298        -129.068         -62.5012         173.558         -62.4963         173.495       -0.0085837         150.134
0.516                  -0.292497        -129.531         -62.4462         172.707          -62.441          172.64      -0.00865183         150.068
0.517                  -0.302884        -129.996         -62.3897         171.833         -62.3842         171.762      -0.00872104         150.001
0.518                  -0.313461        -130.462         -62.3319         170.936          -62.326          170.86      -0.00879133         149.934
0.519                  -0.324234        -130.931         -62.2724         170.015         -62.2662         169.934      -0.00886271         149.868
0.52                   -0.335205        -131.402         -62.2114         169.068         -62.2048         168.983      -0.00893518         149.801
0.521                  -0.346378        -131.875         -62.1487         168.095         -62.1418         168.006      -0.00900876         149.734
0.522                  -0.357759         -132.35         -62.0843         167.095          -62.077         167.002      -0.00908344         149.667
0.523                  -0.369351        -132.826          -62.018         166.068         -62.0104          165.97      -0.00915924           149.6
0.524                  -0.381159        -133.305         -61.9498         165.012         -61.9418         164.909      -0.00923615         149.533
0.525                  -0.393186        -133.787         -61.8796         163.926         -61.8712         163.819      -0.00931419         149.466
0.526                  -0.405439         -134.27         -61.8073          162.81         -61.7985         162.699      -0.00939336         149.398
0.527                  -0.417922        -134.755         -61.7327         161.663         -61.7236         161.547      -0.00947367         149.331
0.528                  -0.430639        -135.243         -61.6559         160.483         -61.6463         160.362      -0.00955512         149.264
0.529                  -0.443595        -135.732         -61.5766         159.269         -61.5666         159.144      -0.00963773         149.196
0.53                   -0.456797        -136.224         -61.4947          158.02         -61.4844         157.891      -0.00972149         149.128
0.531                  -0.470248        -136.719         -61.4101         156.736         -61.3994         156.603      -0.00980642         149.061
0.532                  -0.483955        -137.215         -61.3227         155.415         -61.3116         155.277      -0.00989253         148.993
0.533                  -0.497924        -137.714         -61.2323         154.056         -61.2208         153.914      -0.00997981         148.925
0.534                  -0.512158        -138.215         -61.1388         152.658         -61.1269         152.511       -0.0100683         148.857
0.535                  -0.526666        -138.718          -61.042         151.219         -61.0297         151.068       -0.0101579         148.789
0.536                  -0.541452        -139.224         -60.9417         149.738          -60.929         149.584       -0.0102488          148.72
0.537                  -0.556523        -139.732         -60.8378         148.215         -60.8247         148.056       -0.0103409         148.652
0.538                  -0.571885        -140.243         -60.7301         146.647         -60.7166         146.485       -0.0104342         148.584
0.539                  -0.587544        -140.755         -60.6184         145.034         -60.6045         144.868       -0.0105287         148.515
0.54                   -0.603507        -141.271         -60.5025         143.374         -60.4882         143.205       -0.0106245         148.446
0.541                  -0.619781        -141.788         -60.3822         141.665         -60.3675         141.493       -0.0107215         148.378
0.542                  -0.636372        -142.308         -60.2573         139.908         -60.2422         139.732       -0.0108197         148.309
0.543                  -0.653287        -142.831         -60.1276         138.099         -60.1122         137.921       -0.0109193          148.24
0.544                  -0.670534        -143.356         -59.9929         136.238         -59.9771         136.057         -0.01102         148.171
0.545                   -0.68812        -143.883         -59.8529         134.324         -59.8367          134.14       -0.0111221         148.102
0.546                  -0.706051        -144.413         -59.7074         132.355          -59.691         132.168       -0.0112255         148.032
0.547                  -0.724337        -144.946         -59.5563         130.329         -59.5395         130.141       -0.0113301         147.963
0.548                  -0.742984         -145.48         -59.3993         128.246         -59.3822         128.055       -0.0114361         147.893
0.549                     -0.762        -146.018         -59.2362         126.104         -59.2188         125.911       -0.0115434         147.824
0.55                   -0.781394        -146.558         -59.0667         123.901         -59.0491         123.707        -0.011652         147.754
0.551                  -0.801173        -147.101         -58.8908         121.636          -58.873         121.442       -0.0117619         147.684
0.552                  -0.821346        -147.646         -58.7081         119.309         -58.6902         119.113       -0.0118732         147.614
0.553                  -0.841921        -148.194         -58.5187         116.916         -58.5006         116.721       -0.0119858         147.544
0.554                  -0.862907        -148.744         -58.3222         114.458         -58.3041         114.262       -0.0120998         147.474
0.555                  -0.884313        -149.297         -58.1187         111.933         -58.1005         111.737       -0.0122152         147.404
0.556                  -0.906147        -149.852          -57.908         109.339         -57.8899         109.144        -0.012332         147.334
0.557                  -0.928418         -150.41         -57.6902         106.675         -57.6721         106.481       -0.0124502         147.263
0.558                  -0.951136        -150.971         -57.4651          103.94         -57.4472         103.748       -0.0125698         147.192
0.559                  -0.974311        -151.534          -57.233         101.132         -57.2152         100.942       -0.0126909         147.122
0.56                    -0.99795          -152.1         -56.9938         98.2506         -56.9763         98.0625       -0.0128133         147.051
0.561                   -1.02206        -152.669         -56.7478         95.2936         -56.7307         95.1083       -0.0129373          146.98
0.562                   -1.04666         -153.24         -56.4953           92.26         -56.4786         92.0781       -0.0130626         146.909
0.563                   -1.07176        -153.814         -56.2366         89.1487         -56.2204         88.9705       -0.0131895         146.837
0.564                   -1.09736         -154.39         -55.9721         85.9583         -55.9565         85.7846       -0.0133179         146.766
0.565                   -1.12347        -154.969         -55.7024         82.6879         -55.6875         82.5192       -0.0134477         146.694
0.566                   -1.15011         -155.55          -55.428         79.3367         -55.4139         79.1735       -0.0135791         146.623
0.567                   -1.17728        -156.135         -55.1498         75.9038         -55.1365         75.7467        -0.013712         146.551
0.568                     -1.205        -156.721         -54.8685         72.3888         -54.8561         72.2387       -0.0138465         146.479
0.569                   -1.23328         -157.31         -54.5852         68.7919         -54.5738         68.6492       -0.0139825         146.407
0.57                    -1.26212        -157.902          -54.301         65.1133         -54.2905         64.9789       -0.0141201         146.335
0.571                   -1.29154        -158.497         -54.0169         61.3541         -54.0075         61.2286       -0.0142593         146.263
0.572                   -1.32155        -159.094         -53.7344          57.516         -53.7261         57.4002       -0.0144001          146.19
0.573                   -1.35216        -159.693         -53.4548         53.6014         -53.4476          53.496       -0.0145426         146.118
0.574                   -1.38338        -160.295         -53.1795         49.6139         -53.1734         49.5197       -0.0146866         146.045
0.575                   -1.41523        -160.899         -52.9101          45.558         -52.9051         45.4756       -0.0148324         145.972
0.576                    -1.4477        -161.506         -52.6481         41.4392         -52.6441         41.3694       -0.0149798         145.899
0.577                   -1.48082        -162.115         -52.3949         37.2645         -52.3919         37.2078       -0.0151289         145.826
0.578                    -1.5146        -162.727          -52.152          33.042         -52.1499          32.999       -0.0152797         145.752
0.579                   -1.54904        -163.341         -51.9208         28.7809         -51.9196         28.7519       -0.0154323         145.679
0.58                    -1.58417        -163.958         -51.7025         24.4916         -51.7019          24.477       -0.0155866         145.605
0.581                   -1.61998        -164.576          -51.498         20.1854          -51.498         20.1854       -0.0157427         145.532
0.582                    -1.6565        -165.197         -51.3083         15.8743         -51.3087         15.8889       -0.0159005         145.458
0.583                   -1.69373        -165.821         -51.1338         11.5709         -51.1345         11.5999       -0.0160603         145.384
0.584                   -1.73168        -166.446         -50.9749         7.28784         -50.9758         7.33081       -0.0162218         145.309
0.585                   -1.77037        -167.074         -50.8316         3.03752         -50.8325         3.09405       -0.0163852         145.235
0.586                   -1.80981        -167.704         -50.7038        -1.16803         -50.7045        -1.09857       -0.0165505          145.16
0.587                   -1.85001        -168.336         -50.5909        -5.31757         -50.5913        -5.23595       -0.0167177         145.086
0.588                   -1.89099         -168.97         -50.4923        -9.40092         -50.4923        -9.30799       -0.0168869         145.011
0.589                   -1.93274        -169.606         -50.4071        -13.4091         -50.4067        -13.3058        -0.017058         144.936
0.59                    -1.97529        -170.244         -50.3345        -17.3344         -50.3335        -17.2217       -0.0172312         144.861
0.591                   -2.01865        -170.884         -50.2732        -21.1705         -50.2716        -21.0495       -0.0174063         144.785
0.592                   -2.06282        -171.526         -50.2222        -24.9128           -50.22        -24.7844       -0.0175835          144.71
0.593                   -2.10783         -172.17         -50.1802        -28.5576         -50.1773        -28.4229       -0.0177628         144.634
0.594                   -2.15368        -172.815         -50.1462        -32.1027         -50.1426        -31.9628       -0.0179441         144.558
0.595                   -2.20038        -173.463         -50.1189        -35.5472         -50.1146        -35.4028       -0.0181276         144.482
0.596                   -2.24794        -174.112         -50.0973         -38.891         -50.0924        -38.7431       -0.0183133         144.406
0.597                   -2.29638        -174.762         -50.0803        -42.1349         -50.0748        -41.9842       -0.0185012         144.329
0.598                    -2.3457        -175.414         -50.0671        -45.2806         -50.0609        -45.1279       -0.0186914         144.253
0.599                   -2.39592        -176.067         -50.0567        -48.3302         -50.0499        -48.1762       -0.0188838         144.176
0.6                     -2.44705        -176.722         -50.0483        -51.2864          -50.041        -51.1318       -0.0190785         144.099
0.601                    -2.4991        -177.378         -50.0413        -54.1524         -50.0335        -53.9976       -0.0192756         144.021
0.602                   -2.55207        -178.036          -50.035        -56.9313         -50.0268        -56.7769        -0.019475         143.944
0.603                   -2.60599        -178.694         -50.0289        -59.6268         -50.0202        -59.4731       -0.0196769         143.867
0.604                   -2.66085        -179.354         -50.0225        -62.2423         -50.0135        -62.0897       -0.0198813         143.789
0.605                   -2.71668         179.985         -50.0154        -64.7815          -50.006        -64.6304       -0.0200882         143.711
0.606                   -2.77348         179.324         -50.0073        -67.2481         -49.9976        -67.0987       -0.0202977         143.633
0.607                   -2.83125         178.661         -49.9978        -69.6456         -49.9878        -69.4983       -0.0205098         143.554
0.608                   -2.89002         177.998         -49.9867        -71.9777         -49.9764        -71.8325       -0.0207245         143.476
0.609                   -2.94979         177.334         -49.9737        -74.2477         -49.9633        -74.1049        -0.020942         143.397
0.61                    -3.01056         176.669         -49.9588        -76.4591         -49.9483        -76.3188       -0.0211622         143.318
0.611                   -3.07235         176.004         -49.9418        -78.6149         -49.9311        -78.4773       -0.0213852         143.238
0.612                   -3.13517         175.338         -49.9225        -80.7184         -49.9118        -80.5835       -0.0216112         143.159
0.613                   -3.19903         174.672          -49.901        -82.7724         -49.8901        -82.6403         -0.02184         143.079
0.614                   -3.26393         174.006          -49.877        -84.7799         -49.8661        -84.6507       -0.0220719         142.999
0.615                   -3.32988          173.34         -49.8507        -86.7435         -49.8398        -86.6173       -0.0223068         142.919
0.616                   -3.39689         172.673         -49.8218        -88.6658          -49.811        -88.5426       -0.0225449         142.839
0.617                   -3.46498         172.007         -49.7906        -90.5493         -49.7797        -90.4291       -0.0227862         142.758
0.618                   -3.53413          171.34         -49.7568        -92.3963          -49.746        -92.2791       -0.0230307         142.678
0.619                   -3.60438         170.674         -49.7206        -94.2091         -49.7099        -94.0949       -0.0232785         142.596
0.62                    -3.67571         170.009          -49.682        -95.9897         -49.6713        -95.8785       -0.0235298         142.515
0.621                   -3.74814         169.343         -49.6409        -97.7401         -49.6303         -97.632       -0.0237846         142.434
0.622                   -3.82168         168.678         -49.5974        -99.4623         -49.5869        -99.3571        -0.024043         142.352
0.623                   -3.89633         168.014         -49.5516        -101.158         -49.5411        -101.056        -0.024305          142.27
0.624                   -3.97209         167.351         -49.5034        -102.829         -49.4931         -102.73       -0.0245707         142.188
0.625                   -4.04899         166.688         -49.4529        -104.477         -49.4427        -104.381       -0.0248403         142.105
0.626                   -4.12701         166.026         -49.4001        -106.103         -49.3901         -106.01       -0.0251138         142.022
0.627                   -4.20617         165.366         -49.3451         -107.71         -49.3352        -107.619       -0.0253913         141.939
0.628                   -4.28647         164.706          -49.288        -109.297         -49.2782         -109.21        -0.025673         141.856
0.629                   -4.36792         164.048         -49.2287        -110.868         -49.2191        -110.783       -0.0259588         141.772
