! TOUCHSTONE file generated by CST MICROWAVE STUDIO
! Date and time: Mon Oct 26 12:25:42 2020
! Project name: Scenario_1_Circular_Tissue_out_of_Line.cst
! Parameters = {dy1=-224.613; L_HA=400; MT=2.54; Rad_Dielectric=30; Rad_Lower=7.3; Rad_Upper=30; a_HA=580; a_WG=246; b_HA=500; b_WG=121; c_HA=0; c_WG=187; d_feed=85; dx1=866; h_feed=15; h_lower=18; h_upper=40}
! Header version: 2018
! Port assignment regex: !\s*Touchstone port\s*([0-9]+)\s*=\s*(CST MWS port|CST DS port)\s*([0-9]+|Zmin|Zmax)\s*\(\"(.*)\"\)(\s*mode\s*([0-9]+))?.*
! Touchstone port assignment:
! Touchstone port 1 = CST MWS port 1 ("")
! Touchstone port 2 = CST MWS port 2 ("")
# GHz S DB R 50
0.5                    -0.146122        -122.407         -64.0791          93.252         -64.0791          93.252      -0.00741941         151.128
0.501                  -0.153564        -122.841          -63.872         91.5091         -63.4854         91.8465      -0.00749602         151.063
0.502                  -0.161116        -123.277         -63.6637         89.7244         -62.9506         89.9389      -0.00757312         150.998
0.503                  -0.168778        -123.714         -63.4543         87.8978         -62.4767         87.6821      -0.00765073         150.932
0.504                  -0.176552        -124.153         -63.2443         86.0289         -62.0607         85.1958      -0.00772884         150.867
0.505                  -0.184439        -124.594         -63.0339         84.1177         -61.6972         82.5698      -0.00780745         150.801
0.506                  -0.192439        -125.036         -62.8235         82.1643         -61.3798         79.8687      -0.00788654         150.735
0.507                  -0.200554         -125.48         -62.6135          80.169         -61.1021         77.1375      -0.00796612          150.67
0.508                  -0.208785        -125.926         -62.4042         78.1324         -60.8579         74.4068       -0.0080462         150.604
0.509                  -0.217133        -126.373         -62.1959         76.0551          -60.642         71.6961      -0.00812676         150.538
0.51                     -0.2256        -126.823         -61.9889         73.9381         -60.4495         69.0175       -0.0082078         150.472
0.511                  -0.234186        -127.274         -61.7838         71.7824         -60.2765         66.3778      -0.00828933         150.406
0.512                  -0.242894        -127.727         -61.5806         69.5894         -60.1195         63.7799      -0.00837134          150.34
0.513                  -0.251725        -128.182         -61.3799         67.3606         -59.9757         61.2246      -0.00845384         150.274
0.514                  -0.260681        -128.638         -61.1818         65.0978         -59.8428         58.7107      -0.00853683         150.207
0.515                  -0.269764        -129.097         -60.9867         62.8028         -59.7187         56.2365      -0.00862031         150.141
0.516                  -0.278976        -129.558         -60.7948         60.4777         -59.6017         53.7993      -0.00870427         150.074
0.517                  -0.288319         -130.02         -60.6063         58.1247         -59.4906         51.3964      -0.00878873         150.008
0.518                  -0.297794        -130.485         -60.4214         55.7462         -59.3841         49.0248      -0.00887369         149.941
0.519                  -0.307406        -130.952         -60.2404         53.3445         -59.2813         46.6817      -0.00895914         149.875
0.52                   -0.317155        -131.421         -60.0632         50.9222         -59.1814         44.3642      -0.00904511         149.808
0.521                  -0.327045        -131.892         -59.8901         48.4818         -59.0837         42.0696      -0.00913158         149.741
0.522                   -0.33708        -132.365          -59.721          46.026         -58.9877         39.7956      -0.00921856         149.674
0.523                  -0.347261        -132.841          -59.556         43.5571         -58.8928         37.5397      -0.00930607         149.607
0.524                  -0.357592        -133.319         -59.3951         41.0778         -58.7988         35.2997      -0.00939411          149.54
0.525                  -0.368077        -133.799         -59.2382         38.5905         -58.7052         33.0738      -0.00948268         149.473
0.526                   -0.37872        -134.281         -59.0853         36.0976         -58.6117         30.8599       -0.0095718         149.406
0.527                  -0.389524        -134.766         -58.9362         33.6013         -58.5181         28.6566      -0.00966148         149.338
0.528                  -0.400493        -135.253         -58.7908         31.1037         -58.4243         26.4622      -0.00975171         149.271
0.529                  -0.411633        -135.743         -58.6489         28.6067           -58.33         24.2754      -0.00984252         149.203
0.53                   -0.422947        -136.236         -58.5104         26.1122         -58.2351         22.0948      -0.00993392         149.135
0.531                  -0.434442         -136.73         -58.3752         23.6218         -58.1395         19.9193       -0.0100259         149.068
0.532                  -0.446122        -137.228         -58.2428         21.1369          -58.043         17.7478       -0.0101185             149
0.533                  -0.457993        -137.728         -58.1132         18.6588         -57.9457         15.5794       -0.0102117         148.932
0.534                  -0.470061        -138.231         -57.9862         16.1886         -57.8473         13.4131       -0.0103056         148.864
0.535                  -0.482332        -138.737         -57.8614         13.7272         -57.7479         11.2481       -0.0104001         148.796
0.536                  -0.494814        -139.245         -57.7387         11.2753         -57.6474         9.08363       -0.0104953         148.728
0.537                  -0.507513        -139.757         -57.6179         8.83358         -57.5458         6.91906       -0.0105911         148.659
0.538                  -0.520438        -140.271         -57.4986         6.40235          -57.443         4.75371       -0.0106877         148.591
0.539                  -0.533596        -140.788         -57.3807          3.9819         -57.3391         2.58699       -0.0107849         148.522
0.54                   -0.546997        -141.309          -57.264         1.57237          -57.234        0.418367       -0.0108829         148.454
0.541                  -0.560648        -141.832         -57.1483       -0.826228         -57.1277        -1.75267       -0.0109817         148.385
0.542                   -0.57456        -142.358         -57.0334        -3.21402         -57.0202        -3.92658       -0.0110812         148.316
0.543                  -0.588744        -142.888          -56.919        -5.59121         -56.9115        -6.10379       -0.0111815         148.247
0.544                  -0.603209        -143.421         -56.8051         -7.9581         -56.8017         -8.2847       -0.0112827         148.178
0.545                  -0.617969        -143.957         -56.6915        -10.3151         -56.6907        -10.4697       -0.0113846         148.109
0.546                  -0.633033        -144.497          -56.578        -12.6626         -56.5786        -12.6591       -0.0114874          148.04
0.547                  -0.648417        -145.039         -56.4644        -15.0012         -56.4654        -14.8532       -0.0115911          147.97
0.548                  -0.664132        -145.586         -56.3508        -17.3315         -56.3511        -17.0524       -0.0116958         147.901
0.549                  -0.680194        -146.136         -56.2369        -19.6539         -56.2358        -19.2568       -0.0118013         147.831
0.55                   -0.696617        -146.689         -56.1227        -21.9693         -56.1195        -21.4668       -0.0119078         147.761
0.551                  -0.713417        -147.246         -56.0081        -24.2782         -56.0022        -23.6826       -0.0120153         147.692
0.552                  -0.730612        -147.806          -55.893        -26.5814         -55.8839        -25.9044       -0.0121238         147.622
0.553                  -0.748218         -148.37         -55.7774        -28.8795         -55.7648        -28.1324       -0.0122333         147.552
0.554                  -0.766254        -148.938         -55.6612        -31.1733         -55.6449        -30.3667       -0.0123439         147.481
0.555                  -0.784739         -149.51         -55.5443        -33.4635         -55.5242        -32.6077       -0.0124556         147.411
0.556                  -0.803694        -150.085         -55.4269        -35.7507         -55.4027        -34.8553       -0.0125684         147.341
0.557                   -0.82314        -150.664         -55.3087        -38.0358         -55.2806        -37.1098       -0.0126823          147.27
0.558                  -0.843099        -151.247         -55.1899        -40.3193         -55.1579        -39.3712       -0.0127975         147.199
0.559                  -0.863593        -151.834         -55.0705         -42.602         -55.0346        -41.6397       -0.0129139         147.129
0.56                   -0.884648        -152.424         -54.9504        -44.8845         -54.9108        -43.9153       -0.0130315         147.058
0.561                  -0.906288        -153.018         -54.8296        -47.1675         -54.7866        -46.1982       -0.0131504         146.987
0.562                  -0.928538        -153.616         -54.7082        -49.4515          -54.662        -48.4884       -0.0132706         146.915
0.563                  -0.951426        -154.218         -54.5863        -51.7372         -54.5371        -50.7858       -0.0133922         146.844
0.564                  -0.974978        -154.823         -54.4638        -54.0252         -54.4119        -53.0906       -0.0135152         146.773
0.565                  -0.999222        -155.432         -54.3408         -56.316         -54.2866        -55.4028       -0.0136396         146.701
0.566                   -1.02419        -156.045         -54.2174          -58.61         -54.1612        -57.7223       -0.0137654         146.629
0.567                    -1.0499        -156.661         -54.0936        -60.9078         -54.0357         -60.049       -0.0138928         146.558
0.568                    -1.0764        -157.281         -53.9695        -63.2097         -53.9103        -62.3831       -0.0140217         146.486
0.569                   -1.10371        -157.904         -53.8451        -65.5163          -53.785        -64.7243       -0.0141521         146.413
0.57                    -1.13185         -158.53         -53.7205        -67.8278         -53.6599        -67.0726       -0.0142842         146.341
0.571                   -1.16086         -159.16         -53.5958        -70.1446          -53.535         -69.428        -0.014418         146.269
0.572                   -1.19077        -159.792         -53.4711        -72.4669         -53.4105        -71.7902       -0.0145534         146.196
0.573                    -1.2216        -160.427         -53.3464         -74.795         -53.2863        -74.1591       -0.0146905         146.124
0.574                   -1.25339        -161.065         -53.2218        -77.1291         -53.1626        -76.5345       -0.0148295         146.051
0.575                   -1.28615        -161.705         -53.0974        -79.4694         -53.0395        -78.9164       -0.0149702         145.978
0.576                   -1.31992        -162.347         -52.9734         -81.816         -52.9169        -81.3044       -0.0151128         145.905
0.577                    -1.3547        -162.991         -52.8496        -84.1689          -52.795        -83.6983       -0.0152573         145.831
0.578                   -1.39053        -163.636         -52.7264        -86.5281         -52.6738        -86.0979       -0.0154037         145.758
0.579                   -1.42741        -164.283         -52.6036        -88.8938         -52.5534         -88.503       -0.0155522         145.684
0.58                    -1.46536        -164.931         -52.4815        -91.2657         -52.4338        -90.9132       -0.0157026         145.611
0.581                   -1.50439        -165.579         -52.3601        -93.6438         -52.3152        -93.3282       -0.0158551         145.537
0.582                   -1.54449        -166.227         -52.2395        -96.0279         -52.1975        -95.7477       -0.0160097         145.463
0.583                   -1.58566        -166.876         -52.1197        -98.4179         -52.0808        -98.1713       -0.0161665         145.389
0.584                    -1.6279        -167.524         -52.0009        -100.814         -51.9652        -100.599       -0.0163254         145.314
0.585                   -1.67119        -168.171         -51.8831        -103.215         -51.8507         -103.03       -0.0164866          145.24
0.586                    -1.7155        -168.816         -51.7663        -105.621         -51.7373        -105.464       -0.0166501         145.165
0.587                   -1.76082         -169.46         -51.6507        -108.032         -51.6251          -107.9       -0.0168159          145.09
0.588                    -1.8071        -170.103         -51.5363        -110.447         -51.5141        -110.339        -0.016984         145.015
0.589                   -1.85431        -170.742         -51.4232        -112.866         -51.4044         -112.78       -0.0171546          144.94
0.59                    -1.90238        -171.379         -51.3114        -115.289         -51.2959        -115.222       -0.0173275         144.865
0.591                   -1.95127        -172.014         -51.2009        -117.714         -51.1888        -117.665        -0.017503         144.789
0.592                   -2.00091        -172.645         -51.0918        -120.143         -51.0829        -120.109        -0.017681         144.714
0.593                   -2.05123        -173.272         -50.9841        -122.573         -50.9784        -122.552       -0.0178615         144.638
0.594                   -2.10216        -173.896         -50.8779        -125.005         -50.8751        -124.996       -0.0180447         144.562
0.595                   -2.15361        -174.516         -50.7732        -127.438         -50.7732        -127.438       -0.0182304         144.485
0.596                    -2.2055        -175.133         -50.6699        -129.872         -50.6726         -129.88       -0.0184188         144.409
0.597                   -2.25774        -175.746         -50.5681        -132.306         -50.5734         -132.32         -0.01861         144.332
0.598                   -2.31024        -176.355         -50.4678        -134.739         -50.4754        -134.758       -0.0188038         144.256
0.599                   -2.36292        -176.961          -50.369        -137.172         -50.3787        -137.193       -0.0190004         144.179
0.6                     -2.41569        -177.564         -50.2716        -139.603         -50.2833        -139.626       -0.0191998         144.102
0.601                   -2.46846        -178.164         -50.1757        -142.032         -50.1891        -142.055        -0.019402         144.024
0.602                   -2.52116        -178.761         -50.0812        -144.458         -50.0962        -144.481        -0.019607         143.947
0.603                    -2.5737        -179.356         -49.9881        -146.881         -50.0044        -146.903       -0.0198149         143.869
0.604                   -2.62603         -179.95         -49.8964        -149.301         -49.9137        -149.321       -0.0200257         143.791
0.605                   -2.67809         179.456         -49.8059        -151.717         -49.8242        -151.734       -0.0202394         143.713
0.606                   -2.72982         178.863         -49.7167        -154.129         -49.7357        -154.143        -0.020456         143.635
0.607                   -2.78119          178.27         -49.6287        -156.536         -49.6483        -156.546       -0.0206756         143.556
0.608                   -2.83218         177.675         -49.5419        -158.938         -49.5618        -158.945       -0.0208981         143.477
0.609                   -2.88276         177.079         -49.4561        -161.335         -49.4762        -161.337       -0.0211235         143.398
0.61                    -2.93294         176.479         -49.3714        -163.727         -49.3915        -163.725        -0.021352         143.319
0.611                   -2.98273         175.876         -49.2877        -166.112         -49.3076        -166.106       -0.0215834          143.24
0.612                   -3.03215         175.269         -49.2049        -168.492         -49.2244        -168.482       -0.0218179          143.16
0.613                   -3.08123         174.657         -49.1228        -170.866          -49.142        -170.852       -0.0220553          143.08
0.614                   -3.13001         174.038         -49.0416        -173.233         -49.0602        -173.215       -0.0222958             143
0.615                   -3.17857         173.413         -48.9611        -175.594          -48.979        -175.573       -0.0225394          142.92
0.616                   -3.22695         172.781         -48.8811        -177.948         -48.8984        -177.924       -0.0227859          142.84
0.617                   -3.27525         172.141         -48.8018         179.704         -48.8182          179.73       -0.0230356         142.759
0.618                   -3.32354         171.492         -48.7229         177.362         -48.7384         177.391       -0.0232884         142.678
0.619                   -3.37192         170.834         -48.6444         175.027         -48.6591         175.057       -0.0235442         142.597
0.62                    -3.42049         170.167         -48.5663         172.698           -48.58          172.73       -0.0238032         142.515
0.621                   -3.46936         169.489         -48.4885         170.375         -48.5012         170.408       -0.0240654         142.434
0.622                   -3.51864           168.8         -48.4109         168.058         -48.4226         168.091       -0.0243307         142.352
0.623                   -3.56846         168.101         -48.3335         165.747         -48.3442          165.78       -0.0245993          142.27
0.624                   -3.61893          167.39         -48.2562         163.441         -48.2659         163.474       -0.0248712         142.187
0.625                   -3.67018         166.667         -48.1789         161.141         -48.1877         161.173       -0.0251464         142.105
0.626                   -3.72234         165.933         -48.1017         158.846         -48.1096         158.877        -0.025425         142.022
0.627                   -3.77555         165.186         -48.0245         156.556         -48.0314         156.586       -0.0257071         141.939
0.628                   -3.82995         164.428         -47.9472          154.27         -47.9533         154.298       -0.0259926         141.855
0.629                   -3.88566         163.657         -47.8698         151.988         -47.8751         152.015       -0.0262818         141.772
