! TOUCHSTONE file generated by CST MICROWAVE STUDIO
! Date and time: Sat Oct 24 11:43:39 2020
! Project name: Scenario_1_Circular_Tissue_out_of_Line.cst
! Parameters = {dy1=-224.613; L_HA=400; MT=2.54; Rad_Dielectric=30; Rad_Lower=7.3; Rad_Upper=30; a_HA=580; a_WG=246; b_HA=500; b_WG=121; c_HA=0; c_WG=187; d_feed=85; dx1=1039; h_feed=15; h_lower=18; h_upper=40}
! Header version: 2018
! Port assignment regex: !\s*Touchstone port\s*([0-9]+)\s*=\s*(CST MWS port|CST DS port)\s*([0-9]+|Zmin|Zmax)\s*\(\"(.*)\"\)(\s*mode\s*([0-9]+))?.*
! Touchstone port assignment:
! Touchstone port 1 = CST MWS port 1 ("")
! Touchstone port 2 = CST MWS port 2 ("")
# GHz S DB R 50
0.5                    -0.145432        -122.279         -64.5769        -6.03549         -64.5769        -6.03549      -0.00763464         151.139
0.501                  -0.156514        -122.731         -64.0582        -7.55626         -64.0593        -7.55918      -0.00769462         151.074
0.502                  -0.167599        -123.184         -63.5728        -9.17645         -63.5749        -9.18156      -0.00775543         151.009
0.503                   -0.17869        -123.638         -63.1178         -10.884         -63.1207        -10.8907      -0.00781708         150.943
0.504                  -0.189789        -124.094         -62.6905         -12.669         -62.6941        -12.6768      -0.00787959         150.878
0.505                    -0.2009        -124.551         -62.2889        -14.5233         -62.2931        -14.5318      -0.00794295         150.812
0.506                  -0.212026        -125.009         -61.9109        -16.4401         -61.9157         -16.449      -0.00800716         150.746
0.507                   -0.22317        -125.469          -61.555        -18.4137         -61.5602        -18.4227      -0.00807224         150.681
0.508                  -0.234337         -125.93         -61.2196         -20.439         -61.2253        -20.4479      -0.00813819         150.615
0.509                  -0.245528        -126.393         -60.9035        -22.5117         -60.9095        -22.5204      -0.00820502         150.549
0.51                   -0.256748        -126.857         -60.6054        -24.6281         -60.6117        -24.6365      -0.00827272         150.483
0.511                  -0.268001        -127.322         -60.3244        -26.7849         -60.3308        -26.7927      -0.00834131         150.417
0.512                   -0.27929         -127.79         -60.0594        -28.9789          -60.066        -28.9862      -0.00841079         150.351
0.513                  -0.290619        -128.258         -59.8095        -31.2076         -59.8162        -31.2142      -0.00848117         150.285
0.514                  -0.301991        -128.729          -59.574        -33.4685         -59.5808        -33.4745      -0.00855246         150.219
0.515                  -0.313412        -129.201          -59.352        -35.7594         -59.3589        -35.7647      -0.00862465         150.152
0.516                  -0.324884        -129.675          -59.143        -38.0783         -59.1499         -38.083      -0.00869776         150.086
0.517                  -0.336412         -130.15         -58.9461        -40.4234          -58.953        -40.4274      -0.00877179         150.019
0.518                     -0.348        -130.627         -58.7608         -42.793         -58.7677        -42.7963      -0.00884675         149.953
0.519                  -0.359653        -131.106         -58.5866        -45.1855         -58.5934        -45.1881      -0.00892265         149.886
0.52                   -0.371375        -131.587         -58.4227        -47.5996         -58.4294        -47.6016       -0.0089995         149.819
0.521                   -0.38317        -132.069         -58.2687        -50.0339         -58.2753        -50.0353      -0.00907729         149.752
0.522                  -0.395044        -132.553         -58.1241        -52.4872         -58.1305        -52.4881      -0.00915604         149.685
0.523                     -0.407        -133.039         -57.9883        -54.9585         -57.9945         -54.959      -0.00923576         149.618
0.524                  -0.419043        -133.527         -57.8608        -57.4469         -57.8669        -57.4469      -0.00931645         149.551
0.525                   -0.43118        -134.017         -57.7411        -59.9513          -57.747        -59.9509      -0.00939813         149.484
0.526                  -0.443413        -134.509         -57.6288         -62.471         -57.6345        -62.4703      -0.00948079         149.417
0.527                   -0.45575        -135.003         -57.5234        -65.0052         -57.5289        -65.0042      -0.00956445         149.349
0.528                  -0.468194        -135.499         -57.4245        -67.5534         -57.4298        -67.5521      -0.00964911         149.282
0.529                  -0.480751        -135.997         -57.3315        -70.1148         -57.3366        -70.1133      -0.00973479         149.214
0.53                   -0.493427        -136.497         -57.2442        -72.6889          -57.249        -72.6873      -0.00982149         149.147
0.531                  -0.506227        -136.999         -57.1619        -75.2752         -57.1666        -75.2735      -0.00990923         149.079
0.532                  -0.519157        -137.503         -57.0844        -77.8733         -57.0888        -77.8715        -0.009998         149.011
0.533                  -0.532223        -138.009         -57.0112        -80.4828         -57.0154         -80.481       -0.0100878         148.943
0.534                   -0.54543        -138.518          -56.942        -83.1033         -56.9458        -83.1015       -0.0101787         148.875
0.535                  -0.558785        -139.028         -56.8762        -85.7343         -56.8798        -85.7326       -0.0102707         148.807
0.536                  -0.572294        -139.541         -56.8135        -88.3757         -56.8169         -88.374       -0.0103637         148.739
0.537                  -0.585962        -140.056         -56.7536         -91.027         -56.7567        -91.0253       -0.0104578          148.67
0.538                  -0.599798        -140.573          -56.696        -93.6879         -56.6989        -93.6864        -0.010553         148.602
0.539                  -0.613806        -141.093         -56.6404        -96.3581         -56.6431        -96.3567       -0.0106494         148.533
0.54                   -0.627994        -141.615         -56.5865        -99.0373          -56.589         -99.036       -0.0107468         148.465
0.541                  -0.642368        -142.139         -56.5339        -101.725         -56.5361        -101.724       -0.0108454         148.396
0.542                  -0.656936        -142.666         -56.4823        -104.421         -56.4843         -104.42       -0.0109451         148.327
0.543                  -0.671704        -143.195         -56.4313        -107.125         -56.4331        -107.124        -0.011046         148.258
0.544                  -0.686679        -143.726         -56.3807        -109.836         -56.3822        -109.835       -0.0111481         148.189
0.545                   -0.70187         -144.26         -56.3301        -112.554         -56.3314        -112.554       -0.0112513          148.12
0.546                  -0.717283        -144.796         -56.2792        -115.279         -56.2803        -115.279       -0.0113557         148.051
0.547                  -0.732927        -145.335         -56.2278         -118.01         -56.2287         -118.01       -0.0114614         147.981
0.548                  -0.748808        -145.877         -56.1756        -120.746         -56.1763        -120.746       -0.0115682         147.912
0.549                  -0.764935         -146.42         -56.1224        -123.488         -56.1229        -123.488       -0.0116763         147.842
0.55                   -0.781316        -146.967         -56.0679        -126.233         -56.0682        -126.233       -0.0117856         147.773
0.551                  -0.797958        -147.516         -56.0119        -128.982         -56.0121        -128.983       -0.0118962         147.703
0.552                  -0.814871        -148.067         -55.9542        -131.735         -55.9542        -131.735        -0.012008         147.633
0.553                  -0.832063        -148.622         -55.8946        -134.489         -55.8945        -134.489       -0.0121211         147.563
0.554                  -0.849542        -149.179          -55.833        -137.245         -55.8328        -137.245       -0.0122356         147.493
0.555                  -0.867318        -149.738         -55.7692        -140.002         -55.7689        -140.002       -0.0123513         147.422
0.556                  -0.885398          -150.3         -55.7031        -142.759         -55.7026        -142.759       -0.0124684         147.352
0.557                  -0.903793        -150.865         -55.6345        -145.515         -55.6339        -145.515       -0.0125868         147.281
0.558                  -0.922511        -151.433         -55.5634         -148.27         -55.5626         -148.27       -0.0127066         147.211
0.559                  -0.941563        -152.003         -55.4896        -151.022         -55.4888        -151.023       -0.0128278          147.14
0.56                   -0.960956        -152.576         -55.4131        -153.772         -55.4122        -153.772       -0.0129503         147.069
0.561                  -0.980702        -153.152         -55.3339        -156.517         -55.3329        -156.518       -0.0130743         146.998
0.562                   -1.00081         -153.73         -55.2518        -159.259         -55.2508        -159.259       -0.0131997         146.927
0.563                   -1.02129        -154.312          -55.167        -161.994         -55.1659        -161.995       -0.0133265         146.856
0.564                   -1.04215        -154.896         -55.0794        -164.725         -55.0782        -164.725       -0.0134549         146.784
0.565                   -1.06341        -155.483          -54.989        -167.448         -54.9877        -167.448       -0.0135847         146.713
0.566                   -1.08506        -156.072         -54.8957        -170.164         -54.8945        -170.164        -0.013716         146.641
0.567                   -1.10713        -156.665         -54.7998        -172.873         -54.7985        -172.873       -0.0138488         146.569
0.568                   -1.12963         -157.26         -54.7012        -175.573         -54.6999        -175.573       -0.0139831         146.497
0.569                   -1.15256        -157.859            -54.6        -178.265         -54.5986        -178.265       -0.0141191         146.425
0.57                    -1.17594         -158.46         -54.4962         179.052         -54.4948         179.053       -0.0142566         146.353
0.571                   -1.19977        -159.064         -54.3899         176.379         -54.3886          176.38       -0.0143957         146.281
0.572                   -1.22408        -159.671         -54.2813         173.716         -54.2799         173.716       -0.0145364         146.208
0.573                   -1.24886         -160.28         -54.1703         171.062          -54.169         171.063       -0.0146788         146.136
0.574                   -1.27414        -160.893         -54.0572         168.419         -54.0559          168.42       -0.0148228         146.063
0.575                   -1.29992        -161.508          -53.942         165.786         -53.9407         165.787       -0.0149686          145.99
0.576                   -1.32621        -162.127         -53.8249         163.164         -53.8236         163.165        -0.015116         145.917
0.577                   -1.35304        -162.748         -53.7058         160.551         -53.7046         160.552       -0.0152652         145.844
0.578                    -1.3804        -163.372         -53.5851          157.95         -53.5839         157.951       -0.0154162         145.771
0.579                   -1.40832        -163.999         -53.4628         155.358         -53.4616         155.359       -0.0155689         145.697
0.58                     -1.4368        -164.629         -53.3389         152.776         -53.3378         152.778       -0.0157235         145.623
0.581                   -1.46586        -165.261         -53.2137         150.205         -53.2126         150.206       -0.0158799          145.55
0.582                   -1.49551        -165.897         -53.0873         147.643         -53.0863         147.644       -0.0160382         145.476
0.583                   -1.52577        -166.535         -52.9597          145.09         -52.9587         145.091       -0.0161984         145.402
0.584                   -1.55664        -167.176         -52.8312         142.547         -52.8302         142.548       -0.0163605         145.327
0.585                   -1.58814         -167.82         -52.7018         140.012         -52.7009         140.013       -0.0165245         145.253
0.586                   -1.62028        -168.467         -52.5716         137.485         -52.5708         137.487       -0.0166905         145.178
0.587                   -1.65308        -169.117         -52.4408         134.967           -52.44         134.968       -0.0168586         145.103
0.588                   -1.68655        -169.769         -52.3094         132.456         -52.3087         132.457       -0.0170286         145.029
0.589                    -1.7207        -170.424         -52.1777         129.952         -52.1771         129.953       -0.0172008         144.953
0.59                    -1.75555        -171.082         -52.0457         127.454         -52.0451         127.456        -0.017375         144.878
0.591                   -1.79111        -171.742         -51.9135         124.963          -51.913         124.965       -0.0175514         144.803
0.592                   -1.82739        -172.405         -51.7812         122.477         -51.7807         122.479         -0.01773         144.727
0.593                   -1.86442        -173.071          -51.649         119.997         -51.6486         119.998       -0.0179107         144.651
0.594                   -1.90219        -173.739         -51.5169         117.521         -51.5165         117.522       -0.0180937         144.575
0.595                   -1.94074         -174.41          -51.385         115.048         -51.3847          115.05        -0.018279         144.499
0.596                   -1.98006        -175.084         -51.2535          112.58         -51.2533         112.581       -0.0184666         144.423
0.597                   -2.02018         -175.76         -51.1224         110.114         -51.1222         110.116       -0.0186565         144.347
0.598                   -2.06111        -176.439         -50.9918         107.651         -50.9917         107.652       -0.0188488          144.27
0.599                   -2.10286         -177.12         -50.8618          105.19         -50.8618         105.191       -0.0190435         144.193
0.6                     -2.14545        -177.803         -50.7326          102.73         -50.7325         102.731       -0.0192407         144.116
0.601                    -2.1889        -178.489         -50.6041         100.271         -50.6041         100.272       -0.0194404         144.039
0.602                   -2.23321        -179.177         -50.4764         97.8125         -50.4765         97.8138       -0.0196427         143.961
0.603                    -2.2784        -179.868         -50.3497          95.354         -50.3499         95.3554       -0.0198475         143.884
0.604                   -2.32449          179.44         -50.2241         92.8951         -50.2243         92.8964        -0.020055         143.806
0.605                    -2.3715         178.745         -50.0995         90.4352         -50.0997         90.4365       -0.0202651         143.728
0.606                   -2.41943         178.048         -49.9761          87.974         -49.9764         87.9753       -0.0204779          143.65
0.607                    -2.4683         177.348         -49.8539          85.511         -49.8542         85.5123       -0.0206936         143.571
0.608                   -2.51812         176.647          -49.733         83.0459         -49.7334         83.0472        -0.020912         143.492
0.609                   -2.56892         175.944         -49.6135         80.5783         -49.6139         80.5796       -0.0211333         143.414
0.61                     -2.6207         175.239         -49.4954         78.1079         -49.4958         78.1092       -0.0213575         143.334
0.611                   -2.67349         174.532         -49.3788         75.6343         -49.3793         75.6357       -0.0215847         143.255
0.612                   -2.72729         173.823         -49.2637         73.1573         -49.2642         73.1587       -0.0218148         143.176
0.613                   -2.78212         173.112         -49.1502         70.6767         -49.1508         70.6781       -0.0220481         143.096
0.614                     -2.838           172.4         -49.0384         68.1921          -49.039         68.1935       -0.0222845         143.016
0.615                   -2.89494         171.686         -48.9282         65.7033         -48.9289         65.7048        -0.022524         142.936
0.616                   -2.95295          170.97         -48.8198         63.2103         -48.8205         63.2117       -0.0227668         142.855
0.617                   -3.01206         170.253         -48.7132         60.7127         -48.7139         60.7142       -0.0230128         142.775
0.618                   -3.07227         169.535         -48.6084         58.2106         -48.6091         58.2121       -0.0232623         142.694
0.619                    -3.1336         168.815         -48.5054         55.7038         -48.5061         55.7053       -0.0235151         142.613
0.62                    -3.19607         168.094         -48.4043         53.1921          -48.405         53.1937       -0.0237714         142.531
0.621                    -3.2597         167.372         -48.3051         50.6757         -48.3059         50.6773       -0.0240312          142.45
0.622                   -3.32449         166.648         -48.2079         48.1544         -48.2086          48.156       -0.0242947         142.368
0.623                   -3.39046         165.924         -48.1126         45.6282         -48.1133         45.6299       -0.0245618         142.286
0.624                   -3.45764         165.198         -48.0192         43.0973           -48.02         43.0989       -0.0248327         142.203
0.625                   -3.52603         164.472         -47.9279         40.5616         -47.9287         40.5633       -0.0251073         142.121
0.626                   -3.59565         163.745         -47.8385         38.0212         -47.8393         38.0229       -0.0253859         142.038
0.627                   -3.66651         163.017         -47.7511         35.4762         -47.7519          35.478       -0.0256684         141.955
0.628                   -3.73864         162.289         -47.6657         32.9268         -47.6665         32.9286       -0.0259549         141.872
0.629                   -3.81205          161.56         -47.5823         30.3731         -47.5831         30.3749       -0.0262456         141.788
