! TOUCHSTONE file generated by CST MICROWAVE STUDIO
! Date and time: Mon Oct 26 12:05:37 2020
! Project name: Scenario_1_Circular_Tissue_out_of_Line_v2.cst
! Parameters = {dy1=-207.6; L_HA=400; MT=2.54; Rad_Dielectric=30; Rad_Lower=7.3; Rad_Upper=30; a_HA=580; a_WG=246; b_HA=500; b_WG=121; c_HA=0; c_WG=187; d_feed=85; dx1=173; h_feed=15; h_lower=18; h_upper=40}
! Header version: 2018
! Port assignment regex: !\s*Touchstone port\s*([0-9]+)\s*=\s*(CST MWS port|CST DS port)\s*([0-9]+|Zmin|Zmax)\s*\(\"(.*)\"\)(\s*mode\s*([0-9]+))?.*
! Touchstone port assignment:
! Touchstone port 1 = CST MWS port 1 ("")
! Touchstone port 2 = CST MWS port 2 ("")
# GHz S DB R 50
0.5                    -0.132573        -122.569         -59.8301         123.063         -59.8291         123.064      -0.00675137          151.14
0.501                  -0.137594         -123.04         -59.6426         122.087         -59.6409         122.096      -0.00679355         151.074
0.502                  -0.143085        -123.512         -59.4527         121.091         -59.4502         121.107      -0.00683803         151.008
0.503                  -0.149052        -123.986         -59.2603         120.074         -59.2572         120.097      -0.00688479         150.943
0.504                  -0.155502        -124.462         -59.0657         119.037         -59.0618         119.066      -0.00693381         150.877
0.505                  -0.162439         -124.94         -58.8688         117.978         -58.8643         118.013      -0.00698508         150.811
0.506                  -0.169868        -125.419         -58.6699         116.898         -58.6646         116.937      -0.00703859         150.745
0.507                  -0.177792          -125.9          -58.469         115.794          -58.463         115.839      -0.00709432         150.679
0.508                  -0.186213        -126.383         -58.2662         114.668         -58.2596         114.717      -0.00715224         150.613
0.509                  -0.195132        -126.866         -58.0618         113.519         -58.0544         113.571      -0.00721236         150.547
0.51                   -0.204549        -127.351         -57.8557         112.345         -57.8477         112.401      -0.00727463         150.481
0.511                  -0.214465        -127.837         -57.6482         111.148         -57.6396         111.206      -0.00733906         150.415
0.512                  -0.224877        -128.324         -57.4394         109.926         -57.4302         109.986      -0.00740561         150.348
0.513                  -0.235781        -128.812         -57.2294         108.679         -57.2197          108.74      -0.00747427         150.282
0.514                  -0.247174          -129.3         -57.0184         107.407         -57.0082         107.469      -0.00754502         150.216
0.515                  -0.259049        -129.789         -56.8067         106.109         -56.7959         106.172      -0.00761785         150.149
0.516                  -0.271402        -130.279         -56.5942         104.786         -56.5829         104.849      -0.00769272         150.082
0.517                  -0.284223        -130.769         -56.3812         103.437         -56.3695           103.5      -0.00776963         150.016
0.518                  -0.297504         -131.26          -56.168         102.061         -56.1558         102.124      -0.00784855         149.949
0.519                  -0.311235        -131.751         -55.9545          100.66          -55.942         100.722      -0.00792946         149.882
0.52                   -0.325404        -132.242         -55.7411         99.2327         -55.7283         99.2933      -0.00801234         149.815
0.521                      -0.34        -132.733          -55.528         97.7792         -55.5149         97.8384      -0.00809718         149.748
0.522                  -0.355008        -133.224         -55.3152         96.2999         -55.3019         96.3573      -0.00818395         149.681
0.523                  -0.370414        -133.715          -55.103         94.7947         -55.0896         94.8502      -0.00827263         149.614
0.524                  -0.386204        -134.206         -54.8917          93.264          -54.878         93.3172      -0.00836321         149.546
0.525                   -0.40236        -134.697         -54.6813         91.7081         -54.6676         91.7589      -0.00845566         149.479
0.526                  -0.418867        -135.188          -54.472         90.1272         -54.4583         90.1755      -0.00854997         149.412
0.527                  -0.435705        -135.678         -54.2642          88.522         -54.2504         88.5675      -0.00864612         149.344
0.528                  -0.452857        -136.168         -54.0578         86.8928         -54.0441         86.9355      -0.00874408         149.276
0.529                  -0.470303        -136.657         -53.8532         85.2402         -53.8396           85.28      -0.00884385         149.209
0.53                   -0.488025        -137.146         -53.6505          83.565          -53.637         83.6018       -0.0089454         149.141
0.531                  -0.506002        -137.635         -53.4498         81.8677         -53.4365         81.9016      -0.00904872         149.073
0.532                  -0.524214        -138.123         -53.2514         80.1493         -53.2383         80.1802      -0.00915379         149.005
0.533                   -0.54264        -138.611         -53.0554         78.4106         -53.0426         78.4386      -0.00926058         148.937
0.534                  -0.561262        -139.099          -52.862         76.6526         -52.8494         76.6776       -0.0093691         148.869
0.535                  -0.580057        -139.586         -52.6712         74.8761          -52.659         74.8982      -0.00947932         148.801
0.536                  -0.599007        -140.074         -52.4833         73.0822         -52.4714         73.1016      -0.00959122         148.732
0.537                  -0.618091         -140.56         -52.2983         71.2721         -52.2868         71.2889      -0.00970479         148.664
0.538                   -0.63729        -141.047         -52.1163         69.4468         -52.1053         69.4611      -0.00982002         148.595
0.539                  -0.656585        -141.534         -51.9376         67.6076         -51.9269         67.6195      -0.00993689         148.527
0.54                   -0.675957         -142.02          -51.762         65.7557         -51.7519         65.7654       -0.0100554         148.458
0.541                  -0.695389        -142.507         -51.5898         63.8923         -51.5801         63.8998       -0.0101755         148.389
0.542                  -0.714864        -142.994          -51.421         62.0185         -51.4118         62.0242       -0.0102972          148.32
0.543                  -0.734365        -143.481         -51.2556         60.1358         -51.2468         60.1398       -0.0104206         148.251
0.544                  -0.753878        -143.968         -51.0936         58.2454         -51.0854         58.2478       -0.0105455         148.182
0.545                  -0.773389        -144.456         -50.9351         56.3485         -50.9274         56.3495       -0.0106719         148.113
0.546                  -0.792883        -144.945         -50.7801         54.4463         -50.7729         54.4462          -0.0108         148.043
0.547                   -0.81235        -145.434         -50.6286         52.5402         -50.6219          52.539       -0.0109296         147.974
0.548                  -0.831778        -145.925         -50.4805         50.6312         -50.4743         50.6293       -0.0110607         147.904
0.549                  -0.851159        -146.416         -50.3359         48.7206         -50.3302          48.718       -0.0111934         147.834
0.55                   -0.870484        -146.909         -50.1946         46.8095         -50.1894         46.8063       -0.0113276         147.765
0.551                  -0.889747        -147.403         -50.0567         44.8989         -50.0519         44.8954       -0.0114633         147.695
0.552                  -0.908941        -147.899         -49.9221           42.99         -49.9177         42.9862       -0.0116006         147.625
0.553                  -0.928063        -148.396         -49.7906         41.0835         -49.7867         41.0797       -0.0117393         147.555
0.554                  -0.947111        -148.896         -49.6622         39.1805         -49.6588         39.1768       -0.0118796         147.484
0.555                  -0.966083        -149.397         -49.5369         37.2819         -49.5338         37.2783       -0.0120214         147.414
0.556                  -0.984979        -149.901         -49.4145         35.3884         -49.4118          35.385       -0.0121647         147.344
0.557                    -1.0038        -150.407          -49.295         33.5007         -49.2926         33.4976       -0.0123095         147.273
0.558                   -1.02255        -150.916         -49.1782         31.6195         -49.1762         31.6168       -0.0124558         147.202
0.559                   -1.04124        -151.427          -49.064         29.7453         -49.0623         29.7432       -0.0126036         147.132
0.56                    -1.05986        -151.942         -48.9523         27.8788         -48.9509         27.8772       -0.0127528         147.061
0.561                   -1.07844         -152.46         -48.8431         26.0204         -48.8419         26.0194       -0.0129036          146.99
0.562                   -1.09697        -152.981         -48.7361         24.1705         -48.7352         24.1701       -0.0130559         146.918
0.563                   -1.11546        -153.506         -48.6313         22.3294         -48.6307         22.3296       -0.0132097         146.847
0.564                   -1.13394        -154.034         -48.5286         20.4975         -48.5282         20.4983        -0.013365         146.776
0.565                    -1.1524        -154.566         -48.4279         18.6749         -48.4276         18.6764       -0.0135218         146.704
0.566                   -1.17087        -155.102          -48.329         16.8618         -48.3289         16.8639       -0.0136801         146.632
0.567                   -1.18936        -155.643         -48.2319         15.0584          -48.232         15.0612         -0.01384         146.561
0.568                   -1.20789        -156.187         -48.1365         13.2647         -48.1367         13.2681       -0.0140013         146.489
0.569                   -1.22647        -156.737         -48.0426         11.4809         -48.0429         11.4849       -0.0141643         146.417
0.57                    -1.24513        -157.291         -47.9501         9.70678         -47.9505         9.71134       -0.0143287         146.344
0.571                   -1.26389         -157.85          -47.859         7.94245         -47.8595         7.94755       -0.0144947         146.272
0.572                   -1.28276        -158.414         -47.7692         6.18781         -47.7698          6.1934       -0.0146622         146.199
0.573                   -1.30176        -158.983         -47.6806         4.44275         -47.6812         4.44881       -0.0148314         146.127
0.574                   -1.32094        -159.557         -47.5931         2.70714         -47.5938         2.71363       -0.0150021         146.054
0.575                   -1.34029        -160.137         -47.5066        0.980848         -47.5073        0.987723       -0.0151744         145.981
0.576                   -1.35987        -160.722         -47.4211       -0.736313         -47.4218       -0.729093       -0.0153483         145.908
0.577                   -1.37968        -161.314         -47.3365        -2.44453         -47.3372        -2.43701       -0.0155238         145.835
0.578                   -1.39976        -161.911         -47.2527          -4.144         -47.2535        -4.13622       -0.0157009         145.762
0.579                   -1.42014        -162.514         -47.1697        -5.83496         -47.1704        -5.82696       -0.0158798         145.688
0.58                    -1.44085        -163.123         -47.0874        -7.51762         -47.0881        -7.50945       -0.0160602         145.614
0.581                   -1.46191        -163.738         -47.0058        -9.19224         -47.0065        -9.18394       -0.0162424         145.541
0.582                   -1.48337         -164.36         -46.9248         -10.859         -46.9255        -10.8507       -0.0164262         145.467
0.583                   -1.50525        -164.988         -46.8444        -12.5183          -46.845        -12.5099       -0.0166118         145.392
0.584                   -1.52759        -165.622         -46.7645        -14.1703         -46.7651        -14.1618       -0.0167991         145.318
0.585                   -1.55041        -166.263         -46.6851        -15.8152         -46.6857        -15.8067       -0.0169882         145.244
0.586                   -1.57377        -166.911         -46.6062        -17.4533         -46.6067        -17.4449        -0.017179         145.169
0.587                   -1.59769        -167.566         -46.5277        -19.0849         -46.5282        -19.0766       -0.0173717         145.094
0.588                   -1.62221        -168.227         -46.4496        -20.7102         -46.4501         -20.702       -0.0175662          145.02
0.589                   -1.64736        -168.895         -46.3719        -22.3295         -46.3723        -22.3215       -0.0177625         144.945
0.59                     -1.6732        -169.571         -46.2946         -23.943          -46.295        -23.9352       -0.0179608         144.869
0.591                   -1.69976        -170.253         -46.2176         -25.551          -46.218        -25.5433       -0.0181609         144.794
0.592                   -1.72707        -170.942          -46.141        -27.1536         -46.1413        -27.1462        -0.018363         144.718
0.593                   -1.75519        -171.639         -46.0646        -28.7512         -46.0649         -28.744        -0.018567         144.643
0.594                   -1.78415        -172.342         -45.9886        -30.3439         -45.9889         -30.337        -0.018773         144.567
0.595                   -1.81399        -173.053         -45.9129         -31.932         -45.9131        -31.9253       -0.0189811          144.49
0.596                   -1.84477         -173.77         -45.8375        -33.5156         -45.8377        -33.5092       -0.0191912         144.414
0.597                   -1.87653        -174.495         -45.7624        -35.0949         -45.7626        -35.0888       -0.0194034         144.338
0.598                    -1.9093        -175.227         -45.6876        -36.6702         -45.6877        -36.6644       -0.0196178         144.261
0.599                   -1.94315        -175.966         -45.6131        -38.2416         -45.6132        -38.2361       -0.0198343         144.184
0.6                      -1.9781        -176.712         -45.5388        -39.8092         -45.5389        -39.8041        -0.020053         144.107
0.601                   -2.01423        -177.466         -45.4649        -41.3733         -45.4649        -41.3685        -0.020274          144.03
0.602                   -2.05156        -178.226         -45.3912         -42.934         -45.3912        -42.9295       -0.0204972         143.953
0.603                   -2.09016        -178.993         -45.3179        -44.4914         -45.3178        -44.4872       -0.0207228         143.875
0.604                   -2.13007        -179.767         -45.2448        -46.0456         -45.2447        -46.0417       -0.0209507         143.797
0.605                   -2.17134         179.452         -45.1721        -47.5967          -45.172        -47.5931        -0.021181         143.719
0.606                   -2.21402         178.664         -45.0996         -49.145         -45.0995        -49.1417       -0.0214138         143.641
0.607                   -2.25817          177.87         -45.0275        -50.6903         -45.0274        -50.6873       -0.0216491         143.563
0.608                   -2.30383         177.069         -44.9557        -52.2329         -44.9555        -52.2302       -0.0218869         143.484
0.609                   -2.35107         176.262         -44.8842        -53.7729          -44.884        -53.7705       -0.0221273         143.405
0.61                    -2.39993         175.448         -44.8131        -55.3102         -44.8129         -55.308       -0.0223704         143.326
0.611                   -2.45047         174.629         -44.7423        -56.8449         -44.7421         -56.843       -0.0226162         143.247
0.612                   -2.50273         173.803         -44.6718        -58.3771         -44.6717        -58.3755       -0.0228647         143.167
0.613                   -2.55678         172.972         -44.6018        -59.9068         -44.6016        -59.9055       -0.0231161         143.088
0.614                   -2.61267         172.136         -44.5321        -61.4341         -44.5319         -61.433       -0.0233703         143.008
0.615                   -2.67046         171.294         -44.4627        -62.9589         -44.4625         -62.958       -0.0236274         142.928
0.616                   -2.73019         170.446         -44.3938        -64.4813         -44.3936        -64.4807       -0.0238875         142.847
0.617                   -2.79192         169.594         -44.3252        -66.0013          -44.325        -66.0009       -0.0241507         142.767
0.618                   -2.85571         168.738         -44.2571        -67.5189         -44.2569        -67.5186       -0.0244169         142.686
0.619                    -2.9216         167.877         -44.1893         -69.034         -44.1891        -69.0339       -0.0246864         142.605
0.62                    -2.98967         167.012          -44.122        -70.5467         -44.1218        -70.5467        -0.024959         142.524
0.621                   -3.05995         166.143         -44.0551        -72.0569         -44.0549        -72.0571        -0.025235         142.442
0.622                   -3.13249         165.271         -43.9886        -73.5646         -43.9884        -73.5649       -0.0255144          142.36
0.623                   -3.20737         164.396         -43.9225        -75.0697         -43.9223        -75.0701       -0.0257972         142.278
0.624                   -3.28461         163.518         -43.8568        -76.5722         -43.8566        -76.5728       -0.0260836         142.196
0.625                   -3.36428         162.638         -43.7916        -78.0721         -43.7914        -78.0727       -0.0263735         142.113
0.626                   -3.44642         161.756         -43.7268        -79.5693         -43.7266          -79.57       -0.0266671          142.03
0.627                   -3.53109         160.873         -43.6624        -81.0637         -43.6623        -81.0645       -0.0269645         141.947
0.628                   -3.61833         159.988         -43.5985        -82.5553         -43.5984        -82.5561       -0.0272657         141.864
0.629                   -3.70819         159.103          -43.535         -84.044         -43.5349        -84.0449       -0.0275709          141.78
