! TOUCHSTONE file generated by CST MICROWAVE STUDIO
! Date and time: Wed Oct 28 19:34:42 2020
! Project name: Scenario_1_Circular_Tissue_out_of_Line_v2.cst
! Parameters = {dy1=-207.6; L_HA=400; MT=2.54; Rad_Dielectric=30; Rad_Lower=7.3; Rad_Upper=30; a_HA=580; a_WG=246; b_HA=500; b_WG=121; c_HA=0; c_WG=187; d_feed=85; dx1=346; h_feed=15; h_lower=18; h_upper=40}
! Header version: 2018
! Port assignment regex: !\s*Touchstone port\s*([0-9]+)\s*=\s*(CST MWS port|CST DS port)\s*([0-9]+|Zmin|Zmax)\s*\(\"(.*)\"\)(\s*mode\s*([0-9]+))?.*
! Touchstone port assignment:
! Touchstone port 1 = CST MWS port 1 ("")
! Touchstone port 2 = CST MWS port 2 ("")
# GHz S DB R 50
0.5                    -0.156274        -122.278         -60.4862         13.2453         -60.4862         13.2453      -0.00805846         151.131
0.501                   -0.16599        -122.722         -60.3861         11.9401         -60.3861         11.9402      -0.00812137         151.066
0.502                  -0.175721        -123.167         -60.2845         10.6302         -60.2845         10.6304      -0.00818465         151.001
0.503                  -0.185459        -123.612         -60.1814         9.31563         -60.1814         9.31591       -0.0082483         150.935
0.504                  -0.195194        -124.058         -60.0767         7.99649         -60.0767         7.99687      -0.00831233          150.87
0.505                   -0.20492        -124.505         -59.9706         6.67282         -59.9706         6.67328      -0.00837675         150.804
0.506                  -0.214628        -124.952          -59.863         5.34466          -59.863         5.34519      -0.00844157         150.739
0.507                  -0.224309          -125.4          -59.754         4.01204          -59.754         4.01264      -0.00850679         150.673
0.508                  -0.233956        -125.849         -59.6435         2.67501         -59.6435         2.67567      -0.00857244         150.608
0.509                  -0.243561        -126.298         -59.5316         1.33359         -59.5316          1.3343      -0.00863852         150.542
0.51                   -0.253117        -126.749         -59.4183      -0.0121931         -59.4183      -0.0114233      -0.00870504         150.476
0.511                  -0.262616        -127.201         -59.3036        -1.36231         -59.3036         -1.3615      -0.00877202          150.41
0.512                  -0.272052        -127.654         -59.1875        -2.71676         -59.1875         -2.7159      -0.00883945         150.344
0.513                  -0.281418        -128.108         -59.0701        -4.07551         -59.0701        -4.07461      -0.00890736         150.278
0.514                  -0.290708        -128.564         -58.9513        -5.43857         -58.9514        -5.43764      -0.00897575         150.212
0.515                  -0.299919        -129.021         -58.8313        -6.80593         -58.8313        -6.80497      -0.00904463         150.145
0.516                  -0.309044         -129.48           -58.71         -8.1776           -58.71        -8.17662      -0.00911403         150.079
0.517                  -0.318081        -129.941         -58.5874        -9.55359         -58.5874        -9.55259      -0.00918395         150.013
0.518                  -0.327028        -130.404         -58.4635        -10.9339         -58.4636        -10.9329      -0.00925439         149.946
0.519                  -0.335882        -130.869         -58.3385        -12.3186         -58.3385        -12.3175      -0.00932539         149.879
0.52                   -0.344644        -131.336         -58.2122        -13.7076         -58.2123        -13.7066      -0.00939694         149.813
0.521                  -0.353316        -131.806         -58.0848        -15.1011         -58.0849           -15.1      -0.00946906         149.746
0.522                  -0.361899        -132.278         -57.9563         -16.499         -57.9564        -16.4979      -0.00954176         149.679
0.523                  -0.370399        -132.753         -57.8267        -17.9013         -57.8267        -17.9003      -0.00961507         149.612
0.524                  -0.378823        -133.231          -57.696        -19.3082          -57.696        -19.3071      -0.00968898         149.545
0.525                  -0.387179        -133.713         -57.5642        -20.7196         -57.5643        -20.7186      -0.00976352         149.478
0.526                  -0.395477        -134.197         -57.4315        -22.1356         -57.4315        -22.1346       -0.0098387         149.411
0.527                  -0.403732        -134.686         -57.2977        -23.5564         -57.2977        -23.5554      -0.00991454         149.343
0.528                  -0.411959        -135.178          -57.163        -24.9818          -57.163        -24.9808      -0.00999105         149.276
0.529                  -0.420177        -135.674         -57.0274         -26.412         -57.0274        -26.4111       -0.0100682         149.208
0.53                   -0.428409        -136.174         -56.8909        -27.8471         -56.8909        -27.8462       -0.0101461         149.141
0.531                  -0.436678        -136.679         -56.7535        -29.2871         -56.7535        -29.2862       -0.0102248         149.073
0.532                  -0.445013        -137.188         -56.6153        -30.7321         -56.6153        -30.7312       -0.0103041         149.005
0.533                  -0.453445        -137.702         -56.4763        -32.1821         -56.4764        -32.1812       -0.0103842         148.937
0.534                   -0.46201        -138.221         -56.3366        -33.6373         -56.3366        -33.6365       -0.0104651         148.869
0.535                  -0.470745        -138.745         -56.1962        -35.0977         -56.1962        -35.0969       -0.0105468         148.801
0.536                  -0.479693        -139.274         -56.0551        -36.5633         -56.0551        -36.5626       -0.0106292         148.733
0.537                  -0.488898        -139.809         -55.9133        -38.0344         -55.9133        -38.0336       -0.0107125         148.665
0.538                  -0.498408        -140.349          -55.771        -39.5108          -55.771        -39.5102       -0.0107967         148.596
0.539                  -0.508274        -140.895          -55.628        -40.9928         -55.6281        -40.9922       -0.0108817         148.528
0.54                   -0.518551        -141.447         -55.4846        -42.4804         -55.4846        -42.4798       -0.0109676         148.459
0.541                  -0.529294        -142.004         -55.3407        -43.9737         -55.3407        -43.9732       -0.0110544          148.39
0.542                   -0.54056        -142.567         -55.1964        -45.4727         -55.1964        -45.4722       -0.0111421         148.322
0.543                  -0.552411        -143.136         -55.0516        -46.9776         -55.0516        -46.9771       -0.0112308         148.253
0.544                  -0.564905         -143.71         -54.9065        -48.4883         -54.9065        -48.4879       -0.0113204         148.184
0.545                  -0.578102         -144.29         -54.7611         -50.005         -54.7611        -50.0046       -0.0114111         148.114
0.546                  -0.592063        -144.875         -54.6154        -51.5278         -54.6155        -51.5274       -0.0115027         148.045
0.547                  -0.606845        -145.465         -54.4695        -53.0566         -54.4695        -53.0563       -0.0115954         147.976
0.548                  -0.622505         -146.06         -54.3235        -54.5916         -54.3235        -54.5913       -0.0116892         147.906
0.549                  -0.639096         -146.66         -54.1772        -56.1328         -54.1772        -56.1325       -0.0117841         147.837
0.55                   -0.656667        -147.264         -54.0309        -57.6802         -54.0309          -57.68       -0.0118801         147.767
0.551                  -0.675262        -147.872         -53.8846        -59.2339         -53.8846        -59.2338       -0.0119772         147.697
0.552                  -0.694923        -148.484         -53.7382         -60.794         -53.7382        -60.7939       -0.0120756         147.627
0.553                  -0.715682        -149.098         -53.5919        -62.3603         -53.5919        -62.3603       -0.0121751         147.557
0.554                  -0.737566        -149.716         -53.4457        -63.9331         -53.4457        -63.9331       -0.0122758         147.487
0.555                  -0.760596        -150.336         -53.2996        -65.5123         -53.2996        -65.5123       -0.0123778         147.416
0.556                  -0.784785        -150.958         -53.1538        -67.0978         -53.1538        -67.0979       -0.0124812         147.346
0.557                  -0.810138        -151.581         -53.0081        -68.6898         -53.0081        -68.6899       -0.0125858         147.275
0.558                  -0.836653        -152.205         -52.8628        -70.2881         -52.8628        -70.2883       -0.0126918         147.205
0.559                  -0.864321        -152.829         -52.7177        -71.8928         -52.7177         -71.893       -0.0127992         147.134
0.56                   -0.893126        -153.454         -52.5731        -73.5038         -52.5731         -73.504        -0.012908         147.063
0.561                  -0.923042        -154.078         -52.4288        -75.1211         -52.4288        -75.1214       -0.0130182         146.992
0.562                   -0.95404        -154.701         -52.2851        -76.7446         -52.2851        -76.7449         -0.01313          146.92
0.563                  -0.986085        -155.323         -52.1418        -78.3743         -52.1418        -78.3746       -0.0132433         146.849
0.564                   -1.01913        -155.943         -51.9991        -80.0101         -51.9991        -80.0104       -0.0133581         146.778
0.565                   -1.05314        -156.562          -51.857        -81.6518          -51.857        -81.6522       -0.0134745         146.706
0.566                   -1.08806        -157.178         -51.7156        -83.2995         -51.7156        -83.2999       -0.0135926         146.634
0.567                   -1.12384        -157.792         -51.5748         -84.953         -51.5748        -84.9534       -0.0137124         146.562
0.568                   -1.16042        -158.404         -51.4348        -86.6121         -51.4348        -86.6125       -0.0138339          146.49
0.569                   -1.19774        -159.013         -51.2956        -88.2768         -51.2956        -88.2772       -0.0139571         146.418
0.57                    -1.23576        -159.619         -51.1572        -89.9469         -51.1572        -89.9473       -0.0140821         146.346
0.571                   -1.27441        -160.222         -51.0196        -91.6222         -51.0196        -91.6226        -0.014209         146.273
0.572                   -1.31364        -160.822         -50.8829        -93.3025         -50.8829         -93.303       -0.0143377         146.201
0.573                    -1.3534         -161.42         -50.7472        -94.9878         -50.7472        -94.9883       -0.0144684         146.128
0.574                   -1.39362        -162.014         -50.6124        -96.6778         -50.6124        -96.6783        -0.014601         146.055
0.575                   -1.43426        -162.606         -50.4786        -98.3722         -50.4786        -98.3727       -0.0147356         145.982
0.576                   -1.47528        -163.195         -50.3458        -100.071         -50.3458        -100.071       -0.0148723         145.909
0.577                   -1.51663        -163.782         -50.2141        -101.774         -50.2141        -101.774        -0.015011         145.836
0.578                   -1.55825        -164.366         -50.0835         -103.48         -50.0835        -103.481       -0.0151519         145.762
0.579                   -1.60013        -164.948          -49.954        -105.191          -49.954        -105.191        -0.015295         145.689
0.58                    -1.64221        -165.528         -49.8256        -106.904         -49.8256        -106.905       -0.0154402         145.615
0.581                   -1.68447        -166.106         -49.6983        -108.621         -49.6983        -108.621       -0.0155878         145.541
0.582                   -1.72688        -166.683         -49.5723        -110.341         -49.5723        -110.341       -0.0157376         145.467
0.583                   -1.76942        -167.258         -49.4474        -112.063         -49.4474        -112.063       -0.0158898         145.393
0.584                   -1.81205        -167.832         -49.3237        -113.787         -49.3237        -113.788       -0.0160443         145.318
0.585                   -1.85477        -168.405         -49.2012        -115.514         -49.2012        -115.514       -0.0162013         145.244
0.586                   -1.89755        -168.977         -49.0799        -117.242         -49.0799        -117.242       -0.0163607         145.169
0.587                   -1.94038        -169.549         -48.9599        -118.971         -48.9599        -118.972       -0.0165226         145.094
0.588                   -1.98325        -170.121          -48.841        -120.702          -48.841        -120.703        -0.016687         145.019
0.589                   -2.02616        -170.693         -48.7234        -122.434         -48.7234        -122.434        -0.016854         144.944
0.59                    -2.06909        -171.265          -48.607        -124.167          -48.607        -124.167       -0.0170236         144.868
0.591                   -2.11205        -171.837         -48.4919        -125.899         -48.4919        -125.899       -0.0171958         144.793
0.592                   -2.15504        -172.411         -48.3779        -127.632         -48.3779        -127.632       -0.0173707         144.717
0.593                   -2.19805        -172.985         -48.2651        -129.365         -48.2651        -129.365       -0.0175482         144.641
0.594                   -2.24109        -173.561         -48.1536        -131.097         -48.1536        -131.097       -0.0177285         144.565
0.595                   -2.28417        -174.138         -48.0431        -132.829         -48.0431        -132.829       -0.0179115         144.489
0.596                   -2.32728        -174.716         -47.9339        -134.559         -47.9339        -134.559       -0.0180972         144.412
0.597                   -2.37045        -175.297         -47.8258        -136.288         -47.8258        -136.288       -0.0182858         144.335
0.598                   -2.41368         -175.88         -47.7187        -138.016         -47.7187        -138.016       -0.0184771         144.259
0.599                   -2.45698        -176.465         -47.6128        -139.743         -47.6128        -139.743       -0.0186713         144.182
0.6                     -2.50036        -177.053         -47.5079        -141.467         -47.5079        -141.467       -0.0188682         144.104
0.601                   -2.54385        -177.643         -47.4041        -143.189         -47.4041        -143.189        -0.019068         144.027
0.602                   -2.58745        -178.236         -47.3013        -144.909         -47.3012        -144.909       -0.0192707         143.949
0.603                   -2.63118        -178.833         -47.1994        -146.627         -47.1994        -146.627       -0.0194763         143.872
0.604                   -2.67506        -179.432         -47.0985        -148.342         -47.0985        -148.342       -0.0196847         143.794
0.605                   -2.71911         179.964         -46.9984        -150.054         -46.9984        -150.054        -0.019896         143.715
0.606                   -2.76335         179.357         -46.8993        -151.763         -46.8993        -151.763       -0.0201102         143.637
0.607                   -2.80781         178.746          -46.801        -153.469          -46.801        -153.469       -0.0203273         143.559
0.608                   -2.85249         178.131         -46.7035        -155.172         -46.7034        -155.172       -0.0205473          143.48
0.609                   -2.89743         177.512         -46.6067        -156.872         -46.6067        -156.872       -0.0207702         143.401
0.61                    -2.94265         176.888         -46.5107        -158.569         -46.5107        -158.568       -0.0209961         143.322
0.611                   -2.98817          176.26         -46.4153        -160.262         -46.4153        -160.261       -0.0212249         143.242
0.612                   -3.03403         175.627         -46.3206        -161.951         -46.3206        -161.951       -0.0214566         143.162
0.613                   -3.08025         174.989         -46.2265        -163.637         -46.2265        -163.637       -0.0216913         143.083
0.614                   -3.12686         174.346          -46.133         -165.32          -46.133        -165.319        -0.021929         143.003
0.615                   -3.17388         173.698           -46.04        -166.999           -46.04        -166.998       -0.0221696         142.922
0.616                   -3.22136         173.044         -45.9475        -168.674         -45.9475        -168.674       -0.0224133         142.842
0.617                   -3.26932         172.385         -45.8555        -170.346         -45.8554        -170.346         -0.02266         142.761
0.618                    -3.3178          171.72         -45.7638        -172.015         -45.7638        -172.014       -0.0229098          142.68
0.619                   -3.36683         171.049         -45.6726        -173.679         -45.6725        -173.679       -0.0231627         142.599
0.62                    -3.41645         170.373         -45.5816        -175.341         -45.5816         -175.34       -0.0234187         142.517
0.621                    -3.4667         169.689          -45.491        -176.999          -45.491        -176.998       -0.0236778         142.436
0.622                   -3.51761             169         -45.4007        -178.654         -45.4006        -178.653       -0.0239401         142.354
0.623                   -3.56924         168.304         -45.3106         179.694         -45.3105         179.695       -0.0242057         142.271
0.624                   -3.62161         167.602         -45.2207         178.046         -45.2206         178.046       -0.0244746         142.189
0.625                   -3.67478         166.893          -45.131           176.4         -45.1309         176.401       -0.0247468         142.106
0.626                   -3.72879         166.176         -45.0414         174.757         -45.0413         174.758       -0.0250224         142.023
0.627                    -3.7837         165.453          -44.952         173.117         -44.9519         173.118       -0.0253014          141.94
0.628                   -3.83955         164.723         -44.8626          171.48         -44.8625          171.48        -0.025584         141.857
0.629                   -3.89639         163.985         -44.7733         169.845         -44.7732         169.845       -0.0258702         141.773
