! TOUCHSTONE file generated by CST MICROWAVE STUDIO
! Date and time: Fri Oct 30 07:50:06 2020
! Project name: Scenario_1_Circular_Tissue_out_of_Line.cst
! Parameters = {dy1=-207.272; L_HA=400; MT=2.54; Rad_Dielectric=30; Rad_Lower=7.3; Rad_Upper=30; a_HA=580; a_WG=246; b_HA=500; b_WG=121; c_HA=0; c_WG=187; d_feed=85; dx1=520; h_feed=15; h_lower=18; h_upper=40}
! Header version: 2018
! Port assignment regex: !\s*Touchstone port\s*([0-9]+)\s*=\s*(CST MWS port|CST DS port)\s*([0-9]+|Zmin|Zmax)\s*\(\"(.*)\"\)(\s*mode\s*([0-9]+))?.*
! Touchstone port assignment:
! Touchstone port 1 = CST MWS port 1 ("")
! Touchstone port 2 = CST MWS port 2 ("")
# GHz S DB R 50
0.5                    -0.139245        -122.468         -62.5326        -69.6022         -62.5322        -69.6019      -0.00731146         151.118
0.501                  -0.147447        -122.914          -62.342        -70.9919         -62.3408        -70.9894      -0.00737815         151.052
0.502                  -0.155841         -123.36         -62.1498        -72.4033         -62.1478        -72.3987      -0.00744584         150.987
0.503                  -0.164426        -123.808         -61.9559        -73.8367         -61.9532        -73.8304      -0.00751452         150.921
0.504                  -0.173201        -124.257         -61.7605        -75.2926         -61.7571        -75.2848       -0.0075842         150.856
0.505                  -0.182167        -124.708         -61.5638        -76.7714         -61.5597        -76.7624      -0.00765488          150.79
0.506                  -0.191322        -125.159         -61.3658        -78.2736          -61.361        -78.2636      -0.00772658         150.724
0.507                  -0.200665        -125.612         -61.1666        -79.7995         -61.1611        -79.7888       -0.0077993         150.658
0.508                  -0.210196        -126.066         -60.9663        -81.3496         -60.9603        -81.3384      -0.00787305         150.593
0.509                  -0.219913        -126.521         -60.7651        -82.9241         -60.7585        -82.9126      -0.00794783         150.527
0.51                   -0.229815        -126.978         -60.5631        -84.5234          -60.556        -84.5119      -0.00802365         150.461
0.511                  -0.239901        -127.436         -60.3604        -86.1479         -60.3528        -86.1365      -0.00810052         150.394
0.512                   -0.25017        -127.895         -60.1573        -87.7977         -60.1492        -87.7867      -0.00817844         150.328
0.513                   -0.26062        -128.355         -59.9538        -89.4731         -59.9453        -89.4627      -0.00825742         150.262
0.514                   -0.27125        -128.816         -59.7501        -91.1742         -59.7413        -91.1646      -0.00833747         150.196
0.515                  -0.282057        -129.279         -59.5464        -92.9012         -59.5372        -92.8925       -0.0084186         150.129
0.516                  -0.293041        -129.743         -59.3429        -94.6542         -59.3334        -94.6466       -0.0085008         150.063
0.517                  -0.304199        -130.208         -59.1397        -96.4331           -59.13        -96.4267      -0.00858409         149.996
0.518                   -0.31553        -130.675          -58.937        -98.2379         -58.9271        -98.2328      -0.00866848         149.929
0.519                   -0.32703        -131.142         -58.7351        -100.068          -58.725        -100.065      -0.00875396         149.863
0.52                   -0.338699        -131.612         -58.5341        -101.924         -58.5238        -101.922      -0.00884055         149.796
0.521                  -0.350534        -132.082         -58.3342        -103.806         -58.3239        -103.805      -0.00892825         149.729
0.522                  -0.362533        -132.554         -58.1356        -105.712         -58.1252        -105.713      -0.00901707         149.662
0.523                  -0.374693        -133.027         -57.9385        -107.642         -57.9282        -107.645      -0.00910701         149.595
0.524                  -0.387012        -133.502         -57.7431        -109.597         -57.7328        -109.601      -0.00919808         149.527
0.525                  -0.399486        -133.978         -57.5497        -111.574         -57.5395         -111.58      -0.00929027          149.46
0.526                  -0.412115        -134.455         -57.3583        -113.574         -57.3482        -113.582      -0.00938361         149.393
0.527                  -0.424894        -134.934         -57.1692        -115.595         -57.1594        -115.605      -0.00947808         149.325
0.528                  -0.437821        -135.414         -56.9827        -117.637          -56.973        -117.648      -0.00957371         149.258
0.529                  -0.450894        -135.896         -56.7987        -119.698         -56.7893        -119.711      -0.00967047          149.19
0.53                    -0.46411        -136.379         -56.6176        -121.778         -56.6084        -121.793      -0.00976839         149.122
0.531                  -0.477465        -136.864         -56.4394        -123.875         -56.4305        -123.891      -0.00986747         149.055
0.532                  -0.490957        -137.351         -56.2643        -125.988         -56.2557        -126.005       -0.0099677         148.987
0.533                  -0.504584        -137.839         -56.0924        -128.116         -56.0842        -128.134       -0.0100691         148.919
0.534                  -0.518343        -138.329         -55.9239        -130.256         -55.9161        -130.275       -0.0101716          148.85
0.535                   -0.53223        -138.821         -55.7588        -132.409         -55.7514        -132.428       -0.0102753         148.782
0.536                  -0.546244        -139.315         -55.5972        -134.571         -55.5902        -134.591       -0.0103802         148.714
0.537                  -0.560382         -139.81         -55.4392        -136.742         -55.4326        -136.762       -0.0104862         148.646
0.538                  -0.574642        -140.307         -55.2848        -138.919         -55.2786         -138.94       -0.0105934         148.577
0.539                  -0.589021        -140.807          -55.134        -141.103         -55.1282        -141.123       -0.0107017         148.509
0.54                   -0.603519        -141.308         -54.9868         -143.29         -54.9815         -143.31       -0.0108112          148.44
0.541                  -0.618132        -141.811         -54.8432        -145.479         -54.8383        -145.499       -0.0109218         148.371
0.542                  -0.632861        -142.317         -54.7033        -147.669         -54.6988        -147.689       -0.0110336         148.302
0.543                  -0.647703        -142.825         -54.5668        -149.858         -54.5627        -149.878       -0.0111465         148.233
0.544                  -0.662658        -143.335         -54.4337        -152.045         -54.4301        -152.064       -0.0112606         148.164
0.545                  -0.677726        -143.848         -54.3041        -154.229         -54.3008        -154.247       -0.0113757         148.095
0.546                  -0.692908        -144.363         -54.1777        -156.408         -54.1747        -156.424        -0.011492         148.026
0.547                  -0.708203        -144.881         -54.0544        -158.581         -54.0518        -158.596       -0.0116094         147.956
0.548                  -0.723614        -145.402         -53.9341        -160.746         -53.9319        -160.761       -0.0117279         147.887
0.549                  -0.739143        -145.925         -53.8168        -162.904         -53.8148        -162.917       -0.0118474         147.817
0.55                   -0.754791        -146.451         -53.7021        -165.052         -53.7005        -165.064       -0.0119681         147.747
0.551                  -0.770563        -146.981         -53.5901         -167.19         -53.5887        -167.201       -0.0120898         147.677
0.552                  -0.786464        -147.513         -53.4805        -169.318         -53.4794        -169.327       -0.0122126         147.607
0.553                  -0.802498        -148.049         -53.3731        -171.435         -53.3722        -171.442       -0.0123364         147.537
0.554                  -0.818672        -148.588         -53.2679        -173.539         -53.2672        -173.546       -0.0124612         147.467
0.555                  -0.834994         -149.13         -53.1646        -175.632          -53.164        -175.637       -0.0125871         147.397
0.556                  -0.851472        -149.677          -53.063        -177.712         -53.0626        -177.715       -0.0127139         147.326
0.557                  -0.868115        -150.227         -52.9631        -179.779         -52.9628        -179.781       -0.0128418         147.256
0.558                  -0.884936        -150.781         -52.8645         178.167         -52.8644         178.166       -0.0129706         147.185
0.559                  -0.901947        -151.339         -52.7673         176.126         -52.7673         176.126       -0.0131004         147.114
0.56                   -0.919162        -151.901         -52.6712         174.097         -52.6713         174.099       -0.0132312         147.044
0.561                  -0.936597        -152.467         -52.5761         172.082         -52.5762         172.085       -0.0133629         146.972
0.562                  -0.954269        -153.038         -52.4818         170.079          -52.482         170.084       -0.0134956         146.901
0.563                  -0.972198        -153.614         -52.3882         168.089         -52.3884         168.094       -0.0136292          146.83
0.564                  -0.990404        -154.194         -52.2951         166.111         -52.2954         166.117       -0.0137637         146.759
0.565                   -1.00891         -154.78         -52.2026         164.145         -52.2028         164.152       -0.0138992         146.687
0.566                   -1.02774         -155.37         -52.1103         162.191         -52.1106         162.198       -0.0140356         146.615
0.567                   -1.04693        -155.966         -52.0183         160.247         -52.0185         160.256        -0.014173         146.544
0.568                   -1.06649        -156.566         -51.9263         158.314         -51.9266         158.323       -0.0143112         146.472
0.569                   -1.08647        -157.172         -51.8345         156.392         -51.8347         156.401       -0.0144505           146.4
0.57                    -1.10689        -157.784         -51.7425         154.478         -51.7427         154.488       -0.0145907         146.327
0.571                    -1.1278        -158.402         -51.6504         152.574         -51.6506         152.584       -0.0147319         146.255
0.572                   -1.14922        -159.025         -51.5582         150.679         -51.5583         150.689       -0.0148741         146.183
0.573                    -1.1712        -159.654         -51.4656         148.791         -51.4657         148.802       -0.0150173          146.11
0.574                   -1.19377        -160.288         -51.3728         146.911         -51.3728         146.921       -0.0151616         146.037
0.575                   -1.21699        -160.929         -51.2796         145.037         -51.2796         145.048        -0.015307         145.964
0.576                   -1.24089        -161.576          -51.186          143.17          -51.186         143.181       -0.0154536         145.891
0.577                   -1.26552        -162.229          -51.092         141.308         -51.0919         141.319       -0.0156013         145.818
0.578                   -1.29094        -162.888         -50.9975         139.451         -50.9974         139.462       -0.0157502         145.745
0.579                   -1.31719        -163.553         -50.9026         137.599         -50.9024         137.609       -0.0159004         145.671
0.58                    -1.34432        -164.224         -50.8072          135.75          -50.807          135.76        -0.016052         145.598
0.581                   -1.37238        -164.901         -50.7113         133.905         -50.7111         133.915       -0.0162049         145.524
0.582                   -1.40143        -165.584         -50.6149         132.063         -50.6147         132.072       -0.0163593          145.45
0.583                   -1.43153        -166.273         -50.5181         130.222         -50.5178         130.232       -0.0165152         145.376
0.584                   -1.46271        -166.968         -50.4208         128.384         -50.4205         128.393       -0.0166726         145.301
0.585                   -1.49505        -167.668         -50.3231         126.546         -50.3227         126.555       -0.0168318         145.227
0.586                   -1.52859        -168.374         -50.2249          124.71         -50.2245         124.718       -0.0169926         145.152
0.587                   -1.56338        -169.085         -50.1263         122.873         -50.1259         122.881       -0.0171552         145.077
0.588                   -1.59948        -169.801         -50.0274         121.037          -50.027         121.044       -0.0173197         145.003
0.589                   -1.63694        -170.521         -49.9281           119.2         -49.9277         119.206       -0.0174861         144.927
0.59                    -1.67581        -171.247         -49.8286         117.362         -49.8282         117.368       -0.0176545         144.852
0.591                   -1.71614        -171.976         -49.7288         115.522         -49.7284         115.528        -0.017825         144.777
0.592                   -1.75796        -172.709         -49.6288         113.681         -49.6284         113.686       -0.0179977         144.701
0.593                   -1.80134        -173.446         -49.5286         111.838         -49.5282         111.843       -0.0181726         144.625
0.594                   -1.84629        -174.187         -49.4284         109.993          -49.428         109.997       -0.0183498         144.549
0.595                   -1.89287         -174.93          -49.328         108.145         -49.3277         108.149       -0.0185293         144.473
0.596                    -1.9411        -175.675         -49.2277         106.295         -49.2274         106.298       -0.0187113         144.396
0.597                   -1.99101        -176.422         -49.1274         104.442         -49.1271         104.445       -0.0188959          144.32
0.598                   -2.04263        -177.171         -49.0273         102.585          -49.027         102.588        -0.019083         144.243
0.599                   -2.09598        -177.921         -48.9273         100.726          -48.927         100.728       -0.0192727         144.166
0.6                     -2.15108        -178.672         -48.8276         98.8636         -48.8273         98.8656       -0.0194652         144.089
0.601                   -2.20793        -179.423         -48.7281         96.9979         -48.7279         96.9996       -0.0196604         144.012
0.602                   -2.26655         179.827          -48.629          95.129         -48.6288         95.1304       -0.0198585         143.934
0.603                   -2.32693         179.077         -48.5303         93.2569         -48.5301          93.258       -0.0200595         143.856
0.604                   -2.38908         178.329         -48.4321         91.3816         -48.4319         91.3824       -0.0202634         143.779
0.605                   -2.45298         177.583         -48.3343         89.5032         -48.3342         89.5038       -0.0204704           143.7
0.606                   -2.51862         176.839         -48.2372         87.6219         -48.2371         87.6222       -0.0206804         143.622
0.607                   -2.58598         176.097         -48.1407         85.7377         -48.1406         85.7379       -0.0208935         143.544
0.608                   -2.65503         175.359         -48.0449         83.8509         -48.0448         83.8509       -0.0211098         143.465
0.609                   -2.72576         174.625         -47.9498         81.9617         -47.9497         81.9615       -0.0213294         143.386
0.61                    -2.79812         173.895         -47.8554         80.0702         -47.8554         80.0699       -0.0215522         143.307
0.611                   -2.87207          173.17         -47.7619         78.1768         -47.7619         78.1764       -0.0217783         143.227
0.612                   -2.94757         172.449         -47.6693         76.2817         -47.6693         76.2812       -0.0220078         143.148
0.613                   -3.02457         171.735         -47.5775         74.3852         -47.5776         74.3846       -0.0222408         143.068
0.614                   -3.10301         171.026         -47.4867         72.4876         -47.4867          72.487       -0.0224772         142.988
0.615                   -3.18285         170.323         -47.3968         70.5893         -47.3969         70.5887       -0.0227172         142.907
0.616                   -3.26401         169.627         -47.3079         68.6906          -47.308           68.69       -0.0229607         142.827
0.617                   -3.34643         168.938           -47.22         66.7919         -47.2201         66.7913       -0.0232079         142.746
0.618                   -3.43005         168.256         -47.1331         64.8936         -47.1332          64.893       -0.0234587         142.665
0.619                   -3.51478         167.581         -47.0473          62.996         -47.0474         62.9954       -0.0237133         142.584
0.62                    -3.60057         166.914         -46.9624         61.0996         -46.9625          61.099       -0.0239716         142.503
0.621                   -3.68732         166.255         -46.8786         59.2047         -46.8787         59.2041       -0.0242338         142.421
0.622                   -3.77495         165.603         -46.7958         57.3118         -46.7959         57.3112       -0.0244999         142.339
0.623                    -3.8634          164.96         -46.7141         55.4211         -46.7142         55.4206       -0.0247699         142.257
0.624                   -3.95256         164.324         -46.6333         53.5332         -46.6334         53.5327       -0.0250439         142.174
0.625                   -4.04237         163.697         -46.5535         51.6484         -46.5536         51.6479       -0.0253219         142.092
0.626                   -4.13273         163.077         -46.4747          49.767         -46.4748         49.7665       -0.0256041         142.009
0.627                   -4.22356         162.466         -46.3969         47.8895         -46.3969         47.8891       -0.0258904         141.925
0.628                   -4.31479         161.862         -46.3199         46.0162           -46.32         46.0158       -0.0261809         141.842
0.629                   -4.40631         161.265         -46.2438         44.1474         -46.2439          44.147       -0.0264758         141.758
