! TOUCHSTONE file generated by CST MICROWAVE STUDIO
! Date and time: Wed Oct 28 19:14:54 2020
! Project name: Scenario_1_Circular_Tissue_out_of_Line.cst
! Parameters = {dy1=-207.272; L_HA=400; MT=2.54; Rad_Dielectric=30; Rad_Lower=7.3; Rad_Upper=30; a_HA=580; a_WG=246; b_HA=500; b_WG=121; c_HA=0; c_WG=187; d_feed=85; dx1=693; h_feed=15; h_lower=18; h_upper=40}
! Header version: 2018
! Port assignment regex: !\s*Touchstone port\s*([0-9]+)\s*=\s*(CST MWS port|CST DS port)\s*([0-9]+|Zmin|Zmax)\s*\(\"(.*)\"\)(\s*mode\s*([0-9]+))?.*
! Touchstone port assignment:
! Touchstone port 1 = CST MWS port 1 ("")
! Touchstone port 2 = CST MWS port 2 ("")
# GHz S DB R 50
0.5                    -0.150181        -122.258         -62.9587        -174.356         -62.9585        -174.356      -0.00774329         151.133
0.501                  -0.154151        -122.693         -62.8383        -176.265         -62.8378        -176.261       -0.0078047         151.068
0.502                  -0.158275        -123.129         -62.7159        -178.163         -62.7153        -178.155       -0.0078666         151.003
0.503                  -0.162559        -123.569         -62.5917          179.95         -62.5909         179.961      -0.00792901         150.938
0.504                  -0.167009        -124.011         -62.4657         178.074         -62.4648         178.088      -0.00799192         150.872
0.505                  -0.171633        -124.456          -62.338         176.206          -62.337         176.223      -0.00805535         150.807
0.506                  -0.176435        -124.903         -62.2086         174.348         -62.2075         174.366       -0.0081193         150.741
0.507                  -0.181424        -125.353         -62.0775         172.497         -62.0764         172.517      -0.00818377         150.676
0.508                  -0.186606        -125.806         -61.9449         170.653         -61.9437         170.675      -0.00824879          150.61
0.509                  -0.191989        -126.262         -61.8107         168.815         -61.8095         168.838      -0.00831434         150.544
0.51                   -0.197581        -126.721          -61.675         166.983         -61.6737         167.006      -0.00838045         150.478
0.511                  -0.203389        -127.182         -61.5378         165.155         -61.5365         165.179      -0.00844711         150.412
0.512                  -0.209422        -127.647         -61.3991         163.332         -61.3979         163.356      -0.00851435         150.346
0.513                  -0.215688        -128.114         -61.2591         161.511         -61.2578         161.535      -0.00858215          150.28
0.514                  -0.222197        -128.584         -61.1177         159.694         -61.1164         159.717      -0.00865054         150.214
0.515                  -0.228957        -129.057         -60.9749         157.878         -60.9737         157.901      -0.00871952         150.148
0.516                  -0.235978        -129.533         -60.8309         156.063         -60.8296         156.086       -0.0087891         150.081
0.517                  -0.243271        -130.012         -60.6855         154.249         -60.6843         154.271      -0.00885929         150.015
0.518                  -0.250845        -130.493         -60.5389         152.435         -60.5378         152.456      -0.00893011         149.948
0.519                  -0.258712        -130.978         -60.3912         150.619           -60.39          150.64      -0.00900155         149.881
0.52                   -0.266881        -131.466         -60.2422         148.803         -60.2411         148.822      -0.00907364         149.815
0.521                  -0.275365        -131.957         -60.0921         146.984         -60.0911         147.002      -0.00914638         149.748
0.522                  -0.284175         -132.45         -59.9409         145.163         -59.9399          145.18      -0.00921979         149.681
0.523                  -0.293324        -132.947         -59.7887         143.339         -59.7877         143.354      -0.00929389         149.614
0.524                  -0.302823        -133.447         -59.6354         141.511         -59.6345         141.525      -0.00936868         149.547
0.525                  -0.312685        -133.949         -59.4811         139.678         -59.4803         139.691      -0.00944418          149.48
0.526                  -0.322923        -134.455         -59.3259         137.841         -59.3251         137.852      -0.00952041         149.413
0.527                  -0.333552        -134.963         -59.1698         135.998         -59.1691         136.007      -0.00959738         149.345
0.528                  -0.344583        -135.475         -59.0128         134.149         -59.0121         134.156      -0.00967512         149.278
0.529                  -0.356032        -135.989         -58.8551         132.293         -58.8544         132.299      -0.00975364          149.21
0.53                   -0.367912        -136.506         -58.6965          130.43         -58.6959         130.435      -0.00983298         149.143
0.531                  -0.380238        -137.026         -58.5373          128.56         -58.5367         128.563      -0.00991314         149.075
0.532                  -0.393024        -137.549         -58.3773         126.682         -58.3769         126.684      -0.00999416         149.007
0.533                  -0.406284        -138.075         -58.2168         124.795         -58.2164         124.796       -0.0100761         148.939
0.534                  -0.420033        -138.603         -58.0558         122.899         -58.0554         122.898       -0.0101589         148.871
0.535                  -0.434286        -139.134         -57.8942         120.994          -57.894         120.992       -0.0102426         148.803
0.536                  -0.449056        -139.668         -57.7322         119.079         -57.7321         119.076       -0.0103274         148.735
0.537                  -0.464359        -140.204         -57.5699         117.154         -57.5698         117.149       -0.0104131         148.666
0.538                  -0.480208        -140.742         -57.4073         115.219         -57.4072         115.212          -0.0105         148.598
0.539                  -0.496616        -141.283         -57.2445         113.272         -57.2445         113.265       -0.0105879         148.529
0.54                   -0.513596        -141.826         -57.0815         111.314         -57.0816         111.306       -0.0106769         148.461
0.541                   -0.53116        -142.372         -56.9185         109.345         -56.9186         109.336       -0.0107671         148.392
0.542                   -0.54932        -142.919         -56.7554         107.364         -56.7557         107.354       -0.0108586         148.323
0.543                  -0.568087        -143.468         -56.5925         105.371         -56.5928          105.36       -0.0109513         148.254
0.544                   -0.58747        -144.019         -56.4298         103.366         -56.4302         103.354       -0.0110454         148.185
0.545                  -0.607476        -144.572         -56.2673         101.348         -56.2678         101.335       -0.0111408         148.116
0.546                  -0.628112        -145.126         -56.1052         99.3183         -56.1057         99.3042       -0.0112377         148.046
0.547                  -0.649384        -145.681         -55.9435         97.2755         -55.9441         97.2608       -0.0113361         147.977
0.548                  -0.671294        -146.238         -55.7824         95.2201         -55.7831         95.2047       -0.0114361         147.907
0.549                  -0.693843        -146.795         -55.6219         93.1519         -55.6227          93.136       -0.0115377         147.838
0.55                    -0.71703        -147.354         -55.4622          91.071          -55.463         91.0546       -0.0116409         147.768
0.551                  -0.740853        -147.913         -55.3033         88.9774         -55.3041         88.9606       -0.0117459         147.698
0.552                  -0.765303        -148.472         -55.1453         86.8712         -55.1462         86.8541       -0.0118527         147.628
0.553                  -0.790373        -149.032         -54.9883         84.7527         -54.9893         84.7353       -0.0119614         147.558
0.554                  -0.816051        -149.592         -54.8324         82.6218         -54.8335         82.6043       -0.0120719         147.487
0.555                  -0.842321        -150.151         -54.6778          80.479         -54.6789         80.4613       -0.0121844         147.417
0.556                  -0.869167        -150.711         -54.5244         78.3245         -54.5256         78.3067       -0.0122989         147.347
0.557                  -0.896565         -151.27         -54.3725         76.1585         -54.3737         76.1408       -0.0124154         147.276
0.558                  -0.924493        -151.828          -54.222         73.9815         -54.2232         73.9638        -0.012534         147.205
0.559                  -0.952923        -152.386         -54.0731         71.7938         -54.0744         71.7763       -0.0126547         147.134
0.56                   -0.981823        -152.943         -53.9258          69.596         -53.9272         69.5787       -0.0127776         147.063
0.561                   -1.01116        -153.499         -53.7803         67.3884         -53.7817         67.3714       -0.0129026         146.992
0.562                    -1.0409        -154.053         -53.6366         65.1718          -53.638         65.1551       -0.0130297         146.921
0.563                     -1.071        -154.607         -53.4947         62.9465         -53.4961         62.9302        -0.013159          146.85
0.564                   -1.10141        -155.159         -53.3548         60.7133         -53.3562         60.6974       -0.0132905         146.778
0.565                   -1.13211        -155.711         -53.2168         58.4728         -53.2183         58.4573       -0.0134241         146.707
0.566                   -1.16303        -156.261         -53.0809         56.2256         -53.0824         56.2105       -0.0135598         146.635
0.567                   -1.19414         -156.81         -52.9471         53.9725         -52.9485         53.9579       -0.0136976         146.563
0.568                   -1.22539        -157.357         -52.8153         51.7141         -52.8168            51.7       -0.0138376         146.491
0.569                   -1.25674        -157.904         -52.6857         49.4512         -52.6872         49.4377       -0.0139796         146.419
0.57                    -1.28812         -158.45         -52.5583         47.1845         -52.5597         47.1716       -0.0141236         146.346
0.571                   -1.31951        -158.996          -52.433         44.9148         -52.4344         44.9025       -0.0142696         146.274
0.572                   -1.35086        -159.541         -52.3099         42.6429         -52.3112         42.6311       -0.0144176         146.202
0.573                   -1.38212        -160.086         -52.1889         40.3694         -52.1902         40.3583       -0.0145676         146.129
0.574                   -1.41327        -160.631         -52.0701         38.0952         -52.0714         38.0846       -0.0147194         146.056
0.575                   -1.44426        -161.176         -51.9534         35.8209         -51.9546          35.811       -0.0148731         145.983
0.576                   -1.47507        -161.722         -51.8387         33.5473           -51.84          33.538       -0.0150286          145.91
0.577                   -1.50567         -162.27         -51.7262         31.2751         -51.7274         31.2663       -0.0151859         145.837
0.578                   -1.53604        -162.819         -51.6156         29.0049         -51.6167         28.9967       -0.0153449         145.763
0.579                   -1.56617         -163.37          -51.507         26.7374         -51.5081         26.7298       -0.0155058          145.69
0.58                    -1.59605        -163.924         -51.4003         24.4732         -51.4013         24.4662       -0.0156683         145.616
0.581                   -1.62567         -164.48         -51.2954         22.2129         -51.2963         22.2064       -0.0158326         145.542
0.582                   -1.65505         -165.04         -51.1922          19.957         -51.1931          19.951       -0.0159986         145.468
0.583                   -1.68418        -165.603         -51.0908         17.7059         -51.0916         17.7005       -0.0161662         145.394
0.584                   -1.71309        -166.171         -50.9909         15.4602         -50.9917         15.4553       -0.0163356          145.32
0.585                    -1.7418        -166.743         -50.8926         13.2203         -50.8933         13.2158       -0.0165066         145.245
0.586                   -1.77033        -167.321         -50.7957         10.9864         -50.7964         10.9823       -0.0166794         145.171
0.587                   -1.79871        -167.904         -50.7002         8.75901         -50.7008          8.7553       -0.0168538         145.096
0.588                   -1.82699        -168.494         -50.6059         6.53824         -50.6064         6.53491         -0.01703         145.021
0.589                   -1.85521        -169.089         -50.5128         4.32435         -50.5133         4.32137       -0.0172079         144.946
0.59                    -1.88342        -169.692         -50.4208         2.11751         -50.4212         2.11486       -0.0173876         144.871
0.591                   -1.91167        -170.301         -50.3298      -0.0821615         -50.3301      -0.0845113        -0.017569         144.795
0.592                   -1.94002        -170.919         -50.2396         -2.2746         -50.2399        -2.27667       -0.0177522          144.72
0.593                   -1.96853        -171.544         -50.1503        -4.45976         -50.1505        -4.46158       -0.0179373         144.644
0.594                   -1.99726        -172.177         -50.0617        -6.63768         -50.0619        -6.63927       -0.0181242         144.568
0.595                   -2.02628        -172.818         -49.9738        -8.80841         -49.9739        -8.80979        -0.018313         144.492
0.596                   -2.05567        -173.468         -49.8864         -10.972         -49.8865        -10.9732       -0.0185038         144.415
0.597                   -2.08549        -174.127         -49.7995        -13.1287         -49.7995        -13.1297       -0.0186965         144.339
0.598                   -2.11582        -174.795          -49.713        -15.2786          -49.713        -15.2795       -0.0188912         144.262
0.599                   -2.14674        -175.473         -49.6269        -17.4219         -49.6268        -17.4226        -0.019088         144.185
0.6                     -2.17832        -176.159          -49.541        -19.5588         -49.5409        -19.5595       -0.0192869         144.108
0.601                   -2.21066        -176.855         -49.4554        -21.6897         -49.4552        -21.6902       -0.0194879         144.031
0.602                   -2.24382        -177.561         -49.3698        -23.8147         -49.3697        -23.8151       -0.0196911         143.953
0.603                    -2.2779        -178.276         -49.2844        -25.9342         -49.2842        -25.9346       -0.0198966         143.876
0.604                   -2.31297            -179         -49.1991        -28.0486         -49.1989        -28.0489       -0.0201044         143.798
0.605                   -2.34913        -179.735         -49.1138        -30.1581         -49.1135        -30.1584       -0.0203145          143.72
0.606                   -2.38646         179.521         -49.0284        -32.2632         -49.0281        -32.2634       -0.0205271         143.642
0.607                   -2.42504         178.768          -48.943        -34.3641         -48.9427        -34.3643       -0.0207421         143.563
0.608                   -2.46498         178.005         -48.8575        -36.4613         -48.8572        -36.4615       -0.0209597         143.484
0.609                   -2.50634         177.233         -48.7719        -38.5552         -48.7716        -38.5554       -0.0211799         143.405
0.61                    -2.54923         176.451         -48.6862        -40.6461         -48.6859        -40.6463       -0.0214028         143.326
0.611                   -2.59374         175.661         -48.6003        -42.7345            -48.6        -42.7346       -0.0216284         143.247
0.612                   -2.63995         174.861         -48.5144        -44.8206          -48.514        -44.8208       -0.0218569         143.168
0.613                   -2.68796         174.053         -48.4283         -46.905         -48.4279        -46.9051       -0.0220882         143.088
0.614                   -2.73785         173.236          -48.342        -48.9879         -48.3417         -48.988       -0.0223225         143.008
0.615                   -2.78973         172.412         -48.2557        -51.0697         -48.2554        -51.0698       -0.0225599         142.928
0.616                   -2.84368         171.579         -48.1693        -53.1508         -48.1689        -53.1509       -0.0228004         142.847
0.617                   -2.89979         170.739         -48.0828        -55.2315         -48.0824        -55.2316       -0.0230441         142.766
0.618                   -2.95816         169.892         -47.9962        -57.3121         -47.9959        -57.3122       -0.0232911         142.686
0.619                   -3.01887         169.038         -47.9096        -59.3929         -47.9093         -59.393       -0.0235415         142.604
0.62                    -3.08203         168.178         -47.8231        -61.4742         -47.8228        -61.4743       -0.0237954         142.523
0.621                   -3.14771         167.312         -47.7365        -63.5562         -47.7363        -63.5563       -0.0240528         142.441
0.622                   -3.21601         166.441         -47.6501        -65.6392         -47.6499        -65.6392       -0.0243139         142.359
0.623                   -3.28701         165.566         -47.5638        -67.7233         -47.5636        -67.7233       -0.0245788         142.277
0.624                   -3.36079         164.686         -47.4777        -69.8087         -47.4775        -69.8087       -0.0248475         142.195
0.625                   -3.43745         163.804         -47.3919        -71.8956         -47.3916        -71.8955       -0.0251202         142.112
0.626                   -3.51705         162.918         -47.3063         -73.984         -47.3061        -73.9839       -0.0253969         142.029
0.627                   -3.59968         162.031          -47.221         -76.074         -47.2208        -76.0739       -0.0256778         141.946
0.628                   -3.68539         161.143         -47.1362        -78.1657          -47.136        -78.1655       -0.0259629         141.863
0.629                   -3.77427         160.254         -47.0517         -80.259         -47.0516        -80.2588       -0.0262524         141.779
