! TOUCHSTONE file generated by CST MICROWAVE STUDIO
! Date and time: Mon Oct 26 12:25:51 2020
! Project name: Scenario_1_Circular_Tissue_out_of_Line.cst
! Parameters = {dy1=-207.272; L_HA=400; MT=2.54; Rad_Dielectric=30; Rad_Lower=7.3; Rad_Upper=30; a_HA=580; a_WG=246; b_HA=500; b_WG=121; c_HA=0; c_WG=187; d_feed=85; dx1=866; h_feed=15; h_lower=18; h_upper=40}
! Header version: 2018
! Port assignment regex: !\s*Touchstone port\s*([0-9]+)\s*=\s*(CST MWS port|CST DS port)\s*([0-9]+|Zmin|Zmax)\s*\(\"(.*)\"\)(\s*mode\s*([0-9]+))?.*
! Touchstone port assignment:
! Touchstone port 1 = CST MWS port 1 ("")
! Touchstone port 2 = CST MWS port 2 ("")
# GHz S DB R 50
0.5                    -0.145494        -122.375         -63.8578         94.4576         -63.8541         94.4471      -0.00745992         151.137
0.501                  -0.151348        -122.813         -63.6935         92.9918         -63.6538         92.4425      -0.00753969         151.072
0.502                  -0.157408        -123.253         -63.5237           91.49         -63.4539          90.416      -0.00761967         151.007
0.503                  -0.163682        -123.695         -63.3486         89.9498         -63.2545         88.3676      -0.00769987         150.941
0.504                  -0.170179        -124.139         -63.1683         88.3685         -63.0559         86.2974       -0.0077803         150.876
0.505                  -0.176906        -124.586         -62.9829         86.7434          -62.858         84.2058      -0.00786096          150.81
0.506                  -0.183873        -125.034         -62.7926         85.0717         -62.6611         82.0929      -0.00794186         150.744
0.507                  -0.191085        -125.485         -62.5978         83.3508         -62.4652         79.9591      -0.00802302         150.679
0.508                   -0.19855        -125.938         -62.3987         81.5778         -62.2705         77.8047      -0.00810444         150.613
0.509                  -0.206273        -126.393         -62.1958         79.7502         -62.0771         75.6302      -0.00818614         150.547
0.51                    -0.21426         -126.85         -61.9895         77.8657         -61.8851          73.436      -0.00826812         150.481
0.511                  -0.222513        -127.308         -61.7804          75.922         -61.6947         71.2226      -0.00835039         150.415
0.512                  -0.231036        -127.769         -61.5691         73.9174          -61.506         68.9908      -0.00843297         150.349
0.513                  -0.239831        -128.231         -61.3562         71.8504          -61.319          66.741      -0.00851587         150.283
0.514                  -0.248897        -128.695         -61.1426         69.7201          -61.134         64.4741       -0.0085991         150.216
0.515                  -0.258234         -129.16         -60.9291         67.5262         -60.9509         62.1908      -0.00868267          150.15
0.516                  -0.267838        -129.627         -60.7163         65.2691           -60.77         59.8919       -0.0087666         150.084
0.517                  -0.277706        -130.096         -60.5053         62.9499         -60.5913         57.5783       -0.0088509         150.017
0.518                  -0.287832        -130.566         -60.2967         60.5703         -60.4148         55.2508      -0.00893558         149.951
0.519                  -0.298207        -131.038         -60.0916         58.1331         -60.2407         52.9105      -0.00902065         149.884
0.52                   -0.308824        -131.511         -59.8907         55.6416         -60.0689         50.5583      -0.00910613         149.817
0.521                  -0.319672        -131.985         -59.6947         53.1001         -59.8997         48.1951      -0.00919204          149.75
0.522                  -0.330739         -132.46         -59.5043         50.5135         -59.7329         45.8222      -0.00927839         149.683
0.523                  -0.342013        -132.937         -59.3201         47.8873         -59.5687         43.4404      -0.00936519         149.616
0.524                   -0.35348        -133.415         -59.1425         45.2275          -59.407         41.0508      -0.00945246         149.549
0.525                  -0.365126        -133.895         -58.9718         42.5404         -59.2479         38.6546      -0.00954021         149.482
0.526                  -0.376936        -134.375         -58.8082         39.8325         -59.0914         36.2527      -0.00962846         149.415
0.527                  -0.388895        -134.858         -58.6519         37.1102         -58.9373         33.8462      -0.00971723         149.347
0.528                   -0.40099        -135.341         -58.5026         34.3801         -58.7858         31.4362      -0.00980654          149.28
0.529                  -0.413205        -135.826         -58.3602         31.6482         -58.6368         29.0235      -0.00989639         149.212
0.53                   -0.425528        -136.313         -58.2244         28.9201         -58.4902         26.6093       -0.0099868         149.145
0.531                  -0.437946        -136.801         -58.0948          26.201         -58.3459         24.1943       -0.0100778         149.077
0.532                  -0.450451        -137.291         -57.9709         23.4953          -58.204         21.7796       -0.0101694         149.009
0.533                  -0.463032        -137.783          -57.852         20.8071         -58.0643         19.3659       -0.0102616         148.941
0.534                  -0.475684        -138.277         -57.7378         18.1393         -57.9267         16.9541       -0.0103545         148.873
0.535                  -0.488402        -138.774         -57.6274         15.4946         -57.7911         14.5448        -0.010448         148.805
0.536                  -0.501185        -139.273         -57.5204         12.8749         -57.6575         12.1387       -0.0105421         148.737
0.537                  -0.514035        -139.774         -57.4162         10.2813         -57.5258         9.73645        -0.010637         148.669
0.538                  -0.526954        -140.279          -57.314         7.71455         -57.3958         7.33854       -0.0107326           148.6
0.539                  -0.539949        -140.786         -57.2135         5.17487         -57.2674         4.94547       -0.0108289         148.532
0.54                   -0.553031        -141.296          -57.114         2.66201         -57.1405         2.55764       -0.0109259         148.463
0.541                  -0.566211         -141.81         -57.0151        0.175374         -57.0151        0.175374       -0.0110237         148.395
0.542                  -0.579504        -142.327         -56.9164        -2.28595         -56.8909        -2.20105       -0.0111223         148.326
0.543                  -0.592927        -142.848         -56.8174        -4.72311         -56.7679        -4.57142       -0.0112217         148.257
0.544                  -0.606501        -143.372          -56.718        -7.13745         -56.6459        -6.93561        -0.011322         148.188
0.545                  -0.620248        -143.901         -56.6177        -9.53044         -56.5248        -9.29354        -0.011423         148.119
0.546                  -0.634193        -144.433         -56.5164        -11.9037         -56.4046        -11.6452        -0.011525          148.05
0.547                  -0.648362         -144.97         -56.4138        -14.2588         -56.2851        -13.9906       -0.0116278          147.98
0.548                  -0.662783        -145.511         -56.3097        -16.5974         -56.1662        -16.3298       -0.0117315         147.911
0.549                  -0.677487        -146.056         -56.2042        -18.9213         -56.0477        -18.6631       -0.0118362         147.841
0.55                   -0.692504        -146.606         -56.0969         -21.232         -55.9297        -20.9906       -0.0119418         147.771
0.551                  -0.707867        -147.161          -55.988        -23.5313          -55.812        -23.3125       -0.0120484         147.702
0.552                  -0.723611         -147.72         -55.8774        -25.8206         -55.6946        -25.6291        -0.012156         147.632
0.553                  -0.739769        -148.284         -55.7649        -28.1015         -55.5773        -27.9408       -0.0122646         147.562
0.554                  -0.756376        -148.853         -55.6508        -30.3755           -55.46        -30.2479       -0.0123743         147.492
0.555                   -0.77347        -149.426         -55.5349         -32.644         -55.3428        -32.5508       -0.0124851         147.421
0.556                  -0.791085        -150.004         -55.4174        -34.9082         -55.2255        -34.8499       -0.0125969         147.351
0.557                  -0.809258        -150.586         -55.2983        -37.1694          -55.108        -37.1456         -0.01271          147.28
0.558                  -0.828026        -151.174         -55.1776        -39.4288         -54.9905        -39.4385       -0.0128241          147.21
0.559                  -0.847425        -151.766         -55.0555        -41.6874         -54.8727        -41.7289       -0.0129395         147.139
0.56                   -0.867491        -152.362          -54.932        -43.9463         -54.7546        -44.0175       -0.0130561         147.068
0.561                  -0.888261        -152.963         -54.8072        -46.2064         -54.6363        -46.3046       -0.0131739         146.997
0.562                   -0.90977        -153.568         -54.6813        -48.4685         -54.5177        -48.5908       -0.0132931         146.926
0.563                  -0.932051        -154.177         -54.5544        -50.7334         -54.3988        -50.8767       -0.0134136         146.855
0.564                  -0.955141        -154.791         -54.4265        -53.0019         -54.2796        -53.1626       -0.0135354         146.783
0.565                   -0.97907        -155.408         -54.2978        -55.2746         -54.1601        -55.4492       -0.0136586         146.712
0.566                   -1.00387        -156.029         -54.1685        -57.5519         -54.0403        -57.7369       -0.0137833          146.64
0.567                   -1.02957        -156.654         -54.0385        -59.8345         -53.9202        -60.0262       -0.0139095         146.568
0.568                   -1.05621        -157.282         -53.9082        -62.1228         -53.7998        -62.3176       -0.0140372         146.496
0.569                    -1.0838        -157.913         -53.7775        -64.4172         -53.6791        -64.6117       -0.0141664         146.424
0.57                    -1.11238        -158.547         -53.6466        -66.7179         -53.5583        -66.9087       -0.0142973         146.352
0.571                   -1.14196        -159.184         -53.5157        -69.0252         -53.4372        -69.2092       -0.0144298          146.28
0.572                   -1.17257        -159.823         -53.3849        -71.3394          -53.316        -71.5135        -0.014564         146.207
0.573                   -1.20422        -160.465         -53.2542        -73.6604         -53.1948        -73.8221          -0.0147         146.134
0.574                   -1.23693        -161.108         -53.1238        -75.9885         -53.0735        -76.1352       -0.0148378         146.062
0.575                   -1.27072        -161.753         -52.9939        -78.3237         -52.9522        -78.4533       -0.0149774         145.989
0.576                   -1.30558        -162.399         -52.8645        -80.6658          -52.831        -80.7765       -0.0151189         145.916
0.577                   -1.34152        -163.046         -52.7357        -83.0149         -52.7099        -83.1052       -0.0152624         145.842
0.578                   -1.37856        -163.694         -52.6076        -85.3709         -52.5891        -85.4395        -0.015408         145.769
0.579                   -1.41667        -164.342         -52.4805        -87.7335         -52.4685        -87.7797       -0.0155555         145.695
0.58                    -1.45586         -164.99         -52.3542        -90.1025         -52.3483        -90.1257       -0.0157052         145.622
0.581                   -1.49611        -165.638          -52.229        -92.4778         -52.2286        -92.4779       -0.0158571         145.548
0.582                    -1.5374        -166.285         -52.1049         -94.859         -52.1094         -94.836       -0.0160113         145.474
0.583                   -1.57972        -166.931         -51.9821        -97.2458         -51.9907        -97.2003       -0.0161677           145.4
0.584                   -1.62304        -167.575         -51.8604        -99.6378         -51.8728        -99.5705       -0.0163264         145.325
0.585                   -1.66733        -168.219         -51.7402        -102.035         -51.7556        -101.947       -0.0164876         145.251
0.586                   -1.71255         -168.86         -51.6213        -104.436         -51.6392        -104.329       -0.0166512         145.176
0.587                   -1.75866        -169.499         -51.5039        -106.842         -51.5237        -106.716       -0.0168173         145.101
0.588                   -1.80562        -170.135         -51.3879        -109.251         -51.4092        -109.109       -0.0169859         145.026
0.589                   -1.85338         -170.77         -51.2736        -111.663         -51.2958        -111.507       -0.0171572         144.951
0.59                    -1.90188        -171.401         -51.1607        -114.078         -51.1835         -113.91        -0.017331         144.876
0.591                   -1.95107        -172.029         -51.0495        -116.495         -51.0724        -116.317       -0.0175076           144.8
0.592                   -2.00089        -172.654         -50.9399        -118.913         -50.9625        -118.729       -0.0176869         144.724
0.593                   -2.05127        -173.276         -50.8319        -121.333         -50.8539        -121.144       -0.0178689         144.649
0.594                   -2.10214        -173.895         -50.7256        -123.754         -50.7466        -123.562       -0.0180537         144.573
0.595                   -2.15345         -174.51         -50.6208        -126.175         -50.6407        -125.982       -0.0182413         144.496
0.596                   -2.20511        -175.123         -50.5177        -128.595         -50.5363        -128.405       -0.0184317          144.42
0.597                   -2.25707        -175.732         -50.4162        -131.015         -50.4332         -130.83       -0.0186249         144.343
0.598                   -2.30925        -176.339         -50.3163        -133.434         -50.3317        -133.255        -0.018821         144.267
0.599                   -2.36158        -176.943         -50.2179        -135.851         -50.2317        -135.681       -0.0190199          144.19
0.6                     -2.41401        -177.544         -50.1211        -138.266         -50.1331        -138.107       -0.0192217         144.113
0.601                   -2.46645        -178.143         -50.0257        -140.678          -50.036        -140.532       -0.0194263         144.035
0.602                   -2.51887        -178.741         -49.9318        -143.088         -49.9404        -142.957       -0.0196338         143.958
0.603                   -2.57119        -179.337         -49.8393        -145.495         -49.8463        -145.379       -0.0198441          143.88
0.604                   -2.62338        -179.932         -49.7482        -147.898         -49.7536        -147.799       -0.0200573         143.802
0.605                   -2.67538         179.473         -49.6584        -150.297         -49.6624        -150.217       -0.0202732         143.724
0.606                   -2.72716         178.879         -49.5698        -152.692         -49.5725        -152.631        -0.020492         143.646
0.607                   -2.77869         178.283         -49.4824        -155.083         -49.4839        -155.041       -0.0207137         143.567
0.608                   -2.82995         177.687         -49.3961         -157.47         -49.3967        -157.447       -0.0209381         143.488
0.609                   -2.88091         177.088         -49.3109        -159.851         -49.3107        -159.848       -0.0211652          143.41
0.61                    -2.93157         176.487         -49.2267        -162.228         -49.2258        -162.244       -0.0213952          143.33
0.611                   -2.98194         175.883         -49.1435          -164.6         -49.1421        -164.635        -0.021628         143.251
0.612                   -3.03203         175.275         -49.0611        -166.966         -49.0594         -167.02       -0.0218635         143.172
0.613                   -3.08186         174.662         -48.9796        -169.327         -48.9777        -169.399       -0.0221018         143.092
0.614                   -3.13145         174.045         -48.8988        -171.684          -48.897        -171.772        -0.022343         143.012
0.615                   -3.18085         173.421         -48.8187        -174.034          -48.817        -174.139       -0.0225869         142.932
0.616                   -3.23011         172.791         -48.7392         -176.38         -48.7378        -176.499       -0.0228337         142.851
0.617                   -3.27927         172.154         -48.6603         -178.72         -48.6593        -178.852       -0.0230833          142.77
0.618                   -3.32842         171.509         -48.5819         178.945         -48.5814         178.801       -0.0233358         142.689
0.619                   -3.37761         170.856         -48.5039         176.615         -48.5041         176.462       -0.0235913         142.608
0.62                    -3.42694         170.194         -48.4263          174.29         -48.4272         174.128       -0.0238497         142.527
0.621                    -3.4765         169.522         -48.3491         171.971         -48.3507         171.802       -0.0241112         142.445
0.622                   -3.52638         168.841         -48.2722         169.655         -48.2745         169.482       -0.0243757         142.363
0.623                   -3.57669         168.149         -48.1955         167.345         -48.1985         167.168       -0.0246435         142.281
0.624                   -3.62754         167.446          -48.119         165.039         -48.1228          164.86       -0.0249144         142.199
0.625                   -3.67905         166.732         -48.0427         162.738         -48.0472         162.559       -0.0251887         142.116
0.626                   -3.73134         166.006         -47.9664          160.44         -47.9716         160.263       -0.0254663         142.033
0.627                   -3.78454         165.268         -47.8903         158.147         -47.8961         157.973       -0.0257475          141.95
0.628                   -3.83878         164.518         -47.8142         155.857         -47.8205         155.687       -0.0260322         141.867
0.629                   -3.89421         163.756         -47.7381          153.57         -47.7449         153.407       -0.0263205         141.783
