! TOUCHSTONE file generated by CST MICROWAVE STUDIO
! Date and time: Sat Oct 24 11:43:48 2020
! Project name: Scenario_1_Circular_Tissue_out_of_Line.cst
! Parameters = {dy1=-207.272; L_HA=400; MT=2.54; Rad_Dielectric=30; Rad_Lower=7.3; Rad_Upper=30; a_HA=580; a_WG=246; b_HA=500; b_WG=121; c_HA=0; c_WG=187; d_feed=85; dx1=1039; h_feed=15; h_lower=18; h_upper=40}
! Header version: 2018
! Port assignment regex: !\s*Touchstone port\s*([0-9]+)\s*=\s*(CST MWS port|CST DS port)\s*([0-9]+|Zmin|Zmax)\s*\(\"(.*)\"\)(\s*mode\s*([0-9]+))?.*
! Touchstone port assignment:
! Touchstone port 1 = CST MWS port 1 ("")
! Touchstone port 2 = CST MWS port 2 ("")
# GHz S DB R 50
0.5                    -0.145634        -122.306         -64.3353        -5.28536         -64.3353        -5.28536       -0.0076061         151.118
0.501                  -0.150354         -122.77         -64.1863        -7.26461         -64.1863        -7.26465      -0.00766041         151.053
0.502                  -0.155357        -123.234         -64.0356        -9.26328         -64.0356        -9.26337      -0.00771573         150.987
0.503                  -0.160643          -123.7         -63.8834        -11.2815         -63.8833        -11.2816      -0.00777208         150.922
0.504                  -0.166212        -124.168         -63.7295        -13.3193         -63.7294        -13.3195      -0.00782945         150.856
0.505                  -0.172065        -124.636         -63.5741        -15.3768         -63.5739         -15.377      -0.00788785         150.791
0.506                  -0.178202        -125.106         -63.4171        -17.4541          -63.417        -17.4543      -0.00794729         150.725
0.507                  -0.184622        -125.578         -63.2588        -19.5512         -63.2586        -19.5515      -0.00800777         150.659
0.508                  -0.191326         -126.05          -63.099        -21.6682         -63.0988        -21.6685       -0.0080693         150.594
0.509                  -0.198313        -126.524         -62.9379        -23.8052         -62.9377        -23.8055      -0.00813187         150.528
0.51                   -0.205583        -126.999         -62.7755        -25.9622         -62.7753        -25.9625      -0.00819551         150.462
0.511                  -0.213136        -127.475         -62.6119        -28.1392         -62.6116        -28.1396       -0.0082602         150.396
0.512                  -0.220972        -127.953         -62.4471        -30.3362         -62.4469        -30.3366      -0.00832597          150.33
0.513                   -0.22909        -128.432         -62.2813        -32.5533         -62.2811        -32.5537       -0.0083928         150.263
0.514                   -0.23749        -128.912         -62.1145        -34.7904         -62.1143        -34.7908      -0.00846072         150.197
0.515                  -0.246171        -129.394         -61.9468        -37.0474         -61.9465        -37.0478      -0.00852972         150.131
0.516                  -0.255134        -129.876         -61.7782        -39.3244          -61.778        -39.3248      -0.00859982         150.064
0.517                  -0.264377         -130.36          -61.609        -41.6212         -61.6088        -41.6217      -0.00867101         149.998
0.518                  -0.273901        -130.845         -61.4391        -43.9378         -61.4389        -43.9382      -0.00874332         149.931
0.519                  -0.283703        -131.332         -61.2687         -46.274         -61.2685        -46.2745      -0.00881673         149.864
0.52                   -0.293785         -131.82         -61.0978        -48.6297         -61.0976        -48.6302      -0.00889126         149.798
0.521                  -0.304144        -132.309         -60.9267        -51.0047         -60.9264        -51.0052      -0.00896692         149.731
0.522                  -0.314781        -132.799         -60.7553        -53.3988         -60.7551        -53.3993      -0.00904372         149.664
0.523                  -0.325694        -133.291         -60.5837        -55.8118         -60.5835        -55.8123      -0.00912166         149.597
0.524                  -0.336884        -133.784         -60.4122        -58.2434          -60.412        -58.2439      -0.00920074          149.53
0.525                  -0.348348        -134.278         -60.2408        -60.6933         -60.2406        -60.6938      -0.00928098         149.462
0.526                  -0.360087        -134.773         -60.0696        -63.1612         -60.0695        -63.1616      -0.00936239         149.395
0.527                  -0.372099         -135.27         -59.8988        -65.6467         -59.8986        -65.6471      -0.00944497         149.328
0.528                  -0.384384        -135.768         -59.7284        -68.1494         -59.7283        -68.1498      -0.00952874          149.26
0.529                  -0.396941        -136.268         -59.5586        -70.6688         -59.5585        -70.6692      -0.00961369         149.193
0.53                   -0.409769        -136.769         -59.3895        -73.2045         -59.3893        -73.2049      -0.00969984         149.125
0.531                  -0.422867        -137.271         -59.2211        -75.7559          -59.221        -75.7563       -0.0097872         149.057
0.532                  -0.436234        -137.775         -59.0537        -78.3226         -59.0536        -78.3229      -0.00987577         148.989
0.533                   -0.44987         -138.28         -58.8873        -80.9038         -58.8872        -80.9041      -0.00996557         148.921
0.534                  -0.463774        -138.786          -58.722         -83.499         -58.7219        -83.4992       -0.0100566         148.853
0.535                  -0.477946        -139.294         -58.5579        -86.1074         -58.5578        -86.1077       -0.0101489         148.785
0.536                  -0.492383        -139.803         -58.3951        -88.7285         -58.3951        -88.7287       -0.0102424         148.717
0.537                  -0.507086        -140.314         -58.2338        -91.3614         -58.2338        -91.3616       -0.0103372         148.648
0.538                  -0.522055        -140.826         -58.0739        -94.0054         -58.0739        -94.0055       -0.0104333          148.58
0.539                  -0.537288         -141.34         -57.9156        -96.6597         -57.9156        -96.6598       -0.0105306         148.511
0.54                   -0.552785        -141.856          -57.759        -99.3235          -57.759        -99.3235       -0.0106292         148.442
0.541                  -0.568545        -142.373          -57.604        -101.996         -57.6041        -101.996       -0.0107292         148.374
0.542                  -0.584569        -142.891         -57.4509        -104.676         -57.4509        -104.676       -0.0108304         148.305
0.543                  -0.600856        -143.412         -57.2995        -107.364         -57.2995        -107.363        -0.010933         148.236
0.544                  -0.617406        -143.934           -57.15        -110.057           -57.15        -110.057       -0.0110369         148.167
0.545                  -0.634219        -144.458         -57.0024        -112.755         -57.0024        -112.755       -0.0111422         148.097
0.546                  -0.651295        -144.983         -56.8567        -115.458         -56.8567        -115.458       -0.0112488         148.028
0.547                  -0.668635         -145.51         -56.7129        -118.165          -56.713        -118.164       -0.0113567         147.959
0.548                  -0.686238         -146.04         -56.5711        -120.874         -56.5711        -120.873       -0.0114661         147.889
0.549                  -0.704105        -146.571         -56.4312        -123.584         -56.4312        -123.584       -0.0115768         147.819
0.55                   -0.722238        -147.104         -56.2932        -126.296         -56.2933        -126.296       -0.0116889          147.75
0.551                  -0.740637        -147.639         -56.1571        -129.008         -56.1572        -129.008       -0.0118024          147.68
0.552                  -0.759303        -148.176         -56.0229         -131.72          -56.023        -131.719       -0.0119174          147.61
0.553                  -0.778238        -148.715         -55.8906         -134.43         -55.8907        -134.429       -0.0120338          147.54
0.554                  -0.797444        -149.256           -55.76        -137.138         -55.7601        -137.137       -0.0121516          147.47
0.555                  -0.816922          -149.8         -55.6312        -139.844         -55.6313        -139.843       -0.0122708         147.399
0.556                  -0.836675        -150.346         -55.5041        -142.546         -55.5042        -142.545       -0.0123916         147.329
0.557                  -0.856706        -150.894         -55.3787        -145.244         -55.3788        -145.244       -0.0125138         147.258
0.558                  -0.877018        -151.444         -55.2548        -147.939         -55.2549        -147.938       -0.0126374         147.187
0.559                  -0.897614        -151.997         -55.1325        -150.628         -55.1326        -150.627       -0.0127626         147.117
0.56                   -0.918498        -152.553         -55.0116        -153.312         -55.0117        -153.311       -0.0128892         147.046
0.561                  -0.939674        -153.111          -54.892        -155.991         -54.8921         -155.99       -0.0130174         146.975
0.562                  -0.961148        -153.672         -54.7738        -158.664         -54.7739        -158.663       -0.0131471         146.903
0.563                  -0.982925        -154.236         -54.6567        -161.331         -54.6568         -161.33       -0.0132783         146.832
0.564                   -1.00501        -154.802         -54.5408        -163.991         -54.5409         -163.99        -0.013411         146.761
0.565                   -1.02741        -155.372         -54.4259        -166.645          -54.426        -166.644       -0.0135453         146.689
0.566                   -1.05013        -155.945          -54.312        -169.292         -54.3121        -169.291       -0.0136811         146.617
0.567                   -1.07319         -156.52         -54.1989        -171.933          -54.199        -171.932       -0.0138184         146.546
0.568                   -1.09658        -157.099         -54.0867        -174.567         -54.0868        -174.566       -0.0139573         146.474
0.569                   -1.12033        -157.681         -53.9752        -177.194         -53.9753        -177.193       -0.0140978         146.402
0.57                    -1.14443        -158.267         -53.8643        -179.815         -53.8644        -179.814       -0.0142398         146.329
0.571                   -1.16891        -158.856          -53.754          177.57         -53.7541         177.571       -0.0143834         146.257
0.572                   -1.19376        -159.449         -53.6442         174.962         -53.6443         174.963       -0.0145285         146.184
0.573                   -1.21902        -160.046         -53.5349          172.36         -53.5349         172.361       -0.0146752         146.112
0.574                   -1.24469        -160.646         -53.4259         169.764         -53.4259         169.765       -0.0148234         146.039
0.575                   -1.27079         -161.25         -53.3172         167.173         -53.3173         167.174       -0.0149732         145.966
0.576                   -1.29734        -161.859         -53.2088         164.588         -53.2089         164.589       -0.0151245         145.893
0.577                   -1.32435        -162.471         -53.1006         162.007         -53.1006         162.008       -0.0152773          145.82
0.578                   -1.35185        -163.088         -52.9925         159.432         -52.9926         159.432       -0.0154316         145.746
0.579                   -1.37986        -163.709         -52.8846          156.86         -52.8846         156.861       -0.0155874         145.673
0.58                     -1.4084        -164.335         -52.7767         154.292         -52.7768         154.293       -0.0157447         145.599
0.581                   -1.43749        -164.965         -52.6689         151.728         -52.6689         151.729       -0.0159035         145.525
0.582                   -1.46718          -165.6         -52.5611         149.167         -52.5611         149.168       -0.0160637         145.451
0.583                   -1.49748         -166.24         -52.4533         146.609         -52.4533         146.609       -0.0162253         145.377
0.584                   -1.52844        -166.885         -52.3454         144.052         -52.3454         144.053       -0.0163884         145.303
0.585                   -1.56007        -167.535         -52.2375         141.498         -52.2376         141.498       -0.0165528         145.229
0.586                   -1.59243        -168.189         -52.1296         138.945         -52.1296         138.945       -0.0167187         145.154
0.587                   -1.62554        -168.849         -52.0216         136.393         -52.0217         136.393       -0.0168859         145.079
0.588                   -1.65946        -169.515         -51.9136         133.841         -51.9136         133.842       -0.0170545         145.004
0.589                   -1.69422        -170.185         -51.8056          131.29         -51.8056          131.29       -0.0172244         144.929
0.59                    -1.72988        -170.861         -51.6975         128.738         -51.6975         128.738       -0.0173958         144.854
0.591                   -1.76648        -171.542         -51.5895         126.185         -51.5895         126.186       -0.0175686         144.778
0.592                   -1.80407        -172.229         -51.4814         123.632         -51.4814         123.632       -0.0177428         144.703
0.593                   -1.84272        -172.921         -51.3734         121.076         -51.3734         121.077       -0.0179185         144.627
0.594                   -1.88247        -173.618         -51.2655         118.519         -51.2655          118.52       -0.0180959         144.551
0.595                   -1.92339        -174.321         -51.1578          115.96         -51.1578          115.96       -0.0182749         144.475
0.596                   -1.96555        -175.028         -51.0502         113.398         -51.0502         113.399       -0.0184557         144.399
0.597                     -2.009        -175.741         -50.9428         110.834         -50.9428         110.834       -0.0186385         144.322
0.598                    -2.0538        -176.458         -50.8356         108.267         -50.8356         108.267       -0.0188233         144.245
0.599                   -2.10004         -177.18         -50.7288         105.696         -50.7288         105.696       -0.0190104         144.168
0.6                     -2.14777        -177.907         -50.6223         103.122         -50.6223         103.122          -0.0192         144.091
0.601                   -2.19707        -178.637         -50.5163         100.544         -50.5163         100.544       -0.0193922         144.014
0.602                   -2.24799        -179.371         -50.4107         97.9621         -50.4107         97.9621       -0.0195872         143.937
0.603                   -2.30061         179.891         -50.3057         95.3767         -50.3057         95.3767       -0.0197852         143.859
0.604                   -2.35498         179.151         -50.2013         92.7874         -50.2013         92.7874       -0.0199864         143.781
0.605                   -2.41117         178.408         -50.0976         90.1942         -50.0976         90.1942        -0.020191         143.703
0.606                   -2.46922         177.664         -49.9946         87.5972         -49.9946         87.5971       -0.0203992         143.624
0.607                    -2.5292         176.919         -49.8924         84.9963         -49.8925         84.9962        -0.020611         143.546
0.608                   -2.59112         176.173         -49.7911         82.3917         -49.7911         82.3916       -0.0208266         143.467
0.609                   -2.65502         175.428         -49.6908         79.7836         -49.6908         79.7835       -0.0210461         143.388
0.61                    -2.72092         174.684         -49.5914         77.1721         -49.5914          77.172       -0.0212694         143.309
0.611                   -2.78883         173.943          -49.493         74.5576          -49.493         74.5575       -0.0214968          143.23
0.612                   -2.85872         173.204         -49.3958         71.9401         -49.3958           71.94       -0.0217281          143.15
0.613                   -2.93059         172.469         -49.2997         69.3201         -49.2997           69.32       -0.0219635          143.07
0.614                   -3.00437         171.739         -49.2049         66.6979         -49.2049         66.6978       -0.0222029          142.99
0.615                   -3.08002         171.015         -49.1113         64.0739         -49.1113         64.0738       -0.0224462          142.91
0.616                   -3.15745         170.297          -49.019         61.4484          -49.019         61.4484       -0.0226935         142.829
0.617                   -3.23655         169.587          -48.928          58.822          -48.928         58.8219       -0.0229447         142.749
0.618                   -3.31722         168.885         -48.8384          56.195         -48.8384          56.195       -0.0231998         142.668
0.619                   -3.39931         168.192         -48.7501          53.568         -48.7501          53.568       -0.0234588         142.586
0.62                    -3.48267         167.509         -48.6633         50.9415         -48.6633         50.9414       -0.0237217         142.505
0.621                   -3.56714         166.835         -48.5779         48.3159         -48.5779         48.3159       -0.0239883         142.423
0.622                   -3.65252         166.172         -48.4939         45.6919         -48.4939         45.6918       -0.0242588         142.341
0.623                   -3.73864          165.52         -48.4113         43.0699         -48.4113         43.0698       -0.0245332         142.259
0.624                   -3.82528         164.878         -48.3301         40.4504         -48.3301         40.4504       -0.0248113         142.177
0.625                   -3.91226         164.246         -48.2503         37.8341         -48.2503          37.834       -0.0250932         142.094
0.626                   -3.99938         163.625         -48.1718         35.2214         -48.1718         35.2213        -0.025379         142.011
0.627                   -4.08644         163.012         -48.0947         32.6128         -48.0947         32.6128       -0.0256686         141.928
0.628                   -4.17328         162.409         -48.0188         30.0089         -48.0188         30.0088       -0.0259621         141.845
0.629                   -4.25972         161.813         -47.9443           27.41         -47.9443           27.41       -0.0262595         141.761
