!Agilent Technologies,E8364B,US42250235,A.06.04.32
!Agilent E8364B: A.06.04.32
!Date: Friday, January 15, 2021 15:01:41
!Correction: S11(Full 2 Port(1,2)) S21(Full 2 Port(1,2)) S12(Full 2 Port(1,2)) S22(Full 2 Port(1,2)) 
!S2P File: Measurements: S11, S21, S12, S22:
# Hz S  dB   R 50
500000000 -1.494140e-001 -1.304179e+002 -7.354369e+001 -4.765057e+001 -7.606378e+001 -3.144632e+001 -1.578183e-001 1.381384e+002
500625000 -1.555970e-001 -1.306798e+002 -6.769576e+001 -1.134600e+002 -7.785054e+001 -1.036338e+002 -1.654366e-001 1.381444e+002
501250000 -1.596352e-001 -1.309537e+002 -7.148959e+001 -3.237839e+001 -7.327692e+001 -7.502240e+000 -1.514922e-001 1.380579e+002
501875000 -1.667209e-001 -1.312691e+002 -7.098971e+001 7.739356e+000 -8.468266e+001 -6.977268e+000 -1.566302e-001 1.380284e+002
502500000 -1.713098e-001 -1.315903e+002 -7.388123e+001 -1.293008e+002 -7.828299e+001 2.878252e+001 -1.565327e-001 1.379780e+002
503125000 -1.864750e-001 -1.319361e+002 -7.667992e+001 -5.730992e+001 -7.411375e+001 -8.866634e+001 -1.484354e-001 1.378822e+002
503750000 -1.850364e-001 -1.321732e+002 -7.514510e+001 -7.931750e+001 -7.426311e+001 -2.782260e+001 -1.626295e-001 1.377933e+002
504375000 -2.058610e-001 -1.325077e+002 -7.582394e+001 -1.725430e+001 -7.555015e+001 1.034324e+002 -1.685652e-001 1.377289e+002
505000000 -2.056706e-001 -1.328258e+002 -7.086131e+001 -1.401598e+002 -7.174874e+001 -1.360068e+002 -1.674269e-001 1.377585e+002
505625000 -2.078493e-001 -1.330812e+002 -7.035051e+001 -8.545149e+001 -7.802277e+001 -3.563476e+001 -1.668643e-001 1.376516e+002
506250000 -2.191146e-001 -1.334175e+002 -6.765412e+001 -1.103950e+002 -8.219719e+001 -1.040493e+001 -1.769236e-001 1.375497e+002
506875000 -2.218256e-001 -1.336579e+002 -7.346368e+001 -9.368019e+001 -8.305962e+001 -1.751519e+002 -1.647524e-001 1.374374e+002
507500000 -2.329304e-001 -1.339581e+002 -7.170725e+001 -1.431814e+002 -7.619920e+001 -1.074614e+002 -1.730264e-001 1.372884e+002
508125000 -2.360124e-001 -1.342440e+002 -6.944147e+001 -1.531604e+002 -7.059275e+001 -1.018310e+002 -1.740734e-001 1.372538e+002
508750000 -2.462809e-001 -1.345040e+002 -6.852628e+001 -1.304101e+002 -7.788714e+001 -7.305857e+001 -1.779017e-001 1.370873e+002
509375000 -2.609507e-001 -1.347824e+002 -7.547941e+001 -7.227494e+001 -7.120776e+001 1.765676e+002 -1.742219e-001 1.370332e+002
510000000 -2.644342e-001 -1.350876e+002 -7.007639e+001 -7.528098e+001 -7.394238e+001 -6.855691e+001 -1.843615e-001 1.368821e+002
510625000 -2.759475e-001 -1.352874e+002 -7.312531e+001 -7.072108e+001 -7.099530e+001 -1.216803e+002 -1.670006e-001 1.368377e+002
511250000 -2.838328e-001 -1.355620e+002 -6.881786e+001 -1.368245e+002 -7.918524e+001 -1.029785e+002 -1.811458e-001 1.366725e+002
511875000 -2.876375e-001 -1.358917e+002 -7.084440e+001 -1.614102e+002 -7.728338e+001 -6.415755e+001 -1.692496e-001 1.365464e+002
512500000 -2.997378e-001 -1.360738e+002 -8.331812e+001 -4.858944e+001 -7.216217e+001 -1.410577e+002 -1.722321e-001 1.364103e+002
513125000 -3.228658e-001 -1.364079e+002 -6.677415e+001 -1.669998e+002 -7.027621e+001 -8.520729e+001 -1.721119e-001 1.363953e+002
513750000 -3.260781e-001 -1.366504e+002 -6.940887e+001 -9.632442e+001 -7.723788e+001 1.748024e+002 -1.731403e-001 1.362156e+002
514375000 -3.348439e-001 -1.370017e+002 -6.870156e+001 -5.273315e+001 -7.002642e+001 -1.134967e+002 -1.657111e-001 1.361405e+002
515000000 -3.410492e-001 -1.372066e+002 -7.472269e+001 -1.275574e+002 -7.811848e+001 -1.668278e+002 -1.578981e-001 1.360676e+002
515625000 -3.598054e-001 -1.376488e+002 -7.989441e+001 -7.428197e+001 -6.666878e+001 -9.998173e+001 -1.595457e-001 1.359508e+002
516250000 -3.728352e-001 -1.378662e+002 -7.428363e+001 -1.287825e+002 -6.700950e+001 -1.016909e+002 -1.672367e-001 1.359207e+002
516875000 -3.864833e-001 -1.381841e+002 -7.212075e+001 -1.002503e+002 -7.061055e+001 -1.572811e+002 -1.618632e-001 1.359495e+002
517500000 -3.948400e-001 -1.384688e+002 -6.917753e+001 -1.184876e+002 -7.459439e+001 1.645322e+001 -1.616978e-001 1.357793e+002
518125000 -4.027374e-001 -1.388341e+002 -7.235511e+001 -1.581716e+002 -8.159612e+001 -1.019116e+002 -1.653414e-001 1.357927e+002
518750000 -4.218324e-001 -1.391369e+002 -7.448658e+001 -1.181882e+002 -7.309081e+001 -1.033861e+002 -1.593480e-001 1.357836e+002
519375000 -4.374592e-001 -1.393944e+002 -7.229521e+001 -1.547319e+002 -6.946227e+001 -1.687099e+002 -1.545216e-001 1.357379e+002
520000000 -4.495786e-001 -1.397340e+002 -7.209389e+001 -1.578684e+002 -7.459278e+001 -8.796932e+001 -1.569427e-001 1.357136e+002
520625000 -4.552313e-001 -1.400261e+002 -7.252731e+001 -5.920403e+001 -6.874004e+001 -8.854415e+001 -1.537011e-001 1.356362e+002
521250000 -4.703686e-001 -1.402931e+002 -7.259681e+001 -1.114000e+002 -7.378954e+001 -1.051210e+002 -1.624466e-001 1.356120e+002
521875000 -4.730364e-001 -1.405918e+002 -7.184028e+001 -1.474496e+002 -8.849059e+001 1.321652e+002 -1.517257e-001 1.356330e+002
522500000 -4.771723e-001 -1.408441e+002 -7.064119e+001 -1.738166e+002 -7.187724e+001 -1.267368e+002 -1.650353e-001 1.355287e+002
523125000 -4.974220e-001 -1.411765e+002 -8.218247e+001 -7.126824e+001 -7.393338e+001 1.654457e+002 -1.623166e-001 1.355586e+002
523750000 -4.966228e-001 -1.414173e+002 -7.345919e+001 1.719094e+002 -7.795348e+001 -1.567318e+002 -1.624442e-001 1.354776e+002
524375000 -5.144496e-001 -1.416885e+002 -7.861395e+001 6.873401e+001 -7.199488e+001 -1.121341e+002 -1.478526e-001 1.354751e+002
525000000 -5.173615e-001 -1.419543e+002 -7.084930e+001 -1.165674e+002 -7.222006e+001 -9.710247e+001 -1.700705e-001 1.354553e+002
525625000 -5.319355e-001 -1.421475e+002 -7.985572e+001 -8.410545e+001 -8.038191e+001 -2.038104e+001 -1.705353e-001 1.354127e+002
526250000 -5.330427e-001 -1.423870e+002 -7.627280e+001 -1.019426e+002 -7.992268e+001 -1.321290e+002 -1.565299e-001 1.353841e+002
526875000 -5.374910e-001 -1.426572e+002 -6.747001e+001 -1.260935e+002 -7.156696e+001 1.780519e+002 -1.502407e-001 1.353037e+002
527500000 -5.544453e-001 -1.428869e+002 -7.437451e+001 -1.162880e+002 -7.217146e+001 -1.411090e+002 -1.588719e-001 1.352548e+002
528125000 -5.785071e-001 -1.431617e+002 -8.307195e+001 6.376986e+001 -6.919978e+001 -1.169313e+002 -1.637581e-001 1.352589e+002
528750000 -5.747866e-001 -1.433689e+002 -7.316892e+001 -1.232439e+002 -7.447928e+001 -1.014736e+002 -1.584457e-001 1.353156e+002
529375000 -5.918368e-001 -1.436255e+002 -7.134907e+001 -1.780071e+002 -7.102500e+001 -1.287632e+002 -1.572863e-001 1.352217e+002
530000000 -5.931351e-001 -1.439084e+002 -7.935563e+001 1.925218e+001 -7.623820e+001 -7.667603e+001 -1.546008e-001 1.351451e+002
530625000 -6.071835e-001 -1.441588e+002 -7.440397e+001 -1.432742e+002 -7.610204e+001 -1.598976e+002 -1.606468e-001 1.351648e+002
531250000 -6.114850e-001 -1.444327e+002 -7.190004e+001 -1.191627e+002 -7.661040e+001 -1.174589e+002 -1.546812e-001 1.350555e+002
531875000 -6.310118e-001 -1.446540e+002 -7.064842e+001 -1.275873e+002 -7.544505e+001 -1.782021e+002 -1.585255e-001 1.349913e+002
532500000 -6.429656e-001 -1.448830e+002 -7.021251e+001 -1.746597e+002 -7.743484e+001 -7.136417e+001 -1.640071e-001 1.350653e+002
533125000 -6.428791e-001 -1.451991e+002 -7.472427e+001 -1.551312e+002 -8.020688e+001 -1.493951e+002 -1.710383e-001 1.350125e+002
533750000 -6.460925e-001 -1.455299e+002 -7.429914e+001 -8.220038e+001 -7.630097e+001 -1.439588e+002 -1.787304e-001 1.349030e+002
534375000 -6.485910e-001 -1.458187e+002 -6.891542e+001 -1.765625e+002 -6.759576e+001 -7.727977e+001 -1.665296e-001 1.348376e+002
535000000 -6.649455e-001 -1.460759e+002 -7.281618e+001 -1.385913e+002 -7.074285e+001 -1.609928e+002 -1.694918e-001 1.348433e+002
535625000 -6.721024e-001 -1.463842e+002 -7.037571e+001 -1.474102e+002 -6.969127e+001 -1.516682e+002 -1.766456e-001 1.347198e+002
536250000 -6.792712e-001 -1.467030e+002 -7.135983e+001 1.773817e+002 -7.238052e+001 -9.320149e+001 -1.717752e-001 1.346977e+002
536875000 -6.891671e-001 -1.470362e+002 -7.175905e+001 -1.206153e+002 -7.020022e+001 -1.233716e+002 -1.713179e-001 1.345921e+002
537500000 -6.846982e-001 -1.472630e+002 -7.874787e+001 1.750287e+002 -7.669051e+001 1.782254e+002 -1.702818e-001 1.345949e+002
538125000 -6.895211e-001 -1.475770e+002 -7.180763e+001 -1.458851e+002 -7.263742e+001 -1.273318e+002 -1.694906e-001 1.345636e+002
538750000 -7.079468e-001 -1.478908e+002 -6.806371e+001 -8.869032e+001 -7.067760e+001 -1.023310e+002 -1.682304e-001 1.344841e+002
539375000 -7.139946e-001 -1.481505e+002 -7.085103e+001 -1.552498e+002 -6.961047e+001 -1.342909e+002 -1.703284e-001 1.344094e+002
540000000 -7.047653e-001 -1.484157e+002 -7.281159e+001 -1.630771e+002 -6.944452e+001 -1.581098e+002 -1.558660e-001 1.343981e+002
540625000 -7.093862e-001 -1.487699e+002 -6.942133e+001 -1.456143e+002 -7.372796e+001 -1.670319e+002 -1.552945e-001 1.343701e+002
541250000 -7.212467e-001 -1.489405e+002 -7.172688e+001 1.722295e+002 -6.669884e+001 -1.149140e+002 -1.518256e-001 1.343093e+002
541875000 -7.243574e-001 -1.492473e+002 -7.129977e+001 -1.184953e+002 -7.211111e+001 -1.160409e+002 -1.619894e-001 1.342762e+002
542500000 -7.259945e-001 -1.494922e+002 -6.703398e+001 -1.535302e+002 -6.761513e+001 -1.433580e+002 -1.536608e-001 1.342766e+002
543125000 -7.245237e-001 -1.497743e+002 -6.697079e+001 -1.438967e+002 -7.316293e+001 -9.895541e+001 -1.524227e-001 1.342307e+002
543750000 -7.232622e-001 -1.500935e+002 -6.596448e+001 -1.563350e+002 -6.946756e+001 -1.208175e+002 -1.553586e-001 1.342356e+002
544375000 -7.337814e-001 -1.503327e+002 -7.166463e+001 -1.713148e+002 -6.490626e+001 -1.453845e+002 -1.513309e-001 1.342249e+002
545000000 -7.325274e-001 -1.505786e+002 -6.740411e+001 -1.203996e+002 -7.034696e+001 -1.341185e+002 -1.481407e-001 1.342498e+002
545625000 -7.316135e-001 -1.508607e+002 -6.613406e+001 -1.453952e+002 -7.075683e+001 -1.545242e+002 -1.500589e-001 1.342860e+002
546250000 -7.478743e-001 -1.511562e+002 -7.225200e+001 -1.785263e+002 -6.665577e+001 -1.651220e+002 -1.640442e-001 1.342314e+002
546875000 -7.530348e-001 -1.514573e+002 -6.658012e+001 -1.556534e+002 -7.468799e+001 -1.430267e+002 -1.634888e-001 1.342561e+002
547500000 -7.617682e-001 -1.517316e+002 -6.650558e+001 -1.672742e+002 -6.458684e+001 -1.521638e+002 -1.661854e-001 1.342278e+002
548125000 -7.746757e-001 -1.519771e+002 -6.624210e+001 -1.767961e+002 -6.710191e+001 -1.583365e+002 -1.574298e-001 1.342021e+002
548750000 -7.720801e-001 -1.523358e+002 -6.695398e+001 -1.588975e+002 -6.515833e+001 -1.460281e+002 -1.731590e-001 1.341222e+002
549375000 -7.795523e-001 -1.526488e+002 -6.619476e+001 -1.592650e+002 -6.693204e+001 -1.691956e+002 -1.750693e-001 1.339627e+002
550000000 -7.841218e-001 -1.529657e+002 -6.564256e+001 -1.593316e+002 -6.942437e+001 1.728232e+002 -1.824556e-001 1.339748e+002
550625000 -7.893713e-001 -1.532484e+002 -6.735031e+001 1.670232e+002 -6.579291e+001 -1.638000e+002 -1.749348e-001 1.338705e+002
551250000 -7.846799e-001 -1.535873e+002 -6.730732e+001 -1.681633e+002 -6.561996e+001 -1.540967e+002 -1.833580e-001 1.337641e+002
551875000 -7.931982e-001 -1.539072e+002 -6.810201e+001 -1.556922e+002 -6.758130e+001 -1.731342e+002 -1.803768e-001 1.336817e+002
552500000 -7.938184e-001 -1.543289e+002 -7.073537e+001 -1.680584e+002 -6.524229e+001 1.607650e+002 -1.819471e-001 1.335526e+002
553125000 -7.811019e-001 -1.546147e+002 -6.742580e+001 -1.444863e+002 -7.534743e+001 -1.710685e+002 -1.788094e-001 1.334408e+002
553750000 -7.957701e-001 -1.549976e+002 -6.982952e+001 -1.475521e+002 -6.945659e+001 -1.639321e+002 -1.825181e-001 1.333541e+002
554375000 -7.908245e-001 -1.553315e+002 -6.926318e+001 -1.628313e+002 -6.800387e+001 -1.718838e+002 -1.784796e-001 1.332194e+002
555000000 -7.860799e-001 -1.556725e+002 -6.830205e+001 1.689714e+002 -6.845580e+001 1.717949e+002 -1.832439e-001 1.331710e+002
555625000 -8.021515e-001 -1.559954e+002 -6.819708e+001 -1.778079e+002 -7.149537e+001 -1.768492e+002 -1.727166e-001 1.331145e+002
556250000 -8.074266e-001 -1.563985e+002 -6.696601e+001 1.770268e+002 -7.193452e+001 -1.621755e+002 -1.818085e-001 1.329696e+002
556875000 -8.006114e-001 -1.567869e+002 -6.974888e+001 1.750217e+002 -6.789178e+001 1.747382e+002 -1.686236e-001 1.329583e+002
557500000 -8.196865e-001 -1.570430e+002 -6.660546e+001 -1.537375e+002 -6.613626e+001 -1.783408e+002 -1.676428e-001 1.328527e+002
558125000 -8.176960e-001 -1.573660e+002 -7.092884e+001 1.798392e+002 -6.727715e+001 1.756353e+002 -1.768489e-001 1.328379e+002
558750000 -8.130057e-001 -1.576562e+002 -7.534241e+001 1.674234e+002 -6.744114e+001 -1.750191e+002 -1.743430e-001 1.327706e+002
559375000 -8.219203e-001 -1.580156e+002 -6.497216e+001 1.785862e+002 -7.111285e+001 -1.792411e+002 -1.607300e-001 1.328345e+002
560000000 -8.283931e-001 -1.583086e+002 -7.129610e+001 1.773487e+002 -6.437855e+001 1.763685e+002 -1.569669e-001 1.327379e+002
560625000 -8.292534e-001 -1.585414e+002 -6.770860e+001 1.798307e+002 -6.600278e+001 -1.633868e+002 -1.588078e-001 1.327005e+002
561250000 -8.299199e-001 -1.588890e+002 -6.799844e+001 -1.418120e+002 -6.669788e+001 1.783056e+002 -1.668214e-001 1.326917e+002
561875000 -8.346629e-001 -1.591989e+002 -6.479810e+001 -1.632833e+002 -6.972595e+001 -1.556366e+002 -1.659503e-001 1.327549e+002
562500000 -8.374077e-001 -1.594909e+002 -6.635995e+001 -1.772648e+002 -6.798864e+001 -1.692654e+002 -1.659289e-001 1.327590e+002
563125000 -8.296615e-001 -1.597959e+002 -7.066573e+001 -1.518320e+002 -6.645801e+001 1.798487e+002 -1.666930e-001 1.327050e+002
563750000 -8.325173e-001 -1.601968e+002 -6.285786e+001 1.731493e+002 -6.442204e+001 1.670954e+002 -1.711859e-001 1.326141e+002
564375000 -8.388276e-001 -1.605822e+002 -6.624653e+001 1.690338e+002 -6.706159e+001 1.502184e+002 -1.772333e-001 1.326267e+002
565000000 -8.398124e-001 -1.609938e+002 -6.342672e+001 1.608157e+002 -7.081213e+001 1.536619e+002 -1.812478e-001 1.325363e+002
565625000 -8.496541e-001 -1.613559e+002 -6.908344e+001 1.655912e+002 -6.280641e+001 1.784311e+002 -1.881039e-001 1.325177e+002
566250000 -8.450712e-001 -1.618372e+002 -6.870860e+001 1.576566e+002 -6.681537e+001 1.689299e+002 -1.858636e-001 1.323669e+002
566875000 -8.621268e-001 -1.622220e+002 -6.833363e+001 -1.799392e+002 -6.591665e+001 1.519705e+002 -1.890093e-001 1.322141e+002
567500000 -8.723008e-001 -1.627076e+002 -6.767212e+001 1.626835e+002 -6.357599e+001 1.633761e+002 -1.882051e-001 1.320492e+002
568125000 -8.813720e-001 -1.631035e+002 -6.972842e+001 -1.663035e+002 -6.754456e+001 1.731300e+002 -1.951062e-001 1.319900e+002
568750000 -8.882117e-001 -1.635216e+002 -6.617869e+001 1.715306e+002 -6.767561e+001 1.764246e+002 -1.904702e-001 1.318281e+002
569375000 -9.016885e-001 -1.639639e+002 -6.521811e+001 1.694057e+002 -6.656231e+001 1.574559e+002 -1.897415e-001 1.316969e+002
570000000 -9.069493e-001 -1.644104e+002 -6.580839e+001 1.574712e+002 -6.861155e+001 1.678008e+002 -1.893580e-001 1.314729e+002
570625000 -9.029039e-001 -1.648396e+002 -6.792042e+001 1.590524e+002 -6.553903e+001 1.495909e+002 -1.880385e-001 1.314352e+002
571250000 -9.151644e-001 -1.652858e+002 -6.563825e+001 1.743759e+002 -6.637999e+001 1.574822e+002 -1.820713e-001 1.313687e+002
571875000 -9.297410e-001 -1.657254e+002 -6.624804e+001 1.574680e+002 -6.835637e+001 1.311649e+002 -1.772858e-001 1.312264e+002
572500000 -9.391349e-001 -1.661693e+002 -6.614753e+001 1.527928e+002 -6.486420e+001 1.727332e+002 -1.788875e-001 1.311275e+002
573125000 -9.443362e-001 -1.665899e+002 -6.680344e+001 1.553654e+002 -7.067663e+001 -1.776288e+002 -1.696139e-001 1.309851e+002
573750000 -9.491583e-001 -1.669767e+002 -6.354192e+001 1.614947e+002 -6.421928e+001 1.715547e+002 -1.805901e-001 1.309387e+002
574375000 -9.529805e-001 -1.673866e+002 -6.470605e+001 1.605406e+002 -6.821967e+001 1.538151e+002 -1.658353e-001 1.309001e+002
575000000 -9.571002e-001 -1.677671e+002 -6.327770e+001 1.640531e+002 -6.566623e+001 1.728533e+002 -1.817295e-001 1.308246e+002
575625000 -9.704288e-001 -1.681852e+002 -6.298842e+001 1.412011e+002 -6.517205e+001 1.626198e+002 -1.740233e-001 1.307848e+002
576250000 -9.718325e-001 -1.685690e+002 -6.429423e+001 1.707971e+002 -6.336664e+001 1.579253e+002 -1.783092e-001 1.307507e+002
576875000 -9.662302e-001 -1.689492e+002 -6.449170e+001 -1.711986e+002 -6.373214e+001 1.458083e+002 -1.688177e-001 1.307406e+002
577500000 -9.814790e-001 -1.693333e+002 -6.361106e+001 1.662080e+002 -6.494788e+001 1.498203e+002 -1.783706e-001 1.306741e+002
578125000 -9.832019e-001 -1.697475e+002 -6.592199e+001 1.611144e+002 -6.438452e+001 1.466454e+002 -1.700995e-001 1.306990e+002
578750000 -9.866719e-001 -1.701685e+002 -6.593233e+001 1.310558e+002 -6.319019e+001 1.472953e+002 -1.661464e-001 1.306215e+002
579375000 -9.941736e-001 -1.705848e+002 -6.462666e+001 1.630163e+002 -6.452747e+001 1.582700e+002 -1.724496e-001 1.305515e+002
580000000 -9.931390e-001 -1.710444e+002 -6.490903e+001 1.635007e+002 -6.472481e+001 1.450636e+002 -1.762213e-001 1.305173e+002
580625000 -1.010168e+000 -1.715216e+002 -6.276456e+001 1.543873e+002 -6.222476e+001 1.604491e+002 -1.801575e-001 1.304376e+002
581250000 -1.019115e+000 -1.719673e+002 -6.245760e+001 1.400966e+002 -6.411210e+001 1.530529e+002 -1.809721e-001 1.303761e+002
581875000 -1.033089e+000 -1.724536e+002 -6.363613e+001 1.502911e+002 -6.564082e+001 1.520822e+002 -1.864007e-001 1.302958e+002
582500000 -1.044069e+000 -1.729033e+002 -6.411821e+001 1.347398e+002 -6.462037e+001 1.562604e+002 -1.809244e-001 1.302452e+002
583125000 -1.055395e+000 -1.734145e+002 -7.018878e+001 1.407397e+002 -6.541477e+001 1.463316e+002 -1.918720e-001 1.301123e+002
583750000 -1.071441e+000 -1.739217e+002 -6.691846e+001 1.405677e+002 -6.710662e+001 1.647382e+002 -1.903178e-001 1.299738e+002
584375000 -1.081086e+000 -1.744181e+002 -6.646127e+001 1.383579e+002 -6.474385e+001 1.097347e+002 -1.823584e-001 1.299098e+002
585000000 -1.093962e+000 -1.749933e+002 -6.469664e+001 1.636271e+002 -6.404331e+001 1.542772e+002 -1.867898e-001 1.298150e+002
585625000 -1.113659e+000 -1.754506e+002 -6.600500e+001 1.700541e+002 -6.377569e+001 1.341827e+002 -1.728263e-001 1.297178e+002
586250000 -1.119701e+000 -1.759970e+002 -6.924993e+001 1.266150e+002 -6.485184e+001 1.402612e+002 -1.779666e-001 1.297112e+002
586875000 -1.127407e+000 -1.765184e+002 -6.490623e+001 1.559123e+002 -6.518672e+001 1.657233e+002 -1.828120e-001 1.295926e+002
587500000 -1.148087e+000 -1.770590e+002 -6.283446e+001 1.550236e+002 -6.339610e+001 1.441358e+002 -1.699310e-001 1.295446e+002
588125000 -1.157812e+000 -1.775501e+002 -6.591736e+001 1.608080e+002 -6.263877e+001 1.407108e+002 -1.682108e-001 1.294807e+002
588750000 -1.169021e+000 -1.781324e+002 -6.237137e+001 1.371319e+002 -6.371695e+001 1.369064e+002 -1.728196e-001 1.294982e+002
589375000 -1.176906e+000 -1.786355e+002 -6.066823e+001 1.601176e+002 -6.639498e+001 1.424138e+002 -1.539865e-001 1.293859e+002
590000000 -1.202621e+000 -1.791760e+002 -6.345110e+001 1.356992e+002 -6.466543e+001 1.375966e+002 -1.595873e-001 1.294337e+002
590625000 -1.212193e+000 -1.796842e+002 -6.268002e+001 1.424689e+002 -6.392352e+001 1.413419e+002 -1.626621e-001 1.294224e+002
591250000 -1.228167e+000 1.798274e+002 -6.153661e+001 1.258122e+002 -6.435644e+001 1.298854e+002 -1.671779e-001 1.294206e+002
591875000 -1.257218e+000 1.793188e+002 -6.180517e+001 1.384112e+002 -6.596284e+001 1.269064e+002 -1.661058e-001 1.294566e+002
592500000 -1.270093e+000 1.787981e+002 -6.056366e+001 1.364439e+002 -6.318487e+001 1.580322e+002 -1.609996e-001 1.294937e+002
593125000 -1.293985e+000 1.783162e+002 -6.176970e+001 1.297075e+002 -6.643696e+001 1.312950e+002 -1.639412e-001 1.295673e+002
593750000 -1.318428e+000 1.778134e+002 -6.320407e+001 1.336244e+002 -6.516045e+001 1.298410e+002 -1.611049e-001 1.296271e+002
594375000 -1.327112e+000 1.773795e+002 -6.401740e+001 1.335527e+002 -6.445021e+001 1.254005e+002 -1.536248e-001 1.296616e+002
595000000 -1.349379e+000 1.768237e+002 -6.217208e+001 1.234659e+002 -6.433177e+001 1.397655e+002 -1.693492e-001 1.295684e+002
