!Agilent Technologies,E8364B,US42250235,A.06.04.32
!Agilent E8364B: A.06.04.32
!Date: Friday, January 15, 2021 14:43:31
!Correction: S11(Full 2 Port(1,2)) S21(Full 2 Port(1,2)) S12(Full 2 Port(1,2)) S22(Full 2 Port(1,2)) 
!S2P File: Measurements: S11, S21, S12, S22:
# Hz S  dB   R 50
500000000 -1.649870e-001 -1.294871e+002 -8.887668e+001 1.364721e+002 -7.279081e+001 1.252043e+002 -1.372633e-001 1.384266e+002
500625000 -1.655957e-001 -1.298033e+002 -7.256597e+001 -7.625546e+001 -7.606465e+001 1.531073e+002 -1.464052e-001 1.383866e+002
501250000 -1.750802e-001 -1.300465e+002 -7.664927e+001 7.778082e+001 -7.258306e+001 -7.303062e+001 -1.444354e-001 1.383109e+002
501875000 -1.635277e-001 -1.303596e+002 -7.779906e+001 1.173601e+002 -8.059183e+001 -1.743020e+002 -1.409812e-001 1.382951e+002
502500000 -1.645294e-001 -1.306715e+002 -7.717123e+001 1.176841e+002 -7.736322e+001 1.271849e+002 -1.374507e-001 1.382236e+002
503125000 -1.767845e-001 -1.309034e+002 -7.223930e+001 -5.892527e+001 -8.381084e+001 7.212553e+001 -1.430333e-001 1.380817e+002
503750000 -1.721631e-001 -1.311731e+002 -8.186050e+001 1.356376e+002 -7.701198e+001 -9.911671e+001 -1.489365e-001 1.380448e+002
504375000 -1.824636e-001 -1.314851e+002 -9.648518e+001 -6.845629e+001 -7.500795e+001 4.403252e+001 -1.568670e-001 1.380072e+002
505000000 -1.824091e-001 -1.318026e+002 -9.122266e+001 -1.549987e+002 -7.573536e+001 -1.182828e+002 -1.564897e-001 1.379189e+002
505625000 -1.773330e-001 -1.320086e+002 -7.447008e+001 1.572883e+002 -8.406239e+001 -1.248947e+002 -1.533860e-001 1.377800e+002
506250000 -1.753791e-001 -1.322947e+002 -7.891523e+001 -1.698756e+002 -7.235386e+001 1.073555e+002 -1.610751e-001 1.376920e+002
506875000 -1.749643e-001 -1.325787e+002 -8.929875e+001 -1.414543e+002 -7.999538e+001 1.754095e+002 -1.544167e-001 1.375522e+002
507500000 -1.764787e-001 -1.328631e+002 -7.822797e+001 8.350571e+001 -7.261308e+001 1.264872e+002 -1.613206e-001 1.374144e+002
508125000 -1.804918e-001 -1.331336e+002 -6.872892e+001 7.497689e+001 -7.605032e+001 -2.195850e+001 -1.607318e-001 1.373595e+002
508750000 -1.801722e-001 -1.333633e+002 -7.649097e+001 1.591146e+002 -7.349730e+001 1.447402e+002 -1.582540e-001 1.372004e+002
509375000 -1.851791e-001 -1.337041e+002 -8.918752e+001 -1.413813e+002 -7.268708e+001 1.343875e+002 -1.569552e-001 1.371265e+002
510000000 -1.763531e-001 -1.339802e+002 -7.207941e+001 -9.414413e+001 -8.184178e+001 1.074079e+002 -1.578383e-001 1.370262e+002
510625000 -1.895133e-001 -1.341920e+002 -8.031625e+001 1.472925e+002 -7.801365e+001 -8.247708e+001 -1.497643e-001 1.369696e+002
511250000 -1.946051e-001 -1.344657e+002 -8.004362e+001 -1.084438e+002 -7.414677e+001 -9.520935e+001 -1.559063e-001 1.367977e+002
511875000 -1.901718e-001 -1.347917e+002 -6.952821e+001 -1.708017e+002 -7.397395e+001 1.466782e+002 -1.503997e-001 1.367496e+002
512500000 -1.894324e-001 -1.350319e+002 -7.677576e+001 1.437231e+002 -7.304485e+001 1.193383e+002 -1.473359e-001 1.365815e+002
513125000 -2.019387e-001 -1.353167e+002 -7.473635e+001 -1.665660e+002 -7.017358e+001 -1.138432e+002 -1.544843e-001 1.366233e+002
513750000 -2.123754e-001 -1.355877e+002 -1.137293e+002 7.687646e+001 -9.002119e+001 4.842072e+001 -1.602731e-001 1.364749e+002
514375000 -2.099421e-001 -1.359000e+002 -8.724860e+001 -1.078116e+002 -8.217258e+001 7.516168e+001 -1.533765e-001 1.363826e+002
515000000 -2.169933e-001 -1.361381e+002 -7.547808e+001 1.580109e+001 -7.283022e+001 6.854654e+001 -1.451668e-001 1.363014e+002
515625000 -2.144745e-001 -1.365518e+002 -7.462124e+001 1.411324e+002 -9.517846e+001 3.839442e+001 -1.474703e-001 1.362313e+002
516250000 -2.155707e-001 -1.368234e+002 -7.282839e+001 1.214128e+002 -7.021407e+001 -1.125979e+002 -1.549665e-001 1.361239e+002
516875000 -2.282542e-001 -1.371196e+002 -8.339319e+001 -1.424233e+002 -7.809194e+001 -1.139346e+002 -1.479745e-001 1.361143e+002
517500000 -2.266858e-001 -1.374312e+002 -7.832121e+001 1.215066e+002 -8.383582e+001 1.461521e+002 -1.519474e-001 1.359778e+002
518125000 -2.251071e-001 -1.377994e+002 -8.496913e+001 -5.738772e+001 -7.706368e+001 1.489916e+002 -1.566985e-001 1.359448e+002
518750000 -2.392963e-001 -1.381445e+002 -7.605979e+001 -7.967526e+001 -7.639680e+001 1.141526e+002 -1.569002e-001 1.359399e+002
519375000 -2.351370e-001 -1.383626e+002 -7.838672e+001 -9.738811e+001 -7.712930e+001 -3.762106e+001 -1.459167e-001 1.358363e+002
520000000 -2.362536e-001 -1.387560e+002 -8.252628e+001 -4.787263e+001 -8.381851e+001 1.700752e+002 -1.446307e-001 1.357341e+002
520625000 -2.402445e-001 -1.391135e+002 -8.073746e+001 8.491341e+001 -7.409309e+001 7.667197e+001 -1.422314e-001 1.356933e+002
521250000 -2.412933e-001 -1.394409e+002 -7.394263e+001 6.254839e+001 -7.368253e+001 1.094331e+001 -1.491505e-001 1.356597e+002
521875000 -2.355713e-001 -1.397957e+002 -8.732635e+001 -8.905220e+001 -7.012060e+001 6.370294e+001 -1.443944e-001 1.356811e+002
522500000 -2.400534e-001 -1.400972e+002 -8.973611e+001 1.132887e+002 -8.822612e+001 1.061275e+002 -1.406285e-001 1.356192e+002
523125000 -2.480422e-001 -1.404124e+002 -8.124446e+001 9.930054e+001 -7.419210e+001 2.672776e+001 -1.400087e-001 1.356296e+002
523750000 -2.491253e-001 -1.407442e+002 -7.498753e+001 -1.987814e+000 -7.469022e+001 -2.355239e+001 -1.350465e-001 1.356400e+002
524375000 -2.618711e-001 -1.410611e+002 -7.557316e+001 1.992452e+001 -6.943199e+001 7.896238e+001 -1.384119e-001 1.355835e+002
525000000 -2.518118e-001 -1.413960e+002 -8.106313e+001 1.092475e+002 -7.692271e+001 -5.660499e+001 -1.461745e-001 1.356186e+002
525625000 -2.703862e-001 -1.416362e+002 -7.638009e+001 1.603136e+001 -7.696448e+001 7.088195e+001 -1.502071e-001 1.355348e+002
526250000 -2.548305e-001 -1.419342e+002 -7.110762e+001 1.384632e+002 -8.398574e+001 3.534073e+001 -1.423261e-001 1.355417e+002
526875000 -2.598391e-001 -1.422551e+002 -6.973920e+001 2.680314e+001 -9.379839e+001 1.436509e+002 -1.324933e-001 1.355403e+002
527500000 -2.678303e-001 -1.425091e+002 -7.212917e+001 4.164953e+001 -6.759563e+001 6.555183e+001 -1.382521e-001 1.355068e+002
528125000 -2.858419e-001 -1.428594e+002 -7.782901e+001 1.516169e+002 -7.654780e+001 -3.295774e+001 -1.459234e-001 1.355489e+002
528750000 -2.767514e-001 -1.431733e+002 -7.552391e+001 1.615081e+002 -8.484238e+001 -1.765285e+002 -1.400708e-001 1.356046e+002
529375000 -2.875839e-001 -1.434601e+002 -7.930994e+001 -9.320107e+000 -7.758375e+001 -3.387608e+001 -1.438648e-001 1.354952e+002
530000000 -2.885066e-001 -1.438375e+002 -8.239397e+001 3.744369e+001 -7.409032e+001 6.526148e+001 -1.480000e-001 1.354874e+002
530625000 -2.966399e-001 -1.441457e+002 -6.985119e+001 -3.555368e+001 -7.297851e+001 -8.534886e+000 -1.507194e-001 1.353366e+002
531250000 -3.002488e-001 -1.444933e+002 -7.078406e+001 8.078824e+001 -6.904109e+001 -2.970920e+001 -1.493283e-001 1.353302e+002
531875000 -3.102025e-001 -1.447849e+002 -7.383541e+001 -1.226162e+002 -7.500822e+001 2.185863e+001 -1.534503e-001 1.352502e+002
532500000 -3.124588e-001 -1.450923e+002 -7.370348e+001 1.278164e+001 -7.695365e+001 1.685034e+001 -1.597943e-001 1.352087e+002
533125000 -3.129936e-001 -1.455305e+002 -7.339825e+001 -2.664916e+001 -7.734773e+001 4.656231e+001 -1.628422e-001 1.351395e+002
533750000 -3.187164e-001 -1.458680e+002 -7.166411e+001 4.566444e+001 -7.511114e+001 5.881089e+001 -1.720573e-001 1.350566e+002
534375000 -3.218515e-001 -1.462123e+002 -7.600715e+001 -4.034683e+000 -7.340560e+001 5.603552e+001 -1.500824e-001 1.349236e+002
535000000 -3.300980e-001 -1.465791e+002 -7.970835e+001 6.279013e+001 -8.839841e+001 1.771767e+002 -1.656881e-001 1.348891e+002
535625000 -3.345225e-001 -1.469588e+002 -7.163698e+001 8.627895e+001 -7.370701e+001 -6.011077e+001 -1.526562e-001 1.348310e+002
536250000 -3.378624e-001 -1.473075e+002 -7.884569e+001 1.880676e+000 -7.264020e+001 -1.185745e+002 -1.434675e-001 1.347248e+002
536875000 -3.447260e-001 -1.477466e+002 -7.138115e+001 -1.010143e+002 -8.272531e+001 -1.176923e+002 -1.524196e-001 1.346766e+002
537500000 -3.452128e-001 -1.480514e+002 -7.389964e+001 5.923285e+001 -8.394704e+001 8.342139e+001 -1.422388e-001 1.346727e+002
538125000 -3.538156e-001 -1.484733e+002 -7.923534e+001 -2.250860e+001 -8.800500e+001 -4.972861e+001 -1.516900e-001 1.346188e+002
538750000 -3.647829e-001 -1.487710e+002 -8.158793e+001 -4.014463e+001 -7.660979e+001 -1.339237e+001 -1.452685e-001 1.346269e+002
539375000 -3.709539e-001 -1.491540e+002 -8.752477e+001 8.645911e+001 -7.463357e+001 2.700688e+001 -1.456146e-001 1.345736e+002
540000000 -3.756370e-001 -1.495399e+002 -7.961953e+001 1.610331e+002 -7.591925e+001 1.124487e+001 -1.389890e-001 1.345521e+002
540625000 -3.789299e-001 -1.499070e+002 -8.114528e+001 5.041271e+001 -7.518186e+001 -1.166249e+002 -1.457786e-001 1.345263e+002
541250000 -3.835185e-001 -1.502133e+002 -7.847730e+001 1.831378e+001 -7.885471e+001 -4.598715e+001 -1.370626e-001 1.345282e+002
541875000 -3.922847e-001 -1.505416e+002 -7.834171e+001 -1.482584e+001 -7.550236e+001 1.609548e+002 -1.385087e-001 1.345115e+002
542500000 -3.984900e-001 -1.509653e+002 -8.047692e+001 2.809674e+001 -7.552736e+001 -2.589930e+001 -1.312589e-001 1.345609e+002
543125000 -4.009189e-001 -1.513335e+002 -7.591674e+001 -4.942481e+001 -7.512106e+001 -7.615638e+001 -1.402297e-001 1.344830e+002
543750000 -4.106711e-001 -1.516818e+002 -9.995406e+001 -1.582758e+001 -7.490734e+001 -5.456029e+001 -1.423267e-001 1.345281e+002
544375000 -4.228984e-001 -1.520002e+002 -6.984252e+001 -1.990269e+001 -7.898483e+001 -8.317401e+001 -1.396933e-001 1.344871e+002
545000000 -4.189625e-001 -1.523125e+002 -8.732205e+001 8.548668e+001 -7.837884e+001 -1.278163e+002 -1.406277e-001 1.344818e+002
545625000 -4.349654e-001 -1.527299e+002 -7.412403e+001 4.337838e+001 -7.381853e+001 -8.328092e+001 -1.379512e-001 1.344952e+002
546250000 -4.477224e-001 -1.530482e+002 -7.877789e+001 -9.097391e+001 -9.308011e+001 8.826727e+001 -1.543317e-001 1.344250e+002
546875000 -4.520579e-001 -1.534890e+002 -7.911962e+001 -1.793186e+002 -7.194349e+001 -3.521311e+001 -1.583971e-001 1.344142e+002
547500000 -4.643834e-001 -1.538443e+002 -7.883994e+001 8.404670e+001 -7.624060e+001 1.523099e+001 -1.554869e-001 1.343702e+002
548125000 -4.778581e-001 -1.542238e+002 -7.569524e+001 1.123372e+002 -8.094139e+001 3.020675e+001 -1.544735e-001 1.343080e+002
548750000 -4.874426e-001 -1.546600e+002 -7.264046e+001 8.932132e+000 -8.030583e+001 9.934492e+001 -1.616088e-001 1.342020e+002
549375000 -4.977610e-001 -1.550568e+002 -7.444921e+001 9.306707e+001 -7.437798e+001 4.600509e+001 -1.693211e-001 1.340644e+002
550000000 -5.010217e-001 -1.554493e+002 -7.867892e+001 1.247256e+002 -7.615931e+001 -1.284045e+002 -1.663012e-001 1.340528e+002
550625000 -5.175925e-001 -1.558960e+002 -7.716505e+001 5.721628e+001 -7.241889e+001 2.729782e+001 -1.662436e-001 1.339516e+002
551250000 -5.253806e-001 -1.562484e+002 -7.371081e+001 -1.185365e+002 -7.412700e+001 2.138745e+000 -1.647824e-001 1.338353e+002
551875000 -5.345690e-001 -1.566814e+002 -7.830460e+001 -1.790492e+002 -7.283586e+001 1.329294e+001 -1.589924e-001 1.337928e+002
552500000 -5.488903e-001 -1.571560e+002 -6.922128e+001 3.659535e+001 -8.249538e+001 -3.550838e+000 -1.589161e-001 1.336467e+002
553125000 -5.512121e-001 -1.575341e+002 -7.836565e+001 3.635653e+001 -7.394722e+001 -4.535939e+001 -1.605863e-001 1.336309e+002
553750000 -5.680761e-001 -1.579616e+002 -7.336550e+001 -4.628120e+001 -7.133636e+001 7.190802e+000 -1.657872e-001 1.334905e+002
554375000 -5.718803e-001 -1.583998e+002 -7.217703e+001 1.834312e-001 -7.492763e+001 -6.391022e+001 -1.638730e-001 1.333715e+002
555000000 -5.909086e-001 -1.588232e+002 -6.652985e+001 -1.655011e+001 -6.658896e+001 -1.051201e+001 -1.663184e-001 1.333414e+002
555625000 -6.087058e-001 -1.592065e+002 -7.538749e+001 -4.665921e+001 -7.893666e+001 -7.009921e+001 -1.606501e-001 1.333108e+002
556250000 -6.143177e-001 -1.596309e+002 -7.747723e+001 4.143181e+001 -7.070453e+001 3.357980e+000 -1.578203e-001 1.331538e+002
556875000 -6.266105e-001 -1.600998e+002 -7.657481e+001 -3.846061e+001 -7.853139e+001 3.213561e+000 -1.665174e-001 1.331545e+002
557500000 -6.426880e-001 -1.604644e+002 -8.350581e+001 4.129094e+001 -8.221967e+001 -1.098517e+002 -1.522501e-001 1.331498e+002
558125000 -6.583735e-001 -1.608671e+002 -7.839054e+001 -2.473729e+001 -7.620264e+001 1.124717e+002 -1.664251e-001 1.330646e+002
558750000 -6.691527e-001 -1.613059e+002 -8.020193e+001 -3.387733e+001 -7.249138e+001 8.468431e+000 -1.543967e-001 1.329822e+002
559375000 -6.962845e-001 -1.617420e+002 -7.536514e+001 4.307458e+000 -7.211839e+001 -1.302950e+001 -1.564483e-001 1.329694e+002
560000000 -7.132955e-001 -1.621222e+002 -7.557338e+001 -6.153204e+000 -8.650415e+001 -2.131318e+001 -1.564218e-001 1.328807e+002
560625000 -7.331343e-001 -1.624556e+002 -7.392079e+001 -2.945468e+001 -6.951578e+001 5.641485e-001 -1.549049e-001 1.329086e+002
561250000 -7.493290e-001 -1.629461e+002 -6.896279e+001 -7.083274e+001 -7.427208e+001 -5.985432e+001 -1.523943e-001 1.327741e+002
561875000 -7.655020e-001 -1.633341e+002 -7.047354e+001 -7.483053e+001 -6.817233e+001 3.173377e+001 -1.622143e-001 1.327683e+002
562500000 -7.918519e-001 -1.637122e+002 -7.565453e+001 -1.869342e+001 -6.939304e+001 -6.439475e+001 -1.598691e-001 1.327429e+002
563125000 -8.053576e-001 -1.641471e+002 -7.226858e+001 -2.957175e+001 -7.014766e+001 -3.672427e+001 -1.484216e-001 1.326891e+002
563750000 -8.376914e-001 -1.645949e+002 -6.771625e+001 -9.290173e+001 -7.141189e+001 -1.067387e+002 -1.583797e-001 1.326510e+002
564375000 -8.627965e-001 -1.650231e+002 -7.066765e+001 -5.566225e+001 -7.533614e+001 -5.666658e+001 -1.677447e-001 1.325854e+002
565000000 -8.777622e-001 -1.655286e+002 -6.588987e+001 -4.574910e+001 -7.299416e+001 -7.893457e+001 -1.653719e-001 1.324749e+002
565625000 -9.089935e-001 -1.659792e+002 -7.234253e+001 -7.282818e+001 -7.106257e+001 -1.001871e+002 -1.623074e-001 1.324093e+002
566250000 -9.313124e-001 -1.664804e+002 -7.027150e+001 -4.574036e+001 -7.311969e+001 -3.095424e+001 -1.676413e-001 1.324081e+002
566875000 -9.701017e-001 -1.669550e+002 -7.454983e+001 -8.843969e+001 -6.392119e+001 -4.577589e+001 -1.665795e-001 1.322483e+002
567500000 -9.965052e-001 -1.674816e+002 -7.294626e+001 1.049966e+002 -7.499163e+001 -7.967038e+000 -1.731157e-001 1.321971e+002
568125000 -1.036724e+000 -1.679299e+002 -6.632105e+001 -3.921316e+001 -7.533102e+001 -6.116059e+001 -1.697760e-001 1.320887e+002
568750000 -1.061881e+000 -1.684286e+002 -8.765594e+001 -1.957533e+001 -7.201211e+001 -6.679833e+001 -1.746602e-001 1.319633e+002
569375000 -1.101447e+000 -1.689460e+002 -7.420843e+001 -2.235257e+001 -6.911252e+001 -6.270683e+001 -1.641723e-001 1.318818e+002
570000000 -1.137940e+000 -1.693884e+002 -8.048279e+001 -7.203150e+001 -6.695357e+001 -6.495418e+001 -1.749798e-001 1.317054e+002
570625000 -1.165347e+000 -1.698710e+002 -6.922511e+001 -5.616495e+001 -7.437421e+001 -9.121731e+001 -1.723305e-001 1.316730e+002
571250000 -1.198272e+000 -1.703399e+002 -7.498564e+001 -3.557871e+001 -7.320522e+001 -3.964661e+000 -1.660344e-001 1.315528e+002
571875000 -1.237786e+000 -1.707479e+002 -7.415794e+001 -7.083714e+001 -7.725307e+001 1.876969e+000 -1.741876e-001 1.313631e+002
572500000 -1.272932e+000 -1.712198e+002 -8.109969e+001 -7.058490e+001 -6.936391e+001 -7.086283e+001 -1.691359e-001 1.312409e+002
573125000 -1.303642e+000 -1.716018e+002 -7.024774e+001 -1.105258e+002 -7.184035e+001 -9.955838e+001 -1.617029e-001 1.312019e+002
573750000 -1.333756e+000 -1.720533e+002 -6.941301e+001 -1.152005e+002 -7.941511e+001 -8.674692e+001 -1.780834e-001 1.310452e+002
574375000 -1.366915e+000 -1.724579e+002 -7.047713e+001 -1.330513e+002 -7.275981e+001 -8.537969e+001 -1.646695e-001 1.310788e+002
575000000 -1.406750e+000 -1.728987e+002 -7.094778e+001 -7.102174e+001 -7.101281e+001 -1.063869e+002 -1.695003e-001 1.308871e+002
575625000 -1.440063e+000 -1.733056e+002 -6.624564e+001 -7.115218e+001 -7.017698e+001 -1.097100e+002 -1.675506e-001 1.308496e+002
576250000 -1.477430e+000 -1.737048e+002 -6.670444e+001 -9.416164e+001 -7.303455e+001 -1.376971e+002 -1.701907e-001 1.307724e+002
576875000 -1.510720e+000 -1.740726e+002 -6.878381e+001 -1.041102e+002 -7.386475e+001 -1.090392e+002 -1.667542e-001 1.307122e+002
577500000 -1.560373e+000 -1.744778e+002 -7.380091e+001 -1.090161e+002 -6.539451e+001 -7.677615e+001 -1.628745e-001 1.306823e+002
578125000 -1.602290e+000 -1.748928e+002 -6.850077e+001 -9.284563e+001 -6.574035e+001 -1.129117e+002 -1.668419e-001 1.306619e+002
578750000 -1.642606e+000 -1.752558e+002 -6.394644e+001 -9.004868e+001 -6.540379e+001 -1.138250e+002 -1.588573e-001 1.305779e+002
579375000 -1.689475e+000 -1.756199e+002 -6.624709e+001 -1.254107e+002 -6.757677e+001 -1.037922e+002 -1.555198e-001 1.305459e+002
580000000 -1.730412e+000 -1.759949e+002 -6.489297e+001 -1.084827e+002 -6.719162e+001 -1.298806e+002 -1.633858e-001 1.305804e+002
580625000 -1.786203e+000 -1.763718e+002 -7.001698e+001 -1.017730e+002 -6.838290e+001 -1.243904e+002 -1.493071e-001 1.304668e+002
581250000 -1.836331e+000 -1.767249e+002 -6.908333e+001 -1.310305e+002 -6.687759e+001 -1.273114e+002 -1.573165e-001 1.304650e+002
581875000 -1.889402e+000 -1.771591e+002 -6.747512e+001 -1.302654e+002 -6.787965e+001 -1.173991e+002 -1.603283e-001 1.304336e+002
582500000 -1.945926e+000 -1.774131e+002 -6.463083e+001 -1.083862e+002 -6.718916e+001 -1.045296e+002 -1.556792e-001 1.303545e+002
583125000 -1.984335e+000 -1.778867e+002 -6.870054e+001 -1.637626e+002 -6.646698e+001 -1.194564e+002 -1.680615e-001 1.302680e+002
583750000 -2.034138e+000 -1.782376e+002 -6.324228e+001 -1.236119e+002 -7.037516e+001 -1.432049e+002 -1.769581e-001 1.301332e+002
584375000 -2.087728e+000 -1.785710e+002 -6.337418e+001 -1.379641e+002 -6.634612e+001 -1.110459e+002 -1.608687e-001 1.301355e+002
585000000 -2.136040e+000 -1.790117e+002 -6.750857e+001 -1.246438e+002 -6.786340e+001 -1.167465e+002 -1.753342e-001 1.300563e+002
585625000 -2.198075e+000 -1.793247e+002 -6.403867e+001 -1.153289e+002 -6.504967e+001 -1.100683e+002 -1.689091e-001 1.299358e+002
586250000 -2.244062e+000 -1.797520e+002 -6.415530e+001 -1.200611e+002 -6.536263e+001 -1.093929e+002 -1.696630e-001 1.299410e+002
586875000 -2.290926e+000 1.799030e+002 -6.215435e+001 -1.368180e+002 -6.437352e+001 -1.349879e+002 -1.669612e-001 1.297550e+002
587500000 -2.351288e+000 1.795434e+002 -6.290569e+001 -1.446050e+002 -6.889565e+001 -1.266387e+002 -1.631013e-001 1.296996e+002
588125000 -2.404941e+000 1.793363e+002 -6.585881e+001 -1.497611e+002 -6.403801e+001 -1.356323e+002 -1.635031e-001 1.296634e+002
588750000 -2.449068e+000 1.790652e+002 -6.477023e+001 -1.265448e+002 -6.447269e+001 -1.179507e+002 -1.733539e-001 1.295774e+002
589375000 -2.494878e+000 1.787989e+002 -6.513673e+001 -1.274965e+002 -6.550360e+001 -1.327664e+002 -1.523779e-001 1.294901e+002
590000000 -2.538138e+000 1.785570e+002 -6.367905e+001 -1.450418e+002 -6.505894e+001 -1.236396e+002 -1.651627e-001 1.295076e+002
590625000 -2.586182e+000 1.783517e+002 -6.320448e+001 -1.639735e+002 -6.662961e+001 -1.457096e+002 -1.624343e-001 1.294537e+002
591250000 -2.632317e+000 1.781394e+002 -6.211489e+001 -1.455425e+002 -6.457958e+001 -1.370267e+002 -1.620202e-001 1.294124e+002
591875000 -2.668822e+000 1.779631e+002 -6.462737e+001 -1.542571e+002 -6.531883e+001 -1.522375e+002 -1.566920e-001 1.294706e+002
592500000 -2.712608e+000 1.777388e+002 -6.407752e+001 -1.779093e+002 -6.715182e+001 -1.586093e+002 -1.536695e-001 1.294697e+002
593125000 -2.755338e+000 1.775249e+002 -6.704169e+001 -1.496589e+002 -6.601596e+001 -1.354537e+002 -1.557246e-001 1.295756e+002
593750000 -2.801160e+000 1.772719e+002 -6.811895e+001 1.795038e+002 -6.492021e+001 -1.138695e+002 -1.366204e-001 1.295843e+002
594375000 -2.849343e+000 1.771206e+002 -6.355422e+001 -1.760081e+002 -6.630791e+001 -1.536204e+002 -1.425890e-001 1.296010e+002
595000000 -2.903641e+000 1.769480e+002 -6.436929e+001 -1.771252e+002 -6.213063e+001 -1.514472e+002 -1.540238e-001 1.296657e+002
