!Agilent Technologies,E8364B,US42250235,A.06.04.32
!Agilent E8364B: A.06.04.32
!Date: Friday, January 15, 2021 14:46:39
!Correction: S11(Full 2 Port(1,2)) S21(Full 2 Port(1,2)) S12(Full 2 Port(1,2)) S22(Full 2 Port(1,2)) 
!S2P File: Measurements: S11, S21, S12, S22:
# Hz S  dB   R 50
500000000 -1.228895e-001 -1.300691e+002 -7.803777e+001 -1.606977e+002 -6.943301e+001 1.712441e+002 -1.501256e-001 1.385276e+002
500625000 -1.246203e-001 -1.303439e+002 -7.794708e+001 3.673271e+001 -7.032675e+001 -1.221385e+002 -1.457618e-001 1.385047e+002
501250000 -1.310393e-001 -1.306219e+002 -7.554182e+001 -6.716264e+001 -7.573866e+001 2.162041e+001 -1.451039e-001 1.384051e+002
501875000 -1.218771e-001 -1.308784e+002 -8.141956e+001 1.112318e+001 -8.859633e+001 1.187712e+002 -1.429438e-001 1.383297e+002
502500000 -1.320263e-001 -1.312226e+002 -7.120364e+001 -6.105126e+001 -8.649122e+001 8.001415e+001 -1.402755e-001 1.383111e+002
503125000 -1.406572e-001 -1.315437e+002 -7.169650e+001 1.147413e+001 -9.195251e+001 -1.301682e+002 -1.398660e-001 1.381897e+002
503750000 -1.440494e-001 -1.318385e+002 -9.616171e+001 -6.134466e+001 -6.945489e+001 -3.349145e+001 -1.418160e-001 1.381442e+002
504375000 -1.500503e-001 -1.321631e+002 -7.804403e+001 -1.111350e+002 -7.640528e+001 -7.538907e+001 -1.523694e-001 1.381826e+002
505000000 -1.518090e-001 -1.324762e+002 -7.620757e+001 1.321320e+002 -7.755591e+001 5.383631e+000 -1.501386e-001 1.381752e+002
505625000 -1.523761e-001 -1.327157e+002 -6.858558e+001 -8.575143e+001 -6.904140e+001 4.017141e+001 -1.548063e-001 1.380692e+002
506250000 -1.592828e-001 -1.330579e+002 -7.854965e+001 -1.518650e+001 -8.060596e+001 -1.012990e+002 -1.571288e-001 1.379532e+002
506875000 -1.574486e-001 -1.333370e+002 -7.559158e+001 5.955669e+001 -7.816991e+001 -1.669025e+002 -1.449663e-001 1.378589e+002
507500000 -1.669424e-001 -1.336145e+002 -7.445570e+001 6.463033e+001 -8.014216e+001 2.039167e+001 -1.535387e-001 1.377267e+002
508125000 -1.700101e-001 -1.338989e+002 -8.431290e+001 8.424513e+000 -7.806840e+001 -1.515053e+002 -1.545170e-001 1.376394e+002
508750000 -1.764717e-001 -1.341311e+002 -7.984351e+001 8.203422e+001 -7.348563e+001 -1.644834e+001 -1.622287e-001 1.375268e+002
509375000 -1.816213e-001 -1.345141e+002 -7.326708e+001 7.183596e+001 -7.724960e+001 2.126289e+001 -1.521127e-001 1.374563e+002
510000000 -1.869748e-001 -1.347776e+002 -9.230508e+001 -1.221287e+002 -7.076209e+001 -3.120617e+001 -1.590043e-001 1.372686e+002
510625000 -1.909996e-001 -1.349805e+002 -8.927457e+001 2.128074e+001 -7.213589e+001 -5.851685e+001 -1.502947e-001 1.371803e+002
511250000 -2.072069e-001 -1.352499e+002 -7.678996e+001 1.702871e+001 -7.103944e+001 3.556789e+001 -1.643169e-001 1.369781e+002
511875000 -1.993362e-001 -1.355525e+002 -7.130810e+001 5.305703e+001 -7.700322e+001 1.321357e+002 -1.521088e-001 1.368761e+002
512500000 -2.039998e-001 -1.358406e+002 -7.743068e+001 -1.771497e+001 -8.179581e+001 9.095874e+001 -1.598929e-001 1.367632e+002
513125000 -2.163090e-001 -1.361494e+002 -9.197959e+001 1.072560e+002 -7.346899e+001 5.338293e+001 -1.566796e-001 1.366997e+002
513750000 -2.272441e-001 -1.364272e+002 -7.237415e+001 -1.458999e+002 -7.988210e+001 1.375707e+001 -1.638792e-001 1.366006e+002
514375000 -2.330596e-001 -1.367249e+002 -8.129916e+001 -3.663079e+001 -7.492741e+001 -2.929440e+001 -1.541955e-001 1.363975e+002
515000000 -2.364534e-001 -1.369781e+002 -7.314230e+001 6.605149e+001 -7.227081e+001 1.341428e+002 -1.528268e-001 1.363453e+002
515625000 -2.474471e-001 -1.374491e+002 -6.850371e+001 5.667295e+001 -7.881237e+001 1.626259e+001 -1.474801e-001 1.362792e+002
516250000 -2.528662e-001 -1.376975e+002 -7.432922e+001 1.123043e+002 -7.787368e+001 -1.102869e+002 -1.519400e-001 1.361913e+002
516875000 -2.785791e-001 -1.380547e+002 -7.311114e+001 3.464671e+001 -7.391838e+001 5.236069e+001 -1.454053e-001 1.361866e+002
517500000 -2.795591e-001 -1.383815e+002 -7.049763e+001 2.795353e+001 -9.304435e+001 -2.534103e+001 -1.417056e-001 1.361278e+002
518125000 -2.812312e-001 -1.387733e+002 -7.312964e+001 1.082919e+002 -7.231754e+001 4.940760e+001 -1.365584e-001 1.361046e+002
518750000 -2.989544e-001 -1.391136e+002 -7.459343e+001 -1.123186e+001 -7.545317e+001 7.772221e+001 -1.389661e-001 1.361162e+002
519375000 -3.118963e-001 -1.393661e+002 -7.475735e+001 7.251134e+001 -7.216144e+001 4.851334e+001 -1.358336e-001 1.360591e+002
520000000 -3.160769e-001 -1.397537e+002 -6.991974e+001 3.446296e+001 -8.679646e+001 1.708532e+002 -1.351487e-001 1.360577e+002
520625000 -3.236651e-001 -1.401217e+002 -7.663664e+001 7.136175e+001 -7.651878e+001 1.558934e+001 -1.358920e-001 1.359712e+002
521250000 -3.411112e-001 -1.403687e+002 -7.385629e+001 3.700034e+001 -8.070555e+001 -2.130148e+001 -1.372180e-001 1.359437e+002
521875000 -3.454214e-001 -1.407590e+002 -7.699432e+001 3.956119e+001 -7.485806e+001 1.354892e+002 -1.274754e-001 1.360228e+002
522500000 -3.565208e-001 -1.410312e+002 -7.880463e+001 -1.384095e+002 -8.025230e+001 -4.146997e+001 -1.392906e-001 1.359305e+002
523125000 -3.683871e-001 -1.413947e+002 -8.580016e+001 6.984675e+001 -7.275512e+001 1.156786e+002 -1.419964e-001 1.359597e+002
523750000 -3.730352e-001 -1.416555e+002 -7.368410e+001 8.136644e+000 -7.180516e+001 2.291277e+001 -1.406229e-001 1.359111e+002
524375000 -3.925152e-001 -1.419795e+002 -7.018530e+001 3.247122e+000 -7.546977e+001 -9.003264e+000 -1.348130e-001 1.358505e+002
525000000 -3.954493e-001 -1.422392e+002 -6.952339e+001 3.349336e+000 -7.349670e+001 -4.112445e+001 -1.371268e-001 1.358221e+002
525625000 -4.079193e-001 -1.424954e+002 -7.608829e+001 -6.837153e+001 -6.979012e+001 4.989613e+001 -1.527973e-001 1.357661e+002
526250000 -4.075934e-001 -1.427651e+002 -7.525161e+001 4.813602e+001 -8.199368e+001 -3.134528e+001 -1.479687e-001 1.357073e+002
526875000 -4.325586e-001 -1.430510e+002 -8.435184e+001 4.952838e+001 -7.366272e+001 3.238897e+001 -1.454020e-001 1.356626e+002
527500000 -4.452412e-001 -1.433336e+002 -7.583335e+001 -8.662642e+000 -7.794656e+001 6.317559e+001 -1.546016e-001 1.356249e+002
528125000 -4.578187e-001 -1.436059e+002 -7.314377e+001 4.873389e+001 -7.322597e+001 6.681428e+001 -1.470558e-001 1.356359e+002
528750000 -4.555562e-001 -1.438854e+002 -7.348615e+001 3.259129e+001 -7.107584e+001 -2.093974e+001 -1.471180e-001 1.356590e+002
529375000 -4.768463e-001 -1.441878e+002 -6.621616e+001 -1.696861e+001 -7.597862e+001 3.226850e+001 -1.494194e-001 1.355190e+002
530000000 -4.783518e-001 -1.444742e+002 -7.570256e+001 9.870029e+001 -7.792116e+001 9.320686e+001 -1.521835e-001 1.355012e+002
530625000 -4.970947e-001 -1.448051e+002 -7.731900e+001 4.885407e+001 -7.402521e+001 -4.520101e+001 -1.520032e-001 1.354723e+002
531250000 -5.048875e-001 -1.450745e+002 -7.543053e+001 2.070687e+001 -8.020012e+001 1.169973e+002 -1.373765e-001 1.354041e+002
531875000 -5.260605e-001 -1.453017e+002 -8.303231e+001 -8.821759e+001 -7.082684e+001 -1.792001e+001 -1.490992e-001 1.353391e+002
532500000 -5.301481e-001 -1.456452e+002 -7.397225e+001 -1.470032e+002 -7.465641e+001 -2.472330e+001 -1.450807e-001 1.353927e+002
533125000 -5.408556e-001 -1.459577e+002 -7.240449e+001 -1.626822e+002 -7.589641e+001 -3.288214e+001 -1.520681e-001 1.353250e+002
533750000 -5.565124e-001 -1.463101e+002 -8.004575e+001 -6.298945e+000 -7.325621e+001 3.006055e+001 -1.586441e-001 1.352865e+002
534375000 -5.661488e-001 -1.466326e+002 -8.379794e+001 -9.953503e+001 -7.368863e+001 -4.944143e+001 -1.453288e-001 1.352180e+002
535000000 -5.784554e-001 -1.469022e+002 -7.724512e+001 -4.080933e+001 -7.691277e+001 1.686237e+002 -1.508449e-001 1.352016e+002
535625000 -5.842419e-001 -1.472341e+002 -7.486893e+001 -4.722644e+001 -8.074590e+001 -5.702272e+001 -1.448198e-001 1.351188e+002
536250000 -5.976839e-001 -1.475746e+002 -8.012079e+001 -4.963922e+001 -7.724567e+001 -6.297632e+001 -1.431681e-001 1.350323e+002
536875000 -6.105906e-001 -1.478771e+002 -7.284987e+001 -8.091771e+001 -7.270020e+001 2.687189e+001 -1.529920e-001 1.349494e+002
537500000 -6.177537e-001 -1.481556e+002 -7.784245e+001 -1.633405e+002 -8.113496e+001 7.898286e+001 -1.433812e-001 1.350058e+002
538125000 -6.285868e-001 -1.484798e+002 -8.083033e+001 1.794913e+002 -7.298532e+001 1.327931e+001 -1.490313e-001 1.349179e+002
538750000 -6.403645e-001 -1.487771e+002 -7.707481e+001 -1.740279e+002 -7.291985e+001 1.454687e+001 -1.465753e-001 1.348244e+002
539375000 -6.542786e-001 -1.490449e+002 -6.758564e+001 8.708261e+000 -7.771143e+001 -1.558661e+001 -1.519393e-001 1.348475e+002
540000000 -6.553993e-001 -1.493852e+002 -6.770359e+001 -7.271889e+001 -7.371449e+001 -4.562147e+001 -1.533129e-001 1.346915e+002
540625000 -6.688247e-001 -1.496851e+002 -7.774423e+001 -6.243421e+001 -7.530869e+001 -9.242809e+001 -1.430817e-001 1.347204e+002
541250000 -6.728331e-001 -1.499730e+002 -7.710820e+001 1.362873e+001 -1.305292e+002 9.397351e+000 -1.471064e-001 1.346252e+002
541875000 -6.912649e-001 -1.502172e+002 -7.088149e+001 -1.666829e+001 -8.056291e+001 -1.108117e+002 -1.540836e-001 1.345644e+002
542500000 -6.956695e-001 -1.504612e+002 -7.885129e+001 2.483502e+001 -7.241113e+001 -5.964640e+001 -1.450565e-001 1.345602e+002
543125000 -7.069650e-001 -1.508133e+002 -7.726983e+001 -6.235746e+001 -8.717550e+001 1.488956e+002 -1.388825e-001 1.345378e+002
543750000 -7.045888e-001 -1.510901e+002 -7.070633e+001 -8.653055e+001 -7.571094e+001 2.913667e+000 -1.447861e-001 1.345525e+002
544375000 -7.172359e-001 -1.513715e+002 -7.475662e+001 -6.268750e+001 -7.115205e+001 -1.093256e+002 -1.405116e-001 1.345510e+002
545000000 -7.220413e-001 -1.516142e+002 -7.705167e+001 -1.012935e+002 -7.332966e+001 2.635614e+001 -1.295442e-001 1.345352e+002
545625000 -7.327245e-001 -1.519243e+002 -7.193145e+001 -8.555091e+001 -7.093001e+001 -8.079459e+001 -1.367672e-001 1.346028e+002
546250000 -7.530966e-001 -1.521985e+002 -7.155679e+001 -7.345026e+001 -8.177170e+001 -1.716160e+002 -1.441766e-001 1.345509e+002
546875000 -7.593293e-001 -1.525287e+002 -7.789897e+001 -1.573614e+002 -7.769823e+001 -4.467169e+001 -1.404840e-001 1.346017e+002
547500000 -7.692080e-001 -1.528418e+002 -7.288326e+001 1.281260e+002 -8.982426e+001 1.674163e+002 -1.460032e-001 1.345514e+002
548125000 -7.791202e-001 -1.531723e+002 -7.935259e+001 1.786956e+002 -7.744343e+001 2.950748e+001 -1.446961e-001 1.344978e+002
548750000 -7.892507e-001 -1.534913e+002 -7.480656e+001 1.982486e+001 -8.048173e+001 -8.201769e+001 -1.591506e-001 1.345243e+002
549375000 -8.030734e-001 -1.537654e+002 -8.668987e+001 -7.789949e+001 -7.832999e+001 -5.911916e+001 -1.535920e-001 1.343281e+002
550000000 -8.106996e-001 -1.541027e+002 -8.400248e+001 5.939707e+001 -7.194058e+001 -2.748159e+001 -1.597621e-001 1.343402e+002
550625000 -8.187890e-001 -1.544228e+002 -7.846974e+001 3.140822e+001 -9.076472e+001 1.175192e+002 -1.648499e-001 1.342482e+002
551250000 -8.196812e-001 -1.547050e+002 -8.271732e+001 3.258923e+001 -7.561127e+001 -1.700878e+002 -1.637735e-001 1.341582e+002
551875000 -8.289578e-001 -1.549770e+002 -7.643065e+001 -1.011956e+002 -7.390054e+001 1.501463e+001 -1.616132e-001 1.340327e+002
552500000 -8.371186e-001 -1.553673e+002 -7.884883e+001 7.233556e+001 -8.883098e+001 4.513825e+001 -1.617752e-001 1.339077e+002
553125000 -8.346123e-001 -1.556409e+002 -7.401552e+001 -9.924002e+001 -7.484951e+001 1.159999e+001 -1.724088e-001 1.338501e+002
553750000 -8.491280e-001 -1.560302e+002 -8.189444e+001 -1.380585e+002 -8.694953e+001 6.404689e+001 -1.696017e-001 1.336767e+002
554375000 -8.448674e-001 -1.563483e+002 -8.019959e+001 1.034079e+002 -7.300444e+001 1.927546e+001 -1.782731e-001 1.335683e+002
555000000 -8.506109e-001 -1.566940e+002 -7.246677e+001 -3.791268e+000 -8.342463e+001 3.219150e+001 -1.699792e-001 1.335028e+002
555625000 -8.621525e-001 -1.569592e+002 -7.474375e+001 9.544253e+001 -7.617006e+001 7.089605e+001 -1.551108e-001 1.333965e+002
556250000 -8.680857e-001 -1.573378e+002 -7.569546e+001 -1.543523e+002 -7.913757e+001 4.855072e+001 -1.656875e-001 1.332330e+002
556875000 -8.647054e-001 -1.577533e+002 -9.234680e+001 -2.258479e+001 -7.116596e+001 1.083715e+002 -1.655433e-001 1.331911e+002
557500000 -8.835171e-001 -1.579818e+002 -7.719289e+001 -1.253127e+002 -7.090891e+001 -6.770382e+000 -1.655224e-001 1.331590e+002
558125000 -8.915544e-001 -1.583366e+002 -7.122152e+001 -6.929022e-001 -8.691569e+001 -5.944318e+001 -1.668606e-001 1.331511e+002
558750000 -8.920087e-001 -1.586432e+002 -7.472263e+001 -9.367564e+001 -8.664264e+001 6.158152e+001 -1.507511e-001 1.330363e+002
559375000 -9.035419e-001 -1.589633e+002 -7.047631e+001 -1.373935e+002 -7.554728e+001 -6.034760e+001 -1.517553e-001 1.330458e+002
560000000 -9.186572e-001 -1.592612e+002 -8.395536e+001 4.924529e+001 -7.295358e+001 -1.250346e+002 -1.447223e-001 1.329870e+002
560625000 -9.215229e-001 -1.595046e+002 -7.490985e+001 -6.011617e+001 -7.911446e+001 -6.748340e+001 -1.351922e-001 1.330232e+002
561250000 -9.280582e-001 -1.598407e+002 -8.710066e+001 -1.486833e+002 -6.963721e+001 1.536135e+002 -1.419169e-001 1.330204e+002
561875000 -9.275653e-001 -1.601414e+002 -7.722229e+001 8.459628e+001 -7.779413e+001 -5.048822e+001 -1.443304e-001 1.330565e+002
562500000 -9.330630e-001 -1.604451e+002 -7.239968e+001 7.396383e+001 -7.788460e+001 -1.438398e+002 -1.465103e-001 1.330232e+002
563125000 -9.296164e-001 -1.607860e+002 -7.555860e+001 2.296042e+001 -8.085963e+001 -7.391957e+001 -1.366512e-001 1.330271e+002
563750000 -9.411024e-001 -1.612069e+002 -7.463983e+001 -1.128405e+002 -8.630820e+001 -5.246308e+000 -1.533847e-001 1.330160e+002
564375000 -9.599822e-001 -1.615232e+002 -7.976310e+001 1.518624e+002 -7.708685e+001 -4.643886e+001 -1.550523e-001 1.329597e+002
565000000 -9.632066e-001 -1.620004e+002 -8.124250e+001 -5.930631e+000 -9.293764e+001 -1.607040e+002 -1.639688e-001 1.328944e+002
565625000 -9.773931e-001 -1.623772e+002 -7.728458e+001 1.186035e+000 -7.762255e+001 -8.749250e+001 -1.692029e-001 1.328143e+002
566250000 -9.804779e-001 -1.628306e+002 -8.114018e+001 1.501309e+002 -7.327291e+001 -1.780263e+002 -1.709137e-001 1.327097e+002
566875000 -1.004215e+000 -1.632113e+002 -8.080363e+001 1.862940e+000 -7.799361e+001 5.173183e+001 -1.747282e-001 1.325105e+002
567500000 -1.018274e+000 -1.636933e+002 -8.659326e+001 1.155604e+002 -7.942777e+001 1.575374e+002 -1.772819e-001 1.324471e+002
568125000 -1.036546e+000 -1.640368e+002 -8.052757e+001 -2.072391e+001 -7.533276e+001 7.994105e+001 -1.736589e-001 1.323034e+002
568750000 -1.045264e+000 -1.644146e+002 -8.666805e+001 -1.465549e+002 -8.120248e+001 -1.247585e+002 -1.759563e-001 1.321142e+002
569375000 -1.060882e+000 -1.648433e+002 -7.674651e+001 -5.099117e+001 -8.555632e+001 8.699890e+001 -1.770160e-001 1.319798e+002
570000000 -1.075382e+000 -1.653138e+002 -7.445501e+001 7.773779e+001 -7.578216e+001 1.735905e+002 -1.805799e-001 1.317778e+002
570625000 -1.077322e+000 -1.656876e+002 -7.286507e+001 -7.712172e+001 -7.683821e+001 1.353102e+002 -1.826150e-001 1.317226e+002
571250000 -1.084038e+000 -1.660768e+002 -9.276221e+001 -8.505480e+001 -8.274368e+001 7.348295e+001 -1.750149e-001 1.315664e+002
571875000 -1.099683e+000 -1.664608e+002 -8.017714e+001 -1.744187e+002 -7.751183e+001 1.604207e+002 -1.636573e-001 1.314323e+002
572500000 -1.105884e+000 -1.668557e+002 -7.526992e+001 -3.049543e+001 -8.335260e+001 -6.699757e+001 -1.723873e-001 1.313142e+002
573125000 -1.121410e+000 -1.672310e+002 -7.312832e+001 4.040947e+001 -7.676328e+001 -1.415632e+002 -1.536962e-001 1.312419e+002
573750000 -1.123436e+000 -1.676353e+002 -1.076855e+002 7.595471e+001 -7.646986e+001 2.685630e+001 -1.690467e-001 1.311384e+002
574375000 -1.129399e+000 -1.679866e+002 -6.875241e+001 -1.732765e+000 -7.362802e+001 6.690862e+001 -1.619523e-001 1.311624e+002
575000000 -1.139714e+000 -1.684093e+002 -7.966306e+001 3.698480e+001 -8.727341e+001 1.417268e+002 -1.547041e-001 1.310925e+002
575625000 -1.150152e+000 -1.687713e+002 -7.180142e+001 3.563271e+001 -7.780772e+001 9.682586e+001 -1.559340e-001 1.310622e+002
576250000 -1.151569e+000 -1.691648e+002 -7.370428e+001 1.227399e+001 -7.496691e+001 5.419239e+001 -1.618776e-001 1.310412e+002
576875000 -1.147052e+000 -1.695185e+002 -8.095888e+001 7.712739e+001 -7.318217e+001 2.266144e+001 -1.546054e-001 1.310502e+002
577500000 -1.168608e+000 -1.698934e+002 -7.276569e+001 -2.370364e+001 -7.334312e+001 1.012265e+002 -1.495046e-001 1.309532e+002
578125000 -1.170259e+000 -1.702766e+002 -7.404879e+001 8.456798e+001 -7.369550e+001 2.417618e+001 -1.467338e-001 1.310013e+002
578750000 -1.174404e+000 -1.706980e+002 -7.384056e+001 -8.365380e+000 -7.330846e+001 4.423490e+001 -1.505120e-001 1.309407e+002
579375000 -1.174096e+000 -1.711488e+002 -7.913503e+001 -6.717597e+001 -7.246753e+001 5.813757e+001 -1.567847e-001 1.308722e+002
580000000 -1.181630e+000 -1.715499e+002 -7.666598e+001 4.911082e+001 -7.134126e+001 -9.189940e+000 -1.584869e-001 1.308329e+002
580625000 -1.196722e+000 -1.720399e+002 -7.273127e+001 -3.938659e+001 -6.710264e+001 2.977067e+001 -1.544218e-001 1.307087e+002
581250000 -1.206566e+000 -1.724979e+002 -8.027264e+001 4.588068e+001 -8.147950e+001 -1.073235e+002 -1.683664e-001 1.307141e+002
581875000 -1.228192e+000 -1.729959e+002 -7.185134e+001 2.279718e+001 -8.145552e+001 2.909218e+001 -1.715101e-001 1.306542e+002
582500000 -1.249941e+000 -1.734156e+002 -7.726725e+001 -1.834574e+001 -7.496664e+001 4.320739e+001 -1.679145e-001 1.305247e+002
583125000 -1.259062e+000 -1.740010e+002 -7.192808e+001 2.954357e+001 -6.885831e+001 4.827927e-001 -1.807962e-001 1.303412e+002
583750000 -1.277579e+000 -1.744919e+002 -8.064653e+001 -1.555163e+002 -7.363903e+001 5.154438e+001 -1.848337e-001 1.302528e+002
584375000 -1.300224e+000 -1.750530e+002 -7.548653e+001 -3.992131e+001 -8.390043e+001 1.290097e+002 -1.744711e-001 1.301593e+002
585000000 -1.313873e+000 -1.755789e+002 -7.049163e+001 -2.076227e+001 -7.524420e+001 -8.966940e+001 -1.773437e-001 1.300603e+002
585625000 -1.341818e+000 -1.760468e+002 -7.524429e+001 -5.799734e+001 -7.356042e+001 8.661832e+001 -1.651268e-001 1.299431e+002
586250000 -1.350974e+000 -1.765791e+002 -7.525198e+001 1.782274e+001 -7.708864e+001 -4.024445e+001 -1.600891e-001 1.300226e+002
586875000 -1.367651e+000 -1.771295e+002 -7.289599e+001 1.378222e+001 -7.848770e+001 -5.351209e+001 -1.714740e-001 1.298434e+002
587500000 -1.395984e+000 -1.776780e+002 -6.941207e+001 4.543229e+001 -8.190826e+001 7.821522e+001 -1.598835e-001 1.297871e+002
588125000 -1.417696e+000 -1.781602e+002 -7.338425e+001 1.605921e+002 -7.062460e+001 3.702475e+001 -1.559834e-001 1.297050e+002
588750000 -1.437233e+000 -1.786804e+002 -7.386168e+001 3.312504e+001 -7.406445e+001 -3.307436e+000 -1.557372e-001 1.297498e+002
589375000 -1.446683e+000 -1.791696e+002 -7.728123e+001 -2.441742e+001 -7.779211e+001 1.226955e+002 -1.471296e-001 1.297415e+002
590000000 -1.482653e+000 -1.796982e+002 -6.839471e+001 2.168256e+001 -7.057734e+001 5.256585e+000 -1.454404e-001 1.297481e+002
590625000 -1.501139e+000 1.797831e+002 -8.327168e+001 -5.474985e+000 -7.613814e+001 -1.932604e+001 -1.492879e-001 1.296954e+002
591250000 -1.529407e+000 1.793057e+002 -7.360961e+001 -2.829952e+000 -7.293925e+001 1.092039e+002 -1.492698e-001 1.297684e+002
591875000 -1.558519e+000 1.788917e+002 -7.772653e+001 6.529192e-001 -7.343296e+001 4.412605e+001 -1.468274e-001 1.297653e+002
592500000 -1.585760e+000 1.784068e+002 -7.375981e+001 9.484480e+001 -7.485100e+001 1.766244e+001 -1.464399e-001 1.298513e+002
593125000 -1.620104e+000 1.779592e+002 -7.299271e+001 4.699451e+001 -7.056693e+001 6.270108e+001 -1.491982e-001 1.299373e+002
593750000 -1.638656e+000 1.775162e+002 -6.955691e+001 5.414894e+001 -7.509214e+001 3.414887e+000 -1.383558e-001 1.299597e+002
594375000 -1.662125e+000 1.771156e+002 -8.136064e+001 -6.315876e+001 -7.313755e+001 -1.430106e+001 -1.391972e-001 1.300029e+002
595000000 -1.698680e+000 1.766619e+002 -6.700961e+001 -6.829366e+000 -6.975950e+001 3.353138e+001 -1.604162e-001 1.299881e+002
595625000 -1.718944e+000 1.761687e+002 -7.068504e+001 4.965367e+001 -6.961914e+001 1.518062e+001 -1.483153e-001 1.299785e+002
