!Agilent Technologies,E8364B,US42250235,A.06.04.32
!Agilent E8364B: A.06.04.32
!Date: Friday, January 15, 2021 14:50:11
!Correction: S11(Full 2 Port(1,2)) S21(Full 2 Port(1,2)) S12(Full 2 Port(1,2)) S22(Full 2 Port(1,2)) 
!S2P File: Measurements: S11, S21, S12, S22:
# Hz S  dB   R 50
500000000 -1.283575e-001 -1.296911e+002 -7.043413e+001 -1.517331e+002 -7.873952e+001 -1.192856e+002 -1.307245e-001 1.385993e+002
500625000 -1.344234e-001 -1.299717e+002 -7.651359e+001 -1.086003e+001 -7.291663e+001 -7.864394e+001 -1.377579e-001 1.384656e+002
501250000 -1.359307e-001 -1.302525e+002 -7.508681e+001 -2.002145e+001 -7.555576e+001 -3.320874e+001 -1.298402e-001 1.383823e+002
501875000 -1.344982e-001 -1.305470e+002 -7.832529e+001 -1.088627e+002 -7.749258e+001 -6.548758e+001 -1.252981e-001 1.383255e+002
502500000 -1.381013e-001 -1.308380e+002 -7.112273e+001 -1.211238e+002 -7.606571e+001 -1.718648e+002 -1.237265e-001 1.383423e+002
503125000 -1.420954e-001 -1.311473e+002 -7.846565e+001 5.515749e+001 -7.353697e+001 -1.053460e+002 -1.235356e-001 1.381535e+002
503750000 -1.396433e-001 -1.314288e+002 -7.476197e+001 -1.476217e+002 -8.027406e+001 -1.029433e+002 -1.294117e-001 1.381694e+002
504375000 -1.566956e-001 -1.317680e+002 -7.139862e+001 -1.126482e+002 -9.031118e+001 1.391635e+002 -1.439256e-001 1.380889e+002
505000000 -1.491797e-001 -1.320731e+002 -7.054420e+001 -2.222714e+000 -7.412164e+001 -6.284243e+001 -1.409771e-001 1.380499e+002
505625000 -1.400271e-001 -1.322971e+002 -7.241283e+001 -1.353157e+002 -7.799680e+001 -4.206015e+001 -1.413664e-001 1.379819e+002
506250000 -1.517105e-001 -1.326101e+002 -6.866536e+001 -7.167900e+001 -7.747449e+001 -4.085644e+001 -1.476578e-001 1.378819e+002
506875000 -1.514124e-001 -1.328673e+002 -7.181391e+001 -1.333907e+002 -8.005145e+001 -6.109807e+001 -1.378407e-001 1.377699e+002
507500000 -1.531034e-001 -1.331634e+002 -7.714458e+001 -1.498735e+002 -7.739761e+001 -1.590730e+002 -1.459936e-001 1.375800e+002
508125000 -1.489699e-001 -1.334539e+002 -8.127505e+001 -1.790363e+002 -7.619795e+001 -9.405396e+001 -1.438614e-001 1.375053e+002
508750000 -1.532522e-001 -1.336753e+002 -8.986769e+001 8.316887e+000 -7.256501e+001 -1.351679e+002 -1.443149e-001 1.374077e+002
509375000 -1.585488e-001 -1.340329e+002 -7.129131e+001 -7.073290e+001 -8.112144e+001 -1.115530e+001 -1.391312e-001 1.373547e+002
510000000 -1.589421e-001 -1.343140e+002 -7.137843e+001 -9.424903e+001 -7.163015e+001 -1.370400e+002 -1.564051e-001 1.372012e+002
510625000 -1.673825e-001 -1.345531e+002 -7.251651e+001 -1.119710e+001 -7.796004e+001 -2.219608e+001 -1.428647e-001 1.370925e+002
511250000 -1.673852e-001 -1.348184e+002 -7.225997e+001 -4.279051e+001 -9.210142e+001 5.300860e+001 -1.536872e-001 1.369077e+002
511875000 -1.657016e-001 -1.351469e+002 -6.720899e+001 -1.218799e+002 -7.359470e+001 -1.121715e+002 -1.461054e-001 1.367535e+002
512500000 -1.683446e-001 -1.354133e+002 -7.469131e+001 -3.881576e+001 -7.080840e+001 -1.655952e+002 -1.436614e-001 1.366391e+002
513125000 -1.822642e-001 -1.357436e+002 -7.856042e+001 6.855363e+001 -8.146122e+001 1.766699e+002 -1.497023e-001 1.366224e+002
513750000 -1.879021e-001 -1.360184e+002 -7.370376e+001 -8.051493e+001 -7.306518e+001 -1.501854e+002 -1.472388e-001 1.365025e+002
514375000 -1.929879e-001 -1.363315e+002 -7.445653e+001 -6.123130e+001 -7.334173e+001 -1.108424e+002 -1.370979e-001 1.363663e+002
515000000 -1.915664e-001 -1.366256e+002 -7.657801e+001 1.678569e+002 -8.890627e+001 -1.229614e+002 -1.288788e-001 1.363099e+002
515625000 -2.107229e-001 -1.370011e+002 -7.021279e+001 -1.276259e+002 -7.422537e+001 -3.416456e+001 -1.292997e-001 1.362140e+002
516250000 -2.068756e-001 -1.372920e+002 -8.312003e+001 7.135379e+000 -7.554260e+001 -9.395435e+001 -1.306351e-001 1.361531e+002
516875000 -2.278353e-001 -1.376327e+002 -7.868623e+001 -1.482582e+002 -7.391206e+001 -1.566620e+002 -1.261698e-001 1.361907e+002
517500000 -2.187773e-001 -1.379581e+002 -8.139296e+001 -7.810923e+000 -8.389173e+001 1.608219e+002 -1.405668e-001 1.361277e+002
518125000 -2.301891e-001 -1.383340e+002 -7.837792e+001 1.464551e+002 -7.513187e+001 1.377399e+002 -1.305287e-001 1.360686e+002
518750000 -2.318821e-001 -1.386590e+002 -7.690996e+001 -8.206303e+001 -7.311558e+001 4.251081e+001 -1.387070e-001 1.361098e+002
519375000 -2.442788e-001 -1.389424e+002 -8.043660e+001 5.626127e+001 -7.671690e+001 1.170581e+002 -1.268798e-001 1.360726e+002
520000000 -2.421627e-001 -1.393265e+002 -7.416344e+001 -1.121119e+002 -7.724720e+001 1.762616e+002 -1.187738e-001 1.360142e+002
520625000 -2.463827e-001 -1.396717e+002 -7.222424e+001 -1.093992e+002 -7.653213e+001 -7.128110e+001 -1.223412e-001 1.359895e+002
521250000 -2.520653e-001 -1.399985e+002 -7.088142e+001 -1.452423e+002 -8.964932e+001 -1.239550e+002 -1.269273e-001 1.359840e+002
521875000 -2.591010e-001 -1.403500e+002 -7.729292e+001 -2.270486e+001 -8.236546e+001 -6.957084e+001 -1.128397e-001 1.359683e+002
522500000 -2.584264e-001 -1.406532e+002 -7.536881e+001 -7.130722e+001 -8.000161e+001 -1.010657e+002 -1.266888e-001 1.359775e+002
523125000 -2.690274e-001 -1.410010e+002 -7.295316e+001 -9.277783e+001 -8.198018e+001 -6.833685e+001 -1.323616e-001 1.359350e+002
523750000 -2.739909e-001 -1.412931e+002 -7.699188e+001 1.696568e+002 -6.870284e+001 -1.351120e+002 -1.275637e-001 1.359165e+002
524375000 -2.824575e-001 -1.416187e+002 -7.332699e+001 -1.312510e+002 -7.941448e+001 1.736950e+002 -1.246474e-001 1.358458e+002
525000000 -2.856782e-001 -1.419306e+002 -6.656628e+001 -1.326887e+002 -8.070213e+001 -4.480586e+001 -1.364302e-001 1.358195e+002
525625000 -2.968090e-001 -1.421845e+002 -7.763686e+001 -7.177048e+001 -8.273836e+001 -4.906938e+001 -1.369674e-001 1.357434e+002
526250000 -2.852172e-001 -1.425381e+002 -9.738221e+001 -1.175638e+001 -7.504712e+001 -1.055392e+002 -1.367744e-001 1.357672e+002
526875000 -2.923557e-001 -1.428276e+002 -7.782327e+001 1.083700e+001 -7.641195e+001 -1.022167e+002 -1.286563e-001 1.356702e+002
527500000 -3.073101e-001 -1.431727e+002 -7.449075e+001 -1.360735e+002 -7.900309e+001 -1.739366e+002 -1.326632e-001 1.356357e+002
528125000 -3.184097e-001 -1.435034e+002 -7.480601e+001 6.708435e+001 -6.936153e+001 1.730775e+002 -1.332079e-001 1.356526e+002
528750000 -3.158285e-001 -1.437821e+002 -7.637257e+001 -1.010865e+002 -8.134467e+001 5.985020e+001 -1.314691e-001 1.356806e+002
529375000 -3.351049e-001 -1.440933e+002 -7.195396e+001 1.114867e+002 -7.097999e+001 -1.581310e+002 -1.314488e-001 1.355352e+002
530000000 -3.422693e-001 -1.444798e+002 -7.207755e+001 -1.115850e+002 -7.092283e+001 -1.068861e+001 -1.359909e-001 1.355003e+002
530625000 -3.495414e-001 -1.448103e+002 -8.118082e+001 -7.003727e+001 -7.700422e+001 -1.132528e+002 -1.329222e-001 1.355016e+002
531250000 -3.554085e-001 -1.451554e+002 -7.274787e+001 1.725739e+002 -6.967329e+001 -1.302114e+002 -1.283119e-001 1.354424e+002
531875000 -3.748665e-001 -1.454483e+002 -8.545865e+001 1.169396e+002 -7.603905e+001 -9.306673e+001 -1.382646e-001 1.353549e+002
532500000 -3.766835e-001 -1.457968e+002 -7.044939e+001 1.659488e+002 -7.181158e+001 -1.372230e+002 -1.380941e-001 1.353743e+002
533125000 -3.798449e-001 -1.461794e+002 -7.333561e+001 -3.095805e+001 -7.226340e+001 -1.619600e+002 -1.403308e-001 1.353517e+002
533750000 -3.894905e-001 -1.465633e+002 -7.414668e+001 1.740833e+002 -8.009158e+001 -1.478723e+002 -1.521906e-001 1.353180e+002
534375000 -3.998792e-001 -1.469161e+002 -7.458631e+001 -1.514272e+002 -7.722640e+001 -6.176056e+001 -1.389687e-001 1.351735e+002
535000000 -4.085644e-001 -1.472142e+002 -7.444007e+001 -1.208434e+002 -6.952288e+001 -1.416802e+002 -1.417688e-001 1.351498e+002
535625000 -4.208351e-001 -1.476521e+002 -7.326619e+001 -1.579170e+002 -7.274228e+001 -1.509181e+002 -1.393484e-001 1.351539e+002
536250000 -4.318018e-001 -1.480210e+002 -7.292411e+001 -1.658513e+002 -6.810883e+001 -1.368704e+002 -1.298431e-001 1.349993e+002
536875000 -4.452727e-001 -1.484531e+002 -7.594855e+001 -1.098882e+002 -7.318529e+001 -1.736966e+002 -1.427581e-001 1.349262e+002
537500000 -4.557250e-001 -1.487521e+002 -8.135143e+001 -1.501516e+002 -7.430469e+001 1.459034e+002 -1.354719e-001 1.349923e+002
538125000 -4.699019e-001 -1.491911e+002 -7.518397e+001 -1.152048e+002 -7.504073e+001 -1.217864e+002 -1.398332e-001 1.349283e+002
538750000 -4.912298e-001 -1.495453e+002 -7.164234e+001 1.091950e+002 -6.960836e+001 1.538596e+002 -1.336441e-001 1.348406e+002
539375000 -5.054056e-001 -1.498831e+002 -7.622819e+001 -1.767562e+002 -6.778963e+001 1.726980e+002 -1.355723e-001 1.347694e+002
540000000 -5.115751e-001 -1.502305e+002 -8.006706e+001 1.638239e+002 -7.353033e+001 -1.387402e+002 -1.312492e-001 1.346744e+002
540625000 -5.264671e-001 -1.505657e+002 -7.187359e+001 -1.609240e+002 -7.890081e+001 -1.553287e+002 -1.321031e-001 1.346900e+002
541250000 -5.320210e-001 -1.508813e+002 -7.441634e+001 -1.291667e+002 -7.747663e+001 -1.651647e+002 -1.284450e-001 1.346165e+002
541875000 -5.597287e-001 -1.511877e+002 -6.820242e+001 -1.436615e+002 -7.376644e+001 1.717187e+002 -1.361359e-001 1.345974e+002
542500000 -5.726971e-001 -1.515418e+002 -6.929034e+001 1.397741e+002 -7.956836e+001 -1.783502e+002 -1.300458e-001 1.346365e+002
543125000 -5.794840e-001 -1.518896e+002 -8.694173e+001 -1.303242e+002 -7.251418e+001 -1.554360e+002 -1.222210e-001 1.345639e+002
543750000 -5.896041e-001 -1.521954e+002 -7.533640e+001 -1.500801e+002 -6.936604e+001 1.572784e+002 -1.317313e-001 1.345733e+002
544375000 -6.103852e-001 -1.524972e+002 -7.440890e+001 1.485150e+002 -7.144484e+001 1.629326e+002 -1.278958e-001 1.345771e+002
545000000 -6.125194e-001 -1.529031e+002 -7.917614e+001 1.106921e+002 -7.532093e+001 -1.182067e+002 -1.207204e-001 1.345334e+002
545625000 -6.322480e-001 -1.532302e+002 -6.652302e+001 1.234600e+002 -7.152547e+001 -1.730364e+002 -1.231278e-001 1.345939e+002
546250000 -6.586446e-001 -1.535544e+002 -7.120748e+001 1.459572e+002 -7.528318e+001 -1.782724e+002 -1.360700e-001 1.345176e+002
546875000 -6.738486e-001 -1.539951e+002 -7.264922e+001 -1.589942e+002 -7.895389e+001 1.359753e+002 -1.314909e-001 1.345977e+002
547500000 -6.978204e-001 -1.542673e+002 -7.784843e+001 -9.734871e+001 -6.913169e+001 1.664101e+002 -1.294353e-001 1.345415e+002
548125000 -7.253007e-001 -1.546230e+002 -7.053145e+001 -1.610671e+002 -7.476322e+001 1.500472e+002 -1.344770e-001 1.344987e+002
548750000 -7.410693e-001 -1.550150e+002 -7.101852e+001 1.646862e+002 -7.240681e+001 1.638684e+002 -1.385557e-001 1.344728e+002
549375000 -7.602608e-001 -1.553326e+002 -7.971861e+001 6.854194e+001 -6.643058e+001 1.667649e+002 -1.449793e-001 1.343295e+002
550000000 -7.789997e-001 -1.556552e+002 -6.977928e+001 1.340002e+002 -6.620092e+001 1.399590e+002 -1.533438e-001 1.343318e+002
550625000 -7.985013e-001 -1.560017e+002 -7.390321e+001 1.586866e+002 -7.545073e+001 -1.687792e+002 -1.512670e-001 1.341962e+002
551250000 -8.091153e-001 -1.563157e+002 -7.531200e+001 1.743548e+002 -7.236054e+001 1.431865e+002 -1.489494e-001 1.341098e+002
551875000 -8.306997e-001 -1.566528e+002 -7.352509e+001 1.235488e+002 -6.882201e+001 1.536320e+002 -1.484709e-001 1.340239e+002
552500000 -8.502018e-001 -1.570524e+002 -7.433788e+001 -1.695944e+002 -7.392187e+001 1.181116e+002 -1.503288e-001 1.338696e+002
553125000 -8.514572e-001 -1.573433e+002 -7.868029e+001 1.595341e+002 -6.639803e+001 1.329740e+002 -1.565693e-001 1.338297e+002
553750000 -8.784086e-001 -1.577123e+002 -7.444118e+001 1.358838e+002 -7.639352e+001 1.582764e+002 -1.665785e-001 1.336138e+002
554375000 -8.882717e-001 -1.580178e+002 -7.741991e+001 1.386646e+002 -6.512165e+001 1.176522e+002 -1.557852e-001 1.335458e+002
555000000 -9.036345e-001 -1.583787e+002 -7.527409e+001 1.542158e+002 -6.493382e+001 1.517798e+002 -1.666164e-001 1.333874e+002
555625000 -9.286816e-001 -1.586663e+002 -6.966428e+001 9.187827e+001 -8.079984e+001 1.458994e+002 -1.544241e-001 1.333875e+002
556250000 -9.515339e-001 -1.590343e+002 -6.957628e+001 -1.486979e+002 -8.310068e+001 -1.228467e+002 -1.552979e-001 1.332427e+002
556875000 -9.584473e-001 -1.593685e+002 -8.272444e+001 6.244416e+001 -6.988474e+001 1.459747e+002 -1.475525e-001 1.331855e+002
557500000 -9.849947e-001 -1.596508e+002 -7.942670e+001 1.281414e+002 -7.122791e+001 1.652255e+002 -1.476145e-001 1.331122e+002
558125000 -9.964796e-001 -1.599379e+002 -6.696896e+001 1.229241e+002 -7.398030e+001 -1.588469e+002 -1.532333e-001 1.331168e+002
558750000 -1.012405e+000 -1.602283e+002 -7.788040e+001 1.229125e+002 -7.028015e+001 1.556307e+002 -1.335521e-001 1.330083e+002
559375000 -1.030552e+000 -1.605481e+002 -7.153481e+001 1.442860e+002 -6.516962e+001 1.263654e+002 -1.416148e-001 1.329685e+002
560000000 -1.058310e+000 -1.608327e+002 -7.666386e+001 8.903871e+001 -7.562630e+001 1.177525e+002 -1.345062e-001 1.329432e+002
560625000 -1.073596e+000 -1.610682e+002 -7.556038e+001 -1.355088e+002 -7.197267e+001 1.387111e+002 -1.365953e-001 1.329583e+002
561250000 -1.089811e+000 -1.614024e+002 -7.627842e+001 1.028327e+002 -7.031699e+001 1.709973e+002 -1.287772e-001 1.329040e+002
561875000 -1.100817e+000 -1.616983e+002 -6.912992e+001 9.714196e+001 -7.287036e+001 1.563649e+002 -1.346532e-001 1.329407e+002
562500000 -1.118982e+000 -1.620040e+002 -6.849628e+001 1.131556e+002 -6.881447e+001 1.695699e+002 -1.334488e-001 1.329780e+002
563125000 -1.134732e+000 -1.622803e+002 -6.962090e+001 1.299112e+002 -7.133227e+001 1.396150e+002 -1.318380e-001 1.329066e+002
563750000 -1.156951e+000 -1.626478e+002 -6.756635e+001 9.008704e+001 -7.204113e+001 1.411201e+002 -1.513377e-001 1.328699e+002
564375000 -1.175985e+000 -1.629411e+002 -7.915528e+001 9.976831e+001 -7.070458e+001 1.252197e+002 -1.450935e-001 1.328769e+002
565000000 -1.195999e+000 -1.633395e+002 -7.615778e+001 1.221391e+002 -6.986301e+001 1.201333e+002 -1.597587e-001 1.327923e+002
565625000 -1.222812e+000 -1.637123e+002 -7.034078e+001 1.670013e+002 -6.868385e+001 1.430042e+002 -1.593813e-001 1.327339e+002
566250000 -1.239893e+000 -1.640850e+002 -7.157159e+001 1.104965e+002 -7.062418e+001 1.270861e+002 -1.623367e-001 1.326577e+002
566875000 -1.274096e+000 -1.644277e+002 -7.410280e+001 4.145790e+001 -7.409776e+001 1.044419e+002 -1.596263e-001 1.324788e+002
567500000 -1.293948e+000 -1.648430e+002 -7.347683e+001 -1.586896e+002 -6.796569e+001 1.232374e+002 -1.609604e-001 1.323723e+002
568125000 -1.326836e+000 -1.651455e+002 -7.109245e+001 8.514012e+001 -6.468214e+001 8.837753e+001 -1.625633e-001 1.322397e+002
568750000 -1.348504e+000 -1.654834e+002 -7.677768e+001 8.729696e+001 -8.046072e+001 3.511886e+001 -1.699999e-001 1.320536e+002
569375000 -1.373885e+000 -1.658327e+002 -7.182300e+001 9.458628e+001 -7.254641e+001 8.500974e+001 -1.660163e-001 1.319231e+002
570000000 -1.394397e+000 -1.661458e+002 -7.143397e+001 1.038334e+002 -7.078101e+001 7.853776e+001 -1.719310e-001 1.317626e+002
570625000 -1.412208e+000 -1.664341e+002 -9.329660e+001 -1.601400e+002 -6.991287e+001 8.759977e+001 -1.652234e-001 1.316655e+002
571250000 -1.429508e+000 -1.667918e+002 -7.049795e+001 6.898989e+001 -7.010455e+001 2.088929e+001 -1.639462e-001 1.315755e+002
571875000 -1.453762e+000 -1.670301e+002 -8.097959e+001 -1.539061e+002 -7.094870e+001 1.234920e+002 -1.553688e-001 1.313962e+002
572500000 -1.472113e+000 -1.673629e+002 -7.629364e+001 6.662922e+001 -7.581261e+001 1.157715e+002 -1.566617e-001 1.313032e+002
573125000 -1.490199e+000 -1.676301e+002 -8.697954e+001 6.407733e+001 -7.122257e+001 7.988107e+001 -1.457457e-001 1.312358e+002
573750000 -1.499233e+000 -1.679097e+002 -6.909621e+001 1.383530e+002 -7.806781e+001 1.903720e+001 -1.552064e-001 1.311605e+002
574375000 -1.513544e+000 -1.681635e+002 -6.974178e+001 7.169698e+001 -7.621609e+001 7.525829e+001 -1.445663e-001 1.311360e+002
575000000 -1.525908e+000 -1.684811e+002 -7.485133e+001 1.189934e+002 -7.271264e+001 1.380846e+002 -1.387812e-001 1.310205e+002
575625000 -1.532830e+000 -1.687286e+002 -7.378065e+001 6.247300e+001 -7.081699e+001 9.823506e+001 -1.475099e-001 1.310266e+002
576250000 -1.542934e+000 -1.689739e+002 -6.793626e+001 8.703934e+001 -6.878006e+001 4.630529e+001 -1.464960e-001 1.309501e+002
576875000 -1.544424e+000 -1.692299e+002 -7.761476e+001 7.798931e+001 -6.899171e+001 9.556687e+001 -1.456023e-001 1.310011e+002
577500000 -1.560606e+000 -1.694717e+002 -7.172303e+001 1.274253e+002 -6.976522e+001 8.009533e+001 -1.469568e-001 1.308596e+002
578125000 -1.561321e+000 -1.697530e+002 -7.026515e+001 6.658096e+001 -7.095476e+001 1.061724e+002 -1.413135e-001 1.309274e+002
578750000 -1.562836e+000 -1.700171e+002 -7.038165e+001 1.088400e+002 -6.798155e+001 8.104671e+001 -1.395443e-001 1.309101e+002
579375000 -1.564696e+000 -1.703029e+002 -8.230617e+001 6.102782e+001 -7.466743e+001 6.877141e+000 -1.422398e-001 1.308326e+002
580000000 -1.568792e+000 -1.705892e+002 -7.024962e+001 8.495924e+001 -6.593861e+001 6.737747e+001 -1.506361e-001 1.308212e+002
580625000 -1.570550e+000 -1.709082e+002 -7.036027e+001 8.754350e+001 -7.034584e+001 9.802787e+001 -1.404772e-001 1.307216e+002
581250000 -1.567605e+000 -1.712748e+002 -6.967138e+001 4.047741e+001 -7.150803e+001 8.215041e+001 -1.595466e-001 1.307074e+002
581875000 -1.571801e+000 -1.717314e+002 -6.964590e+001 1.257667e+002 -6.781110e+001 6.996281e+001 -1.562813e-001 1.306102e+002
582500000 -1.581875e+000 -1.721663e+002 -8.089571e+001 1.090718e+002 -6.662598e+001 7.511920e+001 -1.510303e-001 1.304782e+002
583125000 -1.582912e+000 -1.726514e+002 -7.297347e+001 4.869128e+001 -6.925555e+001 3.781115e+001 -1.578518e-001 1.303849e+002
583750000 -1.601653e+000 -1.731162e+002 -7.779716e+001 8.501529e+001 -7.401073e+001 7.045877e+001 -1.704251e-001 1.302311e+002
584375000 -1.616048e+000 -1.735947e+002 -7.979717e+001 7.888482e+001 -6.569661e+001 4.129138e+001 -1.578181e-001 1.301710e+002
585000000 -1.628408e+000 -1.740538e+002 -6.993166e+001 3.685758e+001 -7.213900e+001 7.838792e+001 -1.670315e-001 1.300695e+002
585625000 -1.661553e+000 -1.744148e+002 -8.481516e+001 7.504610e+001 -6.706540e+001 4.188840e+001 -1.422795e-001 1.299456e+002
586250000 -1.673070e+000 -1.748996e+002 -7.443666e+001 8.258450e+001 -6.952602e+001 6.300262e+001 -1.533329e-001 1.299662e+002
586875000 -1.684512e+000 -1.753123e+002 -7.224406e+001 9.124491e+001 -7.197021e+001 1.152451e+001 -1.489170e-001 1.298463e+002
587500000 -1.697339e+000 -1.757482e+002 -7.020758e+001 7.865271e+001 -7.002579e+001 3.325534e+001 -1.481744e-001 1.297581e+002
588125000 -1.709487e+000 -1.761289e+002 -7.430331e+001 4.007891e+001 -6.818372e+001 2.608084e+001 -1.449251e-001 1.297318e+002
588750000 -1.717766e+000 -1.765598e+002 -7.867976e+001 1.965774e+001 -6.676961e+001 4.474683e+001 -1.534911e-001 1.297065e+002
589375000 -1.720401e+000 -1.770060e+002 -6.740262e+001 -4.388115e+000 -6.899752e+001 3.743618e+001 -1.349087e-001 1.296647e+002
590000000 -1.736291e+000 -1.774350e+002 -7.208798e+001 9.910379e+000 -7.146629e+001 3.724973e+001 -1.416940e-001 1.297036e+002
590625000 -1.746997e+000 -1.778593e+002 -7.191660e+001 3.080549e+001 -6.874837e+001 4.352274e+001 -1.398963e-001 1.296512e+002
591250000 -1.755008e+000 -1.783410e+002 -7.445172e+001 3.237385e+001 -6.924332e+001 5.694482e+001 -1.417730e-001 1.296703e+002
591875000 -1.784553e+000 -1.787323e+002 -6.915216e+001 7.092016e+000 -6.984082e+001 5.567621e+001 -1.394748e-001 1.296855e+002
592500000 -1.803714e+000 -1.791704e+002 -7.395334e+001 2.203870e+001 -6.694258e+001 1.662763e+000 -1.385111e-001 1.297609e+002
593125000 -1.826397e+000 -1.795223e+002 -7.204121e+001 -1.441466e+001 -6.699136e+001 4.004738e+001 -1.341341e-001 1.298233e+002
593750000 -1.846169e+000 -1.799322e+002 -7.102065e+001 2.436204e+001 -7.401379e+001 6.210664e+001 -1.280911e-001 1.298621e+002
594375000 -1.851678e+000 1.798095e+002 -7.269576e+001 4.221124e+001 -7.051724e+001 3.088657e+001 -1.233500e-001 1.299213e+002
595000000 -1.868014e+000 1.793592e+002 -8.419754e+001 3.847489e+001 -7.088665e+001 2.545306e+001 -1.495826e-001 1.298970e+002
595625000 -1.881359e+000 1.789596e+002 -6.980727e+001 3.123462e+001 -7.122404e+001 -1.614606e+001 -1.433828e-001 1.299006e+002
