!Agilent Technologies,E8364B,US42250235,A.06.04.32
!Agilent E8364B: A.06.04.32
!Date: Friday, January 15, 2021 15:04:10
!Correction: S11(Full 2 Port(1,2)) S21(Full 2 Port(1,2)) S12(Full 2 Port(1,2)) S22(Full 2 Port(1,2)) 
!S2P File: Measurements: S11, S21, S12, S22:
# Hz S  dB   R 50
500000000 -1.112332e-001 -1.299502e+002 -8.164548e+001 -2.698634e+001 -7.885919e+001 -6.215776e+001 -1.500367e-001 1.382547e+002
500625000 -1.179918e-001 -1.302726e+002 -7.631342e+001 -7.821935e+001 -7.658051e+001 -4.432829e+001 -1.578714e-001 1.382461e+002
501250000 -1.203814e-001 -1.305699e+002 -6.836495e+001 -5.139545e+001 -7.257487e+001 -1.164427e+002 -1.556088e-001 1.381527e+002
501875000 -1.209377e-001 -1.308513e+002 -7.344466e+001 -1.375676e+002 -7.615678e+001 1.722757e+002 -1.448549e-001 1.381435e+002
502500000 -1.243154e-001 -1.311895e+002 -7.667757e+001 -1.294252e+002 -8.564007e+001 5.152301e+001 -1.471568e-001 1.381475e+002
503125000 -1.302706e-001 -1.314780e+002 -7.254414e+001 -1.157460e+002 -7.714371e+001 4.334116e+001 -1.500516e-001 1.379881e+002
503750000 -1.278481e-001 -1.317731e+002 -7.877958e+001 1.786534e+002 -6.888202e+001 -4.559517e+001 -1.487868e-001 1.378811e+002
504375000 -1.369813e-001 -1.320475e+002 -7.400658e+001 -3.978115e+001 -7.829118e+001 1.206721e+002 -1.621058e-001 1.378505e+002
505000000 -1.388905e-001 -1.324109e+002 -7.826772e+001 -1.366243e+002 -7.811121e+001 -1.354214e+002 -1.589783e-001 1.378772e+002
505625000 -1.381853e-001 -1.326324e+002 -7.964568e+001 1.650164e+002 -8.286004e+001 -1.208549e+002 -1.586243e-001 1.377803e+002
506250000 -1.489933e-001 -1.329596e+002 -7.258560e+001 -8.079276e+001 -8.366102e+001 -3.695006e+001 -1.696115e-001 1.376512e+002
506875000 -1.414002e-001 -1.332243e+002 -7.268284e+001 -7.562297e+001 -7.988034e+001 -7.121523e+001 -1.593484e-001 1.375174e+002
507500000 -1.475291e-001 -1.335617e+002 -8.080933e+001 -1.429283e+002 -8.092960e+001 1.643569e+002 -1.640517e-001 1.373892e+002
508125000 -1.628141e-001 -1.338687e+002 -7.541113e+001 -1.030831e+002 -7.194290e+001 1.408965e+002 -1.579216e-001 1.373172e+002
508750000 -1.520315e-001 -1.340924e+002 -7.196311e+001 -1.782190e+002 -7.680898e+001 -5.940457e+001 -1.615888e-001 1.372188e+002
509375000 -1.610326e-001 -1.344275e+002 -7.407083e+001 -9.895295e+001 -7.245031e+001 -5.368882e+001 -1.671887e-001 1.371356e+002
510000000 -1.589403e-001 -1.347718e+002 -7.178945e+001 -1.552664e+002 -8.316591e+001 -9.503999e+001 -1.746291e-001 1.370196e+002
510625000 -1.721898e-001 -1.349790e+002 -7.310231e+001 1.760380e+002 -8.421322e+001 -1.467095e+002 -1.592299e-001 1.369567e+002
511250000 -1.785012e-001 -1.352608e+002 -6.984756e+001 -1.416847e+002 -7.431042e+001 -1.004738e+002 -1.698043e-001 1.367674e+002
511875000 -1.739432e-001 -1.355325e+002 -7.080959e+001 7.156586e+001 -7.366074e+001 -2.926302e+001 -1.622233e-001 1.366311e+002
512500000 -1.758792e-001 -1.358453e+002 -9.716798e+001 8.552147e+000 -8.128484e+001 1.131022e+002 -1.681506e-001 1.365300e+002
513125000 -1.923990e-001 -1.361502e+002 -8.075800e+001 -5.659534e+001 -7.195715e+001 1.713968e+002 -1.638996e-001 1.364672e+002
513750000 -1.958046e-001 -1.363848e+002 -7.232949e+001 -1.047376e+002 -8.015147e+001 -1.047477e+002 -1.712077e-001 1.363533e+002
514375000 -2.134020e-001 -1.367487e+002 -7.608392e+001 -1.633926e+002 -7.138854e+001 1.654380e+002 -1.601484e-001 1.362201e+002
515000000 -2.171519e-001 -1.370348e+002 -6.844390e+001 -6.542236e+001 -7.294100e+001 -1.705364e+002 -1.602591e-001 1.362339e+002
515625000 -2.317518e-001 -1.374471e+002 -7.228786e+001 -1.487389e+002 -7.542400e+001 -1.065030e+002 -1.464927e-001 1.360910e+002
516250000 -2.275909e-001 -1.377521e+002 -7.982928e+001 1.387002e+002 -8.561526e+001 -7.212303e+000 -1.542234e-001 1.359582e+002
516875000 -2.487188e-001 -1.380762e+002 -8.559303e+001 1.673600e+002 -7.601796e+001 -6.923621e+001 -1.534218e-001 1.360194e+002
517500000 -2.502832e-001 -1.383764e+002 -7.525566e+001 1.734083e+002 -7.143561e+001 9.440373e+001 -1.608841e-001 1.359724e+002
518125000 -2.607996e-001 -1.387715e+002 -7.946906e+001 9.001728e+001 -7.552530e+001 1.731040e+002 -1.553644e-001 1.359012e+002
518750000 -2.665001e-001 -1.391188e+002 -6.873253e+001 1.789419e+002 -7.943675e+001 -3.050429e+001 -1.527505e-001 1.358769e+002
519375000 -2.802055e-001 -1.393780e+002 -7.747748e+001 1.124209e+002 -7.461288e+001 1.699090e+002 -1.400919e-001 1.357997e+002
520000000 -2.869236e-001 -1.397400e+002 -7.383421e+001 -1.788690e+002 -7.585555e+001 -1.733195e+002 -1.521727e-001 1.357753e+002
520625000 -2.991973e-001 -1.401215e+002 -8.033711e+001 1.007179e+002 -7.530399e+001 -1.742357e+002 -1.431382e-001 1.357029e+002
521250000 -3.111379e-001 -1.404354e+002 -7.434282e+001 -9.621212e+001 -9.016753e+001 -1.483549e+002 -1.566745e-001 1.357455e+002
521875000 -3.099082e-001 -1.407910e+002 -7.269774e+001 -1.560739e+002 -7.409477e+001 1.195928e+002 -1.410446e-001 1.356990e+002
522500000 -3.215656e-001 -1.410766e+002 -7.790968e+001 -1.511691e+002 -8.382539e+001 1.204022e+002 -1.499401e-001 1.356382e+002
523125000 -3.347535e-001 -1.414623e+002 -7.473997e+001 7.760257e+001 -8.391794e+001 -9.252740e+001 -1.496597e-001 1.356252e+002
523750000 -3.396516e-001 -1.417278e+002 -7.763875e+001 -1.489700e+002 -7.753948e+001 -4.892645e+001 -1.513527e-001 1.356344e+002
524375000 -3.526675e-001 -1.420562e+002 -7.609904e+001 -6.763309e+001 -7.228500e+001 -9.050519e+001 -1.411921e-001 1.355669e+002
525000000 -3.536074e-001 -1.423719e+002 -7.922514e+001 -2.591586e+001 -8.717297e+001 -1.400096e+002 -1.529845e-001 1.355281e+002
525625000 -3.697209e-001 -1.425897e+002 -7.076147e+001 -1.780125e+002 -7.576863e+001 8.846561e+001 -1.628030e-001 1.354340e+002
526250000 -3.676240e-001 -1.429366e+002 -7.335909e+001 -1.550655e+002 -8.909446e+001 -9.920847e+001 -1.603770e-001 1.354283e+002
526875000 -3.860214e-001 -1.432466e+002 -8.387309e+001 -1.290021e+002 -7.455570e+001 -1.743267e+002 -1.414157e-001 1.353875e+002
527500000 -3.936945e-001 -1.435471e+002 -7.687578e+001 -6.351903e+001 -7.473469e+001 1.258915e+002 -1.573559e-001 1.353381e+002
528125000 -4.173325e-001 -1.438376e+002 -8.562585e+001 -7.442352e+001 -7.361095e+001 1.414449e+002 -1.553268e-001 1.353992e+002
528750000 -4.191781e-001 -1.441302e+002 -7.155077e+001 -1.611267e+002 -7.424649e+001 -8.667898e+001 -1.509663e-001 1.353593e+002
529375000 -4.327845e-001 -1.444314e+002 -7.906825e+001 -1.737275e+002 -7.047403e+001 -1.409464e+002 -1.547677e-001 1.352752e+002
530000000 -4.508425e-001 -1.447675e+002 -7.563725e+001 -7.267226e+001 -7.554000e+001 -1.209068e+002 -1.551246e-001 1.352546e+002
530625000 -4.571405e-001 -1.450718e+002 -6.844290e+001 -1.492203e+002 -8.241057e+001 8.220263e+001 -1.623314e-001 1.352039e+002
531250000 -4.717863e-001 -1.453461e+002 -6.758201e+001 -1.550244e+002 -7.025530e+001 -1.386308e+002 -1.438669e-001 1.351300e+002
531875000 -4.825586e-001 -1.456172e+002 -7.321234e+001 -1.437772e+002 -6.889881e+001 -9.727341e+001 -1.527188e-001 1.351120e+002
532500000 -4.933909e-001 -1.459160e+002 -8.502114e+001 1.782512e+002 -8.016190e+001 1.093553e+002 -1.550748e-001 1.350802e+002
533125000 -5.088343e-001 -1.463079e+002 -7.013188e+001 -1.748997e+002 -7.285036e+001 1.232456e+002 -1.673514e-001 1.350795e+002
533750000 -5.210430e-001 -1.466051e+002 -7.125941e+001 1.057401e+002 -6.725008e+001 1.694553e+002 -1.710098e-001 1.350144e+002
534375000 -5.315889e-001 -1.469832e+002 -7.080650e+001 1.545793e+002 -7.088881e+001 1.643101e+002 -1.582728e-001 1.349247e+002
535000000 -5.412814e-001 -1.472934e+002 -7.141655e+001 1.726349e+002 -8.253935e+001 1.092284e+002 -1.632168e-001 1.348781e+002
535625000 -5.566650e-001 -1.476712e+002 -6.936671e+001 1.278968e+002 -7.666128e+001 1.729336e+002 -1.537847e-001 1.348103e+002
536250000 -5.672260e-001 -1.480029e+002 -7.770015e+001 -1.796213e+002 -7.260806e+001 -1.533077e+002 -1.570846e-001 1.347154e+002
536875000 -5.890989e-001 -1.483280e+002 -6.913292e+001 1.762193e+002 -7.134737e+001 1.422514e+002 -1.641122e-001 1.346631e+002
537500000 -6.037531e-001 -1.485854e+002 -6.938239e+001 -1.773961e+002 -6.838201e+001 1.775150e+002 -1.559140e-001 1.346882e+002
538125000 -6.158389e-001 -1.489174e+002 -7.855288e+001 1.464873e+002 -6.922700e+001 1.570630e+002 -1.614418e-001 1.345958e+002
538750000 -6.470876e-001 -1.492367e+002 -7.037540e+001 8.766032e+001 -7.423483e+001 1.063437e+002 -1.588703e-001 1.345256e+002
539375000 -6.526125e-001 -1.494768e+002 -6.939266e+001 8.665365e+001 -7.970168e+001 1.505981e+002 -1.497302e-001 1.345283e+002
540000000 -6.655686e-001 -1.497610e+002 -6.895720e+001 1.276657e+002 -8.485842e+001 1.112009e+002 -1.546501e-001 1.344542e+002
540625000 -6.772703e-001 -1.500284e+002 -7.031592e+001 1.797709e+002 -7.384815e+001 7.967309e+001 -1.545393e-001 1.344367e+002
541250000 -6.886370e-001 -1.502698e+002 -7.433208e+001 1.703568e+002 -7.057420e+001 1.595415e+002 -1.483356e-001 1.344085e+002
541875000 -6.987532e-001 -1.504923e+002 -7.257557e+001 9.770848e+001 -7.536409e+001 1.473369e+002 -1.543135e-001 1.343260e+002
542500000 -7.116798e-001 -1.507811e+002 -7.338361e+001 1.121322e+002 -7.384508e+001 1.061131e+002 -1.484131e-001 1.343614e+002
543125000 -7.089317e-001 -1.510560e+002 -7.670416e+001 1.447978e+002 -7.660110e+001 8.523373e+001 -1.456043e-001 1.342809e+002
543750000 -7.143016e-001 -1.513477e+002 -6.880897e+001 1.306839e+002 -7.312932e+001 1.028066e+002 -1.495162e-001 1.343734e+002
544375000 -7.327105e-001 -1.516521e+002 -7.304214e+001 1.437200e+002 -6.950056e+001 1.372019e+002 -1.498614e-001 1.343299e+002
545000000 -7.372095e-001 -1.519418e+002 -7.515636e+001 9.186189e+001 -7.294501e+001 1.373582e+002 -1.469475e-001 1.343181e+002
545625000 -7.413250e-001 -1.522472e+002 -7.776144e+001 1.228111e+002 -7.816538e+001 6.702296e+001 -1.480695e-001 1.343430e+002
546250000 -7.683635e-001 -1.525340e+002 -7.906870e+001 8.813953e+001 -7.304116e+001 7.870049e+001 -1.526407e-001 1.343210e+002
546875000 -7.754194e-001 -1.528649e+002 -6.986153e+001 -1.053165e+002 -7.345328e+001 1.012049e+002 -1.570343e-001 1.343636e+002
547500000 -7.939723e-001 -1.531445e+002 -7.316897e+001 1.518468e+002 -9.418187e+001 5.372773e+001 -1.626800e-001 1.343061e+002
548125000 -8.056750e-001 -1.533734e+002 -8.174680e+001 1.064220e+002 -9.481336e+001 1.439843e+002 -1.526314e-001 1.342531e+002
548750000 -8.133754e-001 -1.537299e+002 -7.470816e+001 1.211688e+002 -7.881474e+001 -1.650164e+002 -1.622080e-001 1.342312e+002
549375000 -8.311822e-001 -1.540162e+002 -7.922371e+001 -9.904137e+001 -8.084557e+001 -9.617259e+001 -1.747685e-001 1.340402e+002
550000000 -8.337148e-001 -1.542864e+002 -7.862763e+001 1.300324e+002 -6.993842e+001 1.286522e+002 -1.707681e-001 1.340749e+002
550625000 -8.433176e-001 -1.545942e+002 -7.366087e+001 1.027701e+002 -7.236033e+001 1.146994e+002 -1.724679e-001 1.339750e+002
551250000 -8.431706e-001 -1.548768e+002 -7.453851e+001 8.820882e+001 -7.698067e+001 5.575410e+001 -1.722231e-001 1.338949e+002
551875000 -8.585770e-001 -1.551840e+002 -7.625284e+001 4.507415e+001 -7.116644e+001 9.191304e+001 -1.722761e-001 1.337761e+002
552500000 -8.494052e-001 -1.555412e+002 -7.275312e+001 1.385782e+002 -7.624079e+001 7.281902e+001 -1.753189e-001 1.336672e+002
553125000 -8.487302e-001 -1.558665e+002 -7.632904e+001 1.192945e+002 -8.144194e+001 5.995371e+001 -1.706411e-001 1.336006e+002
553750000 -8.626238e-001 -1.561934e+002 -7.720631e+001 1.258794e+002 -7.560794e+001 4.975377e+001 -1.737356e-001 1.334831e+002
554375000 -8.556761e-001 -1.564706e+002 -7.748515e+001 9.388140e+001 -8.239711e+001 1.422881e+002 -1.725479e-001 1.333118e+002
555000000 -8.567902e-001 -1.568291e+002 -6.881269e+001 5.871513e+001 -8.009117e+001 -1.672158e+002 -1.753889e-001 1.332359e+002
555625000 -8.726045e-001 -1.571366e+002 -7.230360e+001 1.204539e+002 -7.985561e+001 6.970638e+001 -1.616465e-001 1.332030e+002
556250000 -8.729764e-001 -1.574350e+002 -7.089146e+001 7.527155e+001 -7.479824e+001 -2.146940e+001 -1.692017e-001 1.330374e+002
556875000 -8.684904e-001 -1.578535e+002 -7.071800e+001 -1.771511e+002 -8.557630e+001 9.100190e+000 -1.690187e-001 1.330147e+002
557500000 -8.808810e-001 -1.581296e+002 -6.962305e+001 1.019475e+002 -7.661036e+001 1.431230e+002 -1.614844e-001 1.329517e+002
558125000 -8.902712e-001 -1.585060e+002 -7.323225e+001 9.879282e+001 -7.836930e+001 1.286916e+002 -1.663938e-001 1.329626e+002
558750000 -8.879170e-001 -1.588076e+002 -8.025623e+001 1.625416e+002 -7.190115e+001 3.572453e+001 -1.631747e-001 1.328667e+002
559375000 -8.953128e-001 -1.592090e+002 -7.035960e+001 9.926471e+001 -7.636372e+001 -1.789343e+002 -1.546879e-001 1.328694e+002
560000000 -9.093089e-001 -1.594620e+002 -7.150174e+001 -3.876962e+001 -7.560612e+001 8.430097e+000 -1.545108e-001 1.328157e+002
560625000 -9.107533e-001 -1.597253e+002 -7.156115e+001 3.189231e+001 -7.666409e+001 6.252892e+001 -1.483180e-001 1.328590e+002
561250000 -9.167935e-001 -1.600911e+002 -8.198795e+001 -1.701361e+002 -7.971192e+001 1.005284e+002 -1.538273e-001 1.328442e+002
561875000 -9.252312e-001 -1.604151e+002 -7.729542e+001 6.292216e+001 -7.113871e+001 1.180374e+002 -1.630683e-001 1.328283e+002
562500000 -9.346237e-001 -1.607858e+002 -7.033720e+001 4.295652e+001 -7.356526e+001 6.499366e+001 -1.655307e-001 1.328419e+002
563125000 -9.347649e-001 -1.610902e+002 -6.991965e+001 6.036631e+001 -7.166315e+001 8.788959e+001 -1.526785e-001 1.327927e+002
563750000 -9.484743e-001 -1.614646e+002 -7.777537e+001 9.111923e+001 -7.065347e+001 9.644030e+001 -1.672165e-001 1.328242e+002
564375000 -9.589064e-001 -1.618768e+002 -7.546336e+001 8.558852e+001 -8.170027e+001 4.252023e+001 -1.622342e-001 1.327744e+002
565000000 -9.631574e-001 -1.622779e+002 -7.346253e+001 1.371458e+002 -7.496223e+001 6.867447e+001 -1.704207e-001 1.326744e+002
565625000 -9.789390e-001 -1.626807e+002 -7.259763e+001 1.110965e+002 -7.750954e+001 7.286109e+001 -1.775018e-001 1.325900e+002
566250000 -9.906273e-001 -1.631503e+002 -8.033266e+001 1.282637e+002 -7.497193e+001 1.629772e+002 -1.804726e-001 1.324816e+002
566875000 -1.013576e+000 -1.635545e+002 -7.611366e+001 1.479322e+002 -7.194894e+001 1.356638e+001 -1.779384e-001 1.323483e+002
567500000 -1.028370e+000 -1.640447e+002 -7.579622e+001 1.115670e+001 -7.794905e+001 -3.730647e+001 -1.836414e-001 1.322404e+002
568125000 -1.052038e+000 -1.643863e+002 -6.952148e+001 5.065394e+001 -7.668231e+001 1.125683e+002 -1.836349e-001 1.320903e+002
568750000 -1.061849e+000 -1.648027e+002 -7.857608e+001 -6.600549e+001 -7.901398e+001 1.563023e+002 -1.883719e-001 1.319339e+002
569375000 -1.077332e+000 -1.651924e+002 -7.738425e+001 3.872847e+001 -7.575436e+001 1.164322e+001 -1.813682e-001 1.318611e+002
570000000 -1.091893e+000 -1.655918e+002 -9.239537e+001 -1.446117e+002 -7.499842e+001 5.254716e+001 -1.857481e-001 1.316371e+002
570625000 -1.100856e+000 -1.659847e+002 -7.648988e+001 8.166190e+001 -8.267355e+001 1.061494e+002 -1.797215e-001 1.315125e+002
571250000 -1.112311e+000 -1.664086e+002 -8.230323e+001 -1.566772e+002 -7.762699e+001 1.677543e+002 -1.812527e-001 1.314370e+002
571875000 -1.122884e+000 -1.667868e+002 -7.868919e+001 3.944658e+001 -7.701472e+001 -3.031124e+000 -1.793955e-001 1.313296e+002
572500000 -1.131787e+000 -1.671771e+002 -7.636411e+001 3.122217e+001 -7.690612e+001 9.713111e+001 -1.770189e-001 1.312088e+002
573125000 -1.133886e+000 -1.675675e+002 -8.760131e+001 3.937180e+001 -8.167041e+001 6.809023e+001 -1.638535e-001 1.310739e+002
573750000 -1.138471e+000 -1.679560e+002 -8.204152e+001 9.141761e+001 -6.949286e+001 3.161713e+001 -1.730241e-001 1.310318e+002
574375000 -1.149854e+000 -1.683086e+002 -7.750111e+001 -2.350625e+001 -7.393168e+001 3.847406e+001 -1.584612e-001 1.310276e+002
575000000 -1.158127e+000 -1.687548e+002 -7.252474e+001 3.687929e+001 -8.647311e+001 -4.322535e+001 -1.743973e-001 1.309203e+002
575625000 -1.165279e+000 -1.691111e+002 -7.549225e+001 -9.822612e+000 -8.549107e+001 -5.963970e+001 -1.649056e-001 1.308889e+002
576250000 -1.173667e+000 -1.694699e+002 -7.247824e+001 3.909681e+000 -7.189494e+001 -7.411631e-001 -1.741661e-001 1.308625e+002
576875000 -1.176167e+000 -1.698723e+002 -7.464465e+001 -6.568131e+001 -8.666072e+001 -4.259021e+001 -1.642244e-001 1.308537e+002
577500000 -1.191287e+000 -1.702701e+002 -7.782996e+001 9.783630e+001 -7.351219e+001 8.749687e+001 -1.649384e-001 1.307742e+002
578125000 -1.202173e+000 -1.706311e+002 -8.248116e+001 3.488023e+001 -7.668127e+001 1.858019e+001 -1.666191e-001 1.308440e+002
578750000 -1.209273e+000 -1.710537e+002 -8.575402e+001 8.069873e+001 -7.952606e+001 -1.078245e+001 -1.639712e-001 1.307101e+002
579375000 -1.204824e+000 -1.714445e+002 -8.539023e+001 6.435701e+000 -7.697234e+001 1.422418e+001 -1.655046e-001 1.306895e+002
580000000 -1.216577e+000 -1.718757e+002 -7.323162e+001 -2.104425e+001 -8.317464e+001 2.731215e+001 -1.709028e-001 1.305976e+002
580625000 -1.225205e+000 -1.723263e+002 -7.399776e+001 -3.557424e+000 -9.248312e+001 1.405636e+002 -1.748938e-001 1.305824e+002
581250000 -1.236815e+000 -1.728006e+002 -7.494820e+001 1.400362e+002 -7.550252e+001 -2.523376e+001 -1.685926e-001 1.304948e+002
581875000 -1.254058e+000 -1.733036e+002 -8.026257e+001 -3.481631e+000 -7.461012e+001 1.018409e+002 -1.793701e-001 1.304406e+002
582500000 -1.271901e+000 -1.737456e+002 -8.119807e+001 1.007198e+002 -8.333829e+001 8.176024e+001 -1.711006e-001 1.303372e+002
583125000 -1.273009e+000 -1.743220e+002 -7.599985e+001 3.838005e+001 -7.832431e+001 -1.216187e+002 -1.806520e-001 1.301949e+002
583750000 -1.300492e+000 -1.749100e+002 -7.253384e+001 -1.372115e+001 -7.936826e+001 1.086380e+002 -1.883322e-001 1.301163e+002
584375000 -1.317100e+000 -1.754187e+002 -9.868415e+001 -8.097040e+001 -6.993892e+001 1.417354e+002 -1.695398e-001 1.299994e+002
585000000 -1.335258e+000 -1.759385e+002 -7.828613e+001 -4.314894e+001 -7.790602e+001 -9.813375e+001 -1.810729e-001 1.298929e+002
585625000 -1.370942e+000 -1.764738e+002 -7.603545e+001 7.313967e+001 -7.677718e+001 -2.246638e+001 -1.715392e-001 1.298276e+002
586250000 -1.384648e+000 -1.770099e+002 -7.872148e+001 -4.614641e+001 -7.980965e+001 -1.678523e+002 -1.751471e-001 1.298759e+002
586875000 -1.405239e+000 -1.775971e+002 -9.901687e+001 4.697701e+001 -7.350003e+001 -1.143736e+002 -1.708330e-001 1.296920e+002
587500000 -1.438645e+000 -1.780873e+002 -7.544665e+001 4.339803e+001 -7.969660e+001 8.652834e+001 -1.698779e-001 1.296023e+002
588125000 -1.455784e+000 -1.785759e+002 -7.638380e+001 4.948708e+001 -8.097980e+001 1.377297e+001 -1.650090e-001 1.295796e+002
588750000 -1.472170e+000 -1.791493e+002 -9.521048e+001 -1.227724e+002 -7.650886e+001 1.551800e+001 -1.641208e-001 1.295792e+002
589375000 -1.495310e+000 -1.796684e+002 -7.203709e+001 -2.258637e+001 -9.105805e+001 -1.547888e+002 -1.491545e-001 1.295094e+002
590000000 -1.521908e+000 1.797349e+002 -7.775697e+001 1.160099e+002 -8.526624e+001 1.443400e+002 -1.612713e-001 1.295718e+002
590625000 -1.549996e+000 1.791621e+002 -7.826996e+001 1.583712e+002 -7.859259e+001 1.048222e+002 -1.661879e-001 1.295300e+002
591250000 -1.588207e+000 1.786564e+002 -7.218388e+001 -1.793626e+001 -7.668872e+001 6.535062e+001 -1.589886e-001 1.295898e+002
591875000 -1.632199e+000 1.781806e+002 -8.922495e+001 -5.398838e+001 -7.221126e+001 -6.951314e+001 -1.573068e-001 1.295766e+002
592500000 -1.669870e+000 1.776763e+002 -9.146313e+001 -1.115153e+002 -7.682864e+001 1.426153e+002 -1.506995e-001 1.296160e+002
593125000 -1.708622e+000 1.772417e+002 -7.350684e+001 1.353762e+002 -8.338953e+001 -3.306987e+001 -1.562319e-001 1.296793e+002
593750000 -1.744599e+000 1.768420e+002 -8.987084e+001 -1.071120e+002 -7.527504e+001 -4.097300e+001 -1.545494e-001 1.297203e+002
594375000 -1.769605e+000 1.764217e+002 -7.633783e+001 7.655920e+001 -8.022861e+001 1.066217e+002 -1.492538e-001 1.297497e+002
595000000 -1.797881e+000 1.759613e+002 -7.702086e+001 1.485379e+002 -7.785977e+001 5.181540e+000 -1.700678e-001 1.297534e+002
595625000 -1.840666e+000 1.754546e+002 -7.169052e+001 2.167614e+001 -7.979374e+001 -3.955924e+001 -1.613437e-001 1.297372e+002
