!Agilent Technologies,E8364B,US42250235,A.06.04.32
!Agilent E8364B: A.06.04.32
!Date: Friday, January 15, 2021 14:53:02
!Correction: S11(Full 2 Port(1,2)) S21(Full 2 Port(1,2)) S12(Full 2 Port(1,2)) S22(Full 2 Port(1,2)) 
!S2P File: Measurements: S11, S21, S12, S22:
# Hz S  dB   R 50
500000000 -1.517889e-001 -1.299505e+002 -7.622450e+001 -3.661217e+001 -9.304364e+001 8.100651e+001 -1.324434e-001 1.385766e+002
500625000 -1.546554e-001 -1.302495e+002 -7.966588e+001 -8.115892e+001 -7.257650e+001 5.796699e+001 -1.386804e-001 1.385518e+002
501250000 -1.723911e-001 -1.305006e+002 -7.426563e+001 9.303036e+001 -8.181900e+001 8.554188e+001 -1.344888e-001 1.384955e+002
501875000 -1.697344e-001 -1.307946e+002 -7.314519e+001 1.610099e+002 -8.602091e+001 1.382820e+002 -1.186625e-001 1.384501e+002
502500000 -1.736333e-001 -1.310669e+002 -8.374474e+001 -5.548595e+001 -7.473167e+001 -9.551784e+001 -1.307382e-001 1.384617e+002
503125000 -1.781254e-001 -1.313481e+002 -7.744855e+001 1.215630e+002 -8.021594e+001 -1.348003e+002 -1.258937e-001 1.382968e+002
503750000 -1.817567e-001 -1.316224e+002 -7.301862e+001 -7.165424e+001 -8.399619e+001 8.454912e+001 -1.386414e-001 1.382406e+002
504375000 -1.873559e-001 -1.319543e+002 -8.041069e+001 -1.590483e+002 -7.591810e+001 -9.720119e+001 -1.444263e-001 1.382107e+002
505000000 -1.944846e-001 -1.322165e+002 -7.844495e+001 1.322259e+002 -7.834999e+001 -1.020767e+002 -1.404342e-001 1.382438e+002
505625000 -1.882334e-001 -1.324827e+002 -8.339314e+001 4.298588e+001 -7.417245e+001 -8.825485e+001 -1.439878e-001 1.380756e+002
506250000 -1.935836e-001 -1.327574e+002 -7.989779e+001 -4.745401e+001 -9.369993e+001 9.720134e+001 -1.526457e-001 1.379419e+002
506875000 -1.936664e-001 -1.330193e+002 -9.137827e+001 -1.329024e+002 -7.609750e+001 -6.933149e+001 -1.419579e-001 1.378564e+002
507500000 -1.968405e-001 -1.332817e+002 -7.183609e+001 1.553161e+002 -7.361102e+001 -1.458829e+002 -1.384123e-001 1.377681e+002
508125000 -2.035982e-001 -1.335597e+002 -7.779980e+001 -1.438914e+001 -7.551247e+001 -9.013922e+001 -1.375129e-001 1.376406e+002
508750000 -2.051462e-001 -1.337855e+002 -7.712294e+001 3.096778e+001 -8.167297e+001 1.686935e+002 -1.498689e-001 1.375246e+002
509375000 -2.054724e-001 -1.341245e+002 -7.520765e+001 -4.796387e+001 -7.201752e+001 -1.104218e+002 -1.458375e-001 1.374859e+002
510000000 -2.101811e-001 -1.344043e+002 -6.752766e+001 -1.784373e+002 -8.774129e+001 -1.768540e+002 -1.496268e-001 1.373057e+002
510625000 -2.114948e-001 -1.346313e+002 -7.440108e+001 7.441229e+001 -7.884318e+001 -3.254844e+001 -1.462833e-001 1.372337e+002
511250000 -2.210183e-001 -1.348711e+002 -7.833788e+001 -9.268603e+001 -7.957296e+001 -1.583530e+002 -1.548891e-001 1.369971e+002
511875000 -2.222153e-001 -1.351840e+002 -7.856345e+001 1.721608e+002 -8.943676e+001 -1.141566e+002 -1.422706e-001 1.369025e+002
512500000 -2.233327e-001 -1.353991e+002 -8.027946e+001 1.382811e+002 -8.189353e+001 1.211973e+002 -1.434079e-001 1.367991e+002
513125000 -2.352864e-001 -1.357297e+002 -8.321563e+001 -5.667314e+001 -7.157109e+001 1.713418e+002 -1.496140e-001 1.366721e+002
513750000 -2.415110e-001 -1.360398e+002 -7.240569e+001 -1.364292e+002 -7.573736e+001 7.739397e+001 -1.457866e-001 1.366193e+002
514375000 -2.489378e-001 -1.363260e+002 -7.809976e+001 -4.609666e+001 -6.891222e+001 1.579347e+002 -1.376398e-001 1.364672e+002
515000000 -2.599584e-001 -1.366001e+002 -7.274347e+001 -1.321187e+002 -8.451261e+001 6.317587e+001 -1.283143e-001 1.364639e+002
515625000 -2.674346e-001 -1.369395e+002 -8.119447e+001 -7.713919e+001 -9.019659e+001 -1.312451e+002 -1.336380e-001 1.363442e+002
516250000 -2.681609e-001 -1.372423e+002 -7.945650e+001 -1.718340e+002 -9.186380e+001 -1.227063e+002 -1.358190e-001 1.362885e+002
516875000 -2.840060e-001 -1.375904e+002 -7.517001e+001 -1.669002e+002 -8.084097e+001 1.543943e+002 -1.362242e-001 1.362813e+002
517500000 -2.840211e-001 -1.378525e+002 -8.269189e+001 -8.098490e+001 -7.240700e+001 9.593629e+000 -1.338038e-001 1.362142e+002
518125000 -2.980146e-001 -1.382284e+002 -7.514117e+001 -7.835690e+001 -7.248957e+001 -1.609182e+002 -1.303081e-001 1.361604e+002
518750000 -3.001928e-001 -1.385335e+002 -8.235310e+001 5.198399e+001 -8.515533e+001 -1.272115e+002 -1.336585e-001 1.362139e+002
519375000 -3.175276e-001 -1.387713e+002 -7.813422e+001 -7.496349e+001 -7.161520e+001 -1.718474e+002 -1.226377e-001 1.361427e+002
520000000 -3.138807e-001 -1.391364e+002 -7.484528e+001 1.533005e+001 -7.611719e+001 -7.082473e+001 -1.288639e-001 1.361570e+002
520625000 -3.224553e-001 -1.394594e+002 -7.565083e+001 -4.023641e+001 -7.344176e+001 1.789877e+002 -1.342128e-001 1.360623e+002
521250000 -3.216320e-001 -1.397545e+002 -7.843172e+001 5.813682e+001 -7.471212e+001 -3.590083e+001 -1.306397e-001 1.360662e+002
521875000 -3.227973e-001 -1.401034e+002 -7.842326e+001 -8.603278e+001 -7.088884e+001 -1.771136e+002 -1.278224e-001 1.360671e+002
522500000 -3.294735e-001 -1.403770e+002 -7.446212e+001 -4.739644e+000 -7.558315e+001 -9.331599e+001 -1.337020e-001 1.360149e+002
523125000 -3.290017e-001 -1.407074e+002 -8.489857e+001 1.578351e+002 -7.877462e+001 -6.454980e+001 -1.343907e-001 1.360235e+002
523750000 -3.279932e-001 -1.410058e+002 -7.378257e+001 -1.683262e+002 -7.278056e+001 1.593681e+002 -1.282335e-001 1.359596e+002
524375000 -3.423347e-001 -1.412843e+002 -8.238558e+001 -1.696808e+002 -7.435869e+001 -1.515260e+002 -1.261088e-001 1.359441e+002
525000000 -3.377303e-001 -1.415721e+002 -7.842960e+001 -1.550744e+002 -7.341782e+001 -1.447774e+002 -1.389578e-001 1.359093e+002
525625000 -3.480436e-001 -1.418300e+002 -8.089222e+001 -1.437809e+001 -7.932286e+001 -9.332439e+001 -1.371136e-001 1.358105e+002
526250000 -3.412449e-001 -1.421337e+002 -7.935644e+001 -3.081131e+001 -7.263843e+001 -1.640327e+002 -1.344155e-001 1.357769e+002
526875000 -3.555044e-001 -1.424053e+002 -8.555480e+001 -1.467951e+002 -7.901598e+001 -4.913086e+001 -1.375410e-001 1.357635e+002
527500000 -3.564388e-001 -1.426993e+002 -7.506375e+001 1.713776e+002 -7.610940e+001 -1.391516e+002 -1.366356e-001 1.356683e+002
528125000 -3.736249e-001 -1.429895e+002 -7.549281e+001 -1.130511e+002 -8.018538e+001 -8.763398e+001 -1.338815e-001 1.357218e+002
528750000 -3.665938e-001 -1.432842e+002 -7.962663e+001 1.612653e+002 -7.745571e+001 1.761494e+002 -1.339212e-001 1.357214e+002
529375000 -3.737046e-001 -1.435482e+002 -7.672906e+001 -1.617725e+002 -7.125833e+001 1.507388e+002 -1.393717e-001 1.356407e+002
530000000 -3.784831e-001 -1.439302e+002 -7.617992e+001 -9.652748e+001 -7.382331e+001 1.303336e+002 -1.436931e-001 1.355611e+002
530625000 -3.816298e-001 -1.442366e+002 -7.932034e+001 -1.795669e+002 -7.382682e+001 -1.534968e+002 -1.421859e-001 1.355391e+002
531250000 -3.932655e-001 -1.445383e+002 -6.795174e+001 1.367091e+002 -7.912711e+001 1.575931e+002 -1.369461e-001 1.354492e+002
531875000 -4.093087e-001 -1.448570e+002 -7.326351e+001 -1.659697e+002 -7.369633e+001 1.503712e+002 -1.395278e-001 1.354952e+002
532500000 -4.069255e-001 -1.451704e+002 -6.978817e+001 1.578307e+002 -7.219843e+001 6.685442e+001 -1.387587e-001 1.354460e+002
533125000 -4.066029e-001 -1.455542e+002 -7.946185e+001 9.417624e+000 -7.414194e+001 1.517972e+002 -1.411549e-001 1.354209e+002
533750000 -4.102648e-001 -1.458920e+002 -8.158821e+001 1.615247e+002 -7.205757e+001 -1.383471e+002 -1.549069e-001 1.354201e+002
534375000 -4.159740e-001 -1.462553e+002 -7.200788e+001 -1.595216e+002 -7.009375e+001 1.342623e+002 -1.405085e-001 1.353446e+002
535000000 -4.335848e-001 -1.466078e+002 -7.755128e+001 -1.758060e+002 -7.255462e+001 1.076558e+002 -1.482273e-001 1.352657e+002
535625000 -4.418145e-001 -1.469689e+002 -7.672105e+001 1.525516e+002 -7.135220e+001 -1.638962e+002 -1.428231e-001 1.352172e+002
536250000 -4.456641e-001 -1.473635e+002 -7.266025e+001 1.671805e+002 -7.497370e+001 1.281168e+002 -1.384921e-001 1.351117e+002
536875000 -4.556938e-001 -1.477237e+002 -7.305199e+001 1.020728e+002 -7.487155e+001 -1.321434e+002 -1.517683e-001 1.350403e+002
537500000 -4.629559e-001 -1.480098e+002 -6.721030e+001 1.064720e+002 -7.027179e+001 1.225369e+002 -1.429967e-001 1.350093e+002
538125000 -4.631872e-001 -1.483804e+002 -7.891898e+001 1.443326e+002 -6.881226e+001 1.211856e+002 -1.451603e-001 1.349693e+002
538750000 -4.780064e-001 -1.487479e+002 -7.166197e+001 1.443615e+002 -6.954113e+001 1.224284e+002 -1.297505e-001 1.348722e+002
539375000 -4.944260e-001 -1.490446e+002 -6.940538e+001 1.136714e+002 -6.697813e+001 1.313642e+002 -1.349231e-001 1.349018e+002
540000000 -4.892375e-001 -1.493869e+002 -7.475586e+001 -7.645617e+001 -7.667182e+001 -1.365204e+000 -1.388156e-001 1.347636e+002
540625000 -5.010971e-001 -1.497813e+002 -7.213264e+001 1.549443e+002 -7.653442e+001 7.530312e+001 -1.410038e-001 1.347015e+002
541250000 -5.058421e-001 -1.500084e+002 -7.545951e+001 5.695280e+001 -8.393832e+001 9.878295e+001 -1.338367e-001 1.347264e+002
541875000 -5.131846e-001 -1.503357e+002 -8.926786e+001 -8.551617e+001 -7.489112e+001 1.372091e+002 -1.422476e-001 1.346352e+002
542500000 -5.194248e-001 -1.506707e+002 -7.227678e+001 1.174600e+002 -7.241142e+001 -1.287172e+002 -1.308283e-001 1.346686e+002
543125000 -5.198996e-001 -1.510889e+002 -6.914146e+001 1.115759e+002 -7.450801e+001 1.593188e+002 -1.333206e-001 1.345868e+002
543750000 -5.290208e-001 -1.513796e+002 -7.684948e+001 6.654173e+001 -7.347174e+001 1.309858e+002 -1.324837e-001 1.346271e+002
544375000 -5.434520e-001 -1.517232e+002 -7.779139e+001 5.047252e+001 -7.021259e+001 9.473553e+001 -1.242276e-001 1.346061e+002
545000000 -5.428764e-001 -1.520487e+002 -7.757925e+001 1.181120e+002 -7.621963e+001 1.381814e+002 -1.298153e-001 1.346049e+002
545625000 -5.501045e-001 -1.524410e+002 -8.442289e+001 1.671297e+002 -7.794791e+001 -1.083746e+002 -1.259398e-001 1.346710e+002
546250000 -5.715911e-001 -1.527358e+002 -7.853564e+001 1.692757e+002 -7.066267e+001 6.673047e+001 -1.317077e-001 1.345800e+002
546875000 -5.775627e-001 -1.531449e+002 -9.394386e+001 4.759074e+000 -7.749746e+001 -9.502443e+001 -1.351506e-001 1.346352e+002
547500000 -5.963335e-001 -1.534867e+002 -7.786814e+001 6.649861e+001 -7.951060e+001 1.043820e+002 -1.367821e-001 1.346539e+002
548125000 -6.140337e-001 -1.538052e+002 -8.203621e+001 1.089875e+002 -7.618446e+001 8.352216e+001 -1.349533e-001 1.345843e+002
548750000 -6.260846e-001 -1.542294e+002 -7.368289e+001 6.173702e+001 -9.492133e+001 6.120623e+000 -1.400314e-001 1.345303e+002
549375000 -6.362019e-001 -1.545743e+002 -7.554112e+001 -4.074691e+001 -7.326844e+001 1.091888e+002 -1.509463e-001 1.344180e+002
550000000 -6.490060e-001 -1.549901e+002 -6.986487e+001 4.471985e+001 -7.145977e+001 3.275316e+001 -1.532518e-001 1.344184e+002
550625000 -6.581966e-001 -1.553266e+002 -7.788507e+001 2.104830e+001 -7.630824e+001 1.326799e+002 -1.488327e-001 1.343331e+002
551250000 -6.566275e-001 -1.556661e+002 -7.682677e+001 1.271580e+002 -8.157611e+001 -1.664135e+002 -1.544759e-001 1.342262e+002
551875000 -6.743982e-001 -1.560716e+002 -7.835888e+001 1.506887e+001 -8.468875e+001 -1.517365e+002 -1.565518e-001 1.341235e+002
552500000 -6.870362e-001 -1.564479e+002 -8.367198e+001 -9.208987e+001 -7.988350e+001 3.302133e+000 -1.608631e-001 1.339646e+002
553125000 -6.823063e-001 -1.568356e+002 -8.096117e+001 1.673685e+001 -7.022449e+001 9.479222e+001 -1.622472e-001 1.339097e+002
553750000 -7.017608e-001 -1.572526e+002 -7.349406e+001 7.421450e+001 -7.787080e+001 4.650101e+001 -1.655957e-001 1.337160e+002
554375000 -7.105517e-001 -1.575706e+002 -8.066389e+001 7.804355e+001 -7.807549e+001 7.518597e+001 -1.629789e-001 1.336087e+002
555000000 -7.137698e-001 -1.579884e+002 -8.346901e+001 8.201993e+001 -7.045439e+001 6.173489e+001 -1.623962e-001 1.335224e+002
555625000 -7.347963e-001 -1.583509e+002 -7.076024e+001 6.319663e+001 -8.386588e+001 3.257900e+001 -1.568571e-001 1.334633e+002
556250000 -7.410523e-001 -1.587566e+002 -7.200949e+001 1.311194e+002 -7.506519e+001 1.453245e+001 -1.494020e-001 1.332960e+002
556875000 -7.499719e-001 -1.591697e+002 -8.242486e+001 -3.090520e+001 -7.703520e+001 1.475771e+002 -1.578567e-001 1.332700e+002
557500000 -7.662064e-001 -1.594985e+002 -7.361986e+001 8.965790e+001 -7.079459e+001 1.354955e+002 -1.396050e-001 1.331918e+002
558125000 -7.758424e-001 -1.598962e+002 -7.685271e+001 -2.718487e+001 -7.363519e+001 9.519006e+001 -1.517215e-001 1.331814e+002
558750000 -7.914363e-001 -1.602669e+002 -7.415699e+001 5.024139e+001 -7.450440e+001 2.717662e+001 -1.475103e-001 1.331431e+002
559375000 -8.094000e-001 -1.606550e+002 -6.840730e+001 1.181071e+002 -7.265765e+001 9.222887e+001 -1.410712e-001 1.330989e+002
560000000 -8.293545e-001 -1.609955e+002 -7.899878e+001 -5.248957e+001 -8.712939e+001 7.201292e+001 -1.341650e-001 1.330270e+002
560625000 -8.389454e-001 -1.613489e+002 -7.623147e+001 7.508840e+001 -7.784432e+001 -1.594229e+002 -1.345578e-001 1.330715e+002
561250000 -8.579424e-001 -1.617292e+002 -7.924350e+001 -1.428674e+002 -7.922222e+001 -6.703968e+001 -1.370142e-001 1.330360e+002
561875000 -8.797642e-001 -1.621201e+002 -8.104770e+001 4.754557e+001 -8.471941e+001 1.567658e+002 -1.452050e-001 1.330500e+002
562500000 -8.909035e-001 -1.624787e+002 -7.243401e+001 6.175450e+001 -7.683220e+001 9.929846e+001 -1.416896e-001 1.330791e+002
563125000 -9.056958e-001 -1.628289e+002 -7.856795e+001 1.578351e+002 -7.046731e+001 -1.442604e+002 -1.319207e-001 1.330596e+002
563750000 -9.305676e-001 -1.633175e+002 -7.181715e+001 -1.632030e+002 -8.386755e+001 1.145129e+002 -1.539298e-001 1.329950e+002
564375000 -9.500555e-001 -1.636941e+002 -7.706551e+001 -1.620947e+002 -7.633365e+001 1.588773e+002 -1.512467e-001 1.329746e+002
565000000 -9.732093e-001 -1.642028e+002 -7.783340e+001 -6.384206e+001 -7.113776e+001 1.210493e+002 -1.544266e-001 1.328765e+002
565625000 -9.989905e-001 -1.645956e+002 -7.721110e+001 1.696357e+002 -9.118484e+001 -6.776210e+001 -1.619675e-001 1.328466e+002
566250000 -1.028517e+000 -1.650801e+002 -7.087007e+001 1.217680e+002 -7.772168e+001 1.503844e+002 -1.661135e-001 1.326914e+002
566875000 -1.063446e+000 -1.655121e+002 -6.900191e+001 1.622553e+002 -8.795377e+001 3.277750e+001 -1.647024e-001 1.325691e+002
567500000 -1.098397e+000 -1.660247e+002 -7.299942e+001 1.185271e+002 -9.033168e+001 1.481798e+002 -1.638474e-001 1.324242e+002
568125000 -1.144784e+000 -1.663939e+002 -7.802099e+001 6.755345e+001 -7.351601e+001 -1.007414e+002 -1.723397e-001 1.322942e+002
568750000 -1.172536e+000 -1.667853e+002 -7.813015e+001 1.369231e+002 -7.319163e+001 1.260068e+002 -1.673836e-001 1.321479e+002
569375000 -1.202444e+000 -1.671841e+002 -7.379321e+001 1.553094e+002 -6.827864e+001 1.285636e+002 -1.696460e-001 1.319921e+002
570000000 -1.234123e+000 -1.675585e+002 -7.346268e+001 8.195492e+001 -7.255552e+001 1.381437e+002 -1.649819e-001 1.318151e+002
570625000 -1.258630e+000 -1.679391e+002 -6.639642e+001 1.129575e+002 -8.081530e+001 9.635062e+001 -1.626154e-001 1.317036e+002
571250000 -1.282493e+000 -1.682949e+002 -6.915780e+001 9.092534e+001 -7.144770e+001 1.259397e+002 -1.606902e-001 1.316502e+002
571875000 -1.312643e+000 -1.686097e+002 -7.107619e+001 1.060225e+002 -6.829469e+001 8.465005e+001 -1.640571e-001 1.314898e+002
572500000 -1.340146e+000 -1.689942e+002 -7.235162e+001 1.237817e+002 -6.982127e+001 7.922441e+001 -1.659677e-001 1.313838e+002
573125000 -1.365784e+000 -1.693261e+002 -7.231849e+001 1.344979e+002 -7.185395e+001 1.326076e+002 -1.456070e-001 1.313147e+002
573750000 -1.380668e+000 -1.696155e+002 -7.179925e+001 6.666861e+001 -7.006470e+001 1.181655e+002 -1.629561e-001 1.312273e+002
574375000 -1.403110e+000 -1.699010e+002 -7.511300e+001 1.649595e+002 -7.667509e+001 6.335604e+001 -1.479735e-001 1.312296e+002
575000000 -1.422605e+000 -1.702647e+002 -7.676031e+001 9.155238e+001 -7.279800e+001 4.095572e+001 -1.532764e-001 1.311566e+002
575625000 -1.429402e+000 -1.706075e+002 -6.655978e+001 6.730381e+001 -7.428135e+001 8.545168e+001 -1.588910e-001 1.310846e+002
576250000 -1.449589e+000 -1.709436e+002 -7.015308e+001 1.216819e+002 -7.725912e+001 7.009471e+001 -1.535483e-001 1.310948e+002
576875000 -1.460466e+000 -1.712856e+002 -7.153502e+001 1.106308e+002 -7.319447e+001 8.415712e+001 -1.494415e-001 1.310652e+002
577500000 -1.498818e+000 -1.715912e+002 -7.027431e+001 1.096403e+002 -8.180978e+001 1.323313e+002 -1.552598e-001 1.310179e+002
578125000 -1.521161e+000 -1.719361e+002 -6.830959e+001 1.090430e+002 -7.576606e+001 3.465746e+001 -1.515843e-001 1.310153e+002
578750000 -1.545506e+000 -1.723089e+002 -6.988710e+001 8.637109e+001 -6.991940e+001 9.738664e+001 -1.555884e-001 1.309426e+002
579375000 -1.561723e+000 -1.726622e+002 -7.640144e+001 1.521040e+002 -7.580280e+001 5.492937e+000 -1.560390e-001 1.309177e+002
580000000 -1.586390e+000 -1.729586e+002 -7.142601e+001 5.595209e+001 -6.841593e+001 8.053947e+001 -1.461534e-001 1.308547e+002
580625000 -1.606219e+000 -1.733425e+002 -6.361873e+001 7.605937e+001 -6.781598e+001 1.026363e+002 -1.505726e-001 1.308225e+002
581250000 -1.628493e+000 -1.736390e+002 -6.599973e+001 7.799517e+001 -6.860573e+001 9.656316e+001 -1.512812e-001 1.307568e+002
581875000 -1.652827e+000 -1.740589e+002 -7.016368e+001 1.058375e+002 -7.350245e+001 1.716415e+002 -1.667514e-001 1.306948e+002
582500000 -1.680705e+000 -1.744273e+002 -7.626055e+001 1.279353e+002 -7.355389e+001 7.123546e+001 -1.641907e-001 1.305424e+002
583125000 -1.701944e+000 -1.749499e+002 -7.235454e+001 1.895727e+001 -7.557979e+001 8.276468e+001 -1.739534e-001 1.304487e+002
583750000 -1.734923e+000 -1.753661e+002 -6.686660e+001 1.059294e+002 -6.939632e+001 5.705029e+001 -1.730664e-001 1.303067e+002
584375000 -1.758737e+000 -1.758211e+002 -7.256770e+001 9.102010e+001 -7.284745e+001 7.521991e+001 -1.630577e-001 1.302526e+002
585000000 -1.792567e+000 -1.762409e+002 -6.828017e+001 7.253941e+001 -7.620897e+001 6.868442e+001 -1.636520e-001 1.301833e+002
585625000 -1.845971e+000 -1.766207e+002 -7.498264e+001 7.846815e+001 -7.146575e+001 4.539495e+001 -1.543218e-001 1.300178e+002
586250000 -1.871469e+000 -1.770356e+002 -7.201978e+001 5.775933e+001 -6.889838e+001 8.804511e+001 -1.496937e-001 1.300854e+002
586875000 -1.900822e+000 -1.773902e+002 -6.952219e+001 7.377600e+001 -6.813673e+001 7.042540e+001 -1.521783e-001 1.299449e+002
587500000 -1.930996e+000 -1.777706e+002 -7.083116e+001 5.681614e+001 -7.642249e+001 6.605897e+001 -1.487086e-001 1.298465e+002
588125000 -1.959809e+000 -1.780996e+002 -7.356064e+001 5.829091e+001 -7.106144e+001 2.977517e+001 -1.479762e-001 1.298468e+002
588750000 -1.984246e+000 -1.784569e+002 -6.731078e+001 7.922497e+001 -9.055202e+001 -6.964866e+001 -1.527438e-001 1.298040e+002
589375000 -2.002600e+000 -1.787825e+002 -7.267242e+001 4.458811e+001 -7.047325e+001 4.236780e+001 -1.478695e-001 1.297428e+002
590000000 -2.030569e+000 -1.791648e+002 -6.682220e+001 6.350340e+001 -7.042274e+001 -4.138811e-001 -1.483616e-001 1.297993e+002
590625000 -2.050285e+000 -1.795380e+002 -7.703893e+001 7.556913e+001 -6.951591e+001 5.378588e+001 -1.381132e-001 1.297677e+002
591250000 -2.084054e+000 -1.798423e+002 -6.692358e+001 3.698708e+001 -7.706457e+001 8.270038e+001 -1.366415e-001 1.297727e+002
591875000 -2.113363e+000 1.798186e+002 -7.023748e+001 5.237648e+001 -7.077651e+001 9.839153e+001 -1.411258e-001 1.298422e+002
592500000 -2.141367e+000 1.794897e+002 -6.679761e+001 5.654747e+001 -7.061533e+001 6.805016e+001 -1.315930e-001 1.298837e+002
593125000 -2.179745e+000 1.791847e+002 -6.989606e+001 6.762458e+001 -7.573360e+001 5.680243e+001 -1.394213e-001 1.299148e+002
593750000 -2.211273e+000 1.788822e+002 -6.892182e+001 6.583568e+001 -7.139603e+001 6.533202e+001 -1.344342e-001 1.299699e+002
594375000 -2.242090e+000 1.786486e+002 -6.429818e+001 5.302262e+001 -6.719315e+001 4.381618e+001 -1.331862e-001 1.300125e+002
595000000 -2.273012e+000 1.783436e+002 -6.991987e+001 5.106015e+001 -7.024598e+001 2.393902e+001 -1.540653e-001 1.300017e+002
595625000 -2.299986e+000 1.780534e+002 -6.937711e+001 5.735188e+001 -7.019669e+001 8.433486e+000 -1.465161e-001 1.299809e+002
