!Agilent Technologies,E8364B,US42250235,A.06.04.32
!Agilent E8364B: A.06.04.32
!Date: Friday, January 15, 2021 14:42:31
!Correction: S11(Full 2 Port(1,2)) S21(Full 2 Port(1,2)) S12(Full 2 Port(1,2)) S22(Full 2 Port(1,2)) 
!S2P File: Measurements: S11, S21, S12, S22:
# Hz S  dB   R 50
500000000 -1.413236e-001 -1.296955e+002 -7.097428e+001 -8.276688e+001 -8.258564e+001 1.446760e+002 -1.431228e-001 1.382512e+002
500625000 -1.430333e-001 -1.299606e+002 -7.824886e+001 -1.343173e+002 -7.046268e+001 -9.520111e+001 -1.510715e-001 1.382317e+002
501250000 -1.511984e-001 -1.302586e+002 -6.967506e+001 -5.503112e+001 -7.466177e+001 2.278969e+001 -1.524706e-001 1.381977e+002
501875000 -1.495366e-001 -1.305660e+002 -7.314727e+001 -1.090925e+002 -7.404312e+001 -1.330744e+002 -1.423965e-001 1.381521e+002
502500000 -1.544504e-001 -1.308300e+002 -7.975587e+001 9.030019e+001 -6.793233e+001 -3.683634e+001 -1.443689e-001 1.381277e+002
503125000 -1.680908e-001 -1.311284e+002 -7.981882e+001 1.177422e+002 -7.462319e+001 -1.354984e+002 -1.526829e-001 1.380121e+002
503750000 -1.547034e-001 -1.314221e+002 -7.972520e+001 -9.514185e+001 -7.640396e+001 -1.669924e+002 -1.489789e-001 1.378685e+002
504375000 -1.663696e-001 -1.317001e+002 -8.535165e+001 7.700999e+001 -7.980470e+001 -1.046950e+002 -1.579964e-001 1.378509e+002
505000000 -1.672283e-001 -1.319510e+002 -6.958173e+001 -8.114899e+001 -7.298218e+001 1.589026e+001 -1.559820e-001 1.377735e+002
505625000 -1.666085e-001 -1.322205e+002 -7.862105e+001 -3.871429e+001 -7.334140e+001 -9.799519e+001 -1.553146e-001 1.376647e+002
506250000 -1.679649e-001 -1.325625e+002 -8.257175e+001 3.525836e+001 -7.541264e+001 -1.042099e+002 -1.703602e-001 1.375442e+002
506875000 -1.655484e-001 -1.328085e+002 -7.732384e+001 -1.757380e+002 -7.821403e+001 -5.629623e+001 -1.606198e-001 1.374165e+002
507500000 -1.679821e-001 -1.331130e+002 -6.967667e+001 1.768575e+002 -7.748450e+001 1.130722e+000 -1.593992e-001 1.373228e+002
508125000 -1.644811e-001 -1.334006e+002 -7.369188e+001 -9.699591e+001 -8.526601e+001 -1.735420e+002 -1.641028e-001 1.371517e+002
508750000 -1.683761e-001 -1.336099e+002 -7.546391e+001 -1.268480e+002 -7.425182e+001 -1.280851e+002 -1.630390e-001 1.370806e+002
509375000 -1.797640e-001 -1.339142e+002 -8.592164e+001 3.708439e+001 -6.847955e+001 -5.484295e+001 -1.575559e-001 1.369587e+002
510000000 -1.681916e-001 -1.342486e+002 -8.394067e+001 -1.278024e+002 -7.485902e+001 -6.573528e+001 -1.650588e-001 1.368354e+002
510625000 -1.835237e-001 -1.344455e+002 -7.852885e+001 -1.598034e+002 -7.569335e+001 -9.775028e+000 -1.474637e-001 1.368548e+002
511250000 -1.835676e-001 -1.347153e+002 -6.918241e+001 -1.158533e+002 -7.298640e+001 -7.943764e+001 -1.649758e-001 1.366833e+002
511875000 -1.820183e-001 -1.350763e+002 -8.375403e+001 -1.235791e+002 -7.386526e+001 -3.738236e+001 -1.530589e-001 1.365332e+002
512500000 -1.843378e-001 -1.353555e+002 -7.213719e+001 1.713708e+002 -7.454499e+001 1.795103e+002 -1.499381e-001 1.364892e+002
513125000 -1.933924e-001 -1.356231e+002 -7.863397e+001 -8.053986e+001 -6.983214e+001 -8.626934e+001 -1.532360e-001 1.364057e+002
513750000 -2.003676e-001 -1.359039e+002 -9.287167e+001 -4.623217e+001 -7.571374e+001 -1.002740e+002 -1.602660e-001 1.363258e+002
514375000 -2.055797e-001 -1.361891e+002 -7.601936e+001 -6.581261e+001 -7.747405e+001 -1.085036e+002 -1.527842e-001 1.362049e+002
515000000 -2.119107e-001 -1.364908e+002 -7.474862e+001 -3.252809e+001 -7.911820e+001 -1.021553e+002 -1.480415e-001 1.361136e+002
515625000 -2.215457e-001 -1.369093e+002 -7.126663e+001 -1.317481e+002 -7.668211e+001 -9.985743e+001 -1.530777e-001 1.360823e+002
516250000 -2.255032e-001 -1.371179e+002 -7.039893e+001 1.597437e+002 -7.564392e+001 -4.804036e+001 -1.649884e-001 1.359666e+002
516875000 -2.332840e-001 -1.374643e+002 -7.290337e+001 -8.988316e+001 -7.836004e+001 -7.008760e+001 -1.542905e-001 1.359392e+002
517500000 -2.320464e-001 -1.378380e+002 -8.330349e+001 1.691602e+002 -8.382297e+001 4.730406e+001 -1.548782e-001 1.358233e+002
518125000 -2.387000e-001 -1.381699e+002 -8.049899e+001 -8.243147e+001 -7.056284e+001 -1.330597e+001 -1.546464e-001 1.357583e+002
518750000 -2.540365e-001 -1.384986e+002 -7.387894e+001 9.601333e+000 -7.677340e+001 -1.611634e+002 -1.541123e-001 1.357830e+002
519375000 -2.639548e-001 -1.387643e+002 -9.426406e+001 1.532774e+002 -7.215372e+001 -1.457257e+002 -1.444250e-001 1.356832e+002
520000000 -2.598891e-001 -1.390873e+002 -7.708775e+001 -1.022378e+002 -7.571243e+001 -5.767654e+001 -1.531303e-001 1.356551e+002
520625000 -2.640468e-001 -1.394159e+002 -7.132410e+001 -1.537724e+002 -7.889242e+001 -6.321099e+001 -1.468291e-001 1.355381e+002
521250000 -2.751256e-001 -1.397543e+002 -7.450492e+001 -1.660226e+002 -6.979144e+001 -7.265789e+001 -1.476858e-001 1.355230e+002
521875000 -2.682534e-001 -1.400666e+002 -6.829631e+001 -1.058982e+002 -8.413528e+001 -4.776188e+001 -1.359894e-001 1.355205e+002
522500000 -2.733889e-001 -1.403625e+002 -8.024067e+001 -6.966879e+001 -7.412846e+001 7.389925e+001 -1.435526e-001 1.354471e+002
523125000 -2.824111e-001 -1.406864e+002 -7.293557e+001 -1.100471e+002 -6.960564e+001 -9.491972e+001 -1.460328e-001 1.354427e+002
523750000 -2.769086e-001 -1.409815e+002 -7.532649e+001 -1.454793e+002 -6.779787e+001 -1.376080e+002 -1.358794e-001 1.354855e+002
524375000 -2.840331e-001 -1.413372e+002 -8.380914e+001 -1.607178e+002 -7.152174e+001 -1.132562e+002 -1.335358e-001 1.354064e+002
525000000 -2.868641e-001 -1.416450e+002 -7.588174e+001 1.625546e+002 -7.426241e+001 -1.097682e+002 -1.481760e-001 1.354409e+002
525625000 -2.986318e-001 -1.418808e+002 -7.050621e+001 1.684740e+002 -7.308993e+001 -7.869994e+001 -1.490569e-001 1.353956e+002
526250000 -2.916932e-001 -1.421915e+002 -8.659479e+001 9.824287e+001 -7.029346e+001 -6.547315e+001 -1.398670e-001 1.353970e+002
526875000 -3.017881e-001 -1.424924e+002 -7.359115e+001 -1.033310e+002 -7.484918e+001 -1.025687e+002 -1.354271e-001 1.353818e+002
527500000 -2.999710e-001 -1.427847e+002 -7.223165e+001 -9.834673e+001 -8.530788e+001 -2.268102e+001 -1.360321e-001 1.353394e+002
528125000 -3.240494e-001 -1.430591e+002 -7.043766e+001 1.656631e+002 -7.361602e+001 1.793477e+002 -1.547232e-001 1.354064e+002
528750000 -3.193718e-001 -1.433632e+002 -8.377611e+001 9.612134e+001 -8.183935e+001 1.582875e+002 -1.482653e-001 1.354213e+002
529375000 -3.221301e-001 -1.436817e+002 -7.548015e+001 -1.687499e+002 -7.041526e+001 -4.364331e+001 -1.484475e-001 1.353616e+002
530000000 -3.327432e-001 -1.440563e+002 -7.023613e+001 -1.521228e+002 -7.130950e+001 -1.665813e+002 -1.554641e-001 1.353031e+002
530625000 -3.378744e-001 -1.443476e+002 -9.119618e+001 1.993027e+001 -7.156293e+001 -1.043634e+002 -1.504141e-001 1.351987e+002
531250000 -3.402927e-001 -1.446878e+002 -7.344555e+001 -1.499066e+002 -7.117697e+001 -1.368291e+002 -1.452760e-001 1.351724e+002
531875000 -3.550021e-001 -1.450273e+002 -7.562386e+001 6.537723e+001 -7.241595e+001 -8.643893e+001 -1.560908e-001 1.350704e+002
532500000 -3.523353e-001 -1.453099e+002 -7.851147e+001 -1.129980e+002 -7.257930e+001 1.722796e+002 -1.549469e-001 1.349997e+002
533125000 -3.547624e-001 -1.456690e+002 -7.579067e+001 -1.132234e+002 -6.920422e+001 -1.286095e+002 -1.622879e-001 1.349668e+002
533750000 -3.651882e-001 -1.460688e+002 -8.118311e+001 1.732595e+002 -7.146381e+001 -1.321003e+002 -1.772106e-001 1.348248e+002
534375000 -3.650165e-001 -1.464216e+002 -7.375888e+001 -1.540592e+002 -6.936623e+001 -1.539524e+002 -1.654096e-001 1.347661e+002
535000000 -3.778098e-001 -1.467464e+002 -7.001156e+001 -8.179313e+001 -7.422598e+001 -1.259254e+002 -1.591837e-001 1.347288e+002
535625000 -3.825546e-001 -1.471163e+002 -7.260475e+001 1.620816e+002 -7.169141e+001 -1.469130e+002 -1.552753e-001 1.346275e+002
536250000 -3.853960e-001 -1.474578e+002 -7.101383e+001 1.703288e+002 -6.906116e+001 -1.747002e+002 -1.473573e-001 1.345501e+002
536875000 -3.954589e-001 -1.478972e+002 -7.525984e+001 -1.676138e+002 -7.042898e+001 1.763073e+002 -1.602377e-001 1.344554e+002
537500000 -3.994972e-001 -1.482120e+002 -7.120270e+001 -1.707405e+002 -7.145213e+001 -1.516852e+002 -1.491149e-001 1.344646e+002
538125000 -4.023083e-001 -1.486446e+002 -8.059396e+001 1.699437e+002 -7.523779e+001 -1.352421e+002 -1.480913e-001 1.344894e+002
538750000 -4.161618e-001 -1.490064e+002 -7.185124e+001 -1.366112e+002 -7.420869e+001 1.123398e+002 -1.483607e-001 1.343773e+002
539375000 -4.300727e-001 -1.493120e+002 -6.969100e+001 -1.226785e+002 -6.955633e+001 -1.799085e+002 -1.401684e-001 1.344251e+002
540000000 -4.332998e-001 -1.497100e+002 -8.524283e+001 -1.280718e+002 -6.987035e+001 -1.184619e+002 -1.406042e-001 1.343525e+002
540625000 -4.404051e-001 -1.501363e+002 -7.328602e+001 -1.368516e+002 -6.901751e+001 -1.490915e+002 -1.480932e-001 1.343554e+002
541250000 -4.455174e-001 -1.503848e+002 -6.442004e+001 1.729932e+002 -7.336823e+001 1.779415e+002 -1.361652e-001 1.343627e+002
541875000 -4.596831e-001 -1.507833e+002 -7.031071e+001 -1.411213e+002 -6.902672e+001 -1.619754e+002 -1.408445e-001 1.343368e+002
542500000 -4.667025e-001 -1.510974e+002 -6.918841e+001 -1.585757e+002 -7.563120e+001 -1.782687e+002 -1.326050e-001 1.343291e+002
543125000 -4.680243e-001 -1.514514e+002 -6.908030e+001 -1.637889e+002 -7.311093e+001 -1.337993e+002 -1.336419e-001 1.343011e+002
543750000 -4.841970e-001 -1.518051e+002 -7.167271e+001 1.274498e+002 -7.149084e+001 1.464045e+002 -1.463838e-001 1.343661e+002
544375000 -4.951948e-001 -1.521278e+002 -6.988487e+001 -1.345211e+002 -7.217356e+001 1.797274e+002 -1.434381e-001 1.343249e+002
545000000 -4.991741e-001 -1.524849e+002 -6.896401e+001 -1.746684e+002 -6.919650e+001 1.692244e+002 -1.475162e-001 1.343005e+002
545625000 -5.075443e-001 -1.528620e+002 -7.029247e+001 -1.674673e+002 -7.366080e+001 -1.660394e+002 -1.531149e-001 1.343358e+002
546250000 -5.314672e-001 -1.532058e+002 -7.139856e+001 -1.681989e+002 -6.891089e+001 -1.793200e+002 -1.574069e-001 1.342209e+002
546875000 -5.409638e-001 -1.535623e+002 -6.764877e+001 1.608214e+002 -6.868927e+001 1.487988e+002 -1.577490e-001 1.342528e+002
547500000 -5.597473e-001 -1.539295e+002 -6.938899e+001 1.641289e+002 -6.902365e+001 1.604179e+002 -1.576413e-001 1.341740e+002
548125000 -5.734919e-001 -1.542450e+002 -6.638429e+001 1.298434e+002 -6.842778e+001 1.561673e+002 -1.515912e-001 1.341133e+002
548750000 -5.898385e-001 -1.546827e+002 -7.127368e+001 1.496411e+002 -7.270100e+001 1.611597e+002 -1.620609e-001 1.340272e+002
549375000 -6.041473e-001 -1.550316e+002 -6.792930e+001 1.675263e+002 -6.989723e+001 -1.727141e+002 -1.684468e-001 1.338292e+002
550000000 -6.113364e-001 -1.553964e+002 -6.906842e+001 1.476099e+002 -7.145316e+001 1.562324e+002 -1.726799e-001 1.339058e+002
550625000 -6.245503e-001 -1.558000e+002 -7.235149e+001 1.492768e+002 -7.430630e+001 -1.754128e+002 -1.698536e-001 1.337888e+002
551250000 -6.327913e-001 -1.561556e+002 -7.046248e+001 1.228461e+002 -6.782996e+001 -1.779045e+002 -1.684260e-001 1.336779e+002
551875000 -6.447284e-001 -1.565421e+002 -6.741576e+001 1.211670e+002 -7.011877e+001 1.648123e+002 -1.686284e-001 1.335714e+002
552500000 -6.591613e-001 -1.569549e+002 -6.823584e+001 1.396124e+002 -6.753072e+001 1.627214e+002 -1.638185e-001 1.334930e+002
553125000 -6.625407e-001 -1.572974e+002 -7.112155e+001 1.711489e+002 -7.291542e+001 1.661210e+002 -1.694959e-001 1.334503e+002
553750000 -6.837578e-001 -1.576962e+002 -7.075968e+001 1.156247e+002 -7.191885e+001 1.421990e+002 -1.658656e-001 1.332771e+002
554375000 -6.975590e-001 -1.580624e+002 -7.006432e+001 1.546326e+002 -6.807173e+001 1.412585e+002 -1.667081e-001 1.332667e+002
555000000 -7.040966e-001 -1.584966e+002 -7.468377e+001 -1.692246e+002 -6.752636e+001 1.702863e+002 -1.717348e-001 1.331523e+002
555625000 -7.209885e-001 -1.588526e+002 -7.165826e+001 1.178808e+002 -7.074780e+001 1.538290e+002 -1.574268e-001 1.331208e+002
556250000 -7.316291e-001 -1.592641e+002 -7.296554e+001 1.189070e+002 -7.431098e+001 1.628098e+002 -1.658030e-001 1.329938e+002
556875000 -7.312939e-001 -1.596255e+002 -6.983127e+001 1.525821e+002 -6.678305e+001 1.409496e+002 -1.788749e-001 1.329803e+002
557500000 -7.597627e-001 -1.599987e+002 -6.352646e+001 1.214107e+002 -6.572852e+001 1.660179e+002 -1.649531e-001 1.328650e+002
558125000 -7.703249e-001 -1.603606e+002 -6.473383e+001 1.548314e+002 -6.584281e+001 1.500488e+002 -1.665897e-001 1.328960e+002
558750000 -7.718304e-001 -1.607299e+002 -6.577731e+001 1.328063e+002 -6.829700e+001 1.235513e+002 -1.609556e-001 1.327956e+002
559375000 -7.928506e-001 -1.611622e+002 -6.704839e+001 1.425672e+002 -6.792371e+001 1.476595e+002 -1.605695e-001 1.327600e+002
560000000 -8.101244e-001 -1.614665e+002 -6.308282e+001 1.161142e+002 -6.601448e+001 1.430872e+002 -1.554549e-001 1.326385e+002
560625000 -8.280690e-001 -1.618366e+002 -6.736240e+001 7.902133e+001 -6.639811e+001 1.282194e+002 -1.560395e-001 1.326595e+002
561250000 -8.420350e-001 -1.622006e+002 -7.124148e+001 1.067913e+002 -6.963605e+001 1.156849e+002 -1.562066e-001 1.325957e+002
561875000 -8.575224e-001 -1.626523e+002 -6.438243e+001 1.078331e+002 -6.544293e+001 1.376329e+002 -1.638103e-001 1.325775e+002
562500000 -8.737881e-001 -1.629572e+002 -6.700817e+001 9.572508e+001 -6.902857e+001 1.264418e+002 -1.621276e-001 1.325351e+002
563125000 -8.877604e-001 -1.633266e+002 -6.613404e+001 9.334778e+001 -6.524860e+001 1.242097e+002 -1.590640e-001 1.325143e+002
563750000 -9.138696e-001 -1.638278e+002 -6.769707e+001 8.048208e+001 -6.787305e+001 1.079946e+002 -1.675691e-001 1.325062e+002
564375000 -9.373222e-001 -1.642340e+002 -6.798173e+001 1.141622e+002 -7.112367e+001 1.435750e+002 -1.695487e-001 1.324287e+002
565000000 -9.645424e-001 -1.647011e+002 -6.435442e+001 9.736653e+001 -6.882043e+001 1.033538e+002 -1.656317e-001 1.323505e+002
565625000 -9.872845e-001 -1.651266e+002 -6.626759e+001 8.562251e+001 -7.258526e+001 1.041861e+002 -1.715625e-001 1.322853e+002
566250000 -1.011425e+000 -1.656048e+002 -6.513477e+001 5.654284e+001 -7.339656e+001 1.171899e+002 -1.734822e-001 1.321803e+002
566875000 -1.048091e+000 -1.660600e+002 -6.369650e+001 6.683010e+001 -7.004053e+001 1.047395e+002 -1.770709e-001 1.320663e+002
567500000 -1.080714e+000 -1.665521e+002 -6.400984e+001 1.003993e+002 -6.868027e+001 7.312051e+001 -1.708397e-001 1.320368e+002
568125000 -1.118976e+000 -1.669848e+002 -6.482770e+001 9.388235e+001 -6.694463e+001 4.039590e+001 -1.794243e-001 1.319067e+002
568750000 -1.134832e+000 -1.673687e+002 -6.786979e+001 1.036268e+002 -6.819760e+001 9.550377e+001 -1.794186e-001 1.317401e+002
569375000 -1.173371e+000 -1.678327e+002 -6.642879e+001 9.212246e+001 -7.955392e+001 1.077254e+002 -1.717217e-001 1.316948e+002
570000000 -1.200606e+000 -1.682869e+002 -6.875780e+001 5.600861e+001 -6.960854e+001 1.129737e+002 -1.791099e-001 1.315101e+002
570625000 -1.232034e+000 -1.686926e+002 -6.677517e+001 5.692944e+001 -6.662139e+001 1.070779e+002 -1.781918e-001 1.314360e+002
571250000 -1.260702e+000 -1.690938e+002 -6.869094e+001 1.033677e+002 -6.908101e+001 1.229666e+002 -1.818725e-001 1.313344e+002
571875000 -1.296871e+000 -1.694286e+002 -7.183337e+001 9.790155e+001 -7.732754e+001 9.579641e+001 -1.755816e-001 1.312344e+002
572500000 -1.323049e+000 -1.698096e+002 -7.147022e+001 1.134737e+002 -7.092422e+001 9.634795e+001 -1.785146e-001 1.310774e+002
573125000 -1.354506e+000 -1.701820e+002 -7.392869e+001 6.073929e+001 -6.929254e+001 9.138227e+001 -1.720220e-001 1.309902e+002
573750000 -1.370608e+000 -1.705314e+002 -7.397945e+001 6.223984e+001 -6.921763e+001 1.059065e+002 -1.764584e-001 1.308803e+002
574375000 -1.395189e+000 -1.708408e+002 -6.374860e+001 9.874030e+001 -6.783462e+001 8.900178e+001 -1.764313e-001 1.308154e+002
575000000 -1.413355e+000 -1.712332e+002 -6.756612e+001 5.339413e+001 -7.094647e+001 1.224709e+002 -1.713254e-001 1.307027e+002
575625000 -1.432186e+000 -1.716014e+002 -6.914909e+001 8.436236e+001 -7.104793e+001 8.442055e+001 -1.782794e-001 1.306273e+002
576250000 -1.459506e+000 -1.719640e+002 -6.913876e+001 7.054948e+001 -6.805862e+001 7.535992e+001 -1.758288e-001 1.305359e+002
576875000 -1.488153e+000 -1.723540e+002 -6.414185e+001 3.436683e+001 -6.701524e+001 7.686182e+001 -1.741959e-001 1.305202e+002
577500000 -1.524944e+000 -1.727081e+002 -6.920398e+001 7.169265e+001 -7.055678e+001 1.032928e+002 -1.707794e-001 1.304423e+002
578125000 -1.560763e+000 -1.730490e+002 -6.621592e+001 7.253419e+001 -6.814542e+001 7.767992e+001 -1.679703e-001 1.304762e+002
578750000 -1.587290e+000 -1.734008e+002 -6.550163e+001 6.847975e+001 -6.774588e+001 1.101541e+002 -1.598855e-001 1.303613e+002
579375000 -1.614672e+000 -1.737085e+002 -7.070708e+001 1.097368e+002 -7.432861e+001 1.167189e+002 -1.608926e-001 1.303352e+002
580000000 -1.639534e+000 -1.740066e+002 -6.599372e+001 4.678639e+001 -7.564339e+001 9.276299e+001 -1.573336e-001 1.302760e+002
580625000 -1.662755e+000 -1.742933e+002 -7.210797e+001 7.075552e+001 -6.966742e+001 1.292909e+002 -1.569955e-001 1.302509e+002
581250000 -1.695387e+000 -1.746990e+002 -6.750961e+001 1.018662e+002 -6.951547e+001 1.021634e+002 -1.655536e-001 1.302151e+002
581875000 -1.719876e+000 -1.751089e+002 -6.954394e+001 7.756609e+001 -6.936625e+001 7.971656e+001 -1.579340e-001 1.301931e+002
582500000 -1.753861e+000 -1.754834e+002 -6.607469e+001 6.205114e+001 -7.350454e+001 6.951118e+001 -1.605127e-001 1.301553e+002
583125000 -1.778099e+000 -1.760787e+002 -6.985326e+001 4.215710e+001 -6.984748e+001 7.015776e+001 -1.722851e-001 1.300295e+002
583750000 -1.819201e+000 -1.764780e+002 -6.767003e+001 5.493489e+001 -7.092341e+001 9.434544e+001 -1.750266e-001 1.299543e+002
584375000 -1.851410e+000 -1.769032e+002 -7.085849e+001 2.279187e+001 -7.264922e+001 7.393509e+001 -1.679675e-001 1.299475e+002
585000000 -1.889521e+000 -1.773592e+002 -6.638048e+001 7.021867e+001 -7.186839e+001 1.024310e+002 -1.754801e-001 1.298168e+002
585625000 -1.933621e+000 -1.778236e+002 -6.870968e+001 8.023801e+001 -6.542610e+001 9.394711e+001 -1.680579e-001 1.297590e+002
586250000 -1.973701e+000 -1.782137e+002 -7.017725e+001 9.717952e+001 -6.781200e+001 9.315331e+001 -1.736486e-001 1.297277e+002
586875000 -2.011833e+000 -1.786380e+002 -6.425922e+001 6.424933e+001 -7.043124e+001 6.317659e+001 -1.733415e-001 1.296026e+002
587500000 -2.062085e+000 -1.790100e+002 -6.343097e+001 5.266315e+001 -7.101605e+001 8.860716e+001 -1.679624e-001 1.295169e+002
588125000 -2.102816e+000 -1.793490e+002 -6.757117e+001 3.721915e+001 -6.884737e+001 5.301138e+001 -1.691799e-001 1.294755e+002
588750000 -2.135297e+000 -1.796581e+002 -6.731536e+001 7.023994e+001 -7.125528e+001 4.424251e+001 -1.716391e-001 1.293607e+002
589375000 -2.165097e+000 1.799429e+002 -6.611436e+001 5.339397e+001 -6.750679e+001 7.173592e+001 -1.637193e-001 1.292872e+002
590000000 -2.204337e+000 1.796429e+002 -6.750323e+001 3.843070e+001 -6.831358e+001 4.142301e+001 -1.642573e-001 1.293290e+002
590625000 -2.240914e+000 1.793451e+002 -7.598878e+001 3.757995e+001 -6.899731e+001 5.973020e+001 -1.593826e-001 1.292145e+002
591250000 -2.282148e+000 1.790191e+002 -6.640874e+001 5.162951e+001 -6.797751e+001 5.381305e+001 -1.616680e-001 1.292496e+002
591875000 -2.316795e+000 1.787569e+002 -6.821859e+001 3.704382e+001 -6.428622e+001 4.864577e+001 -1.567177e-001 1.292587e+002
592500000 -2.350888e+000 1.784702e+002 -6.375143e+001 5.896296e+001 -6.824540e+001 5.007773e+001 -1.542273e-001 1.293025e+002
593125000 -2.393708e+000 1.782474e+002 -6.673268e+001 3.929128e+001 -6.891560e+001 6.877039e+001 -1.549503e-001 1.293445e+002
593750000 -2.435507e+000 1.779601e+002 -6.209265e+001 4.031814e+001 -6.616264e+001 5.143264e+001 -1.441301e-001 1.293524e+002
594375000 -2.461331e+000 1.777639e+002 -6.524546e+001 3.090922e+001 -6.567374e+001 3.293522e+001 -1.456121e-001 1.294705e+002
595000000 -2.501351e+000 1.775800e+002 -6.496172e+001 4.381942e+001 -6.724837e+001 5.950732e+001 -1.622135e-001 1.294421e+002
595625000 -2.519158e+000 1.772984e+002 -7.057040e+001 2.541444e+001 -6.648132e+001 4.648802e+001 -1.496413e-001 1.294867e+002
