!Agilent Technologies,E8364B,US42250235,A.06.04.32
!Agilent E8364B: A.06.04.32
!Date: Friday, January 15, 2021 14:49:12
!Correction: S11(Full 2 Port(1,2)) S21(Full 2 Port(1,2)) S12(Full 2 Port(1,2)) S22(Full 2 Port(1,2)) 
!S2P File: Measurements: S11, S21, S12, S22:
# Hz S  dB   R 50
500000000 -1.371791e-001 -1.297550e+002 -8.239091e+001 8.657083e+001 -7.377053e+001 9.538030e+000 -1.279440e-001 1.385377e+002
500625000 -1.376447e-001 -1.300159e+002 -7.861225e+001 -9.126151e+001 -8.582516e+001 -1.101093e+002 -1.394395e-001 1.385067e+002
501250000 -1.445035e-001 -1.302793e+002 -7.259628e+001 1.351044e+002 -7.375414e+001 9.270448e+000 -1.280762e-001 1.384405e+002
501875000 -1.411848e-001 -1.305536e+002 -7.183202e+001 -1.149272e+002 -7.614247e+001 9.170253e+001 -1.241959e-001 1.383744e+002
502500000 -1.468139e-001 -1.308581e+002 -7.023177e+001 -1.574181e+001 -7.178704e+001 1.036832e+001 -1.286677e-001 1.383978e+002
503125000 -1.525677e-001 -1.311727e+002 -7.186074e+001 1.425689e+002 -7.902531e+001 4.030374e+001 -1.374831e-001 1.382020e+002
503750000 -1.561836e-001 -1.314156e+002 -8.124330e+001 -1.714765e+002 -7.082018e+001 9.608814e+000 -1.345751e-001 1.381708e+002
504375000 -1.594926e-001 -1.317020e+002 -8.285451e+001 1.185635e+001 -7.571728e+001 -4.451944e+001 -1.478024e-001 1.381363e+002
505000000 -1.571336e-001 -1.320257e+002 -7.363575e+001 -4.490973e+001 -7.813179e+001 -1.205179e+002 -1.423209e-001 1.381284e+002
505625000 -1.547827e-001 -1.322529e+002 -7.789732e+001 1.070437e+001 -7.460645e+001 -4.262993e+001 -1.395716e-001 1.379478e+002
506250000 -1.633238e-001 -1.326117e+002 -8.018188e+001 1.225764e+002 -7.715284e+001 -6.017520e+001 -1.456570e-001 1.378811e+002
506875000 -1.567566e-001 -1.329030e+002 -7.848265e+001 1.165510e+002 -7.494167e+001 -7.503498e+001 -1.423968e-001 1.377730e+002
507500000 -1.579890e-001 -1.331605e+002 -6.984262e+001 -3.782104e+001 -7.019273e+001 1.199584e+002 -1.487267e-001 1.376522e+002
508125000 -1.626999e-001 -1.334502e+002 -7.813185e+001 -9.420708e+000 -7.186460e+001 -2.828078e+001 -1.551481e-001 1.375661e+002
508750000 -1.556872e-001 -1.337182e+002 -7.721568e+001 4.169575e+001 -7.555598e+001 8.420830e+000 -1.488017e-001 1.373831e+002
509375000 -1.654929e-001 -1.340620e+002 -7.568076e+001 -9.954305e+001 -7.824088e+001 1.706618e+002 -1.531837e-001 1.373319e+002
510000000 -1.664505e-001 -1.343492e+002 -7.317266e+001 -5.902393e+001 -7.769049e+001 7.809679e+001 -1.532254e-001 1.372503e+002
510625000 -1.714725e-001 -1.345735e+002 -7.713864e+001 1.254474e+002 -8.497802e+001 -3.200798e+001 -1.410604e-001 1.371417e+002
511250000 -1.736735e-001 -1.348427e+002 -8.422784e+001 1.186395e+001 -7.483782e+001 3.248034e+001 -1.523412e-001 1.368875e+002
511875000 -1.736502e-001 -1.351987e+002 -6.911294e+001 3.524841e+001 -7.614671e+001 -5.856575e+001 -1.435606e-001 1.368289e+002
512500000 -1.747711e-001 -1.354339e+002 -8.413760e+001 -1.515249e+002 -7.502373e+001 1.770677e+002 -1.400491e-001 1.367220e+002
513125000 -1.880075e-001 -1.357227e+002 -8.151073e+001 6.024944e+001 -7.690913e+001 -3.526452e+001 -1.470335e-001 1.366479e+002
513750000 -1.917629e-001 -1.360285e+002 -9.566623e+001 -1.228337e+001 -7.550061e+001 -2.841645e+001 -1.504299e-001 1.365163e+002
514375000 -2.034975e-001 -1.363708e+002 -9.091840e+001 -1.556415e+002 -8.165504e+001 -9.535072e+001 -1.429872e-001 1.364168e+002
515000000 -2.125521e-001 -1.366753e+002 -8.679151e+001 -1.819995e+000 -7.852651e+001 -6.532310e-001 -1.335095e-001 1.363649e+002
515625000 -2.195408e-001 -1.370070e+002 -7.497118e+001 1.299981e+002 -6.972221e+001 3.645505e+001 -1.332714e-001 1.362661e+002
516250000 -2.175530e-001 -1.372581e+002 -8.785798e+001 3.637156e+001 -8.324402e+001 -1.065253e+002 -1.401580e-001 1.361916e+002
516875000 -2.410046e-001 -1.376110e+002 -9.084020e+001 -4.406571e+001 -7.459010e+001 -3.057847e+001 -1.279314e-001 1.362297e+002
517500000 -2.404693e-001 -1.378924e+002 -7.322246e+001 1.381053e+002 -7.600095e+001 -4.844029e+001 -1.323019e-001 1.361887e+002
518125000 -2.385950e-001 -1.382748e+002 -8.038461e+001 -2.944950e+001 -7.358735e+001 -1.022812e+002 -1.312501e-001 1.360825e+002
518750000 -2.524309e-001 -1.385880e+002 -7.428294e+001 -1.171343e+001 -8.847947e+001 1.354651e+001 -1.303685e-001 1.361051e+002
519375000 -2.642285e-001 -1.388846e+002 -7.889866e+001 1.016255e+001 -7.099516e+001 -1.187074e+002 -1.242446e-001 1.360867e+002
520000000 -2.596733e-001 -1.392217e+002 -7.856329e+001 -2.974909e+001 -7.114461e+001 -9.499192e+001 -1.312612e-001 1.360067e+002
520625000 -2.721515e-001 -1.395622e+002 -7.564344e+001 8.663377e+001 -7.079661e+001 6.323542e+001 -1.349477e-001 1.359930e+002
521250000 -2.718022e-001 -1.398555e+002 -7.461874e+001 -3.587142e+001 -7.254195e+001 -6.844242e+000 -1.351624e-001 1.359765e+002
521875000 -2.742682e-001 -1.402408e+002 -7.628608e+001 -8.320679e+000 -8.331420e+001 5.511695e+001 -1.231771e-001 1.360619e+002
522500000 -2.728955e-001 -1.405245e+002 -8.496937e+001 1.018972e+002 -7.430959e+001 -3.810544e+001 -1.296488e-001 1.359797e+002
523125000 -2.828818e-001 -1.408596e+002 -7.300574e+001 -4.266594e+000 -7.439606e+001 -1.653604e+001 -1.323498e-001 1.359345e+002
523750000 -2.797257e-001 -1.411916e+002 -7.878333e+001 7.914760e+001 -7.910407e+001 -1.682119e+002 -1.360443e-001 1.359294e+002
524375000 -2.879289e-001 -1.415075e+002 -7.705914e+001 -4.314036e+001 -8.179202e+001 -1.251612e+002 -1.330970e-001 1.358602e+002
525000000 -2.862285e-001 -1.418435e+002 -7.310146e+001 3.503057e+001 -7.468288e+001 2.278954e+001 -1.339911e-001 1.358510e+002
525625000 -2.942867e-001 -1.420398e+002 -7.221482e+001 2.105571e+001 -7.233208e+001 -1.384024e+002 -1.436704e-001 1.357979e+002
526250000 -2.921269e-001 -1.423927e+002 -7.948874e+001 -5.695646e+001 -7.242456e+001 -1.150991e+002 -1.402609e-001 1.357627e+002
526875000 -2.989598e-001 -1.427544e+002 -7.557597e+001 -1.079872e+002 -7.535598e+001 -7.772083e+001 -1.366150e-001 1.357079e+002
527500000 -3.128127e-001 -1.430249e+002 -7.162026e+001 1.628401e+001 -7.127040e+001 1.088720e+002 -1.348012e-001 1.356437e+002
528125000 -3.270888e-001 -1.433345e+002 -6.823779e+001 1.211790e+001 -7.997873e+001 1.017276e+002 -1.405694e-001 1.356356e+002
528750000 -3.247706e-001 -1.436217e+002 -7.796876e+001 -1.413834e+002 -8.298890e+001 9.262471e+001 -1.404854e-001 1.356917e+002
529375000 -3.232165e-001 -1.440137e+002 -7.470814e+001 1.495013e+002 -8.330162e+001 3.735255e+001 -1.323371e-001 1.355296e+002
530000000 -3.337153e-001 -1.443466e+002 -7.696842e+001 1.056941e+002 -7.948808e+001 -6.454720e+001 -1.360903e-001 1.355495e+002
530625000 -3.466265e-001 -1.446214e+002 -8.377572e+001 1.261814e+002 -7.976617e+001 -7.984299e+001 -1.354112e-001 1.354522e+002
531250000 -3.532600e-001 -1.449703e+002 -8.140012e+001 1.482694e+002 -8.976189e+001 -4.284579e+001 -1.258324e-001 1.354278e+002
531875000 -3.716085e-001 -1.452957e+002 -8.059406e+001 -1.509558e+002 -7.354201e+001 3.364288e+001 -1.470014e-001 1.353924e+002
532500000 -3.776665e-001 -1.455567e+002 -6.988689e+001 4.746876e+001 -8.022803e+001 5.776349e+001 -1.344275e-001 1.353809e+002
533125000 -3.847681e-001 -1.460148e+002 -7.338117e+001 -2.635505e+001 -7.249364e+001 1.292464e+002 -1.479062e-001 1.353455e+002
533750000 -3.923117e-001 -1.463981e+002 -9.065182e+001 -9.026871e+001 -7.273360e+001 -1.282917e+002 -1.567364e-001 1.353038e+002
534375000 -3.973096e-001 -1.467549e+002 -8.086005e+001 -1.370779e+002 -7.791676e+001 -7.948344e+001 -1.341408e-001 1.352225e+002
535000000 -4.044722e-001 -1.470986e+002 -8.284464e+001 8.084641e+001 -8.253263e+001 -1.334114e+002 -1.446321e-001 1.351602e+002
535625000 -4.190519e-001 -1.474639e+002 -8.091487e+001 -5.849590e+001 -7.448528e+001 -5.130237e+001 -1.380449e-001 1.351357e+002
536250000 -4.292679e-001 -1.478686e+002 -7.647852e+001 1.768690e+002 -7.791451e+001 -6.262556e+001 -1.447708e-001 1.350436e+002
536875000 -4.424510e-001 -1.482243e+002 -7.994342e+001 9.223059e+001 -7.485559e+001 -9.909451e+001 -1.486003e-001 1.349748e+002
537500000 -4.479435e-001 -1.485474e+002 -7.488251e+001 -3.719837e+001 -7.249580e+001 -1.925728e+001 -1.369585e-001 1.349430e+002
538125000 -4.589835e-001 -1.489742e+002 -7.273051e+001 -8.704960e+001 -7.130057e+001 -7.946866e+000 -1.512640e-001 1.349277e+002
538750000 -4.665044e-001 -1.493447e+002 -7.631593e+001 1.894726e+001 -8.065342e+001 -1.189779e+002 -1.411950e-001 1.348233e+002
539375000 -4.896936e-001 -1.497274e+002 -7.965437e+001 -1.105515e+002 -7.670337e+001 -8.491649e+001 -1.385318e-001 1.347969e+002
540000000 -4.904957e-001 -1.500590e+002 -7.739656e+001 8.809901e+001 -7.596785e+001 -9.296323e+001 -1.382014e-001 1.347287e+002
540625000 -5.011377e-001 -1.504587e+002 -8.373276e+001 1.463323e+002 -7.665933e+001 1.764674e+002 -1.373119e-001 1.346843e+002
541250000 -5.123712e-001 -1.507280e+002 -7.934299e+001 -4.497894e+001 -7.294325e+001 -1.321251e+002 -1.314499e-001 1.346722e+002
541875000 -5.311124e-001 -1.510662e+002 -7.427563e+001 -3.894033e+001 -9.532458e+001 -9.572832e+001 -1.461023e-001 1.345658e+002
542500000 -5.472501e-001 -1.514027e+002 -6.872676e+001 6.167453e+000 -7.476838e+001 -2.499747e+001 -1.369469e-001 1.346199e+002
543125000 -5.544800e-001 -1.517616e+002 -7.602255e+001 2.713004e+001 -7.285098e+001 1.404019e+002 -1.274165e-001 1.345319e+002
543750000 -5.580747e-001 -1.520735e+002 -9.299481e+001 -1.520396e+002 -7.034712e+001 -2.333724e+001 -1.362543e-001 1.345761e+002
544375000 -5.885165e-001 -1.523580e+002 -7.154525e+001 -1.723441e+002 -7.222631e+001 7.674383e+001 -1.335714e-001 1.345539e+002
545000000 -5.936873e-001 -1.527161e+002 -7.574223e+001 -4.592041e+001 -6.930512e+001 -1.818956e+001 -1.231680e-001 1.345532e+002
545625000 -6.101555e-001 -1.530782e+002 -9.681686e+001 5.423929e+001 -7.438302e+001 -7.899818e+001 -1.288536e-001 1.346059e+002
546250000 -6.335704e-001 -1.534327e+002 -7.072166e+001 -9.151546e+001 -8.385918e+001 -1.102377e+002 -1.340132e-001 1.345563e+002
546875000 -6.507683e-001 -1.537953e+002 -7.504090e+001 7.944009e+001 -7.609000e+001 -1.228240e+002 -1.418707e-001 1.345989e+002
547500000 -6.668205e-001 -1.541445e+002 -7.307918e+001 -9.858396e+001 -8.091195e+001 4.989538e+001 -1.428737e-001 1.345362e+002
548125000 -6.912196e-001 -1.544420e+002 -8.120712e+001 -4.347088e+000 -7.595090e+001 9.823438e+001 -1.370021e-001 1.344839e+002
548750000 -7.060604e-001 -1.548237e+002 -8.379845e+001 1.497613e+000 -8.658262e+001 -4.893425e+001 -1.435650e-001 1.344926e+002
549375000 -7.242571e-001 -1.551489e+002 -7.462576e+001 -1.652511e+002 -7.693429e+001 -6.062618e+001 -1.485735e-001 1.343101e+002
550000000 -7.402941e-001 -1.554941e+002 -7.899160e+001 5.894666e+001 -7.090913e+001 -1.168814e+002 -1.538234e-001 1.343256e+002
550625000 -7.501693e-001 -1.558368e+002 -7.282518e+001 -1.695703e+002 -7.423898e+001 -1.294604e+002 -1.613827e-001 1.342586e+002
551250000 -7.626458e-001 -1.561797e+002 -7.134792e+001 5.246022e+001 -8.557152e+001 -8.334389e+001 -1.577767e-001 1.341607e+002
551875000 -7.745419e-001 -1.565687e+002 -7.454365e+001 -1.371370e+002 -7.307977e+001 1.464911e+002 -1.549979e-001 1.340130e+002
552500000 -7.895359e-001 -1.569539e+002 -7.281789e+001 4.442259e+001 -8.224217e+001 -6.473183e+000 -1.611900e-001 1.339003e+002
553125000 -7.973155e-001 -1.572943e+002 -7.485797e+001 1.177784e+002 -7.523414e+001 -2.705198e+001 -1.662004e-001 1.337965e+002
553750000 -8.166059e-001 -1.577058e+002 -8.204639e+001 -1.212809e+002 -7.550691e+001 6.246111e+001 -1.598231e-001 1.336350e+002
554375000 -8.311940e-001 -1.580158e+002 -8.000398e+001 -1.256666e+002 -7.659402e+001 -1.211070e+002 -1.640276e-001 1.335433e+002
555000000 -8.393570e-001 -1.583503e+002 -7.607603e+001 7.613725e+001 -8.042764e+001 -1.715596e+002 -1.587087e-001 1.334444e+002
555625000 -8.612027e-001 -1.586701e+002 -7.411211e+001 1.183262e+002 -8.096819e+001 1.796379e+002 -1.452539e-001 1.334216e+002
556250000 -8.719324e-001 -1.590811e+002 -8.186788e+001 -8.839591e+001 -7.661459e+001 -3.412460e+000 -1.546384e-001 1.332762e+002
556875000 -8.814379e-001 -1.594686e+002 -8.028547e+001 -1.501710e+002 -8.095435e+001 -2.083190e+001 -1.614903e-001 1.332408e+002
557500000 -9.039303e-001 -1.597128e+002 -8.210741e+001 1.608723e+002 -7.624434e+001 -5.596098e+001 -1.545788e-001 1.331200e+002
558125000 -9.146878e-001 -1.600858e+002 -7.804166e+001 1.505253e+002 -7.509434e+001 3.635196e+001 -1.523683e-001 1.330898e+002
558750000 -9.322466e-001 -1.604641e+002 -7.677433e+001 3.977686e+000 -7.214936e+001 -6.924191e+001 -1.443367e-001 1.330359e+002
559375000 -9.574726e-001 -1.608432e+002 -7.703313e+001 4.839023e+001 -7.313858e+001 -3.267652e+001 -1.425507e-001 1.330417e+002
560000000 -9.839522e-001 -1.611921e+002 -9.521233e+001 -6.462579e+001 -8.325522e+001 8.865570e+001 -1.338611e-001 1.329922e+002
560625000 -1.006277e+000 -1.614734e+002 -7.386703e+001 -1.164201e+001 -7.461866e+001 -4.106421e+001 -1.267883e-001 1.330128e+002
561250000 -1.026320e+000 -1.617925e+002 -7.460209e+001 -2.489384e-001 -8.762260e+001 1.613630e+002 -1.360361e-001 1.329434e+002
561875000 -1.046740e+000 -1.621478e+002 -7.904939e+001 -5.389116e+001 -7.831371e+001 -9.563727e+000 -1.407882e-001 1.329735e+002
562500000 -1.072729e+000 -1.624683e+002 -8.469203e+001 -2.755983e+001 -7.429203e+001 -8.039321e+001 -1.409554e-001 1.329686e+002
563125000 -1.091618e+000 -1.627569e+002 -8.564293e+001 -6.954364e+000 -7.059113e+001 -1.991270e+001 -1.385444e-001 1.329999e+002
563750000 -1.120559e+000 -1.631026e+002 -7.998338e+001 -6.778841e+001 -7.818759e+001 -6.344148e+001 -1.559217e-001 1.329119e+002
564375000 -1.146551e+000 -1.635028e+002 -7.574817e+001 -1.209522e+002 -7.983042e+001 6.678033e+001 -1.517025e-001 1.329047e+002
565000000 -1.169591e+000 -1.638834e+002 -7.145214e+001 -6.493412e+001 -7.008412e+001 -4.382009e+001 -1.493319e-001 1.328329e+002
565625000 -1.197612e+000 -1.641850e+002 -7.353432e+001 -7.844749e+001 -7.441431e+001 -1.344829e+002 -1.588763e-001 1.327711e+002
566250000 -1.226553e+000 -1.646351e+002 -7.520207e+001 -4.181816e+001 -9.864864e+001 1.597529e+002 -1.709928e-001 1.326565e+002
566875000 -1.258870e+000 -1.649543e+002 -8.616669e+001 6.661922e+001 -7.380772e+001 -9.225097e+001 -1.614638e-001 1.324923e+002
567500000 -1.297089e+000 -1.653372e+002 -7.649805e+001 8.373193e-001 -7.745973e+001 -2.850728e+001 -1.671119e-001 1.323310e+002
568125000 -1.322280e+000 -1.656344e+002 -6.967733e+001 -1.007947e+001 -7.490612e+001 1.755028e+001 -1.675541e-001 1.322548e+002
568750000 -1.352239e+000 -1.659083e+002 -7.301476e+001 -7.193642e+001 -7.842484e+001 7.464896e+001 -1.736459e-001 1.321008e+002
569375000 -1.378464e+000 -1.662897e+002 -7.055579e+001 -5.701833e+001 -7.339548e+001 -2.537040e+001 -1.726742e-001 1.319863e+002
570000000 -1.404458e+000 -1.666247e+002 -7.057296e+001 -4.231049e+001 -8.170840e+001 2.101661e+001 -1.707127e-001 1.317823e+002
570625000 -1.416766e+000 -1.669054e+002 -6.877467e+001 -8.672703e+001 -6.944720e+001 -7.343816e+001 -1.667272e-001 1.316729e+002
571250000 -1.446612e+000 -1.671750e+002 -6.880377e+001 -1.355823e+002 -7.158043e+001 -7.141736e+001 -1.658150e-001 1.315420e+002
571875000 -1.463370e+000 -1.674503e+002 -7.831451e+001 -1.484651e+002 -7.238226e+001 -1.009043e+002 -1.556485e-001 1.314572e+002
572500000 -1.483330e+000 -1.677091e+002 -7.505271e+001 -8.271709e+001 -7.050960e+001 -1.058469e+002 -1.608668e-001 1.313145e+002
573125000 -1.487031e+000 -1.679484e+002 -8.029896e+001 -1.434825e+002 -8.108575e+001 -1.794364e+002 -1.452708e-001 1.312397e+002
573750000 -1.493137e+000 -1.682487e+002 -6.558745e+001 -3.082602e+001 -7.331888e+001 -4.488862e+001 -1.554561e-001 1.311621e+002
574375000 -1.505975e+000 -1.685811e+002 -7.153575e+001 -5.774023e+001 -7.327027e+001 -8.318922e+001 -1.503312e-001 1.311827e+002
575000000 -1.515094e+000 -1.688937e+002 -7.128965e+001 -7.484498e+001 -7.261295e+001 -9.072364e+001 -1.487453e-001 1.310911e+002
575625000 -1.520730e+000 -1.692163e+002 -6.885751e+001 -9.225011e+001 -7.403093e+001 -1.359295e+002 -1.505167e-001 1.310516e+002
576250000 -1.540674e+000 -1.694949e+002 -7.153861e+001 -1.167011e+002 -8.257811e+001 -5.092733e+001 -1.559872e-001 1.310404e+002
576875000 -1.552608e+000 -1.697837e+002 -7.465285e+001 -1.767458e+002 -9.159015e+001 -7.515478e+001 -1.501866e-001 1.310081e+002
577500000 -1.577205e+000 -1.700778e+002 -7.005087e+001 -1.380495e+002 -6.898331e+001 -1.163521e+002 -1.443418e-001 1.309428e+002
578125000 -1.579692e+000 -1.703646e+002 -7.592567e+001 -1.051436e+002 -6.983975e+001 -8.680794e+001 -1.403223e-001 1.309778e+002
578750000 -1.589840e+000 -1.706322e+002 -8.059933e+001 -8.748051e+001 -7.192024e+001 -1.018468e+002 -1.386238e-001 1.309238e+002
579375000 -1.590622e+000 -1.709402e+002 -6.892677e+001 -4.993858e+001 -7.440929e+001 -1.142948e+002 -1.492462e-001 1.308471e+002
580000000 -1.589363e+000 -1.712555e+002 -7.151112e+001 -1.033334e+002 -7.395244e+001 -1.523063e+002 -1.521550e-001 1.308206e+002
580625000 -1.606387e+000 -1.716506e+002 -7.224639e+001 -1.202872e+002 -7.878318e+001 -1.119150e+002 -1.513857e-001 1.307459e+002
581250000 -1.621579e+000 -1.720289e+002 -7.121246e+001 -1.626575e+002 -7.550232e+001 1.368628e+002 -1.529092e-001 1.307030e+002
581875000 -1.631157e+000 -1.724231e+002 -7.772012e+001 -8.816866e+001 -6.856688e+001 -9.561123e+001 -1.568175e-001 1.306547e+002
582500000 -1.645060e+000 -1.728891e+002 -7.200060e+001 -8.113751e+001 -7.130589e+001 -1.289760e+002 -1.516584e-001 1.305214e+002
583125000 -1.661839e+000 -1.733524e+002 -7.138199e+001 -1.238880e+002 -7.224339e+001 -4.827339e+001 -1.612634e-001 1.303380e+002
583750000 -1.694776e+000 -1.738068e+002 -7.308401e+001 -7.305766e+001 -7.888462e+001 -6.674473e+001 -1.711868e-001 1.302800e+002
584375000 -1.718194e+000 -1.742301e+002 -8.067632e+001 -3.690498e+000 -7.968304e+001 -7.839867e+001 -1.651708e-001 1.301570e+002
585000000 -1.746004e+000 -1.745715e+002 -7.015138e+001 -9.099373e+001 -7.480280e+001 -5.130222e+001 -1.585945e-001 1.300534e+002
585625000 -1.777635e+000 -1.749433e+002 -7.187698e+001 -1.276695e+002 -7.656271e+001 -1.260122e+002 -1.565377e-001 1.299792e+002
586250000 -1.793060e+000 -1.753705e+002 -7.593440e+001 -6.121060e+001 -7.475163e+001 -3.973971e+001 -1.539224e-001 1.299922e+002
586875000 -1.805518e+000 -1.757508e+002 -7.351197e+001 -6.208810e+001 -6.911353e+001 -7.018255e+001 -1.580598e-001 1.298736e+002
587500000 -1.832567e+000 -1.761057e+002 -7.645029e+001 -1.146215e+002 -7.518104e+001 -7.326910e+001 -1.538382e-001 1.297482e+002
588125000 -1.845138e+000 -1.764608e+002 -6.775471e+001 -1.321520e+002 -6.718399e+001 -8.075448e+001 -1.508233e-001 1.297315e+002
588750000 -1.861232e+000 -1.767983e+002 -6.985527e+001 -1.312823e+002 -7.038851e+001 -8.988533e+001 -1.535216e-001 1.297301e+002
589375000 -1.872964e+000 -1.772052e+002 -7.250134e+001 -9.752781e+001 -6.914496e+001 -1.048478e+002 -1.424373e-001 1.297171e+002
590000000 -1.894852e+000 -1.775382e+002 -7.584521e+001 -1.310649e+002 -7.894975e+001 -8.679731e+001 -1.389359e-001 1.297365e+002
590625000 -1.907196e+000 -1.779302e+002 -7.518758e+001 -1.328212e+002 -7.413974e+001 -8.101347e+001 -1.362468e-001 1.296904e+002
591250000 -1.921655e+000 -1.782297e+002 -7.751949e+001 -5.180917e+001 -7.102438e+001 -1.376565e+002 -1.411247e-001 1.297416e+002
591875000 -1.944364e+000 -1.785097e+002 -7.762048e+001 -9.682404e+001 -7.259605e+001 -1.127507e+002 -1.354285e-001 1.297508e+002
592500000 -1.953004e+000 -1.788680e+002 -8.009068e+001 -6.124789e+001 -7.473077e+001 -1.261356e+002 -1.395332e-001 1.298185e+002
593125000 -1.966170e+000 -1.791389e+002 -7.212749e+001 -1.378033e+002 -8.137167e+001 -3.122556e+000 -1.469623e-001 1.298857e+002
593750000 -1.970974e+000 -1.795038e+002 -7.526345e+001 -1.179507e+002 -7.399291e+001 -1.276012e+002 -1.353897e-001 1.299069e+002
594375000 -1.980358e+000 -1.797363e+002 -8.242866e+001 -8.268967e+001 -7.495900e+001 -8.723495e+001 -1.309549e-001 1.299202e+002
595000000 -1.984589e+000 1.798957e+002 -6.911494e+001 -1.088161e+002 -6.887778e+001 -1.075928e+002 -1.566782e-001 1.299019e+002
