!Agilent Technologies,E8364B,US42250235,A.06.04.32
!Agilent E8364B: A.06.04.32
!Date: Friday, January 15, 2021 14:52:33
!Correction: S11(Full 2 Port(1,2)) S21(Full 2 Port(1,2)) S12(Full 2 Port(1,2)) S22(Full 2 Port(1,2)) 
!S2P File: Measurements: S11, S21, S12, S22:
# Hz S  dB   R 50
500000000 -1.527908e-001 -1.297964e+002 -7.587131e+001 -2.288925e+001 -6.803908e+001 -5.953938e+001 -1.326335e-001 1.385050e+002
500625000 -1.576366e-001 -1.301090e+002 -9.246223e+001 -1.920294e+001 -7.991219e+001 -1.149355e+002 -1.369752e-001 1.385117e+002
501250000 -1.665870e-001 -1.303155e+002 -8.974995e+001 6.390324e+001 -8.058742e+001 -5.459299e+001 -1.302033e-001 1.384493e+002
501875000 -1.648510e-001 -1.306201e+002 -7.438567e+001 -6.272286e+001 -8.455407e+001 1.728018e+001 -1.348238e-001 1.383973e+002
502500000 -1.652076e-001 -1.309135e+002 -7.284528e+001 9.885978e+001 -7.130694e+001 -1.073317e+002 -1.265273e-001 1.383811e+002
503125000 -1.705516e-001 -1.312019e+002 -7.322583e+001 -6.518796e+001 -7.885158e+001 1.714435e+002 -1.242830e-001 1.382463e+002
503750000 -1.681359e-001 -1.314704e+002 -7.803323e+001 6.343142e+001 -7.399189e+001 -1.044852e+002 -1.276768e-001 1.381663e+002
504375000 -1.722632e-001 -1.317467e+002 -6.903770e+001 -3.231638e+001 -7.503249e+001 7.311271e+001 -1.389922e-001 1.381067e+002
505000000 -1.724219e-001 -1.320533e+002 -8.459858e+001 8.313867e+001 -7.312381e+001 2.575266e+001 -1.488027e-001 1.380993e+002
505625000 -1.720359e-001 -1.323276e+002 -7.165325e+001 -7.997400e+001 -7.908191e+001 -7.996023e+001 -1.461459e-001 1.380341e+002
506250000 -1.765612e-001 -1.326367e+002 -9.054839e+001 -9.144218e+001 -6.979787e+001 -8.999710e+001 -1.502613e-001 1.379533e+002
506875000 -1.696777e-001 -1.329429e+002 -7.095330e+001 -1.327963e+002 -7.986294e+001 -4.217962e+001 -1.473544e-001 1.377937e+002
507500000 -1.749558e-001 -1.332281e+002 -7.060606e+001 -9.302802e+000 -7.972233e+001 -5.898745e+001 -1.477409e-001 1.376605e+002
508125000 -1.828415e-001 -1.334656e+002 -7.404639e+001 1.588065e+002 -7.880021e+001 1.745016e+002 -1.541931e-001 1.375695e+002
508750000 -1.765064e-001 -1.337200e+002 -8.720863e+001 -3.778286e+001 -8.915752e+001 -1.706511e+002 -1.537929e-001 1.374832e+002
509375000 -1.805463e-001 -1.340730e+002 -7.532861e+001 -1.291948e+002 -7.388581e+001 -1.430621e+002 -1.467996e-001 1.373692e+002
510000000 -1.848651e-001 -1.343683e+002 -6.703057e+001 -7.587216e+001 -6.943421e+001 -5.272696e+001 -1.514459e-001 1.372282e+002
510625000 -1.893293e-001 -1.345808e+002 -7.109232e+001 7.026469e+001 -7.417811e+001 -8.370150e+001 -1.382687e-001 1.371643e+002
511250000 -1.980321e-001 -1.348338e+002 -7.205147e+001 -9.576542e+001 -8.564520e+001 6.341312e+001 -1.561860e-001 1.369440e+002
511875000 -1.921919e-001 -1.351824e+002 -7.236501e+001 -1.217418e+002 -8.083040e+001 1.389844e+002 -1.494576e-001 1.368746e+002
512500000 -1.994878e-001 -1.354673e+002 -7.489161e+001 -1.027151e+002 -7.164211e+001 -1.481010e+002 -1.498916e-001 1.367209e+002
513125000 -2.121857e-001 -1.357443e+002 -6.956731e+001 -1.036774e+002 -6.979949e+001 -1.374503e+002 -1.445481e-001 1.366720e+002
513750000 -2.280888e-001 -1.360220e+002 -8.160982e+001 -5.067793e+001 -7.644894e+001 -1.261915e+002 -1.512679e-001 1.365595e+002
514375000 -2.308366e-001 -1.363632e+002 -7.418513e+001 -1.783173e+002 -7.362339e+001 -1.374525e+002 -1.416025e-001 1.364225e+002
515000000 -2.339492e-001 -1.366131e+002 -7.469153e+001 1.764333e+002 -7.675856e+001 4.382275e+001 -1.366797e-001 1.364049e+002
515625000 -2.480064e-001 -1.369870e+002 -7.386160e+001 -1.636699e+002 -7.624132e+001 -1.515786e+002 -1.378658e-001 1.362802e+002
516250000 -2.514268e-001 -1.372393e+002 -8.936813e+001 1.257189e+002 -7.196461e+001 -1.044893e+002 -1.435673e-001 1.362208e+002
516875000 -2.719528e-001 -1.375148e+002 -7.342647e+001 -7.873528e+001 -7.908740e+001 9.255837e+000 -1.380401e-001 1.362240e+002
517500000 -2.626260e-001 -1.378565e+002 -7.023296e+001 -1.329348e+002 -7.759012e+001 -1.610092e+002 -1.415125e-001 1.361643e+002
518125000 -2.672031e-001 -1.382017e+002 -7.697416e+001 1.608060e+002 -8.544434e+001 -2.565623e+001 -1.328312e-001 1.361186e+002
518750000 -2.781685e-001 -1.385018e+002 -6.973660e+001 -1.004796e+002 -8.846044e+001 -1.355704e+002 -1.268046e-001 1.361385e+002
519375000 -2.861899e-001 -1.387796e+002 -7.804232e+001 -7.083623e+001 -7.432096e+001 -1.040074e+002 -1.163981e-001 1.360735e+002
520000000 -2.912030e-001 -1.391584e+002 -8.172572e+001 -1.585306e+002 -7.167778e+001 -1.255674e+002 -1.346012e-001 1.360888e+002
520625000 -2.892618e-001 -1.394895e+002 -7.794777e+001 -1.624278e+002 -7.492245e+001 -1.755377e+002 -1.306428e-001 1.360130e+002
521250000 -2.954287e-001 -1.397923e+002 -8.022748e+001 -7.017939e+001 -6.869068e+001 -1.354439e+002 -1.327559e-001 1.360776e+002
521875000 -2.915399e-001 -1.401258e+002 -8.214925e+001 1.042563e+002 -7.433163e+001 -1.194115e+002 -1.235957e-001 1.360596e+002
522500000 -2.927140e-001 -1.404465e+002 -7.597234e+001 1.595297e+002 -7.780183e+001 -8.991928e+001 -1.322685e-001 1.359521e+002
523125000 -3.000167e-001 -1.407610e+002 -7.066596e+001 -1.059453e+002 -6.952434e+001 -1.301583e+002 -1.403909e-001 1.359653e+002
523750000 -2.942699e-001 -1.410722e+002 -8.324966e+001 1.241861e+002 -7.714782e+001 -6.242810e+001 -1.347638e-001 1.359286e+002
524375000 -3.115237e-001 -1.413944e+002 -8.679590e+001 -6.823109e+001 -7.517406e+001 -9.915603e+001 -1.343812e-001 1.358233e+002
525000000 -3.070732e-001 -1.417512e+002 -7.413369e+001 -1.063755e+002 -7.500999e+001 -9.398436e+001 -1.370597e-001 1.358297e+002
525625000 -3.213566e-001 -1.419366e+002 -7.108375e+001 -1.049485e+002 -7.548608e+001 -1.307603e+002 -1.347457e-001 1.357729e+002
526250000 -3.173602e-001 -1.422798e+002 -7.480779e+001 -1.213018e+002 -7.240513e+001 -1.353681e+002 -1.314765e-001 1.357677e+002
526875000 -3.217234e-001 -1.425317e+002 -8.061176e+001 7.972129e+001 -7.759664e+001 -4.039038e+001 -1.337141e-001 1.356832e+002
527500000 -3.299651e-001 -1.428641e+002 -7.303815e+001 -9.193474e+001 -7.556985e+001 -1.041272e+002 -1.387325e-001 1.356418e+002
528125000 -3.556136e-001 -1.431568e+002 -7.308277e+001 1.405414e+002 -8.054723e+001 1.731964e+002 -1.330416e-001 1.356801e+002
528750000 -3.441249e-001 -1.434845e+002 -7.304564e+001 1.710303e+002 -8.498704e+001 -1.026550e+002 -1.423871e-001 1.356756e+002
529375000 -3.576245e-001 -1.437499e+002 -9.339967e+001 -1.199982e+002 -6.887732e+001 1.591325e+002 -1.374637e-001 1.355758e+002
530000000 -3.602544e-001 -1.441468e+002 -7.177634e+001 -8.832177e+001 -7.249798e+001 -1.233528e+002 -1.324757e-001 1.355389e+002
530625000 -3.647206e-001 -1.444274e+002 -9.737880e+001 8.578753e+001 -7.121809e+001 1.776439e+002 -1.437863e-001 1.354626e+002
531250000 -3.731246e-001 -1.447854e+002 -7.511961e+001 9.839246e+001 -7.204414e+001 -1.326420e+002 -1.332838e-001 1.354453e+002
531875000 -3.872022e-001 -1.450759e+002 -7.224216e+001 -1.078823e+002 -6.997205e+001 -1.392992e+002 -1.419006e-001 1.354346e+002
532500000 -3.933958e-001 -1.454150e+002 -7.267249e+001 -1.069282e+002 -7.571803e+001 -9.934196e+001 -1.435588e-001 1.354236e+002
533125000 -3.960840e-001 -1.457842e+002 -7.744897e+001 -9.713080e+001 -7.524557e+001 1.483553e+002 -1.437019e-001 1.353730e+002
533750000 -4.070162e-001 -1.461524e+002 -8.386518e+001 -1.797718e+002 -8.623827e+001 1.242054e+002 -1.639687e-001 1.353032e+002
534375000 -4.146591e-001 -1.465404e+002 -7.520021e+001 9.035303e+001 -7.294829e+001 -1.185698e+002 -1.475261e-001 1.352631e+002
535000000 -4.287052e-001 -1.468364e+002 -9.063924e+001 -4.490715e+001 -7.495560e+001 1.493859e+002 -1.541581e-001 1.351782e+002
535625000 -4.360324e-001 -1.472467e+002 -8.969034e+001 -1.550342e+002 -7.502722e+001 -4.330288e+001 -1.435460e-001 1.351467e+002
536250000 -4.428950e-001 -1.475923e+002 -7.303650e+001 -1.542151e+002 -8.037888e+001 8.114088e+001 -1.433320e-001 1.350258e+002
536875000 -4.526378e-001 -1.479550e+002 -7.202734e+001 -1.326728e+002 -7.169942e+001 1.713357e+002 -1.522152e-001 1.349704e+002
537500000 -4.563452e-001 -1.482808e+002 -8.163596e+001 -1.204016e+002 -7.470885e+001 -1.412166e+002 -1.444055e-001 1.350020e+002
538125000 -4.651789e-001 -1.486687e+002 -7.236079e+001 -1.788370e+002 -7.830272e+001 -1.687116e+002 -1.418258e-001 1.349184e+002
538750000 -4.838617e-001 -1.490068e+002 -8.655550e+001 -1.104129e+002 -7.463135e+001 1.537681e+002 -1.429753e-001 1.348855e+002
539375000 -4.959063e-001 -1.493443e+002 -6.974443e+001 -1.395450e+002 -7.044182e+001 -1.545167e+002 -1.460936e-001 1.348354e+002
540000000 -5.003582e-001 -1.496585e+002 -7.841273e+001 -1.660602e+002 -7.487579e+001 1.709228e+002 -1.464295e-001 1.347037e+002
540625000 -5.133005e-001 -1.500323e+002 -7.258887e+001 -1.408359e+002 -7.522913e+001 1.597028e+002 -1.429751e-001 1.346970e+002
541250000 -5.140157e-001 -1.503540e+002 -6.593629e+001 -1.636502e+002 -7.284302e+001 -1.690291e+002 -1.383602e-001 1.346443e+002
541875000 -5.290934e-001 -1.506694e+002 -7.492880e+001 -1.751861e+002 -7.857935e+001 -1.664822e+002 -1.375539e-001 1.346160e+002
542500000 -5.304989e-001 -1.509936e+002 -7.799987e+001 1.037617e+002 -7.370522e+001 -1.569173e+002 -1.336004e-001 1.346452e+002
543125000 -5.410321e-001 -1.513497e+002 -8.244247e+001 1.515070e+002 -7.710867e+001 -1.172055e+002 -1.275634e-001 1.345414e+002
543750000 -5.521417e-001 -1.516799e+002 -7.259406e+001 -1.711064e+002 -7.477716e+001 -1.488847e+002 -1.316340e-001 1.345677e+002
544375000 -5.702487e-001 -1.520462e+002 -7.082990e+001 1.380012e+002 -6.919229e+001 1.569304e+002 -1.292229e-001 1.345588e+002
545000000 -5.735896e-001 -1.522965e+002 -7.609274e+001 1.454963e+002 -6.970696e+001 1.689682e+002 -1.300375e-001 1.345566e+002
545625000 -5.915904e-001 -1.527146e+002 -7.924883e+001 1.182728e+002 -6.928657e+001 -1.791445e+002 -1.304431e-001 1.345955e+002
546250000 -6.065854e-001 -1.530379e+002 -7.299574e+001 -1.464328e+002 -8.398766e+001 -9.431364e+001 -1.396345e-001 1.345840e+002
546875000 -6.207474e-001 -1.534356e+002 -6.999377e+001 -1.512174e+002 -6.911070e+001 1.705677e+002 -1.488442e-001 1.346032e+002
547500000 -6.441456e-001 -1.537730e+002 -7.342622e+001 -1.683758e+002 -8.359029e+001 8.590462e+001 -1.431533e-001 1.345621e+002
548125000 -6.590889e-001 -1.540530e+002 -6.941394e+001 -1.694127e+002 -7.708434e+001 -1.720731e+002 -1.477143e-001 1.344963e+002
548750000 -6.769267e-001 -1.544561e+002 -7.416160e+001 1.757823e+002 -7.423505e+001 1.592480e+002 -1.465589e-001 1.344641e+002
549375000 -6.990510e-001 -1.547415e+002 -7.369313e+001 1.593477e+002 -6.886301e+001 -1.642682e+002 -1.501106e-001 1.343236e+002
550000000 -7.068818e-001 -1.550956e+002 -7.265552e+001 1.321391e+002 -7.126260e+001 1.634985e+002 -1.586550e-001 1.343612e+002
550625000 -7.085969e-001 -1.554543e+002 -7.405446e+001 1.366478e+002 -7.780581e+001 1.282377e+002 -1.570611e-001 1.342440e+002
551250000 -7.207636e-001 -1.557620e+002 -6.947636e+001 1.385496e+002 -7.062934e+001 1.553240e+002 -1.619177e-001 1.341317e+002
551875000 -7.289496e-001 -1.561580e+002 -6.788616e+001 1.492538e+002 -7.011198e+001 1.459016e+002 -1.554547e-001 1.340592e+002
552500000 -7.394319e-001 -1.564983e+002 -9.223786e+001 -1.248574e+002 -6.928217e+001 1.297057e+002 -1.598054e-001 1.339138e+002
553125000 -7.465460e-001 -1.568878e+002 -8.589913e+001 -2.873540e+001 -6.858086e+001 1.268157e+002 -1.637759e-001 1.338073e+002
553750000 -7.592043e-001 -1.572565e+002 -7.077673e+001 1.287466e+002 -6.881081e+001 1.536010e+002 -1.575662e-001 1.336561e+002
554375000 -7.591265e-001 -1.576127e+002 -6.829000e+001 1.219075e+002 -7.231305e+001 1.003575e+002 -1.564442e-001 1.335419e+002
555000000 -7.696009e-001 -1.580077e+002 -7.871812e+001 1.324877e+002 -8.635236e+001 -1.321374e+002 -1.619674e-001 1.334644e+002
555625000 -7.902319e-001 -1.583675e+002 -6.928275e+001 1.125909e+002 -6.696983e+001 1.253430e+002 -1.609749e-001 1.334121e+002
556250000 -8.009174e-001 -1.587542e+002 -6.805473e+001 1.339715e+002 -6.938556e+001 1.275348e+002 -1.557765e-001 1.332632e+002
556875000 -7.986775e-001 -1.591865e+002 -7.823518e+001 9.592076e+001 -6.858588e+001 1.392014e+002 -1.596014e-001 1.332401e+002
557500000 -8.270425e-001 -1.595060e+002 -6.797730e+001 1.191247e+002 -7.512059e+001 1.099208e+002 -1.552160e-001 1.331437e+002
558125000 -8.404598e-001 -1.598427e+002 -7.713767e+001 1.693050e+002 -7.859943e+001 1.374834e+002 -1.574426e-001 1.330583e+002
558750000 -8.396252e-001 -1.601951e+002 -7.162997e+001 -1.598343e+002 -6.785230e+001 1.550740e+002 -1.478134e-001 1.331279e+002
559375000 -8.685980e-001 -1.605728e+002 -7.781991e+001 1.616508e+002 -7.206218e+001 1.573581e+002 -1.418042e-001 1.330464e+002
560000000 -8.850515e-001 -1.609398e+002 -7.145484e+001 1.283819e+002 -6.678316e+001 1.376851e+002 -1.384869e-001 1.330289e+002
560625000 -9.039277e-001 -1.612607e+002 -7.486676e+001 1.512650e+002 -7.540099e+001 1.341633e+002 -1.374003e-001 1.330464e+002
561250000 -9.128495e-001 -1.616356e+002 -6.930723e+001 1.407850e+002 -6.654348e+001 1.086855e+002 -1.411230e-001 1.329882e+002
561875000 -9.362926e-001 -1.620725e+002 -6.895076e+001 9.222426e+001 -7.038995e+001 -1.655210e+002 -1.452526e-001 1.329978e+002
562500000 -9.612402e-001 -1.623974e+002 -7.165527e+001 1.700529e+002 -7.039099e+001 1.389152e+002 -1.517864e-001 1.330394e+002
563125000 -9.688543e-001 -1.627245e+002 -7.094169e+001 1.738522e+002 -8.086943e+001 1.385582e+002 -1.409965e-001 1.329654e+002
563750000 -9.975598e-001 -1.631541e+002 -8.046710e+001 1.447716e+002 -6.681398e+001 1.324850e+002 -1.508459e-001 1.329477e+002
564375000 -1.019463e+000 -1.635241e+002 -6.905739e+001 1.052729e+002 -6.586691e+001 1.107379e+002 -1.535303e-001 1.329278e+002
565000000 -1.047435e+000 -1.639728e+002 -7.090878e+001 8.577275e+001 -6.778381e+001 9.127028e+001 -1.608830e-001 1.328284e+002
565625000 -1.081015e+000 -1.643557e+002 -6.895757e+001 1.676713e+002 -6.429185e+001 1.467370e+002 -1.640956e-001 1.327748e+002
566250000 -1.103906e+000 -1.648716e+002 -6.697724e+001 8.238598e+001 -7.156836e+001 1.109698e+002 -1.680741e-001 1.326478e+002
566875000 -1.144905e+000 -1.652137e+002 -6.820705e+001 9.567973e+001 -6.884911e+001 1.206115e+002 -1.727028e-001 1.325218e+002
567500000 -1.181296e+000 -1.656615e+002 -7.060064e+001 1.046889e+002 -6.613560e+001 8.346514e+001 -1.659449e-001 1.323837e+002
568125000 -1.225143e+000 -1.659663e+002 -6.551347e+001 1.050526e+002 -6.565778e+001 7.465432e+001 -1.697893e-001 1.322795e+002
568750000 -1.245535e+000 -1.662991e+002 -6.861530e+001 1.179571e+002 -7.060836e+001 3.397958e+001 -1.627930e-001 1.321065e+002
569375000 -1.274731e+000 -1.666573e+002 -7.049120e+001 7.500948e+001 -6.680813e+001 1.101866e+002 -1.680784e-001 1.319730e+002
570000000 -1.308435e+000 -1.669980e+002 -7.389268e+001 -1.593631e+002 -7.179113e+001 4.946947e+001 -1.759332e-001 1.317658e+002
570625000 -1.320026e+000 -1.672893e+002 -7.325203e+001 9.725571e+001 -6.525542e+001 1.111713e+002 -1.618499e-001 1.316549e+002
571250000 -1.340006e+000 -1.675561e+002 -6.639188e+001 1.370190e+002 -7.106154e+001 1.382852e+002 -1.717475e-001 1.315871e+002
571875000 -1.358137e+000 -1.678580e+002 -6.858363e+001 1.025426e+002 -7.008778e+001 1.520259e+002 -1.586934e-001 1.314294e+002
572500000 -1.374249e+000 -1.682464e+002 -7.787976e+001 1.565927e+002 -6.899404e+001 1.161965e+002 -1.619732e-001 1.313701e+002
573125000 -1.383777e+000 -1.685699e+002 -6.805120e+001 1.264235e+002 -7.148492e+001 9.043732e+001 -1.466752e-001 1.312170e+002
573750000 -1.389876e+000 -1.688793e+002 -6.831894e+001 1.038264e+002 -7.756335e+001 9.673555e+001 -1.633165e-001 1.311908e+002
574375000 -1.404954e+000 -1.692316e+002 -6.895041e+001 8.221252e+001 -7.456818e+001 8.841610e+001 -1.506932e-001 1.311715e+002
575000000 -1.424075e+000 -1.696174e+002 -6.915435e+001 7.814317e+001 -7.343689e+001 6.270567e+001 -1.542343e-001 1.311065e+002
575625000 -1.439398e+000 -1.699537e+002 -6.962369e+001 6.706928e+001 -7.202272e+001 9.221201e+001 -1.579029e-001 1.310491e+002
576250000 -1.454961e+000 -1.702852e+002 -7.149759e+001 8.678123e+001 -6.640871e+001 6.130252e+001 -1.602196e-001 1.310433e+002
576875000 -1.474829e+000 -1.705797e+002 -6.730582e+001 9.904919e+001 -6.930112e+001 1.099622e+002 -1.551178e-001 1.310277e+002
577500000 -1.498955e+000 -1.708860e+002 -6.847171e+001 6.273585e+001 -7.108779e+001 1.319537e+002 -1.514634e-001 1.309513e+002
578125000 -1.513638e+000 -1.711952e+002 -7.099888e+001 4.234963e+001 -6.858927e+001 1.135791e+002 -1.519676e-001 1.309494e+002
578750000 -1.521544e+000 -1.715003e+002 -7.032576e+001 7.568535e+001 -6.974629e+001 6.287964e+001 -1.525791e-001 1.309175e+002
579375000 -1.531291e+000 -1.718476e+002 -6.905387e+001 8.960541e+001 -7.079847e+001 1.247178e+002 -1.544072e-001 1.308548e+002
580000000 -1.551103e+000 -1.721837e+002 -7.727353e+001 3.461752e+001 -6.735712e+001 7.693726e+001 -1.626786e-001 1.308466e+002
580625000 -1.562451e+000 -1.726113e+002 -7.461810e+001 4.812114e+001 -6.758154e+001 7.219586e+001 -1.521797e-001 1.307696e+002
581250000 -1.579891e+000 -1.729917e+002 -6.872071e+001 1.008979e+002 -6.693668e+001 1.170828e+002 -1.553825e-001 1.307556e+002
581875000 -1.601692e+000 -1.734644e+002 -7.399203e+001 1.186172e+002 -7.330359e+001 1.334102e+002 -1.669949e-001 1.306073e+002
582500000 -1.630425e+000 -1.738827e+002 -6.575309e+001 7.911445e+001 -7.405289e+001 9.809901e+001 -1.588037e-001 1.305040e+002
583125000 -1.658199e+000 -1.744250e+002 -7.427563e+001 1.042605e+002 -7.161228e+001 7.078681e+001 -1.726317e-001 1.303509e+002
583750000 -1.692612e+000 -1.748462e+002 -7.151640e+001 9.673331e+001 -6.691510e+001 6.826861e+001 -1.767503e-001 1.303064e+002
584375000 -1.722565e+000 -1.752270e+002 -6.728905e+001 9.400709e+001 -6.884740e+001 5.627664e+001 -1.591006e-001 1.301366e+002
585000000 -1.749345e+000 -1.756620e+002 -7.012534e+001 1.102294e+002 -6.926405e+001 5.965491e+001 -1.728783e-001 1.300943e+002
585625000 -1.791203e+000 -1.760020e+002 -7.452962e+001 9.515132e+001 -6.661942e+001 8.567199e+001 -1.594966e-001 1.299684e+002
586250000 -1.814862e+000 -1.763930e+002 -6.783180e+001 7.360691e+001 -7.228015e+001 1.057041e+002 -1.606744e-001 1.299845e+002
586875000 -1.832675e+000 -1.768280e+002 -6.440849e+001 9.138901e+001 -6.974839e+001 9.367913e+001 -1.530565e-001 1.298556e+002
587500000 -1.875376e+000 -1.771668e+002 -6.567332e+001 6.525500e+001 -6.961112e+001 9.466598e+001 -1.539658e-001 1.297758e+002
588125000 -1.889760e+000 -1.775675e+002 -6.955753e+001 9.247795e+001 -6.491346e+001 7.145895e+001 -1.511004e-001 1.297367e+002
588750000 -1.913795e+000 -1.779130e+002 -6.948593e+001 4.591391e+001 -6.789880e+001 7.382067e+001 -1.497348e-001 1.297510e+002
589375000 -1.937876e+000 -1.782882e+002 -6.606382e+001 8.425086e+001 -6.522861e+001 7.955666e+001 -1.433044e-001 1.296438e+002
590000000 -1.966321e+000 -1.786615e+002 -6.825317e+001 6.243581e+001 -6.811619e+001 5.669339e+001 -1.492393e-001 1.296873e+002
590625000 -1.991517e+000 -1.789831e+002 -6.393549e+001 4.865290e+001 -6.291774e+001 5.711454e+001 -1.481550e-001 1.296677e+002
591250000 -2.018423e+000 -1.792796e+002 -6.424558e+001 4.272515e+001 -6.337712e+001 7.440785e+001 -1.427904e-001 1.296831e+002
591875000 -2.048999e+000 -1.794817e+002 -6.638704e+001 5.722452e+001 -6.478577e+001 5.214746e+001 -1.436995e-001 1.296961e+002
592500000 -2.072510e+000 -1.797148e+002 -6.604243e+001 5.734760e+001 -6.387978e+001 6.844103e+001 -1.405902e-001 1.297958e+002
593125000 -2.090486e+000 -1.799737e+002 -6.550459e+001 6.965037e+001 -6.478461e+001 4.264029e+001 -1.470150e-001 1.298768e+002
593750000 -2.107463e+000 1.797646e+002 -6.814867e+001 7.755610e+001 -6.558269e+001 4.804062e+001 -1.352077e-001 1.299570e+002
594375000 -2.110452e+000 1.795537e+002 -6.733418e+001 8.131750e+001 -6.475476e+001 7.058860e+001 -1.390493e-001 1.299401e+002
595000000 -2.112354e+000 1.792870e+002 -6.695184e+001 4.944152e+001 -6.236200e+001 4.582042e+001 -1.566391e-001 1.299537e+002
595625000 -2.110479e+000 1.788857e+002 -6.947858e+001 5.047998e+001 -6.390179e+001 3.355716e+001 -1.485000e-001 1.299387e+002
