!Agilent Technologies,E8364B,US42250235,A.06.04.32
!Agilent E8364B: A.06.04.32
!Date: Friday, January 15, 2021 14:56:03
!Correction: S11(Full 2 Port(1,2)) S21(Full 2 Port(1,2)) S12(Full 2 Port(1,2)) S22(Full 2 Port(1,2)) 
!S2P File: Measurements: S11, S21, S12, S22:
# Hz S  dB   R 50
500000000 -1.292894e-001 -1.299179e+002 -8.541766e+001 -1.056309e+002 -8.034677e+001 -1.496384e+002 -1.321109e-001 1.385618e+002
500625000 -1.298773e-001 -1.301998e+002 -7.444658e+001 -1.100071e+002 -7.577723e+001 8.685145e+001 -1.384796e-001 1.385977e+002
501250000 -1.406102e-001 -1.305021e+002 -7.430724e+001 -1.418257e+002 -7.640578e+001 -1.499385e+002 -1.293743e-001 1.385263e+002
501875000 -1.367690e-001 -1.307902e+002 -9.151694e+001 -1.352434e+002 -7.680491e+001 -1.580727e+002 -1.378160e-001 1.384589e+002
502500000 -1.414368e-001 -1.310674e+002 -8.511726e+001 1.762667e+002 -7.300977e+001 -5.919090e+001 -1.239435e-001 1.383835e+002
503125000 -1.482958e-001 -1.313723e+002 -8.457594e+001 1.747943e+002 -7.495184e+001 -1.669656e+002 -1.263278e-001 1.382714e+002
503750000 -1.457729e-001 -1.316128e+002 -7.717793e+001 1.599390e+002 -8.819447e+001 1.292575e+002 -1.305881e-001 1.382180e+002
504375000 -1.632343e-001 -1.319244e+002 -7.650643e+001 1.093950e+002 -8.691036e+001 1.686507e+002 -1.431844e-001 1.381592e+002
505000000 -1.614133e-001 -1.322770e+002 -8.341807e+001 -1.673940e+001 -8.347015e+001 1.120837e+001 -1.387504e-001 1.381515e+002
505625000 -1.572139e-001 -1.325434e+002 -8.157102e+001 1.332532e+002 -7.231282e+001 1.654756e+002 -1.400578e-001 1.381021e+002
506250000 -1.653877e-001 -1.328495e+002 -7.189240e+001 1.206955e+002 -8.066368e+001 -1.249962e+002 -1.504769e-001 1.379537e+002
506875000 -1.557950e-001 -1.331559e+002 -8.255219e+001 -6.127426e+001 -8.032006e+001 -6.140788e+001 -1.433215e-001 1.378689e+002
507500000 -1.668659e-001 -1.333979e+002 -7.637311e+001 -1.140213e+002 -8.188476e+001 -1.480650e+002 -1.485043e-001 1.376892e+002
508125000 -1.739289e-001 -1.337235e+002 -8.681509e+001 1.512869e+002 -9.303771e+001 -1.389071e+002 -1.511762e-001 1.376905e+002
508750000 -1.782660e-001 -1.339069e+002 -8.334603e+001 -4.806432e+001 -7.729679e+001 1.052130e+002 -1.465455e-001 1.375259e+002
509375000 -1.858645e-001 -1.342808e+002 -7.946729e+001 1.637404e+002 -7.461106e+001 1.693247e+002 -1.382153e-001 1.374744e+002
510000000 -1.841813e-001 -1.345634e+002 -7.410130e+001 -4.473302e+001 -7.423962e+001 -8.600887e+001 -1.542813e-001 1.372873e+002
510625000 -1.985263e-001 -1.348065e+002 -7.467016e+001 -9.132401e+001 -7.833399e+001 6.328366e+001 -1.398392e-001 1.372592e+002
511250000 -1.992151e-001 -1.350477e+002 -6.913227e+001 -1.151061e+002 -7.164524e+001 -1.757777e+002 -1.581456e-001 1.369756e+002
511875000 -2.002432e-001 -1.353739e+002 -7.941924e+001 -1.504260e+002 -8.033941e+001 -1.012360e+002 -1.464894e-001 1.369563e+002
512500000 -2.005185e-001 -1.356374e+002 -7.309066e+001 -1.523233e+002 -7.349213e+001 8.648100e+001 -1.445911e-001 1.368486e+002
513125000 -2.257061e-001 -1.359495e+002 -7.029634e+001 -1.629670e+002 -7.539153e+001 1.552691e+002 -1.520928e-001 1.368157e+002
513750000 -2.278687e-001 -1.361869e+002 -7.270098e+001 -1.738080e+002 -7.473602e+001 1.653090e+002 -1.539026e-001 1.366265e+002
514375000 -2.363800e-001 -1.365591e+002 -8.723025e+001 1.358487e+002 -8.246483e+001 1.250503e+002 -1.400105e-001 1.365202e+002
515000000 -2.429531e-001 -1.368165e+002 -8.990308e+001 -1.437578e+002 -6.996067e+001 1.292144e+002 -1.303623e-001 1.364832e+002
515625000 -2.585095e-001 -1.371777e+002 -8.458871e+001 1.272559e+002 -7.787882e+001 1.150993e+002 -1.309338e-001 1.363989e+002
516250000 -2.645124e-001 -1.374766e+002 -7.607227e+001 -9.811336e+001 -7.307716e+001 -1.301846e+002 -1.323456e-001 1.362648e+002
516875000 -2.814772e-001 -1.377836e+002 -6.899906e+001 -1.168775e+002 -7.532806e+001 -1.163255e+002 -1.300884e-001 1.362921e+002
517500000 -2.837880e-001 -1.380998e+002 -7.188014e+001 1.715674e+002 -7.773100e+001 1.448896e+002 -1.343156e-001 1.362448e+002
518125000 -2.891109e-001 -1.384551e+002 -8.010968e+001 1.488381e+000 -7.211785e+001 1.297495e+002 -1.349828e-001 1.361984e+002
518750000 -3.024768e-001 -1.387555e+002 -7.257311e+001 -1.671264e+002 -7.592210e+001 1.799376e+002 -1.397005e-001 1.361809e+002
519375000 -3.162748e-001 -1.389903e+002 -6.904685e+001 1.653732e+002 -7.042830e+001 1.482827e+002 -1.278667e-001 1.361221e+002
520000000 -3.250154e-001 -1.393734e+002 -7.138820e+001 1.757027e+002 -7.398740e+001 1.373052e+002 -1.300188e-001 1.360480e+002
520625000 -3.209007e-001 -1.397118e+002 -7.166761e+001 1.289691e+002 -6.936469e+001 1.436147e+002 -1.339312e-001 1.360373e+002
521250000 -3.328793e-001 -1.399818e+002 -7.299836e+001 1.325472e+002 -7.186508e+001 1.731463e+002 -1.362724e-001 1.360243e+002
521875000 -3.312183e-001 -1.403216e+002 -7.193848e+001 8.034196e+001 -7.814956e+001 -1.442765e+002 -1.230384e-001 1.360125e+002
522500000 -3.372111e-001 -1.406075e+002 -8.464428e+001 -1.497528e+002 -7.666655e+001 9.814355e+001 -1.315482e-001 1.359691e+002
523125000 -3.459479e-001 -1.409052e+002 -7.449914e+001 -1.703432e+002 -7.121116e+001 -1.757199e+002 -1.267985e-001 1.359494e+002
523750000 -3.428548e-001 -1.411898e+002 -7.429413e+001 1.438341e+002 -7.461942e+001 8.980354e+001 -1.344215e-001 1.358933e+002
524375000 -3.622307e-001 -1.415073e+002 -7.350311e+001 1.042713e+002 -7.344379e+001 1.233013e+002 -1.326432e-001 1.358666e+002
525000000 -3.601006e-001 -1.417965e+002 -6.978743e+001 1.335524e+002 -7.773626e+001 1.430381e+002 -1.380631e-001 1.358264e+002
525625000 -3.800414e-001 -1.420383e+002 -6.754805e+001 9.879276e+001 -7.497562e+001 -2.707563e+001 -1.400387e-001 1.357975e+002
526250000 -3.685604e-001 -1.423411e+002 -7.432123e+001 1.521917e+002 -7.310873e+001 1.171791e+002 -1.350574e-001 1.357034e+002
526875000 -3.817977e-001 -1.426268e+002 -7.770501e+001 1.095788e+002 -7.655324e+001 8.075178e+001 -1.303392e-001 1.357035e+002
527500000 -3.815022e-001 -1.428871e+002 -7.179316e+001 1.056320e+002 -6.762841e+001 2.118679e+001 -1.389989e-001 1.356352e+002
528125000 -4.072640e-001 -1.432049e+002 -7.734727e+001 1.716799e+002 -7.923875e+001 4.484293e+001 -1.349631e-001 1.356434e+002
528750000 -4.041381e-001 -1.434742e+002 -7.075695e+001 1.106160e+002 -7.329410e+001 5.750453e+001 -1.350919e-001 1.356816e+002
529375000 -4.100538e-001 -1.437522e+002 -7.272865e+001 7.230260e+001 -7.786041e+001 -1.168998e+002 -1.369678e-001 1.355486e+002
530000000 -4.226668e-001 -1.440896e+002 -7.395316e+001 8.449736e+001 -7.722225e+001 1.236802e+002 -1.408769e-001 1.355353e+002
530625000 -4.296221e-001 -1.443573e+002 -7.358874e+001 -9.629562e+001 -7.320141e+001 1.245080e+002 -1.418725e-001 1.354899e+002
531250000 -4.313337e-001 -1.446862e+002 -7.599937e+001 3.734412e+001 -7.624661e+001 6.435284e+001 -1.362476e-001 1.354611e+002
531875000 -4.471372e-001 -1.450164e+002 -7.085012e+001 6.391301e+001 -6.940398e+001 5.055556e+001 -1.378749e-001 1.354009e+002
532500000 -4.496432e-001 -1.452474e+002 -7.248362e+001 9.381363e+001 -8.726320e+001 3.381786e+001 -1.338347e-001 1.353862e+002
533125000 -4.527784e-001 -1.456231e+002 -7.117866e+001 1.046191e+002 -7.425397e+001 1.046348e+002 -1.419023e-001 1.353429e+002
533750000 -4.567611e-001 -1.459306e+002 -8.158028e+001 2.633948e+001 -7.796744e+001 1.748464e+002 -1.489478e-001 1.352867e+002
534375000 -4.679288e-001 -1.463492e+002 -7.558254e+001 4.162336e+001 -7.826307e+001 1.311952e+002 -1.407623e-001 1.352200e+002
535000000 -4.757753e-001 -1.466330e+002 -7.521217e+001 1.098660e+002 -7.838235e+001 1.109448e+002 -1.521191e-001 1.352258e+002
535625000 -4.849083e-001 -1.470105e+002 -7.109472e+001 5.841963e+001 -8.257956e+001 1.495513e+002 -1.374251e-001 1.351574e+002
536250000 -4.925918e-001 -1.473669e+002 -7.303227e+001 1.207012e+002 -7.991505e+001 -1.372298e+002 -1.392367e-001 1.350146e+002
536875000 -4.988987e-001 -1.477434e+002 -7.095238e+001 6.915643e+001 -8.727888e+001 1.001776e+002 -1.471523e-001 1.349639e+002
537500000 -5.053670e-001 -1.480050e+002 -7.240292e+001 -1.966068e+001 -6.924249e+001 5.291347e+001 -1.404421e-001 1.348960e+002
538125000 -5.159437e-001 -1.484066e+002 -7.665365e+001 1.002039e+002 -7.171092e+001 9.575842e+001 -1.425976e-001 1.349356e+002
538750000 -5.236009e-001 -1.486994e+002 -8.343745e+001 -1.561114e+002 -7.777197e+001 -6.781773e+001 -1.399129e-001 1.348548e+002
539375000 -5.349491e-001 -1.490311e+002 -8.485924e+001 1.139296e+002 -7.738530e+001 6.717258e+000 -1.437825e-001 1.348065e+002
540000000 -5.328595e-001 -1.493635e+002 -7.762589e+001 2.639710e+001 -8.257127e+001 4.998575e+001 -1.421338e-001 1.347617e+002
540625000 -5.440373e-001 -1.497234e+002 -7.554333e+001 6.681207e+001 -7.618797e+001 -1.180285e+002 -1.455116e-001 1.347039e+002
541250000 -5.532951e-001 -1.499686e+002 -7.338464e+001 6.529564e+001 -7.068779e+001 9.888098e+001 -1.292962e-001 1.346603e+002
541875000 -5.627213e-001 -1.503138e+002 -8.066935e+001 -3.207086e+001 -6.936887e+001 1.282005e+002 -1.357607e-001 1.346185e+002
542500000 -5.659640e-001 -1.506560e+002 -7.111483e+001 1.034937e+002 -7.608724e+001 8.871163e+001 -1.368036e-001 1.346250e+002
543125000 -5.723562e-001 -1.509668e+002 -7.356792e+001 5.628498e+001 -7.131579e+001 1.120477e+002 -1.268144e-001 1.345663e+002
543750000 -5.861824e-001 -1.512531e+002 -7.758720e+001 1.029860e+002 -7.284944e+001 1.147816e+002 -1.324331e-001 1.346225e+002
544375000 -5.962908e-001 -1.515880e+002 -8.065026e+001 9.629092e+001 -7.668732e+001 1.482803e+002 -1.293600e-001 1.345844e+002
545000000 -5.976933e-001 -1.518954e+002 -7.409296e+001 8.098490e+001 -8.557895e+001 5.911050e+000 -1.295553e-001 1.346026e+002
545625000 -6.139368e-001 -1.522123e+002 -7.698628e+001 7.211436e+001 -7.244408e+001 1.282597e+002 -1.293553e-001 1.346064e+002
546250000 -6.290270e-001 -1.525422e+002 -6.788265e+001 1.345694e+002 -7.035973e+001 8.295945e+001 -1.344859e-001 1.345549e+002
546875000 -6.364654e-001 -1.529328e+002 -7.458265e+001 5.894087e+001 -8.088915e+001 9.098572e+001 -1.382542e-001 1.346467e+002
547500000 -6.533067e-001 -1.532542e+002 -6.768171e+001 1.140717e+002 -6.776607e+001 9.051001e+001 -1.369018e-001 1.345979e+002
548125000 -6.637873e-001 -1.535142e+002 -7.594112e+001 3.843083e+001 -7.877261e+001 7.202445e+001 -1.386470e-001 1.344978e+002
548750000 -6.780745e-001 -1.538833e+002 -6.874934e+001 3.409260e+001 -7.193417e+001 3.102157e+001 -1.488209e-001 1.344711e+002
549375000 -6.896922e-001 -1.542325e+002 -7.312273e+001 6.720934e+001 -7.082893e+001 1.044569e+002 -1.514732e-001 1.343432e+002
550000000 -6.959371e-001 -1.545619e+002 -7.142009e+001 7.786050e+001 -8.736541e+001 1.146758e+002 -1.564050e-001 1.343528e+002
550625000 -6.960589e-001 -1.549535e+002 -8.102116e+001 1.360625e+002 -7.221743e+001 3.342658e+001 -1.544462e-001 1.342802e+002
551250000 -7.022231e-001 -1.552685e+002 -7.168901e+001 1.112747e+001 -8.482492e+001 5.488216e+000 -1.532749e-001 1.341612e+002
551875000 -7.119607e-001 -1.556476e+002 -8.156941e+001 1.720433e+001 -7.280936e+001 6.950820e+001 -1.543714e-001 1.340499e+002
552500000 -7.155551e-001 -1.560501e+002 -7.582426e+001 4.521466e+001 -7.021019e+001 1.052532e+002 -1.482991e-001 1.339408e+002
553125000 -7.099863e-001 -1.564049e+002 -7.204700e+001 1.003053e+002 -7.037608e+001 8.666627e+000 -1.592304e-001 1.339051e+002
553750000 -7.280586e-001 -1.567736e+002 -7.477797e+001 7.793620e+001 -6.738638e+001 2.810148e+001 -1.593547e-001 1.336372e+002
554375000 -7.329699e-001 -1.571422e+002 -7.663162e+001 4.361840e+001 -7.138240e+001 1.010344e+002 -1.524852e-001 1.335847e+002
555000000 -7.416912e-001 -1.575732e+002 -7.594642e+001 6.229981e+001 -6.800014e+001 9.567811e+001 -1.673351e-001 1.335101e+002
555625000 -7.519373e-001 -1.579164e+002 -7.669308e+001 8.330010e+001 -7.584608e+001 8.166854e+001 -1.527723e-001 1.334899e+002
556250000 -7.576391e-001 -1.583191e+002 -7.168020e+001 1.235048e+002 -7.182788e+001 2.502205e+001 -1.492219e-001 1.333164e+002
556875000 -7.614926e-001 -1.586977e+002 -6.902631e+001 -3.928908e+000 -7.088288e+001 2.650524e+001 -1.558301e-001 1.333202e+002
557500000 -7.762377e-001 -1.590820e+002 -6.929086e+001 3.839026e+001 -6.855733e+001 5.375482e+001 -1.520373e-001 1.331973e+002
558125000 -7.953638e-001 -1.594408e+002 -8.442586e+001 1.566297e+002 -6.789410e+001 9.197904e+001 -1.486574e-001 1.331897e+002
558750000 -7.968983e-001 -1.598163e+002 -7.632992e+001 5.002277e+001 -7.127640e+001 3.388687e+001 -1.425441e-001 1.331382e+002
559375000 -8.142807e-001 -1.601755e+002 -6.927547e+001 2.574149e+001 -7.239958e+001 5.814091e+001 -1.431636e-001 1.331325e+002
560000000 -8.373832e-001 -1.605678e+002 -7.737596e+001 1.183974e+002 -8.047095e+001 4.946053e+001 -1.334870e-001 1.330297e+002
560625000 -8.468878e-001 -1.608506e+002 -8.464018e+001 9.313057e+000 -7.485079e+001 2.839743e+000 -1.314827e-001 1.330974e+002
561250000 -8.593916e-001 -1.612446e+002 -7.602600e+001 -1.030054e+001 -7.131461e+001 1.412895e+001 -1.394016e-001 1.330688e+002
561875000 -8.751673e-001 -1.615993e+002 -6.903584e+001 2.173295e+001 -6.730590e+001 4.320703e+001 -1.409729e-001 1.330745e+002
562500000 -8.905128e-001 -1.619679e+002 -7.377260e+001 -3.458325e+001 -7.185893e+001 2.908181e+001 -1.498903e-001 1.331088e+002
563125000 -9.052922e-001 -1.623597e+002 -6.862114e+001 3.060911e+001 -7.037576e+001 -2.835516e+000 -1.334248e-001 1.330487e+002
563750000 -9.262305e-001 -1.627859e+002 -7.705603e+001 2.554928e+001 -6.861600e+001 3.495634e+001 -1.414221e-001 1.330688e+002
564375000 -9.483281e-001 -1.631641e+002 -6.685844e+001 3.641818e+001 -6.805297e+001 2.256356e+001 -1.486811e-001 1.330083e+002
565000000 -9.649190e-001 -1.636293e+002 -6.875261e+001 3.738568e+001 -6.936824e+001 -1.220320e+001 -1.487996e-001 1.329781e+002
565625000 -9.899455e-001 -1.640463e+002 -6.943804e+001 1.181270e+001 -6.602569e+001 3.022297e+001 -1.597453e-001 1.328946e+002
566250000 -1.020606e+000 -1.644995e+002 -6.695924e+001 2.230177e+001 -6.893607e+001 -2.176260e+001 -1.688735e-001 1.327652e+002
566875000 -1.054302e+000 -1.649297e+002 -6.460277e+001 2.820194e+000 -6.846783e+001 1.630643e+001 -1.703930e-001 1.325917e+002
567500000 -1.085965e+000 -1.653311e+002 -6.911419e+001 -4.830357e+000 -6.680244e+001 2.301266e+001 -1.678268e-001 1.324483e+002
568125000 -1.115834e+000 -1.656809e+002 -6.816975e+001 -3.212634e+001 -6.635471e+001 1.303386e+001 -1.653691e-001 1.323832e+002
568750000 -1.136175e+000 -1.660732e+002 -7.108288e+001 -2.509160e+000 -6.959131e+001 -2.227735e+001 -1.705832e-001 1.321808e+002
569375000 -1.171867e+000 -1.664727e+002 -6.943281e+001 2.191506e+001 -6.510312e+001 -1.954543e+001 -1.685630e-001 1.320874e+002
570000000 -1.187532e+000 -1.668225e+002 -6.617233e+001 2.632852e+000 -6.434000e+001 -1.195403e+001 -1.667803e-001 1.318948e+002
570625000 -1.203843e+000 -1.671949e+002 -7.319764e+001 -2.278552e+001 -6.782632e+001 -8.149416e+000 -1.636290e-001 1.318044e+002
571250000 -1.227222e+000 -1.675408e+002 -7.056052e+001 3.017421e+000 -6.737770e+001 6.229540e+000 -1.666346e-001 1.316503e+002
571875000 -1.242125e+000 -1.678768e+002 -6.865778e+001 -1.653621e+001 -6.755935e+001 -1.079345e+001 -1.654126e-001 1.315598e+002
572500000 -1.256468e+000 -1.682319e+002 -6.706690e+001 -5.303574e+000 -7.000156e+001 -2.037253e+000 -1.644270e-001 1.314256e+002
573125000 -1.267968e+000 -1.685749e+002 -7.162723e+001 -2.131685e+001 -6.373601e+001 -3.922110e+001 -1.557587e-001 1.313606e+002
573750000 -1.274500e+000 -1.689263e+002 -7.200484e+001 -6.549439e+001 -6.883735e+001 -3.877126e+001 -1.644135e-001 1.312527e+002
574375000 -1.290446e+000 -1.692919e+002 -6.645000e+001 -3.949501e+001 -6.913020e+001 -1.988118e+001 -1.555287e-001 1.312392e+002
575000000 -1.305056e+000 -1.697293e+002 -6.775131e+001 -4.409317e+001 -6.854651e+001 -1.459082e+001 -1.473097e-001 1.311607e+002
575625000 -1.316578e+000 -1.701224e+002 -7.272997e+001 -1.916764e+001 -6.793794e+001 -2.989308e+001 -1.487509e-001 1.311136e+002
576250000 -1.334570e+000 -1.705268e+002 -6.774355e+001 -3.793423e+001 -7.029030e+001 -3.408004e+001 -1.504428e-001 1.310755e+002
576875000 -1.348433e+000 -1.709039e+002 -6.396914e+001 -2.020203e+001 -6.761075e+001 -4.633068e+001 -1.461347e-001 1.311063e+002
577500000 -1.384400e+000 -1.712018e+002 -7.864435e+001 -7.888101e+001 -6.599446e+001 -2.165736e+001 -1.488738e-001 1.310392e+002
578125000 -1.403534e+000 -1.715822e+002 -6.659566e+001 -5.280380e+001 -6.681300e+001 -3.156839e+001 -1.547542e-001 1.310793e+002
578750000 -1.415544e+000 -1.719701e+002 -8.688528e+001 -7.038070e+001 -6.867530e+001 -2.945914e+001 -1.483565e-001 1.309836e+002
579375000 -1.422038e+000 -1.723046e+002 -6.660450e+001 -4.453327e+001 -7.377924e+001 -2.060083e+001 -1.549742e-001 1.308802e+002
580000000 -1.442329e+000 -1.726373e+002 -6.624101e+001 -3.039274e+001 -6.886143e+001 -1.730315e+001 -1.556125e-001 1.308927e+002
580625000 -1.457680e+000 -1.731024e+002 -6.719192e+001 -4.807362e+001 -6.475661e+001 -4.060334e+001 -1.610209e-001 1.308199e+002
581250000 -1.476927e+000 -1.735250e+002 -7.190932e+001 -1.485148e+001 -6.735145e+001 -4.368542e+001 -1.603145e-001 1.307523e+002
581875000 -1.501006e+000 -1.739930e+002 -6.587875e+001 -6.538750e+001 -6.783945e+001 -6.348787e+001 -1.604294e-001 1.306855e+002
582500000 -1.524830e+000 -1.744764e+002 -6.692294e+001 -4.977419e+001 -6.245245e+001 -5.853312e+001 -1.531368e-001 1.306097e+002
583125000 -1.545114e+000 -1.749819e+002 -7.012350e+001 -3.052262e+001 -6.628651e+001 -5.015314e+001 -1.607932e-001 1.304386e+002
583750000 -1.583675e+000 -1.755077e+002 -6.616331e+001 -8.082407e+001 -7.259962e+001 -1.160564e+002 -1.712229e-001 1.302914e+002
584375000 -1.608695e+000 -1.760155e+002 -6.743664e+001 -6.733582e+001 -6.495543e+001 -7.770119e+001 -1.656406e-001 1.302576e+002
585000000 -1.647354e+000 -1.765006e+002 -6.998526e+001 -3.344077e+001 -6.748296e+001 -1.054103e+002 -1.746329e-001 1.301552e+002
585625000 -1.696901e+000 -1.769690e+002 -6.541240e+001 -5.224502e+001 -6.787663e+001 -5.428553e+001 -1.632001e-001 1.300595e+002
586250000 -1.724649e+000 -1.774176e+002 -6.703179e+001 -8.780093e+001 -6.698180e+001 -5.273528e+001 -1.562533e-001 1.300679e+002
586875000 -1.756980e+000 -1.779077e+002 -6.920642e+001 -2.369353e+001 -6.527459e+001 -7.593661e+001 -1.535663e-001 1.299633e+002
587500000 -1.808535e+000 -1.783170e+002 -6.697366e+001 -8.197389e+001 -6.860918e+001 -7.347337e+001 -1.538060e-001 1.298321e+002
588125000 -1.840023e+000 -1.786745e+002 -6.795126e+001 -7.246240e+001 -6.885281e+001 -6.289500e+001 -1.482717e-001 1.298141e+002
588750000 -1.872987e+000 -1.790243e+002 -6.793111e+001 -9.181109e+001 -6.781680e+001 -6.224242e+001 -1.502710e-001 1.298362e+002
589375000 -1.913177e+000 -1.794262e+002 -7.253245e+001 -5.100622e+001 -6.750504e+001 -9.377893e+001 -1.476394e-001 1.297503e+002
590000000 -1.950104e+000 -1.798410e+002 -6.542346e+001 -6.708177e+001 -6.749522e+001 -7.883993e+001 -1.474970e-001 1.297556e+002
590625000 -1.987426e+000 1.798417e+002 -7.019240e+001 -8.511697e+001 -6.719762e+001 -7.746087e+001 -1.414025e-001 1.297283e+002
591250000 -2.015177e+000 1.795869e+002 -6.561729e+001 -7.066623e+001 -6.812836e+001 -8.627756e+001 -1.508921e-001 1.298319e+002
591875000 -2.061116e+000 1.793490e+002 -6.588036e+001 -5.762756e+001 -6.510760e+001 -6.708156e+001 -1.492045e-001 1.298106e+002
592500000 -2.085292e+000 1.790421e+002 -7.461849e+001 -1.046516e+002 -6.928127e+001 -8.112772e+001 -1.423092e-001 1.298964e+002
593125000 -2.119979e+000 1.788136e+002 -6.939676e+001 -6.355258e+001 -7.204283e+001 -9.822207e+001 -1.497219e-001 1.299117e+002
593750000 -2.144091e+000 1.785357e+002 -6.693899e+001 -8.298846e+001 -6.640970e+001 -9.906539e+001 -1.354122e-001 1.299450e+002
594375000 -2.160440e+000 1.783001e+002 -7.144296e+001 -9.927747e+001 -7.078624e+001 -4.746796e+001 -1.383246e-001 1.299894e+002
595000000 -2.181678e+000 1.780615e+002 -6.387083e+001 -9.213566e+001 -6.780273e+001 -8.060657e+001 -1.501532e-001 1.299662e+002
595625000 -2.195416e+000 1.776827e+002 -6.386238e+001 -7.135355e+001 -6.531372e+001 -7.894528e+001 -1.490710e-001 1.299993e+002
