!Agilent Technologies,E8364B,US42250235,A.06.04.32
!Agilent E8364B: A.06.04.32
!Date: Friday, January 15, 2021 14:46:22
!Correction: S11(Full 2 Port(1,2)) S21(Full 2 Port(1,2)) S12(Full 2 Port(1,2)) S22(Full 2 Port(1,2)) 
!S2P File: Measurements: S11, S21, S12, S22:
# Hz S  dB   R 50
500000000 -1.224915e-001 -1.300152e+002 -6.962230e+001 9.214822e+001 -8.524677e+001 -8.786754e+001 -1.486863e-001 1.385222e+002
500625000 -1.244623e-001 -1.303270e+002 -8.418017e+001 9.769245e+001 -7.838731e+001 -6.643182e+001 -1.576344e-001 1.384850e+002
501250000 -1.333538e-001 -1.306001e+002 -6.713914e+001 3.082492e+001 -7.729845e+001 1.553611e+002 -1.486783e-001 1.384130e+002
501875000 -1.307648e-001 -1.309184e+002 -6.495223e+001 9.818167e+000 -9.126350e+001 2.026188e+001 -1.386994e-001 1.383629e+002
502500000 -1.326019e-001 -1.312046e+002 -7.258019e+001 3.563246e+001 -8.351413e+001 1.543217e+002 -1.314841e-001 1.383684e+002
503125000 -1.406111e-001 -1.315000e+002 -7.482863e+001 -3.968581e+001 -8.256840e+001 -3.549213e+001 -1.426221e-001 1.382604e+002
503750000 -1.457188e-001 -1.318010e+002 -8.570263e+001 -5.808183e+001 -7.838685e+001 1.280917e+002 -1.423247e-001 1.381669e+002
504375000 -1.576730e-001 -1.320912e+002 -7.426302e+001 -2.581889e+001 -7.420387e+001 4.728245e+001 -1.569382e-001 1.381481e+002
505000000 -1.547312e-001 -1.324014e+002 -7.519019e+001 1.459574e+002 -7.115045e+001 9.096349e+001 -1.504282e-001 1.381394e+002
505625000 -1.527274e-001 -1.327001e+002 -7.237881e+001 -6.832365e+001 -7.910833e+001 -1.199645e+002 -1.414255e-001 1.380625e+002
506250000 -1.542685e-001 -1.330302e+002 -6.894411e+001 6.846645e+001 -8.887147e+001 4.755809e+001 -1.581038e-001 1.379544e+002
506875000 -1.564923e-001 -1.332890e+002 -8.926793e+001 -3.512981e+001 -7.684056e+001 -8.898273e+001 -1.476486e-001 1.378731e+002
507500000 -1.637286e-001 -1.335695e+002 -7.703138e+001 8.999500e+000 -7.103958e+001 5.917022e+001 -1.569520e-001 1.377364e+002
508125000 -1.696058e-001 -1.338502e+002 -7.658864e+001 -1.799854e+002 -7.478470e+001 -3.537169e+001 -1.487069e-001 1.376825e+002
508750000 -1.663701e-001 -1.340731e+002 -7.225507e+001 3.182059e+001 -7.173801e+001 5.655924e+001 -1.617981e-001 1.375262e+002
509375000 -1.786277e-001 -1.344039e+002 -6.941475e+001 3.339288e+000 -7.091756e+001 -3.384150e+000 -1.603013e-001 1.374627e+002
510000000 -1.841344e-001 -1.347183e+002 -8.147517e+001 -3.844343e+001 -6.959743e+001 1.985009e+001 -1.692370e-001 1.373218e+002
510625000 -1.807916e-001 -1.349694e+002 -7.236655e+001 1.826095e+000 -7.831160e+001 1.514083e+002 -1.539242e-001 1.372220e+002
511250000 -1.978177e-001 -1.352174e+002 -8.112592e+001 7.429933e-001 -7.378339e+001 -1.737515e+002 -1.604938e-001 1.370237e+002
511875000 -1.854077e-001 -1.355647e+002 -6.930271e+001 -2.939465e+000 -7.683616e+001 6.224909e+001 -1.564663e-001 1.368538e+002
512500000 -1.936566e-001 -1.357934e+002 -7.461200e+001 -4.647831e+000 -7.766171e+001 -4.308943e+001 -1.586821e-001 1.367560e+002
513125000 -2.068138e-001 -1.361752e+002 -7.356803e+001 -8.296680e+001 -7.685399e+001 1.814727e+001 -1.582996e-001 1.367103e+002
513750000 -2.185504e-001 -1.364597e+002 -8.077962e+001 -7.671343e+001 -7.747160e+001 3.773996e+001 -1.711399e-001 1.366081e+002
514375000 -2.279305e-001 -1.367773e+002 -8.424433e+001 1.708999e+002 -7.584131e+001 6.481449e+001 -1.548239e-001 1.364394e+002
515000000 -2.355616e-001 -1.370705e+002 -8.283086e+001 -2.643135e+001 -7.682469e+001 -1.352982e+002 -1.485631e-001 1.363601e+002
515625000 -2.446423e-001 -1.374935e+002 -8.710538e+001 1.765533e+002 -7.464630e+001 -4.643628e+001 -1.478253e-001 1.362532e+002
516250000 -2.588750e-001 -1.377883e+002 -7.108784e+001 -4.827633e+001 -7.396260e+001 6.704124e+001 -1.543741e-001 1.362029e+002
516875000 -2.731386e-001 -1.381029e+002 -7.347978e+001 -4.948502e+001 -7.140180e+001 1.904877e+000 -1.486584e-001 1.362447e+002
517500000 -2.774349e-001 -1.384150e+002 -7.997268e+001 9.146221e+001 -7.458502e+001 -5.221177e+001 -1.487507e-001 1.361571e+002
518125000 -2.898288e-001 -1.388327e+002 -7.446996e+001 1.147460e+002 -7.558408e+001 6.550354e+001 -1.444836e-001 1.361309e+002
518750000 -3.000630e-001 -1.391049e+002 -7.568790e+001 -7.787854e+000 -7.043125e+001 -1.543215e+001 -1.507796e-001 1.360827e+002
519375000 -3.158402e-001 -1.394059e+002 -8.062772e+001 1.067219e+002 -8.502282e+001 7.630907e+000 -1.344682e-001 1.360594e+002
520000000 -3.255249e-001 -1.397317e+002 -7.263306e+001 -5.064791e+001 -7.127886e+001 -2.895634e+001 -1.401439e-001 1.360571e+002
520625000 -3.380387e-001 -1.401257e+002 -7.055877e+001 8.997875e+000 -7.042269e+001 -2.535743e+001 -1.409720e-001 1.359821e+002
521250000 -3.493156e-001 -1.404093e+002 -8.036295e+001 7.385487e+001 -7.657653e+001 1.273324e+002 -1.323920e-001 1.359710e+002
521875000 -3.570205e-001 -1.407349e+002 -8.017263e+001 2.751911e+001 -6.886327e+001 -3.357653e+001 -1.296414e-001 1.359898e+002
522500000 -3.612444e-001 -1.409903e+002 -8.374435e+001 2.103130e+001 -8.041275e+001 1.119714e+002 -1.372889e-001 1.360006e+002
523125000 -3.790534e-001 -1.412920e+002 -7.622039e+001 1.506577e+002 -7.557462e+001 -5.816485e+001 -1.356947e-001 1.359422e+002
523750000 -3.789325e-001 -1.416281e+002 -7.342864e+001 -8.473013e+000 -7.273638e+001 -7.707722e+000 -1.450995e-001 1.359214e+002
524375000 -3.968903e-001 -1.418984e+002 -8.035557e+001 -1.721979e+002 -7.882375e+001 -5.420062e+001 -1.351801e-001 1.358832e+002
525000000 -3.928013e-001 -1.421951e+002 -7.538801e+001 -3.449187e+001 -7.716230e+001 4.634399e-002 -1.504622e-001 1.358478e+002
525625000 -4.072064e-001 -1.424166e+002 -7.094826e+001 9.875280e-002 -8.009171e+001 -4.588060e+001 -1.511158e-001 1.357714e+002
526250000 -4.057273e-001 -1.426909e+002 -7.775671e+001 -4.388240e+001 -7.062507e+001 -2.652757e-001 -1.533796e-001 1.357352e+002
526875000 -4.255156e-001 -1.430085e+002 -7.713219e+001 -4.100650e+001 -7.230268e+001 1.973246e+000 -1.444305e-001 1.357252e+002
527500000 -4.310008e-001 -1.432704e+002 -7.435658e+001 -8.895464e+001 -7.313023e+001 -4.058806e+000 -1.474133e-001 1.356508e+002
528125000 -4.505939e-001 -1.436064e+002 -7.362978e+001 7.726735e+000 -7.479697e+001 -1.336263e+002 -1.595646e-001 1.356638e+002
528750000 -4.486308e-001 -1.438274e+002 -7.720341e+001 -4.038267e+001 -7.208055e+001 -6.365526e+001 -1.471503e-001 1.356654e+002
529375000 -4.646657e-001 -1.441516e+002 -8.349462e+001 -9.669591e+001 -7.155025e+001 -5.995191e+001 -1.478433e-001 1.354971e+002
530000000 -4.760348e-001 -1.444874e+002 -8.588802e+001 9.386803e+001 -6.778053e+001 -7.848083e+001 -1.467307e-001 1.355645e+002
530625000 -4.846462e-001 -1.447452e+002 -7.670541e+001 5.979952e+001 -8.537919e+001 -3.554925e+001 -1.494530e-001 1.354538e+002
531250000 -4.895201e-001 -1.450518e+002 -7.328880e+001 -4.113836e+001 -7.398689e+001 -7.115796e+001 -1.379033e-001 1.354118e+002
531875000 -5.144396e-001 -1.453513e+002 -7.224899e+001 -8.441876e+001 -7.970346e+001 -6.305743e+001 -1.460357e-001 1.353769e+002
532500000 -5.275698e-001 -1.456392e+002 -7.194767e+001 -3.460902e+000 -7.785935e+001 -8.896521e-001 -1.490863e-001 1.353634e+002
533125000 -5.315499e-001 -1.459640e+002 -8.047895e+001 7.097592e+001 -7.113157e+001 -9.273882e+001 -1.559889e-001 1.353761e+002
533750000 -5.424830e-001 -1.463081e+002 -7.824541e+001 -4.078699e+001 -7.807735e+001 -9.246610e+001 -1.659531e-001 1.353220e+002
534375000 -5.473208e-001 -1.466308e+002 -7.296532e+001 -6.238893e+001 -7.583611e+001 -9.942471e+001 -1.492775e-001 1.352372e+002
535000000 -5.586902e-001 -1.469026e+002 -7.623877e+001 -1.601211e+002 -8.213591e+001 -1.512525e+002 -1.558967e-001 1.351780e+002
535625000 -5.736090e-001 -1.472854e+002 -7.218048e+001 -5.409585e+001 -7.931914e+001 1.276341e+002 -1.452317e-001 1.351477e+002
536250000 -5.805296e-001 -1.476189e+002 -8.043348e+001 -4.565355e+001 -7.353488e+001 -6.000810e+001 -1.498977e-001 1.350359e+002
536875000 -5.951664e-001 -1.479621e+002 -8.229945e+001 -1.503761e+002 -7.018259e+001 -5.113197e+001 -1.515516e-001 1.350106e+002
537500000 -5.998603e-001 -1.482435e+002 -7.183637e+001 -1.009201e+002 -9.473091e+001 -9.943636e+001 -1.439078e-001 1.349703e+002
538125000 -6.156825e-001 -1.485581e+002 -7.013219e+001 -1.251438e+002 -7.442710e+001 -7.321784e+001 -1.502239e-001 1.349057e+002
538750000 -6.249554e-001 -1.488975e+002 -7.079837e+001 -8.662882e+001 -7.505231e+001 -1.087211e+002 -1.538801e-001 1.348090e+002
539375000 -6.392640e-001 -1.491807e+002 -7.365891e+001 -8.734809e+001 -7.579041e+001 -3.269293e+001 -1.454875e-001 1.348205e+002
540000000 -6.493405e-001 -1.495071e+002 -7.269093e+001 -1.409165e+002 -7.160075e+001 -7.100429e+001 -1.544736e-001 1.347156e+002
540625000 -6.597363e-001 -1.497655e+002 -7.209935e+001 -7.101712e+001 -8.189570e+001 -1.451265e+002 -1.513738e-001 1.346962e+002
541250000 -6.675943e-001 -1.500466e+002 -7.923898e+001 -5.325727e+001 -7.932316e+001 -3.562623e+001 -1.507174e-001 1.346616e+002
541875000 -6.818490e-001 -1.503548e+002 -7.851006e+001 -1.295732e+002 -7.914590e+001 -9.547003e+001 -1.518377e-001 1.345767e+002
542500000 -6.973557e-001 -1.506411e+002 -7.452423e+001 -1.356285e+002 -7.456283e+001 -8.950154e+001 -1.394011e-001 1.345789e+002
543125000 -6.992339e-001 -1.509300e+002 -8.822950e+001 9.893047e+001 -7.084628e+001 -9.176321e+001 -1.438967e-001 1.345280e+002
543750000 -7.062747e-001 -1.512178e+002 -8.262418e+001 -1.172619e+002 -7.552038e+001 -1.180552e+002 -1.459943e-001 1.345348e+002
544375000 -7.292963e-001 -1.514527e+002 -8.355296e+001 1.329235e+002 -7.178693e+001 1.683909e+002 -1.419725e-001 1.345327e+002
545000000 -7.345568e-001 -1.517245e+002 -7.772183e+001 -1.543834e+002 -7.218282e+001 -8.779251e+001 -1.389573e-001 1.345255e+002
545625000 -7.475592e-001 -1.520252e+002 -7.231487e+001 -1.546232e+002 -7.733177e+001 -1.052932e+002 -1.418726e-001 1.345831e+002
546250000 -7.629033e-001 -1.522694e+002 -7.535619e+001 -1.731914e+002 -6.686696e+001 -1.435771e+002 -1.465480e-001 1.345109e+002
546875000 -7.692787e-001 -1.526115e+002 -6.871832e+001 -1.108161e+002 -6.794308e+001 -1.693000e+002 -1.455755e-001 1.346120e+002
547500000 -7.802358e-001 -1.528801e+002 -7.427688e+001 -1.544742e+002 -6.882823e+001 -1.295127e+002 -1.458943e-001 1.345304e+002
548125000 -7.925735e-001 -1.531611e+002 -7.943941e+001 1.726093e+002 -7.755502e+001 -8.467484e+001 -1.454395e-001 1.345372e+002
548750000 -7.999504e-001 -1.534849e+002 -6.837829e+001 -1.610808e+002 -7.231805e+001 -1.331522e+002 -1.511683e-001 1.344601e+002
549375000 -8.158447e-001 -1.537598e+002 -6.719488e+001 -1.799829e+002 -8.506741e+001 -1.270357e+002 -1.555357e-001 1.343370e+002
550000000 -8.185999e-001 -1.540459e+002 -7.147459e+001 -1.517801e+002 -7.452223e+001 1.740308e+002 -1.585113e-001 1.343888e+002
550625000 -8.241279e-001 -1.543764e+002 -7.331354e+001 1.058239e+002 -7.161285e+001 -1.765804e+002 -1.638282e-001 1.342492e+002
551250000 -8.303177e-001 -1.546654e+002 -7.585496e+001 -1.801145e+001 -7.801680e+001 1.744308e+002 -1.615648e-001 1.341871e+002
551875000 -8.339444e-001 -1.549786e+002 -7.479828e+001 1.594851e+002 -7.057622e+001 -1.650487e+002 -1.657872e-001 1.340648e+002
552500000 -8.335856e-001 -1.553021e+002 -7.624128e+001 -1.692628e+002 -7.734842e+001 -1.719413e+002 -1.692730e-001 1.339187e+002
553125000 -8.337541e-001 -1.556618e+002 -7.176982e+001 1.297336e+002 -7.039929e+001 1.280555e+002 -1.698358e-001 1.338383e+002
553750000 -8.453430e-001 -1.560138e+002 -7.597466e+001 1.555645e+002 -6.880521e+001 -1.733704e+002 -1.702593e-001 1.336372e+002
554375000 -8.393793e-001 -1.563318e+002 -7.529258e+001 1.179716e+002 -7.590907e+001 1.369000e+002 -1.660381e-001 1.335831e+002
555000000 -8.488088e-001 -1.566741e+002 -7.079806e+001 1.553736e+002 -7.162512e+001 1.376266e+002 -1.732299e-001 1.333774e+002
555625000 -8.610415e-001 -1.569697e+002 -7.692087e+001 1.309116e+002 -8.849830e+001 -1.754144e+002 -1.554499e-001 1.333650e+002
556250000 -8.550738e-001 -1.573462e+002 -7.247115e+001 1.487241e+002 -8.285524e+001 -1.698176e+002 -1.644078e-001 1.332804e+002
556875000 -8.620442e-001 -1.577434e+002 -8.986959e+001 1.302624e+002 -7.143965e+001 -1.529165e+002 -1.712596e-001 1.331973e+002
557500000 -8.733060e-001 -1.580276e+002 -8.399473e+001 6.922388e+001 -7.058267e+001 1.045253e+002 -1.602033e-001 1.331285e+002
558125000 -8.851215e-001 -1.583435e+002 -7.363585e+001 -1.613303e+002 -7.202885e+001 1.030738e+002 -1.662834e-001 1.331283e+002
558750000 -8.815858e-001 -1.586816e+002 -7.466210e+001 -1.410730e+002 -7.638340e+001 1.191751e+002 -1.596546e-001 1.330707e+002
559375000 -8.948313e-001 -1.589918e+002 -6.980731e+001 -1.485483e+002 -7.109480e+001 1.405089e+002 -1.544917e-001 1.330391e+002
560000000 -9.050208e-001 -1.592774e+002 -7.049088e+001 9.712711e+001 -7.252983e+001 1.420755e+002 -1.472225e-001 1.330102e+002
560625000 -9.079273e-001 -1.595594e+002 -7.632710e+001 1.683994e+002 -7.263643e+001 1.071831e+002 -1.441052e-001 1.330697e+002
561250000 -9.197848e-001 -1.599273e+002 -8.012904e+001 1.691966e+002 -7.113094e+001 1.600940e+002 -1.456139e-001 1.329805e+002
561875000 -9.177565e-001 -1.602643e+002 -6.804688e+001 1.387537e+002 -6.953725e+001 1.178718e+002 -1.478349e-001 1.330175e+002
562500000 -9.258478e-001 -1.605999e+002 -7.016348e+001 7.793186e+001 -7.069631e+001 1.095975e+002 -1.506089e-001 1.330344e+002
563125000 -9.269918e-001 -1.609474e+002 -7.104354e+001 9.888585e+001 -7.313736e+001 1.045326e+002 -1.469000e-001 1.330363e+002
563750000 -9.467123e-001 -1.613042e+002 -7.059933e+001 1.320472e+002 -7.559439e+001 1.434154e+002 -1.528374e-001 1.329554e+002
564375000 -9.586361e-001 -1.616644e+002 -7.104182e+001 1.159278e+002 -7.392672e+001 1.388319e+002 -1.558551e-001 1.329812e+002
565000000 -9.661695e-001 -1.621577e+002 -8.263554e+001 1.245802e+002 -7.642992e+001 -1.542536e+002 -1.682078e-001 1.329008e+002
565625000 -9.780854e-001 -1.625167e+002 -7.347976e+001 1.626946e+002 -7.857133e+001 6.837005e+001 -1.709328e-001 1.327974e+002
566250000 -9.914846e-001 -1.629722e+002 -6.796764e+001 1.320779e+002 -7.423168e+001 1.015195e+002 -1.720490e-001 1.327159e+002
566875000 -1.016545e+000 -1.633452e+002 -6.674698e+001 9.468523e+001 -7.645862e+001 3.485471e+001 -1.750613e-001 1.325426e+002
567500000 -1.029761e+000 -1.638338e+002 -8.063959e+001 1.060991e+002 -7.280966e+001 7.269942e+001 -1.726990e-001 1.324500e+002
568125000 -1.053419e+000 -1.641906e+002 -7.538898e+001 1.156103e+002 -7.612897e+001 4.392222e+001 -1.833266e-001 1.322578e+002
568750000 -1.059182e+000 -1.645457e+002 -7.393954e+001 1.269706e+002 -7.572498e+001 1.593884e+002 -1.850832e-001 1.321215e+002
569375000 -1.082688e+000 -1.649627e+002 -6.877796e+001 1.305519e+002 -8.132557e+001 -1.196393e+002 -1.866729e-001 1.319964e+002
570000000 -1.097470e+000 -1.653813e+002 -7.218643e+001 8.535091e+001 -7.044461e+001 1.014909e+002 -1.798517e-001 1.317636e+002
570625000 -1.096292e+000 -1.657147e+002 -7.093572e+001 8.985121e+001 -8.059740e+001 1.203340e+002 -1.775430e-001 1.316604e+002
571250000 -1.107447e+000 -1.660812e+002 -7.936865e+001 5.404988e+001 -7.635620e+001 1.161728e+002 -1.777858e-001 1.315615e+002
571875000 -1.121339e+000 -1.664537e+002 -7.112001e+001 9.068234e+001 -7.411586e+001 1.212646e+002 -1.679530e-001 1.314715e+002
572500000 -1.128623e+000 -1.668483e+002 -7.598428e+001 1.482604e+002 -6.963205e+001 6.744684e+001 -1.729487e-001 1.313251e+002
573125000 -1.131455e+000 -1.672460e+002 -7.101465e+001 7.409341e+001 -7.087006e+001 9.202871e+001 -1.606066e-001 1.312345e+002
573750000 -1.139151e+000 -1.676329e+002 -7.135543e+001 1.153733e+002 -7.220599e+001 5.370502e+001 -1.711709e-001 1.311849e+002
574375000 -1.138284e+000 -1.679783e+002 -7.612002e+001 9.878913e+001 -7.193771e+001 1.296570e+002 -1.588609e-001 1.311380e+002
575000000 -1.143973e+000 -1.684278e+002 -6.859051e+001 7.982488e+001 -8.994759e+001 4.812311e+001 -1.613649e-001 1.311325e+002
575625000 -1.147894e+000 -1.687969e+002 -7.240912e+001 8.078394e+001 -7.274859e+001 7.234233e+001 -1.538696e-001 1.310619e+002
576250000 -1.155545e+000 -1.691450e+002 -6.868619e+001 6.797250e+001 -6.626922e+001 5.960824e+001 -1.545028e-001 1.309994e+002
576875000 -1.159716e+000 -1.695980e+002 -6.685117e+001 6.755167e+001 -7.012556e+001 8.739831e+001 -1.472468e-001 1.310473e+002
577500000 -1.177593e+000 -1.699265e+002 -6.852155e+001 6.079458e+001 -6.946411e+001 1.080015e+002 -1.465110e-001 1.309827e+002
578125000 -1.186726e+000 -1.703415e+002 -6.443201e+001 6.683085e+001 -6.876582e+001 8.067819e+001 -1.546966e-001 1.310372e+002
578750000 -1.181018e+000 -1.707426e+002 -6.579595e+001 5.617678e+001 -6.575852e+001 6.921855e+001 -1.573561e-001 1.309363e+002
579375000 -1.191093e+000 -1.711800e+002 -6.686505e+001 5.291084e+001 -6.598756e+001 6.520508e+001 -1.585412e-001 1.308925e+002
580000000 -1.200803e+000 -1.715903e+002 -6.522992e+001 7.034005e+001 -6.713182e+001 9.769453e+001 -1.637302e-001 1.308467e+002
580625000 -1.210720e+000 -1.720365e+002 -6.508344e+001 7.264891e+001 -6.456533e+001 3.886637e+001 -1.638084e-001 1.307436e+002
581250000 -1.224931e+000 -1.725073e+002 -6.337457e+001 7.287820e+001 -6.586620e+001 7.424910e+001 -1.612282e-001 1.306819e+002
581875000 -1.236489e+000 -1.729678e+002 -7.270625e+001 4.708644e+001 -6.938731e+001 4.726101e+001 -1.645613e-001 1.306549e+002
582500000 -1.257306e+000 -1.734882e+002 -6.750380e+001 6.585578e+001 -6.602022e+001 5.536194e+001 -1.589984e-001 1.305085e+002
583125000 -1.270440e+000 -1.741046e+002 -6.641385e+001 4.910527e+001 -6.494929e+001 5.941640e+001 -1.730356e-001 1.303690e+002
583750000 -1.301693e+000 -1.745588e+002 -6.819430e+001 4.712496e+001 -6.924357e+001 4.800928e+001 -1.851325e-001 1.303124e+002
584375000 -1.322665e+000 -1.750878e+002 -6.723019e+001 5.940086e+001 -6.416367e+001 5.243262e+001 -1.747380e-001 1.301309e+002
585000000 -1.334854e+000 -1.756166e+002 -6.263395e+001 3.550194e+001 -6.465207e+001 4.423561e+001 -1.820662e-001 1.300666e+002
585625000 -1.376966e+000 -1.760661e+002 -6.539834e+001 5.374433e+001 -6.589892e+001 6.026939e+001 -1.706938e-001 1.299948e+002
586250000 -1.390151e+000 -1.765548e+002 -6.895445e+001 6.637888e+000 -6.653239e+001 4.541334e+001 -1.710491e-001 1.299625e+002
586875000 -1.402017e+000 -1.771072e+002 -6.732651e+001 -2.644348e+000 -6.511414e+001 3.840069e+001 -1.637115e-001 1.298544e+002
587500000 -1.428932e+000 -1.775863e+002 -6.498721e+001 4.622282e+001 -6.702237e+001 4.112027e+001 -1.547892e-001 1.297933e+002
588125000 -1.446923e+000 -1.780668e+002 -6.983195e+001 6.286721e+001 -6.685979e+001 3.891165e+001 -1.552641e-001 1.297254e+002
588750000 -1.469220e+000 -1.785574e+002 -6.592233e+001 3.422006e+001 -6.669218e+001 1.328552e+001 -1.550127e-001 1.297630e+002
589375000 -1.479734e+000 -1.790785e+002 -6.629281e+001 3.962450e+001 -6.686044e+001 3.758878e+001 -1.439672e-001 1.296936e+002
590000000 -1.504247e+000 -1.795941e+002 -6.474381e+001 5.251730e+001 -6.773486e+001 3.172562e+001 -1.550888e-001 1.297566e+002
590625000 -1.523233e+000 1.799088e+002 -6.640604e+001 2.867172e+001 -6.625949e+001 1.118128e+001 -1.480803e-001 1.297325e+002
591250000 -1.547259e+000 1.794526e+002 -6.379492e+001 1.135080e+001 -6.318366e+001 3.160898e+001 -1.467874e-001 1.297217e+002
591875000 -1.582635e+000 1.790387e+002 -6.952323e+001 3.381193e+001 -6.383726e+001 1.464341e+001 -1.425048e-001 1.297535e+002
592500000 -1.605223e+000 1.785719e+002 -6.408127e+001 1.999924e+001 -6.309853e+001 2.943285e+001 -1.424348e-001 1.298666e+002
593125000 -1.633589e+000 1.780796e+002 -6.698840e+001 2.522092e+001 -6.313346e+001 1.405418e+001 -1.522533e-001 1.298902e+002
593750000 -1.662411e+000 1.776586e+002 -6.472813e+001 1.864401e+001 -6.193557e+001 2.561411e+001 -1.343093e-001 1.299486e+002
594375000 -1.686754e+000 1.772520e+002 -6.318042e+001 2.249998e+001 -6.744633e+001 1.506854e+001 -1.415481e-001 1.299511e+002
595000000 -1.710546e+000 1.767932e+002 -6.410835e+001 1.462914e+000 -6.351086e+001 2.227004e+001 -1.647102e-001 1.299340e+002
595625000 -1.738400e+000 1.763304e+002 -6.088723e+001 1.967480e+000 -6.209497e+001 9.676777e+000 -1.566920e-001 1.299473e+002
