!Agilent Technologies,E8364B,US42250235,A.06.04.32
!Agilent E8364B: A.06.04.32
!Date: Friday, January 15, 2021 14:49:53
!Correction: S11(Full 2 Port(1,2)) S21(Full 2 Port(1,2)) S12(Full 2 Port(1,2)) S22(Full 2 Port(1,2)) 
!S2P File: Measurements: S11, S21, S12, S22:
# Hz S  dB   R 50
500000000 -1.433302e-001 -1.296610e+002 -6.987916e+001 4.794790e+001 -7.901954e+001 4.820876e+001 -1.405189e-001 1.384874e+002
500625000 -1.436007e-001 -1.299225e+002 -8.046672e+001 6.967004e+001 -7.886806e+001 -1.589232e+002 -1.293348e-001 1.384538e+002
501250000 -1.455082e-001 -1.301806e+002 -7.215710e+001 9.394327e+001 -8.561026e+001 1.678416e+002 -1.325890e-001 1.383866e+002
501875000 -1.503665e-001 -1.305092e+002 -7.363561e+001 4.100513e+001 -7.520888e+001 1.026406e+002 -1.291529e-001 1.383276e+002
502500000 -1.429727e-001 -1.307871e+002 -8.005280e+001 -9.753880e+001 -7.843889e+001 -2.707612e+001 -1.294882e-001 1.383136e+002
503125000 -1.557255e-001 -1.311291e+002 -8.155203e+001 1.122265e+002 -6.980294e+001 6.151736e+001 -1.302453e-001 1.382075e+002
503750000 -1.491939e-001 -1.313600e+002 -8.443560e+001 4.427219e+001 -8.168445e+001 1.813941e+001 -1.269085e-001 1.381222e+002
504375000 -1.575894e-001 -1.316725e+002 -7.841947e+001 2.360003e+001 -7.813266e+001 1.229295e+002 -1.391887e-001 1.380475e+002
505000000 -1.558477e-001 -1.319889e+002 -8.351806e+001 1.528580e+002 -7.802035e+001 -5.695472e+001 -1.392395e-001 1.380473e+002
505625000 -1.472658e-001 -1.322378e+002 -7.741431e+001 1.766903e+001 -7.398817e+001 -1.867389e+001 -1.413786e-001 1.379450e+002
506250000 -1.559204e-001 -1.325361e+002 -7.331899e+001 9.752874e+000 -7.825069e+001 1.573345e+001 -1.458614e-001 1.378764e+002
506875000 -1.548985e-001 -1.328247e+002 -7.400558e+001 1.470963e+002 -8.437379e+001 8.050565e+001 -1.483093e-001 1.377520e+002
507500000 -1.596487e-001 -1.331069e+002 -9.319456e+001 1.242416e+002 -7.312459e+001 -3.440730e+001 -1.344982e-001 1.376453e+002
508125000 -1.529540e-001 -1.333984e+002 -7.998330e+001 -3.555280e+001 -7.268099e+001 2.261639e+001 -1.470991e-001 1.375168e+002
508750000 -1.552898e-001 -1.336348e+002 -7.250970e+001 5.882780e+001 -7.059845e+001 5.564270e+001 -1.508060e-001 1.374046e+002
509375000 -1.588754e-001 -1.339509e+002 -7.337890e+001 6.308534e+001 -7.563159e+001 7.679430e+001 -1.423876e-001 1.372734e+002
510000000 -1.562727e-001 -1.342307e+002 -6.739056e+001 8.512611e+001 -7.779617e+001 -1.162252e+002 -1.507904e-001 1.371491e+002
510625000 -1.644479e-001 -1.344847e+002 -8.194827e+001 -1.407095e+002 -7.108386e+001 8.157082e+001 -1.415737e-001 1.371098e+002
511250000 -1.683103e-001 -1.347565e+002 -7.095223e+001 1.405519e+002 -6.933820e+001 3.956895e+001 -1.481079e-001 1.369162e+002
511875000 -1.696011e-001 -1.351236e+002 -6.986475e+001 -9.410078e+000 -7.555626e+001 5.466611e+001 -1.412055e-001 1.367832e+002
512500000 -1.720235e-001 -1.354014e+002 -6.988704e+001 4.785685e+001 -6.969723e+001 6.282444e+001 -1.475753e-001 1.366912e+002
513125000 -1.781313e-001 -1.356892e+002 -7.986173e+001 6.070596e+001 -7.809815e+001 5.342149e+001 -1.402642e-001 1.366339e+002
513750000 -1.855137e-001 -1.359458e+002 -7.606324e+001 8.641441e+001 -8.587791e+001 -1.550802e+002 -1.407145e-001 1.364706e+002
514375000 -1.955713e-001 -1.362774e+002 -6.994166e+001 -2.949412e+001 -8.157214e+001 -1.240266e+002 -1.347106e-001 1.363629e+002
515000000 -1.983095e-001 -1.365649e+002 -7.234013e+001 5.521591e+000 -7.445986e+001 -4.939413e+001 -1.379569e-001 1.362874e+002
515625000 -2.052267e-001 -1.369505e+002 -6.868005e+001 -6.818310e+000 -7.095377e+001 -5.279285e+000 -1.335957e-001 1.362416e+002
516250000 -2.138914e-001 -1.372101e+002 -7.062327e+001 4.008883e+001 -8.254617e+001 -2.997962e-001 -1.318685e-001 1.361283e+002
516875000 -2.301707e-001 -1.375273e+002 -7.284991e+001 7.712765e+001 -7.315235e+001 -1.552530e+001 -1.232657e-001 1.361650e+002
517500000 -2.238178e-001 -1.378677e+002 -7.625615e+001 -8.300561e-001 -7.387549e+001 9.682248e+000 -1.353191e-001 1.360807e+002
518125000 -2.235676e-001 -1.382634e+002 -8.111520e+001 1.549008e+001 -7.610519e+001 -8.851685e+001 -1.275399e-001 1.360774e+002
518750000 -2.419431e-001 -1.385690e+002 -7.078226e+001 3.168281e+001 -7.883399e+001 -4.629535e+001 -1.325196e-001 1.360786e+002
519375000 -2.452266e-001 -1.388048e+002 -8.979810e+001 4.810257e+001 -7.268714e+001 1.570458e+001 -1.273190e-001 1.360276e+002
520000000 -2.428941e-001 -1.392144e+002 -7.318040e+001 1.469058e+001 -8.172965e+001 7.264001e+001 -1.264317e-001 1.360214e+002
520625000 -2.472513e-001 -1.395288e+002 -7.820774e+001 4.715242e+001 -7.834157e+001 2.009959e+001 -1.301920e-001 1.359220e+002
521250000 -2.576599e-001 -1.398580e+002 -7.293826e+001 2.201163e+001 -6.881866e+001 -1.153668e+000 -1.360233e-001 1.359464e+002
521875000 -2.533878e-001 -1.402423e+002 -7.107747e+001 -3.672456e+001 -7.128051e+001 2.559674e+000 -1.194003e-001 1.359280e+002
522500000 -2.573974e-001 -1.404826e+002 -8.514879e+001 3.888643e+001 -7.064592e+001 3.321502e+001 -1.296379e-001 1.359283e+002
523125000 -2.629372e-001 -1.408913e+002 -6.998713e+001 -2.770607e+001 -7.694822e+001 -2.252057e+001 -1.238920e-001 1.359171e+002
523750000 -2.610590e-001 -1.411386e+002 -7.258884e+001 9.464497e+000 -7.216023e+001 7.047026e+000 -1.292916e-001 1.358919e+002
524375000 -2.748569e-001 -1.414794e+002 -6.760860e+001 -1.514974e+001 -7.996147e+001 6.324905e+001 -1.301384e-001 1.357792e+002
525000000 -2.709615e-001 -1.418749e+002 -7.335849e+001 4.444795e+001 -7.483666e+001 -3.652318e+001 -1.300446e-001 1.357758e+002
525625000 -2.789117e-001 -1.420282e+002 -6.833277e+001 -2.980275e+001 -7.128165e+001 -6.634441e+001 -1.410129e-001 1.357516e+002
526250000 -2.754348e-001 -1.423799e+002 -9.224570e+001 1.466531e+001 -7.218055e+001 -1.474441e+002 -1.369768e-001 1.357350e+002
526875000 -2.845293e-001 -1.427369e+002 -7.973969e+001 -1.597827e+002 -8.835146e+001 -7.495202e-001 -1.267899e-001 1.356394e+002
527500000 -2.927085e-001 -1.430399e+002 -7.117916e+001 -1.564246e+002 -7.237962e+001 2.633072e+001 -1.422009e-001 1.356152e+002
528125000 -3.112870e-001 -1.433766e+002 -8.284853e+001 1.050501e+002 -7.546642e+001 9.786642e-001 -1.347030e-001 1.356091e+002
528750000 -3.006554e-001 -1.436717e+002 -8.037656e+001 8.292917e+001 -7.533520e+001 6.756983e+000 -1.316739e-001 1.356551e+002
529375000 -3.140223e-001 -1.440054e+002 -7.275961e+001 1.857486e+001 -7.903012e+001 9.020013e+001 -1.363599e-001 1.355762e+002
530000000 -3.126549e-001 -1.443387e+002 -7.535228e+001 6.842453e+001 -7.228438e+001 -3.540227e+001 -1.407685e-001 1.354844e+002
530625000 -3.274517e-001 -1.446495e+002 -6.675098e+001 -7.037911e+000 -7.279322e+001 6.906348e+001 -1.394528e-001 1.354589e+002
531250000 -3.299433e-001 -1.450205e+002 -7.783170e+001 6.704572e+001 -7.520737e+001 -1.323022e+002 -1.295558e-001 1.353995e+002
531875000 -3.431835e-001 -1.453717e+002 -7.668970e+001 -2.988344e+001 -7.398146e+001 -8.963122e+001 -1.365585e-001 1.353545e+002
532500000 -3.514985e-001 -1.456851e+002 -7.051030e+001 -1.373150e+002 -7.002689e+001 5.581741e+000 -1.397643e-001 1.353201e+002
533125000 -3.550032e-001 -1.460468e+002 -7.171414e+001 -2.570492e+001 -7.303149e+001 -1.322091e+001 -1.441274e-001 1.352978e+002
533750000 -3.622075e-001 -1.464458e+002 -8.080437e+001 2.295562e+001 -8.126269e+001 2.762825e+001 -1.496262e-001 1.352624e+002
534375000 -3.704553e-001 -1.468135e+002 -7.243597e+001 -9.842932e+001 -7.329192e+001 -2.115326e+001 -1.362394e-001 1.351619e+002
535000000 -3.867238e-001 -1.471841e+002 -7.504404e+001 6.951324e+001 -7.111950e+001 -6.830821e+000 -1.449422e-001 1.351323e+002
535625000 -3.959536e-001 -1.475908e+002 -7.567012e+001 -1.210264e+001 -7.324361e+001 -7.660089e+001 -1.388132e-001 1.350907e+002
536250000 -4.052166e-001 -1.479731e+002 -8.763467e+001 1.031714e+002 -7.187825e+001 -3.191385e+001 -1.367163e-001 1.349772e+002
536875000 -4.147413e-001 -1.483747e+002 -6.961195e+001 -2.972646e+001 -6.989249e+001 -1.087233e+001 -1.360798e-001 1.349138e+002
537500000 -4.187743e-001 -1.487347e+002 -7.797723e+001 1.651855e+001 -7.305824e+001 -3.127814e+001 -1.364533e-001 1.349081e+002
538125000 -4.357501e-001 -1.491277e+002 -6.960826e+001 -5.656866e+001 -6.967674e+001 -3.299708e+001 -1.413631e-001 1.348462e+002
538750000 -4.542991e-001 -1.494901e+002 -7.587828e+001 -7.368341e+000 -7.395630e+001 -9.473098e+001 -1.402438e-001 1.347715e+002
539375000 -4.674658e-001 -1.498087e+002 -6.765693e+001 -5.809504e+001 -7.000736e+001 -8.761788e+001 -1.367174e-001 1.347827e+002
540000000 -4.783745e-001 -1.502088e+002 -7.785116e+001 -6.313009e+001 -7.712516e+001 4.199815e+001 -1.353703e-001 1.346902e+002
540625000 -4.942330e-001 -1.505408e+002 -7.554379e+001 -1.275847e+001 -6.820585e+001 -2.883092e+001 -1.307090e-001 1.346640e+002
541250000 -4.968781e-001 -1.508971e+002 -6.913145e+001 -8.224223e+001 -7.741702e+001 -8.031051e+001 -1.279565e-001 1.346118e+002
541875000 -5.120435e-001 -1.512236e+002 -7.313953e+001 -3.077673e+001 -7.411860e+001 -4.612262e+000 -1.370709e-001 1.345671e+002
542500000 -5.201491e-001 -1.515944e+002 -7.520970e+001 -2.810660e+001 -7.150119e+001 -7.387370e+001 -1.301894e-001 1.345277e+002
543125000 -5.361606e-001 -1.519351e+002 -7.553570e+001 -4.930829e+001 -6.858861e+001 -4.547961e+001 -1.148434e-001 1.344609e+002
543750000 -5.457053e-001 -1.522564e+002 -7.230355e+001 4.676891e+000 -7.400446e+001 -7.889915e+001 -1.318838e-001 1.344957e+002
544375000 -5.627692e-001 -1.526187e+002 -6.988612e+001 -1.917075e+000 -7.453684e+001 -2.066920e+001 -1.267208e-001 1.345255e+002
545000000 -5.683160e-001 -1.529363e+002 -7.423284e+001 1.065153e+002 -8.314429e+001 -1.087797e+002 -1.279373e-001 1.345493e+002
545625000 -5.914766e-001 -1.533290e+002 -7.726192e+001 -7.392367e+001 -8.459703e+001 -6.394841e+000 -1.290144e-001 1.345697e+002
546250000 -6.112884e-001 -1.536512e+002 -7.151505e+001 -2.542439e+001 -7.449358e+001 -3.120268e+001 -1.381159e-001 1.345670e+002
546875000 -6.271286e-001 -1.540831e+002 -6.708205e+001 -3.159082e+000 -7.626238e+001 -5.428481e+001 -1.314007e-001 1.345801e+002
547500000 -6.504385e-001 -1.544383e+002 -7.153957e+001 -8.538414e+001 -7.278397e+001 -2.687328e+001 -1.356596e-001 1.345251e+002
548125000 -6.780705e-001 -1.547331e+002 -7.012699e+001 -4.836351e+001 -7.383035e+001 -1.078444e+001 -1.274601e-001 1.344433e+002
548750000 -6.967710e-001 -1.551317e+002 -6.867268e+001 -1.033312e+002 -7.600137e+001 -9.131227e+001 -1.462426e-001 1.344365e+002
549375000 -7.179423e-001 -1.554742e+002 -7.147853e+001 -8.180501e+001 -7.195930e+001 -3.080049e+001 -1.486644e-001 1.342850e+002
550000000 -7.335391e-001 -1.558404e+002 -6.980141e+001 -7.617605e+001 -7.504079e+001 -9.744669e+001 -1.531164e-001 1.343310e+002
550625000 -7.566013e-001 -1.561758e+002 -6.814046e+001 -6.074188e+001 -6.609251e+001 -4.810229e+001 -1.504170e-001 1.342292e+002
551250000 -7.637938e-001 -1.565455e+002 -7.449084e+001 -2.487013e+001 -7.167509e+001 -6.466499e+001 -1.602745e-001 1.341185e+002
551875000 -7.846234e-001 -1.568855e+002 -7.367627e+001 -9.492194e+001 -7.497198e+001 -8.571934e+001 -1.558881e-001 1.339948e+002
552500000 -7.928571e-001 -1.572572e+002 -7.126585e+001 -7.911586e+001 -8.068429e+001 1.946304e+001 -1.514844e-001 1.338133e+002
553125000 -8.072433e-001 -1.575931e+002 -7.217113e+001 -4.142093e+001 -7.566769e+001 -2.212437e+001 -1.680033e-001 1.337548e+002
553750000 -8.335349e-001 -1.579697e+002 -8.094595e+001 1.719069e+001 -7.228616e+001 3.025644e+000 -1.624195e-001 1.336238e+002
554375000 -8.418846e-001 -1.583003e+002 -7.177498e+001 -7.051745e+001 -7.043204e+001 -5.092626e+001 -1.556811e-001 1.334906e+002
555000000 -8.574951e-001 -1.587462e+002 -7.013718e+001 -4.359426e+001 -6.963453e+001 -7.618826e+001 -1.573702e-001 1.333926e+002
555625000 -8.849354e-001 -1.590255e+002 -7.876347e+001 -9.442462e+001 -7.337396e+001 -2.214075e+001 -1.448786e-001 1.333206e+002
556250000 -9.017214e-001 -1.594199e+002 -6.556687e+001 -5.308426e+001 -7.291005e+001 -6.089620e+001 -1.603563e-001 1.332254e+002
556875000 -9.131516e-001 -1.597738e+002 -6.953236e+001 -6.300120e+001 -6.716411e+001 -6.318573e+001 -1.629107e-001 1.331110e+002
557500000 -9.401451e-001 -1.600921e+002 -7.017162e+001 -6.419798e+001 -7.178828e+001 -6.510215e+001 -1.477800e-001 1.330497e+002
558125000 -9.545158e-001 -1.604306e+002 -7.231615e+001 -4.672807e+001 -6.772881e+001 -7.133511e+001 -1.515143e-001 1.330593e+002
558750000 -9.702457e-001 -1.607708e+002 -7.788917e+001 -7.419286e+001 -7.573318e+001 -8.705859e+001 -1.401654e-001 1.330003e+002
559375000 -9.920560e-001 -1.611363e+002 -6.834807e+001 -4.710884e+001 -7.205830e+001 -9.869381e+001 -1.338381e-001 1.329471e+002
560000000 -1.021637e+000 -1.614497e+002 -6.937161e+001 -8.522862e+001 -8.051484e+001 -2.637486e+001 -1.298760e-001 1.329142e+002
560625000 -1.037410e+000 -1.617043e+002 -6.619883e+001 -8.848783e+001 -7.471504e+001 -9.461497e+001 -1.385587e-001 1.329691e+002
561250000 -1.064073e+000 -1.620900e+002 -6.726582e+001 -8.531310e+001 -7.452996e+001 -7.831747e+001 -1.305891e-001 1.329570e+002
561875000 -1.092359e+000 -1.624147e+002 -7.383409e+001 -6.202311e+001 -7.254742e+001 -9.962654e+001 -1.379987e-001 1.329674e+002
562500000 -1.115628e+000 -1.626949e+002 -6.850308e+001 -5.304945e+001 -6.799762e+001 -1.009744e+002 -1.385561e-001 1.329421e+002
563125000 -1.133844e+000 -1.630012e+002 -7.038373e+001 -1.121527e+002 -6.672422e+001 -8.336089e+001 -1.334351e-001 1.329402e+002
563750000 -1.169770e+000 -1.633382e+002 -6.619264e+001 -5.266143e+001 -7.034465e+001 -8.211960e+001 -1.413304e-001 1.328466e+002
564375000 -1.190229e+000 -1.637205e+002 -6.780199e+001 -1.012213e+002 -6.758681e+001 -6.992953e+001 -1.502871e-001 1.328552e+002
565000000 -1.216136e+000 -1.640993e+002 -7.161678e+001 -1.223198e+002 -6.868578e+001 -9.277619e+001 -1.556840e-001 1.327362e+002
565625000 -1.246028e+000 -1.643716e+002 -8.102655e+001 -3.019621e+001 -7.182097e+001 -4.103141e+001 -1.628852e-001 1.326667e+002
566250000 -1.272007e+000 -1.648408e+002 -7.571952e+001 -2.309884e+001 -6.586528e+001 -6.451266e+001 -1.628909e-001 1.326172e+002
566875000 -1.310770e+000 -1.651266e+002 -6.850233e+001 -9.522337e+001 -6.817545e+001 -8.472911e+001 -1.686523e-001 1.324285e+002
567500000 -1.349056e+000 -1.655315e+002 -6.839262e+001 -8.236602e+001 -6.981282e+001 -9.468629e+001 -1.621882e-001 1.323165e+002
568125000 -1.379882e+000 -1.658503e+002 -6.607586e+001 -1.090416e+002 -6.705744e+001 -7.494595e+001 -1.634461e-001 1.321447e+002
568750000 -1.413282e+000 -1.661452e+002 -6.661022e+001 -5.954219e+001 -6.678441e+001 -8.102415e+001 -1.679130e-001 1.320090e+002
569375000 -1.451126e+000 -1.665086e+002 -6.623959e+001 -5.022755e+001 -6.630695e+001 -7.905218e+001 -1.673443e-001 1.319392e+002
570000000 -1.475503e+000 -1.667897e+002 -7.044942e+001 -3.999726e+001 -6.604462e+001 -1.015372e+002 -1.715123e-001 1.317035e+002
570625000 -1.503180e+000 -1.670362e+002 -7.127147e+001 -1.291733e+002 -6.380880e+001 -9.842295e+001 -1.548818e-001 1.316096e+002
571250000 -1.524227e+000 -1.672976e+002 -6.689392e+001 -9.478182e+001 -6.824606e+001 -1.010908e+002 -1.608566e-001 1.315218e+002
571875000 -1.552421e+000 -1.675576e+002 -6.444484e+001 -9.171011e+001 -6.973032e+001 -1.165204e+002 -1.493507e-001 1.313880e+002
572500000 -1.578361e+000 -1.677999e+002 -6.686649e+001 -1.187875e+002 -6.777413e+001 -9.069335e+001 -1.620460e-001 1.312888e+002
573125000 -1.588876e+000 -1.680596e+002 -6.797600e+001 -9.617307e+001 -6.908555e+001 -1.297480e+002 -1.471922e-001 1.311883e+002
573750000 -1.598304e+000 -1.683097e+002 -6.641469e+001 -1.117230e+002 -6.756818e+001 -1.193501e+002 -1.650244e-001 1.311110e+002
574375000 -1.607357e+000 -1.685346e+002 -6.513921e+001 -1.286576e+002 -6.538432e+001 -1.185299e+002 -1.457284e-001 1.310975e+002
575000000 -1.617160e+000 -1.688672e+002 -6.895245e+001 -1.025635e+002 -6.839487e+001 -7.530571e+001 -1.533232e-001 1.310312e+002
575625000 -1.633408e+000 -1.690332e+002 -6.548674e+001 -1.190921e+002 -6.572235e+001 -1.163330e+002 -1.500253e-001 1.310130e+002
576250000 -1.649916e+000 -1.693322e+002 -6.921802e+001 -1.407125e+002 -6.874265e+001 -1.148346e+002 -1.480094e-001 1.309609e+002
576875000 -1.658335e+000 -1.695749e+002 -6.648413e+001 -1.104239e+002 -6.927025e+001 -9.563921e+001 -1.426334e-001 1.309391e+002
577500000 -1.682847e+000 -1.697592e+002 -6.652975e+001 -1.427660e+002 -6.955750e+001 -1.224815e+002 -1.421165e-001 1.309202e+002
578125000 -1.691278e+000 -1.700595e+002 -6.794981e+001 -1.663147e+002 -6.700705e+001 -1.547692e+002 -1.367495e-001 1.309465e+002
578750000 -1.693511e+000 -1.702690e+002 -7.137138e+001 -1.424122e+002 -7.154814e+001 -1.509124e+002 -1.506724e-001 1.308724e+002
579375000 -1.694142e+000 -1.705190e+002 -6.362793e+001 -1.482661e+002 -7.363201e+001 -1.256856e+002 -1.458220e-001 1.308442e+002
580000000 -1.699243e+000 -1.707378e+002 -6.909291e+001 -1.660896e+002 -6.937345e+001 -1.637514e+002 -1.519738e-001 1.307428e+002
580625000 -1.706086e+000 -1.710794e+002 -6.799464e+001 -1.428063e+002 -6.712778e+001 -1.377015e+002 -1.542258e-001 1.307058e+002
581250000 -1.706750e+000 -1.713823e+002 -6.841010e+001 -1.331027e+002 -7.223139e+001 -1.516996e+002 -1.601503e-001 1.306496e+002
581875000 -1.712905e+000 -1.718177e+002 -7.143188e+001 -1.654931e+002 -6.851736e+001 -1.598018e+002 -1.595487e-001 1.305713e+002
582500000 -1.719740e+000 -1.721998e+002 -7.309282e+001 -1.622558e+002 -7.684355e+001 -1.072693e+002 -1.628331e-001 1.305079e+002
583125000 -1.732929e+000 -1.726594e+002 -7.058097e+001 -1.080503e+002 -6.946494e+001 -1.347472e+002 -1.712068e-001 1.303148e+002
583750000 -1.755431e+000 -1.730309e+002 -6.729861e+001 -8.301456e+001 -7.054591e+001 -1.463745e+002 -1.651623e-001 1.302281e+002
584375000 -1.767709e+000 -1.734534e+002 -6.915755e+001 -1.211533e+002 -7.399353e+001 -1.735884e+002 -1.608262e-001 1.301347e+002
585000000 -1.792409e+000 -1.738639e+002 -6.614462e+001 -1.128798e+002 -6.900332e+001 -1.562664e+002 -1.625922e-001 1.300205e+002
585625000 -1.826323e+000 -1.741933e+002 -7.515955e+001 -5.270472e+001 -6.886799e+001 -1.356421e+002 -1.519033e-001 1.299137e+002
586250000 -1.825225e+000 -1.745827e+002 -7.143597e+001 -1.272659e+002 -7.387341e+001 -1.064757e+002 -1.495804e-001 1.299391e+002
586875000 -1.837895e+000 -1.749341e+002 -7.079436e+001 -1.035557e+002 -6.695380e+001 -1.533564e+002 -1.534614e-001 1.298058e+002
587500000 -1.861256e+000 -1.752845e+002 -6.712523e+001 -1.165454e+002 -6.476765e+001 -9.754693e+001 -1.490503e-001 1.297375e+002
588125000 -1.862567e+000 -1.756512e+002 -6.963741e+001 -1.281313e+002 -6.677342e+001 -1.407197e+002 -1.435214e-001 1.297280e+002
588750000 -1.869675e+000 -1.759609e+002 -6.725140e+001 -1.228239e+002 -6.772490e+001 -1.131462e+002 -1.468471e-001 1.296795e+002
589375000 -1.873938e+000 -1.763400e+002 -6.915613e+001 -1.622569e+002 -6.904913e+001 -1.717960e+002 -1.403357e-001 1.296323e+002
590000000 -1.882541e+000 -1.767551e+002 -6.817828e+001 -1.290615e+002 -6.604815e+001 -1.246671e+002 -1.382886e-001 1.297087e+002
590625000 -1.888568e+000 -1.771171e+002 -6.559856e+001 -1.500435e+002 -6.830421e+001 -1.207303e+002 -1.377405e-001 1.295720e+002
591250000 -1.899693e+000 -1.774836e+002 -6.940712e+001 -1.353648e+002 -6.789232e+001 -1.654964e+002 -1.433027e-001 1.296618e+002
591875000 -1.912975e+000 -1.778238e+002 -6.758366e+001 -1.603620e+002 -6.616003e+001 -1.274799e+002 -1.346231e-001 1.297120e+002
592500000 -1.924665e+000 -1.781854e+002 -6.690582e+001 -1.573738e+002 -6.812534e+001 -1.290580e+002 -1.322096e-001 1.297632e+002
593125000 -1.937549e+000 -1.784922e+002 -6.919102e+001 -1.660143e+002 -6.448290e+001 -1.493161e+002 -1.397473e-001 1.298051e+002
593750000 -1.945373e+000 -1.787918e+002 -6.407746e+001 -1.293036e+002 -6.521429e+001 -1.379301e+002 -1.361588e-001 1.298852e+002
594375000 -1.951160e+000 -1.790702e+002 -7.013013e+001 -1.502235e+002 -6.545690e+001 -1.595347e+002 -1.325475e-001 1.298999e+002
595000000 -1.959627e+000 -1.794258e+002 -6.543250e+001 -1.389790e+002 -6.883028e+001 -1.507614e+002 -1.463664e-001 1.299212e+002
