!Agilent Technologies,E8364B,US42250235,A.06.04.32
!Agilent E8364B: A.06.04.32
!Date: Friday, January 15, 2021 14:37:36
!Correction: S11(Full 2 Port(1,2)) S21(Full 2 Port(1,2)) S12(Full 2 Port(1,2)) S22(Full 2 Port(1,2)) 
!S2P File: Measurements: S11, S21, S12, S22:
# Hz S  dB   R 50
500000000 -1.039035e-001 -1.294649e+002 -6.854049e+001 1.262248e+002 -7.112095e+001 7.717366e+001 -1.431118e-001 1.383375e+002
500625000 -1.105171e-001 -1.297838e+002 -8.622849e+001 -1.391751e+002 -7.529879e+001 -1.255328e+002 -1.485898e-001 1.383440e+002
501250000 -1.161187e-001 -1.300105e+002 -7.621825e+001 -1.286032e+002 -7.436715e+001 1.648328e+002 -1.434658e-001 1.382639e+002
501875000 -1.138779e-001 -1.303427e+002 -6.931302e+001 1.310857e+002 -6.992074e+001 1.483875e+002 -1.416427e-001 1.381970e+002
502500000 -1.167397e-001 -1.306337e+002 -7.225621e+001 1.056648e+002 -7.972120e+001 1.284218e+002 -1.423808e-001 1.381792e+002
503125000 -1.262556e-001 -1.309759e+002 -7.440228e+001 2.385957e+001 -8.406863e+001 9.916522e+000 -1.445928e-001 1.380151e+002
503750000 -1.210531e-001 -1.312775e+002 -7.676436e+001 1.320370e+002 -7.690310e+001 5.389826e+001 -1.488095e-001 1.379612e+002
504375000 -1.303308e-001 -1.315860e+002 -7.527120e+001 -1.422123e+002 -8.545164e+001 -1.124886e+002 -1.599328e-001 1.378979e+002
505000000 -1.371758e-001 -1.319289e+002 -7.593172e+001 9.329126e+001 -8.444017e+001 -2.455397e+001 -1.572485e-001 1.378353e+002
505625000 -1.365200e-001 -1.321234e+002 -7.897901e+001 6.109171e+001 -6.836649e+001 6.861002e+001 -1.592022e-001 1.377706e+002
506250000 -1.435370e-001 -1.325113e+002 -8.960663e+001 3.159256e+001 -7.311517e+001 1.226450e+002 -1.600223e-001 1.375699e+002
506875000 -1.470360e-001 -1.327776e+002 -6.871767e+001 1.069004e+002 -7.194455e+001 7.126054e+001 -1.548928e-001 1.374505e+002
507500000 -1.519749e-001 -1.330698e+002 -8.409162e+001 -3.452464e+001 -7.146761e+001 1.080007e+002 -1.557630e-001 1.373364e+002
508125000 -1.578982e-001 -1.333671e+002 -8.086504e+001 -6.336927e+001 -7.529070e+001 5.968259e+000 -1.575058e-001 1.372572e+002
508750000 -1.579496e-001 -1.335774e+002 -7.675421e+001 9.840812e+001 -6.999866e+001 4.930123e+001 -1.606925e-001 1.371178e+002
509375000 -1.662982e-001 -1.339577e+002 -7.518363e+001 8.192710e+001 -7.844550e+001 6.770654e+001 -1.537341e-001 1.370534e+002
510000000 -1.678144e-001 -1.342310e+002 -7.687668e+001 6.301177e+001 -7.038514e+001 7.210904e+001 -1.579955e-001 1.369393e+002
510625000 -1.779065e-001 -1.344771e+002 -7.255837e+001 1.276738e+002 -7.733723e+001 1.198408e+002 -1.424057e-001 1.369225e+002
511250000 -1.891078e-001 -1.347585e+002 -7.239426e+001 1.363773e+002 -7.272785e+001 5.391919e+001 -1.605081e-001 1.366623e+002
511875000 -1.875842e-001 -1.351088e+002 -7.164126e+001 -1.637159e+002 -7.903441e+001 -2.894455e+001 -1.492168e-001 1.366104e+002
512500000 -1.853716e-001 -1.353712e+002 -7.078043e+001 8.664592e+001 -7.329904e+001 2.447448e+001 -1.514526e-001 1.365587e+002
513125000 -2.013762e-001 -1.356936e+002 -7.802760e+001 6.752785e+001 -7.593587e+001 6.338760e+001 -1.529210e-001 1.365075e+002
513750000 -2.104319e-001 -1.359702e+002 -8.154740e+001 -1.219667e+002 -9.807446e+001 8.748827e+001 -1.528956e-001 1.364084e+002
514375000 -2.116956e-001 -1.363019e+002 -7.508792e+001 6.686705e+001 -7.514378e+001 -1.035508e+002 -1.509213e-001 1.363270e+002
515000000 -2.247614e-001 -1.366053e+002 -7.687075e+001 3.561195e+001 -8.206946e+001 7.160786e+001 -1.415871e-001 1.362145e+002
515625000 -2.381613e-001 -1.369809e+002 -7.283128e+001 5.060996e+001 -7.348730e+001 1.589408e+002 -1.456919e-001 1.361797e+002
516250000 -2.468776e-001 -1.373061e+002 -7.459739e+001 3.806541e+001 -8.761465e+001 8.596721e+001 -1.483760e-001 1.360687e+002
516875000 -2.646585e-001 -1.376307e+002 -7.110986e+001 1.291171e+002 -8.265445e+001 4.816464e+001 -1.513255e-001 1.360475e+002
517500000 -2.657239e-001 -1.379834e+002 -7.925928e+001 1.211741e+002 -8.009039e+001 1.409744e+001 -1.536520e-001 1.359444e+002
518125000 -2.640877e-001 -1.383701e+002 -7.761563e+001 1.575535e+002 -7.497014e+001 -4.603847e+001 -1.565007e-001 1.358491e+002
518750000 -2.839468e-001 -1.386657e+002 -7.224928e+001 6.884516e+001 -7.519045e+001 9.285626e+001 -1.602397e-001 1.358825e+002
519375000 -2.900428e-001 -1.389669e+002 -7.120570e+001 1.130588e+002 -7.213873e+001 3.943311e+001 -1.400841e-001 1.357581e+002
520000000 -2.961253e-001 -1.393208e+002 -7.237254e+001 5.838435e+001 -7.708583e+001 1.056250e+002 -1.490391e-001 1.356815e+002
520625000 -3.063679e-001 -1.396644e+002 -7.426652e+001 7.004214e+001 -7.439710e+001 8.165604e+001 -1.537269e-001 1.356319e+002
521250000 -3.152026e-001 -1.399711e+002 -7.641903e+001 7.914455e+001 -7.684622e+001 4.741292e+001 -1.472003e-001 1.355898e+002
521875000 -3.161346e-001 -1.403849e+002 -7.586198e+001 8.669568e+001 -8.897251e+001 1.120895e+001 -1.320774e-001 1.356035e+002
522500000 -3.231518e-001 -1.407061e+002 -6.986994e+001 2.850588e+001 -7.598576e+001 1.127300e+002 -1.416338e-001 1.355625e+002
523125000 -3.429666e-001 -1.410459e+002 -8.154848e+001 8.637538e+001 -7.532141e+001 -7.476318e+000 -1.424106e-001 1.355533e+002
523750000 -3.430762e-001 -1.413249e+002 -7.962231e+001 6.767283e+001 -8.571415e+001 -6.474675e+001 -1.469821e-001 1.355238e+002
524375000 -3.608325e-001 -1.416620e+002 -7.807990e+001 1.051368e+002 -7.426181e+001 1.571235e+001 -1.392796e-001 1.354809e+002
525000000 -3.591062e-001 -1.420130e+002 -7.480342e+001 2.247610e+001 -7.368803e+001 9.954209e+001 -1.429600e-001 1.354645e+002
525625000 -3.803543e-001 -1.422616e+002 -7.144580e+001 7.347729e+001 -9.282016e+001 -8.882895e+001 -1.501720e-001 1.354405e+002
526250000 -3.827535e-001 -1.425555e+002 -8.183043e+001 3.346737e+001 -8.029771e+001 1.085691e+001 -1.407795e-001 1.354509e+002
526875000 -3.920302e-001 -1.429235e+002 -7.496210e+001 -1.958906e+001 -7.821229e+001 -3.689523e+001 -1.342844e-001 1.354137e+002
527500000 -4.082908e-001 -1.432213e+002 -7.012920e+001 -1.739121e+001 -6.964385e+001 4.174543e+001 -1.410383e-001 1.353851e+002
528125000 -4.284625e-001 -1.435347e+002 -8.199110e+001 6.722883e+001 -7.266945e+001 7.932461e+000 -1.441760e-001 1.354481e+002
528750000 -4.336836e-001 -1.438209e+002 -6.928254e+001 1.343731e+000 -7.263728e+001 -1.421949e+001 -1.474250e-001 1.354910e+002
529375000 -4.490267e-001 -1.441406e+002 -7.202554e+001 2.853971e+001 -7.192008e+001 -2.049919e+001 -1.483864e-001 1.353658e+002
530000000 -4.624588e-001 -1.445401e+002 -7.614666e+001 1.532442e+002 -6.925572e+001 5.926686e+001 -1.521772e-001 1.353481e+002
530625000 -4.691266e-001 -1.448095e+002 -7.374188e+001 2.751752e+001 -8.279244e+001 8.469850e+001 -1.570210e-001 1.352410e+002
531250000 -4.846834e-001 -1.452054e+002 -7.426114e+001 2.683764e+001 -8.092574e+001 2.468203e+001 -1.490813e-001 1.352152e+002
531875000 -5.088007e-001 -1.454594e+002 -7.538922e+001 1.624964e+002 -7.082705e+001 2.239977e+000 -1.550029e-001 1.350496e+002
532500000 -5.229465e-001 -1.457864e+002 -6.820388e+001 3.918781e+001 -7.163080e+001 -7.027916e+001 -1.572130e-001 1.350921e+002
533125000 -5.371786e-001 -1.461469e+002 -7.781464e+001 5.046626e+001 -7.966557e+001 1.114629e+002 -1.697572e-001 1.350022e+002
533750000 -5.575892e-001 -1.465545e+002 -7.166530e+001 -2.569625e+001 -7.335303e+001 1.232219e+002 -1.778361e-001 1.349200e+002
534375000 -5.729473e-001 -1.468823e+002 -7.025004e+001 -2.015622e+001 -7.631126e+001 1.865740e+001 -1.603833e-001 1.348008e+002
535000000 -5.900981e-001 -1.471795e+002 -6.870816e+001 6.591837e+001 -7.947733e+001 -1.982691e+001 -1.657536e-001 1.347722e+002
535625000 -6.058534e-001 -1.475495e+002 -7.338855e+001 -4.958310e+001 -7.432060e+001 -1.385245e+001 -1.551128e-001 1.346799e+002
536250000 -6.228367e-001 -1.479232e+002 -7.637133e+001 4.590874e+001 -7.779258e+001 8.852238e+001 -1.540808e-001 1.345422e+002
536875000 -6.419907e-001 -1.482277e+002 -7.309489e+001 6.201715e+001 -7.454985e+001 5.732499e+001 -1.525219e-001 1.345002e+002
537500000 -6.567762e-001 -1.484883e+002 -7.084918e+001 -1.508051e+001 -7.075725e+001 2.413330e+001 -1.460789e-001 1.345486e+002
538125000 -6.676900e-001 -1.488541e+002 -7.124624e+001 1.433515e+001 -6.843265e+001 4.938353e+000 -1.502431e-001 1.344863e+002
538750000 -6.945757e-001 -1.491940e+002 -7.711498e+001 2.521688e+001 -7.546725e+001 2.612061e+001 -1.469725e-001 1.344447e+002
539375000 -7.165215e-001 -1.494970e+002 -8.143787e+001 -3.389899e+001 -7.413601e+001 -5.334288e+001 -1.387577e-001 1.344769e+002
540000000 -7.270509e-001 -1.498428e+002 -7.827666e+001 9.045305e-003 -7.154575e+001 -5.050294e+001 -1.410243e-001 1.344124e+002
540625000 -7.399241e-001 -1.501659e+002 -7.624845e+001 1.504701e+001 -8.023714e+001 -6.410748e+001 -1.443523e-001 1.344282e+002
541250000 -7.536415e-001 -1.504159e+002 -7.098033e+001 -1.886827e+001 -7.722386e+001 -5.821088e+001 -1.387416e-001 1.344110e+002
541875000 -7.793717e-001 -1.506638e+002 -7.370396e+001 4.934771e+001 -6.832932e+001 3.146193e+001 -1.461754e-001 1.344049e+002
542500000 -7.942224e-001 -1.509421e+002 -7.798583e+001 1.484460e+002 -7.654889e+001 2.705779e+001 -1.430646e-001 1.344217e+002
543125000 -8.138081e-001 -1.512353e+002 -7.140221e+001 5.781007e+001 -7.319418e+001 2.065101e+001 -1.429154e-001 1.343788e+002
543750000 -8.307587e-001 -1.515461e+002 -7.774714e+001 1.145768e+002 -7.354457e+001 4.498000e+001 -1.466467e-001 1.344139e+002
544375000 -8.541844e-001 -1.518172e+002 -6.498297e+001 1.866752e+000 -7.371368e+001 3.160160e+001 -1.451343e-001 1.343768e+002
545000000 -8.694660e-001 -1.520660e+002 -7.155657e+001 1.631247e+001 -7.122320e+001 1.600807e+000 -1.464673e-001 1.343688e+002
545625000 -8.801538e-001 -1.523268e+002 -7.171197e+001 -3.495005e+001 -7.690641e+001 8.319714e+001 -1.537908e-001 1.343762e+002
546250000 -9.169438e-001 -1.525935e+002 -7.110855e+001 -4.168780e+000 -7.231469e+001 -1.511962e+001 -1.589641e-001 1.343148e+002
546875000 -9.244701e-001 -1.529183e+002 -6.898197e+001 -1.385735e+001 -7.580364e+001 -3.844244e+001 -1.575528e-001 1.343470e+002
547500000 -9.449813e-001 -1.531671e+002 -6.936630e+001 4.635121e+001 -7.522728e+001 -3.919532e+000 -1.592850e-001 1.342576e+002
548125000 -9.662729e-001 -1.534044e+002 -6.662141e+001 2.586194e+000 -6.913073e+001 -1.033502e+001 -1.522334e-001 1.341370e+002
548750000 -9.879006e-001 -1.537638e+002 -7.005002e+001 -1.917022e+001 -7.512295e+001 -2.639394e+001 -1.633963e-001 1.341234e+002
549375000 -1.007500e+000 -1.540275e+002 -7.066466e+001 -9.774448e+000 -7.168555e+001 -6.171806e+001 -1.621023e-001 1.339205e+002
550000000 -1.018566e+000 -1.543320e+002 -7.425955e+001 -7.130542e+000 -6.746817e+001 -3.442452e+001 -1.695249e-001 1.339736e+002
550625000 -1.047049e+000 -1.546271e+002 -7.046178e+001 -3.211705e+001 -6.911801e+001 -4.811473e+001 -1.665774e-001 1.338508e+002
551250000 -1.057183e+000 -1.548411e+002 -8.008461e+001 4.729733e+001 -7.378206e+001 -4.217502e+001 -1.705423e-001 1.337646e+002
551875000 -1.077623e+000 -1.551778e+002 -7.076466e+001 -6.079242e+001 -7.407763e+001 -5.618016e+001 -1.642460e-001 1.336538e+002
552500000 -1.087668e+000 -1.554739e+002 -7.696244e+001 -2.788351e+001 -7.501942e+001 -5.730603e+001 -1.626639e-001 1.335300e+002
553125000 -1.095694e+000 -1.557337e+002 -6.780185e+001 -5.361756e+001 -7.262775e+001 -9.842678e+001 -1.701912e-001 1.334574e+002
553750000 -1.122237e+000 -1.560220e+002 -7.176648e+001 -6.108863e+001 -7.080665e+001 -5.724771e+000 -1.770348e-001 1.334132e+002
554375000 -1.123472e+000 -1.562809e+002 -7.112186e+001 -4.120185e+001 -7.075873e+001 -5.549539e+001 -1.591374e-001 1.332771e+002
555000000 -1.134878e+000 -1.565801e+002 -7.135339e+001 -6.454265e+001 -6.811236e+001 -3.364380e+001 -1.640200e-001 1.332560e+002
555625000 -1.161988e+000 -1.568229e+002 -7.765047e+001 -6.322083e+001 -6.414384e+001 -5.754189e+001 -1.537407e-001 1.332109e+002
556250000 -1.172447e+000 -1.571819e+002 -6.656957e+001 -4.148739e+001 -7.526429e+001 -1.214558e+002 -1.584188e-001 1.331072e+002
556875000 -1.178081e+000 -1.574494e+002 -7.569952e+001 -6.780477e+000 -7.541100e+001 -6.018455e+001 -1.723084e-001 1.330760e+002
557500000 -1.198761e+000 -1.576702e+002 -7.522855e+001 -4.186087e+001 -6.917586e+001 -8.352660e+001 -1.594550e-001 1.329841e+002
558125000 -1.212636e+000 -1.579134e+002 -6.781044e+001 -6.247748e+001 -6.745889e+001 -7.164669e+001 -1.653700e-001 1.329946e+002
558750000 -1.219900e+000 -1.581782e+002 -7.342738e+001 -5.519365e+001 -6.972025e+001 -3.906897e+001 -1.583388e-001 1.329122e+002
559375000 -1.239347e+000 -1.584680e+002 -7.120927e+001 -6.765507e+001 -6.822295e+001 -3.262456e+001 -1.560332e-001 1.328386e+002
560000000 -1.256301e+000 -1.586711e+002 -6.693042e+001 -4.361954e+001 -7.751782e+001 1.779219e-001 -1.528136e-001 1.327755e+002
560625000 -1.266336e+000 -1.588663e+002 -6.961452e+001 -4.379004e+001 -6.938821e+001 -6.485186e+001 -1.553697e-001 1.327552e+002
561250000 -1.279905e+000 -1.591419e+002 -6.685435e+001 -5.965543e+001 -6.883134e+001 -5.744928e+001 -1.538447e-001 1.327233e+002
561875000 -1.295457e+000 -1.593439e+002 -6.838441e+001 -3.633899e+001 -6.866407e+001 -7.051057e+001 -1.664338e-001 1.326909e+002
562500000 -1.304127e+000 -1.595399e+002 -7.024957e+001 -4.288920e+001 -6.979490e+001 -6.609229e+001 -1.658643e-001 1.326481e+002
563125000 -1.307092e+000 -1.597855e+002 -7.084598e+001 -8.005099e+001 -7.364199e+001 -7.546678e+001 -1.542007e-001 1.325983e+002
563750000 -1.324628e+000 -1.600871e+002 -6.972062e+001 -1.020265e+002 -7.134326e+001 -7.156264e+001 -1.627661e-001 1.325072e+002
564375000 -1.334123e+000 -1.603009e+002 -7.641240e+001 -4.287976e+001 -6.967536e+001 -7.837944e+001 -1.597715e-001 1.325113e+002
565000000 -1.349418e+000 -1.605734e+002 -6.882043e+001 -9.190980e+001 -6.866415e+001 -9.998028e+001 -1.661537e-001 1.324372e+002
565625000 -1.359509e+000 -1.608498e+002 -6.964968e+001 -8.265578e+001 -7.034982e+001 -7.547968e+001 -1.693557e-001 1.323382e+002
566250000 -1.365836e+000 -1.611488e+002 -6.594820e+001 -9.265819e+001 -6.729482e+001 -9.061864e+001 -1.688050e-001 1.322873e+002
566875000 -1.390068e+000 -1.614638e+002 -6.898230e+001 -7.841821e+001 -7.004776e+001 -1.116808e+002 -1.691386e-001 1.321456e+002
567500000 -1.387445e+000 -1.618067e+002 -6.480074e+001 -1.052998e+002 -6.808214e+001 -1.024089e+002 -1.775786e-001 1.320746e+002
568125000 -1.404467e+000 -1.620923e+002 -6.639400e+001 -1.227978e+002 -7.094222e+001 -7.972260e+001 -1.761653e-001 1.319848e+002
568750000 -1.410704e+000 -1.624108e+002 -6.629520e+001 -7.447534e+001 -7.436240e+001 -8.079806e+001 -1.762615e-001 1.318873e+002
569375000 -1.415352e+000 -1.627105e+002 -6.578704e+001 -7.779504e+001 -6.780210e+001 -1.033887e+002 -1.711865e-001 1.318168e+002
570000000 -1.423690e+000 -1.630972e+002 -6.932247e+001 -1.384430e+002 -6.918752e+001 -9.628486e+001 -1.665727e-001 1.315627e+002
570625000 -1.418396e+000 -1.633618e+002 -6.626819e+001 -1.342886e+002 -6.602972e+001 -8.884528e+001 -1.770006e-001 1.315215e+002
571250000 -1.427838e+000 -1.637232e+002 -6.625048e+001 -9.931068e+001 -7.523592e+001 -1.177653e+002 -1.788729e-001 1.314588e+002
571875000 -1.433477e+000 -1.640127e+002 -6.749039e+001 -9.640468e+001 -7.784513e+001 -1.497203e+002 -1.739197e-001 1.312934e+002
572500000 -1.433902e+000 -1.644060e+002 -6.916408e+001 -1.145615e+002 -6.592326e+001 -9.340251e+001 -1.702786e-001 1.311562e+002
573125000 -1.441560e+000 -1.646999e+002 -6.879202e+001 -1.266802e+002 -7.511690e+001 -1.326084e+002 -1.625777e-001 1.310563e+002
573750000 -1.441154e+000 -1.649663e+002 -7.418896e+001 -1.359385e+002 -6.839213e+001 -7.886980e+001 -1.776643e-001 1.309495e+002
574375000 -1.445697e+000 -1.653170e+002 -7.699548e+001 -1.589918e+002 -6.664931e+001 -1.179608e+002 -1.611710e-001 1.308642e+002
575000000 -1.446794e+000 -1.656294e+002 -6.568581e+001 -1.558725e+002 -6.838783e+001 -1.201338e+002 -1.649584e-001 1.308375e+002
575625000 -1.450776e+000 -1.659107e+002 -6.563315e+001 -1.251603e+002 -6.609930e+001 -1.059515e+002 -1.687653e-001 1.307436e+002
576250000 -1.448780e+000 -1.662052e+002 -6.592778e+001 -1.091024e+002 -7.271878e+001 -1.230277e+002 -1.672001e-001 1.306635e+002
576875000 -1.448494e+000 -1.664935e+002 -6.967611e+001 -9.536530e+001 -6.696828e+001 -1.287168e+002 -1.708901e-001 1.306382e+002
577500000 -1.454540e+000 -1.668233e+002 -6.695495e+001 -1.261807e+002 -7.849816e+001 -1.277902e+002 -1.697116e-001 1.304984e+002
578125000 -1.454324e+000 -1.671464e+002 -6.673032e+001 -1.086416e+002 -7.061784e+001 -1.799325e+002 -1.553060e-001 1.305476e+002
578750000 -1.452801e+000 -1.674382e+002 -8.267409e+001 -9.094594e+001 -6.941084e+001 -9.429874e+001 -1.573096e-001 1.304828e+002
579375000 -1.454279e+000 -1.677613e+002 -6.914370e+001 -1.027125e+002 -6.917777e+001 -1.228790e+002 -1.597159e-001 1.304111e+002
580000000 -1.452268e+000 -1.681036e+002 -7.179134e+001 -1.475297e+002 -6.961182e+001 -1.357965e+002 -1.597909e-001 1.303751e+002
580625000 -1.459304e+000 -1.684527e+002 -7.113326e+001 -1.266847e+002 -6.802358e+001 -1.512665e+002 -1.589205e-001 1.303616e+002
581250000 -1.464900e+000 -1.688099e+002 -6.923267e+001 -1.512875e+002 -7.609937e+001 -1.435167e+002 -1.653157e-001 1.302844e+002
581875000 -1.477701e+000 -1.692529e+002 -7.165704e+001 -8.580009e+001 -7.367694e+001 -8.995355e+001 -1.676852e-001 1.303039e+002
582500000 -1.473724e+000 -1.696271e+002 -7.142242e+001 -9.926452e+001 -7.245651e+001 -1.209124e+002 -1.669775e-001 1.302108e+002
583125000 -1.473454e+000 -1.700766e+002 -7.289211e+001 -1.158494e+002 -6.686031e+001 -1.272783e+002 -1.756538e-001 1.301005e+002
583750000 -1.486906e+000 -1.704516e+002 -7.039670e+001 -1.754350e+002 -6.866003e+001 -1.358482e+002 -1.708963e-001 1.300648e+002
584375000 -1.494585e+000 -1.708827e+002 -7.191176e+001 -9.984911e+001 -6.630483e+001 -1.242579e+002 -1.644273e-001 1.299906e+002
585000000 -1.495141e+000 -1.713324e+002 -6.523257e+001 -1.588511e+002 -7.325436e+001 -1.188786e+002 -1.745476e-001 1.299011e+002
585625000 -1.506267e+000 -1.717550e+002 -7.098773e+001 -1.560854e+002 -7.123284e+001 -1.329071e+002 -1.638595e-001 1.298466e+002
586250000 -1.503570e+000 -1.722283e+002 -7.576093e+001 -7.858744e+001 -7.043357e+001 -1.306220e+002 -1.660050e-001 1.298030e+002
586875000 -1.505673e+000 -1.727013e+002 -6.505200e+001 -1.321038e+002 -6.845221e+001 -1.533709e+002 -1.710503e-001 1.296455e+002
587500000 -1.520881e+000 -1.731526e+002 -6.550819e+001 -1.429887e+002 -6.584699e+001 -1.307828e+002 -1.653448e-001 1.296086e+002
588125000 -1.519098e+000 -1.735756e+002 -7.034459e+001 1.675835e+002 -6.633002e+001 -1.514267e+002 -1.729067e-001 1.295301e+002
588750000 -1.529522e+000 -1.740379e+002 -6.798427e+001 -1.584865e+002 -7.218052e+001 -9.313672e+001 -1.732852e-001 1.295020e+002
589375000 -1.533408e+000 -1.744992e+002 -6.448291e+001 -1.260611e+002 -6.697622e+001 -1.322211e+002 -1.612389e-001 1.293311e+002
590000000 -1.545310e+000 -1.749211e+002 -6.998556e+001 -1.367435e+002 -6.907542e+001 -1.494102e+002 -1.584648e-001 1.293645e+002
590625000 -1.550217e+000 -1.753490e+002 -6.491299e+001 -1.447005e+002 -6.480773e+001 -1.408850e+002 -1.583608e-001 1.293518e+002
591250000 -1.549650e+000 -1.757703e+002 -6.796140e+001 -1.446749e+002 -7.007231e+001 -1.524263e+002 -1.566618e-001 1.293058e+002
591875000 -1.563575e+000 -1.761778e+002 -6.575431e+001 -1.628909e+002 -6.688454e+001 -1.446472e+002 -1.595753e-001 1.293160e+002
592500000 -1.570063e+000 -1.765867e+002 -6.727280e+001 -1.280690e+002 -6.696829e+001 -1.512828e+002 -1.496736e-001 1.293906e+002
593125000 -1.581202e+000 -1.769914e+002 -7.066057e+001 1.571867e+002 -6.593761e+001 -1.426388e+002 -1.551625e-001 1.294356e+002
593750000 -1.584703e+000 -1.774722e+002 -6.814500e+001 -1.387935e+002 -7.028958e+001 -1.273498e+002 -1.498695e-001 1.295123e+002
594375000 -1.586357e+000 -1.778788e+002 -6.703155e+001 -1.622583e+002 -6.789515e+001 -1.754374e+002 -1.383475e-001 1.294920e+002
595000000 -1.598444e+000 -1.783443e+002 -6.857609e+001 1.798396e+002 -6.959532e+001 -1.633755e+002 -1.496883e-001 1.295544e+002
