!Agilent Technologies,E8364B,US42250235,A.06.04.32
!Agilent E8364B: A.06.04.32
!Date: Friday, January 15, 2021 14:45:11
!Correction: S11(Full 2 Port(1,2)) S21(Full 2 Port(1,2)) S12(Full 2 Port(1,2)) S22(Full 2 Port(1,2)) 
!S2P File: Measurements: S11, S21, S12, S22:
# Hz S  dB   R 50
500000000 -1.376899e-001 -1.295463e+002 -7.095278e+001 1.041340e+002 -6.600240e+001 -1.042841e+001 -1.523241e-001 1.384466e+002
500625000 -1.389502e-001 -1.298369e+002 -7.014647e+001 7.765729e+001 -6.404478e+001 1.697816e+001 -1.581866e-001 1.384055e+002
501250000 -1.468135e-001 -1.301099e+002 -7.510023e+001 1.524539e+002 -6.427387e+001 1.303959e+001 -1.493150e-001 1.383442e+002
501875000 -1.489890e-001 -1.303794e+002 -6.864271e+001 6.838702e+001 -6.601327e+001 -1.306495e+001 -1.482009e-001 1.382787e+002
502500000 -1.477700e-001 -1.307132e+002 -7.914320e+001 -1.050180e+002 -6.483229e+001 3.876060e+000 -1.359868e-001 1.382854e+002
503125000 -1.538977e-001 -1.309906e+002 -7.279326e+001 1.065704e+002 -6.130494e+001 8.590192e+000 -1.449187e-001 1.381127e+002
503750000 -1.460900e-001 -1.312523e+002 -6.918033e+001 8.758972e+001 -6.426254e+001 2.396466e+001 -1.481628e-001 1.380865e+002
504375000 -1.608241e-001 -1.315630e+002 -6.815668e+001 7.036637e+001 -6.879118e+001 3.439488e+000 -1.614397e-001 1.380547e+002
505000000 -1.601589e-001 -1.318832e+002 -7.168668e+001 5.278098e+001 -6.998221e+001 -1.643850e+001 -1.516371e-001 1.380572e+002
505625000 -1.572306e-001 -1.321278e+002 -6.641449e+001 6.815951e+001 -6.438512e+001 6.799150e+000 -1.530806e-001 1.379834e+002
506250000 -1.573959e-001 -1.324253e+002 -6.753474e+001 9.527867e+001 -6.561121e+001 -1.758585e+001 -1.628057e-001 1.378474e+002
506875000 -1.620155e-001 -1.327175e+002 -6.958395e+001 5.227324e+001 -6.404095e+001 -1.828264e+001 -1.547028e-001 1.377682e+002
507500000 -1.576420e-001 -1.329396e+002 -6.758833e+001 9.605007e+001 -6.491560e+001 -4.325659e+000 -1.487841e-001 1.376283e+002
508125000 -1.595314e-001 -1.332397e+002 -7.068593e+001 1.738881e+001 -6.496381e+001 -2.941144e+001 -1.615298e-001 1.375922e+002
508750000 -1.618615e-001 -1.334858e+002 -6.916333e+001 8.165561e+001 -6.314491e+001 -1.004678e+001 -1.612722e-001 1.374299e+002
509375000 -1.679180e-001 -1.338007e+002 -6.934388e+001 7.594007e+001 -6.673820e+001 -6.032287e+000 -1.589772e-001 1.373329e+002
510000000 -1.630024e-001 -1.340857e+002 -6.802976e+001 3.277684e+001 -6.811543e+001 -1.486940e+001 -1.632895e-001 1.372077e+002
510625000 -1.696863e-001 -1.343134e+002 -7.765233e+001 2.125482e+001 -6.309171e+001 -1.446598e+001 -1.586472e-001 1.371242e+002
511250000 -1.704246e-001 -1.345631e+002 -7.532484e+001 6.953979e+001 -6.495162e+001 -1.107959e+001 -1.693894e-001 1.368976e+002
511875000 -1.725062e-001 -1.348858e+002 -6.559995e+001 9.097779e+001 -6.397334e+001 -3.747572e+000 -1.549092e-001 1.367519e+002
512500000 -1.745416e-001 -1.351683e+002 -6.874411e+001 3.231337e+001 -6.674437e+001 -1.201702e+001 -1.652201e-001 1.366198e+002
513125000 -1.855325e-001 -1.354559e+002 -7.054862e+001 4.452448e+001 -6.638743e+001 -1.966829e+001 -1.707418e-001 1.366453e+002
513750000 -1.907089e-001 -1.357400e+002 -7.082835e+001 5.432024e+001 -6.430286e+001 -2.445814e+001 -1.715692e-001 1.364431e+002
514375000 -1.920971e-001 -1.360431e+002 -6.730156e+001 2.042174e+001 -6.409335e+001 -2.165565e+001 -1.605797e-001 1.363154e+002
515000000 -1.956844e-001 -1.362716e+002 -6.772489e+001 3.363370e+001 -6.307476e+001 -1.904109e+001 -1.546503e-001 1.362444e+002
515625000 -2.012084e-001 -1.366442e+002 -6.789528e+001 6.792789e+001 -6.633305e+001 -3.305270e+001 -1.491899e-001 1.361681e+002
516250000 -2.019271e-001 -1.369032e+002 -6.609741e+001 5.660934e+001 -6.276681e+001 -2.936034e+001 -1.472337e-001 1.361318e+002
516875000 -2.107768e-001 -1.372641e+002 -7.389073e+001 1.763240e+001 -6.308316e+001 -4.138091e+001 -1.527269e-001 1.361295e+002
517500000 -2.160664e-001 -1.375569e+002 -6.681458e+001 2.865663e+001 -6.275214e+001 -3.630812e+001 -1.538109e-001 1.360638e+002
518125000 -2.100252e-001 -1.379702e+002 -6.816088e+001 6.727646e+001 -6.578111e+001 -4.849650e+001 -1.479093e-001 1.359990e+002
518750000 -2.167589e-001 -1.382473e+002 -6.937438e+001 4.768945e+001 -6.128939e+001 -3.404829e+001 -1.525540e-001 1.360256e+002
519375000 -2.229438e-001 -1.385155e+002 -7.170410e+001 4.696608e+001 -6.206638e+001 -2.453164e+001 -1.430947e-001 1.359638e+002
520000000 -2.202706e-001 -1.389179e+002 -6.568672e+001 1.529027e+001 -6.286662e+001 -4.515046e+001 -1.458707e-001 1.359769e+002
520625000 -2.237601e-001 -1.392974e+002 -7.031445e+001 2.574794e+001 -6.237738e+001 -2.359772e+001 -1.454016e-001 1.358937e+002
521250000 -2.318984e-001 -1.395940e+002 -7.197752e+001 1.061372e+002 -6.527460e+001 -5.003497e+001 -1.462487e-001 1.359094e+002
521875000 -2.277555e-001 -1.399462e+002 -6.879891e+001 3.869284e+001 -6.107044e+001 -3.040666e+001 -1.367873e-001 1.358797e+002
522500000 -2.360312e-001 -1.402498e+002 -6.736921e+001 3.776814e+001 -6.456760e+001 -4.815629e+001 -1.400292e-001 1.358560e+002
523125000 -2.463934e-001 -1.405959e+002 -7.419093e+001 6.423576e+000 -6.331757e+001 -4.308014e+001 -1.472517e-001 1.358163e+002
523750000 -2.297308e-001 -1.409265e+002 -6.913826e+001 3.108381e+001 -6.266986e+001 -3.889141e+001 -1.449967e-001 1.358291e+002
524375000 -2.434052e-001 -1.412807e+002 -6.808572e+001 5.106749e+001 -6.359945e+001 -3.669143e+001 -1.394539e-001 1.357514e+002
525000000 -2.441120e-001 -1.415523e+002 -6.591279e+001 3.933012e+001 -6.188246e+001 -3.674178e+001 -1.514532e-001 1.357324e+002
525625000 -2.543667e-001 -1.418235e+002 -6.790781e+001 4.569209e+001 -6.047164e+001 -3.921192e+001 -1.470076e-001 1.356320e+002
526250000 -2.453426e-001 -1.421233e+002 -6.590520e+001 5.147459e+001 -6.507279e+001 -5.313640e+001 -1.570475e-001 1.356283e+002
526875000 -2.545950e-001 -1.424369e+002 -6.598387e+001 3.002462e+001 -6.455965e+001 -4.397174e+001 -1.415315e-001 1.355886e+002
527500000 -2.553501e-001 -1.427737e+002 -6.657800e+001 7.753629e+000 -6.076857e+001 -5.187630e+001 -1.534431e-001 1.355475e+002
528125000 -2.780949e-001 -1.430904e+002 -6.517080e+001 1.650397e+001 -6.222350e+001 -4.478515e+001 -1.529027e-001 1.355583e+002
528750000 -2.710942e-001 -1.433994e+002 -6.723072e+001 5.514363e+001 -6.080700e+001 -4.370056e+001 -1.486848e-001 1.355372e+002
529375000 -2.803322e-001 -1.437301e+002 -6.561832e+001 -1.471092e+001 -6.022945e+001 -5.383371e+001 -1.523544e-001 1.354247e+002
530000000 -2.825642e-001 -1.441389e+002 -6.721661e+001 7.027990e+000 -6.095172e+001 -5.625976e+001 -1.539816e-001 1.354290e+002
530625000 -2.834520e-001 -1.444066e+002 -6.770782e+001 2.548517e+001 -6.367513e+001 -6.203607e+001 -1.575515e-001 1.353460e+002
531250000 -2.945097e-001 -1.447544e+002 -6.470686e+001 1.984507e+001 -6.093725e+001 -5.854653e+001 -1.449705e-001 1.352862e+002
531875000 -3.136823e-001 -1.450698e+002 -6.549802e+001 2.263102e+001 -6.304917e+001 -5.791915e+001 -1.537157e-001 1.352373e+002
532500000 -3.131822e-001 -1.453844e+002 -6.662133e+001 1.602330e+001 -6.598910e+001 -5.021065e+001 -1.486074e-001 1.352517e+002
533125000 -3.172696e-001 -1.457840e+002 -6.537434e+001 3.135397e+000 -6.277372e+001 -6.851451e+001 -1.560271e-001 1.352554e+002
533750000 -3.256538e-001 -1.461622e+002 -6.656052e+001 1.167968e+001 -6.351281e+001 -5.152486e+001 -1.620029e-001 1.351557e+002
534375000 -3.293673e-001 -1.465101e+002 -6.692445e+001 2.849267e+001 -6.168673e+001 -5.813649e+001 -1.511062e-001 1.351076e+002
535000000 -3.419592e-001 -1.468833e+002 -6.792136e+001 1.494479e+001 -6.046055e+001 -5.717602e+001 -1.606985e-001 1.350722e+002
535625000 -3.442410e-001 -1.472421e+002 -6.724995e+001 -2.013635e+000 -6.267739e+001 -6.282936e+001 -1.475528e-001 1.350011e+002
536250000 -3.532263e-001 -1.476431e+002 -6.326359e+001 6.699401e+000 -6.043121e+001 -5.066002e+001 -1.453136e-001 1.349337e+002
536875000 -3.629271e-001 -1.480637e+002 -6.713646e+001 2.078724e+001 -6.035730e+001 -6.054823e+001 -1.537545e-001 1.348854e+002
537500000 -3.693109e-001 -1.483620e+002 -6.639777e+001 2.936342e+000 -6.138614e+001 -5.609701e+001 -1.586430e-001 1.348506e+002
538125000 -3.684243e-001 -1.487796e+002 -6.642024e+001 -1.050260e+001 -6.052744e+001 -5.839455e+001 -1.579753e-001 1.347759e+002
538750000 -3.872772e-001 -1.490958e+002 -6.782750e+001 4.789483e+000 -6.210599e+001 -5.813193e+001 -1.608758e-001 1.347469e+002
539375000 -3.941875e-001 -1.494452e+002 -6.501972e+001 1.798115e+001 -5.971191e+001 -6.888158e+001 -1.471280e-001 1.346623e+002
540000000 -3.991711e-001 -1.498303e+002 -7.212423e+001 3.368345e+000 -5.800549e+001 -6.906695e+001 -1.544767e-001 1.345541e+002
540625000 -4.034078e-001 -1.502350e+002 -6.472660e+001 -6.860435e+000 -6.017791e+001 -6.336240e+001 -1.539961e-001 1.345285e+002
541250000 -4.101328e-001 -1.505310e+002 -6.551324e+001 -2.024500e+000 -5.954230e+001 -7.032555e+001 -1.508024e-001 1.345366e+002
541875000 -4.269772e-001 -1.508673e+002 -6.699256e+001 -2.261394e+001 -5.827122e+001 -6.794925e+001 -1.584448e-001 1.344543e+002
542500000 -4.346441e-001 -1.512051e+002 -6.922530e+001 1.070196e+001 -5.907530e+001 -7.275999e+001 -1.509667e-001 1.344634e+002
543125000 -4.338562e-001 -1.516469e+002 -6.428876e+001 -1.034337e+001 -5.849386e+001 -7.232687e+001 -1.527037e-001 1.343880e+002
543750000 -4.421141e-001 -1.519509e+002 -6.706117e+001 -2.586470e+001 -5.938985e+001 -7.688667e+001 -1.484965e-001 1.344350e+002
544375000 -4.578162e-001 -1.523017e+002 -6.589570e+001 -3.793106e+001 -5.830481e+001 -8.183923e+001 -1.449557e-001 1.344523e+002
545000000 -4.574072e-001 -1.526331e+002 -6.286140e+001 -2.900220e+001 -5.873127e+001 -8.363509e+001 -1.400998e-001 1.344467e+002
545625000 -4.696920e-001 -1.529789e+002 -6.445724e+001 -3.361943e+001 -5.808620e+001 -8.035172e+001 -1.375518e-001 1.344483e+002
546250000 -4.902119e-001 -1.533725e+002 -6.429208e+001 -2.183409e+001 -5.655091e+001 -8.094721e+001 -1.504901e-001 1.344200e+002
546875000 -5.006463e-001 -1.537707e+002 -6.353350e+001 -2.594585e+001 -5.845657e+001 -8.174532e+001 -1.567263e-001 1.344725e+002
547500000 -5.094324e-001 -1.541451e+002 -6.368650e+001 -4.817357e+001 -5.856613e+001 -8.485110e+001 -1.520964e-001 1.344617e+002
548125000 -5.249100e-001 -1.544757e+002 -6.524146e+001 -1.954387e+001 -5.830832e+001 -8.544495e+001 -1.468522e-001 1.344069e+002
548750000 -5.294784e-001 -1.549051e+002 -6.696655e+001 -4.040910e+001 -5.743182e+001 -9.144639e+001 -1.565717e-001 1.343868e+002
549375000 -5.480996e-001 -1.553169e+002 -6.511493e+001 -4.463127e+001 -5.721341e+001 -9.405805e+001 -1.644949e-001 1.342115e+002
550000000 -5.567655e-001 -1.557273e+002 -6.159935e+001 -3.297162e+001 -5.818192e+001 -9.837305e+001 -1.657045e-001 1.342564e+002
550625000 -5.749053e-001 -1.561730e+002 -6.745640e+001 -6.021473e+001 -5.745247e+001 -8.947089e+001 -1.684713e-001 1.341684e+002
551250000 -5.852598e-001 -1.565311e+002 -6.580090e+001 -2.811893e+001 -5.840935e+001 -9.866610e+001 -1.666491e-001 1.340578e+002
551875000 -5.991857e-001 -1.569791e+002 -6.293285e+001 -3.463959e+001 -5.867713e+001 -9.840775e+001 -1.703638e-001 1.339051e+002
552500000 -6.060259e-001 -1.574442e+002 -6.180705e+001 -5.048314e+001 -5.913266e+001 -1.035931e+002 -1.696818e-001 1.337875e+002
553125000 -6.171170e-001 -1.578030e+002 -6.644764e+001 -5.818976e+001 -5.701775e+001 -1.032227e+002 -1.677213e-001 1.337026e+002
553750000 -6.380377e-001 -1.582391e+002 -6.447919e+001 -5.519590e+001 -5.722566e+001 -1.014918e+002 -1.751114e-001 1.335269e+002
554375000 -6.451985e-001 -1.586171e+002 -6.315148e+001 -2.650126e+001 -5.672481e+001 -9.422183e+001 -1.732519e-001 1.334680e+002
555000000 -6.692193e-001 -1.590703e+002 -6.636051e+001 -7.391215e+001 -5.828482e+001 -1.002821e+002 -1.771489e-001 1.333214e+002
555625000 -6.808572e-001 -1.594381e+002 -6.160619e+001 -6.752186e+001 -5.735647e+001 -1.036321e+002 -1.665454e-001 1.332864e+002
556250000 -6.922232e-001 -1.598778e+002 -6.284143e+001 -5.834486e+001 -5.624692e+001 -9.974743e+001 -1.670312e-001 1.331505e+002
556875000 -7.108903e-001 -1.603120e+002 -6.338406e+001 -6.561389e+001 -5.657636e+001 -1.089175e+002 -1.764908e-001 1.331060e+002
557500000 -7.328564e-001 -1.606958e+002 -6.401770e+001 -8.065479e+001 -5.650496e+001 -1.077361e+002 -1.569933e-001 1.330109e+002
558125000 -7.495854e-001 -1.610885e+002 -6.218641e+001 -8.315129e+001 -5.628673e+001 -1.187879e+002 -1.599299e-001 1.329237e+002
558750000 -7.688577e-001 -1.615151e+002 -6.478136e+001 -5.927841e+001 -5.683422e+001 -1.136444e+002 -1.562960e-001 1.329510e+002
559375000 -7.900596e-001 -1.619115e+002 -6.234581e+001 -6.872137e+001 -5.674696e+001 -1.020464e+002 -1.608279e-001 1.329496e+002
560000000 -8.226127e-001 -1.622610e+002 -6.537453e+001 -8.270613e+001 -5.551197e+001 -1.114769e+002 -1.514504e-001 1.328957e+002
560625000 -8.357090e-001 -1.626055e+002 -6.291686e+001 -6.977769e+001 -5.652130e+001 -1.190401e+002 -1.515775e-001 1.329351e+002
561250000 -8.537623e-001 -1.630466e+002 -6.514169e+001 -7.856426e+001 -5.488028e+001 -1.150806e+002 -1.561231e-001 1.329191e+002
561875000 -8.812438e-001 -1.634296e+002 -6.279749e+001 -7.501688e+001 -5.524431e+001 -1.169347e+002 -1.500199e-001 1.328952e+002
562500000 -9.064978e-001 -1.637740e+002 -6.406552e+001 -8.220597e+001 -5.579663e+001 -1.203235e+002 -1.600747e-001 1.329339e+002
563125000 -9.252377e-001 -1.641516e+002 -6.389703e+001 -6.681052e+001 -5.478642e+001 -1.202440e+002 -1.471815e-001 1.328962e+002
563750000 -9.603007e-001 -1.646533e+002 -6.199902e+001 -9.156952e+001 -5.479047e+001 -1.225264e+002 -1.613585e-001 1.328561e+002
564375000 -9.871981e-001 -1.650341e+002 -6.283356e+001 -8.489909e+001 -5.550447e+001 -1.225124e+002 -1.654281e-001 1.328654e+002
565000000 -1.016215e+000 -1.654778e+002 -6.255272e+001 -1.080649e+002 -5.512360e+001 -1.265516e+002 -1.629806e-001 1.327754e+002
565625000 -1.046193e+000 -1.658828e+002 -6.627485e+001 -7.329070e+001 -5.515813e+001 -1.292635e+002 -1.740522e-001 1.327031e+002
566250000 -1.077537e+000 -1.663526e+002 -6.380231e+001 -1.057692e+002 -5.439280e+001 -1.192247e+002 -1.719738e-001 1.325690e+002
566875000 -1.113849e+000 -1.667837e+002 -6.353985e+001 -9.369029e+001 -5.620792e+001 -1.332457e+002 -1.770609e-001 1.324483e+002
567500000 -1.143400e+000 -1.672867e+002 -6.426199e+001 -1.292287e+002 -5.496288e+001 -1.377663e+002 -1.789538e-001 1.323192e+002
568125000 -1.183107e+000 -1.676322e+002 -5.974786e+001 -1.020634e+002 -5.488771e+001 -1.317278e+002 -1.875834e-001 1.321576e+002
568750000 -1.208533e+000 -1.681317e+002 -6.342445e+001 -1.045908e+002 -5.481601e+001 -1.354326e+002 -1.862020e-001 1.320329e+002
569375000 -1.243607e+000 -1.685511e+002 -6.695465e+001 -1.272872e+002 -5.585403e+001 -1.377283e+002 -1.903878e-001 1.319123e+002
570000000 -1.277740e+000 -1.690177e+002 -6.115440e+001 -1.084374e+002 -5.506926e+001 -1.412597e+002 -1.913771e-001 1.317039e+002
570625000 -1.304968e+000 -1.694402e+002 -6.701155e+001 -1.315961e+002 -5.572438e+001 -1.393416e+002 -1.732294e-001 1.316239e+002
571250000 -1.344718e+000 -1.698829e+002 -6.264236e+001 -1.326956e+002 -5.496039e+001 -1.477862e+002 -1.857721e-001 1.314983e+002
571875000 -1.380185e+000 -1.702572e+002 -6.499586e+001 -1.166426e+002 -5.451477e+001 -1.473747e+002 -1.735760e-001 1.313433e+002
572500000 -1.416417e+000 -1.706852e+002 -6.248945e+001 -1.339502e+002 -5.498869e+001 -1.436527e+002 -1.795519e-001 1.311982e+002
573125000 -1.455507e+000 -1.711239e+002 -6.169013e+001 -1.241492e+002 -5.576279e+001 -1.472091e+002 -1.602903e-001 1.311677e+002
573750000 -1.482833e+000 -1.714713e+002 -6.335325e+001 -1.053593e+002 -5.470152e+001 -1.480667e+002 -1.818476e-001 1.311031e+002
574375000 -1.523711e+000 -1.719020e+002 -6.148331e+001 -1.089105e+002 -5.526131e+001 -1.476699e+002 -1.643440e-001 1.310991e+002
575000000 -1.563329e+000 -1.722807e+002 -6.017678e+001 -1.074555e+002 -5.466222e+001 -1.463244e+002 -1.514055e-001 1.309964e+002
575625000 -1.602577e+000 -1.725817e+002 -6.079750e+001 -1.249116e+002 -5.482046e+001 -1.523698e+002 -1.610830e-001 1.310246e+002
576250000 -1.640746e+000 -1.728975e+002 -6.186528e+001 -1.099340e+002 -5.380818e+001 -1.544384e+002 -1.637335e-001 1.309912e+002
576875000 -1.689030e+000 -1.732577e+002 -6.155145e+001 -1.232851e+002 -5.401096e+001 -1.505160e+002 -1.658310e-001 1.309207e+002
577500000 -1.737960e+000 -1.734814e+002 -6.286357e+001 -1.407274e+002 -5.433500e+001 -1.588101e+002 -1.571737e-001 1.308917e+002
578125000 -1.778739e+000 -1.737839e+002 -6.101389e+001 -1.427364e+002 -5.467660e+001 -1.530742e+002 -1.548355e-001 1.309141e+002
578750000 -1.818256e+000 -1.740586e+002 -6.094541e+001 -1.306508e+002 -5.401929e+001 -1.618381e+002 -1.548822e-001 1.308092e+002
579375000 -1.856239e+000 -1.743368e+002 -6.102544e+001 -1.407327e+002 -5.428101e+001 -1.631755e+002 -1.585515e-001 1.307394e+002
580000000 -1.900382e+000 -1.745825e+002 -6.219292e+001 -1.385851e+002 -5.428615e+001 -1.735327e+002 -1.687357e-001 1.307380e+002
580625000 -1.945713e+000 -1.748774e+002 -6.343409e+001 -1.639028e+002 -5.497867e+001 -1.655843e+002 -1.662925e-001 1.306722e+002
581250000 -1.983365e+000 -1.751515e+002 -6.218609e+001 -1.584901e+002 -5.463916e+001 -1.672801e+002 -1.695510e-001 1.306217e+002
581875000 -2.028531e+000 -1.753679e+002 -6.378926e+001 -1.523554e+002 -5.396964e+001 -1.703579e+002 -1.725122e-001 1.305140e+002
582500000 -2.065999e+000 -1.756012e+002 -6.176809e+001 -1.545747e+002 -5.416851e+001 -1.693627e+002 -1.796201e-001 1.304201e+002
583125000 -2.090039e+000 -1.759720e+002 -6.684019e+001 -1.531935e+002 -5.439894e+001 -1.759850e+002 -1.877833e-001 1.302936e+002
583750000 -2.131776e+000 -1.762330e+002 -6.210917e+001 -1.555658e+002 -5.437304e+001 -1.749718e+002 -1.842816e-001 1.301453e+002
584375000 -2.168779e+000 -1.765278e+002 -6.342521e+001 -1.743358e+002 -5.511529e+001 1.783783e+002 -1.831410e-001 1.300355e+002
585000000 -2.191670e+000 -1.768441e+002 -6.472188e+001 -1.731098e+002 -5.504486e+001 -1.690490e+002 -1.848450e-001 1.299781e+002
585625000 -2.234006e+000 -1.771876e+002 -6.055704e+001 -1.661486e+002 -5.497037e+001 1.766113e+002 -1.683088e-001 1.298513e+002
586250000 -2.250547e+000 -1.775038e+002 -6.247182e+001 -1.617987e+002 -5.460918e+001 1.775189e+002 -1.749147e-001 1.298939e+002
586875000 -2.280180e+000 -1.778996e+002 -6.151758e+001 1.771216e+002 -5.407885e+001 1.764463e+002 -1.743898e-001 1.297372e+002
587500000 -2.316971e+000 -1.782703e+002 -6.241335e+001 1.772676e+002 -5.535030e+001 1.772701e+002 -1.708155e-001 1.296655e+002
588125000 -2.345900e+000 -1.785745e+002 -6.365247e+001 -1.679764e+002 -5.326815e+001 1.782403e+002 -1.649973e-001 1.296553e+002
588750000 -2.384600e+000 -1.788986e+002 -6.126444e+001 -1.617500e+002 -5.376530e+001 1.758804e+002 -1.660991e-001 1.296352e+002
589375000 -2.408625e+000 -1.792368e+002 -6.446545e+001 -1.609015e+002 -5.472501e+001 1.700766e+002 -1.509899e-001 1.295646e+002
590000000 -2.452263e+000 -1.795496e+002 -6.194118e+001 1.760182e+002 -5.491187e+001 1.750212e+002 -1.555985e-001 1.296296e+002
590625000 -2.492710e+000 -1.798298e+002 -6.108319e+001 1.688628e+002 -5.437157e+001 1.746459e+002 -1.528499e-001 1.295736e+002
591250000 -2.527161e+000 1.799365e+002 -6.391955e+001 1.699750e+002 -5.438177e+001 1.679444e+002 -1.502450e-001 1.295999e+002
591875000 -2.567825e+000 1.796815e+002 -6.203637e+001 -1.792051e+002 -5.393776e+001 1.701886e+002 -1.495923e-001 1.296720e+002
592500000 -2.604421e+000 1.795213e+002 -6.117414e+001 1.754547e+002 -5.413377e+001 1.632741e+002 -1.483715e-001 1.297323e+002
593125000 -2.637140e+000 1.793551e+002 -6.263004e+001 1.689256e+002 -5.397437e+001 1.664392e+002 -1.457220e-001 1.297537e+002
593750000 -2.671860e+000 1.790690e+002 -6.006314e+001 1.587948e+002 -5.419022e+001 1.587076e+002 -1.458343e-001 1.298089e+002
594375000 -2.709977e+000 1.789410e+002 -6.176190e+001 1.775692e+002 -5.320610e+001 1.574538e+002 -1.421556e-001 1.298317e+002
595000000 -2.752659e+000 1.787497e+002 -6.039196e+001 1.689295e+002 -5.404563e+001 1.572011e+002 -1.637608e-001 1.297935e+002
