!Agilent Technologies,E8364B,US42250235,A.06.04.32
!Agilent E8364B: A.06.04.32
!Date: Friday, January 15, 2021 14:46:51
!Correction: S11(Full 2 Port(1,2)) S21(Full 2 Port(1,2)) S12(Full 2 Port(1,2)) S22(Full 2 Port(1,2)) 
!S2P File: Measurements: S11, S21, S12, S22:
# Hz S  dB   R 50
500000000 -1.174585e-001 -1.300664e+002 -7.192044e+001 -1.683030e+002 -7.190189e+001 1.453815e+002 -1.446689e-001 1.385013e+002
500625000 -1.240038e-001 -1.303056e+002 -8.256255e+001 -1.659921e+002 -9.263715e+001 1.781374e+002 -1.554053e-001 1.384230e+002
501250000 -1.296523e-001 -1.306196e+002 -7.398188e+001 1.577277e+002 -6.866973e+001 1.558315e+002 -1.450123e-001 1.383648e+002
501875000 -1.337635e-001 -1.309828e+002 -8.280605e+001 8.910155e+001 -7.174859e+001 9.010205e+001 -1.469767e-001 1.383211e+002
502500000 -1.337962e-001 -1.312697e+002 -7.860303e+001 4.040111e+001 -7.660799e+001 -1.419023e+002 -1.357870e-001 1.383444e+002
503125000 -1.491312e-001 -1.315478e+002 -7.282816e+001 1.092182e+002 -8.903741e+001 9.476253e+001 -1.390017e-001 1.381732e+002
503750000 -1.516256e-001 -1.318590e+002 -8.107497e+001 -4.713539e+001 -7.877357e+001 1.187651e+002 -1.459373e-001 1.381319e+002
504375000 -1.578420e-001 -1.321465e+002 -7.618617e+001 1.091543e+002 -7.644080e+001 7.555537e+001 -1.610020e-001 1.381277e+002
505000000 -1.618269e-001 -1.324830e+002 -7.377653e+001 1.149818e+002 -8.210078e+001 -9.427103e+001 -1.551814e-001 1.381393e+002
505625000 -1.616527e-001 -1.327036e+002 -7.059090e+001 3.545499e+001 -8.484306e+001 8.423734e+001 -1.453753e-001 1.380155e+002
506250000 -1.659458e-001 -1.330562e+002 -7.440709e+001 1.001906e+002 -6.925824e+001 1.061853e+002 -1.505876e-001 1.379549e+002
506875000 -1.700375e-001 -1.333110e+002 -7.882511e+001 -1.565638e+001 -8.055013e+001 -1.587256e+002 -1.516718e-001 1.378057e+002
507500000 -1.753353e-001 -1.336079e+002 -7.259436e+001 1.715160e+001 -7.816079e+001 9.667210e+001 -1.484365e-001 1.377018e+002
508125000 -1.813433e-001 -1.338567e+002 -7.974835e+001 -8.078300e+001 -8.031171e+001 -1.588208e+002 -1.544296e-001 1.375894e+002
508750000 -1.847239e-001 -1.341207e+002 -8.776356e+001 1.679864e+001 -9.523106e+001 -4.237410e+001 -1.606877e-001 1.375213e+002
509375000 -1.946025e-001 -1.344743e+002 -8.943522e+001 9.117191e+001 -7.171850e+001 1.150898e+002 -1.551894e-001 1.374324e+002
510000000 -1.922929e-001 -1.347519e+002 -7.515494e+001 6.732638e-001 -7.581129e+001 3.710410e+001 -1.675430e-001 1.372807e+002
510625000 -2.097548e-001 -1.349785e+002 -7.781493e+001 1.346776e+002 -7.252731e+001 2.985876e+001 -1.613958e-001 1.371744e+002
511250000 -2.084130e-001 -1.352306e+002 -7.079752e+001 -1.485349e+001 -7.008441e+001 5.662081e+001 -1.655495e-001 1.370081e+002
511875000 -2.143508e-001 -1.355365e+002 -7.273225e+001 1.380330e+002 -6.812975e+001 1.321540e+002 -1.585035e-001 1.368599e+002
512500000 -2.216442e-001 -1.357827e+002 -7.336474e+001 5.213914e+001 -8.374435e+001 8.290539e+001 -1.659758e-001 1.367354e+002
513125000 -2.369570e-001 -1.361187e+002 -7.316927e+001 9.233231e+001 -7.750789e+001 4.255453e+001 -1.619462e-001 1.366467e+002
513750000 -2.449927e-001 -1.363687e+002 -8.027442e+001 1.134059e+002 -7.099090e+001 -1.454860e+002 -1.675740e-001 1.365578e+002
514375000 -2.471126e-001 -1.366823e+002 -7.759235e+001 8.888420e+001 -7.748730e+001 -1.611003e+002 -1.587906e-001 1.364035e+002
515000000 -2.561449e-001 -1.369180e+002 -7.111717e+001 1.686290e+002 -7.370024e+001 5.215276e+001 -1.480439e-001 1.363172e+002
515625000 -2.665354e-001 -1.372987e+002 -7.837502e+001 9.019506e+001 -7.254926e+001 -3.576036e+001 -1.552393e-001 1.362310e+002
516250000 -2.749403e-001 -1.375822e+002 -6.734174e+001 1.274866e+002 -7.721354e+001 7.835134e+000 -1.475983e-001 1.361535e+002
516875000 -2.874777e-001 -1.379199e+002 -7.165439e+001 1.365021e+002 -8.471525e+001 -1.033012e+002 -1.375310e-001 1.361942e+002
517500000 -2.951518e-001 -1.382487e+002 -7.807034e+001 1.535939e+001 -8.769476e+001 -1.522496e+002 -1.594828e-001 1.361222e+002
518125000 -2.965539e-001 -1.385966e+002 -7.631656e+001 -8.555236e+001 -7.919890e+001 -1.832782e+001 -1.481694e-001 1.360631e+002
518750000 -3.067797e-001 -1.389170e+002 -8.545959e+001 7.927057e+001 -7.540115e+001 8.300629e+001 -1.445376e-001 1.360571e+002
519375000 -3.194380e-001 -1.392144e+002 -8.195378e+001 1.289688e+002 -7.782959e+001 -1.086749e+002 -1.444447e-001 1.360386e+002
520000000 -3.250614e-001 -1.395460e+002 -7.374957e+001 2.615563e+001 -7.591299e+001 -6.277617e+001 -1.382541e-001 1.360519e+002
520625000 -3.276309e-001 -1.399495e+002 -7.963309e+001 -6.783372e+001 -7.464194e+001 5.811618e+001 -1.299772e-001 1.359559e+002
521250000 -3.352082e-001 -1.402034e+002 -8.474908e+001 1.096777e+002 -7.119438e+001 2.968660e+001 -1.374014e-001 1.359594e+002
521875000 -3.405946e-001 -1.405878e+002 -7.412294e+001 1.155826e+002 -8.388572e+001 7.008675e+001 -1.294046e-001 1.359905e+002
522500000 -3.471600e-001 -1.408854e+002 -8.472540e+001 1.476336e+002 -8.100548e+001 9.464211e+000 -1.393995e-001 1.359428e+002
523125000 -3.656735e-001 -1.412138e+002 -7.471432e+001 8.382204e+001 -7.098405e+001 4.762128e+001 -1.448205e-001 1.359243e+002
523750000 -3.558756e-001 -1.415257e+002 -7.257482e+001 7.914828e+001 -7.228226e+001 8.007932e+001 -1.403858e-001 1.358964e+002
524375000 -3.762777e-001 -1.418098e+002 -7.264977e+001 7.199448e+001 -7.257055e+001 5.833651e+001 -1.392336e-001 1.358244e+002
525000000 -3.861287e-001 -1.421426e+002 -6.992971e+001 1.273530e+001 -7.839552e+001 2.226339e-001 -1.461954e-001 1.357784e+002
525625000 -4.056104e-001 -1.423534e+002 -7.193817e+001 7.064177e+000 -7.809941e+001 1.120744e+002 -1.524595e-001 1.357250e+002
526250000 -3.976532e-001 -1.426093e+002 -6.715247e+001 4.232160e+001 -6.943620e+001 6.292599e+001 -1.530575e-001 1.356963e+002
526875000 -4.211906e-001 -1.429630e+002 -7.987656e+001 -7.217578e-001 -7.497379e+001 5.917028e+001 -1.495726e-001 1.356944e+002
527500000 -4.329019e-001 -1.432565e+002 -6.902414e+001 4.987768e+001 -7.015627e+001 -3.037161e+001 -1.544906e-001 1.356409e+002
528125000 -4.506277e-001 -1.435199e+002 -7.546062e+001 8.493950e+001 -6.541324e+001 4.495024e+001 -1.516468e-001 1.356085e+002
528750000 -4.489007e-001 -1.437908e+002 -8.092880e+001 7.398376e+001 -7.577622e+001 7.418037e+001 -1.482004e-001 1.356331e+002
529375000 -4.717674e-001 -1.440663e+002 -6.822190e+001 1.920255e+001 -6.799040e+001 3.063249e+001 -1.463794e-001 1.355581e+002
530000000 -4.751529e-001 -1.443854e+002 -7.553860e+001 -3.713766e+000 -7.648549e+001 3.424986e+001 -1.521493e-001 1.354696e+002
530625000 -4.894025e-001 -1.446757e+002 -7.402299e+001 -2.383345e+000 -7.064278e+001 2.102955e+001 -1.455962e-001 1.354610e+002
531250000 -5.027303e-001 -1.449430e+002 -6.433915e+001 5.706815e+001 -7.499741e+001 -1.530181e+000 -1.441713e-001 1.354365e+002
531875000 -5.197690e-001 -1.452207e+002 -6.849752e+001 3.628339e+001 -7.464413e+001 1.489922e+001 -1.483187e-001 1.353600e+002
532500000 -5.212031e-001 -1.455131e+002 -9.817070e+001 7.022757e+001 -6.856719e+001 -3.573465e+000 -1.477948e-001 1.354020e+002
533125000 -5.323299e-001 -1.458078e+002 -7.084586e+001 2.248301e+001 -7.243214e+001 1.715744e+001 -1.475270e-001 1.353268e+002
533750000 -5.477782e-001 -1.461819e+002 -7.433653e+001 2.454899e+001 -8.474327e+001 5.483482e+001 -1.582140e-001 1.352617e+002
534375000 -5.536934e-001 -1.464884e+002 -6.974525e+001 -4.076234e+001 -7.101685e+001 2.077395e+001 -1.523997e-001 1.352013e+002
535000000 -5.680071e-001 -1.467704e+002 -8.105692e+001 -2.522721e+001 -7.087647e+001 -4.438641e+001 -1.510313e-001 1.352070e+002
535625000 -5.755002e-001 -1.471053e+002 -7.155165e+001 -2.583184e-001 -6.867770e+001 -2.977999e+001 -1.452317e-001 1.351273e+002
536250000 -5.925739e-001 -1.474444e+002 -7.317270e+001 -1.647743e+001 -7.390947e+001 -3.421019e+001 -1.490915e-001 1.350698e+002
536875000 -6.029456e-001 -1.477656e+002 -6.974330e+001 2.510294e+001 -7.097523e+001 2.834562e+001 -1.511550e-001 1.349968e+002
537500000 -6.048324e-001 -1.479949e+002 -7.284940e+001 3.972006e+001 -7.148855e+001 3.159291e+001 -1.517797e-001 1.349700e+002
538125000 -6.112133e-001 -1.483273e+002 -7.816459e+001 4.804583e+001 -7.048877e+001 8.712861e+000 -1.507377e-001 1.349285e+002
538750000 -6.269376e-001 -1.485967e+002 -7.707011e+001 4.795892e+000 -6.916667e+001 -9.292824e+000 -1.552969e-001 1.348735e+002
539375000 -6.355835e-001 -1.489014e+002 -6.684462e+001 -1.906820e+001 -7.216315e+001 2.613474e+001 -1.502395e-001 1.347938e+002
540000000 -6.393428e-001 -1.492203e+002 -7.057530e+001 -1.485108e+001 -7.162772e+001 -3.785212e+001 -1.522009e-001 1.346775e+002
540625000 -6.456454e-001 -1.495163e+002 -6.662961e+001 1.854782e+000 -8.273018e+001 -7.039476e+001 -1.505558e-001 1.346774e+002
541250000 -6.510863e-001 -1.497552e+002 -7.095175e+001 -3.267770e+001 -7.434182e+001 -2.250655e+001 -1.466338e-001 1.346350e+002
541875000 -6.596639e-001 -1.500403e+002 -7.104894e+001 -3.833100e+000 -6.861031e+001 8.667250e+000 -1.491442e-001 1.346006e+002
542500000 -6.618155e-001 -1.503291e+002 -6.897082e+001 -5.603403e+001 -7.115938e+001 -2.776159e+001 -1.485889e-001 1.345668e+002
543125000 -6.618086e-001 -1.506402e+002 -6.946990e+001 3.070321e+001 -7.448053e+001 1.088937e+001 -1.362528e-001 1.345457e+002
543750000 -6.707045e-001 -1.508872e+002 -7.367429e+001 -6.133150e+001 -6.871933e+001 -1.752263e+001 -1.495151e-001 1.345533e+002
544375000 -6.745263e-001 -1.512090e+002 -7.163554e+001 -3.216494e+001 -7.644365e+001 6.946253e+001 -1.451269e-001 1.345645e+002
545000000 -6.842945e-001 -1.514998e+002 -7.395156e+001 4.741912e+001 -7.027876e+001 1.430391e+001 -1.367544e-001 1.345410e+002
545625000 -6.948213e-001 -1.518501e+002 -7.470801e+001 2.378878e+001 -7.050863e+001 -2.252527e+001 -1.329638e-001 1.346088e+002
546250000 -7.110319e-001 -1.521361e+002 -7.588226e+001 2.864972e+001 -7.292877e+001 2.231717e+001 -1.475277e-001 1.345528e+002
546875000 -7.113526e-001 -1.525161e+002 -7.500771e+001 -4.263300e+001 -7.376379e+001 -4.733253e+001 -1.436892e-001 1.346075e+002
547500000 -7.263231e-001 -1.528302e+002 -6.942477e+001 2.289939e+001 -7.101908e+001 -3.409100e+001 -1.446128e-001 1.345561e+002
548125000 -7.388814e-001 -1.531135e+002 -7.320106e+001 -1.980553e+001 -7.179857e+001 2.046506e+001 -1.458521e-001 1.345238e+002
548750000 -7.492423e-001 -1.534958e+002 -6.922169e+001 -1.692619e+001 -7.418774e+001 3.069538e+001 -1.571442e-001 1.345039e+002
549375000 -7.615855e-001 -1.538203e+002 -6.889912e+001 -9.068898e+000 -6.734763e+001 -9.149864e+000 -1.566528e-001 1.343307e+002
550000000 -7.688195e-001 -1.540961e+002 -7.074123e+001 -3.455037e+000 -6.639334e+001 -2.907951e+001 -1.610114e-001 1.343355e+002
550625000 -7.776945e-001 -1.544867e+002 -7.188573e+001 -3.539589e+001 -7.025949e+001 -2.205589e+001 -1.586224e-001 1.342563e+002
551250000 -7.784626e-001 -1.547991e+002 -7.067767e+001 -9.506320e+000 -6.579206e+001 -1.900898e+001 -1.705882e-001 1.341671e+002
551875000 -7.877933e-001 -1.551273e+002 -6.814404e+001 -3.314956e+001 -6.847015e+001 -2.351086e+001 -1.587104e-001 1.340363e+002
552500000 -7.913613e-001 -1.555125e+002 -7.010177e+001 -2.869654e+001 -7.466859e+001 -6.194418e+001 -1.706075e-001 1.339317e+002
553125000 -7.965429e-001 -1.558009e+002 -6.826274e+001 -2.252274e+001 -7.334367e+001 -6.676417e+001 -1.728608e-001 1.338312e+002
553750000 -8.151868e-001 -1.561644e+002 -7.808321e+001 3.654111e+000 -6.677526e+001 -4.244792e+001 -1.723079e-001 1.336679e+002
554375000 -8.125638e-001 -1.564927e+002 -7.065999e+001 -5.889224e+001 -7.010422e+001 -6.099576e+001 -1.711281e-001 1.335521e+002
555000000 -8.226670e-001 -1.568602e+002 -7.150495e+001 -2.985170e+001 -6.819027e+001 -4.612955e+001 -1.640559e-001 1.334639e+002
555625000 -8.358921e-001 -1.571740e+002 -6.676126e+001 -7.997385e+001 -7.272614e+001 -1.353763e+001 -1.728252e-001 1.333864e+002
556250000 -8.399807e-001 -1.575504e+002 -6.972708e+001 -6.082863e+001 -7.119759e+001 -4.391566e+001 -1.703267e-001 1.332526e+002
556875000 -8.411753e-001 -1.578925e+002 -7.489950e+001 -4.241865e+000 -6.746633e+001 -7.935236e+001 -1.679998e-001 1.331742e+002
557500000 -8.573135e-001 -1.582511e+002 -6.648936e+001 -5.545207e+001 -6.696558e+001 -6.020407e+001 -1.562801e-001 1.330877e+002
558125000 -8.684060e-001 -1.585094e+002 -6.721651e+001 -3.734118e+001 -6.855935e+001 -6.999281e+001 -1.600867e-001 1.331207e+002
558750000 -8.700383e-001 -1.588162e+002 -7.178515e+001 -8.542657e+001 -6.848837e+001 -5.143786e+001 -1.518315e-001 1.330156e+002
559375000 -8.776113e-001 -1.591725e+002 -7.058637e+001 -4.155293e+001 -6.892574e+001 -7.403256e+001 -1.499339e-001 1.330531e+002
560000000 -8.998620e-001 -1.593958e+002 -6.694662e+001 -8.065753e+001 -7.628670e+001 -5.458509e+001 -1.431008e-001 1.329342e+002
560625000 -9.006153e-001 -1.596707e+002 -7.188781e+001 -7.912809e+001 -8.393270e+001 1.845144e+001 -1.384317e-001 1.330108e+002
561250000 -9.088061e-001 -1.600379e+002 -7.537280e+001 -5.838638e+001 -7.128062e+001 -7.674030e+001 -1.378344e-001 1.329876e+002
561875000 -9.141920e-001 -1.603213e+002 -7.123623e+001 -8.196104e+001 -6.925394e+001 -7.818611e+001 -1.513604e-001 1.330310e+002
562500000 -9.129857e-001 -1.606300e+002 -7.218459e+001 -5.868732e+001 -6.804841e+001 -1.153727e+002 -1.430387e-001 1.330280e+002
563125000 -9.151224e-001 -1.609687e+002 -6.889292e+001 -5.127567e+001 -7.252990e+001 -1.232606e+002 -1.451639e-001 1.329607e+002
563750000 -9.301001e-001 -1.613786e+002 -7.442966e+001 -4.109015e+000 -6.853165e+001 -5.782286e+001 -1.571588e-001 1.329645e+002
564375000 -9.360470e-001 -1.617376e+002 -7.606139e+001 -1.235067e+002 -6.985400e+001 -8.560974e+001 -1.629522e-001 1.329173e+002
565000000 -9.413426e-001 -1.621593e+002 -6.526537e+001 -1.172445e+002 -6.722932e+001 -6.372289e+001 -1.624295e-001 1.328472e+002
565625000 -9.577445e-001 -1.625363e+002 -6.696027e+001 -9.280443e+001 -7.207449e+001 -7.958226e+001 -1.701080e-001 1.328277e+002
566250000 -9.630502e-001 -1.629957e+002 -6.994471e+001 -9.550661e+001 -6.809828e+001 -7.628047e+001 -1.774390e-001 1.326416e+002
566875000 -9.887559e-001 -1.634539e+002 -7.353488e+001 -1.201423e+002 -7.089308e+001 -7.419542e+001 -1.793006e-001 1.325071e+002
567500000 -1.000873e+000 -1.638992e+002 -7.043576e+001 -4.969517e+001 -6.727518e+001 -7.916647e+001 -1.782364e-001 1.323716e+002
568125000 -1.023079e+000 -1.642750e+002 -6.905550e+001 -1.188632e+002 -6.758099e+001 -1.048050e+002 -1.817982e-001 1.322756e+002
568750000 -1.033038e+000 -1.646187e+002 -6.953734e+001 -5.039907e+001 -6.591653e+001 -9.308316e+001 -1.846681e-001 1.321173e+002
569375000 -1.049604e+000 -1.650144e+002 -7.333124e+001 -3.859355e+001 -6.883695e+001 -1.038347e+002 -1.844870e-001 1.319218e+002
570000000 -1.060591e+000 -1.654724e+002 -7.310381e+001 -1.229940e+002 -6.653709e+001 -6.717991e+001 -1.881623e-001 1.317433e+002
570625000 -1.063228e+000 -1.658867e+002 -6.878831e+001 -7.591629e+001 -6.775822e+001 -1.116677e+002 -1.754303e-001 1.316495e+002
571250000 -1.077090e+000 -1.663272e+002 -6.701146e+001 -9.347123e+001 -6.493764e+001 -8.362395e+001 -1.811691e-001 1.315459e+002
571875000 -1.094689e+000 -1.667083e+002 -6.910155e+001 -1.215349e+002 -7.518442e+001 -1.012322e+002 -1.699807e-001 1.314313e+002
572500000 -1.099559e+000 -1.671058e+002 -7.207388e+001 -8.713463e+001 -7.238844e+001 -1.260357e+002 -1.671484e-001 1.313042e+002
573125000 -1.112811e+000 -1.675635e+002 -6.704709e+001 -1.346263e+002 -7.197277e+001 -8.717242e+001 -1.556873e-001 1.312444e+002
573750000 -1.122144e+000 -1.679113e+002 -7.094875e+001 -8.971264e+001 -7.083542e+001 -8.312888e+001 -1.717989e-001 1.311183e+002
574375000 -1.134841e+000 -1.682083e+002 -6.818243e+001 -8.580267e+001 -7.359486e+001 -7.349861e+001 -1.646536e-001 1.311701e+002
575000000 -1.141839e+000 -1.686428e+002 -7.090530e+001 -1.022291e+002 -7.254516e+001 -1.081513e+002 -1.608961e-001 1.310744e+002
575625000 -1.152285e+000 -1.689754e+002 -7.139852e+001 -7.237299e+001 -7.297071e+001 -6.955280e+001 -1.669957e-001 1.310672e+002
576250000 -1.162485e+000 -1.693386e+002 -7.676414e+001 -7.122399e+001 -6.671203e+001 -1.189140e+002 -1.622702e-001 1.310084e+002
576875000 -1.160992e+000 -1.697329e+002 -7.158656e+001 -9.415229e+001 -6.953825e+001 -1.249929e+002 -1.529571e-001 1.310241e+002
577500000 -1.173926e+000 -1.700946e+002 -7.183620e+001 -1.043343e+002 -6.949180e+001 -9.831271e+001 -1.520405e-001 1.309649e+002
578125000 -1.179358e+000 -1.705184e+002 -6.944048e+001 -6.559124e+001 -7.328846e+001 -1.047335e+002 -1.501359e-001 1.309699e+002
578750000 -1.180383e+000 -1.709813e+002 -7.199675e+001 -1.346105e+002 -6.798883e+001 -1.054237e+002 -1.542300e-001 1.309133e+002
579375000 -1.185598e+000 -1.713979e+002 -8.935457e+001 -4.939940e+001 -7.352536e+001 -8.067122e+001 -1.577783e-001 1.308362e+002
580000000 -1.196716e+000 -1.717807e+002 -7.752739e+001 -1.501807e+002 -6.658353e+001 -1.339571e+002 -1.580303e-001 1.307827e+002
580625000 -1.213087e+000 -1.722370e+002 -7.148421e+001 -1.291485e+002 -6.900948e+001 -1.041202e+002 -1.544558e-001 1.307771e+002
581250000 -1.226798e+000 -1.727357e+002 -6.861314e+001 -1.299501e+002 -6.933509e+001 -1.289147e+002 -1.695501e-001 1.306697e+002
581875000 -1.243535e+000 -1.732033e+002 -6.367312e+001 -8.562397e+001 -6.954394e+001 -1.385259e+002 -1.713180e-001 1.305986e+002
582500000 -1.261713e+000 -1.736347e+002 -7.787737e+001 -1.766108e+002 -7.204231e+001 -1.778915e+002 -1.749048e-001 1.304596e+002
583125000 -1.272128e+000 -1.741757e+002 -7.520178e+001 -8.801823e+001 -6.759626e+001 -1.322115e+002 -1.800073e-001 1.303062e+002
583750000 -1.294602e+000 -1.746722e+002 -7.019394e+001 -1.765419e+002 -6.754997e+001 -1.503131e+002 -1.831324e-001 1.302256e+002
584375000 -1.303628e+000 -1.751795e+002 -7.559531e+001 1.699279e+002 -6.653556e+001 -1.706067e+002 -1.690517e-001 1.301466e+002
585000000 -1.313004e+000 -1.757085e+002 -7.774599e+001 -1.518618e+002 -7.212029e+001 -8.601515e+001 -1.753666e-001 1.300341e+002
585625000 -1.345815e+000 -1.762563e+002 -7.399134e+001 -1.212336e+002 -6.919036e+001 -1.348793e+002 -1.598763e-001 1.299490e+002
586250000 -1.352876e+000 -1.768111e+002 -7.785454e+001 -1.590235e+002 -7.007691e+001 -1.425867e+002 -1.735040e-001 1.299458e+002
586875000 -1.372657e+000 -1.773934e+002 -7.467213e+001 1.410629e+002 -6.681860e+001 -1.110844e+002 -1.648566e-001 1.298263e+002
587500000 -1.402566e+000 -1.779381e+002 -6.398886e+001 -1.559157e+002 -7.657234e+001 -1.467672e+002 -1.655299e-001 1.298060e+002
588125000 -1.418447e+000 -1.784920e+002 -6.662154e+001 -1.537154e+002 -6.946893e+001 -1.732653e+002 -1.582208e-001 1.297550e+002
588750000 -1.445728e+000 -1.790327e+002 -7.443833e+001 -1.157098e+002 -6.695205e+001 -1.793534e+002 -1.646152e-001 1.297400e+002
589375000 -1.466621e+000 -1.795732e+002 -9.206146e+001 -1.703906e+002 -7.793605e+001 1.726059e+002 -1.411160e-001 1.296777e+002
590000000 -1.501719e+000 1.799063e+002 -6.876662e+001 -1.549594e+002 -6.674300e+001 -1.457322e+002 -1.534947e-001 1.297318e+002
590625000 -1.532964e+000 1.793834e+002 -7.210838e+001 -1.668091e+002 -6.864803e+001 1.599607e+002 -1.488619e-001 1.297463e+002
591250000 -1.566624e+000 1.789514e+002 -6.758139e+001 -1.421374e+002 -7.026315e+001 -1.602034e+002 -1.507575e-001 1.297714e+002
591875000 -1.603033e+000 1.785113e+002 -7.354623e+001 1.599985e+002 -7.543616e+001 1.772481e+002 -1.480597e-001 1.297454e+002
592500000 -1.632321e+000 1.780432e+002 -7.225089e+001 -1.694335e+002 -6.851620e+001 -1.635421e+002 -1.467067e-001 1.298587e+002
593125000 -1.660927e+000 1.777030e+002 -7.747562e+001 -3.355275e+001 -7.112278e+001 1.710388e+002 -1.490482e-001 1.299153e+002
593750000 -1.693878e+000 1.771763e+002 -6.978992e+001 -1.617765e+002 -7.315796e+001 1.660576e+002 -1.442702e-001 1.299629e+002
594375000 -1.708927e+000 1.767649e+002 -8.079345e+001 -1.621009e+002 -6.981514e+001 -1.428474e+002 -1.336539e-001 1.300190e+002
595000000 -1.748781e+000 1.763192e+002 -6.649230e+001 -1.495167e+002 -8.652079e+001 -4.725780e+001 -1.651935e-001 1.299445e+002
