!Agilent Technologies,E8364B,US42250235,A.06.04.32
!Agilent E8364B: A.06.04.32
!Date: Friday, January 15, 2021 14:51:39
!Correction: S11(Full 2 Port(1,2)) S21(Full 2 Port(1,2)) S12(Full 2 Port(1,2)) S22(Full 2 Port(1,2)) 
!S2P File: Measurements: S11, S21, S12, S22:
# Hz S  dB   R 50
500000000 -1.365311e-001 -1.297220e+002 -7.264766e+001 -8.775252e+001 -7.791922e+001 -2.583573e+001 -1.343367e-001 1.387224e+002
500625000 -1.438939e-001 -1.300004e+002 -7.819089e+001 -9.208804e+001 -7.275467e+001 -1.637865e+002 -1.346018e-001 1.386717e+002
501250000 -1.490218e-001 -1.302178e+002 -7.865657e+001 -1.123555e+001 -8.891894e+001 1.195711e+002 -1.356757e-001 1.386149e+002
501875000 -1.394112e-001 -1.305490e+002 -7.695277e+001 -1.602017e+002 -7.924428e+001 -1.346142e+002 -1.366426e-001 1.385839e+002
502500000 -1.455369e-001 -1.308532e+002 -7.687959e+001 1.220937e+002 -6.959045e+001 -2.441481e+001 -1.267728e-001 1.385868e+002
503125000 -1.500113e-001 -1.311931e+002 -6.652686e+001 -1.499646e+002 -7.165279e+001 -5.997009e+001 -1.253312e-001 1.384662e+002
503750000 -1.551821e-001 -1.314347e+002 -8.334701e+001 4.333825e+001 -7.879462e+001 1.147379e+002 -1.279184e-001 1.383870e+002
504375000 -1.602775e-001 -1.317498e+002 -7.274979e+001 -1.537795e+002 -9.330741e+001 -1.774433e+002 -1.449762e-001 1.383797e+002
505000000 -1.617574e-001 -1.320732e+002 -7.588328e+001 1.381590e+001 -7.608392e+001 -5.356008e+001 -1.437605e-001 1.383088e+002
505625000 -1.534095e-001 -1.323240e+002 -7.055602e+001 -8.803610e+001 -6.823403e+001 -1.101123e+002 -1.408650e-001 1.382506e+002
506250000 -1.672575e-001 -1.326267e+002 -7.975640e+001 1.689521e+002 -7.875389e+001 -1.303046e+002 -1.477807e-001 1.381169e+002
506875000 -1.592090e-001 -1.328725e+002 -7.208340e+001 -6.140654e+001 -7.230170e+001 -9.313774e+001 -1.401111e-001 1.380543e+002
507500000 -1.607104e-001 -1.331771e+002 -7.722928e+001 1.418013e+002 -7.558904e+001 -8.878951e+001 -1.483942e-001 1.379547e+002
508125000 -1.659561e-001 -1.334588e+002 -6.985372e+001 -1.421970e+002 -7.609162e+001 1.731872e+002 -1.472378e-001 1.378344e+002
508750000 -1.686475e-001 -1.337102e+002 -8.814870e+001 -4.202216e+001 -7.170055e+001 -1.297636e+002 -1.436096e-001 1.377312e+002
509375000 -1.694445e-001 -1.340073e+002 -7.696539e+001 -9.229501e+001 -8.135764e+001 -1.224738e+002 -1.407229e-001 1.375946e+002
510000000 -1.698465e-001 -1.342746e+002 -7.188396e+001 -9.733968e+001 -7.147289e+001 -1.257280e+002 -1.552086e-001 1.375078e+002
510625000 -1.783315e-001 -1.344939e+002 -7.950912e+001 -1.160892e+002 -7.123182e+001 -1.092760e+002 -1.457555e-001 1.373772e+002
511250000 -1.846906e-001 -1.347556e+002 -7.166950e+001 -9.369667e+001 -7.062808e+001 -6.328328e+001 -1.569343e-001 1.372340e+002
511875000 -1.777179e-001 -1.350934e+002 -7.387443e+001 -1.192107e+002 -7.493775e+001 -1.759532e+002 -1.457789e-001 1.371361e+002
512500000 -1.778411e-001 -1.353408e+002 -7.805338e+001 9.791983e+000 -7.685569e+001 -8.393662e+001 -1.505051e-001 1.369942e+002
513125000 -1.942934e-001 -1.356712e+002 -6.780036e+001 -1.059965e+002 -6.912191e+001 -5.426991e+001 -1.514398e-001 1.369850e+002
513750000 -1.941132e-001 -1.359623e+002 -7.106284e+001 -6.926820e+001 -9.728670e+001 -6.776122e+001 -1.484658e-001 1.367972e+002
514375000 -1.994666e-001 -1.362832e+002 -7.230913e+001 -4.153320e+001 -8.305653e+001 -1.644834e+002 -1.438741e-001 1.366811e+002
515000000 -1.994540e-001 -1.365033e+002 -7.350984e+001 -6.831848e+001 -7.489037e+001 1.803913e+001 -1.431655e-001 1.366060e+002
515625000 -2.116928e-001 -1.369115e+002 -8.034630e+001 -5.517010e+001 -7.239066e+001 -1.439608e+002 -1.309050e-001 1.365364e+002
516250000 -2.164165e-001 -1.371932e+002 -7.234839e+001 -1.093901e+002 -7.181143e+001 -1.313349e+002 -1.368272e-001 1.364267e+002
516875000 -2.253644e-001 -1.374943e+002 -6.984903e+001 -1.027880e+002 -7.288742e+001 -9.886230e+001 -1.371729e-001 1.364526e+002
517500000 -2.252808e-001 -1.378371e+002 -7.593291e+001 4.685244e+001 -8.928454e+001 1.091165e+002 -1.380217e-001 1.363891e+002
518125000 -2.282646e-001 -1.382431e+002 -7.085033e+001 -5.396925e+001 -6.876904e+001 -1.269789e+002 -1.330535e-001 1.363500e+002
518750000 -2.329557e-001 -1.385181e+002 -8.007289e+001 -5.269093e+001 -7.325309e+001 -1.206886e+002 -1.405237e-001 1.363471e+002
519375000 -2.418611e-001 -1.388177e+002 -7.690379e+001 -1.393023e+002 -7.186874e+001 -1.251069e+002 -1.329930e-001 1.362908e+002
520000000 -2.365904e-001 -1.392182e+002 -7.153419e+001 -1.602464e+002 -7.012139e+001 -1.140265e+002 -1.311821e-001 1.362729e+002
520625000 -2.447432e-001 -1.395705e+002 -7.820982e+001 -8.967938e+001 -7.045757e+001 -9.346496e+001 -1.314535e-001 1.362254e+002
521250000 -2.504895e-001 -1.398930e+002 -7.408022e+001 -1.208135e+002 -6.956504e+001 -1.700276e+002 -1.312761e-001 1.362317e+002
521875000 -2.501644e-001 -1.402792e+002 -6.670204e+001 -1.583139e+002 -8.083701e+001 -4.981794e+001 -1.337825e-001 1.362518e+002
522500000 -2.507727e-001 -1.405676e+002 -9.007481e+001 1.338166e+001 -6.904132e+001 -9.834138e+001 -1.338483e-001 1.362104e+002
523125000 -2.627591e-001 -1.409257e+002 -7.069913e+001 -1.304823e+002 -6.764467e+001 -1.478832e+002 -1.337813e-001 1.362052e+002
523750000 -2.582739e-001 -1.412474e+002 -7.301079e+001 -1.236996e+002 -7.553551e+001 -1.497517e+002 -1.349046e-001 1.361424e+002
524375000 -2.771823e-001 -1.415700e+002 -6.799375e+001 -1.531999e+002 -6.667593e+001 -1.662508e+002 -1.304124e-001 1.361070e+002
525000000 -2.745303e-001 -1.418439e+002 -6.968909e+001 1.484980e+002 -6.937377e+001 -1.461003e+002 -1.326128e-001 1.361273e+002
525625000 -2.909782e-001 -1.420890e+002 -8.341252e+001 -1.213908e+002 -7.135858e+001 -1.456776e+002 -1.406654e-001 1.360360e+002
526250000 -2.808217e-001 -1.424684e+002 -7.184192e+001 -1.380948e+002 -7.034383e+001 -1.180627e+002 -1.423789e-001 1.360159e+002
526875000 -2.958425e-001 -1.427682e+002 -6.891630e+001 1.723367e+002 -7.270744e+001 -1.166625e+002 -1.303947e-001 1.359761e+002
527500000 -3.044522e-001 -1.430671e+002 -7.412388e+001 1.497192e+002 -6.533260e+001 1.794706e+002 -1.340882e-001 1.359319e+002
528125000 -3.163231e-001 -1.433816e+002 -6.857700e+001 1.318780e+002 -7.235717e+001 -1.285218e+002 -1.351765e-001 1.359037e+002
528750000 -3.138741e-001 -1.436805e+002 -6.833954e+001 -1.571173e+002 -6.729221e+001 1.749984e+002 -1.373991e-001 1.359411e+002
529375000 -3.202501e-001 -1.439684e+002 -7.410809e+001 -1.797701e+002 -6.694090e+001 -1.373353e+002 -1.433828e-001 1.358182e+002
530000000 -3.380582e-001 -1.443863e+002 -6.934284e+001 -1.584687e+002 -7.252794e+001 1.752614e+002 -1.355564e-001 1.357903e+002
530625000 -3.430074e-001 -1.447319e+002 -6.631223e+001 -1.032787e+002 -6.793484e+001 -1.558571e+002 -1.366963e-001 1.357624e+002
531250000 -3.404175e-001 -1.450391e+002 -6.795753e+001 1.599730e+002 -7.540179e+001 1.673809e+002 -1.366214e-001 1.356998e+002
531875000 -3.634972e-001 -1.453424e+002 -8.439601e+001 -1.182219e+002 -6.915749e+001 -1.526792e+002 -1.356276e-001 1.356341e+002
532500000 -3.695848e-001 -1.456280e+002 -6.705381e+001 -1.534730e+002 -7.765625e+001 -1.229632e+002 -1.440348e-001 1.356674e+002
533125000 -3.744812e-001 -1.459908e+002 -6.863114e+001 1.784732e+002 -7.363277e+001 1.751034e+002 -1.443646e-001 1.355698e+002
533750000 -3.831803e-001 -1.463996e+002 -7.310442e+001 -1.598553e+002 -8.452538e+001 -1.286396e+002 -1.562380e-001 1.355280e+002
534375000 -3.884812e-001 -1.467800e+002 -6.918913e+001 1.752952e+002 -7.568943e+001 -1.551808e+002 -1.448517e-001 1.354477e+002
535000000 -4.046180e-001 -1.470882e+002 -7.104247e+001 1.526354e+002 -6.917440e+001 -1.334977e+002 -1.500836e-001 1.354081e+002
535625000 -4.083308e-001 -1.474677e+002 -6.626776e+001 -1.791638e+002 -7.419100e+001 -1.557015e+002 -1.502855e-001 1.353277e+002
536250000 -4.204193e-001 -1.478578e+002 -6.917214e+001 1.792932e+002 -7.101435e+001 -1.588579e+002 -1.385793e-001 1.352548e+002
536875000 -4.251086e-001 -1.482616e+002 -7.333475e+001 1.501330e+002 -7.068119e+001 1.743060e+002 -1.473183e-001 1.351814e+002
537500000 -4.361910e-001 -1.485710e+002 -7.137238e+001 -1.730267e+002 -7.003362e+001 -1.710955e+002 -1.387082e-001 1.351646e+002
538125000 -4.456336e-001 -1.489769e+002 -7.198206e+001 -1.694508e+002 -6.867902e+001 -1.614734e+002 -1.429026e-001 1.351076e+002
538750000 -4.588879e-001 -1.493531e+002 -6.843858e+001 -1.653219e+002 -7.687801e+001 1.682225e+002 -1.423540e-001 1.350252e+002
539375000 -4.760681e-001 -1.497036e+002 -7.891644e+001 1.717555e+002 -7.027541e+001 -1.285207e+002 -1.436532e-001 1.350069e+002
540000000 -4.799731e-001 -1.500527e+002 -6.661228e+001 -1.628478e+002 -6.886522e+001 -1.774223e+002 -1.421998e-001 1.349275e+002
540625000 -4.935809e-001 -1.504182e+002 -7.564417e+001 -1.457766e+002 -7.216270e+001 -1.567103e+002 -1.380950e-001 1.348521e+002
541250000 -5.004023e-001 -1.507457e+002 -7.156998e+001 1.793318e+002 -6.973891e+001 -1.643165e+002 -1.362460e-001 1.348335e+002
541875000 -5.142312e-001 -1.510668e+002 -6.786385e+001 1.682707e+002 -7.582770e+001 1.714014e+002 -1.378839e-001 1.348005e+002
542500000 -5.246025e-001 -1.513763e+002 -7.139526e+001 -1.690653e+002 -6.937312e+001 -1.776533e+002 -1.373166e-001 1.347808e+002
543125000 -5.287536e-001 -1.517735e+002 -6.855731e+001 1.288044e+002 -6.859287e+001 1.363472e+002 -1.247951e-001 1.347343e+002
543750000 -5.460617e-001 -1.520416e+002 -6.776736e+001 -1.754240e+002 -6.951450e+001 -1.701111e+002 -1.393486e-001 1.347344e+002
544375000 -5.561239e-001 -1.523836e+002 -6.745392e+001 1.474855e+002 -6.614299e+001 1.621370e+002 -1.350773e-001 1.347930e+002
545000000 -5.601047e-001 -1.527502e+002 -7.233828e+001 1.012450e+002 -6.740657e+001 1.462581e+002 -1.283225e-001 1.347870e+002
545625000 -5.729859e-001 -1.530960e+002 -6.737041e+001 1.656099e+002 -6.496481e+001 1.627841e+002 -1.253449e-001 1.347802e+002
546250000 -5.987942e-001 -1.534611e+002 -6.602522e+001 1.380294e+002 -6.777164e+001 1.568905e+002 -1.438034e-001 1.347492e+002
546875000 -6.090189e-001 -1.538727e+002 -6.916040e+001 1.154871e+002 -7.512633e+001 -1.736454e+002 -1.353080e-001 1.348038e+002
547500000 -6.235980e-001 -1.542344e+002 -6.920472e+001 1.458362e+002 -6.938159e+001 1.526080e+002 -1.407049e-001 1.347870e+002
548125000 -6.465457e-001 -1.545559e+002 -7.342039e+001 1.577284e+002 -6.875678e+001 1.609083e+002 -1.409363e-001 1.347284e+002
548750000 -6.629805e-001 -1.550179e+002 -7.301825e+001 -1.759063e+002 -6.997400e+001 1.621665e+002 -1.432973e-001 1.346937e+002
549375000 -6.849986e-001 -1.553681e+002 -7.299730e+001 1.427820e+002 -6.921151e+001 1.678284e+002 -1.551689e-001 1.345291e+002
550000000 -6.938303e-001 -1.557442e+002 -6.420842e+001 1.549027e+002 -6.780501e+001 1.293433e+002 -1.500717e-001 1.345798e+002
550625000 -7.230361e-001 -1.561551e+002 -6.778482e+001 1.315850e+002 -6.844783e+001 1.484758e+002 -1.534179e-001 1.344935e+002
551250000 -7.301599e-001 -1.564998e+002 -7.179263e+001 1.501846e+002 -7.251012e+001 1.194530e+002 -1.638816e-001 1.343912e+002
551875000 -7.497531e-001 -1.569136e+002 -6.804423e+001 1.233254e+002 -6.538099e+001 1.586956e+002 -1.524874e-001 1.343019e+002
552500000 -7.716932e-001 -1.573099e+002 -6.874530e+001 1.101185e+002 -6.825255e+001 1.507651e+002 -1.564811e-001 1.341498e+002
553125000 -7.808953e-001 -1.576584e+002 -6.640977e+001 1.237424e+002 -6.911764e+001 1.510488e+002 -1.608270e-001 1.340667e+002
553750000 -8.103798e-001 -1.580053e+002 -6.789822e+001 1.210877e+002 -6.969709e+001 1.295834e+002 -1.590674e-001 1.338949e+002
554375000 -8.145754e-001 -1.584086e+002 -6.869346e+001 1.345557e+002 -6.932708e+001 1.404071e+002 -1.613625e-001 1.338138e+002
555000000 -8.360762e-001 -1.587647e+002 -6.704853e+001 1.135518e+002 -6.590723e+001 1.275259e+002 -1.636183e-001 1.337067e+002
555625000 -8.593109e-001 -1.590704e+002 -7.514241e+001 1.341779e+002 -6.980392e+001 1.153945e+002 -1.512839e-001 1.336634e+002
556250000 -8.767020e-001 -1.594946e+002 -7.052258e+001 1.282942e+002 -6.857681e+001 1.350897e+002 -1.536365e-001 1.335412e+002
556875000 -8.887424e-001 -1.598808e+002 -6.957173e+001 1.293689e+002 -7.728303e+001 1.294464e+002 -1.591976e-001 1.335161e+002
557500000 -9.229059e-001 -1.601933e+002 -6.536727e+001 1.206297e+002 -6.414411e+001 1.283724e+002 -1.528204e-001 1.334281e+002
558125000 -9.438326e-001 -1.605165e+002 -6.572099e+001 1.087115e+002 -7.331297e+001 1.233217e+002 -1.647534e-001 1.334017e+002
558750000 -9.593490e-001 -1.607823e+002 -6.642689e+001 1.276065e+002 -7.443284e+001 1.160538e+002 -1.447931e-001 1.333387e+002
559375000 -9.927849e-001 -1.610966e+002 -6.866031e+001 1.429849e+002 -7.060201e+001 1.223530e+002 -1.441564e-001 1.333270e+002
560000000 -1.021291e+000 -1.613829e+002 -6.395510e+001 1.072239e+002 -7.353822e+001 1.199113e+002 -1.400083e-001 1.332274e+002
560625000 -1.034845e+000 -1.616203e+002 -6.318209e+001 9.637130e+001 -6.463919e+001 1.164016e+002 -1.388824e-001 1.332984e+002
561250000 -1.050256e+000 -1.619277e+002 -6.496992e+001 7.811409e+001 -6.927870e+001 8.744855e+001 -1.310201e-001 1.332858e+002
561875000 -1.073529e+000 -1.622553e+002 -6.717053e+001 1.300389e+002 -7.014828e+001 7.237546e+001 -1.431906e-001 1.332523e+002
562500000 -1.093304e+000 -1.625514e+002 -6.450711e+001 1.203395e+002 -6.852381e+001 7.274715e+001 -1.419003e-001 1.332452e+002
563125000 -1.099978e+000 -1.629151e+002 -6.531669e+001 1.087775e+002 -6.563862e+001 1.135847e+002 -1.414284e-001 1.332650e+002
563750000 -1.127569e+000 -1.632634e+002 -6.699091e+001 1.220359e+002 -6.845331e+001 8.407980e+001 -1.548327e-001 1.332169e+002
564375000 -1.153286e+000 -1.636341e+002 -7.042081e+001 8.959763e+001 -6.863089e+001 8.115024e+001 -1.520114e-001 1.332068e+002
565000000 -1.179278e+000 -1.640563e+002 -6.921045e+001 1.047330e+002 -7.284406e+001 9.076769e+001 -1.612294e-001 1.331207e+002
565625000 -1.210219e+000 -1.643710e+002 -6.443323e+001 8.979339e+001 -6.988736e+001 8.030472e+001 -1.643332e-001 1.330214e+002
566250000 -1.231135e+000 -1.647767e+002 -6.931112e+001 1.135794e+002 -6.629922e+001 1.054961e+002 -1.716795e-001 1.329253e+002
566875000 -1.271104e+000 -1.651289e+002 -6.704626e+001 1.150859e+002 -6.756857e+001 1.109249e+002 -1.666070e-001 1.327703e+002
567500000 -1.297109e+000 -1.655597e+002 -6.417271e+001 9.626009e+001 -6.840973e+001 9.085176e+001 -1.679685e-001 1.326296e+002
568125000 -1.330826e+000 -1.658631e+002 -6.750499e+001 8.859243e+001 -6.948988e+001 8.124689e+001 -1.725660e-001 1.325196e+002
568750000 -1.358558e+000 -1.661608e+002 -6.701813e+001 7.564133e+001 -6.836121e+001 8.520705e+001 -1.692336e-001 1.323682e+002
569375000 -1.391758e+000 -1.665698e+002 -6.672980e+001 7.152453e+001 -7.858340e+001 1.038099e+002 -1.773660e-001 1.322577e+002
570000000 -1.415317e+000 -1.668693e+002 -6.961372e+001 1.275742e+002 -7.253694e+001 8.079765e+001 -1.703909e-001 1.320719e+002
570625000 -1.428444e+000 -1.671932e+002 -6.774313e+001 9.384212e+001 -7.262375e+001 8.259656e+001 -1.659904e-001 1.319471e+002
571250000 -1.454754e+000 -1.675495e+002 -6.548537e+001 6.843961e+001 -7.229771e+001 1.268247e+002 -1.674675e-001 1.318813e+002
571875000 -1.478086e+000 -1.678185e+002 -6.470181e+001 6.873563e+001 -6.901176e+001 1.247093e+002 -1.550066e-001 1.317129e+002
572500000 -1.497062e+000 -1.681393e+002 -6.766381e+001 9.417223e+001 -6.615464e+001 8.123728e+001 -1.678722e-001 1.315657e+002
573125000 -1.518501e+000 -1.684538e+002 -6.623080e+001 8.103086e+001 -6.598426e+001 8.015662e+001 -1.486236e-001 1.315407e+002
573750000 -1.532838e+000 -1.687494e+002 -6.606497e+001 6.550587e+001 -6.833981e+001 7.572607e+001 -1.668011e-001 1.314840e+002
574375000 -1.562495e+000 -1.690115e+002 -6.839870e+001 8.141468e+001 -7.108366e+001 7.995085e+001 -1.511847e-001 1.314312e+002
575000000 -1.577196e+000 -1.693433e+002 -6.338105e+001 7.064230e+001 -6.859816e+001 8.521321e+001 -1.529690e-001 1.314056e+002
575625000 -1.601259e+000 -1.695843e+002 -6.690764e+001 8.284267e+001 -6.671077e+001 7.844620e+001 -1.502012e-001 1.313297e+002
576250000 -1.615263e+000 -1.698653e+002 -6.361784e+001 4.952631e+001 -6.731014e+001 8.889706e+001 -1.626417e-001 1.312736e+002
576875000 -1.633592e+000 -1.700746e+002 -6.534827e+001 8.357394e+001 -6.865051e+001 9.572506e+001 -1.514919e-001 1.313335e+002
577500000 -1.656284e+000 -1.703483e+002 -6.739539e+001 6.558110e+001 -6.522059e+001 8.361636e+001 -1.477561e-001 1.312001e+002
578125000 -1.676130e+000 -1.705955e+002 -6.484769e+001 5.712105e+001 -6.697922e+001 5.845349e+001 -1.491901e-001 1.312519e+002
578750000 -1.683959e+000 -1.708283e+002 -6.661313e+001 5.555754e+001 -6.911438e+001 4.375843e+001 -1.510958e-001 1.311102e+002
579375000 -1.695825e+000 -1.710862e+002 -6.459731e+001 8.145978e+001 -6.894952e+001 8.204458e+001 -1.530681e-001 1.311131e+002
580000000 -1.707717e+000 -1.713413e+002 -7.155489e+001 4.014909e+001 -6.807430e+001 7.537346e+001 -1.607940e-001 1.310007e+002
580625000 -1.719945e+000 -1.715815e+002 -6.791504e+001 6.494547e+001 -6.923083e+001 6.011626e+001 -1.539027e-001 1.309880e+002
581250000 -1.732815e+000 -1.718175e+002 -6.727622e+001 6.569038e+001 -6.746136e+001 5.136612e+001 -1.594864e-001 1.309381e+002
581875000 -1.741892e+000 -1.721685e+002 -6.740511e+001 6.261661e+001 -6.916309e+001 3.923640e+001 -1.611225e-001 1.308792e+002
582500000 -1.747535e+000 -1.725500e+002 -6.440140e+001 2.639264e+001 -7.002321e+001 7.447289e+001 -1.617217e-001 1.307820e+002
583125000 -1.751357e+000 -1.729589e+002 -6.223362e+001 4.141175e+001 -7.075277e+001 6.156681e+001 -1.673908e-001 1.306112e+002
583750000 -1.766899e+000 -1.733571e+002 -6.711365e+001 6.880651e+001 -6.712672e+001 7.606315e+001 -1.695177e-001 1.305062e+002
584375000 -1.776206e+000 -1.738032e+002 -6.532823e+001 4.092781e+001 -7.023275e+001 2.737074e+001 -1.613237e-001 1.303711e+002
585000000 -1.779914e+000 -1.741790e+002 -6.800242e+001 3.042920e+001 -6.371251e+001 5.529178e+001 -1.699340e-001 1.303316e+002
585625000 -1.810454e+000 -1.745954e+002 -6.506759e+001 3.510746e+001 -6.714430e+001 3.906771e+001 -1.603227e-001 1.302224e+002
586250000 -1.824574e+000 -1.750165e+002 -6.389222e+001 5.930110e+001 -6.673581e+001 4.613752e+001 -1.592275e-001 1.302121e+002
586875000 -1.836964e+000 -1.754537e+002 -6.415587e+001 3.725274e+001 -6.792052e+001 4.183461e+001 -1.557760e-001 1.300973e+002
587500000 -1.862106e+000 -1.758326e+002 -6.654873e+001 5.865623e+001 -6.488992e+001 4.386310e+001 -1.529466e-001 1.299928e+002
588125000 -1.869415e+000 -1.762075e+002 -6.434626e+001 1.768496e+001 -6.420764e+001 3.723935e+001 -1.562208e-001 1.300024e+002
588750000 -1.884961e+000 -1.766097e+002 -6.275823e+001 4.480674e+001 -6.661474e+001 6.662995e+001 -1.519716e-001 1.300049e+002
589375000 -1.900178e+000 -1.769946e+002 -6.592120e+001 1.820656e+001 -6.597649e+001 2.570953e+001 -1.396807e-001 1.299293e+002
590000000 -1.920486e+000 -1.773501e+002 -6.395651e+001 4.381459e+001 -6.383890e+001 4.550685e+001 -1.492801e-001 1.299453e+002
590625000 -1.935423e+000 -1.777030e+002 -6.526115e+001 2.267976e+001 -6.460902e+001 2.303844e+001 -1.481347e-001 1.299425e+002
591250000 -1.947222e+000 -1.780291e+002 -6.817016e+001 3.379008e+001 -6.650175e+001 4.294113e+001 -1.396493e-001 1.299193e+002
591875000 -1.970870e+000 -1.783203e+002 -6.702753e+001 6.366340e+000 -6.617097e+001 -3.931957e+000 -1.488477e-001 1.299703e+002
592500000 -1.981317e+000 -1.786495e+002 -6.489803e+001 1.582753e+001 -6.434120e+001 1.836701e+001 -1.446601e-001 1.300660e+002
593125000 -1.998506e+000 -1.789828e+002 -6.402467e+001 4.968919e+000 -6.400285e+001 -1.440714e+001 -1.495052e-001 1.300793e+002
593750000 -2.009643e+000 -1.793422e+002 -6.310109e+001 2.000589e+001 -6.350492e+001 3.628201e+000 -1.368753e-001 1.301773e+002
594375000 -2.018358e+000 -1.796245e+002 -6.479856e+001 -7.071127e+000 -6.984217e+001 -2.426735e+001 -1.337097e-001 1.301566e+002
595000000 -2.031055e+000 -1.799866e+002 -6.538071e+001 -3.500589e+001 -6.392134e+001 7.657524e-001 -1.584585e-001 1.301837e+002
595625000 -2.040174e+000 1.796845e+002 -6.266734e+001 3.062280e+000 -6.790218e+001 -1.663614e+001 -1.430686e-001 1.301832e+002
