!Agilent Technologies,E8364B,US42250235,A.06.04.32
!Agilent E8364B: A.06.04.32
!Date: Friday, January 15, 2021 14:54:56
!Correction: S11(Full 2 Port(1,2)) S21(Full 2 Port(1,2)) S12(Full 2 Port(1,2)) S22(Full 2 Port(1,2)) 
!S2P File: Measurements: S11, S21, S12, S22:
# Hz S  dB   R 50
500000000 -1.521220e-001 -1.299497e+002 -7.383734e+001 1.695979e+002 -8.230239e+001 -7.065368e+001 -1.480244e-001 1.384987e+002
500625000 -1.546989e-001 -1.302460e+002 -7.591501e+001 -8.320895e+001 -8.551293e+001 -1.781025e+002 -1.472316e-001 1.384728e+002
501250000 -1.692715e-001 -1.304843e+002 -7.435908e+001 -1.088034e+002 -7.993874e+001 -8.419391e+001 -1.387672e-001 1.383572e+002
501875000 -1.694186e-001 -1.308128e+002 -6.915344e+001 9.052793e+001 -8.176100e+001 4.913204e+001 -1.385816e-001 1.383170e+002
502500000 -1.668435e-001 -1.310830e+002 -7.519549e+001 -1.597355e+002 -7.131574e+001 1.423472e+002 -1.380313e-001 1.383801e+002
503125000 -1.792779e-001 -1.313690e+002 -8.222037e+001 7.032059e+001 -8.130658e+001 1.327523e+002 -1.341809e-001 1.381814e+002
503750000 -1.758316e-001 -1.316418e+002 -7.341956e+001 -1.349830e+002 -7.407809e+001 6.050178e+001 -1.375194e-001 1.381242e+002
504375000 -1.859061e-001 -1.319636e+002 -7.412819e+001 1.381499e+002 -8.327873e+001 2.537860e+001 -1.557232e-001 1.380987e+002
505000000 -1.968358e-001 -1.322190e+002 -7.555493e+001 8.737962e+001 -8.425587e+001 6.060497e+001 -1.516724e-001 1.380483e+002
505625000 -1.919988e-001 -1.325086e+002 -7.408434e+001 1.704285e+002 -7.596987e+001 1.566495e+001 -1.433639e-001 1.379841e+002
506250000 -1.999503e-001 -1.327752e+002 -7.245313e+001 9.760544e+001 -8.048723e+001 -1.595299e+002 -1.571282e-001 1.378762e+002
506875000 -1.986239e-001 -1.330400e+002 -7.273079e+001 -1.311138e+002 -8.370123e+001 -1.440026e+002 -1.483992e-001 1.377897e+002
507500000 -1.992776e-001 -1.333232e+002 -6.885746e+001 5.072713e+001 -7.758919e+001 -6.477041e+001 -1.530699e-001 1.376435e+002
508125000 -2.081587e-001 -1.335967e+002 -7.179867e+001 2.915766e+001 -8.035469e+001 5.644980e+001 -1.595896e-001 1.375788e+002
508750000 -2.072122e-001 -1.337780e+002 -7.039674e+001 2.658500e+001 -7.562829e+001 9.271426e+001 -1.559883e-001 1.374876e+002
509375000 -2.154942e-001 -1.341278e+002 -8.136565e+001 1.044117e+002 -1.111028e+002 -1.517159e+002 -1.501664e-001 1.373718e+002
510000000 -2.117496e-001 -1.343893e+002 -8.476103e+001 1.574655e+002 -7.551773e+001 1.490964e+002 -1.680396e-001 1.372153e+002
510625000 -2.246994e-001 -1.345632e+002 -8.394975e+001 -1.218041e+000 -8.747775e+001 1.592782e+002 -1.477331e-001 1.371731e+002
511250000 -2.272224e-001 -1.348065e+002 -7.973714e+001 1.768421e+002 -7.460136e+001 7.326575e+001 -1.595996e-001 1.369516e+002
511875000 -2.252381e-001 -1.351118e+002 -7.713564e+001 8.081139e+001 -7.511082e+001 2.753867e+001 -1.461620e-001 1.368473e+002
512500000 -2.224506e-001 -1.354053e+002 -8.825420e+001 1.781335e+001 -8.402712e+001 -8.970438e+001 -1.516146e-001 1.367214e+002
513125000 -2.271072e-001 -1.357003e+002 -7.470409e+001 1.471261e+002 -7.620420e+001 1.698614e+002 -1.529063e-001 1.366985e+002
513750000 -2.367739e-001 -1.359198e+002 -7.843913e+001 -1.513812e+002 -7.897949e+001 -1.084264e+002 -1.568124e-001 1.365895e+002
514375000 -2.461589e-001 -1.362666e+002 -7.854679e+001 -1.365202e+002 -9.348134e+001 1.651438e+002 -1.507406e-001 1.364541e+002
515000000 -2.544065e-001 -1.365577e+002 -7.308952e+001 1.407466e+002 -8.100356e+001 1.578623e+001 -1.421145e-001 1.363603e+002
515625000 -2.559461e-001 -1.369597e+002 -7.828809e+001 -9.514796e+001 -7.469269e+001 -5.262195e+001 -1.451774e-001 1.363121e+002
516250000 -2.694175e-001 -1.372151e+002 -7.240490e+001 -5.584144e+000 -8.210168e+001 1.086790e+002 -1.504520e-001 1.362038e+002
516875000 -2.807595e-001 -1.375056e+002 -7.122137e+001 8.842512e+001 -7.303683e+001 1.196323e+001 -1.453593e-001 1.362587e+002
517500000 -2.809058e-001 -1.378161e+002 -7.438292e+001 1.675172e+002 -7.168388e+001 8.084003e+001 -1.436097e-001 1.361541e+002
518125000 -2.793174e-001 -1.381680e+002 -7.809087e+001 -1.331783e+002 -8.467032e+001 6.047721e+001 -1.380343e-001 1.360983e+002
518750000 -2.893867e-001 -1.384691e+002 -7.764886e+001 -1.534345e+002 -8.368238e+001 4.370364e+001 -1.417808e-001 1.361541e+002
519375000 -3.020643e-001 -1.387721e+002 -8.430910e+001 -5.433079e+001 -7.486064e+001 3.199135e+001 -1.343992e-001 1.360936e+002
520000000 -3.004504e-001 -1.391322e+002 -6.976896e+001 -1.171662e+002 -8.153165e+001 8.291041e+000 -1.431654e-001 1.361088e+002
520625000 -3.079432e-001 -1.394485e+002 -7.775595e+001 -6.868047e+001 -7.170714e+001 5.664768e+001 -1.323817e-001 1.359929e+002
521250000 -3.120671e-001 -1.397738e+002 -6.776038e+001 2.562739e+000 -7.294891e+001 -5.582805e+001 -1.388063e-001 1.360449e+002
521875000 -3.140332e-001 -1.401163e+002 -7.631204e+001 -1.211823e+002 -7.336360e+001 1.160998e+002 -1.299850e-001 1.360492e+002
522500000 -3.121971e-001 -1.404070e+002 -7.895759e+001 -9.470576e+001 -8.083415e+001 -1.009985e+002 -1.390407e-001 1.359841e+002
523125000 -3.182495e-001 -1.407321e+002 -7.031121e+001 1.793268e+002 -7.163560e+001 9.686803e+001 -1.396471e-001 1.359971e+002
523750000 -3.158977e-001 -1.410376e+002 -8.087663e+001 2.949344e+001 -7.860550e+001 -1.617613e+002 -1.401445e-001 1.359311e+002
524375000 -3.369547e-001 -1.412993e+002 -7.606535e+001 4.408934e+001 -7.460877e+001 -1.221456e+002 -1.322978e-001 1.358957e+002
525000000 -3.382138e-001 -1.416656e+002 -8.048207e+001 1.384762e+002 -7.344904e+001 1.794967e+002 -1.388054e-001 1.359243e+002
525625000 -3.499599e-001 -1.418798e+002 -7.755989e+001 1.071984e+002 -7.142017e+001 -6.449081e+001 -1.482869e-001 1.358212e+002
526250000 -3.414199e-001 -1.421729e+002 -7.286865e+001 -3.737653e+001 -9.274946e+001 1.710808e+002 -1.378727e-001 1.358277e+002
526875000 -3.454839e-001 -1.424694e+002 -7.154986e+001 9.070124e+001 -7.456276e+001 -8.264854e+001 -1.386872e-001 1.358349e+002
527500000 -3.527008e-001 -1.427512e+002 -7.040965e+001 2.601852e+001 -8.422269e+001 7.776657e+001 -1.395995e-001 1.357247e+002
528125000 -3.717942e-001 -1.430771e+002 -7.087918e+001 1.151944e+002 -7.322672e+001 1.404774e+002 -1.457802e-001 1.357487e+002
528750000 -3.676480e-001 -1.433168e+002 -8.112836e+001 -1.573377e+002 -7.488711e+001 4.416798e+001 -1.398572e-001 1.357494e+002
529375000 -3.765215e-001 -1.435958e+002 -6.816910e+001 3.225827e+001 -8.002689e+001 5.362629e+001 -1.358060e-001 1.356592e+002
530000000 -3.818389e-001 -1.439498e+002 -7.752359e+001 -9.256281e+001 -6.932693e+001 8.949794e+001 -1.385378e-001 1.356408e+002
530625000 -3.929690e-001 -1.442091e+002 -7.493285e+001 -1.601101e+002 -8.264999e+001 -1.792354e+002 -1.442797e-001 1.355767e+002
531250000 -3.865690e-001 -1.445550e+002 -6.863658e+001 9.417734e+001 -7.698896e+001 1.614001e+002 -1.399543e-001 1.355257e+002
531875000 -4.094723e-001 -1.448156e+002 -7.568353e+001 -1.448908e+002 -7.497169e+001 -3.126054e+001 -1.413669e-001 1.354735e+002
532500000 -4.098650e-001 -1.451576e+002 -9.033343e+001 1.653384e+002 -7.124005e+001 3.306802e+001 -1.430825e-001 1.354635e+002
533125000 -4.066429e-001 -1.454974e+002 -7.496433e+001 2.452090e+001 -8.552177e+001 1.342908e+002 -1.531725e-001 1.354496e+002
533750000 -4.188811e-001 -1.459121e+002 -7.150064e+001 7.002637e+001 -7.867970e+001 -4.422374e+001 -1.641204e-001 1.353360e+002
534375000 -4.178939e-001 -1.462376e+002 -6.873875e+001 5.387982e+001 -7.718465e+001 -1.230975e+001 -1.462834e-001 1.353331e+002
535000000 -4.252944e-001 -1.465843e+002 -7.856443e+001 9.940614e+001 -7.498732e+001 -1.783665e+002 -1.528180e-001 1.352749e+002
535625000 -4.298174e-001 -1.469732e+002 -7.830167e+001 1.674767e+002 -7.844200e+001 2.893722e+001 -1.522249e-001 1.351921e+002
536250000 -4.359339e-001 -1.473333e+002 -6.915651e+001 -7.301162e+001 -8.184699e+001 -1.088504e+002 -1.531602e-001 1.351146e+002
536875000 -4.474101e-001 -1.477263e+002 -7.087431e+001 7.036159e+001 -7.823309e+001 -1.347670e+002 -1.586521e-001 1.350900e+002
537500000 -4.475930e-001 -1.480005e+002 -7.262665e+001 -7.479076e+001 -7.237006e+001 4.591489e+001 -1.468526e-001 1.350400e+002
538125000 -4.577307e-001 -1.484167e+002 -8.688155e+001 1.417151e+002 -8.308485e+001 2.784608e+001 -1.544852e-001 1.349472e+002
538750000 -4.725324e-001 -1.487865e+002 -7.073714e+001 1.325311e+002 -7.460097e+001 7.272552e+001 -1.576075e-001 1.349085e+002
539375000 -4.841510e-001 -1.490861e+002 -7.208006e+001 9.974955e+000 -7.559171e+001 3.401749e+001 -1.484303e-001 1.348684e+002
540000000 -4.952536e-001 -1.494535e+002 -7.621506e+001 -1.739303e+002 -8.002260e+001 -4.769963e+001 -1.420413e-001 1.347875e+002
540625000 -4.955128e-001 -1.497935e+002 -7.464053e+001 1.729555e+002 -7.924866e+001 2.799170e+001 -1.478507e-001 1.347724e+002
541250000 -5.017849e-001 -1.501009e+002 -7.677240e+001 -1.090157e+002 -7.303000e+001 -5.667696e+001 -1.410737e-001 1.347605e+002
541875000 -5.129929e-001 -1.503917e+002 -8.614218e+001 -1.881285e+001 -8.062808e+001 2.447188e+000 -1.460904e-001 1.346434e+002
542500000 -5.145815e-001 -1.507037e+002 -8.472505e+001 -4.113947e+001 -7.290588e+001 -6.573537e+001 -1.456830e-001 1.346755e+002
543125000 -5.142231e-001 -1.510567e+002 -7.392023e+001 -1.235324e+002 -7.669144e+001 -1.783003e+001 -1.343553e-001 1.346325e+002
543750000 -5.164151e-001 -1.513822e+002 -7.042877e+001 2.909625e+001 -7.533008e+001 3.405290e+001 -1.467869e-001 1.346763e+002
544375000 -5.328721e-001 -1.517149e+002 -6.994987e+001 6.156286e+001 -7.140295e+001 6.684286e+001 -1.324688e-001 1.345959e+002
545000000 -5.388023e-001 -1.520386e+002 -7.154076e+001 5.149004e+001 -7.421066e+001 1.089415e+002 -1.364083e-001 1.346483e+002
545625000 -5.387495e-001 -1.524586e+002 -7.441737e+001 4.231460e+001 -7.621690e+001 1.675634e+002 -1.425697e-001 1.347039e+002
546250000 -5.664903e-001 -1.528145e+002 -7.183232e+001 8.476102e+001 -7.723793e+001 4.699930e+001 -1.481215e-001 1.346124e+002
546875000 -5.723814e-001 -1.532035e+002 -7.217727e+001 -3.551047e+001 -9.382593e+001 -2.867759e+001 -1.495537e-001 1.347094e+002
547500000 -5.948557e-001 -1.535768e+002 -7.520327e+001 3.864146e+001 -7.277756e+001 9.938901e+000 -1.476730e-001 1.346499e+002
548125000 -6.114323e-001 -1.539006e+002 -8.469389e+001 -9.318597e+000 -7.168050e+001 -1.527013e+001 -1.480351e-001 1.345988e+002
548750000 -6.187233e-001 -1.543087e+002 -6.728278e+001 4.576809e+001 -8.058903e+001 7.449242e+001 -1.544047e-001 1.345538e+002
549375000 -6.342582e-001 -1.546647e+002 -7.929345e+001 -1.705975e+002 -7.357079e+001 4.294273e+001 -1.557866e-001 1.343801e+002
550000000 -6.411495e-001 -1.550365e+002 -7.574897e+001 8.144184e+001 -8.357774e+001 1.020600e+001 -1.649483e-001 1.344259e+002
550625000 -6.572067e-001 -1.554479e+002 -7.038697e+001 4.140387e+001 -7.955600e+001 5.745469e+001 -1.600603e-001 1.342917e+002
551250000 -6.639756e-001 -1.558005e+002 -8.610133e+001 -4.884029e+001 -7.954223e+001 -1.387924e+002 -1.642157e-001 1.342518e+002
551875000 -6.818746e-001 -1.561786e+002 -8.481362e+001 1.076043e+001 -7.810573e+001 -5.746396e+001 -1.657927e-001 1.340896e+002
552500000 -6.835456e-001 -1.565738e+002 -7.367789e+001 -8.398685e-002 -8.170142e+001 -1.574171e+002 -1.603733e-001 1.340359e+002
553125000 -6.976809e-001 -1.569655e+002 -8.037461e+001 1.533235e+002 -7.947186e+001 -5.726374e+000 -1.724191e-001 1.338754e+002
553750000 -7.135457e-001 -1.573398e+002 -8.284512e+001 -8.420211e+001 -8.799783e+001 -6.219392e+001 -1.723100e-001 1.337179e+002
554375000 -7.247815e-001 -1.577005e+002 -7.180347e+001 -9.104494e+000 -9.322161e+001 -1.502004e+002 -1.664869e-001 1.336185e+002
555000000 -7.374402e-001 -1.581397e+002 -7.524281e+001 7.218667e+001 -7.789223e+001 1.770481e+001 -1.718345e-001 1.335468e+002
555625000 -7.539665e-001 -1.584798e+002 -8.174897e+001 6.581897e+001 -8.544363e+001 8.262758e+001 -1.564165e-001 1.334663e+002
556250000 -7.653964e-001 -1.588302e+002 -7.446987e+001 -2.288247e+001 -7.483205e+001 5.266226e+001 -1.598538e-001 1.333531e+002
556875000 -7.756264e-001 -1.592327e+002 -7.231306e+001 2.080494e-001 -7.179430e+001 -1.161119e+002 -1.707904e-001 1.333049e+002
557500000 -7.943125e-001 -1.595931e+002 -7.347525e+001 -3.179211e+001 -7.478939e+001 -1.484886e+001 -1.614076e-001 1.331962e+002
558125000 -8.122168e-001 -1.599252e+002 -7.780294e+001 -1.026580e+002 -8.264538e+001 -5.357429e+001 -1.663972e-001 1.331974e+002
558750000 -8.150616e-001 -1.602437e+002 -7.290601e+001 -9.762088e+001 -8.821302e+001 -7.525516e+001 -1.586730e-001 1.331432e+002
559375000 -8.326384e-001 -1.606016e+002 -6.642657e+001 -4.723241e+001 -8.011764e+001 -9.092089e+001 -1.565750e-001 1.331340e+002
560000000 -8.494569e-001 -1.609288e+002 -7.772987e+001 -9.487885e+001 -7.751537e+001 -1.058755e+002 -1.421675e-001 1.330834e+002
560625000 -8.584815e-001 -1.612591e+002 -7.453667e+001 -1.162493e+002 -7.580289e+001 -5.677536e+001 -1.407374e-001 1.330919e+002
561250000 -8.711102e-001 -1.616642e+002 -7.420618e+001 8.591709e+000 -7.811600e+001 1.131301e+002 -1.422021e-001 1.330398e+002
561875000 -8.912743e-001 -1.620107e+002 -6.809138e+001 -1.451588e+001 -7.525005e+001 -7.812962e+001 -1.496472e-001 1.330811e+002
562500000 -9.069666e-001 -1.624139e+002 -7.703046e+001 -5.295678e+001 -9.336850e+001 4.087664e+001 -1.553077e-001 1.331016e+002
563125000 -9.153586e-001 -1.627611e+002 -7.723988e+001 -1.256035e+002 -7.264368e+001 5.874232e+001 -1.487689e-001 1.330850e+002
563750000 -9.447871e-001 -1.632502e+002 -7.800304e+001 -1.688237e+001 -7.861960e+001 -3.990694e+001 -1.513852e-001 1.329893e+002
564375000 -9.766695e-001 -1.635829e+002 -8.127028e+001 1.549315e+002 -7.989642e+001 -9.562296e+001 -1.626014e-001 1.329923e+002
565000000 -9.928731e-001 -1.640901e+002 -8.723705e+001 7.954254e+001 -7.661670e+001 -9.039311e+001 -1.684132e-001 1.328788e+002
565625000 -1.019544e+000 -1.644707e+002 -8.990880e+001 -2.521539e+001 -7.241575e+001 -8.967383e+001 -1.727625e-001 1.328468e+002
566250000 -1.047148e+000 -1.649679e+002 -8.604134e+001 5.699155e+001 -8.797753e+001 -1.769282e+002 -1.748670e-001 1.327121e+002
566875000 -1.084764e+000 -1.653704e+002 -8.367586e+001 -1.576675e+002 -7.398829e+001 2.728234e+001 -1.702372e-001 1.325363e+002
567500000 -1.110161e+000 -1.658366e+002 -7.596085e+001 -4.756105e+001 -7.931615e+001 1.376849e+001 -1.779432e-001 1.324399e+002
568125000 -1.147585e+000 -1.661812e+002 -7.112893e+001 1.020800e+001 -7.116682e+001 -2.968247e+001 -1.788243e-001 1.323321e+002
568750000 -1.174605e+000 -1.665588e+002 -7.130760e+001 -2.535734e+001 -7.998588e+001 -8.903776e+001 -1.830107e-001 1.321921e+002
569375000 -1.203427e+000 -1.669608e+002 -7.246449e+001 -2.006578e+001 -7.685726e+001 -1.203172e+002 -1.756266e-001 1.320545e+002
570000000 -1.220802e+000 -1.673825e+002 -7.976729e+001 -5.211477e+001 -8.942886e+001 8.545069e+001 -1.794868e-001 1.318653e+002
570625000 -1.244511e+000 -1.677501e+002 -7.799908e+001 -1.696950e+002 -7.384430e+001 -1.105961e+002 -1.737420e-001 1.317558e+002
571250000 -1.270822e+000 -1.681418e+002 -7.433762e+001 -3.139503e+001 -7.274847e+001 -1.066382e+002 -1.844979e-001 1.316415e+002
571875000 -1.302823e+000 -1.685448e+002 -7.495004e+001 3.273293e+001 -7.701585e+001 1.522747e+002 -1.738036e-001 1.314988e+002
572500000 -1.329252e+000 -1.688924e+002 -7.795481e+001 -5.200792e+001 -7.193023e+001 -1.834349e+001 -1.716706e-001 1.313410e+002
573125000 -1.356064e+000 -1.692833e+002 -7.972359e+001 -2.351068e+001 -7.621678e+001 1.569866e+002 -1.630937e-001 1.313181e+002
573750000 -1.376186e+000 -1.696260e+002 -8.094060e+001 -3.304233e+001 -7.651610e+001 -4.421040e+001 -1.761620e-001 1.312050e+002
574375000 -1.402363e+000 -1.698962e+002 -7.982601e+001 -1.326461e+000 -7.399327e+001 -6.156337e+001 -1.615522e-001 1.311955e+002
575000000 -1.421607e+000 -1.702343e+002 -7.089124e+001 -6.125076e+001 -8.366967e+001 -2.529086e+001 -1.607198e-001 1.310970e+002
575625000 -1.447834e+000 -1.705126e+002 -7.147489e+001 -1.024433e+002 -8.057964e+001 5.464163e+001 -1.567154e-001 1.310968e+002
576250000 -1.457140e+000 -1.708782e+002 -7.933249e+001 1.057184e+002 -7.357365e+001 -7.097797e+001 -1.688400e-001 1.310773e+002
576875000 -1.474466e+000 -1.711859e+002 -8.089462e+001 -7.286269e+001 -7.604918e+001 2.088676e+001 -1.605033e-001 1.310665e+002
577500000 -1.500235e+000 -1.715228e+002 -6.931665e+001 -1.303628e+002 -7.436610e+001 -1.202438e+002 -1.586926e-001 1.310176e+002
578125000 -1.528012e+000 -1.719013e+002 -7.881657e+001 1.390270e+001 -7.261910e+001 -8.330703e+001 -1.602175e-001 1.310347e+002
578750000 -1.539360e+000 -1.722143e+002 -7.424327e+001 -3.338057e+000 -7.293340e+001 -1.076166e+002 -1.656272e-001 1.309470e+002
579375000 -1.564275e+000 -1.725996e+002 -6.970294e+001 -1.024815e+002 -7.104424e+001 -3.583054e+001 -1.600792e-001 1.308700e+002
580000000 -1.601628e+000 -1.729214e+002 -7.934449e+001 2.719088e+001 -7.941741e+001 -5.913490e+001 -1.663118e-001 1.308946e+002
580625000 -1.636958e+000 -1.732656e+002 -7.230882e+001 -1.446839e+002 -8.066385e+001 -4.151939e+001 -1.550425e-001 1.307804e+002
581250000 -1.661471e+000 -1.735470e+002 -7.517398e+001 -1.339090e+002 -7.596051e+001 -5.393677e+001 -1.675597e-001 1.307038e+002
581875000 -1.683620e+000 -1.739032e+002 -7.166795e+001 -8.870882e+001 -7.319412e+001 -1.228478e+002 -1.676552e-001 1.306578e+002
582500000 -1.704540e+000 -1.742244e+002 -7.589137e+001 -1.172578e+002 -7.264879e+001 -1.309602e+002 -1.711192e-001 1.305362e+002
583125000 -1.721073e+000 -1.746129e+002 -7.121584e+001 1.225404e+002 -7.035480e+001 1.682840e+002 -1.802399e-001 1.303795e+002
583750000 -1.749564e+000 -1.750209e+002 -8.359119e+001 -1.605524e+002 -7.652444e+001 -1.465433e+002 -1.881577e-001 1.303222e+002
584375000 -1.765454e+000 -1.754306e+002 -8.165684e+001 -2.869675e+001 -7.100009e+001 -1.466542e+002 -1.653094e-001 1.301650e+002
585000000 -1.788418e+000 -1.758740e+002 -7.369921e+001 -1.557049e+002 -6.997295e+001 1.423055e+002 -1.831817e-001 1.301157e+002
585625000 -1.820892e+000 -1.762633e+002 -8.023154e+001 -1.293465e+002 -7.922009e+001 -1.083582e+002 -1.705158e-001 1.300317e+002
586250000 -1.837940e+000 -1.766589e+002 -7.382752e+001 1.113482e+002 -7.129962e+001 1.295694e+002 -1.647584e-001 1.300152e+002
586875000 -1.867016e+000 -1.771330e+002 -6.541103e+001 1.790842e+002 -8.415228e+001 -1.035146e+001 -1.638444e-001 1.298500e+002
587500000 -1.907356e+000 -1.775240e+002 -9.324620e+001 -1.297007e+002 -7.685816e+001 1.447490e+002 -1.577960e-001 1.297870e+002
588125000 -1.921358e+000 -1.778739e+002 -8.358252e+001 7.633576e+000 -8.215340e+001 -1.255830e+000 -1.555684e-001 1.297706e+002
588750000 -1.942080e+000 -1.782625e+002 -7.299421e+001 -1.288993e+002 -7.392533e+001 1.455164e+002 -1.560574e-001 1.297870e+002
589375000 -1.964586e+000 -1.786685e+002 -7.090923e+001 -1.721493e+002 -7.712224e+001 -1.491266e+002 -1.460728e-001 1.296936e+002
590000000 -1.999231e+000 -1.790498e+002 -7.524822e+001 -8.975687e+001 -7.686448e+001 -9.909646e+001 -1.535254e-001 1.297760e+002
590625000 -2.020491e+000 -1.793843e+002 -7.794040e+001 -1.161887e+002 -7.699515e+001 6.085535e+001 -1.531193e-001 1.296985e+002
591250000 -2.056640e+000 -1.797556e+002 -8.192783e+001 7.529237e+001 -7.943936e+001 1.378595e+002 -1.478402e-001 1.297447e+002
591875000 -2.090855e+000 1.799735e+002 -7.359982e+001 1.113601e+002 -8.173782e+001 8.933006e+001 -1.523253e-001 1.297166e+002
592500000 -2.112157e+000 1.796609e+002 -8.184782e+001 -1.011163e+002 -7.193819e+001 -1.767207e+002 -1.482232e-001 1.298156e+002
593125000 -2.141461e+000 1.794203e+002 -7.844366e+001 1.696296e+002 -9.238979e+001 1.172904e+002 -1.466227e-001 1.299269e+002
593750000 -2.160743e+000 1.790876e+002 -7.765370e+001 9.837265e+001 -7.300612e+001 -1.033897e+001 -1.377139e-001 1.299296e+002
594375000 -2.178458e+000 1.788171e+002 -6.883569e+001 -7.297464e+001 -7.400580e+001 1.188294e+002 -1.423477e-001 1.299286e+002
595000000 -2.210873e+000 1.784723e+002 -7.712566e+001 3.570473e+000 -8.274119e+001 -9.925793e+001 -1.597098e-001 1.299324e+002
595625000 -2.234820e+000 1.781221e+002 -7.662162e+001 4.587846e+001 -7.718717e+001 -2.865772e+001 -1.549173e-001 1.299302e+002
