!Agilent Technologies,E8364B,US42250235,A.06.04.32
!Agilent E8364B: A.06.04.32
!Date: Friday, January 15, 2021 14:40:04
!Correction: S11(Full 2 Port(1,2)) S21(Full 2 Port(1,2)) S12(Full 2 Port(1,2)) S22(Full 2 Port(1,2)) 
!S2P File: Measurements: S11, S21, S12, S22:
# Hz S  dB   R 50
500000000 -1.591593e-001 -1.293751e+002 -6.752689e+001 1.695022e+002 -8.044524e+001 -9.312311e+000 -1.389815e-001 1.384050e+002
500625000 -1.669812e-001 -1.296403e+002 -6.946606e+001 1.764418e+002 -6.966166e+001 -1.705613e+002 -1.434773e-001 1.384203e+002
501250000 -1.715413e-001 -1.299461e+002 -7.013966e+001 1.542303e+002 -6.979684e+001 1.707921e+002 -1.493435e-001 1.383589e+002
501875000 -1.716181e-001 -1.302679e+002 -6.747066e+001 1.526024e+002 -7.158039e+001 1.332815e+002 -1.420588e-001 1.382984e+002
502500000 -1.678027e-001 -1.305420e+002 -6.439825e+001 1.424884e+002 -6.934905e+001 1.474944e+002 -1.429172e-001 1.382619e+002
503125000 -1.852545e-001 -1.308269e+002 -7.101254e+001 1.511167e+002 -6.904678e+001 -1.606958e+002 -1.499386e-001 1.381410e+002
503750000 -1.845623e-001 -1.310771e+002 -7.363429e+001 1.536861e+002 -6.789426e+001 -1.548606e+002 -1.514833e-001 1.380753e+002
504375000 -1.994274e-001 -1.314037e+002 -6.887820e+001 1.759877e+002 -6.891211e+001 -1.763278e+002 -1.636139e-001 1.380087e+002
505000000 -2.037208e-001 -1.317168e+002 -6.687243e+001 -1.709100e+002 -7.733133e+001 -1.731160e+002 -1.622915e-001 1.379410e+002
505625000 -2.060649e-001 -1.319317e+002 -7.249902e+001 -1.343834e+002 -6.845901e+001 -1.465945e+002 -1.636808e-001 1.378275e+002
506250000 -2.093925e-001 -1.322558e+002 -6.706891e+001 1.616067e+002 -6.897448e+001 -1.707443e+002 -1.629757e-001 1.376369e+002
506875000 -2.127631e-001 -1.325361e+002 -7.185771e+001 1.691402e+002 -7.159885e+001 1.576978e+002 -1.547423e-001 1.375028e+002
507500000 -2.200364e-001 -1.327755e+002 -6.655112e+001 1.759659e+002 -6.928724e+001 -1.696401e+002 -1.605661e-001 1.374132e+002
508125000 -2.241333e-001 -1.330491e+002 -6.743748e+001 1.740014e+002 -7.618809e+001 1.140948e+002 -1.639601e-001 1.373331e+002
508750000 -2.312006e-001 -1.332669e+002 -6.626720e+001 1.590823e+002 -7.175040e+001 -1.730661e+002 -1.581759e-001 1.371986e+002
509375000 -2.346814e-001 -1.336147e+002 -6.764918e+001 1.102471e+002 -7.132319e+001 -1.518191e+002 -1.508410e-001 1.371276e+002
510000000 -2.406952e-001 -1.338828e+002 -6.640420e+001 1.334608e+002 -6.910419e+001 -1.797715e+002 -1.591574e-001 1.369752e+002
510625000 -2.485676e-001 -1.340762e+002 -7.066711e+001 1.524701e+002 -6.728174e+001 -1.680046e+002 -1.507705e-001 1.369371e+002
511250000 -2.607529e-001 -1.343130e+002 -6.807947e+001 1.735750e+002 -7.251079e+001 1.424398e+002 -1.559129e-001 1.368114e+002
511875000 -2.613116e-001 -1.346425e+002 -6.540591e+001 1.585291e+002 -6.969543e+001 1.635619e+002 -1.457390e-001 1.367210e+002
512500000 -2.583329e-001 -1.349323e+002 -6.918661e+001 1.318804e+002 -6.795314e+001 -1.518928e+002 -1.512190e-001 1.366012e+002
513125000 -2.733326e-001 -1.351948e+002 -6.490761e+001 1.176340e+002 -6.698854e+001 1.043758e+002 -1.588576e-001 1.366160e+002
513750000 -2.890901e-001 -1.354406e+002 -6.858934e+001 1.188794e+002 -6.582928e+001 1.445886e+002 -1.473830e-001 1.364868e+002
514375000 -2.955848e-001 -1.357469e+002 -6.844084e+001 1.304289e+002 -6.707697e+001 1.699595e+002 -1.530654e-001 1.364105e+002
515000000 -2.950400e-001 -1.360007e+002 -6.918041e+001 1.630521e+002 -7.059608e+001 1.451438e+002 -1.430507e-001 1.363050e+002
515625000 -3.057219e-001 -1.363376e+002 -7.125868e+001 1.379509e+002 -6.799916e+001 1.577678e+002 -1.411958e-001 1.362097e+002
516250000 -3.166303e-001 -1.366152e+002 -7.028314e+001 1.392910e+002 -7.418990e+001 -1.510126e+002 -1.504958e-001 1.361298e+002
516875000 -3.300844e-001 -1.369393e+002 -7.084483e+001 1.599053e+002 -6.602587e+001 1.611784e+002 -1.423658e-001 1.361343e+002
517500000 -3.195636e-001 -1.372117e+002 -7.467712e+001 1.230148e+002 -7.480934e+001 1.320831e+002 -1.570476e-001 1.360798e+002
518125000 -3.270254e-001 -1.376057e+002 -6.416866e+001 1.481564e+002 -6.747755e+001 1.514835e+002 -1.488441e-001 1.359399e+002
518750000 -3.380668e-001 -1.378829e+002 -6.441903e+001 1.498598e+002 -7.278930e+001 1.017626e+002 -1.568075e-001 1.359311e+002
519375000 -3.512019e-001 -1.381504e+002 -6.950145e+001 9.758846e+001 -6.669628e+001 1.253100e+002 -1.385609e-001 1.358457e+002
520000000 -3.480529e-001 -1.384704e+002 -6.798260e+001 1.431715e+002 -6.693149e+001 1.350001e+002 -1.546790e-001 1.357831e+002
520625000 -3.515886e-001 -1.388060e+002 -6.885291e+001 1.404953e+002 -7.665943e+001 1.617256e+002 -1.487029e-001 1.357184e+002
521250000 -3.643571e-001 -1.390668e+002 -6.796716e+001 1.402094e+002 -6.461741e+001 1.613546e+002 -1.458123e-001 1.356947e+002
521875000 -3.590273e-001 -1.394442e+002 -7.117696e+001 1.654505e+002 -6.766930e+001 1.289268e+002 -1.443464e-001 1.357025e+002
522500000 -3.695270e-001 -1.397202e+002 -6.656090e+001 1.605689e+002 -7.098486e+001 1.520302e+002 -1.424473e-001 1.356499e+002
523125000 -3.762030e-001 -1.400422e+002 -7.047163e+001 1.461525e+002 -6.806064e+001 1.450013e+002 -1.378270e-001 1.356194e+002
523750000 -3.736528e-001 -1.403474e+002 -6.789222e+001 1.473556e+002 -6.570684e+001 1.245375e+002 -1.434494e-001 1.356509e+002
524375000 -3.888365e-001 -1.406443e+002 -6.726423e+001 1.485888e+002 -6.904242e+001 1.328660e+002 -1.347196e-001 1.355845e+002
525000000 -3.901258e-001 -1.409561e+002 -6.592061e+001 1.326204e+002 -6.882426e+001 1.283513e+002 -1.475947e-001 1.356454e+002
525625000 -4.012920e-001 -1.411548e+002 -6.835368e+001 1.093091e+002 -6.473933e+001 1.407173e+002 -1.510703e-001 1.355541e+002
526250000 -3.985922e-001 -1.414803e+002 -6.986026e+001 1.386866e+002 -6.963017e+001 1.712194e+002 -1.443215e-001 1.355585e+002
526875000 -4.086382e-001 -1.417557e+002 -6.677652e+001 1.255190e+002 -6.982706e+001 1.072544e+002 -1.441264e-001 1.355365e+002
527500000 -4.130916e-001 -1.420010e+002 -6.593497e+001 1.195255e+002 -6.861748e+001 1.217011e+002 -1.403928e-001 1.355424e+002
528125000 -4.356367e-001 -1.422912e+002 -6.729139e+001 1.200905e+002 -6.576885e+001 1.360329e+002 -1.399031e-001 1.355712e+002
528750000 -4.356947e-001 -1.425652e+002 -6.539732e+001 1.173138e+002 -6.771249e+001 1.156661e+002 -1.407988e-001 1.356359e+002
529375000 -4.393491e-001 -1.428495e+002 -7.166453e+001 1.093179e+002 -6.784623e+001 1.229921e+002 -1.487526e-001 1.354650e+002
530000000 -4.435859e-001 -1.432279e+002 -7.478427e+001 1.343596e+002 -6.760290e+001 1.418419e+002 -1.511408e-001 1.354376e+002
530625000 -4.519846e-001 -1.434673e+002 -7.146144e+001 1.414604e+002 -6.959717e+001 1.368223e+002 -1.553187e-001 1.354254e+002
531250000 -4.613361e-001 -1.437963e+002 -6.527176e+001 1.409558e+002 -6.759004e+001 1.197436e+002 -1.476404e-001 1.353227e+002
531875000 -4.744168e-001 -1.440933e+002 -7.155103e+001 1.201813e+002 -6.789207e+001 1.243092e+002 -1.585112e-001 1.352589e+002
532500000 -4.789501e-001 -1.443469e+002 -6.955659e+001 1.124018e+002 -6.675058e+001 1.106087e+002 -1.607293e-001 1.352008e+002
533125000 -4.813887e-001 -1.446961e+002 -6.717812e+001 1.323637e+002 -6.975898e+001 9.272182e+001 -1.663998e-001 1.351038e+002
533750000 -4.930224e-001 -1.450472e+002 -6.686218e+001 1.165515e+002 -6.685609e+001 1.261659e+002 -1.657774e-001 1.350418e+002
534375000 -4.919101e-001 -1.453861e+002 -7.913849e+001 1.004118e+002 -6.376327e+001 9.838255e+001 -1.502038e-001 1.349335e+002
535000000 -5.017811e-001 -1.456643e+002 -6.790749e+001 1.214756e+002 -6.620065e+001 1.161555e+002 -1.543058e-001 1.349005e+002
535625000 -5.049163e-001 -1.460210e+002 -6.920177e+001 1.316501e+002 -6.719177e+001 8.068262e+001 -1.571625e-001 1.348309e+002
536250000 -5.159734e-001 -1.463385e+002 -6.478391e+001 1.155786e+002 -7.266420e+001 1.322032e+002 -1.512693e-001 1.346960e+002
536875000 -5.229727e-001 -1.466670e+002 -6.529729e+001 1.059123e+002 -6.872470e+001 9.178880e+001 -1.536212e-001 1.346185e+002
537500000 -5.249937e-001 -1.469655e+002 -6.824281e+001 1.218989e+002 -6.535458e+001 9.703391e+001 -1.497126e-001 1.346845e+002
538125000 -5.306274e-001 -1.473287e+002 -6.741727e+001 8.529251e+001 -6.603174e+001 1.238912e+002 -1.541759e-001 1.346674e+002
538750000 -5.443216e-001 -1.476293e+002 -6.244427e+001 1.064469e+002 -6.610535e+001 9.473370e+001 -1.490288e-001 1.346049e+002
539375000 -5.483500e-001 -1.479693e+002 -6.558990e+001 1.207330e+002 -6.760898e+001 9.904634e+001 -1.412721e-001 1.345314e+002
540000000 -5.508611e-001 -1.483008e+002 -6.546386e+001 9.470364e+001 -6.849913e+001 1.085133e+002 -1.396877e-001 1.345253e+002
540625000 -5.569134e-001 -1.486710e+002 -6.572335e+001 1.282928e+002 -6.780387e+001 1.057721e+002 -1.473573e-001 1.345189e+002
541250000 -5.585777e-001 -1.489171e+002 -6.669451e+001 9.325471e+001 -6.312779e+001 1.126611e+002 -1.374883e-001 1.345454e+002
541875000 -5.688149e-001 -1.492420e+002 -6.681149e+001 1.223065e+002 -6.339164e+001 9.468327e+001 -1.372205e-001 1.345272e+002
542500000 -5.833760e-001 -1.495909e+002 -6.317556e+001 1.163784e+002 -6.589152e+001 1.156928e+002 -1.320937e-001 1.345300e+002
543125000 -5.779397e-001 -1.499219e+002 -6.378568e+001 1.061262e+002 -6.404570e+001 9.204140e+001 -1.312775e-001 1.344868e+002
543750000 -5.828314e-001 -1.501812e+002 -6.466647e+001 1.016266e+002 -6.414383e+001 1.021481e+002 -1.487387e-001 1.344913e+002
544375000 -5.962419e-001 -1.505376e+002 -6.753406e+001 8.458236e+001 -6.613953e+001 9.582700e+001 -1.429384e-001 1.345165e+002
545000000 -5.971311e-001 -1.508290e+002 -6.649852e+001 1.172451e+002 -6.592617e+001 9.735464e+001 -1.368329e-001 1.345280e+002
545625000 -6.088420e-001 -1.511731e+002 -6.867179e+001 8.155257e+001 -6.747484e+001 1.127702e+002 -1.448808e-001 1.345226e+002
546250000 -6.277325e-001 -1.514534e+002 -6.665894e+001 9.721381e+001 -6.431780e+001 8.268389e+001 -1.547449e-001 1.344336e+002
546875000 -6.342527e-001 -1.518327e+002 -6.467229e+001 7.273972e+001 -6.527366e+001 1.062988e+002 -1.537362e-001 1.344993e+002
547500000 -6.421693e-001 -1.521565e+002 -6.875311e+001 7.270211e+001 -6.394203e+001 7.361733e+001 -1.563784e-001 1.343514e+002
548125000 -6.567852e-001 -1.524271e+002 -6.983094e+001 8.132550e+001 -6.469267e+001 8.291581e+001 -1.481933e-001 1.343245e+002
548750000 -6.634172e-001 -1.528089e+002 -6.227892e+001 6.474982e+001 -6.443662e+001 7.206102e+001 -1.577441e-001 1.342692e+002
549375000 -6.759847e-001 -1.531514e+002 -6.617677e+001 8.684535e+001 -6.913686e+001 7.882967e+001 -1.667475e-001 1.340834e+002
550000000 -6.838914e-001 -1.535169e+002 -6.576393e+001 7.519563e+001 -6.285336e+001 8.730035e+001 -1.658175e-001 1.341193e+002
550625000 -6.944042e-001 -1.538905e+002 -6.778183e+001 8.383966e+001 -6.376812e+001 7.240040e+001 -1.736848e-001 1.339589e+002
551250000 -6.939427e-001 -1.542299e+002 -6.519851e+001 7.179838e+001 -6.764481e+001 6.871246e+001 -1.689317e-001 1.339091e+002
551875000 -7.069607e-001 -1.545785e+002 -6.728903e+001 4.493685e+001 -6.428403e+001 7.743728e+001 -1.629542e-001 1.337824e+002
552500000 -7.179885e-001 -1.550108e+002 -6.509718e+001 8.135300e+001 -6.385698e+001 8.825621e+001 -1.582354e-001 1.336946e+002
553125000 -7.166862e-001 -1.553356e+002 -6.357450e+001 5.713158e+001 -6.337099e+001 6.255379e+001 -1.639970e-001 1.336509e+002
553750000 -7.334093e-001 -1.557047e+002 -7.059848e+001 9.470220e+001 -6.290968e+001 7.572671e+001 -1.657375e-001 1.334961e+002
554375000 -7.271352e-001 -1.560584e+002 -6.491810e+001 8.927564e+001 -6.544927e+001 7.505276e+001 -1.592315e-001 1.334187e+002
555000000 -7.317224e-001 -1.564181e+002 -6.361594e+001 6.158661e+001 -6.296756e+001 5.401845e+001 -1.586581e-001 1.333699e+002
555625000 -7.498248e-001 -1.567260e+002 -6.786390e+001 8.548313e+001 -6.396985e+001 6.075881e+001 -1.523884e-001 1.333752e+002
556250000 -7.539731e-001 -1.571481e+002 -7.166662e+001 6.381626e+001 -6.401819e+001 5.692542e+001 -1.642883e-001 1.332115e+002
556875000 -7.578650e-001 -1.575649e+002 -6.392980e+001 6.298449e+001 -6.276423e+001 6.031186e+001 -1.671225e-001 1.331771e+002
557500000 -7.762459e-001 -1.578373e+002 -6.407761e+001 7.456582e+001 -6.628437e+001 6.113150e+001 -1.594407e-001 1.331061e+002
558125000 -7.855146e-001 -1.581899e+002 -6.532063e+001 7.273449e+001 -6.414370e+001 5.381236e+001 -1.645056e-001 1.330736e+002
558750000 -7.835505e-001 -1.585360e+002 -6.538106e+001 6.327467e+001 -6.329192e+001 7.984807e+001 -1.547971e-001 1.330284e+002
559375000 -7.926480e-001 -1.589188e+002 -6.641998e+001 4.295134e+001 -6.591937e+001 6.198003e+001 -1.623648e-001 1.329536e+002
560000000 -8.083461e-001 -1.592708e+002 -6.414906e+001 5.700030e+001 -6.563799e+001 6.198423e+001 -1.474946e-001 1.328715e+002
560625000 -8.122315e-001 -1.595517e+002 -6.473971e+001 6.013574e+001 -6.560999e+001 4.280080e+001 -1.493674e-001 1.328659e+002
561250000 -8.303725e-001 -1.599453e+002 -6.388435e+001 5.714384e+001 -7.046808e+001 4.482458e+001 -1.523387e-001 1.327897e+002
561875000 -8.387775e-001 -1.603434e+002 -6.531458e+001 4.373179e+001 -6.504994e+001 5.264117e+001 -1.645650e-001 1.327702e+002
562500000 -8.481770e-001 -1.606875e+002 -6.953108e+001 6.037122e+001 -6.504169e+001 6.100736e+001 -1.566391e-001 1.327579e+002
563125000 -8.604650e-001 -1.610327e+002 -6.384646e+001 6.174414e+001 -6.329951e+001 6.683024e+001 -1.532073e-001 1.327029e+002
563750000 -8.835627e-001 -1.614697e+002 -6.451603e+001 2.526896e+001 -6.452344e+001 5.517689e+001 -1.648109e-001 1.326654e+002
564375000 -8.978381e-001 -1.618242e+002 -6.539605e+001 6.664160e+001 -6.429239e+001 4.671984e+001 -1.607936e-001 1.326338e+002
565000000 -9.104792e-001 -1.622683e+002 -6.726094e+001 7.129121e+001 -6.521251e+001 3.432472e+001 -1.605037e-001 1.325034e+002
565625000 -9.256412e-001 -1.626183e+002 -6.690269e+001 4.326153e+001 -6.509443e+001 4.628068e+001 -1.660050e-001 1.324832e+002
566250000 -9.444386e-001 -1.630090e+002 -6.385650e+001 3.446637e+001 -6.393507e+001 4.142451e+001 -1.713521e-001 1.324318e+002
566875000 -9.671646e-001 -1.634688e+002 -6.752911e+001 5.969609e+001 -6.405296e+001 6.214090e+001 -1.659113e-001 1.322834e+002
567500000 -9.860264e-001 -1.639070e+002 -6.079916e+001 3.579102e+001 -6.519421e+001 5.820671e+001 -1.701893e-001 1.321904e+002
568125000 -1.011317e+000 -1.642855e+002 -6.692182e+001 4.804973e+001 -6.671537e+001 4.525106e+001 -1.768273e-001 1.320677e+002
568750000 -1.016282e+000 -1.646891e+002 -6.776263e+001 4.805963e+001 -6.551605e+001 4.090931e+001 -1.770062e-001 1.319756e+002
569375000 -1.038147e+000 -1.651305e+002 -6.240052e+001 3.458794e+001 -6.327364e+001 2.690392e+001 -1.757881e-001 1.319223e+002
570000000 -1.048743e+000 -1.655399e+002 -6.321913e+001 3.886226e+001 -6.320640e+001 4.311036e+001 -1.604686e-001 1.317204e+002
570625000 -1.062616e+000 -1.659578e+002 -6.447467e+001 4.767125e+001 -6.577650e+001 4.333204e+001 -1.739987e-001 1.316303e+002
571250000 -1.072460e+000 -1.664220e+002 -6.829857e+001 3.996534e+001 -6.391259e+001 2.373939e+001 -1.724724e-001 1.315582e+002
571875000 -1.094954e+000 -1.668495e+002 -6.997041e+001 1.838575e+001 -6.527522e+001 2.334306e+001 -1.620548e-001 1.313732e+002
572500000 -1.114102e+000 -1.672434e+002 -6.461263e+001 2.246820e+001 -6.363376e+001 3.065454e+001 -1.694524e-001 1.312844e+002
573125000 -1.126267e+000 -1.676738e+002 -6.492657e+001 2.831286e+001 -6.479288e+001 1.521355e+001 -1.640170e-001 1.312123e+002
573750000 -1.136000e+000 -1.680163e+002 -6.554954e+001 4.978378e+001 -6.475243e+001 3.040795e+001 -1.721378e-001 1.310791e+002
574375000 -1.153386e+000 -1.684023e+002 -6.500282e+001 2.778537e+001 -6.697679e+001 3.043115e+001 -1.653619e-001 1.310533e+002
575000000 -1.163974e+000 -1.688674e+002 -6.530563e+001 2.526229e+001 -6.455867e+001 4.213862e+001 -1.703103e-001 1.309411e+002
575625000 -1.177240e+000 -1.691824e+002 -6.500598e+001 4.927626e+001 -6.432632e+001 2.669665e+001 -1.722581e-001 1.308366e+002
576250000 -1.195530e+000 -1.695989e+002 -6.592529e+001 1.576641e+001 -6.569872e+001 2.647958e+001 -1.682310e-001 1.307226e+002
576875000 -1.206865e+000 -1.699853e+002 -6.459029e+001 2.724540e+001 -6.485740e+001 2.262638e+001 -1.644661e-001 1.307527e+002
577500000 -1.233453e+000 -1.703323e+002 -6.632961e+001 2.395038e+001 -6.440946e+001 3.049711e+001 -1.555097e-001 1.306388e+002
578125000 -1.250794e+000 -1.707601e+002 -6.552204e+001 4.340546e+001 -6.339314e+001 4.677492e+001 -1.484618e-001 1.306619e+002
578750000 -1.267876e+000 -1.710913e+002 -6.350442e+001 2.932730e+001 -6.253843e+001 2.815672e+001 -1.510427e-001 1.305786e+002
579375000 -1.276318e+000 -1.714874e+002 -6.356208e+001 2.154520e+001 -6.296225e+001 4.518531e+001 -1.560691e-001 1.305030e+002
580000000 -1.294427e+000 -1.719047e+002 -6.660232e+001 4.549859e+001 -6.439912e+001 4.306734e+000 -1.581852e-001 1.305197e+002
580625000 -1.324631e+000 -1.723067e+002 -6.609680e+001 2.657359e+001 -6.198434e+001 2.271789e+001 -1.588876e-001 1.305046e+002
581250000 -1.343354e+000 -1.726614e+002 -6.452365e+001 1.094647e+001 -6.495220e+001 2.855642e+001 -1.559800e-001 1.304462e+002
581875000 -1.361621e+000 -1.731192e+002 -6.261525e+001 1.234958e+001 -6.293088e+001 1.630728e+001 -1.658441e-001 1.304497e+002
582500000 -1.393022e+000 -1.735472e+002 -6.143133e+001 -8.619737e+000 -6.336852e+001 1.447952e+000 -1.576306e-001 1.303724e+002
583125000 -1.400343e+000 -1.740145e+002 -6.469643e+001 1.418956e+001 -6.478136e+001 9.849629e+000 -1.657868e-001 1.302604e+002
583750000 -1.429133e+000 -1.745168e+002 -6.681157e+001 3.723757e+000 -6.703178e+001 4.441182e-001 -1.753792e-001 1.302022e+002
584375000 -1.445393e+000 -1.749266e+002 -6.413882e+001 6.871076e+000 -6.323549e+001 5.073378e+000 -1.642702e-001 1.301427e+002
585000000 -1.462726e+000 -1.754416e+002 -6.299614e+001 4.923049e+000 -6.343630e+001 3.204844e+000 -1.673660e-001 1.300315e+002
585625000 -1.492786e+000 -1.758860e+002 -6.520239e+001 1.790479e+001 -6.731773e+001 -1.500751e+000 -1.591192e-001 1.299810e+002
586250000 -1.506093e+000 -1.764249e+002 -6.704246e+001 7.048131e+000 -6.350460e+001 -1.881178e+000 -1.645892e-001 1.299796e+002
586875000 -1.517819e+000 -1.769121e+002 -6.610591e+001 -1.422688e+001 -6.304290e+001 5.850216e-001 -1.665282e-001 1.298008e+002
587500000 -1.549991e+000 -1.774234e+002 -6.993559e+001 -6.030876e+000 -6.419933e+001 5.018891e+000 -1.604737e-001 1.296830e+002
588125000 -1.565006e+000 -1.779451e+002 -6.528558e+001 -7.887235e+000 -6.283877e+001 -1.309261e+001 -1.593502e-001 1.296582e+002
588750000 -1.581884e+000 -1.785101e+002 -6.543023e+001 -6.228333e+000 -6.484307e+001 8.914327e-001 -1.687386e-001 1.296169e+002
589375000 -1.613340e+000 -1.790101e+002 -6.458291e+001 5.998892e-001 -6.475839e+001 -3.955904e+000 -1.519969e-001 1.295329e+002
590000000 -1.643532e+000 -1.794948e+002 -6.795109e+001 -5.184830e+000 -6.385731e+001 -1.067849e+000 -1.544545e-001 1.295326e+002
590625000 -1.678968e+000 -1.799670e+002 -6.515073e+001 -1.817517e+001 -6.309715e+001 -1.592428e+001 -1.537509e-001 1.294608e+002
591250000 -1.708101e+000 1.795953e+002 -6.412892e+001 -2.948457e+001 -6.820247e+001 -1.914555e+001 -1.567493e-001 1.294436e+002
591875000 -1.752945e+000 1.791855e+002 -6.675768e+001 -1.779903e+001 -6.445474e+001 -1.138565e+001 -1.547056e-001 1.294883e+002
592500000 -1.781172e+000 1.787400e+002 -6.431067e+001 -2.240449e+001 -6.830659e+001 -4.112196e+001 -1.440668e-001 1.295299e+002
593125000 -1.817194e+000 1.783754e+002 -6.532249e+001 -9.770088e+000 -6.439056e+001 -4.143462e+001 -1.512894e-001 1.295593e+002
593750000 -1.845959e+000 1.779301e+002 -6.624541e+001 -3.319883e+001 -6.346490e+001 -3.217308e+001 -1.383179e-001 1.296308e+002
594375000 -1.874243e+000 1.775225e+002 -6.589122e+001 -1.767457e+001 -6.910142e+001 -2.303202e+001 -1.467398e-001 1.296703e+002
595000000 -1.903048e+000 1.771235e+002 -6.545786e+001 -2.083186e+001 -6.526684e+001 -3.971847e-001 -1.534809e-001 1.296576e+002
595625000 -1.938419e+000 1.766410e+002 -6.416437e+001 -3.098325e+001 -6.495193e+001 -4.007629e+001 -1.479908e-001 1.297446e+002
