!Agilent Technologies,E8364B,US42250235,A.06.04.32
!Agilent E8364B: A.06.04.32
!Date: Friday, January 15, 2021 14:45:34
!Correction: S11(Full 2 Port(1,2)) S21(Full 2 Port(1,2)) S12(Full 2 Port(1,2)) S22(Full 2 Port(1,2)) 
!S2P File: Measurements: S11, S21, S12, S22:
# Hz S  dB   R 50
500000000 -1.104665e-001 -1.299022e+002 -7.146402e+001 -7.976715e+001 -7.445789e+001 4.215124e+001 -1.393854e-001 1.385052e+002
500625000 -1.103702e-001 -1.301971e+002 -7.000323e+001 -1.483892e+001 -7.291229e+001 -1.500614e+001 -1.470647e-001 1.385245e+002
501250000 -1.178901e-001 -1.304746e+002 -8.630028e+001 2.389777e+001 -8.265023e+001 5.669728e+001 -1.426968e-001 1.384422e+002
501875000 -1.145069e-001 -1.307720e+002 -7.988795e+001 -8.005267e+001 -7.141517e+001 -3.906223e+001 -1.450421e-001 1.383730e+002
502500000 -1.164602e-001 -1.310657e+002 -8.075903e+001 -6.458833e+001 -8.041653e+001 -9.278893e+001 -1.364013e-001 1.383893e+002
503125000 -1.272862e-001 -1.313714e+002 -6.796767e+001 -9.972630e+001 -7.727544e+001 -1.084494e+002 -1.322031e-001 1.382728e+002
503750000 -1.242972e-001 -1.316798e+002 -7.433298e+001 -6.023731e+001 -7.864276e+001 6.537260e+001 -1.385152e-001 1.381940e+002
504375000 -1.394646e-001 -1.319782e+002 -7.590931e+001 -6.913480e+001 -7.863045e+001 -3.948943e+001 -1.491818e-001 1.381799e+002
505000000 -1.346657e-001 -1.323208e+002 -7.617138e+001 3.463540e+001 -7.872088e+001 1.692678e+002 -1.413124e-001 1.381789e+002
505625000 -1.383858e-001 -1.325698e+002 -7.088700e+001 -8.477372e+001 -7.177557e+001 -5.544905e+000 -1.485153e-001 1.380377e+002
506250000 -1.441333e-001 -1.328732e+002 -7.309201e+001 4.295374e+001 -8.116714e+001 -6.669941e+001 -1.466028e-001 1.379288e+002
506875000 -1.405345e-001 -1.331247e+002 -7.831431e+001 -4.389840e+000 -7.346649e+001 -8.510486e+001 -1.502786e-001 1.378560e+002
507500000 -1.463955e-001 -1.334004e+002 -7.232851e+001 -4.060894e+001 -6.899148e+001 -8.172215e+001 -1.459038e-001 1.377229e+002
508125000 -1.505580e-001 -1.337262e+002 -7.311088e+001 -7.965892e+001 -7.586464e+001 -1.105365e+001 -1.514316e-001 1.376563e+002
508750000 -1.522726e-001 -1.339331e+002 -7.649573e+001 1.486926e+001 -7.483119e+001 -3.785165e+001 -1.525237e-001 1.375388e+002
509375000 -1.572374e-001 -1.342462e+002 -7.720076e+001 -5.756264e+001 -6.841061e+001 -1.571558e+002 -1.549956e-001 1.374181e+002
510000000 -1.571272e-001 -1.345833e+002 -8.068703e+001 4.472457e+001 -7.477151e+001 -5.672788e+001 -1.620610e-001 1.372548e+002
510625000 -1.688250e-001 -1.347659e+002 -7.045523e+001 -6.077491e+001 -7.200067e+001 -4.306979e+001 -1.503352e-001 1.372190e+002
511250000 -1.687761e-001 -1.350483e+002 -7.213828e+001 -5.422015e+001 -8.504396e+001 5.943883e+001 -1.652170e-001 1.370317e+002
511875000 -1.599570e-001 -1.354174e+002 -6.999519e+001 -4.268432e+001 -7.284142e+001 -3.089355e+000 -1.549002e-001 1.368844e+002
512500000 -1.720079e-001 -1.356713e+002 -7.846066e+001 -5.571413e+001 -7.438987e+001 -4.095002e+001 -1.578923e-001 1.367604e+002
513125000 -1.869162e-001 -1.359634e+002 -7.503052e+001 -5.866970e+001 -8.063555e+001 -7.991322e+001 -1.605373e-001 1.367103e+002
513750000 -1.938192e-001 -1.362548e+002 -7.279559e+001 -1.188693e+002 -7.406332e+001 -8.131168e+001 -1.598733e-001 1.365504e+002
514375000 -1.921120e-001 -1.365722e+002 -6.954557e+001 -5.097162e+001 -7.254414e+001 8.556001e+000 -1.422293e-001 1.364369e+002
515000000 -2.031431e-001 -1.368264e+002 -7.242889e+001 -4.205479e+001 -7.086131e+001 -6.192071e+001 -1.470520e-001 1.363915e+002
515625000 -2.080007e-001 -1.372655e+002 -7.350201e+001 -1.317179e+002 -6.861457e+001 -4.793897e+001 -1.390534e-001 1.362694e+002
516250000 -2.127543e-001 -1.375286e+002 -7.691982e+001 -1.119559e+002 -6.956206e+001 -9.959444e+001 -1.448916e-001 1.362172e+002
516875000 -2.185061e-001 -1.378181e+002 -8.003965e+001 1.258989e+001 -7.206001e+001 -1.082168e+002 -1.341254e-001 1.362204e+002
517500000 -2.239902e-001 -1.381535e+002 -8.050722e+001 -9.180773e+001 -6.848965e+001 -6.425093e+001 -1.515234e-001 1.361120e+002
518125000 -2.277721e-001 -1.385746e+002 -6.905701e+001 -7.525346e+001 -8.863575e+001 -2.706531e+001 -1.405429e-001 1.360790e+002
518750000 -2.376037e-001 -1.389032e+002 -6.779290e+001 -1.257162e+002 -7.584514e+001 -1.336212e+002 -1.478107e-001 1.360919e+002
519375000 -2.450620e-001 -1.391555e+002 -7.323121e+001 -1.352662e+002 -7.284705e+001 -1.226439e+002 -1.319396e-001 1.360388e+002
520000000 -2.504398e-001 -1.395550e+002 -7.705036e+001 3.634733e+001 -6.780119e+001 -6.838593e+001 -1.308107e-001 1.360581e+002
520625000 -2.495229e-001 -1.398934e+002 -7.579578e+001 1.316540e+002 -7.552357e+001 -1.434322e+001 -1.345121e-001 1.359783e+002
521250000 -2.596511e-001 -1.402238e+002 -7.463693e+001 -1.000907e+002 -7.410703e+001 -8.213527e+001 -1.340780e-001 1.360189e+002
521875000 -2.611867e-001 -1.405782e+002 -6.904001e+001 -8.057951e+001 -7.252333e+001 -4.939250e+001 -1.291430e-001 1.360294e+002
522500000 -2.683987e-001 -1.409063e+002 -7.629899e+001 -3.916323e+001 -7.491478e+001 -1.257980e+002 -1.390091e-001 1.359555e+002
523125000 -2.758322e-001 -1.412553e+002 -6.857697e+001 -9.449880e+001 -7.228578e+001 -8.855895e+001 -1.405364e-001 1.359186e+002
523750000 -2.728725e-001 -1.415665e+002 -7.105706e+001 -7.404058e+001 -7.632960e+001 -1.565382e+001 -1.347188e-001 1.359320e+002
524375000 -2.895626e-001 -1.418684e+002 -6.935015e+001 -8.978210e+001 -7.337480e+001 -8.292683e+001 -1.339404e-001 1.358112e+002
525000000 -2.938605e-001 -1.422460e+002 -6.997940e+001 -8.783785e+001 -7.659795e+001 -1.214739e+002 -1.395713e-001 1.358161e+002
525625000 -3.051332e-001 -1.425052e+002 -7.085198e+001 -6.325948e+001 -7.200921e+001 -9.059844e+001 -1.451922e-001 1.357701e+002
526250000 -3.040164e-001 -1.428354e+002 -7.550744e+001 -6.034858e+001 -6.815718e+001 -1.028929e+002 -1.452544e-001 1.357165e+002
526875000 -3.176524e-001 -1.431399e+002 -8.546201e+001 -1.216768e+002 -7.217183e+001 -8.836816e+001 -1.361555e-001 1.356839e+002
527500000 -3.231385e-001 -1.434563e+002 -7.234364e+001 -3.345275e+001 -7.552651e+001 -5.855591e+001 -1.500134e-001 1.356267e+002
528125000 -3.501154e-001 -1.438068e+002 -7.003484e+001 -1.327503e+002 -6.973186e+001 -1.172430e+002 -1.446223e-001 1.356455e+002
528750000 -3.509629e-001 -1.440966e+002 -7.440771e+001 -5.351956e+001 -7.077580e+001 -8.321547e+001 -1.489561e-001 1.356351e+002
529375000 -3.622671e-001 -1.444289e+002 -7.542150e+001 -1.562492e+002 -6.823717e+001 -9.377495e+001 -1.472314e-001 1.355172e+002
530000000 -3.714026e-001 -1.447969e+002 -6.932519e+001 1.747581e+002 -7.730251e+001 -1.277219e+002 -1.422718e-001 1.354756e+002
530625000 -3.857478e-001 -1.451046e+002 -7.196192e+001 -1.112504e+002 -8.077090e+001 -6.571391e+001 -1.490647e-001 1.354692e+002
531250000 -4.002738e-001 -1.454620e+002 -7.480057e+001 -1.143298e+002 -6.816650e+001 -7.816695e+001 -1.335322e-001 1.354262e+002
531875000 -4.139030e-001 -1.457193e+002 -7.293501e+001 -1.228135e+002 -8.556783e+001 -1.430644e+002 -1.432283e-001 1.353116e+002
532500000 -4.232436e-001 -1.460887e+002 -7.563581e+001 -5.840737e+001 -7.187241e+001 -7.765526e+001 -1.388430e-001 1.353009e+002
533125000 -4.340400e-001 -1.464183e+002 -7.069164e+001 -3.789065e+001 -7.041140e+001 -1.309099e+002 -1.501467e-001 1.353314e+002
533750000 -4.414223e-001 -1.468002e+002 -7.798724e+001 -1.037371e+002 -7.394669e+001 -7.895406e+001 -1.527442e-001 1.352753e+002
534375000 -4.560177e-001 -1.471701e+002 -7.038484e+001 -9.603429e+001 -6.643620e+001 -1.263719e+002 -1.455489e-001 1.351842e+002
535000000 -4.666545e-001 -1.474900e+002 -7.102871e+001 -1.509614e+002 -7.219863e+001 -1.697000e+002 -1.469963e-001 1.351632e+002
535625000 -4.773676e-001 -1.478783e+002 -6.741990e+001 -9.285120e+001 -7.103596e+001 -9.307236e+001 -1.437207e-001 1.351829e+002
536250000 -4.934086e-001 -1.482263e+002 -7.246110e+001 -1.103168e+002 -7.341512e+001 -8.506033e+001 -1.386579e-001 1.350213e+002
536875000 -5.114577e-001 -1.486312e+002 -6.808188e+001 -1.354556e+002 -7.167818e+001 -9.802037e+001 -1.433932e-001 1.349632e+002
537500000 -5.211833e-001 -1.488865e+002 -7.567706e+001 -9.971738e+001 -7.196212e+001 -1.246069e+002 -1.407700e-001 1.349467e+002
538125000 -5.293999e-001 -1.492712e+002 -7.022012e+001 -1.048131e+002 -8.064102e+001 -9.814368e+001 -1.507549e-001 1.348847e+002
538750000 -5.458634e-001 -1.496322e+002 -6.985279e+001 -1.684879e+002 -6.988576e+001 -1.319699e+002 -1.517063e-001 1.348160e+002
539375000 -5.599861e-001 -1.499358e+002 -8.607040e+001 1.499283e+002 -7.597538e+001 -6.772344e+001 -1.464023e-001 1.347774e+002
540000000 -5.718034e-001 -1.503359e+002 -6.851785e+001 -1.503642e+002 -7.335099e+001 -1.468489e+002 -1.501295e-001 1.346824e+002
540625000 -5.900459e-001 -1.506700e+002 -7.609306e+001 -9.775466e+001 -7.838988e+001 -1.402321e+002 -1.423321e-001 1.347080e+002
541250000 -6.009905e-001 -1.509243e+002 -8.195132e+001 1.042298e+002 -7.616648e+001 -1.292916e+002 -1.437424e-001 1.346358e+002
541875000 -6.161612e-001 -1.512633e+002 -6.781715e+001 -1.268321e+002 -7.273778e+001 -1.745966e+002 -1.520915e-001 1.345731e+002
542500000 -6.328880e-001 -1.515495e+002 -7.557384e+001 -1.063855e+002 -7.016946e+001 -7.647560e+001 -1.392976e-001 1.345941e+002
543125000 -6.359223e-001 -1.518996e+002 -8.240829e+001 1.546996e+002 -7.285504e+001 -1.333515e+002 -1.316807e-001 1.344985e+002
543750000 -6.515515e-001 -1.522138e+002 -6.892101e+001 -1.539898e+002 -7.442601e+001 1.402544e+002 -1.379005e-001 1.345505e+002
544375000 -6.657689e-001 -1.524257e+002 -7.618716e+001 1.871212e+000 -7.320140e+001 -1.539002e+002 -1.327149e-001 1.345150e+002
545000000 -6.676413e-001 -1.527983e+002 -7.225944e+001 1.432303e+002 -7.512094e+001 -1.266726e+002 -1.407001e-001 1.346025e+002
545625000 -6.856136e-001 -1.531153e+002 -7.341556e+001 -1.718163e+002 -7.583844e+001 -1.728130e+002 -1.311822e-001 1.345771e+002
546250000 -7.057533e-001 -1.534688e+002 -6.985020e+001 -1.683919e+002 -7.120352e+001 -1.531803e+002 -1.395648e-001 1.345752e+002
546875000 -7.242576e-001 -1.538695e+002 -6.986137e+001 -1.536438e+002 -8.458553e+001 -8.544363e+001 -1.434624e-001 1.346096e+002
547500000 -7.497731e-001 -1.542067e+002 -7.370041e+001 1.447112e+002 -7.866842e+001 1.695695e+002 -1.451415e-001 1.345823e+002
548125000 -7.634311e-001 -1.545125e+002 -6.992950e+001 -1.210600e+002 -7.317577e+001 -1.413969e+002 -1.412892e-001 1.345426e+002
548750000 -7.868109e-001 -1.549318e+002 -7.940513e+001 1.271061e+002 -7.273811e+001 -1.427480e+002 -1.436351e-001 1.345116e+002
549375000 -8.073465e-001 -1.552674e+002 -7.337962e+001 -9.523949e+001 -8.071390e+001 9.935945e+001 -1.564911e-001 1.343668e+002
550000000 -8.196629e-001 -1.555856e+002 -7.471204e+001 -1.222279e+002 -7.449065e+001 -8.464396e+001 -1.592351e-001 1.343556e+002
550625000 -8.457747e-001 -1.559783e+002 -7.086015e+001 -1.028389e+002 -6.995259e+001 1.481046e+002 -1.545759e-001 1.342538e+002
551250000 -8.602785e-001 -1.562689e+002 -7.090995e+001 -1.763700e+002 -7.428406e+001 -1.201111e+002 -1.620320e-001 1.341594e+002
551875000 -8.885146e-001 -1.565989e+002 -9.811536e+001 -7.698217e+001 -9.026950e+001 -9.109249e+001 -1.615111e-001 1.340437e+002
552500000 -8.988881e-001 -1.569874e+002 -7.076737e+001 -1.127411e+002 -7.727707e+001 -1.649680e+002 -1.621942e-001 1.339227e+002
553125000 -9.141729e-001 -1.572601e+002 -6.914203e+001 -9.990737e+001 -7.344106e+001 -1.609151e+002 -1.696340e-001 1.338773e+002
553750000 -9.324554e-001 -1.576092e+002 -6.811858e+001 1.556236e+002 -7.179831e+001 -1.294446e+002 -1.703548e-001 1.336745e+002
554375000 -9.451894e-001 -1.579268e+002 -7.447673e+001 1.496815e+002 -7.483572e+001 -1.568294e+002 -1.711173e-001 1.335910e+002
555000000 -9.593748e-001 -1.582594e+002 -7.300247e+001 -1.085948e+002 -7.427073e+001 -8.699398e+001 -1.708207e-001 1.335018e+002
555625000 -9.782354e-001 -1.584931e+002 -7.384075e+001 -1.183037e+002 -7.631400e+001 -1.781199e+002 -1.582172e-001 1.334075e+002
556250000 -9.971628e-001 -1.588866e+002 -7.079148e+001 -1.623286e+002 -6.730138e+001 -1.598713e+002 -1.646769e-001 1.332731e+002
556875000 -1.003925e+000 -1.592059e+002 -6.670400e+001 -1.027781e+002 -7.176527e+001 -1.513667e+002 -1.697490e-001 1.332314e+002
557500000 -1.031210e+000 -1.595031e+002 -6.835643e+001 -1.505784e+002 -6.948872e+001 -1.706672e+002 -1.579130e-001 1.331786e+002
558125000 -1.054849e+000 -1.597911e+002 -7.597220e+001 -1.544939e+002 -6.985435e+001 -1.286712e+002 -1.585727e-001 1.331578e+002
558750000 -1.058832e+000 -1.600527e+002 -7.389610e+001 -1.505616e+002 -6.699261e+001 -1.486802e+002 -1.512557e-001 1.330792e+002
559375000 -1.088589e+000 -1.603430e+002 -7.500829e+001 -1.625951e+002 -7.094016e+001 -1.130611e+002 -1.466961e-001 1.330965e+002
560000000 -1.111575e+000 -1.606296e+002 -7.767908e+001 -1.145717e+002 -6.886828e+001 -1.493886e+002 -1.375903e-001 1.330187e+002
560625000 -1.123023e+000 -1.608983e+002 -7.055128e+001 -1.393727e+002 -6.815280e+001 -1.753907e+002 -1.423758e-001 1.330313e+002
561250000 -1.140251e+000 -1.611743e+002 -7.043367e+001 -1.386903e+002 -6.539931e+001 -1.546266e+002 -1.372173e-001 1.330365e+002
561875000 -1.152425e+000 -1.614455e+002 -6.900436e+001 -1.622509e+002 -6.959398e+001 -1.228137e+002 -1.443823e-001 1.330324e+002
562500000 -1.176282e+000 -1.617338e+002 -7.751260e+001 -1.348204e+002 -6.583346e+001 -1.728443e+002 -1.515510e-001 1.331005e+002
563125000 -1.183243e+000 -1.620482e+002 -6.967545e+001 -1.739433e+002 -7.814994e+001 -1.477112e+002 -1.448558e-001 1.330740e+002
563750000 -1.211080e+000 -1.623660e+002 -6.486079e+001 1.622192e+002 -7.231881e+001 -1.475899e+002 -1.546354e-001 1.330337e+002
564375000 -1.232913e+000 -1.626905e+002 -6.681272e+001 1.472366e+002 -6.989960e+001 1.243827e+002 -1.537001e-001 1.330035e+002
565000000 -1.253132e+000 -1.630408e+002 -6.974017e+001 -1.640127e+002 -7.361508e+001 -1.592513e+002 -1.529025e-001 1.328968e+002
565625000 -1.278405e+000 -1.633802e+002 -7.049086e+001 -1.642714e+002 -6.978764e+001 -1.789938e+002 -1.545232e-001 1.328319e+002
566250000 -1.301623e+000 -1.637135e+002 -6.741457e+001 1.656382e+002 -7.361085e+001 1.729138e+002 -1.642036e-001 1.327578e+002
566875000 -1.333521e+000 -1.639829e+002 -6.952472e+001 1.638726e+002 -7.035253e+001 1.554262e+002 -1.802762e-001 1.325464e+002
567500000 -1.355832e+000 -1.643299e+002 -6.651558e+001 1.743089e+002 -6.649776e+001 1.710085e+002 -1.716393e-001 1.324963e+002
568125000 -1.376374e+000 -1.646404e+002 -7.336833e+001 1.561859e+002 -7.446666e+001 -1.572617e+002 -1.709109e-001 1.322949e+002
568750000 -1.394776e+000 -1.649287e+002 -6.786169e+001 1.665886e+002 -7.119416e+001 1.656977e+002 -1.861717e-001 1.321645e+002
569375000 -1.414849e+000 -1.652384e+002 -7.238902e+001 1.415493e+002 -6.634106e+001 1.605081e+002 -1.837370e-001 1.320093e+002
570000000 -1.422612e+000 -1.655774e+002 -7.066936e+001 1.594222e+002 -7.207590e+001 1.643613e+002 -1.793340e-001 1.318394e+002
570625000 -1.437788e+000 -1.658440e+002 -7.319676e+001 1.357064e+002 -6.878206e+001 1.666613e+002 -1.671313e-001 1.317007e+002
571250000 -1.438005e+000 -1.661338e+002 -7.168295e+001 1.383508e+002 -7.490930e+001 1.362645e+002 -1.771242e-001 1.316142e+002
571875000 -1.460155e+000 -1.664854e+002 -7.012654e+001 1.637201e+002 -6.862399e+001 1.156583e+002 -1.658409e-001 1.314590e+002
572500000 -1.473966e+000 -1.668018e+002 -6.965142e+001 -1.794897e+002 -6.810912e+001 1.408960e+002 -1.657993e-001 1.314086e+002
573125000 -1.481459e+000 -1.671571e+002 -6.631627e+001 1.463846e+002 -7.983785e+001 1.115547e+002 -1.531643e-001 1.313194e+002
573750000 -1.491034e+000 -1.674577e+002 -7.889058e+001 1.615099e+002 -7.599146e+001 -1.395409e+002 -1.699651e-001 1.312396e+002
574375000 -1.500927e+000 -1.677451e+002 -7.647342e+001 -1.686816e+002 -6.995372e+001 1.505218e+002 -1.569891e-001 1.312118e+002
575000000 -1.519956e+000 -1.680805e+002 -6.673461e+001 -1.753407e+002 -7.129650e+001 1.606029e+002 -1.563943e-001 1.311553e+002
575625000 -1.533998e+000 -1.683093e+002 -7.445242e+001 -1.659172e+002 -7.203736e+001 1.535862e+002 -1.539660e-001 1.311230e+002
576250000 -1.547290e+000 -1.685840e+002 -6.953861e+001 1.218091e+002 -6.988670e+001 1.480724e+002 -1.580120e-001 1.310657e+002
576875000 -1.548410e+000 -1.688136e+002 -7.107989e+001 1.667439e+002 -7.008849e+001 1.308322e+002 -1.509558e-001 1.310966e+002
577500000 -1.563480e+000 -1.690179e+002 -6.943166e+001 1.542552e+002 -7.355800e+001 1.790109e+002 -1.513221e-001 1.309876e+002
578125000 -1.566980e+000 -1.693478e+002 -6.691507e+001 1.691152e+002 -7.180183e+001 1.680569e+002 -1.493679e-001 1.310770e+002
578750000 -1.567947e+000 -1.696048e+002 -6.614317e+001 1.793958e+002 -6.968967e+001 1.354864e+002 -1.552756e-001 1.309430e+002
579375000 -1.564495e+000 -1.698992e+002 -6.479748e+001 1.247118e+002 -7.340325e+001 1.702409e+002 -1.549530e-001 1.308923e+002
580000000 -1.560615e+000 -1.701585e+002 -7.119736e+001 1.355152e+002 -7.307397e+001 7.743376e+001 -1.627726e-001 1.308727e+002
580625000 -1.562927e+000 -1.705044e+002 -6.832115e+001 1.676405e+002 -6.647787e+001 1.490694e+002 -1.461197e-001 1.307965e+002
581250000 -1.570451e+000 -1.708688e+002 -6.545638e+001 1.332056e+002 -7.351991e+001 1.382401e+002 -1.699504e-001 1.307078e+002
581875000 -1.575766e+000 -1.712794e+002 -6.801230e+001 1.314348e+002 -6.479653e+001 1.641511e+002 -1.644946e-001 1.306518e+002
582500000 -1.578019e+000 -1.716332e+002 -6.932746e+001 1.483695e+002 -7.075053e+001 1.654618e+002 -1.679826e-001 1.305181e+002
583125000 -1.580116e+000 -1.721471e+002 -7.078048e+001 1.533070e+002 -7.562883e+001 1.562275e+002 -1.742084e-001 1.303622e+002
583750000 -1.595597e+000 -1.725460e+002 -6.752139e+001 1.675844e+002 -6.639958e+001 1.655168e+002 -1.816229e-001 1.302517e+002
584375000 -1.608940e+000 -1.729978e+002 -6.555380e+001 1.558406e+002 -6.767579e+001 1.461026e+002 -1.688398e-001 1.301814e+002
585000000 -1.611335e+000 -1.734773e+002 -7.662347e+001 9.943833e+001 -6.799860e+001 1.686845e+002 -1.804229e-001 1.300516e+002
585625000 -1.632323e+000 -1.739110e+002 -6.713129e+001 1.401950e+002 -6.520020e+001 1.703281e+002 -1.655910e-001 1.299585e+002
586250000 -1.644430e+000 -1.744115e+002 -6.880962e+001 1.390493e+002 -7.063351e+001 1.614472e+002 -1.671280e-001 1.299779e+002
586875000 -1.649237e+000 -1.749250e+002 -6.898080e+001 1.411162e+002 -7.157658e+001 -1.782812e+002 -1.630588e-001 1.298181e+002
587500000 -1.669400e+000 -1.753958e+002 -6.976766e+001 1.294082e+002 -9.202647e+001 2.570812e+001 -1.567283e-001 1.297650e+002
588125000 -1.680448e+000 -1.758695e+002 -7.228196e+001 1.460459e+002 -7.056194e+001 1.757908e+002 -1.609060e-001 1.297297e+002
588750000 -1.700648e+000 -1.762578e+002 -6.971622e+001 1.247462e+002 -6.656401e+001 1.534497e+002 -1.588558e-001 1.297650e+002
589375000 -1.714717e+000 -1.767086e+002 -7.253300e+001 1.577871e+002 -6.908247e+001 1.355607e+002 -1.434975e-001 1.296366e+002
590000000 -1.742291e+000 -1.770918e+002 -7.112707e+001 1.349500e+002 -6.747474e+001 1.414832e+002 -1.508881e-001 1.297084e+002
590625000 -1.765360e+000 -1.774781e+002 -7.291834e+001 1.544359e+002 -6.824224e+001 1.784711e+002 -1.417370e-001 1.296842e+002
591250000 -1.780622e+000 -1.778232e+002 -6.842560e+001 1.509389e+002 -7.040967e+001 -1.699143e+002 -1.454308e-001 1.297327e+002
591875000 -1.791176e+000 -1.781103e+002 -6.644370e+001 1.364828e+002 -6.900643e+001 1.651761e+002 -1.488854e-001 1.297387e+002
592500000 -1.804856e+000 -1.784894e+002 -6.815381e+001 1.491565e+002 -6.858870e+001 1.483605e+002 -1.433016e-001 1.298227e+002
593125000 -1.820630e+000 -1.788304e+002 -6.533048e+001 1.408114e+002 -6.732372e+001 1.438965e+002 -1.470447e-001 1.298690e+002
593750000 -1.832487e+000 -1.792255e+002 -6.940990e+001 1.358018e+002 -6.893612e+001 1.209476e+002 -1.360356e-001 1.298797e+002
594375000 -1.838642e+000 -1.795442e+002 -7.773090e+001 1.266833e+002 -6.659625e+001 1.498090e+002 -1.434682e-001 1.299132e+002
595000000 -1.852051e+000 -1.799067e+002 -6.631656e+001 1.577926e+002 -6.868877e+001 1.270378e+002 -1.549975e-001 1.299065e+002
