!Agilent Technologies,E8364B,US42250235,A.06.04.32
!Agilent E8364B: A.06.04.32
!Date: Friday, January 15, 2021 15:00:38
!Correction: S11(Full 2 Port(1,2)) S21(Full 2 Port(1,2)) S12(Full 2 Port(1,2)) S22(Full 2 Port(1,2)) 
!S2P File: Measurements: S11, S21, S12, S22:
# Hz S  dB   R 50
500000000 -1.281040e-001 -1.299600e+002 -7.129260e+001 4.246805e+001 -7.674656e+001 3.527285e+000 -1.531164e-001 1.383585e+002
500625000 -1.269014e-001 -1.302651e+002 -6.830086e+001 9.106421e+001 -7.066164e+001 8.649780e+001 -1.559937e-001 1.383540e+002
501250000 -1.329558e-001 -1.304971e+002 -6.868613e+001 1.364439e+001 -7.372202e+001 -8.461708e+001 -1.458957e-001 1.382516e+002
501875000 -1.301149e-001 -1.308116e+002 -7.346278e+001 -9.669682e+001 -7.105879e+001 3.081733e+001 -1.445351e-001 1.382525e+002
502500000 -1.371665e-001 -1.310869e+002 -7.548400e+001 9.151495e+001 -8.228318e+001 9.457685e+000 -1.491234e-001 1.382526e+002
503125000 -1.418225e-001 -1.314765e+002 -9.248311e+001 -1.702111e+002 -8.307727e+001 1.143779e+002 -1.467210e-001 1.380572e+002
503750000 -1.454713e-001 -1.316842e+002 -7.209680e+001 4.440815e+001 -7.328812e+001 2.705539e+000 -1.473827e-001 1.380753e+002
504375000 -1.594442e-001 -1.320661e+002 -7.078973e+001 6.442819e+001 -7.742055e+001 -3.465335e+001 -1.558818e-001 1.380484e+002
505000000 -1.570946e-001 -1.323437e+002 -7.385218e+001 -9.001921e+001 -9.158211e+001 1.433628e+002 -1.605465e-001 1.379288e+002
505625000 -1.529375e-001 -1.325706e+002 -7.273740e+001 2.039560e+001 -6.949339e+001 -7.214616e+001 -1.574843e-001 1.378503e+002
506250000 -1.605714e-001 -1.329095e+002 -7.450300e+001 3.143953e+001 -7.957871e+001 4.638742e+001 -1.655859e-001 1.377914e+002
506875000 -1.644823e-001 -1.331686e+002 -6.723041e+001 1.870748e+001 -7.475464e+001 6.129376e+001 -1.568450e-001 1.376603e+002
507500000 -1.684619e-001 -1.334525e+002 -7.394721e+001 -7.487888e+001 -7.292046e+001 1.488208e+001 -1.627765e-001 1.375273e+002
508125000 -1.756431e-001 -1.337039e+002 -7.413583e+001 -4.288129e+001 -7.388866e+001 -1.094237e+001 -1.609727e-001 1.374547e+002
508750000 -1.770930e-001 -1.339684e+002 -7.255029e+001 -2.634344e+001 -7.633303e+001 -8.379069e+001 -1.645046e-001 1.373393e+002
509375000 -1.864935e-001 -1.342772e+002 -7.727637e+001 1.650610e+001 -8.366801e+001 -1.446876e+001 -1.606221e-001 1.372563e+002
510000000 -1.836125e-001 -1.345370e+002 -7.644675e+001 -3.525113e+000 -8.329472e+001 4.601797e+001 -1.719057e-001 1.371539e+002
510625000 -1.901931e-001 -1.347759e+002 -7.866811e+001 -6.486686e+001 -7.547349e+001 -1.969267e+001 -1.544761e-001 1.370564e+002
511250000 -1.981196e-001 -1.350585e+002 -7.099788e+001 3.167693e+000 -7.837537e+001 6.123799e+001 -1.679696e-001 1.368958e+002
511875000 -1.960906e-001 -1.354041e+002 -7.006862e+001 -2.639213e+001 -7.543565e+001 -5.461710e+001 -1.612522e-001 1.367872e+002
512500000 -2.038939e-001 -1.356206e+002 -7.968954e+001 -3.134361e+001 -7.936440e+001 -5.402592e+001 -1.602945e-001 1.366609e+002
513125000 -2.149592e-001 -1.359265e+002 -7.088662e+001 -5.769436e+001 -7.742274e+001 -3.042592e+001 -1.674412e-001 1.366240e+002
513750000 -2.115322e-001 -1.362385e+002 -7.725731e+001 -4.647344e+001 -8.292964e+001 -1.626920e+002 -1.692087e-001 1.365005e+002
514375000 -2.245238e-001 -1.365422e+002 -7.761970e+001 -8.164376e+001 -7.107444e+001 -5.515223e+001 -1.556892e-001 1.363772e+002
515000000 -2.279254e-001 -1.368175e+002 -7.598392e+001 -6.019287e+001 -7.005535e+001 -4.237703e+001 -1.486700e-001 1.363326e+002
515625000 -2.309512e-001 -1.372314e+002 -7.582739e+001 4.469895e+001 -8.078482e+001 1.333849e+001 -1.482945e-001 1.362107e+002
516250000 -2.390407e-001 -1.375126e+002 -7.495876e+001 -1.215507e+002 -8.941766e+001 2.949805e+001 -1.573112e-001 1.361483e+002
516875000 -2.569335e-001 -1.378241e+002 -7.271587e+001 -5.292917e-001 -9.148450e+001 -1.242278e+002 -1.461896e-001 1.361866e+002
517500000 -2.596963e-001 -1.381566e+002 -7.248248e+001 -8.060880e+001 -7.279359e+001 -5.512172e+001 -1.497497e-001 1.360951e+002
518125000 -2.630040e-001 -1.385418e+002 -7.548625e+001 -6.075792e+001 -8.171292e+001 2.933317e+001 -1.470497e-001 1.360619e+002
518750000 -2.717424e-001 -1.389054e+002 -7.465082e+001 -7.802180e+001 -7.553068e+001 1.570929e+001 -1.527949e-001 1.360797e+002
519375000 -2.826158e-001 -1.391546e+002 -7.601114e+001 -1.721603e+001 -9.328770e+001 2.414315e+001 -1.500714e-001 1.360378e+002
520000000 -2.891112e-001 -1.395515e+002 -7.224691e+001 -5.371361e+001 -8.711070e+001 7.004729e+001 -1.534270e-001 1.359884e+002
520625000 -2.951997e-001 -1.399136e+002 -7.039821e+001 -1.026861e+002 -7.943133e+001 -1.052112e+002 -1.538435e-001 1.359290e+002
521250000 -3.037009e-001 -1.402524e+002 -7.988720e+001 7.111180e-001 -7.347334e+001 -5.758676e+001 -1.515873e-001 1.359302e+002
521875000 -3.017545e-001 -1.405959e+002 -7.461424e+001 -8.057249e+001 -7.512275e+001 -6.184221e+001 -1.364762e-001 1.359058e+002
522500000 -3.092750e-001 -1.408516e+002 -6.996773e+001 -1.373889e+002 -7.394179e+001 -1.525120e+002 -1.465984e-001 1.358803e+002
523125000 -3.224644e-001 -1.412444e+002 -7.300367e+001 6.056612e+000 -6.884846e+001 -1.236095e+002 -1.529566e-001 1.358497e+002
523750000 -3.206724e-001 -1.415383e+002 -8.347699e+001 -1.447943e+002 -7.762160e+001 -9.232963e+001 -1.492132e-001 1.358284e+002
524375000 -3.464115e-001 -1.418254e+002 -8.473473e+001 -1.387487e+002 -7.409744e+001 -2.025048e+001 -1.435942e-001 1.357739e+002
525000000 -3.510988e-001 -1.421614e+002 -7.318645e+001 -3.422296e+001 -8.333984e+001 -1.009265e+002 -1.519486e-001 1.357869e+002
525625000 -3.657879e-001 -1.423980e+002 -7.070975e+001 -7.156917e+001 -7.269933e+001 -8.988788e+001 -1.516838e-001 1.357103e+002
526250000 -3.676039e-001 -1.426237e+002 -7.371674e+001 1.028122e+002 -7.941693e+001 -6.788139e+001 -1.512139e-001 1.356645e+002
526875000 -3.818945e-001 -1.429642e+002 -7.246064e+001 9.106233e+001 -7.573806e+001 -7.422801e+001 -1.484417e-001 1.356404e+002
527500000 -3.964551e-001 -1.432590e+002 -8.448812e+001 -6.296457e+001 -7.153124e+001 -1.080133e+002 -1.473036e-001 1.355139e+002
528125000 -4.187524e-001 -1.434852e+002 -7.761344e+001 -4.964907e+001 -7.149638e+001 -1.347657e+002 -1.514569e-001 1.355575e+002
528750000 -4.198550e-001 -1.437185e+002 -6.803924e+001 1.575156e+000 -8.053635e+001 -1.613106e+002 -1.423346e-001 1.355959e+002
529375000 -4.318658e-001 -1.440386e+002 -7.507446e+001 -8.692626e+001 -7.436557e+001 -2.719620e+000 -1.430705e-001 1.355071e+002
530000000 -4.418200e-001 -1.443310e+002 -7.812062e+001 -1.466620e+001 -7.484247e+001 -1.497327e+002 -1.484653e-001 1.354397e+002
530625000 -4.480313e-001 -1.445811e+002 -7.073922e+001 -6.345515e+001 -8.268439e+001 1.748240e+002 -1.543572e-001 1.354170e+002
531250000 -4.563565e-001 -1.448624e+002 -7.400725e+001 -9.618657e+001 -7.760928e+001 -4.775171e+001 -1.428746e-001 1.353921e+002
531875000 -4.743613e-001 -1.451279e+002 -7.501555e+001 1.810072e+001 -7.623974e+001 -1.379319e+002 -1.578670e-001 1.353279e+002
532500000 -4.738401e-001 -1.454044e+002 -7.802531e+001 -3.493022e+001 -7.265924e+001 -8.162936e+001 -1.513298e-001 1.353187e+002
533125000 -4.785154e-001 -1.457715e+002 -7.773621e+001 -1.149546e+002 -7.221391e+001 -8.579563e+001 -1.592665e-001 1.352813e+002
533750000 -4.788119e-001 -1.461218e+002 -7.089439e+001 -5.192967e+001 -7.262636e+001 -9.379774e+001 -1.731892e-001 1.351888e+002
534375000 -4.887023e-001 -1.464999e+002 -8.921889e+001 -5.269843e+001 -7.211423e+001 -1.199839e+002 -1.472793e-001 1.351339e+002
535000000 -4.936040e-001 -1.467416e+002 -7.839049e+001 -6.419682e+001 -7.134402e+001 -1.140164e+002 -1.556778e-001 1.350501e+002
535625000 -5.049508e-001 -1.471802e+002 -7.094563e+001 -1.284766e+002 -7.305299e+001 -7.115734e+001 -1.506852e-001 1.350876e+002
536250000 -5.123296e-001 -1.475391e+002 -7.194137e+001 -8.837347e+001 -7.691994e+001 -7.325990e+001 -1.598530e-001 1.349494e+002
536875000 -5.228339e-001 -1.478641e+002 -9.295570e+001 3.801221e+001 -7.805471e+001 -6.879757e+001 -1.628411e-001 1.349400e+002
537500000 -5.326360e-001 -1.481288e+002 -7.153001e+001 -4.035549e+001 -7.561791e+001 -6.343344e+001 -1.526222e-001 1.349027e+002
538125000 -5.363964e-001 -1.485137e+002 -7.445898e+001 -1.131938e+002 -7.917668e+001 -9.474037e+001 -1.592659e-001 1.348351e+002
538750000 -5.497370e-001 -1.488476e+002 -8.627371e+001 -7.261569e+001 -7.577763e+001 -5.771429e+001 -1.582659e-001 1.347616e+002
539375000 -5.538888e-001 -1.491659e+002 -7.379659e+001 -1.039427e+002 -9.765952e+001 1.106568e+002 -1.507884e-001 1.347516e+002
540000000 -5.581321e-001 -1.495145e+002 -7.480091e+001 -1.143566e+002 -7.881101e+001 -8.892937e+001 -1.532333e-001 1.346621e+002
540625000 -5.612780e-001 -1.498483e+002 -7.482240e+001 -8.435050e+001 -7.142538e+001 -1.549075e+002 -1.538584e-001 1.346155e+002
541250000 -5.697709e-001 -1.500989e+002 -6.980128e+001 -8.854858e+001 -7.327769e+001 -1.310879e+002 -1.496847e-001 1.345714e+002
541875000 -5.798926e-001 -1.504042e+002 -8.409522e+001 -9.153341e+001 -8.287970e+001 -1.316749e+002 -1.566890e-001 1.345218e+002
542500000 -5.887904e-001 -1.507034e+002 -7.142537e+001 -1.260764e+002 -8.777811e+001 -1.095761e+002 -1.496724e-001 1.345171e+002
543125000 -5.909420e-001 -1.510625e+002 -7.118453e+001 -5.323439e+001 -7.380395e+001 -6.908707e+001 -1.489011e-001 1.345005e+002
543750000 -5.902871e-001 -1.513901e+002 -7.238210e+001 -1.337860e+002 -7.001266e+001 -1.428516e+002 -1.500050e-001 1.344926e+002
544375000 -5.989262e-001 -1.516795e+002 -7.017113e+001 -1.207169e+002 -7.220679e+001 -1.693150e+002 -1.448454e-001 1.344551e+002
545000000 -6.055019e-001 -1.519952e+002 -7.423670e+001 -1.720275e+002 -6.516119e+001 -1.179022e+002 -1.416082e-001 1.345190e+002
545625000 -6.167377e-001 -1.523534e+002 -7.565518e+001 -1.358899e+002 -7.111871e+001 -1.033436e+002 -1.453551e-001 1.345115e+002
546250000 -6.416218e-001 -1.527385e+002 -7.244711e+001 -1.641641e+002 -6.830382e+001 -1.286747e+002 -1.553978e-001 1.344515e+002
546875000 -6.551993e-001 -1.530843e+002 -6.753122e+001 -1.035981e+002 -7.894350e+001 -1.429385e+002 -1.492211e-001 1.344766e+002
547500000 -6.660275e-001 -1.534230e+002 -7.693902e+001 -1.234668e+002 -6.999809e+001 -1.637881e+002 -1.555406e-001 1.344533e+002
548125000 -6.872667e-001 -1.536989e+002 -7.224667e+001 -1.159052e+002 -8.188622e+001 -9.080141e+001 -1.497177e-001 1.343734e+002
548750000 -7.062243e-001 -1.540902e+002 -6.759169e+001 -1.600994e+002 -7.216936e+001 -1.119282e+002 -1.641971e-001 1.343810e+002
549375000 -7.181264e-001 -1.544208e+002 -7.167349e+001 -1.176500e+002 -7.468129e+001 -1.219130e+002 -1.603619e-001 1.341817e+002
550000000 -7.316476e-001 -1.547551e+002 -7.064085e+001 -1.163186e+002 -7.810854e+001 -1.391132e+002 -1.693234e-001 1.342132e+002
550625000 -7.454801e-001 -1.551029e+002 -7.838580e+001 -1.413938e+002 -7.012120e+001 -1.446560e+002 -1.683791e-001 1.341235e+002
551250000 -7.560695e-001 -1.554289e+002 -6.932977e+001 -1.114440e+002 -7.152795e+001 -1.180689e+002 -1.703955e-001 1.339712e+002
551875000 -7.799202e-001 -1.557609e+002 -7.550602e+001 -1.616750e+002 -7.237323e+001 -1.003078e+002 -1.693502e-001 1.339126e+002
552500000 -7.865226e-001 -1.561281e+002 -7.978452e+001 -1.278275e+002 -6.841330e+001 -1.616202e+002 -1.608397e-001 1.337695e+002
553125000 -7.862858e-001 -1.563982e+002 -7.852242e+001 1.560839e+002 -7.128735e+001 -1.272184e+002 -1.744940e-001 1.336836e+002
553750000 -8.022541e-001 -1.567563e+002 -6.973762e+001 -1.628999e+002 -7.127377e+001 -1.317888e+002 -1.801842e-001 1.335637e+002
554375000 -8.042123e-001 -1.570523e+002 -6.943266e+001 -1.636384e+002 -6.793333e+001 -1.576152e+002 -1.715494e-001 1.334684e+002
555000000 -8.086595e-001 -1.573894e+002 -7.683189e+001 -1.371320e+002 -7.229826e+001 -1.130336e+002 -1.675225e-001 1.333711e+002
555625000 -8.159684e-001 -1.576937e+002 -6.969304e+001 -1.295050e+002 -7.478773e+001 -1.454612e+002 -1.626928e-001 1.332965e+002
556250000 -8.167074e-001 -1.581158e+002 -7.245839e+001 -1.132281e+002 -7.592422e+001 -1.212677e+002 -1.687952e-001 1.331419e+002
556875000 -8.166321e-001 -1.584817e+002 -6.602349e+001 -1.677512e+002 -6.895295e+001 -1.599677e+002 -1.658916e-001 1.330941e+002
557500000 -8.359194e-001 -1.588504e+002 -6.867458e+001 1.668506e+002 -7.066928e+001 -1.706815e+002 -1.603899e-001 1.330658e+002
558125000 -8.328298e-001 -1.591379e+002 -7.271978e+001 -1.506311e+002 -7.094187e+001 -1.679459e+002 -1.688810e-001 1.330197e+002
558750000 -8.434836e-001 -1.594850e+002 -6.642629e+001 -1.702342e+002 -6.904420e+001 -1.698283e+002 -1.538197e-001 1.330136e+002
559375000 -8.515173e-001 -1.598143e+002 -6.949682e+001 1.310652e+002 -7.534073e+001 -1.496933e+002 -1.523757e-001 1.329820e+002
560000000 -8.590770e-001 -1.601639e+002 -6.917889e+001 1.619860e+002 -7.356591e+001 -1.772508e+002 -1.446896e-001 1.329535e+002
560625000 -8.647081e-001 -1.605080e+002 -7.605231e+001 1.609554e+002 -7.485717e+001 -1.573191e+002 -1.420787e-001 1.329308e+002
561250000 -8.769557e-001 -1.608761e+002 -6.875689e+001 -1.370007e+002 -8.433094e+001 1.001062e+002 -1.505905e-001 1.329247e+002
561875000 -8.833104e-001 -1.612127e+002 -7.181485e+001 -1.216571e+002 -6.957160e+001 1.767497e+002 -1.508757e-001 1.329603e+002
562500000 -8.978659e-001 -1.615572e+002 -8.614006e+001 -1.413917e+002 -6.925439e+001 -1.667153e+002 -1.555902e-001 1.329731e+002
563125000 -9.034840e-001 -1.619144e+002 -7.514735e+001 1.261948e+002 -7.279672e+001 -1.764988e+002 -1.473133e-001 1.329142e+002
563750000 -9.281763e-001 -1.623346e+002 -6.820625e+001 1.232017e+002 -6.829872e+001 1.673328e+002 -1.657195e-001 1.329346e+002
564375000 -9.374674e-001 -1.626824e+002 -7.648320e+001 1.041405e+002 -7.473045e+001 -1.453878e+002 -1.608658e-001 1.329232e+002
565000000 -9.534306e-001 -1.631403e+002 -7.277292e+001 -1.413394e+002 -7.273732e+001 -1.602402e+002 -1.726302e-001 1.327725e+002
565625000 -9.714137e-001 -1.635490e+002 -7.758424e+001 1.541333e+002 -8.682117e+001 -1.722776e+002 -1.757066e-001 1.327537e+002
566250000 -9.830708e-001 -1.639793e+002 -7.227263e+001 1.751321e+002 -8.317616e+001 1.407283e+002 -1.799721e-001 1.326074e+002
566875000 -1.007743e+000 -1.643963e+002 -7.610958e+001 -1.687868e+002 -7.126469e+001 1.598593e+002 -1.813474e-001 1.324617e+002
567500000 -1.032366e+000 -1.648443e+002 -7.072472e+001 1.339513e+002 -7.727187e+001 1.593628e+002 -1.867653e-001 1.323310e+002
568125000 -1.053703e+000 -1.652393e+002 -7.297498e+001 -1.389294e+002 -8.304951e+001 -1.661876e+002 -1.822604e-001 1.322097e+002
568750000 -1.067976e+000 -1.656701e+002 -7.308051e+001 1.344200e+002 -8.428118e+001 -1.684795e+002 -1.789104e-001 1.320466e+002
569375000 -1.092084e+000 -1.661219e+002 -6.936690e+001 1.609354e+002 -7.399493e+001 1.220996e+002 -1.799696e-001 1.319805e+002
570000000 -1.104125e+000 -1.665938e+002 -7.472832e+001 -1.502477e+002 -7.569211e+001 1.211702e+002 -1.831675e-001 1.317778e+002
570625000 -1.111639e+000 -1.669939e+002 -6.666547e+001 -1.787853e+002 -7.879201e+001 1.683516e+002 -1.713911e-001 1.316346e+002
571250000 -1.133886e+000 -1.674520e+002 -7.251576e+001 1.688600e+002 -7.436646e+001 1.544797e+002 -1.752666e-001 1.315772e+002
571875000 -1.160417e+000 -1.678957e+002 -7.545054e+001 1.081531e+002 -7.297348e+001 1.616034e+002 -1.699586e-001 1.314347e+002
572500000 -1.179429e+000 -1.683755e+002 -7.880997e+001 1.792094e+002 -6.825232e+001 1.641594e+002 -1.660534e-001 1.313127e+002
573125000 -1.193334e+000 -1.687800e+002 -6.920195e+001 1.433428e+002 -7.537648e+001 -1.781646e+002 -1.529205e-001 1.312247e+002
573750000 -1.213701e+000 -1.691892e+002 -7.906501e+001 -1.720750e+002 -6.919956e+001 1.652796e+002 -1.670398e-001 1.311680e+002
574375000 -1.239347e+000 -1.695831e+002 -7.339179e+001 -1.467803e+002 -7.774599e+001 -1.281059e+002 -1.608247e-001 1.311430e+002
575000000 -1.262172e+000 -1.700088e+002 -6.909581e+001 1.587278e+002 -7.626899e+001 1.036724e+002 -1.645870e-001 1.310729e+002
575625000 -1.285608e+000 -1.703594e+002 -6.797688e+001 -1.463129e+002 -7.009882e+001 1.389752e+002 -1.648805e-001 1.310371e+002
576250000 -1.309050e+000 -1.707089e+002 -7.429270e+001 1.472410e+002 -8.049875e+001 -1.521431e+002 -1.705623e-001 1.309778e+002
576875000 -1.329091e+000 -1.709885e+002 -7.509132e+001 -1.797703e+002 -7.495367e+001 1.677613e+002 -1.622680e-001 1.310150e+002
577500000 -1.347230e+000 -1.713613e+002 -7.786537e+001 1.732134e+002 -6.840906e+001 1.326080e+002 -1.606716e-001 1.308674e+002
578125000 -1.370918e+000 -1.717203e+002 -7.932625e+001 1.500884e+002 -7.063226e+001 1.223207e+002 -1.555436e-001 1.309400e+002
578750000 -1.381389e+000 -1.721131e+002 -6.570062e+001 1.151987e+002 -6.807051e+001 1.100334e+002 -1.680920e-001 1.308828e+002
579375000 -1.399998e+000 -1.724309e+002 -6.845400e+001 1.098058e+002 -7.378167e+001 1.434278e+002 -1.662075e-001 1.307879e+002
580000000 -1.420274e+000 -1.727420e+002 -6.572868e+001 1.326391e+002 -7.415515e+001 -1.606872e+002 -1.682063e-001 1.307518e+002
580625000 -1.435641e+000 -1.731505e+002 -7.124252e+001 1.232346e+002 -7.236371e+001 1.178494e+002 -1.656775e-001 1.307385e+002
581250000 -1.460673e+000 -1.735763e+002 -6.946000e+001 1.016177e+002 -7.490119e+001 1.142282e+002 -1.681868e-001 1.307003e+002
581875000 -1.474292e+000 -1.739813e+002 -7.937793e+001 4.975729e+001 -7.077698e+001 8.789878e+001 -1.681512e-001 1.305862e+002
582500000 -1.501436e+000 -1.743791e+002 -7.633686e+001 6.449931e+001 -7.543261e+001 1.704414e+002 -1.659425e-001 1.304873e+002
583125000 -1.507987e+000 -1.749171e+002 -7.017742e+001 1.448145e+002 -7.075370e+001 8.142648e+001 -1.848136e-001 1.303950e+002
583750000 -1.539257e+000 -1.753488e+002 -6.973892e+001 1.409270e+002 -6.664695e+001 1.152474e+002 -1.932017e-001 1.301941e+002
584375000 -1.564837e+000 -1.758536e+002 -7.002765e+001 1.425287e+002 -6.793742e+001 1.477602e+002 -1.766210e-001 1.301169e+002
585000000 -1.588016e+000 -1.763246e+002 -6.676067e+001 1.283353e+002 -7.360754e+001 1.128948e+002 -1.786483e-001 1.300400e+002
585625000 -1.622642e+000 -1.768303e+002 -7.448532e+001 1.487018e+002 -6.676157e+001 9.975497e+001 -1.702733e-001 1.299431e+002
586250000 -1.642478e+000 -1.773672e+002 -6.919258e+001 1.279771e+002 -7.411719e+001 1.333353e+002 -1.710884e-001 1.299535e+002
586875000 -1.664747e+000 -1.777971e+002 -6.828640e+001 1.113346e+002 -7.204897e+001 6.806884e+001 -1.706941e-001 1.298028e+002
587500000 -1.702607e+000 -1.782828e+002 -6.893379e+001 1.221877e+002 -7.396714e+001 1.018522e+002 -1.593514e-001 1.297486e+002
588125000 -1.721759e+000 -1.787273e+002 -7.172612e+001 1.225283e+002 -7.012506e+001 1.197473e+002 -1.613253e-001 1.297004e+002
588750000 -1.744787e+000 -1.791821e+002 -6.890235e+001 1.319815e+002 -7.064836e+001 1.346752e+002 -1.637772e-001 1.297204e+002
589375000 -1.766291e+000 -1.796935e+002 -6.602764e+001 1.010820e+002 -7.392274e+001 1.038413e+002 -1.599227e-001 1.296097e+002
590000000 -1.798213e+000 1.798322e+002 -7.012888e+001 9.960524e+001 -6.955818e+001 1.209211e+002 -1.551149e-001 1.296557e+002
590625000 -1.836217e+000 1.793493e+002 -7.032579e+001 1.003801e+002 -7.369228e+001 9.085011e+001 -1.556047e-001 1.296274e+002
591250000 -1.881969e+000 1.788927e+002 -7.013599e+001 7.342509e+001 -7.223031e+001 1.090256e+002 -1.570544e-001 1.296278e+002
591875000 -1.932536e+000 1.785410e+002 -6.782224e+001 8.528443e+001 -6.787878e+001 8.357741e+001 -1.623500e-001 1.297043e+002
592500000 -1.969813e+000 1.781194e+002 -6.752209e+001 6.395720e+001 -6.960990e+001 7.329295e+001 -1.505488e-001 1.297878e+002
593125000 -2.012898e+000 1.778478e+002 -7.029512e+001 1.122152e+002 -6.715813e+001 8.396284e+001 -1.508668e-001 1.297867e+002
593750000 -2.054389e+000 1.775258e+002 -6.775874e+001 7.188289e+001 -7.443066e+001 1.217990e+002 -1.404983e-001 1.298311e+002
594375000 -2.080472e+000 1.772033e+002 -7.446754e+001 6.764816e+001 -6.754179e+001 7.184734e+001 -1.494268e-001 1.298689e+002
595000000 -2.107783e+000 1.768102e+002 -6.821051e+001 8.566447e+001 -6.941883e+001 8.366372e+001 -1.664274e-001 1.298972e+002
