!Agilent Technologies,E8364B,US42250235,A.06.04.32
!Agilent E8364B: A.06.04.32
!Date: Friday, January 15, 2021 15:05:34
!Correction: S11(Full 2 Port(1,2)) S21(Full 2 Port(1,2)) S12(Full 2 Port(1,2)) S22(Full 2 Port(1,2)) 
!S2P File: Measurements: S11, S21, S12, S22:
# Hz S  dB   R 50
500000000 -1.453831e-001 -1.298135e+002 -7.568031e+001 -1.852039e+000 -7.107907e+001 8.040685e+001 -1.506432e-001 1.382002e+002
500625000 -1.494635e-001 -1.300355e+002 -7.170855e+001 8.356083e+001 -7.249406e+001 9.166647e+001 -1.536850e-001 1.381548e+002
501250000 -1.575096e-001 -1.303415e+002 -7.701057e+001 1.699903e+002 -8.640781e+001 1.214734e+002 -1.530515e-001 1.381349e+002
501875000 -1.487907e-001 -1.306371e+002 -7.648185e+001 1.070818e+001 -7.493176e+001 -1.443829e+002 -1.477324e-001 1.380651e+002
502500000 -1.584474e-001 -1.309011e+002 -7.675206e+001 1.151656e+002 -8.242178e+001 1.599543e+002 -1.442741e-001 1.380317e+002
503125000 -1.618412e-001 -1.312069e+002 -7.684272e+001 -4.665201e+000 -7.644096e+001 -1.580191e+002 -1.478455e-001 1.379415e+002
503750000 -1.616347e-001 -1.314712e+002 -6.576334e+001 7.484061e+001 -7.093141e+001 9.615186e+001 -1.501472e-001 1.378530e+002
504375000 -1.665079e-001 -1.318019e+002 -8.543098e+001 -6.847324e+001 -7.910609e+001 -1.257426e+002 -1.602570e-001 1.378565e+002
505000000 -1.725336e-001 -1.320766e+002 -7.608599e+001 -6.114267e+001 -7.803023e+001 1.206324e+002 -1.594182e-001 1.378487e+002
505625000 -1.618953e-001 -1.323632e+002 -7.568332e+001 1.302580e+002 -7.216019e+001 6.687654e+001 -1.488890e-001 1.377021e+002
506250000 -1.669564e-001 -1.326530e+002 -7.297038e+001 1.151628e+002 -8.365341e+001 -5.814113e+001 -1.584892e-001 1.376374e+002
506875000 -1.628269e-001 -1.329582e+002 -7.529058e+001 2.941330e+001 -7.119408e+001 1.424229e+002 -1.506429e-001 1.375307e+002
507500000 -1.698771e-001 -1.332079e+002 -7.524706e+001 1.651155e+002 -7.858794e+001 2.742178e+001 -1.578628e-001 1.373772e+002
508125000 -1.709891e-001 -1.334832e+002 -7.190594e+001 -5.395026e+001 -7.764841e+001 8.000720e+001 -1.627914e-001 1.372577e+002
508750000 -1.717143e-001 -1.337096e+002 -7.529116e+001 7.161142e+001 -7.352900e+001 9.257190e+001 -1.575461e-001 1.372427e+002
509375000 -1.800289e-001 -1.340616e+002 -7.176142e+001 9.632267e+001 -7.715819e+001 -1.627018e+002 -1.539259e-001 1.371243e+002
510000000 -1.733314e-001 -1.343728e+002 -6.849551e+001 -1.712226e+002 -7.813691e+001 1.486755e+002 -1.643264e-001 1.369611e+002
510625000 -1.886910e-001 -1.345785e+002 -7.436423e+001 1.658196e+001 -7.580450e+001 -4.356464e+000 -1.531264e-001 1.369046e+002
511250000 -1.864088e-001 -1.348212e+002 -8.439941e+001 -1.709480e+002 -7.260286e+001 6.363761e+001 -1.675047e-001 1.367248e+002
511875000 -1.818573e-001 -1.351349e+002 -8.299400e+001 -1.440074e+002 -7.334962e+001 1.089998e+002 -1.634531e-001 1.366526e+002
512500000 -1.883796e-001 -1.354598e+002 -7.256496e+001 4.697964e+001 -7.266531e+001 1.027096e+002 -1.635914e-001 1.365179e+002
513125000 -1.984497e-001 -1.357074e+002 -6.916720e+001 7.703951e+001 -6.819804e+001 5.063599e+001 -1.622532e-001 1.364853e+002
513750000 -2.025128e-001 -1.359983e+002 -6.510044e+001 1.086059e+002 -8.143301e+001 1.340240e+002 -1.628002e-001 1.363345e+002
514375000 -2.077994e-001 -1.363478e+002 -7.340744e+001 5.827549e+001 -7.623668e+001 1.015735e+002 -1.534283e-001 1.362105e+002
515000000 -2.185819e-001 -1.365936e+002 -7.048569e+001 5.737423e+001 -7.254095e+001 -2.806897e+000 -1.541882e-001 1.361347e+002
515625000 -2.242563e-001 -1.370014e+002 -6.924653e+001 6.060925e+001 -6.978603e+001 3.684643e+001 -1.527147e-001 1.360657e+002
516250000 -2.289244e-001 -1.372219e+002 -8.033813e+001 1.165998e+001 -6.915372e+001 4.937762e+001 -1.518589e-001 1.359692e+002
516875000 -2.345047e-001 -1.375389e+002 -7.313004e+001 -6.495296e+001 -8.158855e+001 -6.048182e+001 -1.485865e-001 1.359766e+002
517500000 -2.302651e-001 -1.379143e+002 -7.629670e+001 -5.156919e+000 -8.177892e+001 4.499355e+001 -1.590051e-001 1.359178e+002
518125000 -2.397446e-001 -1.382810e+002 -8.125605e+001 -9.878163e+001 -7.395190e+001 4.631828e+001 -1.535910e-001 1.358854e+002
518750000 -2.436811e-001 -1.385997e+002 -7.765882e+001 2.203026e+001 -7.741647e+001 9.029384e+001 -1.534779e-001 1.358639e+002
519375000 -2.598453e-001 -1.388414e+002 -7.001651e+001 1.016917e+002 -7.438471e+001 9.870590e+001 -1.416092e-001 1.358111e+002
520000000 -2.619928e-001 -1.391884e+002 -7.463879e+001 1.212688e+002 -7.775288e+001 7.531853e+001 -1.474234e-001 1.357759e+002
520625000 -2.634641e-001 -1.395486e+002 -6.944413e+001 1.957323e+001 -7.186331e+001 5.737614e+001 -1.462774e-001 1.357027e+002
521250000 -2.697406e-001 -1.399064e+002 -7.930817e+001 1.234325e+002 -7.385132e+001 2.625724e+001 -1.471753e-001 1.356888e+002
521875000 -2.655098e-001 -1.402661e+002 -8.514262e+001 8.496856e+000 -7.536765e+001 8.491557e+001 -1.364796e-001 1.356836e+002
522500000 -2.713127e-001 -1.405458e+002 -7.733871e+001 9.455400e+001 -6.973132e+001 -1.162005e+001 -1.470422e-001 1.356514e+002
523125000 -2.811995e-001 -1.409355e+002 -7.943238e+001 1.037668e+002 -6.862604e+001 2.188610e+000 -1.480224e-001 1.356172e+002
523750000 -2.710462e-001 -1.412343e+002 -7.223326e+001 8.493885e+001 -7.722167e+001 5.279483e+001 -1.497922e-001 1.355511e+002
524375000 -2.848285e-001 -1.415729e+002 -7.108934e+001 5.439083e+001 -7.329255e+001 2.099009e+001 -1.436658e-001 1.355652e+002
525000000 -2.812389e-001 -1.419212e+002 -8.310149e+001 6.129044e+001 -7.101144e+001 -2.691018e+001 -1.529711e-001 1.355706e+002
525625000 -2.966193e-001 -1.421512e+002 -7.638278e+001 5.454464e+001 -7.213189e+001 2.387665e+001 -1.627054e-001 1.354530e+002
526250000 -2.934987e-001 -1.424830e+002 -7.900232e+001 -1.626065e+002 -8.202634e+001 8.556067e+001 -1.493322e-001 1.354161e+002
526875000 -2.978556e-001 -1.428208e+002 -7.625865e+001 3.853114e+001 -8.042685e+001 1.903779e+001 -1.417583e-001 1.353854e+002
527500000 -3.080015e-001 -1.431376e+002 -7.381102e+001 7.387990e+000 -7.732099e+001 -8.212807e+001 -1.502582e-001 1.353773e+002
528125000 -3.263175e-001 -1.434502e+002 -7.024010e+001 -3.916366e+001 -7.697897e+001 2.888322e+001 -1.523263e-001 1.353673e+002
528750000 -3.264742e-001 -1.437642e+002 -7.387386e+001 -1.951259e+001 -7.105712e+001 3.175389e+001 -1.503113e-001 1.353816e+002
529375000 -3.355091e-001 -1.441029e+002 -7.022856e+001 -7.048872e+001 -6.951387e+001 -5.356654e+001 -1.431411e-001 1.352857e+002
530000000 -3.388413e-001 -1.444585e+002 -7.622923e+001 -1.337171e+002 -8.075281e+001 4.751496e+001 -1.548485e-001 1.352561e+002
530625000 -3.480715e-001 -1.447258e+002 -8.669515e+001 -3.662856e+001 -9.032050e+001 1.305425e+002 -1.504954e-001 1.351911e+002
531250000 -3.504397e-001 -1.451479e+002 -8.154043e+001 -3.314987e+001 -7.566627e+001 -1.207801e+001 -1.368955e-001 1.351546e+002
531875000 -3.723567e-001 -1.454464e+002 -7.567986e+001 -5.622816e+000 -7.797320e+001 -2.126917e+001 -1.516682e-001 1.350986e+002
532500000 -3.774157e-001 -1.457950e+002 -8.363693e+001 1.191752e+002 -6.919776e+001 -1.850064e+001 -1.547561e-001 1.350767e+002
533125000 -3.784228e-001 -1.461518e+002 -7.807967e+001 2.845872e+001 -7.982275e+001 -1.328742e+002 -1.653056e-001 1.350685e+002
533750000 -3.941768e-001 -1.465039e+002 -8.073155e+001 -3.748080e+001 -8.094041e+001 1.537566e+001 -1.693108e-001 1.349564e+002
534375000 -3.967271e-001 -1.468866e+002 -7.985625e+001 8.024398e+001 -7.245137e+001 -4.394075e+001 -1.627892e-001 1.349177e+002
535000000 -4.111069e-001 -1.472784e+002 -7.326138e+001 1.312421e+002 -7.513585e+001 2.845416e+001 -1.664082e-001 1.348355e+002
535625000 -4.234889e-001 -1.476278e+002 -7.588331e+001 -3.131621e+001 -8.026003e+001 -1.576110e+002 -1.571411e-001 1.348161e+002
536250000 -4.250661e-001 -1.480207e+002 -7.819077e+001 -8.014405e+001 -7.718317e+001 -7.845408e+001 -1.556681e-001 1.346842e+002
536875000 -4.407138e-001 -1.484080e+002 -8.114755e+001 -1.192403e+002 -7.819505e+001 -2.387017e+001 -1.595712e-001 1.346107e+002
537500000 -4.529444e-001 -1.487235e+002 -7.452454e+001 3.074255e+000 -7.852145e+001 -1.285809e+001 -1.531960e-001 1.346473e+002
538125000 -4.636142e-001 -1.491106e+002 -7.223035e+001 -2.601605e+001 -8.276077e+001 -5.329237e+001 -1.583370e-001 1.345875e+002
538750000 -4.884222e-001 -1.494295e+002 -6.816105e+001 5.932069e+001 -7.204144e+001 -1.108930e+002 -1.525584e-001 1.345605e+002
539375000 -5.062349e-001 -1.497865e+002 -7.818513e+001 9.052986e+001 -8.481264e+001 -2.736682e+001 -1.505320e-001 1.344835e+002
540000000 -5.135871e-001 -1.501883e+002 -7.952637e+001 -9.434200e+001 -7.922890e+001 -5.244133e+001 -1.474661e-001 1.343984e+002
540625000 -5.245119e-001 -1.505286e+002 -7.414795e+001 -6.396280e+001 -7.736394e+001 -5.943475e+001 -1.504374e-001 1.343820e+002
541250000 -5.342008e-001 -1.508013e+002 -7.811593e+001 3.761509e+001 -8.013457e+001 2.109821e+001 -1.462557e-001 1.343676e+002
541875000 -5.516301e-001 -1.511564e+002 -7.439492e+001 -1.208583e+002 -7.848075e+001 -1.741205e+001 -1.463979e-001 1.343143e+002
542500000 -5.627049e-001 -1.514967e+002 -8.451685e+001 6.532233e+001 -7.759352e+001 1.554822e+001 -1.433120e-001 1.343193e+002
543125000 -5.705376e-001 -1.518625e+002 -8.031438e+001 2.333385e+000 -6.924061e+001 -5.294477e+000 -1.435849e-001 1.342458e+002
543750000 -5.907258e-001 -1.521275e+002 -7.218540e+001 -6.712584e+001 -7.610468e+001 -4.182372e+001 -1.412795e-001 1.342536e+002
544375000 -6.078072e-001 -1.524700e+002 -8.354180e+001 1.395765e+002 -7.003001e+001 -9.026646e+001 -1.415940e-001 1.343025e+002
545000000 -6.123831e-001 -1.528126e+002 -7.843871e+001 -1.479639e+002 -7.367246e+001 -1.968981e+001 -1.465028e-001 1.342544e+002
545625000 -6.257082e-001 -1.531895e+002 -7.439420e+001 -3.538614e+001 -7.139505e+001 -7.010204e+001 -1.377576e-001 1.343424e+002
546250000 -6.567940e-001 -1.534799e+002 -7.137205e+001 1.412671e+001 -7.112834e+001 -3.624543e+001 -1.505127e-001 1.343156e+002
546875000 -6.654889e-001 -1.539088e+002 -7.742882e+001 6.004678e+001 -8.402654e+001 -8.746429e+001 -1.527638e-001 1.343267e+002
547500000 -6.899722e-001 -1.542364e+002 -7.653652e+001 4.730976e+000 -7.882769e+001 -1.996411e+001 -1.459995e-001 1.342816e+002
548125000 -7.135502e-001 -1.545526e+002 -8.751715e+001 -1.030223e+002 -8.056340e+001 6.440984e+001 -1.545380e-001 1.341994e+002
548750000 -7.277943e-001 -1.549666e+002 -7.624101e+001 -6.151481e+001 -8.025868e+001 -7.422531e+001 -1.624828e-001 1.342031e+002
549375000 -7.542780e-001 -1.553191e+002 -7.149413e+001 -5.469552e+001 -8.129133e+001 -9.307125e+001 -1.644446e-001 1.340226e+002
550000000 -7.689053e-001 -1.556789e+002 -7.576447e+001 -1.193741e+002 -7.423572e+001 -5.816662e+001 -1.700069e-001 1.340378e+002
550625000 -7.951348e-001 -1.559770e+002 -7.352843e+001 -4.675039e+001 -7.378915e+001 -9.910886e+001 -1.672582e-001 1.339628e+002
551250000 -8.057052e-001 -1.563005e+002 -6.841203e+001 -1.204557e+001 -6.961649e+001 -1.092323e+002 -1.693601e-001 1.338717e+002
551875000 -8.230901e-001 -1.566071e+002 -8.024567e+001 -1.635749e+002 -7.037251e+001 -9.132897e+001 -1.618469e-001 1.337760e+002
552500000 -8.450181e-001 -1.569930e+002 -7.552838e+001 -3.687740e+001 -7.199209e+001 -7.714923e+001 -1.709126e-001 1.336353e+002
553125000 -8.507061e-001 -1.573034e+002 -8.310677e+001 -2.751134e+001 -7.170392e+001 -7.801167e+001 -1.732455e-001 1.335425e+002
553750000 -8.724452e-001 -1.576207e+002 -7.154001e+001 -1.932568e+000 -7.191142e+001 -3.909165e+001 -1.769895e-001 1.333644e+002
554375000 -8.824437e-001 -1.579400e+002 -8.353169e+001 -1.793831e+002 -7.240414e+001 -1.309479e+002 -1.739929e-001 1.332729e+002
555000000 -8.936891e-001 -1.583018e+002 -7.292414e+001 -1.194161e+002 -8.846507e+001 3.575143e+001 -1.719831e-001 1.332179e+002
555625000 -9.130204e-001 -1.586164e+002 -6.703116e+001 -5.396201e+001 -7.324118e+001 -5.518478e+001 -1.596219e-001 1.332045e+002
556250000 -9.271379e-001 -1.589557e+002 -7.073975e+001 -4.281073e+001 -7.089047e+001 -7.583034e+001 -1.656686e-001 1.330412e+002
556875000 -9.458556e-001 -1.593362e+002 -7.280996e+001 -4.103576e+001 -8.643522e+001 2.030097e+001 -1.704752e-001 1.329991e+002
557500000 -9.614496e-001 -1.596134e+002 -8.210204e+001 8.798647e+000 -7.192988e+001 -8.517172e+001 -1.634302e-001 1.329711e+002
558125000 -9.867117e-001 -1.598974e+002 -7.144848e+001 -6.710398e+001 -7.480624e+001 -1.230620e+002 -1.642149e-001 1.329227e+002
558750000 -9.971648e-001 -1.602421e+002 -7.392676e+001 -1.283593e+002 -7.153020e+001 -5.495350e+001 -1.608400e-001 1.328813e+002
559375000 -1.020983e+000 -1.605209e+002 -7.882745e+001 1.517621e+002 -8.102791e+001 -5.304546e+001 -1.567422e-001 1.328792e+002
560000000 -1.047358e+000 -1.607976e+002 -7.042171e+001 -9.803491e+001 -6.881476e+001 -5.359085e+001 -1.484691e-001 1.328428e+002
560625000 -1.058344e+000 -1.610785e+002 -7.018310e+001 -5.729984e+001 -6.911936e+001 -9.856998e+001 -1.511279e-001 1.328408e+002
561250000 -1.074688e+000 -1.613966e+002 -7.416953e+001 -8.983830e+001 -7.371047e+001 -1.079865e+002 -1.490732e-001 1.328173e+002
561875000 -1.087805e+000 -1.616809e+002 -6.885374e+001 -5.115548e+001 -6.934528e+001 -1.207768e+002 -1.599130e-001 1.327683e+002
562500000 -1.107095e+000 -1.619922e+002 -7.315585e+001 -1.373452e+002 -7.469025e+001 -1.071502e+002 -1.540692e-001 1.328128e+002
563125000 -1.115511e+000 -1.622910e+002 -7.177613e+001 -1.209858e+002 -7.258755e+001 -9.571561e+001 -1.499982e-001 1.327468e+002
563750000 -1.139424e+000 -1.626231e+002 -6.916576e+001 -7.730814e+001 -6.927201e+001 -8.911669e+001 -1.625836e-001 1.327327e+002
564375000 -1.156366e+000 -1.629611e+002 -6.703767e+001 -1.183195e+002 -7.115298e+001 -1.079818e+002 -1.719590e-001 1.327090e+002
565000000 -1.176080e+000 -1.633562e+002 -7.239902e+001 -1.381526e+002 -7.065913e+001 -1.351080e+002 -1.720821e-001 1.326326e+002
565625000 -1.201232e+000 -1.636971e+002 -6.847550e+001 -1.092452e+002 -7.800735e+001 -1.124200e+002 -1.771798e-001 1.325714e+002
566250000 -1.221904e+000 -1.641139e+002 -8.151836e+001 -5.754264e+001 -7.056613e+001 -1.433137e+002 -1.724255e-001 1.324901e+002
566875000 -1.264782e+000 -1.644301e+002 -7.154220e+001 -1.226796e+002 -6.773083e+001 -1.222713e+002 -1.721030e-001 1.323307e+002
567500000 -1.286725e+000 -1.648077e+002 -7.059669e+001 -1.752661e+002 -6.973483e+001 -1.084503e+002 -1.730464e-001 1.322149e+002
568125000 -1.318995e+000 -1.650899e+002 -7.891080e+001 -1.536052e+002 -6.906232e+001 -1.639615e+002 -1.812007e-001 1.320819e+002
568750000 -1.343906e+000 -1.654015e+002 -6.898803e+001 -1.488893e+002 -6.924271e+001 -1.571448e+002 -1.869081e-001 1.319000e+002
569375000 -1.357307e+000 -1.657093e+002 -7.445554e+001 -1.123129e+002 -7.694720e+001 -1.780385e+002 -1.853511e-001 1.318286e+002
570000000 -1.375231e+000 -1.659987e+002 -6.947144e+001 1.518810e+002 -6.694144e+001 1.703960e+002 -1.843004e-001 1.315863e+002
570625000 -1.387075e+000 -1.662755e+002 -7.178549e+001 1.633799e+002 -7.661499e+001 1.104606e+002 -1.760431e-001 1.315512e+002
571250000 -1.405697e+000 -1.665354e+002 -7.389792e+001 -1.233884e+002 -7.487433e+001 -1.583071e+002 -1.795302e-001 1.313948e+002
571875000 -1.420424e+000 -1.668568e+002 -7.286710e+001 1.599118e+002 -7.309126e+001 1.660903e+002 -1.718444e-001 1.312886e+002
572500000 -1.428298e+000 -1.671223e+002 -7.738232e+001 -1.556335e+002 -7.239013e+001 1.590308e+002 -1.786475e-001 1.311893e+002
573125000 -1.428512e+000 -1.674059e+002 -7.076978e+001 1.571889e+002 -7.290673e+001 -1.639122e+002 -1.569206e-001 1.310677e+002
573750000 -1.427614e+000 -1.677205e+002 -7.046908e+001 1.693047e+002 -8.205457e+001 -1.356125e+002 -1.695611e-001 1.310407e+002
574375000 -1.441204e+000 -1.680325e+002 -6.853738e+001 -1.260910e+002 -6.964310e+001 -1.532146e+002 -1.701432e-001 1.310130e+002
575000000 -1.442664e+000 -1.683304e+002 -8.063551e+001 1.442486e+002 -7.331364e+001 1.605449e+002 -1.643667e-001 1.308530e+002
575625000 -1.450335e+000 -1.685771e+002 -6.877499e+001 1.555765e+002 -7.580882e+001 -1.421787e+002 -1.636404e-001 1.308812e+002
576250000 -1.452799e+000 -1.688894e+002 -7.177647e+001 1.525215e+002 -7.393742e+001 -1.715501e+002 -1.680532e-001 1.308732e+002
576875000 -1.455564e+000 -1.691876e+002 -6.809505e+001 -1.737557e+002 -7.104045e+001 1.626405e+002 -1.592943e-001 1.307979e+002
577500000 -1.467223e+000 -1.694810e+002 -7.418502e+001 -1.486653e+002 -6.736567e+001 1.660164e+002 -1.645696e-001 1.307847e+002
578125000 -1.465949e+000 -1.697932e+002 -7.024068e+001 -1.679202e+002 -7.149471e+001 1.753346e+002 -1.580591e-001 1.308193e+002
578750000 -1.459698e+000 -1.701243e+002 -7.103296e+001 1.655285e+002 -7.218407e+001 -1.761410e+002 -1.631639e-001 1.307005e+002
579375000 -1.460284e+000 -1.704763e+002 -7.166515e+001 1.595445e+002 -7.071161e+001 1.661269e+002 -1.651845e-001 1.306426e+002
580000000 -1.462122e+000 -1.707901e+002 -7.008112e+001 1.612249e+002 -6.795867e+001 1.513633e+002 -1.695548e-001 1.305911e+002
580625000 -1.466633e+000 -1.711478e+002 -7.184750e+001 1.517265e+002 -8.045515e+001 1.549653e+002 -1.680713e-001 1.305664e+002
581250000 -1.469103e+000 -1.715718e+002 -8.234208e+001 -1.337153e+002 -6.823900e+001 -1.573951e+002 -1.705750e-001 1.304798e+002
581875000 -1.468770e+000 -1.720237e+002 -6.924500e+001 1.629057e+002 -7.436370e+001 1.657989e+002 -1.739931e-001 1.304063e+002
582500000 -1.476604e+000 -1.725120e+002 -7.268389e+001 1.557666e+002 -7.393383e+001 1.083535e+002 -1.768460e-001 1.303272e+002
583125000 -1.478934e+000 -1.730791e+002 -8.095326e+001 1.497571e+002 -7.869508e+001 1.412161e+002 -1.806479e-001 1.301686e+002
583750000 -1.499191e+000 -1.735910e+002 -6.846361e+001 1.540968e+002 -7.515418e+001 -1.650114e+002 -1.836669e-001 1.300353e+002
584375000 -1.515031e+000 -1.740429e+002 -7.121684e+001 1.596807e+002 -7.059428e+001 1.541407e+002 -1.765780e-001 1.299677e+002
585000000 -1.540224e+000 -1.745213e+002 -7.380992e+001 1.598189e+002 -7.017405e+001 1.255726e+002 -1.778422e-001 1.299123e+002
585625000 -1.574175e+000 -1.749659e+002 -6.984170e+001 1.468973e+002 -7.216861e+001 -1.598311e+002 -1.658963e-001 1.298018e+002
586250000 -1.577010e+000 -1.754352e+002 -7.059855e+001 1.415325e+002 -7.630624e+001 -1.630206e+002 -1.628335e-001 1.297986e+002
586875000 -1.585553e+000 -1.759234e+002 -7.256582e+001 1.188207e+002 -6.977519e+001 1.424092e+002 -1.691960e-001 1.296495e+002
587500000 -1.611554e+000 -1.763600e+002 -7.042745e+001 -1.726803e+002 -7.155692e+001 9.745589e+001 -1.626969e-001 1.295714e+002
588125000 -1.620440e+000 -1.768063e+002 -7.393619e+001 1.196047e+002 -7.545043e+001 1.256046e+002 -1.623661e-001 1.295687e+002
588750000 -1.634673e+000 -1.772578e+002 -8.531236e+001 -1.230633e+002 -6.923835e+001 1.470382e+002 -1.646578e-001 1.295750e+002
589375000 -1.632192e+000 -1.777445e+002 -8.015665e+001 -1.641685e+002 -7.173842e+001 1.588283e+002 -1.536966e-001 1.295237e+002
590000000 -1.652819e+000 -1.782977e+002 -9.028439e+001 -3.932940e+001 -7.167590e+001 1.437993e+002 -1.613948e-001 1.295524e+002
590625000 -1.667706e+000 -1.787934e+002 -7.358651e+001 1.368640e+002 -7.127213e+001 1.337941e+002 -1.549633e-001 1.294948e+002
591250000 -1.692019e+000 -1.792878e+002 -7.261352e+001 1.233187e+002 -7.432709e+001 1.671365e+002 -1.557084e-001 1.295443e+002
591875000 -1.723010e+000 -1.797031e+002 -7.585695e+001 1.066272e+002 -7.202649e+001 1.517352e+002 -1.602452e-001 1.295602e+002
592500000 -1.753428e+000 1.798085e+002 -7.007255e+001 1.127450e+002 -7.284716e+001 1.767988e+002 -1.515076e-001 1.296361e+002
593125000 -1.793194e+000 1.794449e+002 -7.750494e+001 1.407295e+002 -6.523706e+001 9.832870e+001 -1.534695e-001 1.296504e+002
593750000 -1.815308e+000 1.790005e+002 -6.964307e+001 1.349876e+002 -6.674649e+001 1.184825e+002 -1.385768e-001 1.297112e+002
594375000 -1.837992e+000 1.787082e+002 -6.848775e+001 1.138658e+002 -7.134921e+001 1.179477e+002 -1.462265e-001 1.297804e+002
595000000 -1.859956e+000 1.782955e+002 -6.815025e+001 1.257666e+002 -6.812013e+001 1.314421e+002 -1.616129e-001 1.297269e+002
595625000 -1.871364e+000 1.779090e+002 -6.632199e+001 7.011932e+001 -6.681316e+001 1.257149e+002 -1.578039e-001 1.297581e+002
