!Agilent Technologies,E8364B,US42250235,A.06.04.32
!Agilent E8364B: A.06.04.32
!Date: Friday, January 15, 2021 14:59:06
!Correction: S11(Full 2 Port(1,2)) S21(Full 2 Port(1,2)) S12(Full 2 Port(1,2)) S22(Full 2 Port(1,2)) 
!S2P File: Measurements: S11, S21, S12, S22:
# Hz S  dB   R 50
500000000 -1.198671e-001 -1.298716e+002 -7.855186e+001 1.639518e+002 -7.649160e+001 1.618833e+002 -1.607232e-001 1.379221e+002
500625000 -1.250897e-001 -1.301205e+002 -7.214027e+001 1.636347e+002 -7.679757e+001 1.417198e+002 -1.701173e-001 1.379009e+002
501250000 -1.303101e-001 -1.304338e+002 -6.893183e+001 1.345528e+002 -7.510299e+001 -1.153028e+002 -1.615902e-001 1.378116e+002
501875000 -1.306789e-001 -1.307049e+002 -7.706261e+001 1.767232e+002 -7.295894e+001 8.556671e+001 -1.528265e-001 1.377027e+002
502500000 -1.341294e-001 -1.310210e+002 -7.733528e+001 -9.460725e+001 -7.624886e+001 -1.150268e+002 -1.641729e-001 1.377529e+002
503125000 -1.454851e-001 -1.313127e+002 -7.697268e+001 1.733846e+002 -7.555654e+001 8.111683e+001 -1.563834e-001 1.376465e+002
503750000 -1.434703e-001 -1.315782e+002 -7.604797e+001 -9.658880e+001 -8.062596e+001 -1.141237e+002 -1.563576e-001 1.375542e+002
504375000 -1.482353e-001 -1.319437e+002 -7.833107e+001 1.719824e+001 -7.507982e+001 -1.434540e+002 -1.741214e-001 1.375079e+002
505000000 -1.539097e-001 -1.322184e+002 -7.476231e+001 1.124910e+002 -8.575508e+001 1.451601e+002 -1.757700e-001 1.374750e+002
505625000 -1.508989e-001 -1.324708e+002 -7.605642e+001 1.368779e+002 -7.782477e+001 8.283046e+001 -1.699458e-001 1.373992e+002
506250000 -1.541033e-001 -1.327420e+002 -7.458261e+001 -8.218676e+001 -7.654901e+001 4.985674e+001 -1.758766e-001 1.373064e+002
506875000 -1.553446e-001 -1.330642e+002 -8.629803e+001 1.932582e+001 -7.585625e+001 7.095673e+001 -1.690371e-001 1.372359e+002
507500000 -1.527596e-001 -1.333661e+002 -7.301881e+001 1.331796e+002 -9.484798e+001 3.148403e+000 -1.719902e-001 1.370511e+002
508125000 -1.623662e-001 -1.336267e+002 -7.365076e+001 1.674508e+002 -8.474445e+001 -2.164844e+001 -1.814279e-001 1.370100e+002
508750000 -1.631914e-001 -1.338332e+002 -6.928097e+001 9.404073e+001 -7.660332e+001 6.520502e+001 -1.803443e-001 1.368925e+002
509375000 -1.582110e-001 -1.342064e+002 -7.407223e+001 1.719871e+002 -7.243674e+001 7.436880e+001 -1.752606e-001 1.368001e+002
510000000 -1.641740e-001 -1.344857e+002 -8.139256e+001 -1.683132e+002 -7.493587e+001 -1.359666e+002 -1.825886e-001 1.366629e+002
510625000 -1.769423e-001 -1.347458e+002 -7.752980e+001 -5.961188e+001 -7.030943e+001 9.174482e+001 -1.651486e-001 1.365871e+002
511250000 -1.858414e-001 -1.349693e+002 -8.070721e+001 1.181786e+002 -7.760870e+001 -1.497143e+002 -1.810101e-001 1.364216e+002
511875000 -1.727546e-001 -1.353125e+002 -7.559325e+001 -1.441206e+001 -7.201907e+001 1.359508e+002 -1.686789e-001 1.363184e+002
512500000 -1.818702e-001 -1.355791e+002 -7.397679e+001 1.015410e+001 -7.161734e+001 1.155896e+002 -1.728015e-001 1.361940e+002
513125000 -1.957111e-001 -1.358971e+002 -7.201087e+001 8.360985e+001 -7.242542e+001 5.300573e+001 -1.708626e-001 1.361584e+002
513750000 -2.011949e-001 -1.361881e+002 -9.757297e+001 2.068531e+001 -8.277387e+001 -1.960688e+000 -1.744954e-001 1.360035e+002
514375000 -2.167364e-001 -1.365181e+002 -7.185281e+001 6.948719e+001 -7.360213e+001 9.573268e+001 -1.671262e-001 1.358656e+002
515000000 -2.123188e-001 -1.367783e+002 -7.438409e+001 1.029800e+002 -7.067677e+001 6.736340e+001 -1.555815e-001 1.358403e+002
515625000 -2.243827e-001 -1.371998e+002 -7.121036e+001 4.830607e+001 -7.404661e+001 8.865405e+001 -1.693588e-001 1.357336e+002
516250000 -2.335856e-001 -1.375027e+002 -7.405555e+001 3.736260e+001 -6.887003e+001 1.548841e+001 -1.703131e-001 1.356898e+002
516875000 -2.526988e-001 -1.378217e+002 -8.023184e+001 4.002712e+001 -7.817332e+001 1.058838e+002 -1.631006e-001 1.356830e+002
517500000 -2.540607e-001 -1.381530e+002 -7.315163e+001 6.741675e+001 -8.316094e+001 3.377133e+001 -1.690806e-001 1.356554e+002
518125000 -2.593595e-001 -1.385268e+002 -7.248402e+001 7.621214e+001 -7.689444e+001 8.675421e+001 -1.611348e-001 1.355361e+002
518750000 -2.717191e-001 -1.388228e+002 -7.727139e+001 2.565955e+001 -7.020298e+001 -3.283067e+001 -1.612980e-001 1.355428e+002
519375000 -2.869532e-001 -1.391153e+002 -7.789376e+001 6.053122e+001 -8.358456e+001 -7.085749e+000 -1.554336e-001 1.355726e+002
520000000 -2.836358e-001 -1.394600e+002 -6.895816e+001 1.619897e+002 -7.029104e+001 8.269585e+001 -1.611464e-001 1.354798e+002
520625000 -2.947815e-001 -1.397934e+002 -7.903883e+001 1.288131e+002 -7.892953e+001 7.132264e+001 -1.591903e-001 1.354058e+002
521250000 -2.947774e-001 -1.401233e+002 -7.773115e+001 1.568303e+002 -9.164302e+001 -1.281764e+002 -1.598331e-001 1.354065e+002
521875000 -3.028020e-001 -1.404742e+002 -8.609399e+001 -1.293548e+001 -7.198065e+001 7.027992e+001 -1.516779e-001 1.354179e+002
522500000 -3.086972e-001 -1.407721e+002 -7.641608e+001 1.700020e+002 -8.573927e+001 1.044893e+002 -1.629360e-001 1.353244e+002
523125000 -3.235911e-001 -1.411120e+002 -7.309309e+001 1.573876e+001 -7.594286e+001 -2.104439e+001 -1.591644e-001 1.353485e+002
523750000 -3.195954e-001 -1.413951e+002 -6.917566e+001 6.985479e+000 -7.086686e+001 -1.977280e+000 -1.612786e-001 1.352981e+002
524375000 -3.428126e-001 -1.417236e+002 -7.403820e+001 4.848444e+001 -7.222379e+001 3.840464e+001 -1.569036e-001 1.352485e+002
525000000 -3.300577e-001 -1.420314e+002 -7.465828e+001 2.393181e+001 -7.779771e+001 3.441859e+001 -1.679152e-001 1.352356e+002
525625000 -3.526915e-001 -1.422831e+002 -6.973765e+001 6.078157e+001 -7.799760e+001 4.722078e+001 -1.666160e-001 1.351628e+002
526250000 -3.522239e-001 -1.425476e+002 -7.292174e+001 -9.815430e+000 -7.836265e+001 7.095982e+001 -1.703359e-001 1.351695e+002
526875000 -3.647082e-001 -1.428994e+002 -8.093282e+001 -6.403904e+001 -7.936163e+001 4.182203e+001 -1.594678e-001 1.350993e+002
527500000 -3.738170e-001 -1.431551e+002 -7.111098e+001 1.443685e+002 -7.202579e+001 -8.195455e+000 -1.634801e-001 1.350365e+002
528125000 -3.936797e-001 -1.435075e+002 -7.295909e+001 1.169122e+002 -7.000906e+001 2.519274e+001 -1.616271e-001 1.350128e+002
528750000 -4.061938e-001 -1.437638e+002 -8.439960e+001 1.163989e+002 -7.880988e+001 9.949641e+001 -1.668113e-001 1.350524e+002
529375000 -4.088577e-001 -1.440109e+002 -7.077380e+001 -2.954711e+000 -7.484889e+001 3.736134e+001 -1.676582e-001 1.349654e+002
530000000 -4.144309e-001 -1.444061e+002 -6.969786e+001 3.665882e+001 -7.365414e+001 -1.690667e+002 -1.645172e-001 1.349399e+002
530625000 -4.314325e-001 -1.446759e+002 -8.374113e+001 1.409758e+002 -6.903139e+001 -1.118444e+001 -1.555655e-001 1.348625e+002
531250000 -4.398673e-001 -1.450058e+002 -7.593047e+001 -6.738066e+000 -7.382779e+001 9.030872e+000 -1.539346e-001 1.348151e+002
531875000 -4.530348e-001 -1.453111e+002 -7.393543e+001 -5.191069e+001 -8.196728e+001 -1.682389e+002 -1.643165e-001 1.348178e+002
532500000 -4.607105e-001 -1.455731e+002 -7.613197e+001 -1.714193e+002 -7.524448e+001 -7.362074e+000 -1.664068e-001 1.347911e+002
533125000 -4.679255e-001 -1.458948e+002 -7.237167e+001 7.280261e+001 -7.716106e+001 3.370940e+001 -1.709816e-001 1.347218e+002
533750000 -4.833322e-001 -1.462512e+002 -8.481639e+001 -1.939543e+001 -7.828339e+001 1.497780e+001 -1.832441e-001 1.346970e+002
534375000 -4.852958e-001 -1.466130e+002 -7.338166e+001 6.700806e+001 -7.713881e+001 -1.369289e+002 -1.623372e-001 1.346165e+002
535000000 -4.957027e-001 -1.469127e+002 -7.196893e+001 6.461741e+001 -7.582839e+001 7.078172e+001 -1.694587e-001 1.345475e+002
535625000 -5.074051e-001 -1.473073e+002 -7.737593e+001 4.479569e+001 -8.385194e+001 1.647047e+002 -1.678073e-001 1.345462e+002
536250000 -5.253071e-001 -1.476696e+002 -7.792805e+001 -1.333032e+001 -7.526700e+001 6.988365e+001 -1.654142e-001 1.344358e+002
536875000 -5.382765e-001 -1.480081e+002 -8.308421e+001 -7.034057e+001 -7.151641e+001 8.439693e+001 -1.703550e-001 1.343724e+002
537500000 -5.464158e-001 -1.482874e+002 -6.879910e+001 8.080251e+001 -7.929440e+001 -1.449800e+002 -1.600758e-001 1.343512e+002
538125000 -5.562900e-001 -1.486251e+002 -7.538906e+001 -1.676807e+000 -7.616813e+001 -1.278364e+002 -1.730357e-001 1.343179e+002
538750000 -5.702361e-001 -1.489145e+002 -7.117941e+001 3.543832e+000 -7.112738e+001 4.659314e+001 -1.653559e-001 1.342557e+002
539375000 -5.830873e-001 -1.492165e+002 -8.247990e+001 1.203739e+002 -7.790411e+001 3.886660e+001 -1.695357e-001 1.341966e+002
540000000 -5.867415e-001 -1.495366e+002 -6.647045e+001 3.664188e+001 -7.901519e+001 -5.383897e+001 -1.673137e-001 1.341166e+002
540625000 -5.977185e-001 -1.498138e+002 -7.148919e+001 1.183915e+001 -7.932216e+001 2.994926e+001 -1.628113e-001 1.340855e+002
541250000 -6.017182e-001 -1.500572e+002 -7.562370e+001 -1.474618e+001 -6.983814e+001 1.063421e+002 -1.583618e-001 1.340589e+002
541875000 -6.154124e-001 -1.504064e+002 -7.290773e+001 -1.322859e+001 -7.130572e+001 5.962121e+001 -1.703238e-001 1.340036e+002
542500000 -6.194005e-001 -1.506895e+002 -7.025647e+001 7.998109e+000 -7.203086e+001 3.647849e+001 -1.529161e-001 1.340148e+002
543125000 -6.257824e-001 -1.510176e+002 -6.897060e+001 4.499635e+001 -7.452143e+001 3.358256e+001 -1.540462e-001 1.339733e+002
543750000 -6.264250e-001 -1.513182e+002 -8.413014e+001 7.942928e+001 -7.954319e+001 4.256319e+001 -1.636989e-001 1.339951e+002
544375000 -6.391255e-001 -1.516526e+002 -7.935866e+001 1.139574e+002 -7.065804e+001 2.792148e+001 -1.566093e-001 1.339925e+002
545000000 -6.440046e-001 -1.519414e+002 -7.502682e+001 -4.336429e+000 -8.177419e+001 1.251590e+001 -1.472942e-001 1.339826e+002
545625000 -6.580125e-001 -1.522530e+002 -7.217027e+001 -1.258355e+002 -8.489445e+001 1.022770e+002 -1.576287e-001 1.339895e+002
546250000 -6.751084e-001 -1.525553e+002 -6.973674e+001 4.530836e+001 -8.017838e+001 1.220599e+002 -1.597653e-001 1.339667e+002
546875000 -6.815323e-001 -1.529528e+002 -7.457453e+001 5.016365e+001 -6.731583e+001 1.067589e+001 -1.690532e-001 1.339920e+002
547500000 -7.038093e-001 -1.532867e+002 -8.220067e+001 -1.093344e+001 -7.766162e+001 5.737326e+001 -1.686828e-001 1.339608e+002
548125000 -7.224115e-001 -1.535634e+002 -6.885535e+001 5.181559e+001 -7.327195e+001 6.023453e+001 -1.585216e-001 1.339208e+002
548750000 -7.356864e-001 -1.539689e+002 -7.133098e+001 2.015801e+001 -7.104718e+001 3.526620e+001 -1.684898e-001 1.338730e+002
549375000 -7.545153e-001 -1.542410e+002 -6.784812e+001 -2.595640e+001 -7.442984e+001 -6.329380e+001 -1.719915e-001 1.337447e+002
550000000 -7.529369e-001 -1.545392e+002 -7.261369e+001 3.453622e+000 -7.112648e+001 1.028999e+001 -1.810182e-001 1.337327e+002
550625000 -7.716946e-001 -1.549025e+002 -7.137963e+001 1.217351e+002 -7.131039e+001 2.971935e+001 -1.781682e-001 1.336643e+002
551250000 -7.705023e-001 -1.551268e+002 -7.246304e+001 7.497277e+001 -7.312926e+001 3.262865e+001 -1.792974e-001 1.335370e+002
551875000 -7.874766e-001 -1.555086e+002 -8.453307e+001 -5.127110e+001 -7.548476e+001 2.226353e+001 -1.813766e-001 1.334531e+002
552500000 -7.875324e-001 -1.558700e+002 -6.777985e+001 2.107036e+001 -7.018221e+001 -4.802362e+000 -1.788822e-001 1.333239e+002
553125000 -7.879446e-001 -1.561858e+002 -8.050721e+001 4.480724e+000 -6.683595e+001 1.770487e+001 -1.821311e-001 1.332333e+002
553750000 -7.973754e-001 -1.565469e+002 -7.482140e+001 -1.640086e+000 -7.569714e+001 4.347215e+001 -1.867111e-001 1.330523e+002
554375000 -7.929472e-001 -1.568811e+002 -7.229147e+001 9.628007e+000 -6.974689e+001 1.621737e+001 -1.882032e-001 1.329873e+002
555000000 -8.014842e-001 -1.572375e+002 -6.518945e+001 2.999342e+001 -7.111057e+001 5.089404e+000 -1.861992e-001 1.329005e+002
555625000 -8.141351e-001 -1.575317e+002 -6.747440e+001 -1.128242e+001 -7.218954e+001 -1.905031e+001 -1.751536e-001 1.328133e+002
556250000 -8.217660e-001 -1.579404e+002 -7.119452e+001 1.583542e+001 -7.192288e+001 -2.627166e+001 -1.821827e-001 1.327346e+002
556875000 -8.249381e-001 -1.583226e+002 -6.588924e+001 -2.062088e+001 -7.212688e+001 4.059742e+001 -1.843114e-001 1.326731e+002
557500000 -8.363086e-001 -1.586501e+002 -6.797578e+001 -3.280534e+001 -6.689722e+001 -2.852007e+001 -1.745588e-001 1.326217e+002
558125000 -8.471552e-001 -1.589809e+002 -6.891824e+001 1.895732e+001 -6.963676e+001 -4.224468e+001 -1.808141e-001 1.325895e+002
558750000 -8.505968e-001 -1.592948e+002 -6.920781e+001 -2.260611e+001 -7.082686e+001 3.403510e+000 -1.671269e-001 1.325526e+002
559375000 -8.636274e-001 -1.596313e+002 -6.622848e+001 -9.518253e+000 -7.535339e+001 -2.631423e+001 -1.756120e-001 1.325263e+002
560000000 -8.798406e-001 -1.599645e+002 -6.926263e+001 -5.588624e+001 -7.323604e+001 9.543074e+000 -1.605586e-001 1.324583e+002
560625000 -8.822729e-001 -1.602690e+002 -6.990694e+001 -3.885305e+001 -6.829388e+001 -4.407226e+001 -1.686637e-001 1.324836e+002
561250000 -8.873093e-001 -1.606160e+002 -6.602082e+001 -5.208735e+001 -7.322185e+001 -6.245996e+000 -1.626454e-001 1.324499e+002
561875000 -8.890388e-001 -1.609720e+002 -6.891336e+001 -3.705524e+001 -6.940052e+001 -2.347322e+001 -1.690958e-001 1.324420e+002
562500000 -9.074624e-001 -1.613449e+002 -7.548289e+001 -5.941587e+001 -7.437624e+001 -2.510382e+001 -1.674955e-001 1.324750e+002
563125000 -9.045869e-001 -1.616444e+002 -6.858540e+001 -1.652527e+001 -8.080757e+001 -5.191920e+000 -1.619774e-001 1.324594e+002
563750000 -9.277990e-001 -1.621267e+002 -6.938004e+001 -3.842051e+001 -7.141566e+001 -4.067297e+001 -1.761097e-001 1.324460e+002
564375000 -9.450158e-001 -1.625035e+002 -7.362576e+001 1.223767e+001 -7.079510e+001 -2.128953e+001 -1.788266e-001 1.323654e+002
565000000 -9.569834e-001 -1.629805e+002 -7.909393e+001 2.236205e+001 -7.121880e+001 -5.040621e+001 -1.879316e-001 1.322950e+002
565625000 -9.783458e-001 -1.633902e+002 -6.696892e+001 -6.589908e+001 -7.074100e+001 -2.826506e+001 -1.837648e-001 1.322081e+002
566250000 -9.937727e-001 -1.639034e+002 -7.016790e+001 -3.728507e+001 -6.747507e+001 -5.798487e+001 -1.866954e-001 1.321299e+002
566875000 -1.020965e+000 -1.643220e+002 -6.612696e+001 -2.302873e+001 -7.832497e+001 -1.230888e+002 -1.910561e-001 1.319432e+002
567500000 -1.054000e+000 -1.647472e+002 -7.393699e+001 -7.871803e+001 -6.883987e+001 -3.017537e+001 -1.896456e-001 1.318808e+002
568125000 -1.074989e+000 -1.650998e+002 -8.431654e+001 -9.764385e+001 -7.098241e+001 -7.659981e+001 -1.971932e-001 1.316940e+002
568750000 -1.098044e+000 -1.654765e+002 -7.261701e+001 -1.310263e+002 -7.303185e+001 -3.025630e+001 -1.964806e-001 1.315516e+002
569375000 -1.123050e+000 -1.659290e+002 -7.580710e+001 -8.236907e+001 -7.261283e+001 -6.868901e+001 -1.979398e-001 1.314939e+002
570000000 -1.130660e+000 -1.663214e+002 -6.977899e+001 -1.112445e+002 -7.626777e+001 -3.428260e+001 -1.941916e-001 1.312571e+002
570625000 -1.148944e+000 -1.667415e+002 -7.092635e+001 -5.556644e+001 -7.899982e+001 -5.778611e+001 -1.911720e-001 1.311957e+002
571250000 -1.169682e+000 -1.670779e+002 -7.849500e+001 -8.572610e+001 -8.304655e+001 -7.737913e+001 -1.976377e-001 1.310457e+002
571875000 -1.185368e+000 -1.674056e+002 -6.905451e+001 -6.062035e+001 -7.186636e+001 -5.633497e+001 -1.813316e-001 1.309270e+002
572500000 -1.195528e+000 -1.678077e+002 -6.759042e+001 -5.262491e+001 -6.905334e+001 -6.207632e+001 -1.910366e-001 1.307992e+002
573125000 -1.206929e+000 -1.681352e+002 -7.274293e+001 -3.736618e+001 -6.918753e+001 -5.966574e+001 -1.747019e-001 1.307512e+002
573750000 -1.212339e+000 -1.684840e+002 -7.399679e+001 -4.262847e+001 -8.067856e+001 -2.969176e+001 -1.827696e-001 1.306475e+002
574375000 -1.226144e+000 -1.688770e+002 -7.042527e+001 -6.743568e+001 -7.331581e+001 -6.461172e+001 -1.764858e-001 1.306716e+002
575000000 -1.236060e+000 -1.692862e+002 -8.017496e+001 -5.917656e+001 -6.892978e+001 -3.088357e+001 -1.721819e-001 1.305780e+002
575625000 -1.245176e+000 -1.697004e+002 -7.246397e+001 -9.841589e+001 -7.098035e+001 -7.283106e+001 -1.815565e-001 1.305157e+002
576250000 -1.254703e+000 -1.700282e+002 -7.291271e+001 -1.183407e+002 -7.522188e+001 -5.303100e+000 -1.816384e-001 1.304700e+002
576875000 -1.267545e+000 -1.704255e+002 -6.896910e+001 -7.008250e+001 -7.065124e+001 -6.558147e+001 -1.828403e-001 1.304564e+002
577500000 -1.285715e+000 -1.708177e+002 -6.557510e+001 -6.525156e+001 -8.683888e+001 1.752316e+002 -1.745833e-001 1.304012e+002
578125000 -1.296529e+000 -1.712260e+002 -6.336229e+001 -3.686998e+001 -6.876965e+001 -7.330162e+001 -1.704618e-001 1.304285e+002
578750000 -1.310749e+000 -1.716108e+002 -7.234234e+001 -2.385167e+001 -6.882647e+001 -6.302759e+001 -1.747454e-001 1.303351e+002
579375000 -1.316448e+000 -1.719690e+002 -7.350729e+001 -7.707013e+001 -7.697812e+001 1.914531e+001 -1.817484e-001 1.303124e+002
580000000 -1.328458e+000 -1.724239e+002 -6.696764e+001 -4.949167e+001 -7.042171e+001 -6.434544e+001 -1.799221e-001 1.302536e+002
580625000 -1.348599e+000 -1.728920e+002 -7.487768e+001 -2.636739e+001 -7.035857e+001 -1.886156e+001 -1.779579e-001 1.302260e+002
581250000 -1.362173e+000 -1.733586e+002 -7.192733e+001 -1.040766e+002 -7.170628e+001 -4.116095e+001 -1.803058e-001 1.301863e+002
581875000 -1.384958e+000 -1.738877e+002 -6.806930e+001 -4.614919e+001 -6.867019e+001 -6.686459e+001 -1.836054e-001 1.300780e+002
582500000 -1.409763e+000 -1.743284e+002 -6.949506e+001 -7.886073e+001 -7.144125e+001 -1.118271e+002 -1.877105e-001 1.299147e+002
583125000 -1.427433e+000 -1.748846e+002 -7.125359e+001 -8.758747e+001 -7.077390e+001 -3.875687e+001 -2.023655e-001 1.297949e+002
583750000 -1.462727e+000 -1.753786e+002 -7.661288e+001 -1.076495e+002 -7.086072e+001 -6.139627e+001 -1.971731e-001 1.297360e+002
584375000 -1.487894e+000 -1.758578e+002 -7.415141e+001 -4.164136e+001 -6.653228e+001 -4.827434e+001 -1.859866e-001 1.296229e+002
585000000 -1.512623e+000 -1.763515e+002 -6.796687e+001 -6.788440e+001 -7.138209e+001 -8.369192e+001 -1.911039e-001 1.295125e+002
585625000 -1.559870e+000 -1.768466e+002 -6.944003e+001 -7.461170e+001 -7.104848e+001 -2.701645e+001 -1.787338e-001 1.294387e+002
586250000 -1.576701e+000 -1.773358e+002 -7.511813e+001 -8.439005e+001 -6.784390e+001 -4.690583e+001 -1.809284e-001 1.295025e+002
586875000 -1.598508e+000 -1.778038e+002 -6.947615e+001 -7.183984e+001 -7.001501e+001 -5.540537e+001 -1.796456e-001 1.293043e+002
587500000 -1.628770e+000 -1.783113e+002 -7.368359e+001 -1.064850e+002 -6.671955e+001 -3.066391e+001 -1.781709e-001 1.292582e+002
588125000 -1.642840e+000 -1.788155e+002 -7.111487e+001 -8.457761e+001 -6.940378e+001 -1.667133e+001 -1.745621e-001 1.292190e+002
588750000 -1.676148e+000 -1.793244e+002 -7.238506e+001 -8.190862e+001 -7.071347e+001 -5.444954e+001 -1.746123e-001 1.292474e+002
589375000 -1.700675e+000 -1.798700e+002 -7.172375e+001 -5.661560e+001 -6.889620e+001 -8.502039e+001 -1.651670e-001 1.291189e+002
590000000 -1.734089e+000 1.795398e+002 -7.150636e+001 -7.508300e+001 -6.924069e+001 -8.382930e+001 -1.682296e-001 1.292410e+002
590625000 -1.777275e+000 1.790488e+002 -6.805370e+001 -9.942908e+001 -6.497690e+001 -8.320019e+001 -1.640789e-001 1.291430e+002
591250000 -1.827539e+000 1.785534e+002 -6.968392e+001 -8.310319e+001 -7.086977e+001 -8.737038e+001 -1.674222e-001 1.291916e+002
591875000 -1.889660e+000 1.781887e+002 -7.046387e+001 -7.866634e+001 -6.774059e+001 -9.384315e+001 -1.680342e-001 1.292303e+002
592500000 -1.936855e+000 1.777494e+002 -7.045033e+001 -9.879956e+001 -6.913724e+001 -7.347734e+001 -1.639834e-001 1.292741e+002
593125000 -1.988112e+000 1.774721e+002 -6.826313e+001 -8.154414e+001 -6.555006e+001 -7.079704e+001 -1.651071e-001 1.292987e+002
593750000 -2.044350e+000 1.771769e+002 -6.812717e+001 -9.127380e+001 -7.079298e+001 -9.071191e+001 -1.543411e-001 1.293444e+002
594375000 -2.070395e+000 1.768963e+002 -6.619218e+001 -1.024909e+002 -6.847991e+001 -1.039454e+002 -1.628746e-001 1.293763e+002
595000000 -2.109498e+000 1.765892e+002 -6.454958e+001 -9.250567e+001 -6.568872e+001 -1.070881e+002 -1.725519e-001 1.293889e+002
