!Agilent Technologies,E8364B,US42250235,A.06.04.32
!Agilent E8364B: A.06.04.32
!Date: Friday, January 15, 2021 15:17:17
!Correction: S11(Full 2 Port(1,2)) S21(Full 2 Port(1,2)) S12(Full 2 Port(1,2)) S22(Full 2 Port(1,2)) 
!S2P File: Measurements: S11, S21, S12, S22:
# Hz S  dB   R 50
500000000 -9.863037e-002 -1.297364e+002 -7.735541e+001 -1.493052e+002 -8.600780e+001 1.664603e+002 -1.517724e-001 1.384408e+002
500625000 -9.836517e-002 -1.300131e+002 -7.997299e+001 6.826180e+001 -7.655737e+001 1.009643e+002 -1.523443e-001 1.384433e+002
501250000 -1.081547e-001 -1.303015e+002 -7.856992e+001 1.625588e+002 -7.255333e+001 -1.139877e+002 -1.463440e-001 1.383576e+002
501875000 -9.712699e-002 -1.306261e+002 -6.874804e+001 9.213255e+001 -7.140997e+001 -8.509057e+001 -1.411012e-001 1.383294e+002
502500000 -1.031486e-001 -1.309300e+002 -7.622945e+001 -8.497366e+000 -8.108417e+001 -3.205111e+001 -1.382724e-001 1.383156e+002
503125000 -1.139836e-001 -1.312357e+002 -8.363022e+001 -5.380038e+001 -7.131121e+001 -1.554363e+001 -1.460126e-001 1.381348e+002
503750000 -9.512080e-002 -1.315286e+002 -7.986951e+001 -9.305022e+001 -8.359231e+001 1.300686e+002 -1.484634e-001 1.381462e+002
504375000 -1.100994e-001 -1.318077e+002 -7.473043e+001 1.520461e+000 -7.964119e+001 1.498972e+002 -1.542255e-001 1.380915e+002
505000000 -1.173524e-001 -1.321271e+002 -7.102945e+001 1.693289e+002 -7.104823e+001 1.485321e+002 -1.532851e-001 1.380417e+002
505625000 -1.135652e-001 -1.324094e+002 -8.606171e+001 9.263648e-001 -7.528699e+001 -1.188379e+002 -1.529911e-001 1.379880e+002
506250000 -1.195326e-001 -1.327339e+002 -9.564491e+001 -1.030497e+002 -8.217467e+001 -1.501667e+002 -1.594622e-001 1.378956e+002
506875000 -1.188244e-001 -1.329939e+002 -7.316261e+001 -4.040598e+001 -7.639357e+001 3.913195e+001 -1.579283e-001 1.377538e+002
507500000 -1.188646e-001 -1.332848e+002 -7.225601e+001 -1.242481e+002 -8.500596e+001 9.022923e+001 -1.640710e-001 1.376667e+002
508125000 -1.235981e-001 -1.335624e+002 -8.206993e+001 -1.164327e+002 -7.005064e+001 -1.270744e+002 -1.575381e-001 1.375209e+002
508750000 -1.234876e-001 -1.338447e+002 -7.126348e+001 -1.042526e+002 -8.333884e+001 -1.302522e+002 -1.597443e-001 1.374452e+002
509375000 -1.219030e-001 -1.341992e+002 -7.387887e+001 6.899797e+001 -8.154173e+001 -8.037084e+001 -1.597922e-001 1.373922e+002
510000000 -1.320026e-001 -1.344932e+002 -7.712836e+001 -1.528387e+002 -8.020336e+001 1.919581e+001 -1.670718e-001 1.372135e+002
510625000 -1.370251e-001 -1.347278e+002 -7.477181e+001 -5.784918e+001 -7.577313e+001 -1.633574e+002 -1.508113e-001 1.371745e+002
511250000 -1.367751e-001 -1.349848e+002 -7.622998e+001 -1.418815e+002 -7.356444e+001 1.754339e+002 -1.615650e-001 1.369157e+002
511875000 -1.383924e-001 -1.353275e+002 -7.168777e+001 1.347935e+002 -7.160924e+001 -1.567258e+002 -1.601842e-001 1.368513e+002
512500000 -1.380490e-001 -1.355808e+002 -7.609193e+001 -1.149675e+002 -7.805669e+001 -1.688793e+002 -1.567224e-001 1.366939e+002
513125000 -1.489065e-001 -1.359034e+002 -7.594411e+001 -4.245786e+001 -7.517387e+001 -3.417370e+001 -1.595487e-001 1.366906e+002
513750000 -1.543014e-001 -1.361457e+002 -8.063570e+001 1.031639e+002 -7.957644e+001 1.352543e+002 -1.594177e-001 1.365806e+002
514375000 -1.619810e-001 -1.365323e+002 -7.755153e+001 -1.154353e+002 -7.654400e+001 -1.376949e+002 -1.486184e-001 1.364362e+002
515000000 -1.653602e-001 -1.368469e+002 -7.330138e+001 -2.171818e+001 -7.937662e+001 6.169351e+001 -1.438318e-001 1.363591e+002
515625000 -1.675502e-001 -1.372279e+002 -7.784573e+001 7.632711e+001 -8.161375e+001 1.683503e+002 -1.446076e-001 1.363181e+002
516250000 -1.634779e-001 -1.374789e+002 -7.625278e+001 -8.307367e+001 -7.623653e+001 8.581890e+001 -1.470472e-001 1.362417e+002
516875000 -1.833344e-001 -1.378123e+002 -7.745875e+001 9.939021e+001 -7.306659e+001 1.149684e+002 -1.462659e-001 1.362489e+002
517500000 -1.816935e-001 -1.381808e+002 -7.933270e+001 6.339130e+001 -7.787630e+001 -1.233158e+002 -1.515538e-001 1.361556e+002
518125000 -1.861135e-001 -1.385459e+002 -8.491104e+001 4.432671e+001 -7.589387e+001 -1.974081e+001 -1.419747e-001 1.361084e+002
518750000 -1.873274e-001 -1.389137e+002 -7.683235e+001 -1.047559e+002 -7.808624e+001 1.007687e+002 -1.517150e-001 1.361046e+002
519375000 -2.011948e-001 -1.392079e+002 -7.947426e+001 -1.675257e+002 -8.122534e+001 8.595961e+001 -1.365828e-001 1.360090e+002
520000000 -2.018067e-001 -1.395823e+002 -7.080856e+001 -3.881072e+000 -7.726400e+001 -6.132459e+000 -1.390940e-001 1.360582e+002
520625000 -2.152788e-001 -1.399378e+002 -7.906664e+001 1.478671e+002 -7.871758e+001 4.316697e+001 -1.363214e-001 1.359773e+002
521250000 -2.187719e-001 -1.402872e+002 -7.563334e+001 1.332198e+002 -8.346622e+001 -1.422610e+002 -1.489222e-001 1.359792e+002
521875000 -2.188643e-001 -1.406804e+002 -7.759557e+001 6.824427e+001 -7.380994e+001 5.645583e+001 -1.358970e-001 1.359727e+002
522500000 -2.209456e-001 -1.410360e+002 -6.875718e+001 1.003704e+002 -9.135671e+001 -1.446711e+002 -1.427968e-001 1.358640e+002
523125000 -2.364121e-001 -1.414094e+002 -7.248141e+001 2.078086e+001 -7.435151e+001 9.227707e+001 -1.416988e-001 1.359094e+002
523750000 -2.383559e-001 -1.417345e+002 -7.596722e+001 9.289954e+001 -7.526679e+001 -1.548412e+002 -1.457498e-001 1.358818e+002
524375000 -2.525733e-001 -1.421118e+002 -7.644738e+001 9.410997e+001 -8.242680e+001 5.612223e+001 -1.390331e-001 1.357620e+002
525000000 -2.566989e-001 -1.424005e+002 -8.363565e+001 7.812743e+001 -7.205147e+001 1.659972e+002 -1.498856e-001 1.357954e+002
525625000 -2.677492e-001 -1.427117e+002 -7.039051e+001 8.630179e+001 -7.475160e+001 3.661800e+001 -1.540133e-001 1.357071e+002
526250000 -2.737846e-001 -1.430404e+002 -7.242596e+001 1.275764e+002 -7.990356e+001 9.221895e+001 -1.485287e-001 1.356754e+002
526875000 -2.838422e-001 -1.434043e+002 -7.208658e+001 7.699877e+001 -7.530471e+001 1.110825e+002 -1.393399e-001 1.356134e+002
527500000 -2.955342e-001 -1.437406e+002 -7.738218e+001 -5.498843e-001 -8.261594e+001 -2.671418e+001 -1.567868e-001 1.355248e+002
528125000 -3.159280e-001 -1.440370e+002 -7.545931e+001 -1.404702e+002 -7.969162e+001 3.411019e+000 -1.458283e-001 1.355772e+002
528750000 -3.078720e-001 -1.443817e+002 -9.003404e+001 1.530448e+002 -8.109549e+001 5.266811e+001 -1.474065e-001 1.355843e+002
529375000 -3.252716e-001 -1.447133e+002 -7.704460e+001 6.418784e+001 -8.654115e+001 -1.467899e+002 -1.412686e-001 1.354422e+002
530000000 -3.258663e-001 -1.450903e+002 -6.784570e+001 1.192029e+002 -7.060535e+001 1.013009e+002 -1.491345e-001 1.354839e+002
530625000 -3.441946e-001 -1.454170e+002 -8.056921e+001 -5.257687e+001 -8.078872e+001 -1.051182e+002 -1.507805e-001 1.354001e+002
531250000 -3.562942e-001 -1.457827e+002 -6.818687e+001 1.122606e+002 -7.623811e+001 1.577093e+002 -1.398911e-001 1.353439e+002
531875000 -3.751139e-001 -1.461163e+002 -7.829865e+001 6.178404e+001 -7.183594e+001 5.159140e+001 -1.509014e-001 1.353161e+002
532500000 -3.814465e-001 -1.464136e+002 -7.920900e+001 -1.650916e+002 -7.671828e+001 1.105216e+002 -1.521067e-001 1.352937e+002
533125000 -3.866876e-001 -1.468331e+002 -7.880306e+001 -1.386595e+002 -7.730589e+001 1.143021e+002 -1.525148e-001 1.352637e+002
533750000 -4.038374e-001 -1.472453e+002 -7.458024e+001 -9.989612e+001 -7.688026e+001 1.122085e+002 -1.618403e-001 1.352328e+002
534375000 -4.068139e-001 -1.475950e+002 -8.190668e+001 1.472374e+002 -8.210313e+001 5.849334e+001 -1.468585e-001 1.351342e+002
535000000 -4.269289e-001 -1.479382e+002 -8.473394e+001 5.599644e+001 -8.707854e+001 1.056019e+002 -1.532965e-001 1.351481e+002
535625000 -4.349301e-001 -1.483435e+002 -7.834613e+001 5.692467e+001 -7.339912e+001 8.051518e+001 -1.539815e-001 1.350319e+002
536250000 -4.503527e-001 -1.487650e+002 -8.105054e+001 2.492584e+001 -7.602596e+001 3.256286e+000 -1.565491e-001 1.349553e+002
536875000 -4.706594e-001 -1.491429e+002 -7.549447e+001 -3.218041e+000 -8.304790e+001 1.453782e+002 -1.596844e-001 1.348575e+002
537500000 -4.803508e-001 -1.494524e+002 -8.816802e+001 -1.452408e+000 -8.399751e+001 1.069556e+002 -1.499671e-001 1.349035e+002
538125000 -4.989881e-001 -1.498893e+002 -7.374015e+001 3.182245e+001 -8.269933e+001 4.585891e+001 -1.550153e-001 1.348212e+002
538750000 -5.240495e-001 -1.502184e+002 -9.228828e+001 2.652511e+001 -7.529294e+001 -1.715356e+002 -1.451462e-001 1.347511e+002
539375000 -5.381866e-001 -1.505815e+002 -7.545531e+001 -5.542638e+001 -8.532130e+001 -6.132670e+000 -1.497410e-001 1.347293e+002
540000000 -5.555415e-001 -1.509279e+002 -7.594118e+001 5.983513e+001 -7.356229e+001 -1.605083e+002 -1.494117e-001 1.346515e+002
540625000 -5.738457e-001 -1.513443e+002 -7.644807e+001 -1.624384e+001 -7.697721e+001 1.169225e+002 -1.482043e-001 1.345844e+002
541250000 -5.901186e-001 -1.516221e+002 -7.506201e+001 -3.539653e+001 -8.432783e+001 1.682687e+002 -1.488599e-001 1.345520e+002
541875000 -6.168997e-001 -1.519760e+002 -6.947527e+001 1.058615e+002 -7.468728e+001 -1.457034e+002 -1.571302e-001 1.345054e+002
542500000 -6.330333e-001 -1.523318e+002 -7.631154e+001 -1.277030e+002 -7.740502e+001 5.356819e+001 -1.434345e-001 1.345472e+002
543125000 -6.527259e-001 -1.526762e+002 -8.295080e+001 -1.349321e+002 -7.629131e+001 2.104199e+000 -1.443346e-001 1.344400e+002
543750000 -6.618391e-001 -1.530374e+002 -7.745015e+001 -8.740455e+001 -8.453781e+001 -4.582925e+001 -1.529042e-001 1.344790e+002
544375000 -6.961632e-001 -1.533599e+002 -7.170085e+001 6.801589e+000 -7.904198e+001 -1.703267e+002 -1.397116e-001 1.345181e+002
545000000 -7.094140e-001 -1.536943e+002 -7.522388e+001 -1.793599e+002 -7.388416e+001 -1.772617e+001 -1.354389e-001 1.344993e+002
545625000 -7.303098e-001 -1.540460e+002 -8.628248e+001 -1.234914e+002 -7.784078e+001 -1.081462e+002 -1.354135e-001 1.345472e+002
546250000 -7.646898e-001 -1.543795e+002 -7.435295e+001 1.781015e+002 -8.177185e+001 -1.330286e+002 -1.463448e-001 1.344450e+002
546875000 -7.928390e-001 -1.547253e+002 -8.066230e+001 -1.321773e+002 -7.647842e+001 -1.060811e+002 -1.484147e-001 1.344638e+002
547500000 -8.157619e-001 -1.550746e+002 -7.298544e+001 1.728680e+002 -7.407580e+001 1.371018e+002 -1.520405e-001 1.344515e+002
548125000 -8.468097e-001 -1.554114e+002 -9.302956e+001 -9.218787e+001 -7.542342e+001 -1.243416e+002 -1.503017e-001 1.344156e+002
548750000 -8.720711e-001 -1.557871e+002 -7.710818e+001 4.358086e+001 -7.635429e+001 -2.368882e+001 -1.534867e-001 1.344049e+002
549375000 -9.020354e-001 -1.560968e+002 -7.216323e+001 1.061692e+002 -8.306734e+001 1.407219e+002 -1.608690e-001 1.342128e+002
550000000 -9.266713e-001 -1.564370e+002 -7.454813e+001 1.171697e+002 -7.981089e+001 8.847630e+001 -1.630971e-001 1.342985e+002
550625000 -9.569095e-001 -1.567318e+002 -7.560612e+001 1.056233e+002 -8.650298e+001 1.363840e+002 -1.663858e-001 1.341408e+002
551250000 -9.826022e-001 -1.570703e+002 -7.600097e+001 -5.268623e+001 -7.415067e+001 -1.534478e+002 -1.683777e-001 1.340311e+002
551875000 -1.019194e+000 -1.573651e+002 -7.768271e+001 1.698991e+002 -8.288217e+001 1.591132e+002 -1.615144e-001 1.339468e+002
552500000 -1.041324e+000 -1.576821e+002 -7.167918e+001 1.185274e+002 -7.715303e+001 1.108538e+002 -1.634358e-001 1.337957e+002
553125000 -1.060913e+000 -1.579366e+002 -7.754494e+001 -3.738163e+001 -6.735788e+001 8.137808e+001 -1.692124e-001 1.337407e+002
553750000 -1.095260e+000 -1.582028e+002 -7.376723e+001 1.126734e+001 -8.588408e+001 -1.314516e+002 -1.745125e-001 1.335651e+002
554375000 -1.114797e+000 -1.584708e+002 -8.033261e+001 -1.642870e+002 -7.764565e+001 -1.634638e+002 -1.644542e-001 1.334438e+002
555000000 -1.140731e+000 -1.587774e+002 -7.726744e+001 -1.553761e+002 -7.535937e+001 -3.480848e+001 -1.724379e-001 1.333877e+002
555625000 -1.172451e+000 -1.590112e+002 -8.275513e+001 -7.756695e+000 -7.320680e+001 1.049077e+002 -1.582586e-001 1.333338e+002
556250000 -1.189475e+000 -1.592672e+002 -7.483814e+001 9.926962e+001 -7.056785e+001 5.103019e+001 -1.636822e-001 1.332519e+002
556875000 -1.213232e+000 -1.595421e+002 -7.128575e+001 1.188545e+002 -7.084139e+001 1.124876e+002 -1.647293e-001 1.331560e+002
557500000 -1.248090e+000 -1.597717e+002 -7.721699e+001 7.105577e+001 -7.896967e+001 3.833555e+001 -1.534591e-001 1.331264e+002
558125000 -1.268060e+000 -1.599898e+002 -8.307417e+001 4.591336e+001 -9.003085e+001 3.524928e+000 -1.569552e-001 1.330658e+002
558750000 -1.285647e+000 -1.601820e+002 -6.996146e+001 6.674853e+001 -6.959390e+001 4.474317e+001 -1.535264e-001 1.330635e+002
559375000 -1.310945e+000 -1.604002e+002 -7.301497e+001 9.061396e-001 -7.134166e+001 3.309451e+001 -1.495150e-001 1.330034e+002
560000000 -1.340412e+000 -1.605682e+002 -7.195304e+001 5.204770e+001 -7.019651e+001 7.617378e-001 -1.405475e-001 1.329308e+002
560625000 -1.359472e+000 -1.607313e+002 -7.234167e+001 5.797136e+001 -7.506525e+001 7.395138e+001 -1.513211e-001 1.329884e+002
561250000 -1.381732e+000 -1.609367e+002 -8.044653e+001 -5.130334e+001 -7.554927e+001 1.694510e+001 -1.450393e-001 1.329922e+002
561875000 -1.395704e+000 -1.611224e+002 -7.059879e+001 4.161779e+001 -7.690417e+001 8.820064e+001 -1.484990e-001 1.329465e+002
562500000 -1.408291e+000 -1.612934e+002 -7.821513e+001 1.623784e+002 -7.161250e+001 1.039501e+002 -1.489754e-001 1.329930e+002
563125000 -1.415363e+000 -1.614359e+002 -8.616773e+001 1.384063e+002 -7.773615e+001 -8.690839e+001 -1.473439e-001 1.329897e+002
563750000 -1.433169e+000 -1.617204e+002 -8.011727e+001 6.871541e+001 -7.761060e+001 -9.369761e+001 -1.594468e-001 1.329258e+002
564375000 -1.450622e+000 -1.620172e+002 -8.447645e+001 -7.059660e+001 -7.945556e+001 1.119325e+002 -1.540543e-001 1.329321e+002
565000000 -1.453780e+000 -1.622824e+002 -8.555476e+001 -1.758021e+002 -7.789928e+001 9.303815e+001 -1.634010e-001 1.328042e+002
565625000 -1.477538e+000 -1.624991e+002 -7.794322e+001 3.591905e+001 -8.633951e+001 -2.028032e+000 -1.699595e-001 1.327540e+002
566250000 -1.483783e+000 -1.627998e+002 -7.755748e+001 -9.810905e+001 -7.354269e+001 9.689011e+000 -1.701048e-001 1.326736e+002
566875000 -1.514275e+000 -1.630525e+002 -7.203490e+001 -1.854167e+000 -7.864037e+001 1.382852e+002 -1.635173e-001 1.325385e+002
567500000 -1.535239e+000 -1.633656e+002 -8.212212e+001 1.654946e+002 -7.988345e+001 -8.663686e+001 -1.755690e-001 1.324115e+002
568125000 -1.548139e+000 -1.635937e+002 -8.359689e+001 -1.247430e+002 -7.677012e+001 9.720186e+001 -1.790930e-001 1.322702e+002
568750000 -1.562575e+000 -1.638454e+002 -7.989467e+001 6.369720e+000 -8.011867e+001 -1.215774e+000 -1.816649e-001 1.321072e+002
569375000 -1.570798e+000 -1.640715e+002 -9.240481e+001 8.066206e+001 -7.182951e+001 9.720488e+001 -1.746030e-001 1.320043e+002
570000000 -1.584386e+000 -1.643300e+002 -8.074707e+001 -1.675125e+002 -7.559420e+001 1.775869e+002 -1.676987e-001 1.318562e+002
570625000 -1.583640e+000 -1.645961e+002 -7.498568e+001 -9.641437e+001 -7.294714e+001 6.609126e+001 -1.666979e-001 1.317503e+002
571250000 -1.591149e+000 -1.648555e+002 -8.249355e+001 3.771311e+001 -7.637637e+001 1.125636e+002 -1.752957e-001 1.316419e+002
571875000 -1.595340e+000 -1.650884e+002 -7.793690e+001 -3.915617e+001 -7.515266e+001 3.749165e+001 -1.665459e-001 1.315150e+002
572500000 -1.595686e+000 -1.653755e+002 -7.922797e+001 2.081694e+001 -8.818146e+001 5.411177e+000 -1.681494e-001 1.314258e+002
573125000 -1.606368e+000 -1.656417e+002 -7.462103e+001 -4.172675e+001 -8.719714e+001 1.215322e+002 -1.601630e-001 1.313428e+002
573750000 -1.594199e+000 -1.658801e+002 -7.717612e+001 -1.785747e+002 -7.226170e+001 1.330939e+002 -1.673481e-001 1.312650e+002
574375000 -1.590542e+000 -1.660803e+002 -8.130655e+001 -6.129781e+001 -7.150467e+001 1.322673e+002 -1.630410e-001 1.312233e+002
575000000 -1.583271e+000 -1.664200e+002 -8.310151e+001 -4.410818e+001 -7.936141e+001 1.057042e+002 -1.560006e-001 1.311555e+002
575625000 -1.585392e+000 -1.666435e+002 -7.220140e+001 7.600419e+001 -7.099587e+001 7.503795e+001 -1.546410e-001 1.311298e+002
576250000 -1.578448e+000 -1.669480e+002 -7.427530e+001 7.493351e+000 -7.875607e+001 -1.023607e+002 -1.619969e-001 1.311183e+002
576875000 -1.566607e+000 -1.672265e+002 -6.884119e+001 -1.039855e+002 -8.073356e+001 -2.790704e+001 -1.585312e-001 1.310886e+002
577500000 -1.576263e+000 -1.675051e+002 -8.925253e+001 1.204125e+002 -9.268066e+001 -1.749022e+002 -1.456858e-001 1.310408e+002
578125000 -1.572677e+000 -1.678267e+002 -9.540969e+001 6.775575e+001 -8.423008e+001 -1.357979e+002 -1.545663e-001 1.310843e+002
578750000 -1.563622e+000 -1.680710e+002 -7.256524e+001 -8.303420e+001 -7.208589e+001 1.007062e+002 -1.546061e-001 1.309848e+002
579375000 -1.554982e+000 -1.683813e+002 -7.570054e+001 7.165086e+000 -6.899800e+001 8.454836e+001 -1.535904e-001 1.309318e+002
580000000 -1.547589e+000 -1.686957e+002 -8.663542e+001 -1.357268e+002 -7.963995e+001 1.250430e+002 -1.630349e-001 1.308686e+002
580625000 -1.541738e+000 -1.690201e+002 -7.609354e+001 -1.574969e+002 -6.912445e+001 1.399152e+002 -1.649609e-001 1.308363e+002
581250000 -1.541757e+000 -1.693842e+002 -7.843047e+001 5.401525e+001 -7.161495e+001 1.432502e+002 -1.651652e-001 1.307580e+002
581875000 -1.533616e+000 -1.698080e+002 -7.567004e+001 3.535047e+000 -7.099960e+001 6.879761e+001 -1.630615e-001 1.306506e+002
582500000 -1.529124e+000 -1.701882e+002 -8.728702e+001 8.096120e+001 -7.321157e+001 7.394634e+001 -1.646804e-001 1.306149e+002
583125000 -1.526727e+000 -1.706874e+002 -7.386914e+001 9.763284e+001 -7.401513e+001 7.783792e+001 -1.713959e-001 1.304153e+002
583750000 -1.530970e+000 -1.711683e+002 -7.089456e+001 4.414688e+001 -7.696150e+001 6.224549e+001 -1.705045e-001 1.303312e+002
584375000 -1.540266e+000 -1.715969e+002 -7.659577e+001 -3.313223e+001 -7.283562e+001 9.333269e+001 -1.648589e-001 1.302712e+002
585000000 -1.545625e+000 -1.720655e+002 -7.922169e+001 -1.246637e+002 -7.227073e+001 5.068431e+000 -1.718869e-001 1.301866e+002
585625000 -1.557382e+000 -1.724982e+002 -7.761655e+001 1.801770e+001 -8.687746e+001 3.532333e+001 -1.617067e-001 1.301354e+002
586250000 -1.563761e+000 -1.729874e+002 -7.179323e+001 5.113036e+001 -7.120587e+001 5.225114e+001 -1.570455e-001 1.300781e+002
586875000 -1.561652e+000 -1.734077e+002 -7.198314e+001 -1.207697e+001 -7.733562e+001 7.954215e+001 -1.556795e-001 1.299841e+002
587500000 -1.582024e+000 -1.738971e+002 -7.005586e+001 7.535714e+001 -8.313911e+001 -6.883703e+001 -1.557272e-001 1.299106e+002
588125000 -1.581434e+000 -1.742807e+002 -7.493694e+001 1.371722e+002 -8.576636e+001 -2.274854e+001 -1.641535e-001 1.298625e+002
588750000 -1.585768e+000 -1.747037e+002 -7.687994e+001 9.080637e+001 -7.512502e+001 1.083012e+002 -1.631205e-001 1.298358e+002
589375000 -1.573493e+000 -1.751665e+002 -7.574298e+001 8.649493e+001 -7.921010e+001 4.104521e+001 -1.475525e-001 1.297547e+002
590000000 -1.583753e+000 -1.756288e+002 -7.660556e+001 1.029053e+002 -7.121522e+001 3.148052e+000 -1.504537e-001 1.298327e+002
590625000 -1.584800e+000 -1.761476e+002 -7.328229e+001 9.035383e+001 -6.986729e+001 6.924535e+001 -1.446510e-001 1.297700e+002
591250000 -1.591324e+000 -1.765655e+002 -8.170159e+001 1.180890e+002 -7.455917e+001 9.431451e+001 -1.474943e-001 1.297993e+002
591875000 -1.608364e+000 -1.769588e+002 -7.544833e+001 1.387540e+002 -7.268011e+001 7.054122e+001 -1.500538e-001 1.298008e+002
592500000 -1.611005e+000 -1.774857e+002 -6.734757e+001 8.281123e+001 -7.121757e+001 8.838828e+001 -1.392449e-001 1.298583e+002
593125000 -1.631332e+000 -1.778540e+002 -7.857880e+001 5.645625e+001 -6.878225e+001 5.301868e+001 -1.536653e-001 1.298931e+002
593750000 -1.632282e+000 -1.783179e+002 -7.193057e+001 5.394707e+001 -6.584451e+001 4.906588e+001 -1.438268e-001 1.299877e+002
594375000 -1.639643e+000 -1.786839e+002 -6.644928e+001 3.404705e+001 -7.022181e+001 5.159726e+001 -1.418340e-001 1.299856e+002
595000000 -1.641126e+000 -1.791332e+002 -6.908810e+001 6.093604e+001 -6.848817e+001 2.934771e+001 -1.499065e-001 1.299830e+002
595625000 -1.654793e+000 -1.795708e+002 -7.011307e+001 6.524302e+001 -7.099820e+001 2.571014e+001 -1.520855e-001 1.299738e+002
