!Agilent Technologies,E8364B,US42250235,A.06.04.32
!Agilent E8364B: A.06.04.32
!Date: Friday, January 15, 2021 15:17:45
!Correction: S11(Full 2 Port(1,2)) S21(Full 2 Port(1,2)) S12(Full 2 Port(1,2)) S22(Full 2 Port(1,2)) 
!S2P File: Measurements: S11, S21, S12, S22:
# Hz S  dB   R 50
500000000 -1.640195e-001 -1.299941e+002 -7.552757e+001 -1.391380e+002 -7.074042e+001 1.148462e+002 -1.416791e-001 1.385292e+002
500625000 -1.703037e-001 -1.302819e+002 -7.303111e+001 -3.047544e+001 -8.796478e+001 -1.328439e+002 -1.471301e-001 1.384457e+002
501250000 -1.797499e-001 -1.305777e+002 -7.295298e+001 -7.959055e+001 -7.820567e+001 -2.502580e+001 -1.428734e-001 1.383900e+002
501875000 -1.799667e-001 -1.308680e+002 -7.232269e+001 -1.488476e+002 -7.420113e+001 -4.349444e+001 -1.405602e-001 1.384046e+002
502500000 -1.826260e-001 -1.311619e+002 -9.222514e+001 1.344250e+002 -7.748661e+001 -1.541010e+002 -1.375450e-001 1.383430e+002
503125000 -1.889404e-001 -1.314294e+002 -8.850390e+001 -2.307154e+001 -8.166425e+001 -7.365784e+001 -1.462303e-001 1.382006e+002
503750000 -1.973017e-001 -1.317076e+002 -7.474049e+001 -4.986728e+001 -7.278436e+001 -2.293800e+001 -1.417019e-001 1.381977e+002
504375000 -2.048746e-001 -1.319864e+002 -7.631165e+001 -4.214136e+001 -9.204945e+001 3.944312e+001 -1.577522e-001 1.381536e+002
505000000 -2.122725e-001 -1.322542e+002 -7.373608e+001 -3.070252e-001 -7.097472e+001 -6.101267e+001 -1.593675e-001 1.380972e+002
505625000 -2.039556e-001 -1.325297e+002 -7.111411e+001 -1.484312e+002 -8.428130e+001 -9.418816e+001 -1.526595e-001 1.380307e+002
506250000 -2.135317e-001 -1.328466e+002 -7.051364e+001 -1.075105e+002 -7.514005e+001 -1.599266e+002 -1.563747e-001 1.378718e+002
506875000 -2.148120e-001 -1.331233e+002 -7.999673e+001 -1.581142e+002 -8.472813e+001 1.362667e+001 -1.538377e-001 1.378224e+002
507500000 -2.231567e-001 -1.333671e+002 -8.046887e+001 -5.804015e+001 -8.231651e+001 5.412917e+001 -1.531414e-001 1.376469e+002
508125000 -2.277403e-001 -1.336562e+002 -7.782332e+001 -5.196694e+001 -7.029170e+001 -1.709571e+002 -1.547509e-001 1.376114e+002
508750000 -2.297532e-001 -1.337966e+002 -7.528516e+001 -7.605371e+001 -7.378181e+001 -1.548251e+001 -1.542498e-001 1.374641e+002
509375000 -2.342330e-001 -1.341853e+002 -8.857636e+001 -6.607266e+001 -7.696944e+001 9.461404e+000 -1.537382e-001 1.373322e+002
510000000 -2.322053e-001 -1.344598e+002 -7.720724e+001 -8.237399e+001 -7.492231e+001 8.469039e+000 -1.620097e-001 1.372117e+002
510625000 -2.399852e-001 -1.346597e+002 -7.910858e+001 -1.422844e+002 -8.936665e+001 -1.087595e+002 -1.446569e-001 1.371930e+002
511250000 -2.527910e-001 -1.349198e+002 -8.548887e+001 1.621935e+002 -6.980332e+001 6.156712e+001 -1.645989e-001 1.370094e+002
511875000 -2.462854e-001 -1.352498e+002 -8.415245e+001 -1.718732e+002 -7.502591e+001 -1.762538e+002 -1.492102e-001 1.368665e+002
512500000 -2.466716e-001 -1.355022e+002 -8.485819e+001 -1.920300e+001 -7.233631e+001 -1.196659e+002 -1.506596e-001 1.367333e+002
513125000 -2.631308e-001 -1.357450e+002 -8.606930e+001 -2.011276e+001 -6.990879e+001 -1.011307e+002 -1.541331e-001 1.367130e+002
513750000 -2.675940e-001 -1.360529e+002 -7.982512e+001 -1.164679e+002 -7.860436e+001 -2.209480e+001 -1.594420e-001 1.366128e+002
514375000 -2.672709e-001 -1.363999e+002 -8.098324e+001 -1.114402e+002 -7.186101e+001 -9.255486e+001 -1.537264e-001 1.365026e+002
515000000 -2.852699e-001 -1.366674e+002 -8.152788e+001 4.394626e+001 -6.902642e+001 -5.541991e+001 -1.444061e-001 1.363755e+002
515625000 -2.920548e-001 -1.369947e+002 -7.326733e+001 -3.007757e+001 -7.013841e+001 -5.363556e+001 -1.404907e-001 1.363335e+002
516250000 -2.945517e-001 -1.372305e+002 -7.065143e+001 -1.247375e+002 -8.188792e+001 -2.143743e+001 -1.464918e-001 1.362621e+002
516875000 -3.101189e-001 -1.375464e+002 -7.810598e+001 -1.222033e+002 -7.635482e+001 -1.302761e+002 -1.475293e-001 1.362920e+002
517500000 -3.213534e-001 -1.378656e+002 -7.710857e+001 -7.485403e+001 -7.261922e+001 -7.159597e+001 -1.459076e-001 1.361978e+002
518125000 -3.255816e-001 -1.381878e+002 -7.289919e+001 -1.085968e+002 -7.939883e+001 1.481672e+002 -1.436176e-001 1.361532e+002
518750000 -3.370867e-001 -1.385121e+002 -6.851626e+001 -9.545684e+001 -7.662670e+001 -1.756883e+001 -1.496907e-001 1.361584e+002
519375000 -3.488040e-001 -1.387744e+002 -7.886971e+001 7.770343e+001 -7.311683e+001 -1.187338e+002 -1.407507e-001 1.360560e+002
520000000 -3.459739e-001 -1.390573e+002 -7.263717e+001 -1.143252e+002 -7.827096e+001 -1.284091e+002 -1.457064e-001 1.360259e+002
520625000 -3.497174e-001 -1.394082e+002 -7.499897e+001 -9.849010e+001 -7.925383e+001 1.529489e+002 -1.410091e-001 1.359844e+002
521250000 -3.597029e-001 -1.396617e+002 -8.177227e+001 -1.306997e+002 -8.478473e+001 -7.224438e+001 -1.483269e-001 1.359802e+002
521875000 -3.588886e-001 -1.400111e+002 -7.437279e+001 -5.737801e+001 -8.749617e+001 1.397103e+002 -1.337223e-001 1.359677e+002
522500000 -3.640004e-001 -1.402966e+002 -8.439040e+001 1.545051e+002 -7.841512e+001 -2.571671e+001 -1.347494e-001 1.358117e+002
523125000 -3.693477e-001 -1.405860e+002 -7.411340e+001 1.089088e+001 -8.292818e+001 -3.804224e+000 -1.440242e-001 1.358637e+002
523750000 -3.736241e-001 -1.408813e+002 -8.382937e+001 9.967737e+001 -7.436252e+001 1.121897e+002 -1.473310e-001 1.357936e+002
524375000 -3.870482e-001 -1.411913e+002 -7.082814e+001 -1.164561e+002 -7.612012e+001 -1.751543e+002 -1.406076e-001 1.357444e+002
525000000 -3.893268e-001 -1.414675e+002 -9.225188e+001 -2.020558e+001 -7.631741e+001 -1.119800e+002 -1.447023e-001 1.357413e+002
525625000 -3.988269e-001 -1.416618e+002 -7.358779e+001 -1.487258e+002 -7.602261e+001 -7.159184e+001 -1.497976e-001 1.356449e+002
526250000 -3.928665e-001 -1.419823e+002 -8.093340e+001 -6.634022e+001 -7.213509e+001 -9.525803e+001 -1.487150e-001 1.356126e+002
526875000 -4.026952e-001 -1.422597e+002 -7.444975e+001 -3.623907e+001 -7.527824e+001 -1.263831e+002 -1.402186e-001 1.355896e+002
527500000 -4.044161e-001 -1.425465e+002 -7.435934e+001 -3.298436e+001 -8.029136e+001 -5.934430e+001 -1.438839e-001 1.355521e+002
528125000 -4.109376e-001 -1.428541e+002 -7.611667e+001 7.904223e-001 -8.069273e+001 -1.231780e+002 -1.471349e-001 1.355204e+002
528750000 -4.149556e-001 -1.431493e+002 -7.719810e+001 -6.072044e+001 -7.356267e+001 -1.223207e+002 -1.412399e-001 1.355294e+002
529375000 -4.221564e-001 -1.433945e+002 -7.439561e+001 -1.250892e+002 -7.364410e+001 1.760174e+002 -1.417688e-001 1.354752e+002
530000000 -4.266930e-001 -1.437412e+002 -8.100089e+001 -1.390095e+002 -7.981312e+001 -7.962183e+001 -1.510037e-001 1.354272e+002
530625000 -4.327363e-001 -1.440315e+002 -7.099095e+001 -4.459774e+001 -7.269305e+001 -1.040053e+002 -1.500664e-001 1.353640e+002
531250000 -4.316557e-001 -1.443264e+002 -7.139762e+001 -9.788873e+001 -7.555302e+001 -1.571203e+002 -1.462950e-001 1.353745e+002
531875000 -4.443012e-001 -1.446200e+002 -7.085424e+001 1.367575e+002 -6.767283e+001 1.456067e+002 -1.454718e-001 1.352650e+002
532500000 -4.481753e-001 -1.449390e+002 -7.238641e+001 -1.141634e+002 -8.160056e+001 -3.312342e+001 -1.472568e-001 1.352556e+002
533125000 -4.487510e-001 -1.452336e+002 -7.879456e+001 1.544023e+002 -7.978518e+001 1.056128e+002 -1.547125e-001 1.352263e+002
533750000 -4.540110e-001 -1.456274e+002 -8.036790e+001 1.429120e+002 -7.201710e+001 -1.505581e+002 -1.662190e-001 1.351644e+002
534375000 -4.558461e-001 -1.459673e+002 -7.690348e+001 -7.552478e+001 -7.731258e+001 -2.095910e+001 -1.496148e-001 1.351064e+002
535000000 -4.615141e-001 -1.462566e+002 -7.516886e+001 1.765071e+002 -7.647510e+001 1.379982e+002 -1.657783e-001 1.350336e+002
535625000 -4.700132e-001 -1.466047e+002 -7.557790e+001 -1.704490e+002 -6.820095e+001 -1.131903e+002 -1.534689e-001 1.349750e+002
536250000 -4.732486e-001 -1.469297e+002 -7.329718e+001 -1.058367e+002 -7.809711e+001 -9.553182e+001 -1.482785e-001 1.348525e+002
536875000 -4.812485e-001 -1.472974e+002 -7.413644e+001 -1.055676e+002 -8.006562e+001 1.768522e+002 -1.524062e-001 1.348302e+002
537500000 -4.829265e-001 -1.476192e+002 -8.405543e+001 -1.086814e+002 -7.966253e+001 -9.598600e+001 -1.532826e-001 1.348042e+002
538125000 -4.831989e-001 -1.479753e+002 -8.377953e+001 -8.161729e+001 -7.768278e+001 -6.180088e+001 -1.585940e-001 1.347762e+002
538750000 -4.979053e-001 -1.483065e+002 -7.156367e+001 -1.443908e+002 -7.612395e+001 -1.654333e+002 -1.553252e-001 1.346449e+002
539375000 -5.101560e-001 -1.486594e+002 -7.387899e+001 -1.254137e+002 -7.762166e+001 -2.907833e+001 -1.481578e-001 1.346512e+002
540000000 -5.098234e-001 -1.489761e+002 -8.015061e+001 -9.581091e+001 -7.457790e+001 -1.543292e+002 -1.498039e-001 1.345831e+002
540625000 -5.180488e-001 -1.492845e+002 -8.266866e+001 -5.263527e+001 -7.545604e+001 -1.234726e+002 -1.466540e-001 1.345967e+002
541250000 -5.201287e-001 -1.495988e+002 -7.772869e+001 -1.614557e+002 -7.249359e+001 -1.018848e+002 -1.434500e-001 1.344851e+002
541875000 -5.395545e-001 -1.498988e+002 -7.736971e+001 -2.730538e+001 -7.972668e+001 -1.477145e+002 -1.479395e-001 1.344252e+002
542500000 -5.341080e-001 -1.502461e+002 -7.684661e+001 -6.357690e+001 -7.541115e+001 -1.038158e+002 -1.452558e-001 1.344596e+002
543125000 -5.398102e-001 -1.505629e+002 -7.576483e+001 -1.794461e+002 -7.254823e+001 -1.668654e+002 -1.313986e-001 1.344276e+002
543750000 -5.448828e-001 -1.508811e+002 -7.119994e+001 -1.290768e+002 -7.028977e+001 -1.215543e+002 -1.439433e-001 1.344646e+002
544375000 -5.552157e-001 -1.512293e+002 -6.734962e+001 -1.651484e+002 -7.387851e+001 1.470621e+002 -1.361822e-001 1.344209e+002
545000000 -5.503485e-001 -1.515232e+002 -7.891808e+001 6.072423e+001 -7.271168e+001 -1.307044e+002 -1.378708e-001 1.344500e+002
545625000 -5.587668e-001 -1.519356e+002 -7.281126e+001 -1.572654e+002 -7.501568e+001 -1.339548e+002 -1.435746e-001 1.344535e+002
546250000 -5.800077e-001 -1.522104e+002 -7.266312e+001 1.731966e+002 -8.483453e+001 1.734636e+002 -1.422521e-001 1.344079e+002
546875000 -5.819107e-001 -1.526025e+002 -7.246417e+001 1.709887e+002 -7.597719e+001 -1.753418e+002 -1.425771e-001 1.344623e+002
547500000 -5.892501e-001 -1.529276e+002 -7.521877e+001 -1.453527e+002 -7.223892e+001 -1.559048e+002 -1.507992e-001 1.343841e+002
548125000 -6.086196e-001 -1.532502e+002 -7.557535e+001 -1.769695e+002 -6.993190e+001 -1.750105e+002 -1.441681e-001 1.343602e+002
548750000 -6.118655e-001 -1.536325e+002 -7.619466e+001 -1.617565e+002 -8.081762e+001 -1.531651e+002 -1.556626e-001 1.343352e+002
549375000 -6.173809e-001 -1.539511e+002 -8.423598e+001 -1.513046e+002 -8.119561e+001 1.559133e+002 -1.610890e-001 1.341914e+002
550000000 -6.206893e-001 -1.543088e+002 -7.784143e+001 -1.750861e+002 -7.612952e+001 -1.506957e+002 -1.645090e-001 1.342049e+002
550625000 -6.375908e-001 -1.546171e+002 -7.062329e+001 -1.311134e+002 -7.805505e+001 1.533078e+002 -1.599980e-001 1.341149e+002
551250000 -6.372533e-001 -1.550399e+002 -7.299490e+001 -1.606196e+002 -7.183669e+001 -1.471665e+002 -1.654993e-001 1.339956e+002
551875000 -6.500978e-001 -1.553842e+002 -7.117920e+001 -1.580282e+002 -7.807088e+001 -1.490264e+002 -1.702779e-001 1.339078e+002
552500000 -6.492997e-001 -1.558079e+002 -8.400972e+001 -8.530297e+001 -7.741764e+001 1.484411e+002 -1.675190e-001 1.337867e+002
553125000 -6.453828e-001 -1.561597e+002 -7.273758e+001 -1.799468e+002 -7.423122e+001 -1.503776e+002 -1.731978e-001 1.337675e+002
553750000 -6.643088e-001 -1.565570e+002 -8.589437e+001 1.430516e+002 -7.139706e+001 -1.416861e+002 -1.714772e-001 1.336064e+002
554375000 -6.691528e-001 -1.568689e+002 -7.201003e+001 -1.715753e+002 -7.266143e+001 -1.446519e+002 -1.673787e-001 1.335020e+002
555000000 -6.713010e-001 -1.572827e+002 -7.201823e+001 1.713706e+002 -7.344740e+001 -1.559313e+002 -1.644013e-001 1.334447e+002
555625000 -6.865371e-001 -1.576274e+002 -7.579356e+001 -1.749783e+002 -7.358907e+001 -1.439140e+002 -1.541744e-001 1.333467e+002
556250000 -6.948984e-001 -1.580325e+002 -7.588950e+001 1.382363e+002 -7.231383e+001 1.243716e+002 -1.637445e-001 1.332448e+002
556875000 -6.917744e-001 -1.584926e+002 -9.457336e+001 3.177667e+001 -7.175291e+001 -1.723422e+002 -1.639955e-001 1.331902e+002
557500000 -7.114189e-001 -1.587973e+002 -6.827786e+001 -1.564157e+002 -7.259914e+001 8.123834e+001 -1.492964e-001 1.330981e+002
558125000 -7.188731e-001 -1.591407e+002 -7.029924e+001 -1.277944e+002 -7.339417e+001 1.583853e+002 -1.593710e-001 1.330791e+002
558750000 -7.223860e-001 -1.595247e+002 -8.098666e+001 9.587384e+001 -7.200096e+001 -1.645646e+002 -1.417343e-001 1.330488e+002
559375000 -7.359396e-001 -1.598844e+002 -7.938722e+001 -1.590484e+002 -8.193369e+001 -9.767799e+001 -1.417049e-001 1.330788e+002
560000000 -7.504739e-001 -1.602254e+002 -7.385706e+001 1.297126e+002 -7.869967e+001 1.251328e+002 -1.367497e-001 1.330060e+002
560625000 -7.595782e-001 -1.605945e+002 -7.684698e+001 -1.718200e+002 -7.651860e+001 -1.605336e+002 -1.432817e-001 1.329901e+002
561250000 -7.623207e-001 -1.610152e+002 -7.139195e+001 -1.772262e+002 -7.290231e+001 1.438487e+002 -1.356549e-001 1.330207e+002
561875000 -7.746460e-001 -1.613692e+002 -7.441597e+001 -1.676806e+002 -9.838303e+001 1.106435e+002 -1.482317e-001 1.330177e+002
562500000 -7.855302e-001 -1.617673e+002 -6.881213e+001 1.530872e+002 -7.421033e+001 -1.555766e+002 -1.428367e-001 1.330380e+002
563125000 -7.866798e-001 -1.621453e+002 -7.332896e+001 1.514429e+002 -7.659795e+001 -1.279002e+002 -1.459224e-001 1.330121e+002
563750000 -8.037012e-001 -1.625751e+002 -7.285087e+001 1.621440e+002 -7.202209e+001 1.756393e+002 -1.549676e-001 1.330105e+002
564375000 -8.192803e-001 -1.630046e+002 -6.846480e+001 1.198929e+002 -7.305836e+001 1.719347e+002 -1.598443e-001 1.329176e+002
565000000 -8.336883e-001 -1.634746e+002 -7.026377e+001 1.432634e+002 -6.755624e+001 1.707478e+002 -1.677621e-001 1.329001e+002
565625000 -8.517048e-001 -1.638926e+002 -7.160802e+001 1.693967e+002 -7.112522e+001 1.342636e+002 -1.681345e-001 1.327822e+002
566250000 -8.707089e-001 -1.644045e+002 -7.194327e+001 -1.696773e+002 -7.437668e+001 -1.584669e+002 -1.717789e-001 1.327028e+002
566875000 -8.978962e-001 -1.648233e+002 -8.077805e+001 1.305249e+002 -7.159283e+001 -1.593522e+002 -1.737356e-001 1.325670e+002
567500000 -9.200207e-001 -1.653020e+002 -7.657090e+001 -1.717469e+002 -7.443037e+001 1.633756e+002 -1.701105e-001 1.324276e+002
568125000 -9.413498e-001 -1.657150e+002 -7.232136e+001 1.659488e+002 -7.484257e+001 -1.264461e+002 -1.779504e-001 1.323178e+002
568750000 -9.615686e-001 -1.661833e+002 -7.645904e+001 1.162639e+002 -7.648333e+001 1.108806e+002 -1.791313e-001 1.321989e+002
569375000 -9.788894e-001 -1.666237e+002 -7.056252e+001 -1.731417e+002 -8.264454e+001 1.717662e+002 -1.793813e-001 1.320942e+002
570000000 -9.918564e-001 -1.670723e+002 -7.750026e+001 5.967170e+001 -7.143581e+001 -1.504241e+002 -1.760857e-001 1.318715e+002
570625000 -1.007376e+000 -1.675244e+002 -6.803020e+001 1.683684e+002 -7.213885e+001 -1.314041e+002 -1.722738e-001 1.318388e+002
571250000 -1.025509e+000 -1.679530e+002 -7.962803e+001 -1.572108e+002 -7.854032e+001 1.549364e+002 -1.671595e-001 1.316482e+002
571875000 -1.050781e+000 -1.683969e+002 -7.454298e+001 -1.777077e+002 -6.631418e+001 1.620026e+002 -1.702493e-001 1.316553e+002
572500000 -1.068806e+000 -1.688701e+002 -7.983849e+001 9.650323e+001 -7.333979e+001 1.563611e+002 -1.668388e-001 1.315054e+002
573125000 -1.088074e+000 -1.692453e+002 -8.156453e+001 1.519947e+002 -7.326849e+001 1.526142e+002 -1.544255e-001 1.313760e+002
573750000 -1.094425e+000 -1.696889e+002 -7.470402e+001 1.138154e+002 -6.994377e+001 1.633529e+002 -1.683532e-001 1.313204e+002
574375000 -1.115385e+000 -1.700834e+002 -7.250239e+001 -1.419650e+002 -6.953215e+001 1.592922e+002 -1.628269e-001 1.312726e+002
575000000 -1.129515e+000 -1.705630e+002 -6.990811e+001 -1.691688e+002 -7.570507e+001 -1.350873e+002 -1.552958e-001 1.312253e+002
575625000 -1.146237e+000 -1.709548e+002 -7.302392e+001 1.440191e+002 -7.314185e+001 -1.533584e+002 -1.533218e-001 1.312105e+002
576250000 -1.161852e+000 -1.713716e+002 -7.265323e+001 1.779252e+002 -6.852623e+001 1.534892e+002 -1.589621e-001 1.311297e+002
576875000 -1.176837e+000 -1.718168e+002 -7.101202e+001 1.697835e+002 -7.713945e+001 1.701597e+002 -1.550904e-001 1.311976e+002
577500000 -1.209570e+000 -1.722343e+002 -7.277290e+001 -1.545968e+002 -7.427408e+001 -1.575137e+002 -1.570910e-001 1.310583e+002
578125000 -1.218278e+000 -1.727182e+002 -7.512212e+001 1.248919e+002 -7.167339e+001 -1.716017e+002 -1.539768e-001 1.311260e+002
578750000 -1.247629e+000 -1.731721e+002 -7.517804e+001 1.425417e+002 -7.030171e+001 1.267225e+002 -1.607299e-001 1.310393e+002
579375000 -1.263865e+000 -1.736223e+002 -7.135078e+001 -1.795262e+002 -7.641733e+001 -1.731420e+002 -1.663072e-001 1.309590e+002
580000000 -1.290895e+000 -1.740073e+002 -6.896351e+001 1.480997e+002 -7.019563e+001 1.338980e+002 -1.615861e-001 1.309078e+002
580625000 -1.322615e+000 -1.745329e+002 -6.903036e+001 1.369692e+002 -7.602081e+001 1.051567e+002 -1.547740e-001 1.308754e+002
581250000 -1.352300e+000 -1.749364e+002 -7.296637e+001 1.623799e+002 -6.782752e+001 1.710139e+002 -1.710319e-001 1.308030e+002
581875000 -1.378464e+000 -1.754004e+002 -6.866110e+001 1.297159e+002 -7.900092e+001 1.341407e+002 -1.610990e-001 1.307094e+002
582500000 -1.410987e+000 -1.758912e+002 -6.802194e+001 1.560673e+002 -7.282410e+001 1.435479e+002 -1.635773e-001 1.305975e+002
583125000 -1.429471e+000 -1.764245e+002 -6.553127e+001 1.454696e+002 -7.348829e+001 1.608709e+002 -1.707781e-001 1.304892e+002
583750000 -1.468522e+000 -1.769409e+002 -6.695458e+001 1.473531e+002 -6.813377e+001 8.960962e+001 -1.782278e-001 1.303901e+002
584375000 -1.501971e+000 -1.774285e+002 -7.115153e+001 1.577883e+002 -7.227033e+001 1.141190e+002 -1.640900e-001 1.302969e+002
585000000 -1.531332e+000 -1.779839e+002 -7.404920e+001 1.709362e+002 -6.636360e+001 1.236224e+002 -1.713664e-001 1.301557e+002
585625000 -1.581227e+000 -1.785366e+002 -7.079137e+001 1.212382e+002 -6.628909e+001 1.163196e+002 -1.630976e-001 1.301014e+002
586250000 -1.611897e+000 -1.790414e+002 -6.590489e+001 1.214424e+002 -6.876670e+001 1.335608e+002 -1.649898e-001 1.300780e+002
586875000 -1.647360e+000 -1.795893e+002 -6.919468e+001 1.240881e+002 -6.727211e+001 1.368603e+002 -1.619077e-001 1.299888e+002
587500000 -1.703762e+000 1.799093e+002 -6.642514e+001 1.217297e+002 -7.260571e+001 1.402849e+002 -1.532915e-001 1.299200e+002
588125000 -1.744987e+000 1.794473e+002 -7.793136e+001 6.257585e+001 -6.849720e+001 1.662549e+002 -1.544492e-001 1.298456e+002
588750000 -1.778900e+000 1.789050e+002 -7.158229e+001 1.117573e+002 -6.753623e+001 1.216018e+002 -1.607019e-001 1.298421e+002
589375000 -1.821658e+000 1.784835e+002 -6.526810e+001 1.130381e+002 -6.849352e+001 1.471277e+002 -1.504573e-001 1.297301e+002
590000000 -1.867801e+000 1.780174e+002 -6.771421e+001 1.284691e+002 -6.836497e+001 1.391246e+002 -1.589720e-001 1.297910e+002
590625000 -1.909027e+000 1.776172e+002 -6.466019e+001 1.152452e+002 -6.781911e+001 1.182034e+002 -1.456825e-001 1.297352e+002
591250000 -1.959343e+000 1.771753e+002 -6.600358e+001 1.063298e+002 -6.919920e+001 1.240409e+002 -1.436238e-001 1.297434e+002
591875000 -2.007164e+000 1.768271e+002 -6.615616e+001 1.008977e+002 -7.070021e+001 1.370698e+002 -1.480541e-001 1.297606e+002
592500000 -2.045815e+000 1.764275e+002 -6.696424e+001 1.083970e+002 -7.409023e+001 1.415507e+002 -1.511851e-001 1.298923e+002
593125000 -2.089388e+000 1.760531e+002 -6.728434e+001 1.490771e+002 -6.625537e+001 1.131120e+002 -1.624975e-001 1.298965e+002
593750000 -2.140101e+000 1.756100e+002 -6.772411e+001 9.422747e+001 -6.795466e+001 1.462133e+002 -1.440085e-001 1.299188e+002
594375000 -2.170522e+000 1.752793e+002 -6.702850e+001 1.143109e+002 -6.706968e+001 1.295715e+002 -1.461018e-001 1.299630e+002
595000000 -2.224777e+000 1.748932e+002 -6.449007e+001 1.143563e+002 -6.668526e+001 1.040762e+002 -1.558609e-001 1.299682e+002
