!Agilent Technologies,E8364B,US42250235,A.06.04.32
!Agilent E8364B: A.06.04.32
!Date: Friday, January 15, 2021 14:29:05
!Correction: S11(Full 2 Port(1,2)) S21(Full 2 Port(1,2)) S12(Full 2 Port(1,2)) S22(Full 2 Port(1,2)) 
!S2P File: Measurements: S11, S21, S12, S22:
# Hz S  dB   R 50
500000000 -1.127497e-001 -1.302887e+002 -7.719279e+001 9.592652e+001 -8.305385e+001 -1.319164e+002 -1.439460e-001 1.376901e+002
500625000 -1.187745e-001 -1.305605e+002 -7.988381e+001 -1.564196e+002 -7.495382e+001 5.312631e+001 -1.459458e-001 1.376633e+002
501250000 -1.252278e-001 -1.308490e+002 -7.765714e+001 -1.326696e+002 -7.817040e+001 -2.876679e+001 -1.474549e-001 1.376146e+002
501875000 -1.210518e-001 -1.311732e+002 -7.670821e+001 -1.135288e+002 -7.123556e+001 1.022316e+002 -1.460008e-001 1.375302e+002
502500000 -1.234297e-001 -1.314596e+002 -7.640719e+001 1.757151e+002 -7.628791e+001 1.597956e+002 -1.442477e-001 1.375239e+002
503125000 -1.384210e-001 -1.317273e+002 -7.899460e+001 -1.073256e+001 -6.900854e+001 -1.613904e+002 -1.444110e-001 1.374256e+002
503750000 -1.371452e-001 -1.320042e+002 -7.082948e+001 -1.799505e+002 -7.504340e+001 1.138185e+002 -1.517006e-001 1.372908e+002
504375000 -1.470462e-001 -1.323031e+002 -8.064000e+001 3.846331e+001 -7.459191e+001 1.504997e+002 -1.601698e-001 1.372148e+002
505000000 -1.497265e-001 -1.326051e+002 -7.658045e+001 -1.316989e+002 -6.812038e+001 8.846416e+001 -1.625516e-001 1.372398e+002
505625000 -1.550955e-001 -1.328666e+002 -7.176869e+001 2.478364e+000 -7.838548e+001 1.294811e+002 -1.556899e-001 1.371013e+002
506250000 -1.617226e-001 -1.331809e+002 -7.239525e+001 1.125411e+002 -7.625797e+001 1.070883e+002 -1.660854e-001 1.369821e+002
506875000 -1.657503e-001 -1.334722e+002 -7.281992e+001 1.363946e+002 -7.563589e+001 7.456524e+001 -1.544366e-001 1.368346e+002
507500000 -1.658445e-001 -1.337939e+002 -6.976611e+001 1.208838e+002 -7.575176e+001 1.119923e+002 -1.556315e-001 1.367913e+002
508125000 -1.733394e-001 -1.340779e+002 -7.822150e+001 5.407832e+001 -7.871173e+001 -1.780239e+002 -1.555078e-001 1.366650e+002
508750000 -1.841111e-001 -1.343578e+002 -7.187399e+001 4.245842e+001 -7.444225e+001 9.552686e+001 -1.644028e-001 1.365637e+002
509375000 -1.797615e-001 -1.347478e+002 -7.853198e+001 -1.533566e+002 -7.357771e+001 1.194407e+002 -1.541138e-001 1.364866e+002
510000000 -1.838883e-001 -1.350605e+002 -8.847231e+001 1.227177e+002 -7.726847e+001 8.995695e+001 -1.521916e-001 1.363421e+002
510625000 -1.916185e-001 -1.353562e+002 -8.585645e+001 3.705328e+001 -7.052314e+001 5.989015e+001 -1.497405e-001 1.363112e+002
511250000 -1.983449e-001 -1.356100e+002 -6.751984e+001 1.458132e+002 -6.620093e+001 8.577617e+001 -1.576991e-001 1.361266e+002
511875000 -1.988053e-001 -1.359633e+002 -6.832576e+001 1.311777e+002 -8.058073e+001 1.522806e+002 -1.541294e-001 1.360919e+002
512500000 -2.057393e-001 -1.363165e+002 -8.127267e+001 1.434630e+002 -7.124516e+001 1.401460e+002 -1.488756e-001 1.359485e+002
513125000 -2.159196e-001 -1.366351e+002 -7.135116e+001 1.305800e+002 -7.317204e+001 1.243148e+002 -1.553340e-001 1.359461e+002
513750000 -2.269559e-001 -1.368956e+002 -7.069028e+001 9.086494e+001 -6.972667e+001 1.114851e+002 -1.585044e-001 1.358454e+002
514375000 -2.322462e-001 -1.372893e+002 -7.467250e+001 8.072692e+001 -7.119233e+001 1.225487e+002 -1.489543e-001 1.357214e+002
515000000 -2.318677e-001 -1.375761e+002 -7.030556e+001 9.283807e+001 -7.101543e+001 8.312328e+001 -1.471113e-001 1.356493e+002
515625000 -2.458560e-001 -1.380029e+002 -7.352561e+001 1.746817e+002 -7.528319e+001 8.405650e+001 -1.493927e-001 1.355581e+002
516250000 -2.539783e-001 -1.383171e+002 -7.609489e+001 7.195702e+001 -6.938441e+001 7.258647e+001 -1.516278e-001 1.354935e+002
516875000 -2.727658e-001 -1.386360e+002 -7.405583e+001 -1.665873e+002 -7.362853e+001 9.309333e+001 -1.497112e-001 1.354912e+002
517500000 -2.745391e-001 -1.389574e+002 -8.062447e+001 1.047520e+002 -7.573815e+001 1.603242e+002 -1.611029e-001 1.353458e+002
518125000 -2.855290e-001 -1.393201e+002 -7.433972e+001 -1.833354e+001 -7.143891e+001 8.803483e+001 -1.551727e-001 1.352828e+002
518750000 -3.006911e-001 -1.396460e+002 -8.017384e+001 7.914906e+001 -7.096855e+001 7.864248e+001 -1.595064e-001 1.352476e+002
519375000 -3.171486e-001 -1.399013e+002 -7.309676e+001 -7.401389e+000 -6.854343e+001 7.229379e+001 -1.455418e-001 1.351730e+002
520000000 -3.234482e-001 -1.402657e+002 -7.700443e+001 1.050423e+002 -7.214735e+001 6.561159e+001 -1.543061e-001 1.351144e+002
520625000 -3.338568e-001 -1.405682e+002 -8.376994e+001 -1.499286e+002 -7.258204e+001 6.249459e+001 -1.491258e-001 1.349830e+002
521250000 -3.459304e-001 -1.408553e+002 -8.111615e+001 1.078498e+002 -7.122282e+001 1.015761e+002 -1.557725e-001 1.349379e+002
521875000 -3.590607e-001 -1.412212e+002 -7.046635e+001 8.673104e+001 -6.676493e+001 6.509782e+001 -1.508893e-001 1.350105e+002
522500000 -3.742123e-001 -1.414835e+002 -7.159184e+001 1.247002e+002 -7.903742e+001 8.254649e+001 -1.400374e-001 1.349060e+002
523125000 -3.836520e-001 -1.418233e+002 -7.078252e+001 7.334128e-003 -7.975063e+001 7.993654e+001 -1.412314e-001 1.349413e+002
523750000 -3.874002e-001 -1.421254e+002 -8.046770e+001 5.475329e+001 -6.861605e+001 4.710537e+001 -1.397744e-001 1.348977e+002
524375000 -4.137869e-001 -1.424396e+002 -7.552285e+001 5.248206e+001 -7.679333e+001 7.941448e+000 -1.330611e-001 1.348335e+002
525000000 -4.130653e-001 -1.427622e+002 -6.889545e+001 6.326830e+001 -7.498023e+001 5.858434e+001 -1.354152e-001 1.348512e+002
525625000 -4.370911e-001 -1.429913e+002 -7.208025e+001 8.124115e+001 -8.248560e+001 5.393793e+001 -1.454617e-001 1.348032e+002
526250000 -4.347454e-001 -1.432811e+002 -6.904327e+001 4.992542e+001 -7.215267e+001 7.163184e+000 -1.452456e-001 1.348636e+002
526875000 -4.527188e-001 -1.436658e+002 -6.994848e+001 2.367895e+001 -7.025626e+001 5.515699e+001 -1.346451e-001 1.348578e+002
527500000 -4.683089e-001 -1.439394e+002 -7.752769e+001 7.145416e+001 -7.552285e+001 9.038399e+001 -1.350329e-001 1.348316e+002
528125000 -4.966152e-001 -1.442460e+002 -7.447551e+001 1.413328e+002 -6.725110e+001 7.864880e+001 -1.450876e-001 1.348106e+002
528750000 -4.955029e-001 -1.445365e+002 -7.241727e+001 3.627657e+001 -7.595857e+001 4.123739e+001 -1.420328e-001 1.348907e+002
529375000 -5.105492e-001 -1.448207e+002 -7.162971e+001 3.490359e+001 -6.725822e+001 7.320161e+001 -1.480495e-001 1.347870e+002
530000000 -5.292914e-001 -1.452182e+002 -6.837619e+001 8.104987e+001 -7.145126e+001 3.700507e+001 -1.489554e-001 1.347641e+002
530625000 -5.417747e-001 -1.455097e+002 -7.046962e+001 4.100569e+001 -7.256837e+001 6.533331e+001 -1.464458e-001 1.347202e+002
531250000 -5.537357e-001 -1.458270e+002 -6.908366e+001 2.646683e+001 -7.894553e+001 2.948910e+001 -1.436523e-001 1.346527e+002
531875000 -5.752643e-001 -1.460597e+002 -7.055160e+001 6.305680e+001 -7.436709e+001 4.829641e+001 -1.557008e-001 1.345777e+002
532500000 -5.808005e-001 -1.463137e+002 -7.230701e+001 -2.321663e+001 -7.292375e+001 5.961022e+001 -1.527000e-001 1.344966e+002
533125000 -5.972623e-001 -1.466743e+002 -7.251086e+001 4.746819e+001 -7.017292e+001 -1.562860e+001 -1.595314e-001 1.345075e+002
533750000 -6.046368e-001 -1.470140e+002 -6.890652e+001 6.886900e+001 -6.904527e+001 8.594413e+001 -1.693427e-001 1.344060e+002
534375000 -6.139750e-001 -1.473140e+002 -7.122646e+001 6.130386e+001 -7.169315e+001 5.946720e+001 -1.515244e-001 1.343324e+002
535000000 -6.275623e-001 -1.475688e+002 -6.745541e+001 3.663299e+001 -7.005389e+001 1.051066e+001 -1.626286e-001 1.343078e+002
535625000 -6.369099e-001 -1.479349e+002 -7.576971e+001 -1.851043e+001 -6.863066e+001 4.060962e+001 -1.541457e-001 1.341832e+002
536250000 -6.557878e-001 -1.482503e+002 -7.409353e+001 8.658211e+001 -7.043407e+001 3.411413e+001 -1.504284e-001 1.340862e+002
536875000 -6.705984e-001 -1.486086e+002 -7.845252e+001 -2.904652e+001 -8.279575e+001 2.509562e+001 -1.507718e-001 1.340471e+002
537500000 -6.791216e-001 -1.488400e+002 -7.685226e+001 7.074270e+000 -6.690902e+001 5.683031e+001 -1.498256e-001 1.340499e+002
538125000 -6.916929e-001 -1.491941e+002 -6.704438e+001 1.847043e+001 -7.329522e+001 3.599932e+001 -1.540151e-001 1.340024e+002
538750000 -7.216790e-001 -1.495452e+002 -7.990524e+001 -6.392567e+000 -6.937714e+001 7.602141e+001 -1.440041e-001 1.339963e+002
539375000 -7.384074e-001 -1.498407e+002 -7.166352e+001 3.598170e+001 -6.937043e+001 4.142807e+001 -1.451046e-001 1.339778e+002
540000000 -7.533276e-001 -1.501300e+002 -6.900742e+001 7.236914e+001 -6.618436e+001 3.919240e+001 -1.447908e-001 1.339012e+002
540625000 -7.808343e-001 -1.504573e+002 -6.959047e+001 -4.479457e+000 -6.680436e+001 3.929289e+001 -1.401275e-001 1.338744e+002
541250000 -7.952669e-001 -1.506791e+002 -7.277379e+001 -1.091276e+000 -7.362349e+001 6.713907e+000 -1.375054e-001 1.339159e+002
541875000 -8.163419e-001 -1.509492e+002 -7.077762e+001 7.259491e+000 -6.945417e+001 2.281168e+001 -1.478087e-001 1.338736e+002
542500000 -8.370329e-001 -1.511843e+002 -6.927459e+001 4.605136e+001 -7.083386e+001 2.514741e+001 -1.371269e-001 1.338914e+002
543125000 -8.430184e-001 -1.515264e+002 -6.969680e+001 -7.860284e-001 -6.708210e+001 2.696194e+001 -1.374510e-001 1.338687e+002
543750000 -8.551600e-001 -1.517502e+002 -7.269562e+001 1.588607e+001 -6.882336e+001 4.058039e+001 -1.529313e-001 1.338681e+002
544375000 -8.757291e-001 -1.520437e+002 -6.866171e+001 2.529148e+001 -7.107362e+001 5.482980e+001 -1.425114e-001 1.338252e+002
545000000 -8.774818e-001 -1.522608e+002 -6.978976e+001 2.200056e+001 -6.752523e+001 1.770194e+001 -1.440275e-001 1.338333e+002
545625000 -8.942547e-001 -1.525504e+002 -6.817921e+001 2.033706e+001 -7.099284e+001 7.536633e+000 -1.420976e-001 1.338073e+002
546250000 -9.174230e-001 -1.528265e+002 -7.057000e+001 1.480365e+001 -6.563708e+001 -2.696230e+001 -1.570194e-001 1.337570e+002
546875000 -9.304594e-001 -1.531123e+002 -6.939940e+001 -7.735403e+000 -6.841495e+001 4.008138e+001 -1.502796e-001 1.337053e+002
547500000 -9.503136e-001 -1.533686e+002 -6.920430e+001 -1.605148e+001 -6.864035e+001 -4.433609e+000 -1.480751e-001 1.336379e+002
548125000 -9.662743e-001 -1.535909e+002 -6.314702e+001 4.654105e+000 -6.710728e+001 -1.185132e+001 -1.549240e-001 1.335681e+002
548750000 -9.678079e-001 -1.539023e+002 -7.268042e+001 2.362417e+001 -6.822753e+001 -2.602431e+001 -1.598602e-001 1.335224e+002
549375000 -9.870415e-001 -1.541246e+002 -6.710699e+001 -7.298967e+000 -6.485977e+001 2.374487e+001 -1.609842e-001 1.333503e+002
550000000 -9.876126e-001 -1.543795e+002 -7.077870e+001 -1.901492e+001 -7.615578e+001 1.223667e+001 -1.672599e-001 1.333719e+002
550625000 -1.004768e+000 -1.546678e+002 -6.753725e+001 -2.473192e+001 -6.783272e+001 -2.502210e+000 -1.687352e-001 1.332890e+002
551250000 -1.009207e+000 -1.548891e+002 -6.368985e+001 -4.282462e+001 -6.559509e+001 -3.830638e+000 -1.681518e-001 1.331546e+002
551875000 -1.011288e+000 -1.551612e+002 -6.997945e+001 -1.545296e+001 -6.973969e+001 -2.713995e+001 -1.617048e-001 1.330834e+002
552500000 -1.025512e+000 -1.554669e+002 -7.113979e+001 -1.874777e+001 -6.829597e+001 1.653067e-001 -1.561258e-001 1.329638e+002
553125000 -1.025193e+000 -1.556832e+002 -6.770615e+001 -5.669655e+001 -6.579459e+001 -2.482359e+001 -1.538065e-001 1.329022e+002
553750000 -1.043157e+000 -1.559750e+002 -7.044381e+001 -3.156108e+001 -6.674953e+001 -3.492028e+001 -1.677678e-001 1.327585e+002
554375000 -1.043118e+000 -1.562020e+002 -6.635685e+001 -3.232021e+001 -6.861090e+001 8.873364e+000 -1.666254e-001 1.327602e+002
555000000 -1.054115e+000 -1.565028e+002 -7.052624e+001 -5.897644e+001 -6.682178e+001 1.105576e+001 -1.671136e-001 1.326753e+002
555625000 -1.066607e+000 -1.567161e+002 -6.477708e+001 -2.025357e+001 -6.561525e+001 -3.486480e+001 -1.545326e-001 1.326507e+002
556250000 -1.069171e+000 -1.570913e+002 -6.484065e+001 -3.398718e+001 -6.579719e+001 -5.139838e+001 -1.635346e-001 1.325713e+002
556875000 -1.070317e+000 -1.573244e+002 -6.624024e+001 3.425480e-001 -6.660523e+001 -3.605016e+001 -1.688592e-001 1.325316e+002
557500000 -1.088059e+000 -1.575550e+002 -6.595014e+001 -4.193774e+001 -6.658733e+001 -3.436401e+001 -1.559188e-001 1.324495e+002
558125000 -1.092417e+000 -1.579074e+002 -6.632630e+001 -5.738064e+001 -6.435491e+001 -2.408353e+001 -1.562854e-001 1.324480e+002
558750000 -1.088598e+000 -1.581628e+002 -6.587248e+001 -4.127527e+001 -6.877792e+001 -4.227058e+001 -1.555240e-001 1.323537e+002
559375000 -1.102942e+000 -1.584840e+002 -6.569119e+001 -5.994009e+001 -6.683555e+001 -2.366234e+001 -1.539126e-001 1.323582e+002
560000000 -1.103525e+000 -1.587756e+002 -6.821889e+001 -3.978409e+001 -6.543988e+001 -6.295918e+001 -1.467087e-001 1.322281e+002
560625000 -1.111704e+000 -1.590847e+002 -6.628633e+001 -3.149127e+001 -6.523746e+001 -4.772017e+001 -1.479516e-001 1.322295e+002
561250000 -1.115895e+000 -1.594305e+002 -6.249444e+001 -4.938731e+001 -6.547897e+001 -4.421230e+001 -1.503503e-001 1.321962e+002
561875000 -1.116082e+000 -1.597504e+002 -6.961412e+001 -3.887608e+001 -6.802299e+001 -3.131850e+001 -1.646331e-001 1.321197e+002
562500000 -1.122830e+000 -1.600532e+002 -6.545845e+001 -3.720333e+001 -6.812163e+001 -5.296667e+001 -1.552936e-001 1.321054e+002
563125000 -1.127157e+000 -1.603655e+002 -6.527487e+001 -4.660860e+001 -6.992380e+001 -5.503855e+001 -1.554444e-001 1.320478e+002
563750000 -1.134574e+000 -1.607569e+002 -6.910239e+001 -4.143785e+001 -6.511111e+001 -5.044981e+001 -1.615467e-001 1.319749e+002
564375000 -1.150608e+000 -1.610992e+002 -6.817395e+001 -5.206426e+001 -6.779575e+001 -7.613004e+001 -1.614586e-001 1.319548e+002
565000000 -1.154503e+000 -1.614761e+002 -6.323455e+001 -5.762470e+001 -6.706563e+001 -5.538366e+001 -1.708915e-001 1.318224e+002
565625000 -1.165252e+000 -1.617588e+002 -6.410226e+001 -5.601342e+001 -6.424970e+001 -8.098240e+001 -1.702921e-001 1.317861e+002
566250000 -1.177796e+000 -1.621496e+002 -6.999707e+001 -5.282125e+001 -7.374607e+001 -6.701157e+001 -1.699768e-001 1.316499e+002
566875000 -1.198578e+000 -1.624598e+002 -6.506245e+001 -4.464201e+001 -6.561383e+001 -5.956055e+001 -1.673734e-001 1.315233e+002
567500000 -1.215120e+000 -1.628506e+002 -6.564309e+001 -7.294006e+001 -6.929153e+001 -8.493105e+001 -1.754162e-001 1.314364e+002
568125000 -1.222940e+000 -1.631381e+002 -6.733461e+001 -6.216744e+001 -6.346994e+001 -6.993684e+001 -1.700547e-001 1.313438e+002
568750000 -1.237999e+000 -1.633990e+002 -6.762663e+001 -5.700152e+001 -6.669850e+001 -9.190762e+001 -1.722956e-001 1.312454e+002
569375000 -1.252566e+000 -1.637344e+002 -6.456768e+001 -6.676886e+001 -6.844616e+001 -7.327271e+001 -1.739645e-001 1.310950e+002
570000000 -1.245203e+000 -1.640303e+002 -6.727313e+001 -7.648167e+001 -6.450010e+001 -8.912322e+001 -1.824182e-001 1.309182e+002
570625000 -1.247340e+000 -1.643584e+002 -6.536478e+001 -1.056652e+002 -6.752005e+001 -5.570085e+001 -1.680725e-001 1.308493e+002
571250000 -1.259217e+000 -1.647181e+002 -6.640514e+001 -7.460428e+001 -6.649182e+001 -8.794734e+001 -1.784115e-001 1.307698e+002
571875000 -1.264507e+000 -1.650353e+002 -6.571492e+001 -8.854575e+001 -6.445546e+001 -8.723421e+001 -1.678439e-001 1.305935e+002
572500000 -1.261651e+000 -1.653151e+002 -6.668409e+001 -8.025369e+001 -6.545395e+001 -8.197903e+001 -1.718333e-001 1.305171e+002
573125000 -1.272730e+000 -1.656633e+002 -6.569400e+001 -7.723508e+001 -6.497652e+001 -7.677637e+001 -1.584266e-001 1.304521e+002
573750000 -1.269358e+000 -1.660287e+002 -6.313303e+001 -7.996655e+001 -6.739428e+001 -8.940776e+001 -1.750652e-001 1.303227e+002
574375000 -1.274078e+000 -1.663586e+002 -6.229568e+001 -8.162045e+001 -6.482915e+001 -9.791379e+001 -1.603266e-001 1.303121e+002
575000000 -1.274625e+000 -1.667766e+002 -6.708540e+001 -7.215253e+001 -6.789537e+001 -8.640454e+001 -1.691604e-001 1.301908e+002
575625000 -1.271747e+000 -1.671299e+002 -6.432121e+001 -1.050896e+002 -6.507465e+001 -1.046142e+002 -1.710083e-001 1.301323e+002
576250000 -1.270818e+000 -1.675290e+002 -6.534966e+001 -9.829078e+001 -6.554193e+001 -9.662657e+001 -1.716392e-001 1.300495e+002
576875000 -1.273281e+000 -1.678837e+002 -6.461092e+001 -7.021030e+001 -6.486520e+001 -9.955656e+001 -1.675411e-001 1.300076e+002
577500000 -1.292829e+000 -1.682298e+002 -6.857850e+001 -1.053937e+002 -6.423673e+001 -8.711211e+001 -1.562625e-001 1.299146e+002
578125000 -1.294105e+000 -1.685698e+002 -6.374063e+001 -8.491140e+001 -6.528967e+001 -8.881152e+001 -1.611599e-001 1.299767e+002
578750000 -1.293380e+000 -1.689323e+002 -6.704379e+001 -1.111741e+002 -7.052356e+001 -1.194414e+002 -1.552713e-001 1.299199e+002
579375000 -1.292414e+000 -1.692532e+002 -6.384207e+001 -1.213594e+002 -6.422013e+001 -9.385307e+001 -1.586163e-001 1.298640e+002
580000000 -1.293780e+000 -1.696017e+002 -6.571654e+001 -1.059385e+002 -6.257808e+001 -1.088765e+002 -1.583530e-001 1.298919e+002
580625000 -1.288097e+000 -1.700118e+002 -6.395753e+001 -1.127370e+002 -6.711904e+001 -1.334020e+002 -1.529092e-001 1.297968e+002
581250000 -1.287695e+000 -1.703837e+002 -6.515611e+001 -1.303552e+002 -6.745470e+001 -1.002637e+002 -1.560123e-001 1.298250e+002
581875000 -1.293463e+000 -1.708715e+002 -6.399693e+001 -1.245213e+002 -6.310915e+001 -1.167693e+002 -1.539312e-001 1.297572e+002
582500000 -1.298927e+000 -1.712661e+002 -6.394683e+001 -1.369804e+002 -6.380841e+001 -1.148725e+002 -1.639851e-001 1.297293e+002
583125000 -1.304300e+000 -1.717391e+002 -6.628994e+001 -1.168260e+002 -6.589310e+001 -1.271367e+002 -1.709214e-001 1.296250e+002
583750000 -1.312459e+000 -1.721847e+002 -6.210303e+001 -1.325177e+002 -6.491840e+001 -1.306987e+002 -1.825833e-001 1.294972e+002
584375000 -1.324347e+000 -1.726614e+002 -6.520866e+001 -1.274003e+002 -6.420394e+001 -1.209038e+002 -1.634633e-001 1.294464e+002
585000000 -1.331061e+000 -1.731087e+002 -6.631648e+001 -1.482882e+002 -6.131753e+001 -1.334375e+002 -1.722354e-001 1.293718e+002
585625000 -1.357189e+000 -1.734890e+002 -6.474358e+001 -1.212324e+002 -6.474248e+001 -1.188900e+002 -1.689825e-001 1.292634e+002
586250000 -1.350961e+000 -1.739813e+002 -6.593688e+001 -1.251286e+002 -6.417735e+001 -1.003899e+002 -1.621787e-001 1.292690e+002
586875000 -1.357644e+000 -1.744500e+002 -6.413272e+001 -1.331800e+002 -6.508115e+001 -1.187374e+002 -1.700357e-001 1.291218e+002
587500000 -1.385658e+000 -1.749234e+002 -6.592902e+001 -1.538073e+002 -6.847243e+001 -1.294095e+002 -1.675559e-001 1.290000e+002
588125000 -1.388762e+000 -1.753108e+002 -6.370351e+001 -1.513698e+002 -6.416453e+001 -1.215596e+002 -1.707822e-001 1.289545e+002
588750000 -1.396506e+000 -1.757706e+002 -6.428104e+001 -1.112234e+002 -6.496519e+001 -1.091205e+002 -1.694158e-001 1.289134e+002
589375000 -1.399520e+000 -1.762932e+002 -6.441277e+001 -1.236311e+002 -6.682424e+001 -1.358859e+002 -1.606799e-001 1.287908e+002
590000000 -1.411143e+000 -1.767918e+002 -6.528049e+001 -1.346488e+002 -6.378946e+001 -1.091333e+002 -1.652637e-001 1.287566e+002
590625000 -1.427218e+000 -1.772727e+002 -6.258223e+001 -1.359151e+002 -6.383535e+001 -1.259107e+002 -1.543375e-001 1.286671e+002
591250000 -1.440796e+000 -1.777248e+002 -6.728409e+001 -1.372717e+002 -6.357189e+001 -1.325314e+002 -1.606950e-001 1.287198e+002
591875000 -1.457846e+000 -1.781570e+002 -6.199027e+001 -1.364254e+002 -6.405727e+001 -1.345576e+002 -1.562818e-001 1.287004e+002
592500000 -1.465311e+000 -1.786233e+002 -6.092598e+001 -1.397836e+002 -6.469510e+001 -1.357690e+002 -1.538165e-001 1.287379e+002
593125000 -1.488157e+000 -1.790610e+002 -6.242067e+001 -1.320443e+002 -6.396341e+001 -1.368080e+002 -1.542104e-001 1.287788e+002
593750000 -1.494516e+000 -1.795952e+002 -6.085854e+001 -1.453043e+002 -6.520146e+001 -1.518937e+002 -1.435417e-001 1.288384e+002
594375000 -1.495169e+000 -1.799704e+002 -6.273158e+001 -1.500487e+002 -6.182921e+001 -1.377347e+002 -1.364359e-001 1.288956e+002
595000000 -1.508564e+000 1.795092e+002 -6.193235e+001 -1.403398e+002 -6.162714e+001 -1.366108e+002 -1.491359e-001 1.288908e+002
