!Agilent Technologies,E8364B,US42250235,A.06.04.32
!Agilent E8364B: A.06.04.32
!Date: Friday, January 15, 2021 15:11:14
!Correction: S11(Full 2 Port(1,2)) S21(Full 2 Port(1,2)) S12(Full 2 Port(1,2)) S22(Full 2 Port(1,2)) 
!S2P File: Measurements: S11, S21, S12, S22:
# Hz S  dB   R 50
500000000 -1.130615e-001 -1.300061e+002 -7.195869e+001 1.100885e+002 -7.583652e+001 -1.505094e+002 -1.455425e-001 1.384913e+002
500625000 -1.158146e-001 -1.302644e+002 -8.113889e+001 -1.303480e+002 -7.259750e+001 2.087068e+000 -1.513954e-001 1.384498e+002
501250000 -1.261678e-001 -1.305101e+002 -7.372224e+001 4.741549e+001 -7.438589e+001 -1.073792e+001 -1.523902e-001 1.383828e+002
501875000 -1.259118e-001 -1.308816e+002 -7.597794e+001 -1.267851e+002 -7.340334e+001 6.100992e+001 -1.449112e-001 1.383155e+002
502500000 -1.280994e-001 -1.311599e+002 -7.323203e+001 2.860016e+001 -7.141548e+001 4.741161e+001 -1.448758e-001 1.382991e+002
503125000 -1.353088e-001 -1.314851e+002 -7.894547e+001 -1.591960e+002 -7.739541e+001 -1.496181e+002 -1.438133e-001 1.381611e+002
503750000 -1.369039e-001 -1.317313e+002 -7.875864e+001 9.982803e+001 -7.258619e+001 -1.464031e+002 -1.550604e-001 1.381633e+002
504375000 -1.416740e-001 -1.320618e+002 -6.853278e+001 -3.775955e+001 -8.013885e+001 -8.453694e+001 -1.605171e-001 1.380702e+002
505000000 -1.452413e-001 -1.323999e+002 -1.013791e+002 5.104843e+001 -7.186245e+001 2.557672e+001 -1.578066e-001 1.380978e+002
505625000 -1.379098e-001 -1.325980e+002 -8.158936e+001 -3.270356e+001 -8.788351e+001 1.051740e+002 -1.609285e-001 1.379775e+002
506250000 -1.487627e-001 -1.329671e+002 -7.467989e+001 -3.816175e+001 -7.631235e+001 -8.494757e+000 -1.639587e-001 1.378719e+002
506875000 -1.425813e-001 -1.332217e+002 -7.764410e+001 1.070816e+002 -7.680081e+001 9.763213e+001 -1.607048e-001 1.378015e+002
507500000 -1.489033e-001 -1.334890e+002 -6.910205e+001 -4.210912e+001 -7.928561e+001 2.142215e+001 -1.625149e-001 1.376496e+002
508125000 -1.512809e-001 -1.338006e+002 -8.504403e+001 7.261870e+001 -6.960727e+001 -7.605985e+000 -1.621494e-001 1.375612e+002
508750000 -1.499567e-001 -1.340560e+002 -7.505641e+001 -1.376384e+002 -7.963074e+001 -1.463543e+002 -1.688002e-001 1.374142e+002
509375000 -1.561941e-001 -1.343914e+002 -7.103924e+001 1.166673e+002 -7.499934e+001 -1.037450e+002 -1.620990e-001 1.373918e+002
510000000 -1.537170e-001 -1.347220e+002 -7.509132e+001 4.499395e+000 -7.074225e+001 -1.603406e+001 -1.725895e-001 1.372090e+002
510625000 -1.649559e-001 -1.349499e+002 -8.088609e+001 1.575016e+002 -7.163746e+001 -1.456385e+002 -1.656525e-001 1.371288e+002
511250000 -1.718669e-001 -1.352256e+002 -7.757335e+001 -7.709362e+000 -7.541855e+001 -7.960699e+001 -1.629609e-001 1.369101e+002
511875000 -1.763020e-001 -1.355332e+002 -7.589732e+001 3.438874e+001 -7.510754e+001 -5.353648e+001 -1.565788e-001 1.368253e+002
512500000 -1.684478e-001 -1.358617e+002 -8.125124e+001 -8.385403e+001 -7.933822e+001 -1.350611e+002 -1.624809e-001 1.367021e+002
513125000 -1.862745e-001 -1.361623e+002 -7.141240e+001 -1.004921e+002 -7.215217e+001 -8.055554e+001 -1.664679e-001 1.366756e+002
513750000 -1.960637e-001 -1.364496e+002 -6.825920e+001 -6.510830e+001 -7.194699e+001 1.763008e+002 -1.661954e-001 1.365440e+002
514375000 -1.991596e-001 -1.367832e+002 -7.682555e+001 -1.529730e+002 -7.474468e+001 2.159610e+001 -1.436567e-001 1.363940e+002
515000000 -2.113903e-001 -1.370520e+002 -8.481951e+001 -1.331706e+002 -7.918357e+001 1.020457e+002 -1.515437e-001 1.363415e+002
515625000 -2.211505e-001 -1.374261e+002 -7.356781e+001 1.572241e+002 -7.852817e+001 -1.600794e+002 -1.402453e-001 1.363289e+002
516250000 -2.268350e-001 -1.377092e+002 -7.258931e+001 1.587728e+002 -8.542299e+001 5.641647e+001 -1.539440e-001 1.362186e+002
516875000 -2.367665e-001 -1.380926e+002 -7.146249e+001 6.774297e+001 -9.152896e+001 1.648375e+001 -1.491310e-001 1.362199e+002
517500000 -2.420372e-001 -1.383868e+002 -7.219346e+001 2.949504e+001 -8.196291e+001 8.111351e+001 -1.565080e-001 1.361652e+002
518125000 -2.484886e-001 -1.387682e+002 -7.266686e+001 4.974625e+001 -7.549934e+001 1.203018e+002 -1.542803e-001 1.361126e+002
518750000 -2.614160e-001 -1.391043e+002 -8.079485e+001 1.156558e+002 -7.971218e+001 -1.317497e+002 -1.441689e-001 1.361222e+002
519375000 -2.773995e-001 -1.393644e+002 -7.466576e+001 -1.381348e+002 -7.715457e+001 -2.198976e+001 -1.375704e-001 1.360789e+002
520000000 -2.832401e-001 -1.397567e+002 -7.979607e+001 -9.614695e+001 -9.552211e+001 -1.049605e+000 -1.455225e-001 1.360487e+002
520625000 -2.914155e-001 -1.401065e+002 -7.298402e+001 1.348484e+002 -8.148076e+001 5.784483e+001 -1.464178e-001 1.359252e+002
521250000 -2.962750e-001 -1.403707e+002 -8.181005e+001 -1.444837e+002 -8.013994e+001 -3.531163e+001 -1.512064e-001 1.359563e+002
521875000 -3.072144e-001 -1.407386e+002 -7.222057e+001 4.024351e+001 -7.469310e+001 -1.229598e+002 -1.470107e-001 1.359215e+002
522500000 -3.044988e-001 -1.410221e+002 -8.383858e+001 1.421431e+002 -8.847660e+001 -1.027807e+002 -1.524318e-001 1.358783e+002
523125000 -3.207080e-001 -1.413674e+002 -7.286221e+001 -1.045438e+002 -7.946703e+001 1.731393e+002 -1.541605e-001 1.358687e+002
523750000 -3.175254e-001 -1.416847e+002 -7.925993e+001 8.254581e+001 -7.176015e+001 -1.260885e+002 -1.490412e-001 1.358208e+002
524375000 -3.345979e-001 -1.419907e+002 -7.973927e+001 1.448220e+002 -6.947707e+001 -1.052014e+002 -1.425871e-001 1.357726e+002
525000000 -3.361683e-001 -1.423067e+002 -7.160571e+001 1.099270e+002 -7.863464e+001 -1.040015e+002 -1.529976e-001 1.357236e+002
525625000 -3.491147e-001 -1.425552e+002 -7.422758e+001 1.116686e+002 -7.658865e+001 -1.155891e+002 -1.621321e-001 1.356450e+002
526250000 -3.487355e-001 -1.429001e+002 -7.779061e+001 -4.213176e+001 -7.887752e+001 8.658758e+001 -1.544039e-001 1.356500e+002
526875000 -3.655973e-001 -1.432193e+002 -7.233022e+001 8.779306e+001 -7.215538e+001 -4.995437e+000 -1.404915e-001 1.356108e+002
527500000 -3.684865e-001 -1.434885e+002 -7.813258e+001 -1.292464e+000 -8.507373e+001 -2.843002e+001 -1.485722e-001 1.355357e+002
528125000 -3.894777e-001 -1.438067e+002 -7.935480e+001 -1.319608e+002 -8.225715e+001 -3.220016e+001 -1.511096e-001 1.355478e+002
528750000 -3.886878e-001 -1.441244e+002 -8.895414e+001 -4.583873e+001 -7.812040e+001 1.178611e+002 -1.469463e-001 1.356047e+002
529375000 -4.048510e-001 -1.444668e+002 -7.345533e+001 3.924300e+001 -7.604207e+001 -4.972790e+001 -1.583082e-001 1.354866e+002
530000000 -4.124000e-001 -1.448000e+002 -7.016648e+001 -1.296320e+001 -7.594225e+001 -1.027158e+002 -1.527268e-001 1.354128e+002
530625000 -4.248381e-001 -1.450765e+002 -7.526742e+001 1.247626e+002 -7.729174e+001 1.170330e+002 -1.569978e-001 1.353917e+002
531250000 -4.331235e-001 -1.454435e+002 -7.732497e+001 -6.300705e+001 -7.582479e+001 -6.635990e+001 -1.505966e-001 1.353049e+002
531875000 -4.482630e-001 -1.457455e+002 -7.269308e+001 -7.770484e+001 -7.148483e+001 1.510025e+002 -1.587489e-001 1.353299e+002
532500000 -4.555941e-001 -1.460323e+002 -7.623167e+001 -1.820771e+001 -7.387585e+001 -9.261594e+001 -1.533697e-001 1.352739e+002
533125000 -4.613812e-001 -1.463575e+002 -7.771255e+001 7.545996e+001 -8.462946e+001 -1.611381e+002 -1.622448e-001 1.352354e+002
533750000 -4.692315e-001 -1.467413e+002 -7.832945e+001 1.403260e+002 -8.585059e+001 1.220397e+002 -1.729092e-001 1.351715e+002
534375000 -4.813262e-001 -1.470857e+002 -9.100393e+001 2.588886e+001 -7.497795e+001 -3.400219e+000 -1.559677e-001 1.351174e+002
535000000 -4.920139e-001 -1.473891e+002 -7.245428e+001 1.202809e+001 -8.024573e+001 1.855227e+000 -1.678110e-001 1.351005e+002
535625000 -5.028998e-001 -1.477890e+002 -8.501631e+001 -9.259082e+001 -8.218560e+001 4.725885e+001 -1.559636e-001 1.350334e+002
536250000 -5.133917e-001 -1.481307e+002 -7.721092e+001 2.453209e+001 -8.255503e+001 -4.163120e+001 -1.496801e-001 1.349038e+002
536875000 -5.267643e-001 -1.485437e+002 -9.548480e+001 1.340558e+001 -6.869019e+001 -8.307870e+001 -1.683456e-001 1.348456e+002
537500000 -5.318312e-001 -1.488285e+002 -7.781477e+001 3.607415e+000 -6.930288e+001 -1.048416e+002 -1.549519e-001 1.348718e+002
538125000 -5.543303e-001 -1.492281e+002 -7.574284e+001 -1.067265e+002 -7.335074e+001 -1.555175e+002 -1.611979e-001 1.347826e+002
538750000 -5.722842e-001 -1.495647e+002 -7.274713e+001 -1.552921e+002 -6.960703e+001 -1.031643e+002 -1.538363e-001 1.347481e+002
539375000 -5.904046e-001 -1.498940e+002 -7.110822e+001 -9.188729e+001 -7.521993e+001 -6.893127e+001 -1.518742e-001 1.347019e+002
540000000 -6.033094e-001 -1.502670e+002 -8.519444e+001 -3.072714e+001 -8.100353e+001 -1.321445e+002 -1.523923e-001 1.345946e+002
540625000 -6.135829e-001 -1.505693e+002 -7.608921e+001 -1.312201e+002 -6.974731e+001 -1.762702e+002 -1.517088e-001 1.345626e+002
541250000 -6.305168e-001 -1.508623e+002 -7.070385e+001 -9.986686e+001 -8.536426e+001 1.265556e+001 -1.465583e-001 1.345829e+002
541875000 -6.515951e-001 -1.511603e+002 -7.089840e+001 -1.321079e+002 -9.446909e+001 -1.505058e+002 -1.583288e-001 1.345184e+002
542500000 -6.636184e-001 -1.514743e+002 -6.984995e+001 1.176383e+002 -7.472750e+001 -4.564959e+001 -1.433395e-001 1.344976e+002
543125000 -6.780066e-001 -1.518213e+002 -7.649580e+001 1.044000e+002 -7.628092e+001 -7.784056e+001 -1.439252e-001 1.344767e+002
543750000 -7.004324e-001 -1.521179e+002 -7.805204e+001 -1.444397e+002 -8.583042e+001 -1.197890e+002 -1.517791e-001 1.344942e+002
544375000 -7.197748e-001 -1.524443e+002 -7.636498e+001 -8.371038e+001 -7.562016e+001 -2.262891e+001 -1.466751e-001 1.345292e+002
545000000 -7.242805e-001 -1.527277e+002 -7.498633e+001 -1.668023e+002 -8.229731e+001 9.713207e+001 -1.439853e-001 1.345403e+002
545625000 -7.506657e-001 -1.530460e+002 -7.420139e+001 1.490566e+002 -7.081623e+001 -8.516530e+001 -1.488378e-001 1.345340e+002
546250000 -7.760886e-001 -1.533240e+002 -7.157526e+001 4.144239e+000 -7.570513e+001 -9.018075e+001 -1.492006e-001 1.344713e+002
546875000 -7.924905e-001 -1.536750e+002 -6.926288e+001 -1.008495e+002 -7.331905e+001 -5.326103e+001 -1.530688e-001 1.345358e+002
547500000 -8.192645e-001 -1.539431e+002 -7.428168e+001 -1.431274e+002 -7.749205e+001 -1.713663e+002 -1.533607e-001 1.344788e+002
548125000 -8.443845e-001 -1.541561e+002 -7.747411e+001 -1.257395e+002 -8.899443e+001 1.302825e+002 -1.562580e-001 1.344332e+002
548750000 -8.512142e-001 -1.545075e+002 -8.311861e+001 -6.350569e+000 -8.010210e+001 -6.983330e+000 -1.628359e-001 1.343858e+002
549375000 -8.755436e-001 -1.548197e+002 -8.322458e+001 1.012791e+002 -7.778492e+001 -1.056425e+002 -1.657802e-001 1.341992e+002
550000000 -8.789377e-001 -1.550628e+002 -8.109525e+001 -1.796238e+002 -7.281419e+001 -1.194576e+002 -1.707499e-001 1.342263e+002
550625000 -8.956470e-001 -1.553363e+002 -7.195418e+001 7.359435e+001 -7.704775e+001 -1.032641e+002 -1.703218e-001 1.341783e+002
551250000 -9.013610e-001 -1.555954e+002 -7.064207e+001 -1.279860e+002 -7.900858e+001 -1.570616e+002 -1.651500e-001 1.340590e+002
551875000 -9.128262e-001 -1.559459e+002 -8.110404e+001 -1.137742e+002 -7.152336e+001 -9.990846e+001 -1.700405e-001 1.339555e+002
552500000 -9.145098e-001 -1.562795e+002 -7.413531e+001 -2.505318e+001 -7.794605e+001 -2.178423e+001 -1.687774e-001 1.338097e+002
553125000 -9.195083e-001 -1.565884e+002 -7.854267e+001 -6.827813e+001 -8.084587e+001 -6.337165e+001 -1.767989e-001 1.337853e+002
553750000 -9.406865e-001 -1.569484e+002 -7.941715e+001 7.340105e+001 -7.743530e+001 -9.992997e+001 -1.686374e-001 1.336140e+002
554375000 -9.475270e-001 -1.572191e+002 -7.475702e+001 -1.210079e+002 -8.063866e+001 9.374741e+001 -1.726064e-001 1.335087e+002
555000000 -9.591325e-001 -1.575661e+002 -7.206998e+001 -1.798141e+002 -8.198038e+001 1.404026e+002 -1.729206e-001 1.334277e+002
555625000 -9.726541e-001 -1.578301e+002 -7.617460e+001 -4.030843e+001 -7.581709e+001 -8.416064e+001 -1.603215e-001 1.333695e+002
556250000 -9.931354e-001 -1.581767e+002 -8.228375e+001 -9.297636e+001 -7.386287e+001 -8.314386e+001 -1.684482e-001 1.332405e+002
556875000 -9.899023e-001 -1.584913e+002 -7.352799e+001 -7.803064e+001 -7.099973e+001 7.841832e+001 -1.747346e-001 1.332045e+002
557500000 -1.006032e+000 -1.587211e+002 -7.774312e+001 -1.530001e+002 -7.288457e+001 -8.336271e+001 -1.582768e-001 1.331673e+002
558125000 -1.012420e+000 -1.590748e+002 -7.675209e+001 -1.498554e+002 -8.065548e+001 7.140813e+001 -1.638472e-001 1.331163e+002
558750000 -1.017323e+000 -1.593665e+002 -6.965028e+001 -1.305953e+002 -7.074533e+001 -1.527893e+002 -1.573389e-001 1.330583e+002
559375000 -1.031374e+000 -1.597073e+002 -8.124726e+001 -1.270808e+001 -7.085681e+001 -1.160088e+002 -1.551151e-001 1.331165e+002
560000000 -1.045166e+000 -1.600275e+002 -8.113914e+001 4.248960e+001 -9.706268e+001 5.654935e+001 -1.486913e-001 1.329817e+002
560625000 -1.053054e+000 -1.602802e+002 -7.402634e+001 3.815243e+001 -8.420284e+001 -1.373703e+002 -1.517411e-001 1.330005e+002
561250000 -1.072269e+000 -1.606301e+002 -7.110843e+001 1.478912e+002 -7.808593e+001 1.089822e+002 -1.512088e-001 1.330250e+002
561875000 -1.082800e+000 -1.609530e+002 -7.314431e+001 1.183782e+002 -7.359789e+001 -1.107618e+002 -1.598781e-001 1.330502e+002
562500000 -1.104173e+000 -1.612439e+002 -7.110010e+001 -1.778248e+002 -7.796082e+001 1.717146e+002 -1.588974e-001 1.330385e+002
563125000 -1.109290e+000 -1.615747e+002 -6.721692e+001 1.325996e+002 -8.107915e+001 -1.629999e+002 -1.564930e-001 1.329688e+002
563750000 -1.132632e+000 -1.619268e+002 -7.840515e+001 -8.462447e+001 -8.257111e+001 1.294276e+002 -1.720583e-001 1.329023e+002
564375000 -1.157892e+000 -1.622408e+002 -8.027887e+001 -6.975935e+001 -8.118951e+001 6.536215e+001 -1.687915e-001 1.329143e+002
565000000 -1.170538e+000 -1.626661e+002 -7.036822e+001 1.539842e+002 -7.158012e+001 -1.521577e+002 -1.646588e-001 1.328032e+002
565625000 -1.195958e+000 -1.629713e+002 -9.051242e+001 -3.306682e+001 -7.337696e+001 -1.258070e+002 -1.783582e-001 1.327689e+002
566250000 -1.220351e+000 -1.633282e+002 -7.526228e+001 -3.728276e+001 -7.211314e+001 -6.013945e+001 -1.736982e-001 1.326669e+002
566875000 -1.245473e+000 -1.636375e+002 -7.231900e+001 -1.213488e+002 -7.260428e+001 -1.135468e+002 -1.811302e-001 1.325160e+002
567500000 -1.272328e+000 -1.640089e+002 -7.135304e+001 -4.436555e+001 -8.024717e+001 -1.208821e+002 -1.812346e-001 1.323580e+002
568125000 -1.289709e+000 -1.642860e+002 -7.279806e+001 -9.682938e+001 -7.798074e+001 -1.351161e+002 -1.890505e-001 1.322566e+002
568750000 -1.305986e+000 -1.645530e+002 -7.671204e+001 -1.418821e+002 -7.269852e+001 -1.799789e+002 -1.866690e-001 1.321268e+002
569375000 -1.323727e+000 -1.648695e+002 -7.238380e+001 -1.246194e+002 -7.259327e+001 1.787177e+002 -1.818769e-001 1.319822e+002
570000000 -1.325756e+000 -1.652249e+002 -8.160193e+001 -1.424837e+002 -7.212469e+001 -1.633890e+002 -1.838888e-001 1.317786e+002
570625000 -1.333501e+000 -1.655309e+002 -7.926663e+001 1.503887e+002 -6.834430e+001 1.680677e+002 -1.828121e-001 1.317146e+002
571250000 -1.342413e+000 -1.658565e+002 -7.056965e+001 1.613207e+002 -6.933016e+001 -1.673881e+002 -1.826180e-001 1.316055e+002
571875000 -1.353370e+000 -1.661309e+002 -7.436557e+001 -1.608913e+002 -7.058162e+001 -1.623147e+002 -1.694807e-001 1.314696e+002
572500000 -1.358932e+000 -1.664621e+002 -7.070605e+001 1.326826e+002 -7.360829e+001 1.455236e+002 -1.750048e-001 1.313643e+002
573125000 -1.358059e+000 -1.667813e+002 -6.710867e+001 1.714259e+002 -7.043718e+001 -1.780826e+002 -1.696405e-001 1.313077e+002
573750000 -1.352471e+000 -1.670867e+002 -7.281764e+001 1.696035e+002 -7.146613e+001 -1.744122e+002 -1.766641e-001 1.312083e+002
574375000 -1.354321e+000 -1.674188e+002 -6.956561e+001 1.663792e+002 -6.929955e+001 1.304680e+002 -1.657256e-001 1.311834e+002
575000000 -1.349404e+000 -1.678022e+002 -7.010037e+001 1.712972e+002 -7.601492e+001 -1.347791e+002 -1.647521e-001 1.310964e+002
575625000 -1.367200e+000 -1.681604e+002 -6.957796e+001 1.469593e+002 -6.671831e+001 1.609228e+002 -1.718426e-001 1.310785e+002
576250000 -1.371710e+000 -1.684930e+002 -6.909969e+001 -1.717631e+002 -7.641237e+001 -1.791360e+002 -1.706783e-001 1.310491e+002
576875000 -1.377685e+000 -1.688313e+002 -7.472955e+001 1.507383e+002 -7.204121e+001 1.387942e+002 -1.643770e-001 1.309820e+002
577500000 -1.388779e+000 -1.691769e+002 -6.996302e+001 1.431952e+002 -7.965630e+001 1.464970e+002 -1.667982e-001 1.309346e+002
578125000 -1.393127e+000 -1.694748e+002 -7.115684e+001 6.885870e+001 -8.665944e+001 -1.110382e+002 -1.637533e-001 1.309787e+002
578750000 -1.394495e+000 -1.698308e+002 -7.785057e+001 1.245431e+002 -8.509766e+001 -1.798063e+002 -1.658048e-001 1.309054e+002
579375000 -1.393521e+000 -1.701351e+002 -7.553799e+001 1.493733e+002 -7.160395e+001 1.556459e+002 -1.689857e-001 1.307651e+002
580000000 -1.393698e+000 -1.704476e+002 -8.647467e+001 9.289076e+001 -7.008601e+001 1.596620e+002 -1.734743e-001 1.308089e+002
580625000 -1.395188e+000 -1.709238e+002 -7.117377e+001 -1.427500e+002 -6.867639e+001 -1.705385e+002 -1.715770e-001 1.307174e+002
581250000 -1.397292e+000 -1.713429e+002 -6.776300e+001 1.778664e+002 -6.965886e+001 -1.717929e+002 -1.722145e-001 1.306474e+002
581875000 -1.410566e+000 -1.717990e+002 -7.146310e+001 1.745305e+002 -7.018279e+001 1.722009e+002 -1.750528e-001 1.305564e+002
582500000 -1.420588e+000 -1.722828e+002 -6.869833e+001 1.753949e+002 -8.441502e+001 6.420045e+001 -1.718497e-001 1.304301e+002
583125000 -1.430943e+000 -1.728022e+002 -6.785748e+001 1.391189e+002 -6.615976e+001 1.636783e+002 -1.829986e-001 1.303332e+002
583750000 -1.454847e+000 -1.732635e+002 -6.907307e+001 1.365668e+002 -6.676942e+001 1.510001e+002 -1.823694e-001 1.302474e+002
584375000 -1.471506e+000 -1.737130e+002 -7.058024e+001 1.285832e+002 -7.017246e+001 1.630070e+002 -1.710917e-001 1.301091e+002
585000000 -1.489983e+000 -1.741668e+002 -6.852221e+001 1.250421e+002 -6.792388e+001 1.315029e+002 -1.863475e-001 1.300216e+002
585625000 -1.517555e+000 -1.745872e+002 -7.012992e+001 1.311547e+002 -6.993355e+001 1.457605e+002 -1.740936e-001 1.299456e+002
586250000 -1.516434e+000 -1.750630e+002 -6.831249e+001 1.260289e+002 -6.880163e+001 1.471350e+002 -1.668243e-001 1.299559e+002
586875000 -1.527263e+000 -1.755336e+002 -6.437518e+001 1.318091e+002 -7.011426e+001 1.295690e+002 -1.684478e-001 1.297923e+002
587500000 -1.551537e+000 -1.760193e+002 -6.892344e+001 1.209696e+002 -6.791810e+001 1.293803e+002 -1.654998e-001 1.297208e+002
588125000 -1.559957e+000 -1.764451e+002 -6.535281e+001 9.668869e+001 -6.902015e+001 1.202855e+002 -1.673553e-001 1.297272e+002
588750000 -1.569438e+000 -1.768945e+002 -6.792977e+001 1.554472e+002 -6.964239e+001 1.277015e+002 -1.691639e-001 1.296927e+002
589375000 -1.576560e+000 -1.774006e+002 -7.300032e+001 1.301282e+002 -6.551955e+001 1.484050e+002 -1.588755e-001 1.296105e+002
590000000 -1.594982e+000 -1.778462e+002 -6.895347e+001 1.253914e+002 -6.838951e+001 1.385177e+002 -1.551959e-001 1.296887e+002
590625000 -1.605308e+000 -1.782944e+002 -7.058337e+001 1.493356e+002 -7.111375e+001 1.224542e+002 -1.524269e-001 1.296259e+002
591250000 -1.631870e+000 -1.787549e+002 -7.316318e+001 9.356362e+001 -6.431993e+001 9.163026e+001 -1.598597e-001 1.296630e+002
591875000 -1.654983e+000 -1.791442e+002 -6.970300e+001 1.004102e+002 -7.176895e+001 1.267484e+002 -1.599355e-001 1.296902e+002
592500000 -1.674847e+000 -1.795316e+002 -7.210631e+001 8.626140e+001 -6.581704e+001 9.654054e+001 -1.632866e-001 1.297250e+002
593125000 -1.697888e+000 -1.798967e+002 -6.740403e+001 1.077116e+002 -6.658292e+001 1.169425e+002 -1.592655e-001 1.297797e+002
593750000 -1.710424e+000 1.796870e+002 -7.243997e+001 1.008165e+002 -6.702703e+001 1.147266e+002 -1.401706e-001 1.298684e+002
594375000 -1.716751e+000 1.793558e+002 -6.653846e+001 9.289137e+001 -6.893823e+001 9.336774e+001 -1.502889e-001 1.298440e+002
595000000 -1.718838e+000 1.789556e+002 -6.936668e+001 9.050070e+001 -7.112987e+001 1.275066e+002 -1.613945e-001 1.299229e+002
595625000 -1.737561e+000 1.785015e+002 -6.426487e+001 9.777070e+001 -7.276653e+001 8.787086e+001 -1.629042e-001 1.298652e+002
