!Agilent Technologies,E8364B,US42250235,A.06.04.32
!Agilent E8364B: A.06.04.32
!Date: Friday, January 15, 2021 14:46:02
!Correction: S11(Full 2 Port(1,2)) S21(Full 2 Port(1,2)) S12(Full 2 Port(1,2)) S22(Full 2 Port(1,2)) 
!S2P File: Measurements: S11, S21, S12, S22:
# Hz S  dB   R 50
500000000 -1.539910e-001 -1.299353e+002 -7.614638e+001 8.814594e+001 -7.351780e+001 6.520947e+001 -1.504987e-001 1.385218e+002
500625000 -1.528553e-001 -1.302767e+002 -7.982767e+001 3.765322e+001 -8.064542e+001 -1.030823e+002 -1.576768e-001 1.384710e+002
501250000 -1.628872e-001 -1.305484e+002 -7.429817e+001 -3.256966e+001 -7.345981e+001 -2.311890e+001 -1.483212e-001 1.384089e+002
501875000 -1.715782e-001 -1.308325e+002 -7.426997e+001 -4.922357e+000 -7.334732e+001 1.400935e+002 -1.354290e-001 1.383912e+002
502500000 -1.709724e-001 -1.311088e+002 -7.835481e+001 1.021070e+002 -8.350122e+001 -5.398131e+001 -1.362145e-001 1.383686e+002
503125000 -1.861039e-001 -1.314259e+002 -7.798593e+001 1.744606e+001 -7.971819e+001 6.568758e+001 -1.431733e-001 1.382503e+002
503750000 -1.810055e-001 -1.316670e+002 -8.217410e+001 5.113759e+001 -7.608340e+001 7.981274e+001 -1.399473e-001 1.381597e+002
504375000 -1.885794e-001 -1.319713e+002 -7.981011e+001 -1.349915e+001 -7.754202e+001 8.311794e+001 -1.522658e-001 1.381873e+002
505000000 -1.911966e-001 -1.322971e+002 -7.756250e+001 1.664552e+002 -7.666142e+001 3.557587e+001 -1.564203e-001 1.381156e+002
505625000 -1.851531e-001 -1.325386e+002 -8.168037e+001 -1.702918e+002 -7.616283e+001 -1.372776e+002 -1.546908e-001 1.380492e+002
506250000 -1.949444e-001 -1.328204e+002 -7.857690e+001 4.788264e+001 -8.003300e+001 -2.738037e+001 -1.549003e-001 1.379235e+002
506875000 -1.887211e-001 -1.330990e+002 -7.613748e+001 1.296673e+001 -8.304926e+001 -1.709414e+002 -1.477955e-001 1.378399e+002
507500000 -1.950247e-001 -1.334030e+002 -7.314333e+001 -1.151569e+002 -7.909651e+001 4.942223e+001 -1.491175e-001 1.377420e+002
508125000 -1.984311e-001 -1.336858e+002 -6.891653e+001 4.081795e+000 -7.549850e+001 -7.827055e+000 -1.592313e-001 1.376496e+002
508750000 -1.969164e-001 -1.339108e+002 -7.104596e+001 -6.906139e+001 -8.046600e+001 1.446881e+002 -1.536075e-001 1.374983e+002
509375000 -2.026509e-001 -1.342014e+002 -7.970475e+001 -1.113747e+002 -7.514752e+001 8.079271e+001 -1.553364e-001 1.374270e+002
510000000 -2.063693e-001 -1.345048e+002 -8.214728e+001 3.224941e+001 -7.220732e+001 1.132699e+002 -1.613157e-001 1.372736e+002
510625000 -2.170354e-001 -1.347180e+002 -8.902940e+001 -6.620925e+001 -7.412589e+001 -1.381617e+002 -1.533809e-001 1.372456e+002
511250000 -2.251211e-001 -1.349571e+002 -8.172963e+001 -1.029534e+002 -7.447443e+001 -1.354699e+002 -1.677972e-001 1.370286e+002
511875000 -2.202449e-001 -1.353024e+002 -8.305623e+001 -2.753798e+001 -8.142263e+001 1.457022e+002 -1.557656e-001 1.369039e+002
512500000 -2.239133e-001 -1.355777e+002 -7.805260e+001 5.111142e+001 -7.705181e+001 2.017698e+001 -1.615853e-001 1.367458e+002
513125000 -2.470784e-001 -1.359120e+002 -7.720437e+001 -8.431686e+000 -8.043468e+001 1.072962e+002 -1.580304e-001 1.367336e+002
513750000 -2.485863e-001 -1.361150e+002 -7.717616e+001 1.145215e+002 -7.240453e+001 4.127389e+001 -1.640818e-001 1.366347e+002
514375000 -2.604248e-001 -1.364691e+002 -6.992596e+001 7.368594e+001 -7.577901e+001 -7.980915e+000 -1.563312e-001 1.364732e+002
515000000 -2.686471e-001 -1.367401e+002 -7.936235e+001 6.520612e+001 -7.562325e+001 4.005996e+001 -1.479901e-001 1.364154e+002
515625000 -2.784070e-001 -1.371322e+002 -7.591370e+001 1.497275e+002 -7.789243e+001 1.253631e+002 -1.533898e-001 1.363571e+002
516250000 -2.851380e-001 -1.373875e+002 -7.969260e+001 -1.471178e+002 -7.633763e+001 -1.303041e+002 -1.526338e-001 1.362231e+002
516875000 -3.021472e-001 -1.376581e+002 -6.530391e+001 5.197731e+001 -7.620751e+001 4.131750e+001 -1.489912e-001 1.362393e+002
517500000 -3.046557e-001 -1.380090e+002 -7.206860e+001 1.268421e+002 -8.309568e+001 -1.918484e+001 -1.552082e-001 1.362001e+002
518125000 -3.140401e-001 -1.383118e+002 -6.849563e+001 1.626076e+002 -7.515080e+001 -3.599237e+001 -1.473108e-001 1.361375e+002
518750000 -3.241798e-001 -1.386231e+002 -8.017250e+001 1.511798e+002 -8.748743e+001 -5.022190e+001 -1.439884e-001 1.361074e+002
519375000 -3.328083e-001 -1.388470e+002 -7.637278e+001 -6.415678e+001 -8.650122e+001 1.202525e+002 -1.360147e-001 1.361101e+002
520000000 -3.334862e-001 -1.392073e+002 -8.206181e+001 1.726257e+002 -8.293053e+001 1.419234e+002 -1.326224e-001 1.360632e+002
520625000 -3.365594e-001 -1.394616e+002 -6.940781e+001 6.704068e+001 -8.466938e+001 -5.241510e+000 -1.391219e-001 1.359695e+002
521250000 -3.511978e-001 -1.397721e+002 -7.706657e+001 5.563996e+001 -8.072777e+001 5.998862e+001 -1.416577e-001 1.360575e+002
521875000 -3.473935e-001 -1.401099e+002 -8.314851e+001 1.507680e+002 -7.172043e+001 -3.147317e+001 -1.316587e-001 1.360694e+002
522500000 -3.483675e-001 -1.403859e+002 -7.308842e+001 9.899126e+001 -7.082185e+001 1.458172e+002 -1.416409e-001 1.359683e+002
523125000 -3.525438e-001 -1.407209e+002 -7.332639e+001 6.091531e+001 -7.803159e+001 -9.450545e+001 -1.501239e-001 1.359477e+002
523750000 -3.402231e-001 -1.409877e+002 -8.210629e+001 -1.543789e+002 -7.685953e+001 8.074556e+001 -1.508149e-001 1.358947e+002
524375000 -3.652575e-001 -1.413021e+002 -7.060067e+001 4.953153e+001 -7.953558e+001 -1.171876e+002 -1.345586e-001 1.358567e+002
525000000 -3.578508e-001 -1.416378e+002 -6.943068e+001 1.355107e+002 -7.863005e+001 9.012975e+001 -1.460884e-001 1.358375e+002
525625000 -3.705985e-001 -1.418374e+002 -8.070049e+001 1.702251e+002 -7.449978e+001 1.365996e+002 -1.552425e-001 1.357411e+002
526250000 -3.673837e-001 -1.421452e+002 -8.303329e+001 -1.149137e+001 -7.111744e+001 1.143735e+002 -1.508320e-001 1.356729e+002
526875000 -3.654378e-001 -1.424284e+002 -8.890430e+001 -8.611794e+001 -7.699610e+001 7.566412e+001 -1.455177e-001 1.356756e+002
527500000 -3.778374e-001 -1.427271e+002 -8.495355e+001 9.704367e+001 -7.748337e+001 5.220249e+001 -1.642455e-001 1.355820e+002
528125000 -3.908246e-001 -1.430266e+002 -7.480284e+001 1.096908e+002 -7.097395e+001 9.044407e+001 -1.529369e-001 1.356153e+002
528750000 -3.851410e-001 -1.433173e+002 -7.468704e+001 4.650766e+001 -7.519530e+001 6.354291e+001 -1.496886e-001 1.356307e+002
529375000 -3.962385e-001 -1.436251e+002 -7.913696e+001 -2.860160e+001 -6.702583e+001 9.452682e+001 -1.584805e-001 1.355161e+002
530000000 -4.094572e-001 -1.439618e+002 -6.930280e+001 2.585541e+001 -7.573779e+001 6.611272e+001 -1.502963e-001 1.354855e+002
530625000 -4.124385e-001 -1.442562e+002 -8.052359e+001 1.656698e+002 -8.439967e+001 -5.209694e+001 -1.529441e-001 1.354137e+002
531250000 -4.166985e-001 -1.445806e+002 -7.759491e+001 1.644632e+002 -7.625115e+001 7.696225e+001 -1.395300e-001 1.353846e+002
531875000 -4.322153e-001 -1.448744e+002 -7.272076e+001 4.113489e+001 -8.257302e+001 -3.873021e+001 -1.531573e-001 1.353437e+002
532500000 -4.387614e-001 -1.451383e+002 -7.453253e+001 5.574985e+000 -8.116022e+001 2.942463e+001 -1.446680e-001 1.353458e+002
533125000 -4.409596e-001 -1.455399e+002 -7.299155e+001 5.757685e+001 -7.956393e+001 -1.709717e+002 -1.525636e-001 1.353201e+002
533750000 -4.455342e-001 -1.458796e+002 -7.043706e+001 -1.056219e+001 -7.359189e+001 6.861298e+001 -1.573781e-001 1.353078e+002
534375000 -4.556662e-001 -1.462062e+002 -7.091513e+001 1.129635e+002 -7.575225e+001 2.995732e+001 -1.438270e-001 1.352042e+002
535000000 -4.698814e-001 -1.465297e+002 -7.248521e+001 5.313776e+001 -8.001160e+001 -5.358017e+001 -1.523340e-001 1.351786e+002
535625000 -4.677895e-001 -1.469264e+002 -7.893718e+001 3.635151e+000 -7.358276e+001 4.172993e+001 -1.482942e-001 1.351236e+002
536250000 -4.720415e-001 -1.472593e+002 -7.423622e+001 1.108928e+002 -7.151874e+001 2.464758e+001 -1.468219e-001 1.350073e+002
536875000 -4.902672e-001 -1.476283e+002 -7.622912e+001 1.865087e+001 -6.938428e+001 1.955869e+001 -1.579934e-001 1.350137e+002
537500000 -4.902515e-001 -1.479185e+002 -8.129790e+001 -1.766754e+002 -7.664249e+001 3.845096e+001 -1.457466e-001 1.350095e+002
538125000 -4.962494e-001 -1.483095e+002 -8.160566e+001 1.802026e+000 -7.348860e+001 5.770858e+001 -1.527126e-001 1.349079e+002
538750000 -5.122123e-001 -1.486273e+002 -7.105433e+001 1.435508e+000 -7.347159e+001 1.193299e+002 -1.545948e-001 1.348323e+002
539375000 -5.234374e-001 -1.489745e+002 -8.033747e+001 3.219109e+001 -7.566827e+001 1.203940e+002 -1.434849e-001 1.348395e+002
540000000 -5.263162e-001 -1.492980e+002 -6.810384e+001 -1.337192e+001 -9.201318e+001 -4.673474e+001 -1.542230e-001 1.347571e+002
540625000 -5.305859e-001 -1.496156e+002 -7.180746e+001 7.817973e+001 -9.013741e+001 1.856636e+001 -1.451153e-001 1.347320e+002
541250000 -5.363244e-001 -1.498843e+002 -8.331146e+001 -2.827553e+001 -7.950732e+001 5.507378e+001 -1.479661e-001 1.346715e+002
541875000 -5.579471e-001 -1.501970e+002 -7.265602e+001 6.127631e+001 -7.670163e+001 8.109207e+001 -1.583763e-001 1.346159e+002
542500000 -5.625044e-001 -1.505335e+002 -6.955856e+001 1.340371e+001 -7.357413e+001 6.223920e+001 -1.501635e-001 1.345883e+002
543125000 -5.613832e-001 -1.509052e+002 -6.934665e+001 6.001357e+001 -7.840337e+001 -1.883930e+001 -1.424605e-001 1.345385e+002
543750000 -5.728273e-001 -1.511676e+002 -7.845271e+001 8.403809e+001 -7.167735e+001 2.789152e+001 -1.524787e-001 1.345715e+002
544375000 -5.893139e-001 -1.514711e+002 -7.141002e+001 2.009716e+001 -7.799218e+001 2.456331e+001 -1.447743e-001 1.345418e+002
545000000 -5.888077e-001 -1.518188e+002 -6.894043e+001 4.490968e+001 -7.426933e+001 7.792187e+001 -1.353865e-001 1.345886e+002
545625000 -5.914478e-001 -1.521171e+002 -7.001347e+001 2.847027e+001 -7.160512e+001 7.354901e+001 -1.399852e-001 1.345752e+002
546250000 -6.123101e-001 -1.524557e+002 -7.633120e+001 7.512492e+001 -7.616509e+001 5.488144e+001 -1.510037e-001 1.345771e+002
546875000 -6.218497e-001 -1.528265e+002 -7.094951e+001 7.716629e+001 -7.013462e+001 4.333189e+001 -1.444439e-001 1.345937e+002
547500000 -6.276343e-001 -1.531424e+002 -7.556626e+001 1.688457e+001 -7.374750e+001 3.219369e+001 -1.486162e-001 1.345688e+002
548125000 -6.489320e-001 -1.534073e+002 -6.906210e+001 4.297250e+001 -7.230510e+001 -3.145642e+001 -1.439105e-001 1.344937e+002
548750000 -6.520393e-001 -1.537851e+002 -7.193488e+001 4.495120e+001 -6.938098e+001 9.854965e+001 -1.604514e-001 1.344645e+002
549375000 -6.631969e-001 -1.541183e+002 -7.774325e+001 1.080632e+002 -7.484360e+001 3.563265e+001 -1.544620e-001 1.343084e+002
550000000 -6.654147e-001 -1.544818e+002 -7.331470e+001 3.274636e+001 -7.315341e+001 3.674701e+001 -1.702688e-001 1.343208e+002
550625000 -6.803674e-001 -1.548406e+002 -9.490839e+001 1.129940e+002 -7.708679e+001 1.190496e+001 -1.660564e-001 1.342401e+002
551250000 -6.759003e-001 -1.551708e+002 -7.164111e+001 -1.121658e+001 -8.173726e+001 4.184507e+001 -1.655737e-001 1.341043e+002
551875000 -6.866610e-001 -1.555775e+002 -7.092722e+001 5.595926e+001 -8.317300e+001 -1.920554e+001 -1.662887e-001 1.340440e+002
552500000 -6.931333e-001 -1.559708e+002 -7.291025e+001 -3.271520e+001 -7.698475e+001 1.292843e+002 -1.655129e-001 1.338891e+002
553125000 -6.981020e-001 -1.563134e+002 -7.371332e+001 8.376103e+001 -7.285574e+001 3.810054e+001 -1.693045e-001 1.338074e+002
553750000 -7.074409e-001 -1.567339e+002 -7.336800e+001 3.251841e+001 -6.787054e+001 3.753618e+001 -1.751453e-001 1.335997e+002
554375000 -7.065994e-001 -1.570930e+002 -6.858440e+001 -3.517887e+000 -7.492397e+001 8.510912e+000 -1.778519e-001 1.335200e+002
555000000 -7.141840e-001 -1.574948e+002 -6.701441e+001 3.310504e+001 -7.372401e+001 6.825455e+001 -1.768064e-001 1.334282e+002
555625000 -7.333479e-001 -1.577742e+002 -6.891631e+001 2.205088e+001 -7.273586e+001 3.179019e+001 -1.605817e-001 1.333853e+002
556250000 -7.390763e-001 -1.581779e+002 -7.212670e+001 5.132504e+001 -6.645233e+001 1.680527e+001 -1.655348e-001 1.332475e+002
556875000 -7.432218e-001 -1.585727e+002 -6.595512e+001 -6.935853e-001 -6.906644e+001 1.729914e+001 -1.726100e-001 1.332056e+002
557500000 -7.545739e-001 -1.589141e+002 -7.289763e+001 1.028613e+001 -6.827485e+001 3.707393e+001 -1.568962e-001 1.331348e+002
558125000 -7.597544e-001 -1.592897e+002 -7.100671e+001 -1.974311e+001 -7.295821e+001 3.208944e+001 -1.621677e-001 1.330841e+002
558750000 -7.649860e-001 -1.596191e+002 -6.743363e+001 8.093904e+000 -7.312205e+001 -4.633245e+000 -1.603460e-001 1.330940e+002
559375000 -7.761306e-001 -1.600222e+002 -7.034644e+001 2.990260e+001 -7.118717e+001 3.973665e+000 -1.548568e-001 1.330970e+002
560000000 -7.910606e-001 -1.603869e+002 -6.887886e+001 1.096539e+001 -7.221914e+001 3.493362e+001 -1.438611e-001 1.330004e+002
560625000 -8.008077e-001 -1.607581e+002 -7.570203e+001 5.454926e+001 -7.250607e+001 -3.473508e+001 -1.408863e-001 1.330776e+002
561250000 -8.168734e-001 -1.611099e+002 -7.041370e+001 1.790900e+001 -7.927711e+001 -5.468762e+000 -1.414981e-001 1.330055e+002
561875000 -8.323531e-001 -1.615325e+002 -6.875401e+001 -3.236107e+001 -6.913204e+001 3.877193e+001 -1.490493e-001 1.330923e+002
562500000 -8.505521e-001 -1.618978e+002 -6.996040e+001 1.329602e+001 -7.677784e+001 6.222630e+000 -1.424439e-001 1.330960e+002
563125000 -8.531763e-001 -1.622583e+002 -6.699249e+001 -2.071981e+000 -6.846548e+001 1.376110e+001 -1.454113e-001 1.330772e+002
563750000 -8.842357e-001 -1.626736e+002 -7.398514e+001 3.612767e+001 -7.111158e+001 1.390539e+001 -1.614154e-001 1.330534e+002
564375000 -9.051521e-001 -1.630677e+002 -6.884594e+001 2.035623e+000 -6.893333e+001 -6.394628e+000 -1.602471e-001 1.330353e+002
565000000 -9.179027e-001 -1.635425e+002 -6.737122e+001 2.434673e+001 -6.980908e+001 9.988013e-001 -1.650646e-001 1.329388e+002
565625000 -9.374335e-001 -1.638906e+002 -6.710321e+001 -3.088582e+001 -7.183944e+001 3.100368e+001 -1.710048e-001 1.328444e+002
566250000 -9.637744e-001 -1.643698e+002 -6.625374e+001 -5.239124e-001 -6.764088e+001 6.826734e+000 -1.800763e-001 1.327481e+002
566875000 -9.956067e-001 -1.648090e+002 -6.403986e+001 -2.217536e+001 -6.770992e+001 -2.601660e-001 -1.790006e-001 1.325548e+002
567500000 -1.014235e+000 -1.652384e+002 -6.957285e+001 -2.067139e+001 -6.506278e+001 -3.622050e+000 -1.749475e-001 1.324783e+002
568125000 -1.042873e+000 -1.655745e+002 -6.741525e+001 -8.044966e+000 -7.447295e+001 -4.367465e+000 -1.797370e-001 1.322889e+002
568750000 -1.062189e+000 -1.659757e+002 -6.407831e+001 -1.075036e+001 -6.961514e+001 -1.108156e+001 -1.881831e-001 1.321583e+002
569375000 -1.087469e+000 -1.664427e+002 -6.412630e+001 -1.070575e+001 -7.758202e+001 -4.433352e+001 -1.772128e-001 1.320418e+002
570000000 -1.106928e+000 -1.668157e+002 -6.929096e+001 -3.655373e+001 -6.941839e+001 -3.196160e+001 -1.878222e-001 1.318099e+002
570625000 -1.116455e+000 -1.671978e+002 -6.458997e+001 -2.318065e+001 -6.925338e+001 -8.748865e+000 -1.842052e-001 1.317124e+002
571250000 -1.137033e+000 -1.676051e+002 -6.517180e+001 -2.803177e+001 -6.403101e+001 -2.636591e+001 -1.844545e-001 1.315966e+002
571875000 -1.152951e+000 -1.679641e+002 -7.339400e+001 1.007888e+001 -6.508453e+001 -1.934659e+001 -1.752004e-001 1.314227e+002
572500000 -1.167948e+000 -1.683507e+002 -6.612110e+001 -6.180374e+001 -6.859457e+001 -1.530078e+001 -1.713855e-001 1.313257e+002
573125000 -1.178277e+000 -1.687149e+002 -6.720917e+001 -9.129671e-001 -6.643215e+001 -2.104643e+001 -1.698787e-001 1.312624e+002
573750000 -1.186691e+000 -1.691148e+002 -6.399363e+001 -1.064327e+001 -6.276863e+001 -3.678296e+001 -1.757863e-001 1.311596e+002
574375000 -1.199388e+000 -1.695130e+002 -6.461581e+001 -5.047385e+001 -6.720196e+001 -7.072321e+001 -1.651286e-001 1.311100e+002
575000000 -1.209677e+000 -1.699457e+002 -6.434880e+001 -4.758350e+001 -6.661856e+001 -5.538833e+001 -1.630756e-001 1.310822e+002
575625000 -1.225815e+000 -1.703640e+002 -6.801928e+001 -3.484628e+001 -7.422040e+001 -3.080704e+001 -1.589634e-001 1.310257e+002
576250000 -1.234430e+000 -1.707605e+002 -6.344163e+001 -6.150618e+001 -6.614050e+001 -3.051221e+001 -1.630707e-001 1.309982e+002
576875000 -1.260620e+000 -1.711822e+002 -6.723136e+001 -3.513037e+001 -7.140056e+001 -5.062188e+001 -1.639065e-001 1.310253e+002
577500000 -1.285977e+000 -1.715595e+002 -7.031723e+001 -6.139598e+001 -6.657942e+001 -5.125888e+001 -1.535400e-001 1.309312e+002
578125000 -1.303468e+000 -1.719796e+002 -6.485329e+001 -5.381979e+001 -6.574077e+001 -5.533683e+001 -1.582733e-001 1.309782e+002
578750000 -1.315423e+000 -1.723515e+002 -6.807513e+001 -3.233871e+001 -6.409685e+001 -5.000198e+001 -1.501416e-001 1.308845e+002
579375000 -1.336639e+000 -1.727058e+002 -6.497129e+001 -5.762441e+001 -6.801078e+001 -2.982642e+001 -1.600906e-001 1.308254e+002
580000000 -1.358772e+000 -1.730758e+002 -7.731631e+001 -8.143722e+001 -7.000980e+001 -5.731593e+001 -1.589250e-001 1.307619e+002
580625000 -1.367654e+000 -1.735114e+002 -6.669431e+001 -6.430766e+001 -6.766295e+001 -4.882795e+001 -1.566028e-001 1.307572e+002
581250000 -1.393705e+000 -1.739782e+002 -6.421541e+001 -2.770803e+001 -6.778237e+001 -2.328044e+001 -1.639198e-001 1.307098e+002
581875000 -1.411750e+000 -1.744418e+002 -6.603835e+001 -5.417038e+001 -6.915838e+001 -3.593869e+001 -1.701342e-001 1.305841e+002
582500000 -1.436731e+000 -1.749293e+002 -7.576284e+001 -6.311394e+001 -6.821867e+001 -1.694223e+001 -1.659357e-001 1.305117e+002
583125000 -1.459125e+000 -1.754835e+002 -6.518847e+001 -1.981316e+001 -8.043480e+001 -1.267342e+001 -1.855731e-001 1.303126e+002
583750000 -1.498142e+000 -1.760121e+002 -6.660469e+001 -3.515297e+001 -6.629703e+001 -5.504074e+001 -1.878674e-001 1.303111e+002
584375000 -1.530262e+000 -1.765477e+002 -6.550920e+001 -5.612244e+001 -7.121212e+001 -4.036354e+001 -1.704528e-001 1.301657e+002
585000000 -1.569987e+000 -1.770283e+002 -7.044796e+001 -7.137265e+001 -6.523357e+001 -4.085820e+001 -1.776064e-001 1.300461e+002
585625000 -1.602409e+000 -1.774363e+002 -6.402979e+001 -7.543388e+001 -6.784812e+001 -5.725567e+001 -1.675340e-001 1.299470e+002
586250000 -1.625934e+000 -1.779555e+002 -6.948231e+001 -4.966568e+001 -6.152105e+001 -5.142535e+001 -1.701768e-001 1.299726e+002
586875000 -1.657607e+000 -1.785020e+002 -6.536248e+001 -5.586002e+001 -6.383628e+001 -8.050553e+001 -1.716159e-001 1.298916e+002
587500000 -1.693609e+000 -1.789664e+002 -6.281371e+001 -5.797795e+001 -6.184885e+001 -4.943531e+001 -1.595168e-001 1.298036e+002
588125000 -1.723581e+000 -1.794198e+002 -6.529991e+001 -6.504807e+001 -6.311989e+001 -5.832471e+001 -1.645074e-001 1.297874e+002
588750000 -1.755906e+000 -1.799095e+002 -6.283209e+001 -8.283385e+001 -6.540617e+001 -6.683603e+001 -1.644108e-001 1.298226e+002
589375000 -1.783931e+000 1.796577e+002 -6.424296e+001 -7.294270e+001 -6.279453e+001 -7.076518e+001 -1.552970e-001 1.297677e+002
590000000 -1.830154e+000 1.791540e+002 -6.672530e+001 -6.129539e+001 -6.299776e+001 -6.970514e+001 -1.514503e-001 1.297959e+002
590625000 -1.865287e+000 1.787402e+002 -6.682859e+001 -9.634851e+001 -6.382301e+001 -6.006274e+001 -1.518481e-001 1.297322e+002
591250000 -1.901592e+000 1.783384e+002 -6.807710e+001 -9.282788e+001 -6.411737e+001 -6.919152e+001 -1.427313e-001 1.297993e+002
591875000 -1.952986e+000 1.780297e+002 -6.316602e+001 -5.538430e+001 -6.302071e+001 -1.005476e+002 -1.463751e-001 1.298049e+002
592500000 -1.991699e+000 1.776272e+002 -6.152023e+001 -7.225185e+001 -6.249035e+001 -8.275060e+001 -1.486517e-001 1.298936e+002
593125000 -2.032342e+000 1.772854e+002 -6.362248e+001 -7.502579e+001 -6.486057e+001 -6.663204e+001 -1.565471e-001 1.299131e+002
593750000 -2.072534e+000 1.769267e+002 -6.842482e+001 -8.059548e+001 -6.352808e+001 -6.397792e+001 -1.483758e-001 1.299798e+002
594375000 -2.107123e+000 1.766879e+002 -6.423105e+001 -8.328993e+001 -6.644942e+001 -7.982945e+001 -1.434908e-001 1.299719e+002
595000000 -2.134308e+000 1.763866e+002 -6.353289e+001 -9.619128e+001 -6.492535e+001 -8.767347e+001 -1.598793e-001 1.299478e+002
595625000 -2.174467e+000 1.760382e+002 -6.294306e+001 -6.599889e+001 -6.477443e+001 -9.573669e+001 -1.580238e-001 1.299609e+002
