!Agilent Technologies,E8364B,US42250235,A.06.04.32
!Agilent E8364B: A.06.04.32
!Date: Friday, January 15, 2021 15:15:06
!Correction: S11(Full 2 Port(1,2)) S21(Full 2 Port(1,2)) S12(Full 2 Port(1,2)) S22(Full 2 Port(1,2)) 
!S2P File: Measurements: S11, S21, S12, S22:
# Hz S  dB   R 50
500000000 -1.405194e-001 -1.298623e+002 -7.237973e+001 1.505916e+002 -7.581691e+001 1.715389e+002 -1.451048e-001 1.384642e+002
500625000 -1.412373e-001 -1.301220e+002 -7.393681e+001 1.370549e+002 -7.854858e+001 1.002742e+001 -1.463368e-001 1.384549e+002
501250000 -1.589164e-001 -1.304333e+002 -8.489371e+001 1.752342e+000 -7.829292e+001 1.071098e+002 -1.467322e-001 1.383322e+002
501875000 -1.470978e-001 -1.307145e+002 -7.311912e+001 -7.326046e+001 -7.569613e+001 1.200241e+002 -1.440673e-001 1.383062e+002
502500000 -1.603432e-001 -1.310192e+002 -7.338522e+001 -1.757905e+002 -7.245296e+001 -1.414680e+002 -1.438775e-001 1.383526e+002
503125000 -1.633128e-001 -1.313379e+002 -7.766401e+001 1.321899e+002 -7.468098e+001 -1.474171e+002 -1.388528e-001 1.381711e+002
503750000 -1.599366e-001 -1.316105e+002 -7.358334e+001 7.745335e+001 -7.373913e+001 -1.536622e+002 -1.492223e-001 1.381152e+002
504375000 -1.687197e-001 -1.318835e+002 -7.986935e+001 -1.834209e+001 -7.118743e+001 1.314712e+002 -1.503610e-001 1.381074e+002
505000000 -1.721592e-001 -1.321694e+002 -7.372476e+001 1.532493e+002 -8.147157e+001 1.526414e+002 -1.569769e-001 1.380799e+002
505625000 -1.624568e-001 -1.324334e+002 -7.215500e+001 1.767016e+002 -7.185238e+001 6.439493e+001 -1.474351e-001 1.379886e+002
506250000 -1.670510e-001 -1.327246e+002 -7.420300e+001 9.187703e+001 -7.619385e+001 1.024610e+002 -1.528168e-001 1.378901e+002
506875000 -1.637516e-001 -1.330220e+002 -7.102354e+001 8.304628e+001 -7.389860e+001 -1.767836e+002 -1.529455e-001 1.377922e+002
507500000 -1.659523e-001 -1.332937e+002 -7.279884e+001 7.153239e+001 -8.834612e+001 1.138788e+002 -1.567449e-001 1.376647e+002
508125000 -1.744385e-001 -1.336093e+002 -7.790573e+001 1.148219e+002 -7.476839e+001 1.362676e+002 -1.490694e-001 1.375524e+002
508750000 -1.722060e-001 -1.338389e+002 -8.016975e+001 1.730002e+002 -7.621684e+001 1.305710e+002 -1.510053e-001 1.374525e+002
509375000 -1.762373e-001 -1.342036e+002 -7.241609e+001 1.408969e+002 -7.034592e+001 1.312310e+002 -1.534028e-001 1.373321e+002
510000000 -1.724983e-001 -1.344898e+002 -6.894056e+001 7.545392e+001 -7.620073e+001 -1.680824e+002 -1.636687e-001 1.371873e+002
510625000 -1.812190e-001 -1.347269e+002 -6.556392e+001 1.508568e+002 -7.641981e+001 1.630031e+002 -1.576967e-001 1.371616e+002
511250000 -1.915702e-001 -1.350139e+002 -7.263311e+001 1.578710e+002 -8.123377e+001 1.423878e+002 -1.656765e-001 1.369411e+002
511875000 -1.880560e-001 -1.353057e+002 -6.944988e+001 1.284082e+002 -7.273290e+001 1.170915e+002 -1.528409e-001 1.368540e+002
512500000 -1.981130e-001 -1.356019e+002 -7.454403e+001 -1.785444e+002 -6.942745e+001 9.799766e+001 -1.559854e-001 1.367346e+002
513125000 -2.151723e-001 -1.358645e+002 -6.713879e+001 1.150263e+002 -7.021816e+001 9.899515e+001 -1.589603e-001 1.366979e+002
513750000 -2.157566e-001 -1.361400e+002 -6.856541e+001 1.207846e+002 -7.071679e+001 1.393695e+002 -1.560702e-001 1.365473e+002
514375000 -2.212849e-001 -1.364853e+002 -7.270285e+001 -1.798753e+002 -7.224854e+001 9.871736e+001 -1.511013e-001 1.364385e+002
515000000 -2.239498e-001 -1.367179e+002 -6.691916e+001 9.186779e+001 -7.880807e+001 -3.494606e+001 -1.364832e-001 1.364206e+002
515625000 -2.389781e-001 -1.371005e+002 -6.641265e+001 1.285226e+002 -6.906353e+001 9.337870e+001 -1.426161e-001 1.362754e+002
516250000 -2.436743e-001 -1.373957e+002 -7.070673e+001 1.049129e+002 -9.481200e+001 5.827226e+001 -1.437401e-001 1.362339e+002
516875000 -2.587872e-001 -1.377028e+002 -7.702232e+001 -2.992660e+001 -6.988883e+001 9.405426e+001 -1.384770e-001 1.362448e+002
517500000 -2.565962e-001 -1.380172e+002 -7.630907e+001 3.098088e+001 -6.867785e+001 1.596556e+002 -1.489438e-001 1.361821e+002
518125000 -2.625518e-001 -1.383666e+002 -7.996005e+001 7.376931e+001 -6.630451e+001 8.804625e+001 -1.391340e-001 1.360563e+002
518750000 -2.784390e-001 -1.386831e+002 -6.726289e+001 1.140243e+002 -7.079929e+001 1.492805e+002 -1.438429e-001 1.361144e+002
519375000 -2.844784e-001 -1.388753e+002 -6.651426e+001 9.725786e+001 -7.607349e+001 1.278609e+002 -1.338480e-001 1.360339e+002
520000000 -2.907505e-001 -1.392454e+002 -7.011934e+001 9.188521e+001 -7.192034e+001 1.424465e+002 -1.445943e-001 1.360019e+002
520625000 -2.816520e-001 -1.395943e+002 -7.898878e+001 -1.418589e+002 -7.614875e+001 1.536614e+002 -1.368558e-001 1.359459e+002
521250000 -2.968265e-001 -1.399328e+002 -7.008257e+001 9.164967e+001 -7.014268e+001 5.416479e+001 -1.428948e-001 1.359164e+002
521875000 -2.890655e-001 -1.402539e+002 -8.281782e+001 1.786210e+002 -6.909386e+001 8.691688e+001 -1.366341e-001 1.359313e+002
522500000 -2.974476e-001 -1.405707e+002 -6.856268e+001 1.207075e+002 -7.116003e+001 8.133224e+001 -1.464370e-001 1.358698e+002
523125000 -3.025572e-001 -1.409121e+002 -6.857362e+001 1.117997e+002 -7.642381e+001 1.129336e+002 -1.403981e-001 1.358378e+002
523750000 -3.014599e-001 -1.412454e+002 -7.243319e+001 9.874326e+001 -6.927075e+001 9.617694e+001 -1.418855e-001 1.358205e+002
524375000 -3.121664e-001 -1.415273e+002 -7.257349e+001 1.116699e+002 -7.000999e+001 1.286645e+002 -1.366516e-001 1.357871e+002
525000000 -3.156237e-001 -1.418805e+002 -7.139882e+001 1.443006e+002 -6.681621e+001 1.155769e+002 -1.478083e-001 1.357450e+002
525625000 -3.291997e-001 -1.421103e+002 -7.195139e+001 6.600493e+001 -7.074738e+001 8.840900e+001 -1.517385e-001 1.356633e+002
526250000 -3.265381e-001 -1.424287e+002 -9.656265e+001 -1.173467e+002 -7.070911e+001 1.237133e+002 -1.514250e-001 1.355876e+002
526875000 -3.367985e-001 -1.427793e+002 -7.159219e+001 9.049812e+001 -7.151353e+001 5.584343e+001 -1.366427e-001 1.355573e+002
527500000 -3.386261e-001 -1.430612e+002 -7.429127e+001 1.791837e+002 -6.487217e+001 4.988986e+001 -1.453718e-001 1.355135e+002
528125000 -3.585038e-001 -1.433848e+002 -7.221363e+001 6.545113e+000 -6.783426e+001 7.274696e+001 -1.484615e-001 1.355379e+002
528750000 -3.513058e-001 -1.436758e+002 -6.989665e+001 1.008203e+002 -8.269705e+001 2.552599e+001 -1.379620e-001 1.355438e+002
529375000 -3.627317e-001 -1.439842e+002 -7.827469e+001 1.179515e+002 -7.145387e+001 9.677396e+001 -1.487554e-001 1.354358e+002
530000000 -3.670564e-001 -1.443955e+002 -7.066367e+001 5.065639e+001 -7.316827e+001 7.511160e+001 -1.532266e-001 1.354071e+002
530625000 -3.820669e-001 -1.446514e+002 -7.609813e+001 5.598376e+001 -7.121271e+001 5.191786e+001 -1.499329e-001 1.353381e+002
531250000 -3.832851e-001 -1.450185e+002 -7.029590e+001 5.555293e+001 -6.927891e+001 9.196207e+001 -1.398357e-001 1.352964e+002
531875000 -4.000711e-001 -1.453074e+002 -7.798631e+001 4.000312e+001 -7.653318e+001 5.801861e+001 -1.479333e-001 1.352278e+002
532500000 -3.974999e-001 -1.455958e+002 -7.143181e+001 7.689146e+001 -7.755880e+001 5.051744e+001 -1.514165e-001 1.352414e+002
533125000 -4.014445e-001 -1.460075e+002 -6.747273e+001 5.321097e+001 -6.972372e+001 1.110356e+002 -1.548570e-001 1.352077e+002
533750000 -4.149122e-001 -1.463516e+002 -8.729736e+001 8.566447e+001 -7.580585e+001 1.054688e+001 -1.699211e-001 1.351474e+002
534375000 -4.137409e-001 -1.466859e+002 -7.217722e+001 6.506541e+001 -6.632343e+001 6.971948e+001 -1.501400e-001 1.350888e+002
535000000 -4.275313e-001 -1.470223e+002 -7.202137e+001 6.215015e+001 -7.573224e+001 6.002135e+001 -1.596677e-001 1.350527e+002
535625000 -4.382390e-001 -1.474292e+002 -6.926113e+001 6.467481e+001 -7.225605e+001 6.079147e+001 -1.548000e-001 1.350058e+002
536250000 -4.511031e-001 -1.477480e+002 -8.122620e+001 1.291927e+002 -7.623590e+001 -2.271508e+001 -1.495552e-001 1.349306e+002
536875000 -4.583938e-001 -1.481456e+002 -7.005535e+001 5.909191e+001 -6.711765e+001 6.187132e+001 -1.566659e-001 1.348266e+002
537500000 -4.598720e-001 -1.484533e+002 -7.317848e+001 3.790414e+001 -7.481858e+001 2.992725e+001 -1.523367e-001 1.348241e+002
538125000 -4.748346e-001 -1.488231e+002 -8.438903e+001 7.585378e+001 -8.068500e+001 7.173036e+001 -1.526113e-001 1.347925e+002
538750000 -4.937840e-001 -1.491993e+002 -7.161201e+001 9.141238e+001 -7.426498e+001 7.135494e+001 -1.509889e-001 1.347238e+002
539375000 -5.067334e-001 -1.495021e+002 -6.497675e+001 4.360631e+001 -6.808862e+001 7.763094e+001 -1.492812e-001 1.346414e+002
540000000 -5.154512e-001 -1.497975e+002 -7.136881e+001 9.431860e+001 -7.270625e+001 6.629543e+001 -1.509401e-001 1.346040e+002
540625000 -5.258321e-001 -1.502260e+002 -7.303219e+001 6.423452e+001 -6.868714e+001 7.689583e+001 -1.462726e-001 1.345368e+002
541250000 -5.310196e-001 -1.505423e+002 -7.522266e+001 9.566423e+001 -6.693255e+001 1.075395e+002 -1.429269e-001 1.345257e+002
541875000 -5.438204e-001 -1.508432e+002 -6.538144e+001 5.231705e+001 -7.238575e+001 2.389084e+001 -1.432359e-001 1.344577e+002
542500000 -5.599909e-001 -1.511885e+002 -7.866608e+001 6.322957e+001 -7.151736e+001 5.340275e+001 -1.415992e-001 1.344471e+002
543125000 -5.613897e-001 -1.515156e+002 -7.278842e+001 5.568659e+001 -7.506644e+001 7.026688e+001 -1.285751e-001 1.344188e+002
543750000 -5.705361e-001 -1.518500e+002 -6.510202e+001 6.604411e+001 -6.671951e+001 4.715773e+001 -1.452015e-001 1.344087e+002
544375000 -5.877612e-001 -1.521642e+002 -6.758678e+001 9.360277e+000 -7.162665e+001 1.283857e+001 -1.350224e-001 1.343631e+002
545000000 -5.936303e-001 -1.525072e+002 -7.155084e+001 9.942355e+001 -7.937923e+001 1.854090e+001 -1.341657e-001 1.344543e+002
545625000 -6.097141e-001 -1.528811e+002 -7.346474e+001 4.072979e+001 -6.878091e+001 1.635170e+001 -1.452948e-001 1.344714e+002
546250000 -6.347227e-001 -1.531770e+002 -6.912371e+001 8.210359e+001 -7.128392e+001 4.162283e+001 -1.465194e-001 1.343740e+002
546875000 -6.443688e-001 -1.535687e+002 -6.756782e+001 3.493010e+001 -6.972134e+001 3.053084e+001 -1.481239e-001 1.344050e+002
547500000 -6.597648e-001 -1.539250e+002 -7.840470e+001 2.608012e+001 -7.013867e+001 2.074475e+001 -1.502158e-001 1.344160e+002
548125000 -6.748031e-001 -1.542415e+002 -7.010043e+001 5.982320e+001 -6.884359e+001 7.641520e+000 -1.420813e-001 1.343254e+002
548750000 -6.929454e-001 -1.546013e+002 -6.838950e+001 4.095598e+001 -6.813678e+001 4.712039e+001 -1.525917e-001 1.342939e+002
549375000 -7.026094e-001 -1.549320e+002 -7.030455e+001 2.932337e+001 -6.684391e+001 3.697094e+000 -1.594111e-001 1.341772e+002
550000000 -7.167854e-001 -1.553106e+002 -7.506315e+001 5.628402e+001 -7.222971e+001 -2.920833e+001 -1.567457e-001 1.341704e+002
550625000 -7.274120e-001 -1.556359e+002 -7.413751e+001 -8.892890e+000 -7.260011e+001 6.852982e+001 -1.639724e-001 1.340826e+002
551250000 -7.350024e-001 -1.559479e+002 -8.757994e+001 1.122206e+002 -6.910986e+001 4.082423e+001 -1.606827e-001 1.339714e+002
551875000 -7.481575e-001 -1.563513e+002 -7.110575e+001 9.793437e+001 -6.809439e+001 1.828563e+001 -1.616238e-001 1.339126e+002
552500000 -7.535487e-001 -1.567180e+002 -7.004892e+001 3.553520e+001 -6.895764e+001 5.634200e+001 -1.574271e-001 1.337294e+002
553125000 -7.598096e-001 -1.570398e+002 -6.995299e+001 8.179224e+001 -6.766893e+001 3.327537e+001 -1.703596e-001 1.336963e+002
553750000 -7.814245e-001 -1.574105e+002 -6.757271e+001 5.068142e+001 -7.229276e+001 1.953371e+001 -1.727143e-001 1.335045e+002
554375000 -7.881700e-001 -1.577619e+002 -6.940750e+001 2.159130e+001 -7.229861e+001 8.083468e+001 -1.611719e-001 1.334986e+002
555000000 -8.065653e-001 -1.581831e+002 -6.931181e+001 1.136869e+001 -6.724377e+001 2.166958e+001 -1.650796e-001 1.334060e+002
555625000 -8.257204e-001 -1.584858e+002 -6.508859e+001 1.915319e+001 -7.459547e+001 3.547591e+001 -1.594084e-001 1.332882e+002
556250000 -8.361436e-001 -1.588947e+002 -6.746100e+001 3.069543e+001 -6.736375e+001 1.861062e+001 -1.719140e-001 1.331647e+002
556875000 -8.359550e-001 -1.592565e+002 -7.080812e+001 3.033578e+001 -6.496318e+001 1.920568e+001 -1.664992e-001 1.331691e+002
557500000 -8.598099e-001 -1.595958e+002 -6.664845e+001 9.051721e+000 -6.968095e+001 2.047709e+001 -1.535988e-001 1.330672e+002
558125000 -8.722897e-001 -1.599249e+002 -6.945321e+001 1.574554e+001 -6.721581e+001 2.158555e+000 -1.669790e-001 1.330842e+002
558750000 -8.868763e-001 -1.603051e+002 -6.711274e+001 2.882877e+001 -7.080555e+001 1.374691e+001 -1.513922e-001 1.330112e+002
559375000 -9.035434e-001 -1.606733e+002 -6.839054e+001 1.095580e+001 -6.904841e+001 2.314453e+001 -1.501084e-001 1.330161e+002
560000000 -9.241365e-001 -1.610518e+002 -6.884957e+001 -9.032359e+000 -6.611414e+001 9.008979e+000 -1.459912e-001 1.329525e+002
560625000 -9.505631e-001 -1.613447e+002 -7.126241e+001 4.619394e+001 -6.887086e+001 -9.916404e+000 -1.422116e-001 1.329748e+002
561250000 -9.716992e-001 -1.617319e+002 -6.871539e+001 4.207470e+001 -6.333512e+001 -2.406408e+000 -1.458409e-001 1.329467e+002
561875000 -9.807847e-001 -1.620739e+002 -6.993979e+001 2.331905e+001 -6.927573e+001 -6.655802e-001 -1.498973e-001 1.329669e+002
562500000 -1.003400e+000 -1.623923e+002 -6.482720e+001 2.589793e+001 -6.540285e+001 1.563576e+001 -1.532560e-001 1.329249e+002
563125000 -1.019261e+000 -1.627406e+002 -6.596478e+001 -8.205016e+000 -6.519812e+001 -4.999342e+000 -1.473917e-001 1.329295e+002
563750000 -1.048646e+000 -1.631510e+002 -6.948528e+001 -5.550873e+000 -6.670230e+001 -5.723196e+000 -1.588082e-001 1.329143e+002
564375000 -1.071577e+000 -1.634776e+002 -7.075359e+001 3.370729e+001 -6.842620e+001 1.847261e+000 -1.602279e-001 1.328997e+002
565000000 -1.092418e+000 -1.639489e+002 -7.455525e+001 -1.276062e+001 -6.365897e+001 -1.195695e+001 -1.689837e-001 1.327924e+002
565625000 -1.116986e+000 -1.642965e+002 -6.540002e+001 -3.086929e+000 -6.549571e+001 1.083817e+001 -1.715899e-001 1.327247e+002
566250000 -1.147823e+000 -1.647422e+002 -6.428865e+001 -4.849618e+000 -6.632169e+001 2.540325e+001 -1.690248e-001 1.326526e+002
566875000 -1.180305e+000 -1.650973e+002 -6.916049e+001 -5.396917e-001 -6.663132e+001 -1.816748e+001 -1.724008e-001 1.324333e+002
567500000 -1.211084e+000 -1.654955e+002 -6.606661e+001 5.970829e+000 -6.545820e+001 4.436695e+000 -1.675542e-001 1.323773e+002
568125000 -1.238908e+000 -1.658193e+002 -6.419165e+001 -4.671113e+000 -6.923770e+001 -6.301395e+000 -1.809477e-001 1.322495e+002
568750000 -1.264595e+000 -1.661848e+002 -6.503660e+001 -1.098480e+001 -6.834926e+001 -1.100353e+001 -1.847444e-001 1.320724e+002
569375000 -1.297011e+000 -1.666001e+002 -6.585609e+001 -5.689885e+000 -6.639658e+001 4.455938e+000 -1.715673e-001 1.320059e+002
570000000 -1.317374e+000 -1.669149e+002 -6.512809e+001 -2.397839e+001 -6.819287e+001 -3.577636e+001 -1.796627e-001 1.318065e+002
570625000 -1.340951e+000 -1.672275e+002 -6.962011e+001 -3.233431e+001 -6.487209e+001 -3.395822e+001 -1.711579e-001 1.317170e+002
571250000 -1.367796e+000 -1.675130e+002 -6.533957e+001 -2.648763e+001 -6.394535e+001 -2.881433e+001 -1.706600e-001 1.316093e+002
571875000 -1.385415e+000 -1.678424e+002 -6.909722e+001 -5.730139e+000 -6.649899e+001 -2.459210e+001 -1.612190e-001 1.315054e+002
572500000 -1.400962e+000 -1.681265e+002 -6.678616e+001 -1.722117e+001 -6.492120e+001 -2.489104e+001 -1.674498e-001 1.313451e+002
573125000 -1.411547e+000 -1.683877e+002 -6.734838e+001 -2.069282e+001 -6.325625e+001 -6.103894e-001 -1.557413e-001 1.313465e+002
573750000 -1.417129e+000 -1.687009e+002 -6.835142e+001 1.998058e+000 -6.656893e+001 -4.279207e+001 -1.684630e-001 1.311956e+002
574375000 -1.428077e+000 -1.690357e+002 -6.879317e+001 -6.718516e+001 -6.510022e+001 -3.596047e+001 -1.618941e-001 1.311884e+002
575000000 -1.438888e+000 -1.694057e+002 -6.623842e+001 -1.198972e+001 -6.764562e+001 -2.518497e+001 -1.625515e-001 1.311183e+002
575625000 -1.451763e+000 -1.697491e+002 -6.910175e+001 -4.008049e+001 -6.877974e+001 -2.348474e+001 -1.670842e-001 1.310806e+002
576250000 -1.463773e+000 -1.700655e+002 -7.121931e+001 -4.606751e+001 -6.557649e+001 -3.857328e+001 -1.702988e-001 1.311040e+002
576875000 -1.485795e+000 -1.703798e+002 -6.516005e+001 -3.738030e+001 -6.750121e+001 -5.691257e+001 -1.566822e-001 1.310233e+002
577500000 -1.500379e+000 -1.706692e+002 -6.627189e+001 -4.883332e+001 -6.337846e+001 -4.171291e+001 -1.547982e-001 1.309543e+002
578125000 -1.520375e+000 -1.709876e+002 -6.633576e+001 -4.472171e+001 -6.330056e+001 -5.418523e+001 -1.563735e-001 1.310224e+002
578750000 -1.529443e+000 -1.713114e+002 -6.516145e+001 -6.353697e+001 -6.453296e+001 -6.571051e+001 -1.565183e-001 1.309127e+002
579375000 -1.534090e+000 -1.716333e+002 -6.549219e+001 -5.636929e+001 -6.832510e+001 -2.444957e+001 -1.559458e-001 1.308458e+002
580000000 -1.540538e+000 -1.719929e+002 -6.753421e+001 -3.329185e+001 -7.139261e+001 -3.908861e+001 -1.623046e-001 1.308046e+002
580625000 -1.553810e+000 -1.723508e+002 -6.708975e+001 -6.369267e+001 -6.852959e+001 -4.892278e+001 -1.573566e-001 1.307930e+002
581250000 -1.576022e+000 -1.727855e+002 -6.391838e+001 -4.301267e+001 -6.681581e+001 -5.949627e+001 -1.542426e-001 1.306845e+002
581875000 -1.590012e+000 -1.732553e+002 -6.632725e+001 -5.682367e+001 -6.585220e+001 -5.913895e+001 -1.650863e-001 1.306248e+002
582500000 -1.618105e+000 -1.736816e+002 -6.642916e+001 -2.072802e+001 -6.551289e+001 -5.244698e+001 -1.700744e-001 1.305036e+002
583125000 -1.630863e+000 -1.741481e+002 -7.014142e+001 -8.066266e+001 -6.712240e+001 -6.197279e+001 -1.801268e-001 1.303951e+002
583750000 -1.661693e+000 -1.746008e+002 -6.503142e+001 -6.374377e+001 -6.766469e+001 -5.472456e+001 -1.814533e-001 1.302369e+002
584375000 -1.686624e+000 -1.750193e+002 -6.524968e+001 -3.433026e+001 -6.955532e+001 -3.235772e+001 -1.731778e-001 1.302182e+002
585000000 -1.715312e+000 -1.754881e+002 -7.439942e+001 -1.010082e+002 -6.426651e+001 -5.456442e+001 -1.714285e-001 1.300534e+002
585625000 -1.749370e+000 -1.758375e+002 -6.909750e+001 -5.830586e+001 -6.332325e+001 -5.762942e+001 -1.671176e-001 1.299672e+002
586250000 -1.779099e+000 -1.763229e+002 -6.799088e+001 -4.639667e+001 -6.947010e+001 -6.090900e+001 -1.679749e-001 1.300436e+002
586875000 -1.796400e+000 -1.767311e+002 -6.505479e+001 -6.616283e+001 -6.691668e+001 -6.105735e+001 -1.664502e-001 1.298734e+002
587500000 -1.826147e+000 -1.771739e+002 -6.674632e+001 -4.952439e+001 -6.561680e+001 -6.521889e+001 -1.624410e-001 1.297918e+002
588125000 -1.852416e+000 -1.775210e+002 -6.471582e+001 -3.743495e+001 -6.518015e+001 -2.862814e+001 -1.563320e-001 1.297662e+002
588750000 -1.878739e+000 -1.779625e+002 -6.360192e+001 -4.195607e+001 -6.430244e+001 -4.675357e+001 -1.630968e-001 1.297329e+002
589375000 -1.894345e+000 -1.782950e+002 -6.572867e+001 -5.139853e+001 -6.777655e+001 -7.092266e+001 -1.402292e-001 1.297223e+002
590000000 -1.929051e+000 -1.786813e+002 -6.572689e+001 -4.636408e+001 -6.348521e+001 -7.310916e+001 -1.539846e-001 1.296978e+002
590625000 -1.957925e+000 -1.790001e+002 -6.406352e+001 -4.818934e+001 -6.524444e+001 -7.849947e+001 -1.509113e-001 1.297466e+002
591250000 -1.974551e+000 -1.793208e+002 -6.418862e+001 -6.992684e+001 -6.454114e+001 -6.030049e+001 -1.493415e-001 1.297183e+002
591875000 -2.007095e+000 -1.795915e+002 -6.485564e+001 -4.068516e+001 -6.447739e+001 -4.791366e+001 -1.469794e-001 1.296917e+002
592500000 -2.029150e+000 -1.799362e+002 -6.321954e+001 -4.494548e+001 -6.308542e+001 -6.574036e+001 -1.533463e-001 1.297539e+002
593125000 -2.056687e+000 1.798407e+002 -6.501104e+001 -4.774190e+001 -6.415685e+001 -6.581493e+001 -1.554758e-001 1.298012e+002
593750000 -2.072479e+000 1.795453e+002 -6.747528e+001 -6.987988e+001 -6.363746e+001 -7.437173e+001 -1.469206e-001 1.298564e+002
594375000 -2.073326e+000 1.793616e+002 -6.253328e+001 -6.143083e+001 -6.301841e+001 -8.198773e+001 -1.388223e-001 1.298767e+002
595000000 -2.085627e+000 1.789981e+002 -6.438300e+001 -5.778750e+001 -6.461148e+001 -8.607536e+001 -1.584620e-001 1.299109e+002
595625000 -2.080913e+000 1.786577e+002 -6.216012e+001 -8.781466e+001 -6.379253e+001 -7.552686e+001 -1.517486e-001 1.299377e+002
