!Agilent Technologies,E8364B,US42250235,A.06.04.32
!Agilent E8364B: A.06.04.32
!Date: Friday, January 15, 2021 14:29:24
!Correction: S11(Full 2 Port(1,2)) S21(Full 2 Port(1,2)) S12(Full 2 Port(1,2)) S22(Full 2 Port(1,2)) 
!S2P File: Measurements: S11, S21, S12, S22:
# Hz S  dB   R 50
500000000 -6.205143e-002 -1.301057e+002 -6.891933e+001 1.769412e+002 -7.152254e+001 -1.511263e+002 -1.426809e-001 1.376370e+002
500625000 -6.254353e-002 -1.303124e+002 -6.750372e+001 -1.259407e+002 -7.206573e+001 -1.369040e+002 -1.512493e-001 1.375803e+002
501250000 -7.023076e-002 -1.305914e+002 -6.443634e+001 -1.667809e+002 -6.811073e+001 -1.731000e+002 -1.463710e-001 1.375373e+002
501875000 -6.159947e-002 -1.308974e+002 -6.739854e+001 -1.745152e+002 -6.891639e+001 -1.414150e+002 -1.460335e-001 1.375113e+002
502500000 -6.561120e-002 -1.312048e+002 -6.544603e+001 1.761887e+002 -6.500082e+001 -1.465572e+002 -1.388827e-001 1.374338e+002
503125000 -7.253298e-002 -1.314730e+002 -7.365429e+001 -1.421849e+002 -6.859426e+001 -1.404237e+002 -1.502967e-001 1.373206e+002
503750000 -6.821937e-002 -1.317804e+002 -8.154552e+001 -1.615396e+002 -6.826014e+001 -1.107623e+002 -1.540387e-001 1.371980e+002
504375000 -8.138538e-002 -1.320884e+002 -6.383881e+001 -1.569748e+002 -6.538497e+001 -1.673686e+002 -1.636313e-001 1.371701e+002
505000000 -8.537026e-002 -1.324547e+002 -6.641534e+001 -1.681814e+002 -6.847533e+001 -1.410621e+002 -1.646227e-001 1.371237e+002
505625000 -8.026515e-002 -1.326472e+002 -6.992784e+001 -1.603158e+002 -6.646506e+001 -1.547876e+002 -1.619737e-001 1.370034e+002
506250000 -8.586056e-002 -1.330069e+002 -6.589059e+001 -1.570817e+002 -6.531606e+001 -1.618184e+002 -1.622602e-001 1.368815e+002
506875000 -8.623271e-002 -1.332746e+002 -6.266544e+001 -1.734823e+002 -6.277565e+001 -1.749314e+002 -1.560302e-001 1.367677e+002
507500000 -9.413412e-002 -1.335747e+002 -6.308826e+001 -1.620663e+002 -6.580650e+001 -1.553458e+002 -1.580319e-001 1.366192e+002
508125000 -9.787358e-002 -1.339292e+002 -6.387881e+001 -1.585301e+002 -6.456194e+001 -1.603412e+002 -1.571611e-001 1.365538e+002
508750000 -9.906041e-002 -1.341969e+002 -6.776592e+001 -1.653653e+002 -6.697980e+001 -1.553818e+002 -1.578854e-001 1.364729e+002
509375000 -1.028037e-001 -1.345267e+002 -6.708675e+001 -1.620169e+002 -6.483350e+001 -1.620513e+002 -1.526648e-001 1.363943e+002
510000000 -9.982777e-002 -1.348406e+002 -6.580711e+001 -1.643246e+002 -6.662837e+001 -1.585913e+002 -1.589967e-001 1.362312e+002
510625000 -1.031693e-001 -1.351337e+002 -6.182748e+001 -1.643860e+002 -6.417134e+001 -1.713981e+002 -1.485393e-001 1.362387e+002
511250000 -1.096502e-001 -1.354219e+002 -6.351852e+001 1.690393e+002 -7.190400e+001 -1.621762e+002 -1.617031e-001 1.360311e+002
511875000 -1.100354e-001 -1.358052e+002 -6.340097e+001 -1.664189e+002 -6.441362e+001 1.712565e+002 -1.492427e-001 1.359530e+002
512500000 -1.036133e-001 -1.361203e+002 -6.358189e+001 1.793675e+002 -6.422006e+001 1.766067e+002 -1.516814e-001 1.358968e+002
513125000 -1.140038e-001 -1.364691e+002 -6.557979e+001 -1.670385e+002 -6.748240e+001 -1.683995e+002 -1.582375e-001 1.359173e+002
513750000 -1.214545e-001 -1.367261e+002 -6.349990e+001 -1.606408e+002 -6.535760e+001 1.746193e+002 -1.606750e-001 1.357957e+002
514375000 -1.207814e-001 -1.371130e+002 -6.471838e+001 -1.740538e+002 -6.251620e+001 -1.714102e+002 -1.468444e-001 1.356161e+002
515000000 -1.226983e-001 -1.374225e+002 -6.640944e+001 1.755166e+002 -6.434126e+001 -1.697015e+002 -1.419345e-001 1.355804e+002
515625000 -1.362273e-001 -1.378037e+002 -6.315784e+001 -1.707428e+002 -6.513577e+001 1.732551e+002 -1.423354e-001 1.355088e+002
516250000 -1.283524e-001 -1.381423e+002 -6.416047e+001 1.777271e+002 -6.762619e+001 1.789497e+002 -1.548551e-001 1.353987e+002
516875000 -1.466483e-001 -1.384508e+002 -6.262791e+001 -1.757139e+002 -6.295756e+001 1.789616e+002 -1.490774e-001 1.354076e+002
517500000 -1.435312e-001 -1.388238e+002 -6.467112e+001 -1.692357e+002 -6.763836e+001 -1.752126e+002 -1.569661e-001 1.352831e+002
518125000 -1.479782e-001 -1.391584e+002 -6.728997e+001 1.730665e+002 -6.343711e+001 1.729090e+002 -1.504285e-001 1.352393e+002
518750000 -1.506898e-001 -1.395029e+002 -6.533341e+001 1.782858e+002 -6.539765e+001 -1.759458e+002 -1.534239e-001 1.351761e+002
519375000 -1.673681e-001 -1.397641e+002 -6.398407e+001 1.791155e+002 -6.586578e+001 -1.799373e+002 -1.501913e-001 1.351235e+002
520000000 -1.671722e-001 -1.401903e+002 -6.388060e+001 1.790138e+002 -6.223545e+001 -1.743029e+002 -1.525519e-001 1.350111e+002
520625000 -1.724283e-001 -1.405686e+002 -6.437432e+001 -1.790916e+002 -6.402676e+001 -1.733428e+002 -1.424140e-001 1.349290e+002
521250000 -1.806402e-001 -1.408567e+002 -6.358806e+001 -1.790784e+002 -6.412170e+001 -1.661699e+002 -1.459606e-001 1.349105e+002
521875000 -1.830598e-001 -1.412129e+002 -6.444405e+001 1.601593e+002 -6.322070e+001 1.681126e+002 -1.433656e-001 1.348925e+002
522500000 -1.866244e-001 -1.415805e+002 -6.245523e+001 1.723969e+002 -6.080972e+001 1.789296e+002 -1.388904e-001 1.348621e+002
523125000 -2.040778e-001 -1.419462e+002 -6.393072e+001 1.696128e+002 -6.263466e+001 -1.747323e+002 -1.448213e-001 1.348249e+002
523750000 -2.038645e-001 -1.423062e+002 -6.434068e+001 -1.760350e+002 -6.084903e+001 1.682184e+002 -1.414789e-001 1.348002e+002
524375000 -2.192360e-001 -1.426467e+002 -6.019411e+001 1.768865e+002 -6.790999e+001 1.466444e+002 -1.364676e-001 1.347765e+002
525000000 -2.214353e-001 -1.430029e+002 -6.113290e+001 -1.764299e+002 -6.712187e+001 1.726457e+002 -1.455822e-001 1.348194e+002
525625000 -2.364389e-001 -1.432774e+002 -6.338585e+001 1.619077e+002 -6.023705e+001 1.672628e+002 -1.470938e-001 1.347576e+002
526250000 -2.295666e-001 -1.436254e+002 -6.171834e+001 1.665424e+002 -6.124541e+001 1.738080e+002 -1.476395e-001 1.347792e+002
526875000 -2.364487e-001 -1.440173e+002 -6.053739e+001 1.621003e+002 -6.473556e+001 1.503772e+002 -1.346065e-001 1.347697e+002
527500000 -2.543621e-001 -1.443515e+002 -5.996877e+001 1.574206e+002 -6.118868e+001 1.759772e+002 -1.368255e-001 1.347495e+002
528125000 -2.708347e-001 -1.446906e+002 -6.413767e+001 1.765770e+002 -6.077812e+001 1.492590e+002 -1.495392e-001 1.347825e+002
528750000 -2.719793e-001 -1.451027e+002 -6.038490e+001 1.674564e+002 -6.347376e+001 1.603953e+002 -1.351822e-001 1.348230e+002
529375000 -2.830770e-001 -1.454282e+002 -5.896399e+001 1.709950e+002 -5.949747e+001 1.677975e+002 -1.402442e-001 1.347021e+002
530000000 -2.905943e-001 -1.458946e+002 -6.057884e+001 1.586769e+002 -5.871206e+001 1.704900e+002 -1.498534e-001 1.347334e+002
530625000 -3.051171e-001 -1.461942e+002 -6.094319e+001 1.506418e+002 -5.998101e+001 1.567050e+002 -1.540995e-001 1.346476e+002
531250000 -3.143108e-001 -1.466346e+002 -6.044433e+001 1.467266e+002 -6.059146e+001 1.688762e+002 -1.403992e-001 1.345735e+002
531875000 -3.314338e-001 -1.469749e+002 -5.946889e+001 1.512647e+002 -5.929953e+001 1.521546e+002 -1.512745e-001 1.345313e+002
532500000 -3.389930e-001 -1.473237e+002 -6.080107e+001 1.469557e+002 -5.998185e+001 1.470065e+002 -1.614473e-001 1.344963e+002
533125000 -3.456094e-001 -1.477761e+002 -5.947199e+001 1.452549e+002 -5.970231e+001 1.607512e+002 -1.580618e-001 1.344209e+002
533750000 -3.622664e-001 -1.481209e+002 -5.879518e+001 1.654193e+002 -5.985453e+001 1.476293e+002 -1.712835e-001 1.343212e+002
534375000 -3.731518e-001 -1.485707e+002 -5.846178e+001 1.402585e+002 -5.980272e+001 1.557907e+002 -1.577273e-001 1.342909e+002
535000000 -3.859645e-001 -1.488791e+002 -5.846320e+001 1.539031e+002 -6.153148e+001 1.487595e+002 -1.680173e-001 1.342189e+002
535625000 -4.012169e-001 -1.493505e+002 -6.003053e+001 1.607081e+002 -5.864648e+001 1.469646e+002 -1.592039e-001 1.341655e+002
536250000 -4.120032e-001 -1.496906e+002 -5.970105e+001 1.653804e+002 -6.003126e+001 1.468333e+002 -1.485145e-001 1.339846e+002
536875000 -4.290883e-001 -1.501343e+002 -5.955364e+001 1.510680e+002 -5.832515e+001 1.432257e+002 -1.598941e-001 1.339995e+002
537500000 -4.467338e-001 -1.504911e+002 -5.816735e+001 1.502671e+002 -5.975740e+001 1.419806e+002 -1.530632e-001 1.339995e+002
538125000 -4.593407e-001 -1.508926e+002 -5.925399e+001 1.471304e+002 -5.912770e+001 1.375016e+002 -1.536068e-001 1.339679e+002
538750000 -4.837329e-001 -1.513273e+002 -5.673758e+001 1.393049e+002 -5.751703e+001 1.383445e+002 -1.495821e-001 1.339395e+002
539375000 -5.015545e-001 -1.516887e+002 -5.920537e+001 1.543406e+002 -5.780788e+001 1.452144e+002 -1.384171e-001 1.338856e+002
540000000 -5.177578e-001 -1.521274e+002 -5.733216e+001 1.243709e+002 -5.731882e+001 1.408856e+002 -1.389900e-001 1.338388e+002
540625000 -5.404704e-001 -1.525403e+002 -5.638841e+001 1.481781e+002 -5.770746e+001 1.418535e+002 -1.414436e-001 1.338137e+002
541250000 -5.588252e-001 -1.528987e+002 -5.815998e+001 1.333051e+002 -5.797296e+001 1.341170e+002 -1.369278e-001 1.338600e+002
541875000 -5.833517e-001 -1.533013e+002 -5.833611e+001 1.302119e+002 -5.638626e+001 1.368576e+002 -1.477612e-001 1.337911e+002
542500000 -6.050053e-001 -1.536715e+002 -5.660285e+001 1.283646e+002 -5.716394e+001 1.388119e+002 -1.410524e-001 1.338472e+002
543125000 -6.179735e-001 -1.540781e+002 -5.668057e+001 1.316748e+002 -5.767186e+001 1.337403e+002 -1.456539e-001 1.337692e+002
543750000 -6.422774e-001 -1.545088e+002 -5.780092e+001 1.261899e+002 -5.740071e+001 1.310789e+002 -1.471430e-001 1.337804e+002
544375000 -6.746002e-001 -1.549203e+002 -5.691689e+001 1.282242e+002 -5.697364e+001 1.240016e+002 -1.449873e-001 1.337640e+002
545000000 -6.925997e-001 -1.552961e+002 -5.788306e+001 1.274664e+002 -5.501872e+001 1.270147e+002 -1.505153e-001 1.337738e+002
545625000 -7.177306e-001 -1.557202e+002 -5.609338e+001 1.260798e+002 -5.705841e+001 1.271648e+002 -1.458313e-001 1.337525e+002
546250000 -7.557873e-001 -1.560669e+002 -5.536368e+001 1.273978e+002 -5.640042e+001 1.244063e+002 -1.560608e-001 1.336378e+002
546875000 -7.772157e-001 -1.565498e+002 -5.636512e+001 1.270385e+002 -5.685487e+001 1.247066e+002 -1.536379e-001 1.336171e+002
547500000 -8.181167e-001 -1.569184e+002 -5.664801e+001 1.226296e+002 -5.547121e+001 1.242559e+002 -1.618838e-001 1.335886e+002
548125000 -8.473150e-001 -1.572864e+002 -5.674994e+001 1.191968e+002 -5.632468e+001 1.171293e+002 -1.562808e-001 1.335020e+002
548750000 -8.816224e-001 -1.577394e+002 -5.466337e+001 1.250341e+002 -5.624820e+001 1.141205e+002 -1.656665e-001 1.334515e+002
549375000 -9.232463e-001 -1.580628e+002 -5.466941e+001 1.133153e+002 -5.529936e+001 1.170068e+002 -1.669179e-001 1.332147e+002
550000000 -9.506562e-001 -1.584205e+002 -5.434298e+001 1.216412e+002 -5.537526e+001 1.112078e+002 -1.768832e-001 1.332787e+002
550625000 -9.889554e-001 -1.587857e+002 -5.372666e+001 1.182255e+002 -5.428266e+001 1.168878e+002 -1.609336e-001 1.331421e+002
551250000 -1.022348e+000 -1.590733e+002 -5.416683e+001 1.132423e+002 -5.530225e+001 1.051330e+002 -1.634819e-001 1.330593e+002
551875000 -1.065175e+000 -1.593725e+002 -5.338750e+001 1.043914e+002 -5.431158e+001 1.121036e+002 -1.670001e-001 1.329725e+002
552500000 -1.095406e+000 -1.597896e+002 -5.459790e+001 1.003018e+002 -5.382126e+001 1.021428e+002 -1.608553e-001 1.328597e+002
553125000 -1.127280e+000 -1.600490e+002 -5.503076e+001 1.067428e+002 -5.450224e+001 1.090967e+002 -1.663236e-001 1.328106e+002
553750000 -1.176206e+000 -1.604339e+002 -5.427799e+001 1.012429e+002 -5.416020e+001 1.003856e+002 -1.537062e-001 1.327040e+002
554375000 -1.203224e+000 -1.607009e+002 -5.460069e+001 1.004885e+002 -5.339771e+001 1.064617e+002 -1.622013e-001 1.326278e+002
555000000 -1.243516e+000 -1.610858e+002 -5.359977e+001 9.399885e+001 -5.432616e+001 9.269202e+001 -1.676610e-001 1.325839e+002
555625000 -1.300564e+000 -1.613360e+002 -5.432705e+001 9.203574e+001 -5.350160e+001 9.275881e+001 -1.566513e-001 1.325453e+002
556250000 -1.331665e+000 -1.616839e+002 -5.302041e+001 8.966238e+001 -5.321688e+001 9.600647e+001 -1.539490e-001 1.324238e+002
556875000 -1.367288e+000 -1.619540e+002 -5.309967e+001 9.025358e+001 -5.359953e+001 8.726074e+001 -1.627712e-001 1.324272e+002
557500000 -1.415738e+000 -1.622458e+002 -5.301604e+001 8.974915e+001 -5.370959e+001 9.185387e+001 -1.604619e-001 1.323812e+002
558125000 -1.456540e+000 -1.624845e+002 -5.268498e+001 8.654128e+001 -5.327654e+001 9.096768e+001 -1.568885e-001 1.323418e+002
558750000 -1.488697e+000 -1.627562e+002 -5.320562e+001 8.830684e+001 -5.332422e+001 8.412856e+001 -1.541747e-001 1.322333e+002
559375000 -1.543809e+000 -1.630345e+002 -5.307781e+001 8.079604e+001 -5.362951e+001 8.017816e+001 -1.535496e-001 1.322299e+002
560000000 -1.586519e+000 -1.633230e+002 -5.329948e+001 7.844537e+001 -5.298100e+001 8.451102e+001 -1.455473e-001 1.321653e+002
560625000 -1.637861e+000 -1.635502e+002 -5.236776e+001 7.642189e+001 -5.325508e+001 7.910223e+001 -1.515010e-001 1.321050e+002
561250000 -1.678737e+000 -1.637559e+002 -5.150271e+001 7.346131e+001 -5.278723e+001 7.778766e+001 -1.473631e-001 1.320773e+002
561875000 -1.724525e+000 -1.639520e+002 -5.246993e+001 7.100168e+001 -5.311802e+001 7.826910e+001 -1.618731e-001 1.320497e+002
562500000 -1.772378e+000 -1.640743e+002 -5.182127e+001 7.506135e+001 -5.308678e+001 6.611236e+001 -1.596930e-001 1.320187e+002
563125000 -1.804960e+000 -1.642296e+002 -5.198098e+001 6.756194e+001 -5.269299e+001 7.166882e+001 -1.536119e-001 1.319124e+002
563750000 -1.854078e+000 -1.644007e+002 -5.215226e+001 7.016850e+001 -5.234962e+001 7.085725e+001 -1.638246e-001 1.318575e+002
564375000 -1.882423e+000 -1.645402e+002 -5.325116e+001 6.733842e+001 -5.143686e+001 6.859762e+001 -1.686444e-001 1.318521e+002
565000000 -1.917503e+000 -1.647341e+002 -5.124018e+001 6.986497e+001 -5.216005e+001 6.444449e+001 -1.675070e-001 1.317337e+002
565625000 -1.952733e+000 -1.648534e+002 -5.186771e+001 6.224911e+001 -5.203994e+001 6.209612e+001 -1.688616e-001 1.316137e+002
566250000 -1.983179e+000 -1.650470e+002 -5.122763e+001 5.923660e+001 -5.205875e+001 6.063365e+001 -1.678613e-001 1.315883e+002
566875000 -2.028694e+000 -1.651913e+002 -5.170359e+001 5.616932e+001 -5.164339e+001 5.955522e+001 -1.780044e-001 1.313825e+002
567500000 -2.052828e+000 -1.653989e+002 -5.175380e+001 5.749602e+001 -5.187916e+001 5.862930e+001 -1.685400e-001 1.313309e+002
568125000 -2.094503e+000 -1.654981e+002 -5.226149e+001 5.379810e+001 -5.202923e+001 5.888022e+001 -1.815515e-001 1.311801e+002
568750000 -2.126909e+000 -1.655998e+002 -5.150487e+001 5.590332e+001 -5.127760e+001 5.094468e+001 -1.799682e-001 1.310837e+002
569375000 -2.160722e+000 -1.657062e+002 -5.123525e+001 4.618776e+001 -5.201350e+001 4.989682e+001 -1.733040e-001 1.310020e+002
570000000 -2.188236e+000 -1.658297e+002 -5.206113e+001 4.427694e+001 -5.109236e+001 4.488144e+001 -1.791336e-001 1.307711e+002
570625000 -2.204895e+000 -1.658574e+002 -5.072095e+001 4.627161e+001 -5.160539e+001 4.477621e+001 -1.684677e-001 1.307930e+002
571250000 -2.231070e+000 -1.659065e+002 -5.061136e+001 4.024676e+001 -5.115237e+001 4.235015e+001 -1.767372e-001 1.306680e+002
571875000 -2.244060e+000 -1.660069e+002 -5.164912e+001 4.729763e+001 -5.178130e+001 4.099634e+001 -1.659285e-001 1.304874e+002
572500000 -2.254898e+000 -1.660635e+002 -5.129535e+001 4.182903e+001 -5.139420e+001 3.646542e+001 -1.732624e-001 1.304251e+002
573125000 -2.270979e+000 -1.661380e+002 -5.156997e+001 3.891779e+001 -5.147015e+001 3.987283e+001 -1.667124e-001 1.302928e+002
573750000 -2.265205e+000 -1.661909e+002 -5.194355e+001 3.456416e+001 -5.108569e+001 3.227959e+001 -1.761581e-001 1.302238e+002
574375000 -2.269397e+000 -1.663058e+002 -5.180507e+001 3.224506e+001 -5.105064e+001 3.455123e+001 -1.613119e-001 1.302148e+002
575000000 -2.274690e+000 -1.664314e+002 -5.102235e+001 3.182380e+001 -5.189536e+001 3.087516e+001 -1.636847e-001 1.300409e+002
575625000 -2.272524e+000 -1.665280e+002 -5.113342e+001 2.907093e+001 -5.213548e+001 3.069550e+001 -1.689844e-001 1.300018e+002
576250000 -2.270336e+000 -1.666666e+002 -5.099903e+001 2.495592e+001 -5.121207e+001 2.661097e+001 -1.611879e-001 1.299921e+002
576875000 -2.268048e+000 -1.668271e+002 -5.157298e+001 2.397543e+001 -5.120064e+001 2.288869e+001 -1.569300e-001 1.298981e+002
577500000 -2.270457e+000 -1.669712e+002 -5.169087e+001 1.676234e+001 -5.198500e+001 2.144442e+001 -1.613986e-001 1.298531e+002
578125000 -2.274305e+000 -1.671043e+002 -5.036295e+001 2.601118e+001 -5.136114e+001 2.149117e+001 -1.520738e-001 1.298983e+002
578750000 -2.265148e+000 -1.672884e+002 -5.075033e+001 2.076967e+001 -5.058163e+001 1.913110e+001 -1.589716e-001 1.298491e+002
579375000 -2.259984e+000 -1.674066e+002 -5.106132e+001 1.828206e+001 -5.118542e+001 1.375224e+001 -1.495155e-001 1.297738e+002
580000000 -2.256766e+000 -1.675545e+002 -5.104517e+001 1.400540e+001 -5.130989e+001 1.864097e+001 -1.634441e-001 1.297229e+002
580625000 -2.253316e+000 -1.677005e+002 -5.113725e+001 1.393307e+001 -5.113217e+001 1.506595e+001 -1.560455e-001 1.297570e+002
581250000 -2.248303e+000 -1.678960e+002 -5.061456e+001 1.078541e+001 -5.095581e+001 9.425321e+000 -1.619635e-001 1.297131e+002
581875000 -2.231905e+000 -1.680786e+002 -5.110319e+001 6.544051e+000 -5.127764e+001 7.636642e+000 -1.613870e-001 1.296966e+002
582500000 -2.227265e+000 -1.682084e+002 -5.076260e+001 9.282113e+000 -5.126471e+001 7.163861e+000 -1.559284e-001 1.296075e+002
583125000 -2.208318e+000 -1.685087e+002 -5.067917e+001 2.487374e+000 -5.106483e+001 9.892018e+000 -1.643187e-001 1.295166e+002
583750000 -2.215884e+000 -1.687955e+002 -5.105420e+001 1.522314e-001 -5.057670e+001 7.715436e+000 -1.799604e-001 1.294263e+002
584375000 -2.200377e+000 -1.690649e+002 -5.137844e+001 5.173991e+000 -5.076493e+001 1.058062e+000 -1.590023e-001 1.293750e+002
585000000 -2.182251e+000 -1.693519e+002 -5.071421e+001 3.587352e-001 -5.088839e+001 -1.294232e+000 -1.698704e-001 1.293030e+002
585625000 -2.191026e+000 -1.695786e+002 -5.081950e+001 -3.214350e+000 -5.065175e+001 -5.070601e+000 -1.707367e-001 1.291750e+002
586250000 -2.177921e+000 -1.699055e+002 -5.175540e+001 -7.128899e+000 -5.114801e+001 -1.187557e+000 -1.639603e-001 1.292038e+002
586875000 -2.163540e+000 -1.702448e+002 -5.089390e+001 -4.097111e+000 -5.108311e+001 -5.280458e+000 -1.663062e-001 1.290602e+002
587500000 -2.164182e+000 -1.705816e+002 -5.071193e+001 -3.034352e+000 -5.044374e+001 -7.783909e+000 -1.736750e-001 1.289868e+002
588125000 -2.152252e+000 -1.708797e+002 -5.138329e+001 -6.117353e+000 -5.061428e+001 -1.071350e+001 -1.656577e-001 1.288708e+002
588750000 -2.148824e+000 -1.712076e+002 -5.137356e+001 -1.203253e+001 -5.074950e+001 -1.199878e+001 -1.702737e-001 1.287904e+002
589375000 -2.132617e+000 -1.715646e+002 -5.037344e+001 -1.095430e+001 -5.081026e+001 -9.571244e+000 -1.514718e-001 1.287397e+002
590000000 -2.126738e+000 -1.719460e+002 -5.095871e+001 -1.432232e+001 -5.053965e+001 -1.512216e+001 -1.634943e-001 1.287083e+002
590625000 -2.115801e+000 -1.722846e+002 -5.085000e+001 -1.958589e+001 -5.068309e+001 -1.510149e+001 -1.521473e-001 1.286198e+002
591250000 -2.113537e+000 -1.725887e+002 -5.071227e+001 -1.762719e+001 -5.045939e+001 -1.623545e+001 -1.558125e-001 1.286055e+002
591875000 -2.118112e+000 -1.729440e+002 -5.100624e+001 -2.036061e+001 -5.101806e+001 -2.262194e+001 -1.523518e-001 1.286488e+002
592500000 -2.109158e+000 -1.733091e+002 -5.094625e+001 -2.363160e+001 -5.135988e+001 -2.651003e+001 -1.481636e-001 1.287082e+002
593125000 -2.103462e+000 -1.736414e+002 -5.063339e+001 -2.370636e+001 -5.105996e+001 -2.473783e+001 -1.538861e-001 1.286430e+002
593750000 -2.094532e+000 -1.740682e+002 -5.099520e+001 -3.031312e+001 -5.117286e+001 -2.791173e+001 -1.346132e-001 1.287814e+002
594375000 -2.085120e+000 -1.743840e+002 -5.149434e+001 -3.181024e+001 -5.067841e+001 -2.873775e+001 -1.432522e-001 1.288034e+002
595000000 -2.076120e+000 -1.747491e+002 -5.143338e+001 -3.469832e+001 -5.052324e+001 -2.729437e+001 -1.547240e-001 1.289124e+002
595625000 -2.053654e+000 -1.752262e+002 -5.006039e+001 -2.871011e+001 -4.985800e+001 -3.390564e+001 -1.424696e-001 1.288500e+002
