!Agilent Technologies,E8364B,US42250235,A.06.04.32
!Agilent E8364B: A.06.04.32
!Date: Friday, January 15, 2021 14:42:54
!Correction: S11(Full 2 Port(1,2)) S21(Full 2 Port(1,2)) S12(Full 2 Port(1,2)) S22(Full 2 Port(1,2)) 
!S2P File: Measurements: S11, S21, S12, S22:
# Hz S  dB   R 50
500000000 -1.516499e-001 -1.295122e+002 -7.992118e+001 -1.358923e+002 -8.927725e+001 1.558925e+002 -1.460840e-001 1.383958e+002
500625000 -1.547610e-001 -1.297397e+002 -7.451837e+001 1.082456e+002 -7.264362e+001 1.291579e+002 -1.497741e-001 1.383935e+002
501250000 -1.576139e-001 -1.300193e+002 -7.495039e+001 -9.407038e+001 -8.143786e+001 -8.576284e+001 -1.462339e-001 1.383314e+002
501875000 -1.485558e-001 -1.303465e+002 -7.268213e+001 1.168315e+002 -7.176064e+001 -5.195837e+001 -1.380265e-001 1.382765e+002
502500000 -1.476604e-001 -1.306302e+002 -7.972572e+001 2.039272e+001 -8.164449e+001 7.064983e+001 -1.351179e-001 1.382519e+002
503125000 -1.625858e-001 -1.309183e+002 -7.167707e+001 7.665592e+001 -7.032298e+001 -1.013957e+002 -1.460372e-001 1.381293e+002
503750000 -1.535574e-001 -1.311674e+002 -7.487904e+001 5.612144e+001 -8.110340e+001 1.480826e+002 -1.514196e-001 1.380379e+002
504375000 -1.663515e-001 -1.314515e+002 -8.153905e+001 9.731927e+001 -9.635744e+001 5.459575e+001 -1.593179e-001 1.379860e+002
505000000 -1.622721e-001 -1.317714e+002 -7.259093e+001 1.398291e+002 -7.590124e+001 9.592670e+001 -1.644817e-001 1.379247e+002
505625000 -1.562096e-001 -1.320409e+002 -8.907773e+001 -2.558524e+001 -7.711395e+001 -1.786065e+002 -1.673557e-001 1.378283e+002
506250000 -1.634748e-001 -1.323376e+002 -7.541608e+001 1.977517e+001 -7.600661e+001 -7.919160e+001 -1.635280e-001 1.376254e+002
506875000 -1.581266e-001 -1.326134e+002 -7.900993e+001 7.105129e+001 -8.214198e+001 1.667399e+001 -1.634770e-001 1.375376e+002
507500000 -1.640795e-001 -1.329223e+002 -7.666765e+001 -2.787438e+001 -7.584777e+001 9.313479e+001 -1.599534e-001 1.374285e+002
508125000 -1.639317e-001 -1.331966e+002 -7.457130e+001 1.310852e+002 -1.000522e+002 1.790230e+002 -1.576703e-001 1.372960e+002
508750000 -1.656796e-001 -1.334303e+002 -6.576415e+001 1.465294e+002 -7.267558e+001 1.128468e+002 -1.671465e-001 1.371826e+002
509375000 -1.679293e-001 -1.337309e+002 -7.444028e+001 9.294923e+001 -9.245961e+001 -6.463093e+001 -1.577992e-001 1.371326e+002
510000000 -1.616724e-001 -1.340138e+002 -7.781120e+001 1.310128e+002 -7.003889e+001 -1.563021e+002 -1.680341e-001 1.370228e+002
510625000 -1.687600e-001 -1.342352e+002 -7.834650e+001 1.416319e+002 -7.760172e+001 -1.024842e+002 -1.503013e-001 1.369231e+002
511250000 -1.753361e-001 -1.344482e+002 -7.420448e+001 1.732482e+002 -7.363750e+001 1.631954e+002 -1.632213e-001 1.367585e+002
511875000 -1.719582e-001 -1.347876e+002 -7.392187e+001 9.600740e+001 -7.209107e+001 -1.743493e+002 -1.477555e-001 1.366781e+002
512500000 -1.733541e-001 -1.350665e+002 -8.255428e+001 2.730757e+001 -8.156541e+001 1.215369e+002 -1.599735e-001 1.365999e+002
513125000 -1.806365e-001 -1.353707e+002 -8.317975e+001 1.013170e+002 -7.353281e+001 -1.181638e+002 -1.614272e-001 1.365887e+002
513750000 -1.864251e-001 -1.356800e+002 -7.546164e+001 1.142530e+001 -7.917647e+001 1.256969e+001 -1.552259e-001 1.364370e+002
514375000 -1.896478e-001 -1.359813e+002 -7.523300e+001 9.597277e+001 -8.481779e+001 1.528940e+001 -1.492087e-001 1.363643e+002
515000000 -1.892470e-001 -1.362457e+002 -7.336507e+001 9.657639e+001 -7.775832e+001 1.659037e+002 -1.474843e-001 1.362910e+002
515625000 -1.923027e-001 -1.366575e+002 -7.418256e+001 1.644861e+002 -8.326054e+001 1.487186e+002 -1.546326e-001 1.361750e+002
516250000 -1.958259e-001 -1.368960e+002 -7.195405e+001 3.703748e+001 -7.678925e+001 6.330898e+001 -1.576872e-001 1.361292e+002
516875000 -2.106942e-001 -1.372649e+002 -6.953096e+001 5.101217e+001 -7.426148e+001 -2.858847e+001 -1.517408e-001 1.361256e+002
517500000 -2.091257e-001 -1.375548e+002 -8.056293e+001 7.195096e+001 -8.464259e+001 -3.672718e+001 -1.593170e-001 1.359793e+002
518125000 -2.059341e-001 -1.379214e+002 -8.471272e+001 -1.682773e+002 -7.893490e+001 5.098528e+001 -1.539967e-001 1.359044e+002
518750000 -2.165838e-001 -1.382520e+002 -7.231432e+001 8.599621e+001 -7.243781e+001 7.845378e+001 -1.558444e-001 1.359216e+002
519375000 -2.243231e-001 -1.385063e+002 -8.090578e+001 8.626931e+001 -7.167764e+001 -1.690913e+002 -1.462706e-001 1.358499e+002
520000000 -2.243570e-001 -1.389043e+002 -7.448906e+001 -1.071117e+002 -7.630814e+001 2.952604e+001 -1.452506e-001 1.357933e+002
520625000 -2.253879e-001 -1.392551e+002 -8.140614e+001 5.996718e+001 -7.300249e+001 1.757572e+002 -1.444149e-001 1.356623e+002
521250000 -2.231293e-001 -1.395368e+002 -8.171230e+001 1.121414e+002 -8.917953e+001 1.145921e+002 -1.567501e-001 1.356613e+002
521875000 -2.280415e-001 -1.399343e+002 -7.157697e+001 6.905810e+001 -8.861551e+001 2.368990e+001 -1.428325e-001 1.356542e+002
522500000 -2.257526e-001 -1.402147e+002 -7.237530e+001 4.883481e+001 -7.228191e+001 1.602717e+002 -1.462204e-001 1.355994e+002
523125000 -2.353896e-001 -1.405417e+002 -8.451216e+001 9.963865e+001 -8.328135e+001 -1.415223e+002 -1.467603e-001 1.355859e+002
523750000 -2.340797e-001 -1.409021e+002 -7.315716e+001 9.395974e+001 -6.899211e+001 1.472319e+002 -1.407361e-001 1.355520e+002
524375000 -2.526534e-001 -1.412055e+002 -7.725641e+001 -4.371487e+001 -7.173006e+001 1.550586e+002 -1.349244e-001 1.355783e+002
525000000 -2.476373e-001 -1.415135e+002 -8.580210e+001 1.060679e+002 -7.882531e+001 1.464395e+002 -1.392464e-001 1.355808e+002
525625000 -2.523501e-001 -1.417530e+002 -7.722162e+001 4.942086e+001 -7.535945e+001 8.787434e+001 -1.417684e-001 1.355109e+002
526250000 -2.494000e-001 -1.420685e+002 -7.927196e+001 -3.914117e+001 -7.048235e+001 1.162753e+002 -1.436224e-001 1.355673e+002
526875000 -2.596197e-001 -1.424085e+002 -7.234309e+001 -1.137522e+002 -7.093331e+001 1.357807e+002 -1.364369e-001 1.355184e+002
527500000 -2.638741e-001 -1.426886e+002 -7.786163e+001 3.421488e+001 -7.629669e+001 1.182621e+002 -1.370233e-001 1.354980e+002
528125000 -2.839124e-001 -1.430143e+002 -7.703172e+001 1.207991e+002 -7.802511e+001 -1.408257e+002 -1.546645e-001 1.354772e+002
528750000 -2.749258e-001 -1.432979e+002 -8.143351e+001 1.199102e+002 -7.726325e+001 5.090657e+001 -1.416195e-001 1.355550e+002
529375000 -2.831626e-001 -1.436068e+002 -7.643800e+001 2.326471e+001 -7.340194e+001 1.202845e+002 -1.483777e-001 1.354784e+002
530000000 -2.844400e-001 -1.440098e+002 -8.751553e+001 -6.287923e+001 -6.753264e+001 9.923226e+001 -1.520049e-001 1.354368e+002
530625000 -2.900748e-001 -1.442598e+002 -7.499060e+001 6.829473e+001 -7.059796e+001 -1.720798e+002 -1.478094e-001 1.353483e+002
531250000 -2.902899e-001 -1.446631e+002 -7.638287e+001 4.970821e+001 -6.851794e+001 1.637562e+002 -1.512987e-001 1.353007e+002
531875000 -3.058977e-001 -1.449615e+002 -7.620367e+001 3.961828e+001 -7.716869e+001 1.793785e+002 -1.598931e-001 1.352255e+002
532500000 -3.050762e-001 -1.452578e+002 -7.067696e+001 1.458133e+002 -7.806267e+001 4.473531e+001 -1.568096e-001 1.351779e+002
533125000 -3.073483e-001 -1.456087e+002 -8.207581e+001 7.382674e+001 -7.175333e+001 8.355987e+001 -1.652439e-001 1.351376e+002
533750000 -3.139447e-001 -1.460458e+002 -8.983051e+001 -1.413537e+002 -7.161636e+001 9.965644e+001 -1.651204e-001 1.350053e+002
534375000 -3.151111e-001 -1.463890e+002 -7.120646e+001 -1.599458e+001 -7.395071e+001 8.897056e+001 -1.521977e-001 1.349493e+002
535000000 -3.245509e-001 -1.467429e+002 -7.252142e+001 4.998248e+001 -7.171920e+001 1.296351e+002 -1.637581e-001 1.348714e+002
535625000 -3.308209e-001 -1.471445e+002 -7.521899e+001 1.264950e+002 -7.786811e+001 1.291764e+002 -1.589410e-001 1.347785e+002
536250000 -3.372659e-001 -1.475229e+002 -8.617186e+001 8.730186e+000 -8.100485e+001 8.479310e+001 -1.529049e-001 1.346656e+002
536875000 -3.406266e-001 -1.479030e+002 -7.578902e+001 1.776616e+002 -7.025586e+001 1.435256e+002 -1.539180e-001 1.346393e+002
537500000 -3.445385e-001 -1.482576e+002 -7.559438e+001 -1.255727e+002 -7.247121e+001 9.521753e+001 -1.465278e-001 1.346445e+002
538125000 -3.457040e-001 -1.486740e+002 -7.177217e+001 -4.080789e+001 -8.723699e+001 -3.134261e+001 -1.527417e-001 1.346133e+002
538750000 -3.594081e-001 -1.490570e+002 -7.702971e+001 1.073121e+002 -7.829573e+001 -1.540959e+002 -1.449764e-001 1.345624e+002
539375000 -3.681783e-001 -1.493943e+002 -7.390740e+001 1.114711e+002 -7.637958e+001 1.281647e+002 -1.425492e-001 1.345405e+002
540000000 -3.761542e-001 -1.497830e+002 -8.243031e+001 9.734507e+001 -6.829929e+001 1.239595e+002 -1.486096e-001 1.344362e+002
540625000 -3.763753e-001 -1.501636e+002 -7.853917e+001 1.537444e+002 -8.047916e+001 1.689495e+002 -1.426738e-001 1.344847e+002
541250000 -3.879131e-001 -1.504664e+002 -7.320912e+001 4.629213e+001 -7.145013e+001 1.049640e+002 -1.347031e-001 1.344970e+002
541875000 -3.958969e-001 -1.508160e+002 -7.531008e+001 4.722644e+001 -7.325842e+001 -1.401490e+002 -1.460972e-001 1.344731e+002
542500000 -3.982955e-001 -1.511912e+002 -8.003487e+001 4.528717e+000 -7.230981e+001 1.032790e+002 -1.417225e-001 1.345279e+002
543125000 -4.066664e-001 -1.515549e+002 -7.144528e+001 3.457087e+001 -7.609275e+001 1.746161e+002 -1.362531e-001 1.344358e+002
543750000 -4.127682e-001 -1.519123e+002 -7.307734e+001 6.050113e+001 -7.260821e+001 1.395811e+002 -1.483902e-001 1.344589e+002
544375000 -4.297297e-001 -1.522908e+002 -7.398031e+001 -9.378999e+001 -7.155401e+001 1.346492e+002 -1.424413e-001 1.344764e+002
545000000 -4.314713e-001 -1.526674e+002 -7.524833e+001 -6.954993e+001 -7.866794e+001 1.632619e+002 -1.458699e-001 1.344708e+002
545625000 -4.439415e-001 -1.530292e+002 -7.902729e+001 -1.788512e+002 -6.876662e+001 9.549066e+001 -1.463773e-001 1.344625e+002
546250000 -4.637444e-001 -1.533866e+002 -9.064245e+001 3.782466e+001 -7.636419e+001 1.631835e+002 -1.526552e-001 1.343951e+002
546875000 -4.719301e-001 -1.538000e+002 -8.860747e+001 8.142638e+001 -7.234356e+001 1.060647e+002 -1.567362e-001 1.344032e+002
547500000 -4.926337e-001 -1.541627e+002 -6.938227e+001 9.227037e+001 -7.680301e+001 1.037076e+002 -1.618726e-001 1.342903e+002
548125000 -5.078363e-001 -1.544948e+002 -7.535661e+001 1.203889e+002 -7.130730e+001 8.003676e+001 -1.465173e-001 1.342503e+002
548750000 -5.112271e-001 -1.549643e+002 -7.003497e+001 9.478260e+001 -7.138589e+001 1.145924e+002 -1.699189e-001 1.341976e+002
549375000 -5.293223e-001 -1.553244e+002 -7.696513e+001 4.320483e+001 -6.599458e+001 1.071436e+002 -1.655079e-001 1.339756e+002
550000000 -5.388644e-001 -1.557569e+002 -7.820480e+001 5.133836e+001 -6.650400e+001 1.174073e+002 -1.734641e-001 1.340298e+002
550625000 -5.546477e-001 -1.561429e+002 -7.446728e+001 7.021805e+001 -6.849216e+001 1.023010e+002 -1.665055e-001 1.338971e+002
551250000 -5.600712e-001 -1.565454e+002 -7.782043e+001 4.589458e+001 -7.246866e+001 9.619479e+001 -1.716526e-001 1.338423e+002
551875000 -5.804641e-001 -1.569543e+002 -6.955093e+001 3.787633e+001 -6.847206e+001 1.039701e+002 -1.633653e-001 1.337440e+002
552500000 -5.876924e-001 -1.573959e+002 -6.746898e+001 8.287967e+000 -6.773199e+001 8.185170e+001 -1.648752e-001 1.336172e+002
553125000 -5.929786e-001 -1.577662e+002 -7.915421e+001 -4.386391e+001 -7.158096e+001 8.615533e+001 -1.656502e-001 1.335955e+002
553750000 -6.192365e-001 -1.581960e+002 -7.332701e+001 -4.225656e+000 -6.693227e+001 6.061410e+001 -1.660607e-001 1.334825e+002
554375000 -6.224040e-001 -1.585798e+002 -7.484754e+001 7.714449e+001 -7.052210e+001 7.875621e+001 -1.735995e-001 1.333629e+002
555000000 -6.397575e-001 -1.589897e+002 -7.205821e+001 1.356105e+001 -6.750606e+001 7.490382e+001 -1.671024e-001 1.333322e+002
555625000 -6.555433e-001 -1.593698e+002 -6.873616e+001 9.429966e+001 -6.889520e+001 8.413400e+001 -1.605016e-001 1.332763e+002
556250000 -6.762919e-001 -1.598383e+002 -6.869608e+001 9.317641e+001 -6.900445e+001 9.616932e+001 -1.542695e-001 1.331258e+002
556875000 -6.790783e-001 -1.602421e+002 -7.688486e+001 -1.087894e+001 -6.798027e+001 1.012238e+002 -1.673310e-001 1.331255e+002
557500000 -7.052561e-001 -1.606450e+002 -8.666395e+001 6.073849e+001 -6.923746e+001 8.238216e+001 -1.579282e-001 1.330783e+002
558125000 -7.220715e-001 -1.609867e+002 -6.776456e+001 -3.323734e+000 -6.764412e+001 7.159682e+001 -1.688174e-001 1.330415e+002
558750000 -7.265081e-001 -1.613671e+002 -7.189281e+001 8.098170e+001 -6.745666e+001 6.970765e+001 -1.579323e-001 1.329673e+002
559375000 -7.517315e-001 -1.617882e+002 -7.286446e+001 1.589256e+001 -6.984187e+001 7.452518e+001 -1.651268e-001 1.329006e+002
560000000 -7.724705e-001 -1.621152e+002 -8.075308e+001 -2.829838e+001 -6.781718e+001 7.859190e+001 -1.548898e-001 1.327909e+002
560625000 -7.915620e-001 -1.625325e+002 -7.093395e+001 6.718446e+001 -6.469456e+001 6.427943e+001 -1.551093e-001 1.328140e+002
561250000 -8.110662e-001 -1.629094e+002 -7.415583e+001 6.923848e+001 -6.531595e+001 6.623507e+001 -1.613258e-001 1.327687e+002
561875000 -8.299494e-001 -1.632987e+002 -7.008724e+001 4.920075e+001 -6.954000e+001 6.469331e+001 -1.626501e-001 1.326979e+002
562500000 -8.480321e-001 -1.637159e+002 -8.124268e+001 -2.028767e+001 -6.524248e+001 7.598318e+001 -1.618116e-001 1.327099e+002
563125000 -8.640214e-001 -1.640966e+002 -6.816820e+001 3.421772e+001 -6.891575e+001 1.040552e+002 -1.504408e-001 1.326652e+002
563750000 -8.902104e-001 -1.645739e+002 -7.422681e+001 7.164133e+001 -6.684337e+001 7.512927e+001 -1.625487e-001 1.326238e+002
564375000 -9.165859e-001 -1.649503e+002 -7.132070e+001 4.512332e+001 -6.735023e+001 4.206824e+001 -1.683363e-001 1.325396e+002
565000000 -9.357510e-001 -1.654262e+002 -7.024295e+001 1.799820e+001 -6.675167e+001 6.310999e+001 -1.746291e-001 1.324765e+002
565625000 -9.670481e-001 -1.658943e+002 -7.052158e+001 -8.043078e+000 -6.398305e+001 6.998840e+001 -1.751871e-001 1.324380e+002
566250000 -9.951233e-001 -1.663961e+002 -7.959826e+001 -7.597916e-001 -6.833147e+001 6.947134e+001 -1.767463e-001 1.323484e+002
566875000 -1.033170e+000 -1.669283e+002 -7.108096e+001 1.106241e+001 -6.227706e+001 7.055421e+001 -1.744936e-001 1.321849e+002
567500000 -1.065641e+000 -1.674486e+002 -6.840900e+001 3.001801e+001 -6.455480e+001 5.638616e+001 -1.720222e-001 1.321306e+002
568125000 -1.097540e+000 -1.678554e+002 -6.768362e+001 -3.390175e+001 -6.277661e+001 7.156958e+001 -1.696869e-001 1.320205e+002
568750000 -1.140607e+000 -1.683435e+002 -8.532605e+001 5.707280e+001 -6.513393e+001 3.455301e+001 -1.803504e-001 1.318962e+002
569375000 -1.174597e+000 -1.688126e+002 -6.869427e+001 1.094452e+002 -6.424612e+001 4.541659e+001 -1.793602e-001 1.318080e+002
570000000 -1.205016e+000 -1.692436e+002 -7.308015e+001 5.742984e+000 -6.332372e+001 4.548067e+001 -1.735385e-001 1.316623e+002
570625000 -1.233701e+000 -1.696610e+002 -7.342159e+001 1.035051e+001 -6.725806e+001 3.646717e+001 -1.731630e-001 1.315922e+002
571250000 -1.264747e+000 -1.700715e+002 -7.273692e+001 8.428068e+001 -6.296411e+001 5.445866e+001 -1.775764e-001 1.314800e+002
571875000 -1.301388e+000 -1.705013e+002 -7.911578e+001 -1.406339e+001 -6.368456e+001 4.619264e+001 -1.698638e-001 1.313691e+002
572500000 -1.338750e+000 -1.709722e+002 -6.922796e+001 1.047166e+001 -6.496398e+001 5.731954e+001 -1.770633e-001 1.312498e+002
573125000 -1.374888e+000 -1.713359e+002 -7.236460e+001 -9.619839e+000 -6.415937e+001 4.233715e+001 -1.616739e-001 1.311836e+002
573750000 -1.402997e+000 -1.717191e+002 -8.155844e+001 5.326867e+001 -6.412684e+001 5.085530e+001 -1.823343e-001 1.310043e+002
574375000 -1.441054e+000 -1.720339e+002 -7.420731e+001 2.404193e+001 -6.486006e+001 4.847996e+001 -1.711713e-001 1.309969e+002
575000000 -1.468576e+000 -1.724572e+002 -7.017397e+001 -3.315881e+000 -6.257508e+001 3.921352e+001 -1.686894e-001 1.308518e+002
575625000 -1.500903e+000 -1.728608e+002 -7.050540e+001 -2.670269e+001 -6.264067e+001 1.734996e+001 -1.696725e-001 1.308116e+002
576250000 -1.534166e+000 -1.731940e+002 -6.853708e+001 5.072943e+000 -6.291336e+001 4.161799e+001 -1.749206e-001 1.306891e+002
576875000 -1.567189e+000 -1.735827e+002 -6.891856e+001 -3.477051e+001 -6.215083e+001 1.447068e+001 -1.688589e-001 1.306987e+002
577500000 -1.610386e+000 -1.739304e+002 -6.952223e+001 2.146384e+001 -6.378265e+001 3.279588e+001 -1.690591e-001 1.306282e+002
578125000 -1.648785e+000 -1.743062e+002 -7.434209e+001 7.418263e+000 -6.404350e+001 1.710511e+001 -1.653896e-001 1.306086e+002
578750000 -1.678589e+000 -1.746575e+002 -7.480975e+001 -7.794721e+001 -6.224432e+001 1.275734e+001 -1.638306e-001 1.305392e+002
579375000 -1.722783e+000 -1.750061e+002 -7.337318e+001 1.209774e+001 -6.395678e+001 2.920078e+001 -1.686140e-001 1.304890e+002
580000000 -1.774354e+000 -1.753709e+002 -7.542134e+001 -2.199265e+001 -6.166858e+001 1.987129e+001 -1.575655e-001 1.305114e+002
580625000 -1.819747e+000 -1.757644e+002 -6.830048e+001 -1.336791e+001 -6.152092e+001 1.525923e+001 -1.542733e-001 1.304447e+002
581250000 -1.857665e+000 -1.760551e+002 -7.242746e+001 -4.602074e+001 -6.627384e+001 1.268240e+001 -1.601451e-001 1.303889e+002
581875000 -1.902821e+000 -1.764523e+002 -6.820816e+001 -1.115637e+001 -6.396073e+001 1.039197e+001 -1.665632e-001 1.303421e+002
582500000 -1.948321e+000 -1.767840e+002 -8.054740e+001 -4.885776e+001 -6.277376e+001 2.010611e+001 -1.641457e-001 1.302829e+002
583125000 -1.985145e+000 -1.772163e+002 -7.969834e+001 -8.510859e+000 -6.255378e+001 2.531845e+001 -1.739669e-001 1.301960e+002
583750000 -2.029586e+000 -1.776115e+002 -7.792973e+001 -8.193156e+001 -6.212534e+001 3.599115e+000 -1.827894e-001 1.301106e+002
584375000 -2.078687e+000 -1.780274e+002 -7.536427e+001 -6.243774e+001 -6.295506e+001 3.712796e+000 -1.656661e-001 1.300873e+002
585000000 -2.120565e+000 -1.784520e+002 -7.493079e+001 -7.753463e+001 -6.127066e+001 2.433306e+001 -1.780322e-001 1.299480e+002
585625000 -2.184454e+000 -1.788512e+002 -7.250882e+001 -1.040309e+002 -6.376395e+001 2.169673e+001 -1.706643e-001 1.298638e+002
586250000 -2.239480e+000 -1.792556e+002 -7.973743e+001 -1.316860e+002 -6.352882e+001 4.753762e+000 -1.663567e-001 1.298779e+002
586875000 -2.285074e+000 -1.796202e+002 -7.723235e+001 -6.755289e+001 -6.077513e+001 1.726554e+001 -1.627149e-001 1.297682e+002
587500000 -2.356398e+000 -1.798993e+002 -7.863533e+001 -1.418991e+002 -6.181725e+001 1.392507e+001 -1.652827e-001 1.296638e+002
588125000 -2.404223e+000 1.798772e+002 -8.575202e+001 -1.443216e+002 -6.274252e+001 1.193860e+001 -1.703171e-001 1.295841e+002
588750000 -2.448744e+000 1.796289e+002 -7.197218e+001 -7.571412e+001 -6.226324e+001 -3.334162e+000 -1.725932e-001 1.295451e+002
589375000 -2.493509e+000 1.794222e+002 -7.337367e+001 -1.047519e+002 -6.066694e+001 -1.416279e+001 -1.598072e-001 1.294299e+002
590000000 -2.544627e+000 1.792207e+002 -7.014142e+001 -1.361660e+002 -6.240898e+001 1.918360e-001 -1.692875e-001 1.294933e+002
590625000 -2.588060e+000 1.790635e+002 -6.878183e+001 -4.251343e+001 -6.088650e+001 6.704162e+000 -1.599087e-001 1.293860e+002
591250000 -2.623522e+000 1.788999e+002 -7.673103e+001 1.739707e+002 -6.289642e+001 -1.286632e+001 -1.608127e-001 1.293920e+002
591875000 -2.660716e+000 1.787639e+002 -7.482115e+001 -6.422182e+001 -6.172768e+001 -1.530861e+001 -1.599204e-001 1.293895e+002
592500000 -2.699200e+000 1.785581e+002 -8.150011e+001 -8.152918e+001 -6.211244e+001 -1.378592e+001 -1.565298e-001 1.294638e+002
593125000 -2.722243e+000 1.784358e+002 -7.444262e+001 -1.130483e+001 -6.118769e+001 -1.896563e+001 -1.559640e-001 1.295026e+002
593750000 -2.761940e+000 1.781791e+002 -7.741908e+001 -1.676582e+002 -6.036617e+001 -2.649989e+001 -1.456410e-001 1.295636e+002
594375000 -2.789233e+000 1.780820e+002 -7.677654e+001 -4.588013e+001 -6.075912e+001 -1.636272e+001 -1.478378e-001 1.295842e+002
595000000 -2.820083e+000 1.779221e+002 -7.550979e+001 -8.597403e+001 -6.295243e+001 -2.414194e+001 -1.595636e-001 1.296187e+002
595625000 -2.848872e+000 1.777121e+002 -7.618791e+001 -6.288313e+001 -6.001578e+001 -3.000941e+001 -1.490851e-001 1.296351e+002
