!Agilent Technologies,E8364B,US42250235,A.06.04.32
!Agilent E8364B: A.06.04.32
!Date: Friday, January 15, 2021 14:32:25
!Correction: S11(Full 2 Port(1,2)) S21(Full 2 Port(1,2)) S12(Full 2 Port(1,2)) S22(Full 2 Port(1,2)) 
!S2P File: Measurements: S11, S21, S12, S22:
# Hz S  dB   R 50
500000000 -8.171636e-002 -1.298983e+002 -8.047202e+001 -1.449307e+001 -7.249075e+001 -1.342104e+002 -1.638615e-001 1.379033e+002
500625000 -7.598863e-002 -1.301820e+002 -7.180285e+001 -6.457327e+001 -7.831280e+001 -3.360725e+001 -1.651907e-001 1.378631e+002
501250000 -8.848532e-002 -1.304475e+002 -6.825202e+001 -4.344806e+001 -7.553580e+001 -5.625996e+001 -1.592042e-001 1.378399e+002
501875000 -8.205740e-002 -1.307717e+002 -6.463594e+001 -7.741820e+001 -6.628860e+001 -4.389045e+001 -1.602431e-001 1.378077e+002
502500000 -8.143273e-002 -1.310721e+002 -7.109543e+001 -4.016637e+001 -7.381232e+001 -8.705449e+001 -1.577567e-001 1.377987e+002
503125000 -9.318332e-002 -1.313387e+002 -6.618447e+001 -7.839919e+001 -7.067251e+001 -6.323478e+001 -1.618509e-001 1.375846e+002
503750000 -8.266680e-002 -1.316839e+002 -9.127170e+001 1.341828e+002 -6.960021e+001 -9.837167e+001 -1.650176e-001 1.375182e+002
504375000 -9.488897e-002 -1.319606e+002 -7.572398e+001 -6.083822e+001 -6.889797e+001 -2.777746e+001 -1.842644e-001 1.374572e+002
505000000 -9.350679e-002 -1.323148e+002 -8.128869e+001 -9.184362e+001 -7.527329e+001 -2.358924e+001 -1.766603e-001 1.373918e+002
505625000 -8.732241e-002 -1.325183e+002 -7.407429e+001 -5.123117e+001 -7.256883e+001 -4.133705e+001 -1.808845e-001 1.372924e+002
506250000 -9.460115e-002 -1.328122e+002 -7.946831e+001 -5.928318e+001 -7.660367e+001 -5.793980e+001 -1.782964e-001 1.371435e+002
506875000 -9.521755e-002 -1.331288e+002 -7.222937e+001 -4.651402e+001 -6.732835e+001 -8.715704e+001 -1.721937e-001 1.370280e+002
507500000 -9.377789e-002 -1.334017e+002 -6.614103e+001 -7.163967e+001 -7.340549e+001 -8.307994e+001 -1.798452e-001 1.368846e+002
508125000 -1.005739e-001 -1.337118e+002 -6.839048e+001 -9.368140e+001 -7.775099e+001 -3.673512e+001 -1.801867e-001 1.368013e+002
508750000 -1.008067e-001 -1.339183e+002 -7.315852e+001 -4.356133e+001 -7.409853e+001 -8.865366e+001 -1.722063e-001 1.367111e+002
509375000 -1.063394e-001 -1.342565e+002 -6.639711e+001 -5.512125e+001 -6.708385e+001 -5.961884e+001 -1.752874e-001 1.365905e+002
510000000 -1.037244e-001 -1.346027e+002 -7.382783e+001 -8.774402e+001 -7.183904e+001 -1.001537e+002 -1.726479e-001 1.365381e+002
510625000 -1.096906e-001 -1.348393e+002 -7.006445e+001 -9.741858e+001 -7.892061e+001 -7.456859e+000 -1.688189e-001 1.365013e+002
511250000 -1.121778e-001 -1.350827e+002 -6.896964e+001 -6.928248e+001 -7.579749e+001 -7.362833e+001 -1.765288e-001 1.363118e+002
511875000 -1.094693e-001 -1.354517e+002 -6.940114e+001 -5.634464e+001 -7.277586e+001 -1.002190e+002 -1.666816e-001 1.362740e+002
512500000 -1.126939e-001 -1.357091e+002 -7.707341e+001 -8.593285e+001 -6.999322e+001 -8.903892e+001 -1.712439e-001 1.361289e+002
513125000 -1.189156e-001 -1.360168e+002 -7.344382e+001 -1.585956e+002 -7.318088e+001 -1.463607e+002 -1.732213e-001 1.361744e+002
513750000 -1.262983e-001 -1.363450e+002 -7.094933e+001 -4.765994e+001 -7.944419e+001 -5.649661e+001 -1.738715e-001 1.360250e+002
514375000 -1.297623e-001 -1.366289e+002 -6.829723e+001 -7.495786e+001 -6.759818e+001 -9.900114e+001 -1.728611e-001 1.359236e+002
515000000 -1.300034e-001 -1.368863e+002 -6.649115e+001 -7.498183e+001 -6.910086e+001 -4.890973e+001 -1.694226e-001 1.358724e+002
515625000 -1.428849e-001 -1.373394e+002 -6.851400e+001 -1.126832e+002 -8.676925e+001 5.179635e+001 -1.634023e-001 1.357184e+002
516250000 -1.421690e-001 -1.376689e+002 -6.614211e+001 -6.197927e+001 -7.372620e+001 -2.259351e+001 -1.773639e-001 1.356936e+002
516875000 -1.496579e-001 -1.379406e+002 -7.433453e+001 -1.584788e+001 -7.277561e+001 -8.680434e+001 -1.712866e-001 1.356715e+002
517500000 -1.442014e-001 -1.382951e+002 -6.855891e+001 -1.076362e+002 -6.913300e+001 -7.222717e+001 -1.730405e-001 1.355607e+002
518125000 -1.536417e-001 -1.386881e+002 -6.502509e+001 -6.923233e+001 -6.827335e+001 -6.261773e+001 -1.681653e-001 1.354324e+002
518750000 -1.573550e-001 -1.390346e+002 -7.386184e+001 -4.332105e+001 -6.800411e+001 -8.183965e+001 -1.730796e-001 1.354316e+002
519375000 -1.680704e-001 -1.393202e+002 -6.984721e+001 -7.421284e+001 -6.799394e+001 -1.098230e+002 -1.642725e-001 1.353031e+002
520000000 -1.654372e-001 -1.396884e+002 -6.941739e+001 -9.432516e+001 -6.986335e+001 -8.503737e+001 -1.670849e-001 1.352578e+002
520625000 -1.752302e-001 -1.400858e+002 -6.390920e+001 -7.732543e+001 -6.893095e+001 -6.111005e+001 -1.658854e-001 1.352137e+002
521250000 -1.800276e-001 -1.404124e+002 -7.007822e+001 -1.064931e+002 -7.154674e+001 -1.129113e+002 -1.692013e-001 1.352017e+002
521875000 -1.769003e-001 -1.407906e+002 -6.652934e+001 -7.008619e+001 -6.703961e+001 -7.012204e+001 -1.568033e-001 1.351786e+002
522500000 -1.773976e-001 -1.411200e+002 -6.874550e+001 -8.997021e+001 -7.118197e+001 -1.165894e+002 -1.613721e-001 1.350391e+002
523125000 -1.938089e-001 -1.414462e+002 -6.479397e+001 -7.512716e+001 -6.493345e+001 -6.776319e+001 -1.624412e-001 1.350553e+002
523750000 -1.880680e-001 -1.417980e+002 -6.449557e+001 -8.197120e+001 -7.249185e+001 -1.418652e+002 -1.622598e-001 1.350637e+002
524375000 -2.005537e-001 -1.421606e+002 -6.441602e+001 -9.356927e+001 -6.789471e+001 -7.824542e+001 -1.589135e-001 1.350799e+002
525000000 -2.009416e-001 -1.424763e+002 -6.297747e+001 -8.559663e+001 -6.945739e+001 -7.383910e+001 -1.567582e-001 1.350735e+002
525625000 -2.101937e-001 -1.427167e+002 -6.875041e+001 -9.523126e+001 -7.618477e+001 -8.392579e+001 -1.629468e-001 1.350592e+002
526250000 -2.045681e-001 -1.430555e+002 -6.623566e+001 -1.076706e+002 -7.024955e+001 -8.927351e+001 -1.581045e-001 1.350726e+002
526875000 -2.128104e-001 -1.433970e+002 -7.235198e+001 -7.579330e+001 -6.573331e+001 -7.465742e+001 -1.521707e-001 1.350663e+002
527500000 -2.274915e-001 -1.436927e+002 -6.401463e+001 -8.129979e+001 -6.714462e+001 -8.957534e+001 -1.564648e-001 1.350190e+002
528125000 -2.384219e-001 -1.440548e+002 -6.730716e+001 -1.074526e+002 -6.946471e+001 -7.943903e+001 -1.598464e-001 1.351082e+002
528750000 -2.377435e-001 -1.443478e+002 -6.441830e+001 -7.969161e+001 -6.726768e+001 -1.030609e+002 -1.592481e-001 1.351304e+002
529375000 -2.350304e-001 -1.447065e+002 -6.468311e+001 -9.621400e+001 -6.660806e+001 -8.851375e+001 -1.597073e-001 1.350645e+002
530000000 -2.506545e-001 -1.451132e+002 -6.423435e+001 -7.760342e+001 -6.910567e+001 -8.250839e+001 -1.590271e-001 1.349979e+002
530625000 -2.531008e-001 -1.454101e+002 -6.457378e+001 -8.953382e+001 -6.720712e+001 -8.010816e+001 -1.633750e-001 1.349609e+002
531250000 -2.625487e-001 -1.458481e+002 -6.331699e+001 -7.833300e+001 -6.752190e+001 -7.606596e+001 -1.663922e-001 1.349117e+002
531875000 -2.767237e-001 -1.461756e+002 -6.912714e+001 -9.223829e+001 -6.938210e+001 -1.321295e+002 -1.746742e-001 1.348196e+002
532500000 -2.845805e-001 -1.464582e+002 -6.884764e+001 -9.297559e+001 -6.804981e+001 -1.418035e+002 -1.725999e-001 1.347744e+002
533125000 -2.923753e-001 -1.468632e+002 -6.540565e+001 -8.591226e+001 -6.622930e+001 -1.029875e+002 -1.714618e-001 1.347396e+002
533750000 -2.994745e-001 -1.472805e+002 -6.458060e+001 -7.636630e+001 -6.785465e+001 -8.661827e+001 -1.891325e-001 1.346484e+002
534375000 -3.067232e-001 -1.476682e+002 -6.542299e+001 -1.003069e+002 -6.880020e+001 -9.258443e+001 -1.702247e-001 1.345518e+002
535000000 -3.174007e-001 -1.480081e+002 -6.406791e+001 -1.030673e+002 -6.468167e+001 -1.157811e+002 -1.800491e-001 1.344820e+002
535625000 -3.214095e-001 -1.484230e+002 -6.348832e+001 -9.657823e+001 -6.600597e+001 -9.607554e+001 -1.762940e-001 1.343981e+002
536250000 -3.334827e-001 -1.488275e+002 -6.328553e+001 -7.575500e+001 -6.498146e+001 -9.386590e+001 -1.732828e-001 1.342966e+002
536875000 -3.436311e-001 -1.492206e+002 -6.225749e+001 -9.024477e+001 -6.538916e+001 -1.069386e+002 -1.833931e-001 1.342543e+002
537500000 -3.447724e-001 -1.495811e+002 -6.376400e+001 -1.055492e+002 -6.438336e+001 -9.757510e+001 -1.693726e-001 1.342402e+002
538125000 -3.572118e-001 -1.499861e+002 -6.361921e+001 -1.148841e+002 -6.573369e+001 -1.005343e+002 -1.649438e-001 1.342207e+002
538750000 -3.715223e-001 -1.503869e+002 -6.398487e+001 -1.009091e+002 -6.577977e+001 -1.082700e+002 -1.689928e-001 1.342013e+002
539375000 -3.821523e-001 -1.507255e+002 -6.527431e+001 -8.952742e+001 -6.588409e+001 -9.305076e+001 -1.632341e-001 1.341725e+002
540000000 -3.891960e-001 -1.511203e+002 -6.434096e+001 -1.008521e+002 -6.229816e+001 -1.110373e+002 -1.611806e-001 1.341116e+002
540625000 -4.029791e-001 -1.515502e+002 -6.314392e+001 -1.151406e+002 -6.591285e+001 -1.052805e+002 -1.664579e-001 1.341233e+002
541250000 -4.170718e-001 -1.518641e+002 -6.284231e+001 -1.164843e+002 -6.734953e+001 -1.042542e+002 -1.609413e-001 1.340967e+002
541875000 -4.280808e-001 -1.522108e+002 -6.249064e+001 -1.077429e+002 -6.352995e+001 -1.166142e+002 -1.700421e-001 1.340486e+002
542500000 -4.410442e-001 -1.526050e+002 -6.124556e+001 -1.204467e+002 -6.637705e+001 -1.025424e+002 -1.532952e-001 1.340807e+002
543125000 -4.494140e-001 -1.530017e+002 -6.059469e+001 -1.145796e+002 -6.766557e+001 -1.247817e+002 -1.548517e-001 1.340392e+002
543750000 -4.621539e-001 -1.533552e+002 -6.002195e+001 -1.070537e+002 -6.231907e+001 -1.189678e+002 -1.630701e-001 1.340873e+002
544375000 -4.766183e-001 -1.537382e+002 -6.158065e+001 -1.012198e+002 -6.386612e+001 -1.128922e+002 -1.680902e-001 1.340277e+002
545000000 -4.854813e-001 -1.541103e+002 -6.176903e+001 -1.067558e+002 -6.501220e+001 -1.087234e+002 -1.607557e-001 1.340047e+002
545625000 -5.029331e-001 -1.544673e+002 -5.975308e+001 -1.211120e+002 -6.499542e+001 -1.108663e+002 -1.638133e-001 1.339999e+002
546250000 -5.306323e-001 -1.548608e+002 -6.383339e+001 -1.074367e+002 -6.335152e+001 -1.277428e+002 -1.751277e-001 1.338831e+002
546875000 -5.388458e-001 -1.552907e+002 -6.243309e+001 -1.205778e+002 -6.362490e+001 -1.229992e+002 -1.772661e-001 1.339254e+002
547500000 -5.585464e-001 -1.556632e+002 -6.441398e+001 -9.991121e+001 -6.340659e+001 -1.184224e+002 -1.750261e-001 1.338364e+002
548125000 -5.757079e-001 -1.560463e+002 -6.306556e+001 -1.040712e+002 -6.423760e+001 -1.202169e+002 -1.819280e-001 1.337273e+002
548750000 -5.941829e-001 -1.564864e+002 -6.459444e+001 -1.249510e+002 -6.631870e+001 -1.421274e+002 -1.839678e-001 1.337031e+002
549375000 -6.114711e-001 -1.569368e+002 -6.169397e+001 -1.218038e+002 -6.190938e+001 -1.338156e+002 -1.801707e-001 1.334384e+002
550000000 -6.220875e-001 -1.573377e+002 -6.065538e+001 -1.349895e+002 -6.115984e+001 -1.359866e+002 -1.890025e-001 1.335332e+002
550625000 -6.570588e-001 -1.577988e+002 -6.253740e+001 -1.190274e+002 -6.546551e+001 -1.093994e+002 -1.852207e-001 1.333667e+002
551250000 -6.628872e-001 -1.581904e+002 -6.189403e+001 -1.240959e+002 -6.099318e+001 -1.253294e+002 -1.854416e-001 1.332979e+002
551875000 -6.820510e-001 -1.586113e+002 -6.021795e+001 -1.293777e+002 -6.141605e+001 -1.361591e+002 -1.691361e-001 1.332498e+002
552500000 -7.013286e-001 -1.590922e+002 -6.059795e+001 -1.288120e+002 -6.563461e+001 -1.263969e+002 -1.749571e-001 1.331871e+002
553125000 -7.145872e-001 -1.594901e+002 -5.994759e+001 -1.295677e+002 -5.980062e+001 -1.246493e+002 -1.801720e-001 1.331278e+002
553750000 -7.473383e-001 -1.599515e+002 -6.055598e+001 -1.365830e+002 -6.230231e+001 -1.336885e+002 -1.763443e-001 1.329475e+002
554375000 -7.595453e-001 -1.603110e+002 -5.936183e+001 -1.263187e+002 -6.057851e+001 -1.365075e+002 -1.753180e-001 1.329366e+002
555000000 -7.815139e-001 -1.607896e+002 -6.016075e+001 -1.388550e+002 -6.194319e+001 -1.466941e+002 -1.801665e-001 1.328775e+002
555625000 -8.067191e-001 -1.611220e+002 -6.047634e+001 -1.359733e+002 -6.336424e+001 -1.292380e+002 -1.651986e-001 1.328370e+002
556250000 -8.265590e-001 -1.616127e+002 -5.900032e+001 -1.356107e+002 -6.349572e+001 -1.532056e+002 -1.762564e-001 1.327366e+002
556875000 -8.483810e-001 -1.620354e+002 -5.986620e+001 -1.346591e+002 -6.331877e+001 -1.452201e+002 -1.814230e-001 1.327506e+002
557500000 -8.816968e-001 -1.623981e+002 -6.252824e+001 -1.378620e+002 -6.372077e+001 -1.436279e+002 -1.741223e-001 1.326851e+002
558125000 -9.022406e-001 -1.627832e+002 -5.870796e+001 -1.335229e+002 -6.280672e+001 -1.502174e+002 -1.768818e-001 1.326285e+002
558750000 -9.234893e-001 -1.631447e+002 -5.882431e+001 -1.520744e+002 -6.413712e+001 -1.609576e+002 -1.722892e-001 1.325551e+002
559375000 -9.581736e-001 -1.635371e+002 -5.926676e+001 -1.318616e+002 -6.162881e+001 -1.480978e+002 -1.766946e-001 1.325348e+002
560000000 -9.857714e-001 -1.639766e+002 -6.005384e+001 -1.371786e+002 -5.993497e+001 -1.542691e+002 -1.660235e-001 1.324706e+002
560625000 -1.009436e+000 -1.643340e+002 -5.834114e+001 -1.329463e+002 -6.174730e+001 -1.451080e+002 -1.633582e-001 1.324266e+002
561250000 -1.045484e+000 -1.647387e+002 -5.784808e+001 -1.458889e+002 -6.110437e+001 -1.518309e+002 -1.755241e-001 1.323863e+002
561875000 -1.075670e+000 -1.651414e+002 -5.914101e+001 -1.371443e+002 -6.034943e+001 -1.428993e+002 -1.811836e-001 1.323116e+002
562500000 -1.109551e+000 -1.655657e+002 -5.789157e+001 -1.507469e+002 -6.026309e+001 -1.600629e+002 -1.784635e-001 1.323191e+002
563125000 -1.140623e+000 -1.659094e+002 -5.895735e+001 -1.532129e+002 -6.068138e+001 -1.554574e+002 -1.758859e-001 1.322008e+002
563750000 -1.190570e+000 -1.663292e+002 -5.667032e+001 -1.595083e+002 -6.059066e+001 -1.710406e+002 -1.809274e-001 1.321480e+002
564375000 -1.220550e+000 -1.667126e+002 -5.783622e+001 -1.469773e+002 -6.032584e+001 -1.584801e+002 -1.852720e-001 1.321006e+002
565000000 -1.255624e+000 -1.671523e+002 -5.902079e+001 -1.626216e+002 -5.907618e+001 -1.772557e+002 -1.863308e-001 1.319941e+002
565625000 -1.294261e+000 -1.675823e+002 -5.707366e+001 -1.541027e+002 -6.024769e+001 -1.721283e+002 -1.942790e-001 1.319102e+002
566250000 -1.329347e+000 -1.680033e+002 -5.809202e+001 -1.539992e+002 -6.108755e+001 -1.762226e+002 -1.892057e-001 1.318622e+002
566875000 -1.377416e+000 -1.684326e+002 -5.835227e+001 -1.553784e+002 -6.189199e+001 -1.691997e+002 -1.909132e-001 1.316769e+002
567500000 -1.417241e+000 -1.688819e+002 -5.858417e+001 -1.654771e+002 -6.010347e+001 -1.732627e+002 -1.857509e-001 1.316207e+002
568125000 -1.461146e+000 -1.693123e+002 -5.619331e+001 -1.662536e+002 -6.174792e+001 -1.708179e+002 -1.983590e-001 1.315262e+002
568750000 -1.509346e+000 -1.697444e+002 -5.864902e+001 -1.612966e+002 -6.125375e+001 -1.767824e+002 -1.951884e-001 1.313662e+002
569375000 -1.548893e+000 -1.701862e+002 -5.782470e+001 -1.760975e+002 -5.955014e+001 -1.761326e+002 -1.918708e-001 1.312859e+002
570000000 -1.598830e+000 -1.705464e+002 -5.733326e+001 -1.534380e+002 -6.252189e+001 -1.753489e+002 -1.974360e-001 1.311481e+002
570625000 -1.637285e+000 -1.709489e+002 -5.813187e+001 -1.696286e+002 -5.947044e+001 1.752190e+002 -1.930197e-001 1.310787e+002
571250000 -1.687058e+000 -1.713593e+002 -5.768135e+001 -1.718928e+002 -5.942825e+001 1.708737e+002 -1.966237e-001 1.309523e+002
571875000 -1.733698e+000 -1.717257e+002 -5.765945e+001 -1.759681e+002 -5.903845e+001 -1.739035e+002 -1.946416e-001 1.308390e+002
572500000 -1.780389e+000 -1.721639e+002 -5.742169e+001 -1.788062e+002 -5.873492e+001 1.669245e+002 -2.035636e-001 1.307299e+002
573125000 -1.831345e+000 -1.724416e+002 -5.630494e+001 -1.696426e+002 -5.983445e+001 1.706009e+002 -1.786663e-001 1.306087e+002
573750000 -1.877216e+000 -1.727641e+002 -5.600676e+001 1.763335e+002 -5.905091e+001 1.749922e+002 -1.968677e-001 1.305028e+002
574375000 -1.925405e+000 -1.731213e+002 -5.612746e+001 1.760683e+002 -5.828693e+001 1.547435e+002 -1.759331e-001 1.304732e+002
575000000 -1.977730e+000 -1.733977e+002 -5.833877e+001 1.766425e+002 -5.891190e+001 1.648041e+002 -1.846421e-001 1.303484e+002
575625000 -2.030083e+000 -1.736911e+002 -5.719702e+001 -1.746258e+002 -5.991013e+001 1.562511e+002 -1.880632e-001 1.302893e+002
576250000 -2.075596e+000 -1.739240e+002 -5.665799e+001 1.777198e+002 -5.848590e+001 1.676693e+002 -1.958301e-001 1.302090e+002
576875000 -2.123223e+000 -1.741732e+002 -5.726261e+001 -1.733169e+002 -6.045440e+001 1.555001e+002 -1.857411e-001 1.302171e+002
577500000 -2.183285e+000 -1.743815e+002 -5.718568e+001 1.613411e+002 -5.904782e+001 1.535669e+002 -1.841186e-001 1.301373e+002
578125000 -2.232654e+000 -1.746313e+002 -5.681829e+001 1.652137e+002 -5.958342e+001 1.432541e+002 -1.828754e-001 1.301006e+002
578750000 -2.284705e+000 -1.748546e+002 -5.825447e+001 1.599814e+002 -5.923402e+001 1.427986e+002 -1.745711e-001 1.300675e+002
579375000 -2.337417e+000 -1.750559e+002 -5.665485e+001 1.561335e+002 -5.890564e+001 1.419793e+002 -1.712658e-001 1.300063e+002
580000000 -2.392887e+000 -1.752423e+002 -5.648638e+001 1.489663e+002 -5.882723e+001 1.406062e+002 -1.691847e-001 1.300024e+002
580625000 -2.452574e+000 -1.754105e+002 -5.600013e+001 1.567184e+002 -5.914155e+001 1.435193e+002 -1.725865e-001 1.299852e+002
581250000 -2.500658e+000 -1.755577e+002 -5.715803e+001 1.476653e+002 -5.846621e+001 1.341296e+002 -1.763513e-001 1.299382e+002
581875000 -2.562108e+000 -1.757299e+002 -5.734382e+001 1.596384e+002 -5.893681e+001 1.318711e+002 -1.784198e-001 1.299112e+002
582500000 -2.609520e+000 -1.759081e+002 -5.699471e+001 1.534296e+002 -5.901953e+001 1.214122e+002 -1.778058e-001 1.298574e+002
583125000 -2.657401e+000 -1.760693e+002 -5.747362e+001 1.399195e+002 -5.971960e+001 1.242702e+002 -1.855353e-001 1.297753e+002
583750000 -2.712765e+000 -1.762636e+002 -5.607635e+001 1.395010e+002 -5.923586e+001 1.162420e+002 -1.943737e-001 1.297444e+002
584375000 -2.759141e+000 -1.764008e+002 -5.694656e+001 1.455869e+002 -5.984600e+001 1.121504e+002 -1.814042e-001 1.296664e+002
585000000 -2.806017e+000 -1.765955e+002 -5.767010e+001 1.407364e+002 -5.808005e+001 1.148780e+002 -1.906362e-001 1.295691e+002
585625000 -2.858038e+000 -1.766948e+002 -5.766680e+001 1.333347e+002 -6.018870e+001 1.043493e+002 -1.779471e-001 1.294906e+002
586250000 -2.888541e+000 -1.768741e+002 -5.762206e+001 1.300172e+002 -5.990861e+001 1.246777e+002 -1.817603e-001 1.294579e+002
586875000 -2.936287e+000 -1.770393e+002 -5.736423e+001 1.272220e+002 -6.017250e+001 1.068807e+002 -1.845057e-001 1.293249e+002
587500000 -2.976536e+000 -1.771217e+002 -5.825205e+001 1.280369e+002 -6.066738e+001 1.005578e+002 -1.839598e-001 1.292191e+002
588125000 -3.014192e+000 -1.771785e+002 -5.788287e+001 1.253481e+002 -6.038017e+001 1.134694e+002 -1.846094e-001 1.291577e+002
588750000 -3.042191e+000 -1.772474e+002 -5.909444e+001 1.203308e+002 -5.988313e+001 9.769215e+001 -1.894677e-001 1.290920e+002
589375000 -3.065330e+000 -1.772713e+002 -5.635341e+001 1.123443e+002 -6.092119e+001 9.165828e+001 -1.771912e-001 1.289676e+002
590000000 -3.094861e+000 -1.773105e+002 -5.761380e+001 1.226455e+002 -6.069002e+001 8.811755e+001 -1.796180e-001 1.289753e+002
590625000 -3.115483e+000 -1.773213e+002 -5.907426e+001 1.109810e+002 -6.067976e+001 8.825152e+001 -1.738945e-001 1.288783e+002
591250000 -3.137653e+000 -1.773316e+002 -5.884944e+001 1.148673e+002 -6.043835e+001 8.924225e+001 -1.762776e-001 1.288405e+002
591875000 -3.155036e+000 -1.773486e+002 -5.878462e+001 1.174433e+002 -6.191623e+001 7.919464e+001 -1.733639e-001 1.288863e+002
592500000 -3.159941e+000 -1.774276e+002 -5.820805e+001 1.066759e+002 -6.030178e+001 9.233888e+001 -1.683874e-001 1.289225e+002
593125000 -3.173160e+000 -1.774488e+002 -5.933784e+001 1.021154e+002 -5.902091e+001 7.519818e+001 -1.708454e-001 1.289508e+002
593750000 -3.188190e+000 -1.775029e+002 -5.926239e+001 1.011625e+002 -6.038570e+001 6.037074e+001 -1.569262e-001 1.290589e+002
594375000 -3.199585e+000 -1.774654e+002 -6.073713e+001 9.230739e+001 -5.974913e+001 6.805569e+001 -1.628845e-001 1.290962e+002
595000000 -3.205958e+000 -1.775084e+002 -5.950201e+001 9.828268e+001 -6.017620e+001 6.372982e+001 -1.663240e-001 1.291097e+002
