!Agilent Technologies,E8364B,US42250235,A.06.04.32
!Agilent E8364B: A.06.04.32
!Date: Friday, January 15, 2021 15:14:12
!Correction: S11(Full 2 Port(1,2)) S21(Full 2 Port(1,2)) S12(Full 2 Port(1,2)) S22(Full 2 Port(1,2)) 
!S2P File: Measurements: S11, S21, S12, S22:
# Hz S  dB   R 50
500000000 -1.627268e-001 -1.295871e+002 -7.669090e+001 9.022255e+001 -7.336404e+001 1.258789e+002 -1.362887e-001 1.385852e+002
500625000 -1.723681e-001 -1.298510e+002 -6.821991e+001 1.253417e+002 -7.369321e+001 -7.448838e+001 -1.381267e-001 1.385620e+002
501250000 -1.770346e-001 -1.301795e+002 -7.337607e+001 1.061851e+002 -8.075486e+001 1.139338e+002 -1.339605e-001 1.384655e+002
501875000 -1.784088e-001 -1.304591e+002 -7.309759e+001 1.573231e+002 -7.197231e+001 1.354672e+002 -1.252250e-001 1.384315e+002
502500000 -1.753593e-001 -1.307614e+002 -6.906241e+001 9.775119e+001 -7.591087e+001 9.213161e+001 -1.290119e-001 1.384491e+002
503125000 -1.862458e-001 -1.310440e+002 -8.523405e+001 -1.630540e+002 -8.141494e+001 7.437343e+001 -1.296011e-001 1.383034e+002
503750000 -1.881687e-001 -1.313434e+002 -7.389262e+001 5.992488e+001 -8.008163e+001 4.505830e+001 -1.337972e-001 1.381993e+002
504375000 -1.908385e-001 -1.316352e+002 -7.576493e+001 1.045499e+002 -7.516430e+001 8.242739e+001 -1.414162e-001 1.382131e+002
505000000 -1.934865e-001 -1.319216e+002 -7.777504e+001 1.198989e+002 -6.793002e+001 5.439793e+001 -1.416904e-001 1.382053e+002
505625000 -1.888959e-001 -1.321719e+002 -7.338368e+001 7.537973e+001 -7.658466e+001 5.240981e+001 -1.505888e-001 1.381194e+002
506250000 -1.924151e-001 -1.324386e+002 -6.965823e+001 1.464972e+002 -7.208524e+001 1.246672e+002 -1.434429e-001 1.379660e+002
506875000 -1.892378e-001 -1.327375e+002 -7.759599e+001 -1.617167e+002 -7.266811e+001 7.647473e+001 -1.468887e-001 1.378876e+002
507500000 -1.953790e-001 -1.329922e+002 -8.142983e+001 1.692561e+002 -7.762555e+001 1.440623e+002 -1.469890e-001 1.377530e+002
508125000 -2.022225e-001 -1.332645e+002 -7.490988e+001 -1.783072e+002 -7.526498e+001 1.068055e+002 -1.460851e-001 1.376795e+002
508750000 -1.999580e-001 -1.334333e+002 -7.795527e+001 1.691769e+002 -7.472414e+001 1.141044e+002 -1.421400e-001 1.375782e+002
509375000 -2.065470e-001 -1.337462e+002 -6.642151e+001 9.021500e+001 -8.941770e+001 1.709111e+002 -1.467997e-001 1.374697e+002
510000000 -1.931400e-001 -1.340907e+002 -7.890452e+001 1.608268e+002 -7.324900e+001 9.871196e+001 -1.613633e-001 1.373066e+002
510625000 -2.085650e-001 -1.342700e+002 -7.654031e+001 1.229195e+002 -7.161873e+001 7.637987e+001 -1.477770e-001 1.372473e+002
511250000 -2.010186e-001 -1.345232e+002 -7.283378e+001 1.250715e+002 -7.592398e+001 1.266080e+002 -1.496090e-001 1.370264e+002
511875000 -2.061631e-001 -1.348346e+002 -7.415614e+001 7.874372e+001 -7.460093e+001 9.631780e+001 -1.461577e-001 1.370107e+002
512500000 -2.091124e-001 -1.350868e+002 -7.947839e+001 8.127466e+001 -7.610925e+001 7.641993e+001 -1.453248e-001 1.368639e+002
513125000 -2.163698e-001 -1.354149e+002 -7.359451e+001 4.964573e+001 -8.275726e+001 4.952695e+001 -1.531959e-001 1.368017e+002
513750000 -2.306696e-001 -1.356880e+002 -6.807295e+001 7.222283e+000 -7.058729e+001 9.751225e+001 -1.523639e-001 1.366905e+002
514375000 -2.268669e-001 -1.359768e+002 -6.562261e+001 6.927317e+001 -7.309201e+001 9.899160e+001 -1.391461e-001 1.365728e+002
515000000 -2.321647e-001 -1.362039e+002 -7.233280e+001 7.597028e+001 -7.274598e+001 1.274525e+002 -1.279046e-001 1.365438e+002
515625000 -2.409450e-001 -1.365712e+002 -8.223555e+001 9.174426e+001 -7.222934e+001 4.681532e+001 -1.311457e-001 1.364138e+002
516250000 -2.402271e-001 -1.368570e+002 -7.344689e+001 6.228742e+000 -7.247096e+001 7.547370e+001 -1.407250e-001 1.363380e+002
516875000 -2.505541e-001 -1.371385e+002 -6.643353e+001 7.548742e+001 -7.576022e+001 8.093855e+001 -1.360956e-001 1.363195e+002
517500000 -2.514167e-001 -1.374440e+002 -6.845789e+001 1.062144e+002 -7.052236e+001 6.223093e+001 -1.450785e-001 1.362766e+002
518125000 -2.532587e-001 -1.378514e+002 -7.208369e+001 7.805115e+001 -7.233724e+001 1.189013e+002 -1.421269e-001 1.362032e+002
518750000 -2.567219e-001 -1.381038e+002 -7.217419e+001 5.705997e+001 -7.279644e+001 1.011386e+002 -1.353262e-001 1.362412e+002
519375000 -2.588944e-001 -1.383773e+002 -7.016743e+001 4.086410e+001 -7.604855e+001 1.228190e+002 -1.277386e-001 1.361372e+002
520000000 -2.610053e-001 -1.387549e+002 -7.468858e+001 3.895554e+001 -8.051370e+001 3.741028e+001 -1.370730e-001 1.361021e+002
520625000 -2.613911e-001 -1.391143e+002 -7.442455e+001 7.493361e+001 -7.424592e+001 5.576823e+001 -1.332079e-001 1.360692e+002
521250000 -2.639998e-001 -1.394368e+002 -8.387212e+001 5.250517e+001 -7.761459e+001 1.507155e+002 -1.418691e-001 1.360916e+002
521875000 -2.664889e-001 -1.397868e+002 -6.980756e+001 6.657405e+001 -7.009946e+001 9.996359e+001 -1.318180e-001 1.360596e+002
522500000 -2.673245e-001 -1.401097e+002 -6.766490e+001 8.568063e+001 -7.864852e+001 9.037264e+000 -1.392904e-001 1.359719e+002
523125000 -2.702941e-001 -1.404277e+002 -7.084843e+001 1.143441e+002 -7.989462e+001 5.869267e+001 -1.318413e-001 1.360099e+002
523750000 -2.650357e-001 -1.407580e+002 -7.026925e+001 5.573790e+001 -7.157072e+001 8.932729e+001 -1.384080e-001 1.359176e+002
524375000 -2.849384e-001 -1.410532e+002 -7.610082e+001 3.507557e+001 -7.176096e+001 6.972509e+001 -1.293251e-001 1.358784e+002
525000000 -2.819566e-001 -1.413614e+002 -7.608273e+001 4.544371e+001 -7.337240e+001 9.322199e+001 -1.397373e-001 1.358921e+002
525625000 -2.924891e-001 -1.416158e+002 -6.815200e+001 8.193877e+001 -6.911863e+001 5.217385e+001 -1.466080e-001 1.357591e+002
526250000 -2.850501e-001 -1.419363e+002 -6.900577e+001 9.963834e+000 -6.732788e+001 5.359679e+001 -1.360416e-001 1.357702e+002
526875000 -2.896674e-001 -1.422791e+002 -7.433615e+001 1.173469e+002 -9.095040e+001 1.742215e+002 -1.335986e-001 1.356877e+002
527500000 -2.904316e-001 -1.425722e+002 -6.665900e+001 4.855898e+001 -6.958697e+001 4.665771e+001 -1.458943e-001 1.356274e+002
528125000 -3.138395e-001 -1.428848e+002 -7.011879e+001 4.157766e+001 -7.259544e+001 6.891877e+001 -1.452965e-001 1.356144e+002
528750000 -3.037815e-001 -1.431590e+002 -6.761758e+001 -4.884758e+000 -7.180939e+001 9.155952e+001 -1.394031e-001 1.356615e+002
529375000 -3.151148e-001 -1.434503e+002 -6.414584e+001 4.981078e+001 -7.244768e+001 5.002141e+001 -1.412841e-001 1.355716e+002
530000000 -3.213429e-001 -1.438566e+002 -7.166589e+001 3.449519e+001 -6.911176e+001 3.994929e+001 -1.395607e-001 1.355342e+002
530625000 -3.231947e-001 -1.441286e+002 -8.076681e+001 9.957034e+001 -7.758356e+001 5.766621e+001 -1.414263e-001 1.354742e+002
531250000 -3.258948e-001 -1.444924e+002 -6.766060e+001 2.728558e+001 -7.861761e+001 2.910136e+001 -1.307553e-001 1.353681e+002
531875000 -3.464404e-001 -1.447926e+002 -7.718014e+001 1.900414e+001 -7.157422e+001 -1.926089e+001 -1.363857e-001 1.353989e+002
532500000 -3.465987e-001 -1.450760e+002 -7.671922e+001 5.110750e+001 -6.914199e+001 4.853641e+001 -1.397037e-001 1.353962e+002
533125000 -3.473080e-001 -1.454838e+002 -6.997342e+001 6.353894e+001 -6.893276e+001 -2.394919e+000 -1.439065e-001 1.353362e+002
533750000 -3.546172e-001 -1.458289e+002 -7.937540e+001 4.343734e+001 -6.975267e+001 1.230096e+001 -1.573996e-001 1.352709e+002
534375000 -3.590944e-001 -1.461942e+002 -7.323107e+001 3.460240e+001 -6.971852e+001 2.419862e+001 -1.424684e-001 1.352185e+002
535000000 -3.684429e-001 -1.464829e+002 -6.890348e+001 3.033885e+001 -7.129915e+001 2.776843e+001 -1.521425e-001 1.351763e+002
535625000 -3.712069e-001 -1.468927e+002 -6.888529e+001 4.883961e+001 -7.199953e+001 8.012361e+000 -1.427948e-001 1.351338e+002
536250000 -3.790675e-001 -1.472323e+002 -8.688802e+001 -4.971425e-001 -7.042873e+001 4.736208e+001 -1.486221e-001 1.350496e+002
536875000 -3.804152e-001 -1.476057e+002 -6.948708e+001 4.995470e+001 -7.383848e+001 -1.979053e+001 -1.465236e-001 1.349696e+002
537500000 -3.869849e-001 -1.479362e+002 -7.277874e+001 1.142401e+002 -7.004423e+001 4.124225e+001 -1.514336e-001 1.349547e+002
538125000 -3.931834e-001 -1.482980e+002 -7.440993e+001 -3.091462e+001 -7.019107e+001 1.923108e+001 -1.465598e-001 1.348470e+002
538750000 -4.085943e-001 -1.486128e+002 -7.377931e+001 1.156834e+000 -6.882809e+001 2.859403e+000 -1.429858e-001 1.347955e+002
539375000 -4.092787e-001 -1.489585e+002 -6.704451e+001 -2.780963e+000 -7.418241e+001 1.168196e+001 -1.441486e-001 1.347510e+002
540000000 -4.134352e-001 -1.493248e+002 -6.957727e+001 5.703456e+001 -7.039677e+001 8.443311e+000 -1.467506e-001 1.346766e+002
540625000 -4.193549e-001 -1.496887e+002 -6.766373e+001 2.653416e+001 -6.970760e+001 2.561467e+001 -1.413446e-001 1.346307e+002
541250000 -4.227524e-001 -1.500011e+002 -6.984843e+001 1.556280e+000 -7.186539e+001 -2.042952e+001 -1.387769e-001 1.346593e+002
541875000 -4.266594e-001 -1.503701e+002 -7.249374e+001 1.337395e+001 -6.915823e+001 6.730679e+001 -1.417883e-001 1.345508e+002
542500000 -4.425939e-001 -1.506924e+002 -7.558710e+001 2.587571e+000 -7.037772e+001 1.286923e+000 -1.330773e-001 1.345716e+002
543125000 -4.390760e-001 -1.510453e+002 -6.610169e+001 -3.066796e+001 -6.620549e+001 1.230010e+001 -1.354166e-001 1.344648e+002
543750000 -4.529426e-001 -1.513848e+002 -6.598849e+001 1.531304e+001 -7.054433e+001 -2.141979e+001 -1.396067e-001 1.345460e+002
544375000 -4.631969e-001 -1.517227e+002 -6.676537e+001 -6.011541e+000 -6.840825e+001 3.190213e+001 -1.309073e-001 1.345247e+002
545000000 -4.616458e-001 -1.520492e+002 -6.740353e+001 2.409699e+000 -6.850147e+001 2.999109e+001 -1.377925e-001 1.345122e+002
545625000 -4.705045e-001 -1.523994e+002 -6.724461e+001 9.163658e+000 -6.985469e+001 -5.824661e+001 -1.333559e-001 1.345646e+002
546250000 -4.854014e-001 -1.527771e+002 -7.104706e+001 1.724720e+001 -6.910148e+001 1.445761e+001 -1.359464e-001 1.344989e+002
546875000 -4.883308e-001 -1.531782e+002 -7.435726e+001 2.123836e+001 -7.057207e+001 6.639751e+000 -1.387302e-001 1.345432e+002
547500000 -5.016363e-001 -1.535130e+002 -6.957493e+001 -3.625792e+001 -6.556723e+001 9.947949e+000 -1.477578e-001 1.344798e+002
548125000 -5.135925e-001 -1.538499e+002 -6.981135e+001 -2.377662e+001 -7.303934e+001 4.633127e+001 -1.398659e-001 1.344397e+002
548750000 -5.191782e-001 -1.543019e+002 -7.498444e+001 1.542910e+000 -6.684756e+001 1.790426e+001 -1.523092e-001 1.344246e+002
549375000 -5.277514e-001 -1.546789e+002 -6.841495e+001 -3.281545e+001 -6.930826e+001 2.523749e+000 -1.597865e-001 1.342660e+002
550000000 -5.307171e-001 -1.550754e+002 -7.097517e+001 -2.730635e+001 -6.892276e+001 1.254316e+001 -1.615644e-001 1.342773e+002
550625000 -5.447304e-001 -1.555134e+002 -7.608121e+001 -1.942982e+000 -6.898138e+001 1.588523e+001 -1.495594e-001 1.342137e+002
551250000 -5.561355e-001 -1.559026e+002 -6.983420e+001 -1.503321e+001 -6.607764e+001 8.992825e+000 -1.545729e-001 1.341022e+002
551875000 -5.687991e-001 -1.562999e+002 -7.102271e+001 1.497045e+001 -6.817436e+001 -3.144862e+000 -1.636526e-001 1.339759e+002
552500000 -5.777998e-001 -1.567274e+002 -6.479357e+001 -1.527807e+001 -6.916752e+001 -6.207448e+001 -1.610930e-001 1.338339e+002
553125000 -5.801283e-001 -1.571000e+002 -7.042104e+001 3.969189e+000 -6.834849e+001 -1.257958e+001 -1.606319e-001 1.337616e+002
553750000 -5.996736e-001 -1.574999e+002 -6.603130e+001 -1.822074e+001 -7.046519e+001 -1.109628e+001 -1.604590e-001 1.336125e+002
554375000 -6.087697e-001 -1.578720e+002 -6.630272e+001 -2.608519e+001 -6.875891e+001 -4.149131e+001 -1.580877e-001 1.335097e+002
555000000 -6.084457e-001 -1.583273e+002 -6.615667e+001 -1.958072e+001 -6.989131e+001 -6.558441e+000 -1.595358e-001 1.334879e+002
555625000 -6.332438e-001 -1.586279e+002 -6.443472e+001 -2.666683e+001 -7.582378e+001 8.813274e+000 -1.483919e-001 1.334444e+002
556250000 -6.476867e-001 -1.590864e+002 -6.765695e+001 -1.479617e+001 -6.555573e+001 1.085219e+000 -1.511812e-001 1.332667e+002
556875000 -6.502744e-001 -1.595046e+002 -6.661981e+001 -1.646479e+001 -7.611529e+001 1.890372e+001 -1.649963e-001 1.332662e+002
557500000 -6.677110e-001 -1.598088e+002 -6.315828e+001 -2.406724e+001 -6.751320e+001 -4.075776e+001 -1.495424e-001 1.332177e+002
558125000 -6.784141e-001 -1.602099e+002 -6.830518e+001 -3.416539e+001 -6.908704e+001 -1.496719e+001 -1.603294e-001 1.331463e+002
558750000 -6.752484e-001 -1.605493e+002 -6.321183e+001 -5.015061e+001 -6.739386e+001 -5.655943e+001 -1.447360e-001 1.331016e+002
559375000 -7.036477e-001 -1.610240e+002 -6.758884e+001 -4.100553e+001 -6.798681e+001 -2.209335e+001 -1.456561e-001 1.330908e+002
560000000 -7.192361e-001 -1.613759e+002 -6.828953e+001 -2.827324e+001 -7.414713e+001 -4.991879e+001 -1.338627e-001 1.330924e+002
560625000 -7.295722e-001 -1.617029e+002 -6.728012e+001 -3.843074e+001 -6.514969e+001 -4.308260e+001 -1.446997e-001 1.330670e+002
561250000 -7.467827e-001 -1.621201e+002 -6.669794e+001 -6.283957e+001 -7.078074e+001 -5.494218e+001 -1.400345e-001 1.330309e+002
561875000 -7.585502e-001 -1.625439e+002 -7.182147e+001 -3.053415e+001 -6.508547e+001 -6.777039e+001 -1.472949e-001 1.330453e+002
562500000 -7.775129e-001 -1.628991e+002 -6.428159e+001 -5.382221e+001 -6.654942e+001 -3.177749e+001 -1.491496e-001 1.330753e+002
563125000 -7.883449e-001 -1.632767e+002 -7.102247e+001 -7.175833e+001 -6.725465e+001 -5.331896e+001 -1.411873e-001 1.330727e+002
563750000 -8.161594e-001 -1.637647e+002 -6.753672e+001 -5.789520e+001 -6.847970e+001 -4.013354e+001 -1.531989e-001 1.330199e+002
564375000 -8.393573e-001 -1.641414e+002 -6.499290e+001 -4.230731e+001 -6.525868e+001 -5.655205e+001 -1.542365e-001 1.329934e+002
565000000 -8.515111e-001 -1.646484e+002 -6.594842e+001 -6.396215e+001 -6.739007e+001 -6.838190e+001 -1.601365e-001 1.328696e+002
565625000 -8.730531e-001 -1.650472e+002 -6.533710e+001 -4.288436e+001 -6.486852e+001 -5.765503e+001 -1.568781e-001 1.328559e+002
566250000 -8.922561e-001 -1.655298e+002 -6.231261e+001 -5.436690e+001 -6.626808e+001 -7.275080e+001 -1.678549e-001 1.327426e+002
566875000 -9.208119e-001 -1.659554e+002 -6.760729e+001 -6.478108e+001 -6.549941e+001 -5.442421e+001 -1.710675e-001 1.325632e+002
567500000 -9.473177e-001 -1.665116e+002 -6.851715e+001 -5.171579e+001 -6.839242e+001 -5.566776e+001 -1.675648e-001 1.324532e+002
568125000 -9.730073e-001 -1.669004e+002 -6.641376e+001 -5.117854e+001 -6.670508e+001 -5.956383e+001 -1.802190e-001 1.323301e+002
568750000 -9.933742e-001 -1.673922e+002 -6.797771e+001 -1.111544e+002 -6.648331e+001 -6.679375e+001 -1.759106e-001 1.321727e+002
569375000 -1.012579e+000 -1.678738e+002 -6.706864e+001 -7.752637e+001 -6.716325e+001 -7.142487e+001 -1.760706e-001 1.320274e+002
570000000 -1.027953e+000 -1.684337e+002 -6.997298e+001 -2.450930e+001 -6.586057e+001 -5.279094e+001 -1.681328e-001 1.318804e+002
570625000 -1.052076e+000 -1.688755e+002 -6.745660e+001 -6.144968e+001 -6.593634e+001 -7.642648e+001 -1.654535e-001 1.317988e+002
571250000 -1.080011e+000 -1.693089e+002 -6.398352e+001 -8.550394e+001 -6.713437e+001 -9.072832e+001 -1.671599e-001 1.316938e+002
571875000 -1.100706e+000 -1.697980e+002 -6.632082e+001 -4.555025e+001 -6.670773e+001 -6.195266e+001 -1.637928e-001 1.315286e+002
572500000 -1.129726e+000 -1.702839e+002 -7.104575e+001 -6.067786e+001 -6.705316e+001 -6.072092e+001 -1.695066e-001 1.314358e+002
573125000 -1.152080e+000 -1.707103e+002 -6.309250e+001 -6.477988e+001 -6.811372e+001 -7.096486e+001 -1.480093e-001 1.313319e+002
573750000 -1.175904e+000 -1.711458e+002 -6.588943e+001 -1.075318e+002 -7.021565e+001 -8.249020e+001 -1.558404e-001 1.312577e+002
574375000 -1.198760e+000 -1.716216e+002 -6.873820e+001 -7.207587e+001 -6.588177e+001 -8.208684e+001 -1.601615e-001 1.312702e+002
575000000 -1.225802e+000 -1.721016e+002 -6.524649e+001 -9.502574e+001 -6.712476e+001 -5.637998e+001 -1.553966e-001 1.311837e+002
575625000 -1.259609e+000 -1.725204e+002 -6.351453e+001 -6.243489e+001 -6.594579e+001 -9.549255e+001 -1.591090e-001 1.311955e+002
576250000 -1.293423e+000 -1.729934e+002 -6.730105e+001 -6.194978e+001 -6.349301e+001 -8.111448e+001 -1.634250e-001 1.311564e+002
576875000 -1.319150e+000 -1.733419e+002 -6.526778e+001 -8.522490e+001 -7.355233e+001 -1.118671e+002 -1.543236e-001 1.311048e+002
577500000 -1.361140e+000 -1.737788e+002 -6.720181e+001 -8.858043e+001 -6.934279e+001 -9.594246e+001 -1.544709e-001 1.310638e+002
578125000 -1.394005e+000 -1.742155e+002 -6.367289e+001 -1.013673e+002 -6.417437e+001 -7.304259e+001 -1.561173e-001 1.310570e+002
578750000 -1.431967e+000 -1.746459e+002 -6.619167e+001 -1.028131e+002 -6.897343e+001 -8.424368e+001 -1.512463e-001 1.309805e+002
579375000 -1.464497e+000 -1.750545e+002 -6.723658e+001 -1.422397e+002 -6.230412e+001 -1.017463e+002 -1.544548e-001 1.308994e+002
580000000 -1.501855e+000 -1.754203e+002 -6.492024e+001 -1.111999e+002 -6.302350e+001 -1.099634e+002 -1.659201e-001 1.308834e+002
580625000 -1.548857e+000 -1.758171e+002 -6.674424e+001 -1.059361e+002 -7.048470e+001 -1.103149e+002 -1.597881e-001 1.308506e+002
581250000 -1.581224e+000 -1.762130e+002 -6.641482e+001 -1.096900e+002 -6.627526e+001 -7.362526e+001 -1.591031e-001 1.307780e+002
581875000 -1.623194e+000 -1.766664e+002 -6.617091e+001 -1.504037e+002 -6.667692e+001 -9.711441e+001 -1.608621e-001 1.307146e+002
582500000 -1.669254e+000 -1.770504e+002 -6.663412e+001 -1.254613e+002 -6.336943e+001 -9.530920e+001 -1.657038e-001 1.306104e+002
583125000 -1.702530e+000 -1.775078e+002 -6.608376e+001 -1.245660e+002 -6.554789e+001 -1.278522e+002 -1.688653e-001 1.304041e+002
583750000 -1.747811e+000 -1.779426e+002 -6.758470e+001 -1.155971e+002 -6.486189e+001 -8.737997e+001 -1.773780e-001 1.303367e+002
584375000 -1.774691e+000 -1.783843e+002 -6.434750e+001 -1.338242e+002 -6.742440e+001 -1.387811e+002 -1.634133e-001 1.302583e+002
585000000 -1.821736e+000 -1.788609e+002 -6.275835e+001 -1.178983e+002 -6.511023e+001 -1.216525e+002 -1.719242e-001 1.301801e+002
585625000 -1.856669e+000 -1.792981e+002 -6.894278e+001 -1.231112e+002 -6.464262e+001 -1.303204e+002 -1.631919e-001 1.300731e+002
586250000 -1.897838e+000 -1.797829e+002 -6.531714e+001 -9.893771e+001 -6.674553e+001 -1.286141e+002 -1.545939e-001 1.300543e+002
586875000 -1.939853e+000 1.797789e+002 -6.263044e+001 -1.209318e+002 -6.511929e+001 -1.377919e+002 -1.546561e-001 1.299775e+002
587500000 -1.988328e+000 1.792752e+002 -6.466827e+001 -1.485714e+002 -6.207615e+001 -1.127878e+002 -1.535396e-001 1.298751e+002
588125000 -2.030286e+000 1.788269e+002 -6.672363e+001 -1.437571e+002 -6.519033e+001 -1.242819e+002 -1.526573e-001 1.298230e+002
588750000 -2.076110e+000 1.784545e+002 -6.676922e+001 -1.315947e+002 -6.648016e+001 -1.346792e+002 -1.559056e-001 1.298295e+002
589375000 -2.109896e+000 1.779762e+002 -6.434217e+001 -1.442529e+002 -6.425682e+001 -1.183279e+002 -1.408703e-001 1.297485e+002
590000000 -2.158909e+000 1.775903e+002 -6.319250e+001 -1.413411e+002 -6.404892e+001 -1.389287e+002 -1.541828e-001 1.297838e+002
590625000 -2.216411e+000 1.771984e+002 -6.413239e+001 -1.226925e+002 -6.345027e+001 -1.439094e+002 -1.461583e-001 1.297777e+002
591250000 -2.259323e+000 1.767717e+002 -6.451183e+001 -1.496546e+002 -6.315210e+001 -1.390883e+002 -1.484795e-001 1.297600e+002
591875000 -2.318716e+000 1.764636e+002 -6.393216e+001 -1.406870e+002 -6.305804e+001 -1.428040e+002 -1.454323e-001 1.298056e+002
592500000 -2.364455e+000 1.761051e+002 -6.467574e+001 -1.385627e+002 -6.325196e+001 -1.512818e+002 -1.374452e-001 1.298314e+002
593125000 -2.418097e+000 1.757590e+002 -6.592854e+001 -1.698193e+002 -6.405573e+001 -1.587393e+002 -1.452929e-001 1.298729e+002
593750000 -2.468318e+000 1.754022e+002 -6.453836e+001 -1.681387e+002 -6.141241e+001 -1.497237e+002 -1.359605e-001 1.299384e+002
594375000 -2.524328e+000 1.750877e+002 -6.396985e+001 -1.596591e+002 -6.596719e+001 -1.651885e+002 -1.393175e-001 1.300083e+002
595000000 -2.582274e+000 1.747118e+002 -6.760839e+001 -1.713403e+002 -6.537791e+001 -1.759129e+002 -1.537691e-001 1.299589e+002
595625000 -2.645213e+000 1.743820e+002 -6.443936e+001 1.789330e+002 -6.501713e+001 -1.578267e+002 -1.478318e-001 1.299742e+002
