!Agilent Technologies,E8364B,US42250235,A.06.04.32
!Agilent E8364B: A.06.04.32
!Date: Friday, January 15, 2021 15:15:46
!Correction: S11(Full 2 Port(1,2)) S21(Full 2 Port(1,2)) S12(Full 2 Port(1,2)) S22(Full 2 Port(1,2)) 
!S2P File: Measurements: S11, S21, S12, S22:
# Hz S  dB   R 50
500000000 -1.396750e-001 -1.297224e+002 -8.059437e+001 -1.349016e+002 -7.454073e+001 -2.408552e+001 -1.473552e-001 1.384206e+002
500625000 -1.419608e-001 -1.300247e+002 -8.239787e+001 -1.076467e+002 -7.435321e+001 -3.357991e+001 -1.554294e-001 1.383790e+002
501250000 -1.520818e-001 -1.302946e+002 -7.201684e+001 9.258263e+001 -8.189058e+001 1.422518e+002 -1.430850e-001 1.382876e+002
501875000 -1.493241e-001 -1.306364e+002 -7.016473e+001 9.299010e+001 -8.043793e+001 -1.082901e+002 -1.381421e-001 1.382678e+002
502500000 -1.511287e-001 -1.308890e+002 -8.529649e+001 8.267447e+001 -7.425020e+001 9.846295e+001 -1.340102e-001 1.382377e+002
503125000 -1.574747e-001 -1.312305e+002 -9.482491e+001 -1.361663e+002 -7.111553e+001 -9.320725e+001 -1.316469e-001 1.381797e+002
503750000 -1.522015e-001 -1.314341e+002 -8.157037e+001 -1.533972e+002 -8.247549e+001 1.622017e+002 -1.435443e-001 1.380351e+002
504375000 -1.629037e-001 -1.317964e+002 -7.541964e+001 1.355568e+002 -7.892252e+001 3.781222e+001 -1.533988e-001 1.380692e+002
505000000 -1.697684e-001 -1.320826e+002 -7.405143e+001 -8.991653e+000 -7.792961e+001 7.485371e+001 -1.537421e-001 1.380159e+002
505625000 -1.591537e-001 -1.323156e+002 -8.434394e+001 -1.590573e+002 -8.130378e+001 -1.600617e+002 -1.502847e-001 1.379770e+002
506250000 -1.697257e-001 -1.326138e+002 -7.944826e+001 1.669675e+001 -7.597324e+001 -1.206501e+002 -1.583876e-001 1.378373e+002
506875000 -1.634961e-001 -1.328919e+002 -7.373399e+001 5.733847e+001 -8.425423e+001 -9.112826e+001 -1.542348e-001 1.377698e+002
507500000 -1.672493e-001 -1.332054e+002 -6.802247e+001 -1.695680e+001 -7.168332e+001 -1.346839e+000 -1.575375e-001 1.376102e+002
508125000 -1.691683e-001 -1.334479e+002 -8.187036e+001 4.698447e+001 -8.302109e+001 1.598801e+002 -1.554296e-001 1.375560e+002
508750000 -1.724442e-001 -1.336746e+002 -8.499847e+001 6.261695e+000 -9.240971e+001 3.298793e+001 -1.541585e-001 1.374178e+002
509375000 -1.755137e-001 -1.340063e+002 -7.812504e+001 3.713956e+001 -7.388556e+001 5.845742e+001 -1.514597e-001 1.373710e+002
510000000 -1.766108e-001 -1.343246e+002 -7.490587e+001 -1.145951e+002 -8.014907e+001 4.208088e+001 -1.633596e-001 1.371869e+002
510625000 -1.898280e-001 -1.345113e+002 -8.449149e+001 -8.587411e+001 -8.072572e+001 1.669799e+002 -1.508191e-001 1.371462e+002
511250000 -1.886968e-001 -1.347830e+002 -7.533000e+001 1.453948e+002 -9.275985e+001 -1.186162e+002 -1.651512e-001 1.369001e+002
511875000 -1.876551e-001 -1.350678e+002 -8.355431e+001 -3.988308e+001 -7.366898e+001 2.931679e+001 -1.601794e-001 1.368329e+002
512500000 -1.840920e-001 -1.353619e+002 -8.831495e+001 6.051878e+001 -7.346078e+001 -3.988089e+000 -1.536583e-001 1.367052e+002
513125000 -2.009187e-001 -1.356612e+002 -7.467924e+001 1.135395e+002 -7.804292e+001 1.259945e+002 -1.578485e-001 1.366211e+002
513750000 -2.098636e-001 -1.359395e+002 -7.396193e+001 1.115001e+001 -8.075234e+001 -9.153919e+001 -1.603552e-001 1.365120e+002
514375000 -2.068583e-001 -1.362425e+002 -7.410021e+001 -9.059594e+001 -8.615122e+001 -9.877315e+001 -1.495812e-001 1.364328e+002
515000000 -2.089553e-001 -1.365612e+002 -7.867377e+001 -2.383853e+001 -6.938746e+001 -5.216011e+001 -1.441270e-001 1.363300e+002
515625000 -2.141632e-001 -1.369086e+002 -7.648745e+001 -9.186526e+001 -7.820281e+001 -7.688124e+000 -1.405558e-001 1.362679e+002
516250000 -2.187447e-001 -1.371424e+002 -8.022880e+001 -7.507191e+001 -7.306634e+001 -1.410145e+002 -1.540084e-001 1.361862e+002
516875000 -2.331102e-001 -1.375027e+002 -8.096980e+001 -8.962328e+001 -8.970358e+001 8.324191e+001 -1.416528e-001 1.361547e+002
517500000 -2.276639e-001 -1.377921e+002 -7.016917e+001 -6.906689e+001 -7.412088e+001 2.871473e+001 -1.481152e-001 1.361125e+002
518125000 -2.312065e-001 -1.381537e+002 -7.759801e+001 1.625409e+002 -7.319576e+001 -7.745067e+001 -1.402351e-001 1.360279e+002
518750000 -2.391629e-001 -1.385038e+002 -8.250341e+001 -3.930282e+001 -7.399706e+001 -5.159195e+001 -1.499467e-001 1.360399e+002
519375000 -2.459819e-001 -1.387952e+002 -7.202800e+001 -1.732845e+001 -7.605986e+001 -1.173807e+001 -1.389323e-001 1.360131e+002
520000000 -2.486184e-001 -1.391812e+002 -7.542306e+001 -9.270434e+001 -7.713946e+001 3.918079e+001 -1.454390e-001 1.359859e+002
520625000 -2.494718e-001 -1.395257e+002 -7.665675e+001 -1.280090e+001 -7.851176e+001 -1.628076e+002 -1.382744e-001 1.359260e+002
521250000 -2.495980e-001 -1.398530e+002 -7.622916e+001 -1.474404e+002 -7.998098e+001 1.458677e+002 -1.455706e-001 1.359007e+002
521875000 -2.541684e-001 -1.401929e+002 -8.694126e+001 -9.844561e+001 -7.292337e+001 -4.500633e+001 -1.334190e-001 1.358887e+002
522500000 -2.577451e-001 -1.405431e+002 -7.122060e+001 4.686797e+000 -6.924336e+001 -1.180772e+002 -1.449220e-001 1.358622e+002
523125000 -2.693934e-001 -1.408829e+002 -7.694115e+001 2.945574e+001 -7.201701e+001 -9.180704e+001 -1.409302e-001 1.358588e+002
523750000 -2.637179e-001 -1.411922e+002 -6.931215e+001 -4.445601e+001 -7.389365e+001 1.818552e+001 -1.404540e-001 1.357684e+002
524375000 -2.881563e-001 -1.415455e+002 -7.059103e+001 -6.219155e+001 -7.104272e+001 -6.711441e+001 -1.417573e-001 1.356731e+002
525000000 -2.787870e-001 -1.418381e+002 -7.605263e+001 -1.088427e+002 -7.526221e+001 1.302667e+001 -1.460519e-001 1.356594e+002
525625000 -2.956006e-001 -1.421051e+002 -7.357777e+001 -1.511374e+002 -7.777017e+001 -9.112739e+001 -1.535042e-001 1.356135e+002
526250000 -2.864830e-001 -1.424470e+002 -7.105171e+001 -1.030532e+002 -7.016629e+001 1.321121e+002 -1.481634e-001 1.355985e+002
526875000 -2.971721e-001 -1.428016e+002 -7.642504e+001 5.411690e+001 -7.350471e+001 -1.040521e+002 -1.499199e-001 1.355089e+002
527500000 -3.082190e-001 -1.430891e+002 -7.618845e+001 7.610060e+001 -7.145976e+001 -6.333952e+001 -1.438017e-001 1.354996e+002
528125000 -3.205616e-001 -1.434011e+002 -6.987215e+001 -4.183783e+001 -7.272262e+001 -1.257172e+002 -1.515489e-001 1.354674e+002
528750000 -3.176536e-001 -1.437414e+002 -7.610786e+001 1.468294e+002 -7.022469e+001 -6.861346e+001 -1.468419e-001 1.354861e+002
529375000 -3.322410e-001 -1.440293e+002 -7.909718e+001 -6.207918e+001 -8.734825e+001 -1.789770e+001 -1.544604e-001 1.353732e+002
530000000 -3.435642e-001 -1.444395e+002 -7.429050e+001 -1.410957e+001 -8.515128e+001 1.213153e+002 -1.520939e-001 1.353466e+002
530625000 -3.428302e-001 -1.446944e+002 -7.811396e+001 -3.338491e+001 -7.827044e+001 -7.372852e+001 -1.498507e-001 1.352603e+002
531250000 -3.550802e-001 -1.451187e+002 -8.198410e+001 1.456771e+002 -7.375710e+001 -1.212828e+002 -1.468599e-001 1.352082e+002
531875000 -3.728759e-001 -1.453796e+002 -7.526633e+001 -5.684390e+001 -7.575146e+001 -7.639536e+001 -1.505643e-001 1.351876e+002
532500000 -3.735924e-001 -1.456743e+002 -7.943944e+001 1.353190e+002 -7.992336e+001 1.494829e+002 -1.465962e-001 1.351281e+002
533125000 -3.837830e-001 -1.460390e+002 -7.698734e+001 -1.064260e+002 -9.194991e+001 -8.212204e+001 -1.565188e-001 1.351756e+002
533750000 -3.882183e-001 -1.464057e+002 -7.913635e+001 2.401569e+001 -7.338410e+001 -4.903323e+001 -1.683678e-001 1.351115e+002
534375000 -3.932036e-001 -1.467777e+002 -7.117349e+001 -1.144620e+002 -7.879351e+001 -7.035958e+000 -1.567068e-001 1.350046e+002
535000000 -4.052778e-001 -1.471147e+002 -7.445802e+001 -1.960287e+001 -8.024215e+001 -7.803577e+001 -1.470756e-001 1.349475e+002
535625000 -4.146363e-001 -1.474789e+002 -7.007564e+001 1.792079e+001 -8.204282e+001 1.261420e+002 -1.537134e-001 1.349143e+002
536250000 -4.210272e-001 -1.478382e+002 -7.891029e+001 -1.007838e+002 -7.014520e+001 -3.260539e+001 -1.485976e-001 1.348222e+002
536875000 -4.308429e-001 -1.482088e+002 -7.205095e+001 4.464756e+000 -8.682358e+001 1.478839e+002 -1.526573e-001 1.347841e+002
537500000 -4.354976e-001 -1.485271e+002 -7.948833e+001 1.213229e+002 -7.469002e+001 -2.562926e+001 -1.473906e-001 1.347770e+002
538125000 -4.430405e-001 -1.489323e+002 -7.573116e+001 -7.454803e+001 -9.373658e+001 -1.193259e+002 -1.528706e-001 1.346755e+002
538750000 -4.693260e-001 -1.492867e+002 -7.740946e+001 -9.073162e+001 -6.941584e+001 -1.157446e+002 -1.545797e-001 1.346527e+002
539375000 -4.781892e-001 -1.496049e+002 -7.679617e+001 -1.093803e+002 -7.328195e+001 -6.228285e+001 -1.464930e-001 1.346053e+002
540000000 -4.879096e-001 -1.499492e+002 -7.478203e+001 -5.716779e+001 -7.233721e+001 -1.081193e+002 -1.487384e-001 1.344988e+002
540625000 -4.913630e-001 -1.503653e+002 -6.984340e+001 -8.758052e+001 -7.039543e+001 -1.464259e+002 -1.467764e-001 1.345154e+002
541250000 -5.078880e-001 -1.506749e+002 -7.847107e+001 -3.272421e+001 -6.889925e+001 -8.604247e+001 -1.427918e-001 1.344864e+002
541875000 -5.122626e-001 -1.509758e+002 -6.999612e+001 -9.834479e+001 -7.756188e+001 -6.439885e+001 -1.485085e-001 1.344097e+002
542500000 -5.273777e-001 -1.513596e+002 -7.056040e+001 -1.761399e+002 -6.885675e+001 -9.485297e+001 -1.414309e-001 1.343683e+002
543125000 -5.299805e-001 -1.516907e+002 -7.675896e+001 1.664913e+002 -7.836116e+001 -1.064953e+002 -1.396019e-001 1.343102e+002
543750000 -5.424918e-001 -1.520317e+002 -7.148328e+001 -9.629108e+001 -8.158513e+001 8.322512e+001 -1.436630e-001 1.343452e+002
544375000 -5.550299e-001 -1.523882e+002 -7.393870e+001 1.666900e+002 -7.712864e+001 5.775717e+001 -1.392227e-001 1.343473e+002
545000000 -5.593330e-001 -1.526736e+002 -8.009193e+001 -1.598607e+002 -7.466632e+001 -1.184015e+001 -1.351854e-001 1.343358e+002
545625000 -5.770811e-001 -1.530854e+002 -7.675832e+001 -9.193256e+001 -8.034647e+001 -1.745999e+002 -1.363447e-001 1.343602e+002
546250000 -5.976988e-001 -1.534168e+002 -7.360119e+001 1.485157e+002 -7.140002e+001 -6.806516e+001 -1.511803e-001 1.342920e+002
546875000 -6.099312e-001 -1.538492e+002 -7.723428e+001 1.252817e+002 -7.861931e+001 1.789472e+002 -1.534654e-001 1.343436e+002
547500000 -6.255333e-001 -1.542124e+002 -7.515185e+001 4.715719e+000 -8.064446e+001 -5.881294e+001 -1.466097e-001 1.343308e+002
548125000 -6.462244e-001 -1.545650e+002 -7.326994e+001 -7.376559e+001 -8.100176e+001 -1.165450e+002 -1.478043e-001 1.342688e+002
548750000 -6.620104e-001 -1.550029e+002 -6.949015e+001 -2.214788e+001 -7.503220e+001 -6.539771e+001 -1.614074e-001 1.342224e+002
549375000 -6.830049e-001 -1.553685e+002 -7.408057e+001 1.203976e+002 -8.985586e+001 -1.323155e+002 -1.540006e-001 1.340143e+002
550000000 -6.935989e-001 -1.557182e+002 -8.003590e+001 -6.655585e+001 -7.275154e+001 -9.612436e+001 -1.631489e-001 1.340854e+002
550625000 -7.160048e-001 -1.561218e+002 -8.168521e+001 5.300748e+001 -7.356869e+001 -7.763683e+001 -1.710035e-001 1.340033e+002
551250000 -7.303300e-001 -1.564870e+002 -7.531390e+001 -8.516874e+001 -7.643037e+001 -2.828280e+001 -1.623668e-001 1.339049e+002
551875000 -7.531383e-001 -1.568752e+002 -7.443066e+001 -1.380042e+002 -7.784260e+001 -9.191251e+001 -1.674682e-001 1.337896e+002
552500000 -7.714170e-001 -1.572742e+002 -7.896463e+001 6.746709e+001 -7.646413e+001 -5.004094e+001 -1.617163e-001 1.337063e+002
553125000 -7.876574e-001 -1.576082e+002 -7.594128e+001 -1.118854e+002 -7.403943e+001 -7.792760e+001 -1.674248e-001 1.336250e+002
553750000 -8.151432e-001 -1.579842e+002 -7.438536e+001 -1.302365e+002 -7.297029e+001 -1.558110e+001 -1.738506e-001 1.334403e+002
554375000 -8.249974e-001 -1.583006e+002 -7.164806e+001 -9.316104e+001 -7.385841e+001 -5.291815e+001 -1.671239e-001 1.334076e+002
555000000 -8.418400e-001 -1.586701e+002 -7.171403e+001 -1.346270e+002 -7.166172e+001 -1.202014e+002 -1.739024e-001 1.332325e+002
555625000 -8.680369e-001 -1.590253e+002 -7.357392e+001 -1.080073e+002 -7.341222e+001 -1.052303e+002 -1.594952e-001 1.332566e+002
556250000 -8.897980e-001 -1.593732e+002 -7.309892e+001 -9.720952e+001 -7.175136e+001 -6.557356e+001 -1.622047e-001 1.330678e+002
556875000 -8.954270e-001 -1.597272e+002 -7.903042e+001 -6.597293e+001 -7.838358e+001 -1.241032e+002 -1.715842e-001 1.330990e+002
557500000 -9.340395e-001 -1.600264e+002 -7.644103e+001 -1.053856e+002 -7.049685e+001 -9.007295e+001 -1.642520e-001 1.329913e+002
558125000 -9.566902e-001 -1.603388e+002 -7.418141e+001 4.430093e+000 -7.522240e+001 -1.740961e+002 -1.624294e-001 1.329317e+002
558750000 -9.724809e-001 -1.606307e+002 -8.781206e+001 -1.293670e+002 -7.731738e+001 -5.835150e+001 -1.520960e-001 1.329247e+002
559375000 -9.939008e-001 -1.609849e+002 -6.904977e+001 -1.787715e+002 -7.304253e+001 -1.184185e+002 -1.539369e-001 1.329019e+002
560000000 -1.015842e+000 -1.612003e+002 -6.862578e+001 -1.116593e+002 -7.336397e+001 -1.226434e+002 -1.445237e-001 1.328591e+002
560625000 -1.034636e+000 -1.615039e+002 -7.498788e+001 -1.773235e+002 -7.859364e+001 -1.653876e+002 -1.445698e-001 1.329108e+002
561250000 -1.046245e+000 -1.618122e+002 -8.530958e+001 -1.326437e+002 -7.990149e+001 -5.613647e+001 -1.431402e-001 1.328706e+002
561875000 -1.064811e+000 -1.621443e+002 -7.592674e+001 -1.114624e+002 -8.023198e+001 1.907121e+001 -1.501546e-001 1.329071e+002
562500000 -1.084398e+000 -1.624719e+002 -6.864175e+001 -1.531675e+001 -7.265787e+001 -1.168373e+002 -1.530389e-001 1.328837e+002
563125000 -1.087938e+000 -1.628058e+002 -8.471380e+001 -1.738169e+002 -8.317554e+001 -1.073105e+002 -1.509793e-001 1.328144e+002
563750000 -1.116071e+000 -1.631583e+002 -7.717242e+001 1.124045e+002 -7.565170e+001 -1.732537e+002 -1.631813e-001 1.328186e+002
564375000 -1.133722e+000 -1.635289e+002 -7.301690e+001 -1.745366e+002 -7.455260e+001 -4.608309e+001 -1.664856e-001 1.327951e+002
565000000 -1.163680e+000 -1.639055e+002 -8.962796e+001 -1.633169e+002 -8.094424e+001 -3.499846e+000 -1.615214e-001 1.326547e+002
565625000 -1.184402e+000 -1.642610e+002 -7.940612e+001 -2.644355e+001 -7.057621e+001 -6.372933e+001 -1.691892e-001 1.326367e+002
566250000 -1.201340e+000 -1.646550e+002 -6.923201e+001 -1.060078e+002 -8.134594e+001 -1.599122e+002 -1.753814e-001 1.325346e+002
566875000 -1.248542e+000 -1.650834e+002 -7.469021e+001 -6.419070e+001 -8.096275e+001 1.786480e+002 -1.750875e-001 1.323522e+002
567500000 -1.270613e+000 -1.655055e+002 -8.036060e+001 -6.106786e+001 -8.893743e+001 -1.307357e+002 -1.685038e-001 1.322693e+002
568125000 -1.301839e+000 -1.657666e+002 -6.955473e+001 -1.057887e+002 -7.476278e+001 -9.291903e+001 -1.761983e-001 1.321418e+002
568750000 -1.319468e+000 -1.661205e+002 -7.179172e+001 -1.404779e+002 -7.381622e+001 -1.079310e+002 -1.864991e-001 1.319799e+002
569375000 -1.346964e+000 -1.665239e+002 -6.895349e+001 -1.206526e+002 -8.707877e+001 -1.093243e+002 -1.743374e-001 1.318717e+002
570000000 -1.366351e+000 -1.668939e+002 -7.643987e+001 -7.190897e+001 -7.360908e+001 -1.124294e+002 -1.739541e-001 1.317162e+002
570625000 -1.391097e+000 -1.671542e+002 -8.476380e+001 5.935558e+001 -6.992863e+001 -1.027200e+002 -1.689859e-001 1.315977e+002
571250000 -1.402018e+000 -1.675363e+002 -7.087712e+001 -1.289229e+002 -7.353740e+001 -1.691627e+002 -1.831709e-001 1.315252e+002
571875000 -1.428116e+000 -1.678663e+002 -6.610972e+001 -1.542515e+002 -6.750422e+001 -1.022941e+002 -1.697472e-001 1.313849e+002
572500000 -1.457172e+000 -1.682654e+002 -7.158035e+001 1.586582e+002 -7.275656e+001 -9.115332e+001 -1.644747e-001 1.312498e+002
573125000 -1.470765e+000 -1.686142e+002 -7.214387e+001 -1.535073e+002 -6.941196e+001 -1.039488e+002 -1.600479e-001 1.312056e+002
573750000 -1.492790e+000 -1.688957e+002 -7.599304e+001 -8.569334e+001 -7.465246e+001 -1.185873e+002 -1.754214e-001 1.311319e+002
574375000 -1.512863e+000 -1.692436e+002 -6.957289e+001 -1.475666e+002 -7.380475e+001 -1.469684e+002 -1.642751e-001 1.311137e+002
575000000 -1.534775e+000 -1.695736e+002 -7.124423e+001 -1.707918e+002 -7.346845e+001 -9.795119e+001 -1.608538e-001 1.310418e+002
575625000 -1.560088e+000 -1.698508e+002 -6.873026e+001 -9.852914e+001 -8.185254e+001 -1.450631e+002 -1.683989e-001 1.310114e+002
576250000 -1.585578e+000 -1.701515e+002 -7.836543e+001 -7.980099e+001 -6.769287e+001 -1.177880e+002 -1.637445e-001 1.309511e+002
576875000 -1.601707e+000 -1.704084e+002 -7.507677e+001 -1.042202e+002 -6.891229e+001 -9.940875e+001 -1.653772e-001 1.309063e+002
577500000 -1.635769e+000 -1.706842e+002 -6.649381e+001 -1.220687e+002 -6.668610e+001 -1.331888e+002 -1.585846e-001 1.308937e+002
578125000 -1.652345e+000 -1.709245e+002 -6.675461e+001 -1.657011e+002 -6.900771e+001 -1.305430e+002 -1.568079e-001 1.308685e+002
578750000 -1.670010e+000 -1.711916e+002 -6.818159e+001 -1.579517e+002 -7.577453e+001 -1.327964e+002 -1.604841e-001 1.308220e+002
579375000 -1.683586e+000 -1.714071e+002 -6.987312e+001 -1.613767e+002 -6.714704e+001 -1.492205e+002 -1.599068e-001 1.307858e+002
580000000 -1.700047e+000 -1.716322e+002 -6.984489e+001 -1.428365e+002 -7.341446e+001 -1.265903e+002 -1.631116e-001 1.307334e+002
580625000 -1.719002e+000 -1.718790e+002 -7.366936e+001 1.612126e+002 -6.953066e+001 -1.392756e+002 -1.531364e-001 1.306595e+002
581250000 -1.730919e+000 -1.721542e+002 -6.866715e+001 1.789887e+002 -6.573862e+001 -1.581489e+002 -1.648600e-001 1.306160e+002
581875000 -1.738106e+000 -1.724241e+002 -7.323996e+001 1.778611e+002 -6.549345e+001 -1.240799e+002 -1.645713e-001 1.305430e+002
582500000 -1.749556e+000 -1.727595e+002 -6.917025e+001 1.791430e+002 -7.000449e+001 -1.796074e+002 -1.691884e-001 1.304544e+002
583125000 -1.752701e+000 -1.731826e+002 -7.012431e+001 1.796363e+002 -6.553906e+001 -1.426086e+002 -1.740907e-001 1.302753e+002
583750000 -1.766759e+000 -1.736036e+002 -7.043733e+001 -1.749931e+002 -7.171636e+001 -1.779618e+002 -1.786480e-001 1.302184e+002
584375000 -1.780984e+000 -1.740002e+002 -6.900641e+001 1.689475e+002 -7.204482e+001 -1.709926e+002 -1.647464e-001 1.301111e+002
585000000 -1.798472e+000 -1.744243e+002 -6.945707e+001 1.753043e+002 -7.355212e+001 -1.695396e+002 -1.793366e-001 1.300186e+002
585625000 -1.825953e+000 -1.748036e+002 -6.854642e+001 -1.293074e+002 -6.829182e+001 -1.504547e+002 -1.608477e-001 1.299027e+002
586250000 -1.837078e+000 -1.752186e+002 -6.781196e+001 -1.439369e+002 -6.841192e+001 1.770106e+002 -1.623813e-001 1.299163e+002
586875000 -1.843776e+000 -1.756550e+002 -7.653857e+001 -1.048008e+002 -6.918629e+001 1.773999e+002 -1.687603e-001 1.297653e+002
587500000 -1.866330e+000 -1.760572e+002 -7.234844e+001 -1.677833e+002 -7.036482e+001 -1.543466e+002 -1.690645e-001 1.296989e+002
588125000 -1.889967e+000 -1.764135e+002 -7.424320e+001 1.767344e+002 -7.350066e+001 1.794940e+002 -1.644499e-001 1.297202e+002
588750000 -1.890532e+000 -1.767628e+002 -6.834960e+001 1.279857e+002 -7.663339e+001 1.406078e+002 -1.610600e-001 1.296786e+002
589375000 -1.901715e+000 -1.771586e+002 -7.050582e+001 1.518150e+002 -6.703800e+001 1.772568e+002 -1.555106e-001 1.296108e+002
590000000 -1.917126e+000 -1.775595e+002 -6.867805e+001 -1.736703e+002 -6.670938e+001 1.733192e+002 -1.510071e-001 1.296334e+002
590625000 -1.930620e+000 -1.779703e+002 -6.667863e+001 -1.635473e+002 -6.820309e+001 1.769176e+002 -1.516966e-001 1.295896e+002
591250000 -1.950096e+000 -1.783768e+002 -7.257678e+001 1.526270e+002 -7.254052e+001 1.584292e+002 -1.568467e-001 1.296484e+002
591875000 -1.970636e+000 -1.787370e+002 -6.621211e+001 -1.613643e+002 -6.651171e+001 1.614338e+002 -1.492859e-001 1.296091e+002
592500000 -1.995793e+000 -1.791027e+002 -6.652288e+001 1.596339e+002 -7.703208e+001 -1.493692e+002 -1.475735e-001 1.297388e+002
593125000 -2.020267e+000 -1.794104e+002 -6.900243e+001 -1.409004e+002 -7.217683e+001 1.456180e+002 -1.504633e-001 1.298074e+002
593750000 -2.041456e+000 -1.797653e+002 -6.944154e+001 1.505939e+002 -7.109527e+001 -1.652469e+002 -1.434580e-001 1.297681e+002
594375000 -2.048650e+000 1.799418e+002 -6.607377e+001 -1.686110e+002 -7.720517e+001 1.559148e+002 -1.450349e-001 1.297990e+002
595000000 -2.070709e+000 1.796132e+002 -7.092605e+001 -1.513687e+002 -7.121466e+001 -1.512081e+002 -1.609350e-001 1.298479e+002
