!Agilent Technologies,E8364B,US42250235,A.06.04.32
!Agilent E8364B: A.06.04.32
!Date: Friday, January 15, 2021 15:16:31
!Correction: S11(Full 2 Port(1,2)) S21(Full 2 Port(1,2)) S12(Full 2 Port(1,2)) S22(Full 2 Port(1,2)) 
!S2P File: Measurements: S11, S21, S12, S22:
# Hz S  dB   R 50
500000000 -1.574716e-001 -1.300318e+002 -7.170998e+001 -1.480296e+002 -7.002711e+001 1.334288e+002 -1.398606e-001 1.381504e+002
500625000 -1.539935e-001 -1.302459e+002 -6.629196e+001 1.166951e+002 -7.196319e+001 1.355356e+002 -1.435991e-001 1.381362e+002
501250000 -1.638969e-001 -1.305490e+002 -6.947446e+001 9.051689e+001 -7.025647e+001 8.869396e+001 -1.344578e-001 1.380692e+002
501875000 -1.723682e-001 -1.308238e+002 -7.159710e+001 -1.772141e+002 -6.991616e+001 1.356105e+002 -1.308018e-001 1.379684e+002
502500000 -1.686854e-001 -1.311562e+002 -7.660375e+001 8.463416e+001 -7.562917e+001 1.168173e+002 -1.339068e-001 1.380091e+002
503125000 -1.815697e-001 -1.314465e+002 -6.933443e+001 1.606287e+002 -6.845633e+001 1.037160e+002 -1.308341e-001 1.378705e+002
503750000 -1.890412e-001 -1.317095e+002 -6.391186e+001 1.146576e+002 -7.544820e+001 9.528223e+001 -1.335750e-001 1.378305e+002
504375000 -1.979335e-001 -1.319941e+002 -8.034630e+001 1.261094e+002 -6.973000e+001 1.277723e+002 -1.440959e-001 1.377566e+002
505000000 -2.012623e-001 -1.322755e+002 -6.926853e+001 1.089899e+002 -7.551695e+001 8.544305e+001 -1.477709e-001 1.377255e+002
505625000 -1.967379e-001 -1.325293e+002 -6.756657e+001 1.136513e+002 -7.399265e+001 1.346583e+002 -1.417708e-001 1.376849e+002
506250000 -2.094129e-001 -1.328105e+002 -6.851244e+001 1.498699e+002 -7.051770e+001 9.331020e+001 -1.489020e-001 1.375881e+002
506875000 -2.078215e-001 -1.330721e+002 -7.097124e+001 1.102085e+002 -7.074231e+001 1.577498e+002 -1.417186e-001 1.374716e+002
507500000 -2.135284e-001 -1.333431e+002 -7.447521e+001 9.069441e+001 -6.819566e+001 1.153411e+002 -1.471318e-001 1.373152e+002
508125000 -2.191061e-001 -1.335917e+002 -7.425539e+001 1.174803e+002 -6.977619e+001 9.299625e+001 -1.485462e-001 1.372343e+002
508750000 -2.173964e-001 -1.337611e+002 -7.370287e+001 1.293169e+002 -6.939836e+001 1.410527e+002 -1.505676e-001 1.371211e+002
509375000 -2.272626e-001 -1.341205e+002 -7.476061e+001 1.645960e+002 -6.860709e+001 1.137515e+002 -1.443024e-001 1.370454e+002
510000000 -2.263937e-001 -1.343977e+002 -6.998199e+001 7.864874e+001 -9.306918e+001 6.501608e+001 -1.556288e-001 1.369146e+002
510625000 -2.335856e-001 -1.345949e+002 -7.140604e+001 1.451372e+002 -7.354956e+001 6.071254e+001 -1.460380e-001 1.368685e+002
511250000 -2.386020e-001 -1.348186e+002 -7.715044e+001 4.531049e+001 -6.612461e+001 8.217901e+001 -1.499253e-001 1.366680e+002
511875000 -2.323711e-001 -1.351294e+002 -7.193513e+001 6.781011e+001 -7.205391e+001 6.353411e+001 -1.458677e-001 1.365708e+002
512500000 -2.399966e-001 -1.354008e+002 -7.831394e+001 7.589709e+001 -7.272028e+001 1.263706e+002 -1.487435e-001 1.364366e+002
513125000 -2.461460e-001 -1.356771e+002 -7.202816e+001 9.890324e+001 -7.383204e+001 1.133313e+002 -1.552453e-001 1.364113e+002
513750000 -2.478711e-001 -1.359356e+002 -8.130487e+001 1.071889e+002 -7.770081e+001 3.894000e+001 -1.488386e-001 1.363335e+002
514375000 -2.531244e-001 -1.362581e+002 -8.026749e+001 6.214933e+001 -7.300772e+001 1.680638e+002 -1.393583e-001 1.361457e+002
515000000 -2.521718e-001 -1.365451e+002 -8.063445e+001 9.411018e+001 -6.641769e+001 1.250641e+002 -1.337238e-001 1.361130e+002
515625000 -2.624333e-001 -1.369385e+002 -7.482646e+001 1.204704e+002 -6.856355e+001 8.933785e+001 -1.355255e-001 1.360004e+002
516250000 -2.725692e-001 -1.372186e+002 -7.461672e+001 7.748746e+001 -6.715990e+001 1.101830e+002 -1.403937e-001 1.359758e+002
516875000 -2.836248e-001 -1.374844e+002 -7.509173e+001 7.195282e+001 -6.870390e+001 1.277096e+002 -1.448167e-001 1.359716e+002
517500000 -2.766590e-001 -1.377928e+002 -6.899616e+001 1.264229e+001 -6.915696e+001 8.180991e+001 -1.391739e-001 1.359011e+002
518125000 -2.813475e-001 -1.381422e+002 -7.268627e+001 8.922352e+001 -7.000084e+001 6.041265e+001 -1.361324e-001 1.358239e+002
518750000 -2.931251e-001 -1.384557e+002 -7.137122e+001 7.195036e+001 -7.635223e+001 7.116017e+001 -1.365758e-001 1.358575e+002
519375000 -3.072019e-001 -1.387153e+002 -7.525663e+001 8.536530e+001 -7.396819e+001 6.552501e-001 -1.284356e-001 1.358343e+002
520000000 -3.069386e-001 -1.390593e+002 -7.525416e+001 7.470226e+001 -7.442776e+001 8.755510e+001 -1.346887e-001 1.358161e+002
520625000 -3.081890e-001 -1.394053e+002 -7.185481e+001 6.814091e+001 -8.513445e+001 2.610242e+001 -1.302750e-001 1.357340e+002
521250000 -3.107634e-001 -1.397031e+002 -7.661494e+001 8.423092e+001 -7.283003e+001 1.344273e+002 -1.333226e-001 1.357197e+002
521875000 -3.106984e-001 -1.400636e+002 -7.811304e+001 -1.739419e+002 -7.105422e+001 3.588019e+001 -1.259639e-001 1.357075e+002
522500000 -3.154577e-001 -1.403384e+002 -7.953667e+001 4.201414e+001 -7.155101e+001 8.936532e+001 -1.325679e-001 1.357069e+002
523125000 -3.278540e-001 -1.407033e+002 -7.585442e+001 6.887212e+001 -6.784750e+001 7.749160e+001 -1.390772e-001 1.356502e+002
523750000 -3.243533e-001 -1.409880e+002 -6.640742e+001 5.284279e+001 -7.451048e+001 7.782355e+001 -1.313500e-001 1.356350e+002
524375000 -3.393572e-001 -1.413362e+002 -6.845706e+001 1.397445e+002 -7.118765e+001 8.282265e+001 -1.259889e-001 1.355749e+002
525000000 -3.378505e-001 -1.416025e+002 -6.854066e+001 9.797746e+001 -7.161179e+001 6.356176e+001 -1.348766e-001 1.355518e+002
525625000 -3.562501e-001 -1.418386e+002 -7.101297e+001 1.246853e+002 -7.125993e+001 1.045138e+002 -1.357933e-001 1.355013e+002
526250000 -3.437665e-001 -1.421502e+002 -7.038969e+001 7.109946e+001 -6.808784e+001 1.123336e+002 -1.414326e-001 1.354303e+002
526875000 -3.568532e-001 -1.424874e+002 -6.526862e+001 8.364116e+001 -6.861945e+001 9.676894e+001 -1.376227e-001 1.353752e+002
527500000 -3.607636e-001 -1.427851e+002 -7.388109e+001 7.951244e+001 -7.618337e+001 3.424488e+001 -1.319207e-001 1.353614e+002
528125000 -3.782448e-001 -1.430723e+002 -7.507016e+001 4.615409e+001 -6.770618e+001 5.689971e+001 -1.377546e-001 1.353961e+002
528750000 -3.794654e-001 -1.433200e+002 -7.189747e+001 4.030057e+001 -6.705266e+001 6.713387e+001 -1.340776e-001 1.353510e+002
529375000 -3.892763e-001 -1.436317e+002 -6.632127e+001 5.761562e+001 -7.289268e+001 7.302347e+001 -1.339024e-001 1.352584e+002
530000000 -3.906165e-001 -1.439730e+002 -6.508556e+001 7.244952e+001 -6.635932e+001 6.532422e+001 -1.324373e-001 1.352655e+002
530625000 -3.964767e-001 -1.442579e+002 -7.084766e+001 5.261464e+001 -7.015180e+001 5.110034e+001 -1.380246e-001 1.352349e+002
531250000 -3.913225e-001 -1.445960e+002 -6.657693e+001 3.361287e+001 -6.749255e+001 5.790274e+001 -1.346687e-001 1.351656e+002
531875000 -4.033934e-001 -1.448462e+002 -6.659216e+001 6.077866e+001 -6.517149e+001 5.907367e+001 -1.458051e-001 1.350891e+002
532500000 -4.080016e-001 -1.452030e+002 -6.814311e+001 7.759667e+001 -7.371066e+001 1.775953e+001 -1.442361e-001 1.350827e+002
533125000 -4.138129e-001 -1.455611e+002 -6.807466e+001 1.210516e+001 -7.025683e+001 4.961002e+001 -1.455783e-001 1.350882e+002
533750000 -4.137425e-001 -1.458881e+002 -7.042606e+001 3.231897e+001 -6.886919e+001 5.409904e+001 -1.634108e-001 1.350140e+002
534375000 -4.165266e-001 -1.462469e+002 -7.123813e+001 5.515671e+001 -6.853590e+001 6.075385e+001 -1.434235e-001 1.349187e+002
535000000 -4.289960e-001 -1.465871e+002 -6.860087e+001 5.353566e+001 -6.737761e+001 5.025639e+001 -1.508348e-001 1.349027e+002
535625000 -4.324185e-001 -1.469391e+002 -6.924442e+001 6.093579e+001 -7.319842e+001 6.924299e+001 -1.439284e-001 1.348118e+002
536250000 -4.363115e-001 -1.473221e+002 -6.852306e+001 4.086108e+000 -7.211256e+001 4.263054e+001 -1.408683e-001 1.346761e+002
536875000 -4.501655e-001 -1.476427e+002 -6.494408e+001 1.786806e+001 -6.543876e+001 2.589938e+001 -1.499751e-001 1.346949e+002
537500000 -4.507157e-001 -1.479651e+002 -6.761442e+001 4.509418e+001 -6.734914e+001 5.647621e+001 -1.388503e-001 1.346234e+002
538125000 -4.561823e-001 -1.483565e+002 -7.298749e+001 3.230439e+001 -7.091475e+001 2.470191e+001 -1.442182e-001 1.345631e+002
538750000 -4.709313e-001 -1.487075e+002 -7.063483e+001 3.551299e+001 -7.453856e+001 2.486441e+001 -1.437842e-001 1.345252e+002
539375000 -4.820561e-001 -1.490104e+002 -7.140934e+001 -2.938581e+001 -7.141595e+001 3.806326e+001 -1.398060e-001 1.344303e+002
540000000 -4.782579e-001 -1.493854e+002 -7.763691e+001 -1.161017e+001 -6.969821e+001 4.350892e+001 -1.374315e-001 1.343578e+002
540625000 -4.923947e-001 -1.497594e+002 -6.993016e+001 1.091421e+001 -6.782561e+001 2.978906e+001 -1.460616e-001 1.343374e+002
541250000 -4.971894e-001 -1.500653e+002 -6.614388e+001 2.561873e+001 -6.500335e+001 1.730067e+001 -1.390575e-001 1.343438e+002
541875000 -5.064268e-001 -1.503494e+002 -6.894244e+001 1.046270e-001 -6.672362e+001 3.563434e+001 -1.430471e-001 1.342294e+002
542500000 -5.163351e-001 -1.507250e+002 -7.115661e+001 5.528487e+001 -7.018431e+001 9.258674e+000 -1.292603e-001 1.342909e+002
543125000 -5.152748e-001 -1.510305e+002 -6.698382e+001 1.619606e+001 -6.954781e+001 -6.384911e+000 -1.366076e-001 1.341583e+002
543750000 -5.188520e-001 -1.513901e+002 -6.941422e+001 6.402790e+001 -6.912320e+001 4.243758e+001 -1.415514e-001 1.342283e+002
544375000 -5.266384e-001 -1.517338e+002 -6.698640e+001 -2.534016e+000 -7.212298e+001 6.689468e+001 -1.299336e-001 1.341425e+002
545000000 -5.299325e-001 -1.521250e+002 -6.936639e+001 3.755804e+001 -6.535221e+001 1.672472e+001 -1.310815e-001 1.341776e+002
545625000 -5.438864e-001 -1.524780e+002 -7.336069e+001 8.092560e+000 -6.712582e+001 2.322836e+001 -1.342083e-001 1.342061e+002
546250000 -5.642496e-001 -1.528266e+002 -7.148131e+001 1.828908e+001 -7.081921e+001 6.455771e+000 -1.394278e-001 1.341363e+002
546875000 -5.742554e-001 -1.532440e+002 -7.010267e+001 1.697011e+001 -7.232333e+001 2.387282e+001 -1.445832e-001 1.341570e+002
547500000 -5.948598e-001 -1.535979e+002 -6.442160e+001 1.865797e+001 -6.631961e+001 3.884819e+001 -1.408828e-001 1.341230e+002
548125000 -6.082412e-001 -1.539076e+002 -6.479341e+001 1.182338e+001 -6.917966e+001 1.268645e+001 -1.425727e-001 1.340945e+002
548750000 -6.206111e-001 -1.543453e+002 -6.652444e+001 8.559531e+000 -6.502766e+001 2.302601e+001 -1.536610e-001 1.340464e+002
549375000 -6.343068e-001 -1.546968e+002 -6.561371e+001 9.596315e+000 -6.387760e+001 2.156614e+001 -1.530047e-001 1.338519e+002
550000000 -6.453207e-001 -1.550402e+002 -6.606191e+001 -5.114521e+000 -7.056181e+001 -1.303594e+001 -1.547036e-001 1.339140e+002
550625000 -6.567869e-001 -1.554201e+002 -6.588452e+001 -6.089998e+000 -6.544824e+001 7.451589e+000 -1.584020e-001 1.337628e+002
551250000 -6.615133e-001 -1.557913e+002 -6.514417e+001 7.297873e+000 -6.743196e+001 3.243731e+000 -1.624571e-001 1.336469e+002
551875000 -6.828337e-001 -1.562169e+002 -6.480198e+001 1.924768e+001 -7.166355e+001 -1.631532e+001 -1.593784e-001 1.335262e+002
552500000 -6.917270e-001 -1.565887e+002 -6.459019e+001 -6.194757e+000 -6.566332e+001 2.810288e+001 -1.613745e-001 1.334383e+002
553125000 -7.008725e-001 -1.569219e+002 -6.610748e+001 -7.332386e+000 -6.735178e+001 1.552695e+001 -1.590904e-001 1.333508e+002
553750000 -7.217214e-001 -1.573658e+002 -6.635584e+001 1.321176e+001 -6.790801e+001 2.579089e+000 -1.641868e-001 1.331786e+002
554375000 -7.290753e-001 -1.576716e+002 -6.948407e+001 -9.736595e+000 -6.672134e+001 -4.097474e+000 -1.625516e-001 1.331282e+002
555000000 -7.461718e-001 -1.580387e+002 -6.697325e+001 2.039004e+001 -6.283011e+001 -1.901452e+001 -1.561480e-001 1.330038e+002
555625000 -7.599304e-001 -1.583613e+002 -6.641884e+001 7.642077e+000 -6.578606e+001 -1.567377e+001 -1.413216e-001 1.329506e+002
556250000 -7.729835e-001 -1.587495e+002 -6.618581e+001 1.078776e+000 -7.142709e+001 -8.742751e+000 -1.501216e-001 1.327897e+002
556875000 -7.805498e-001 -1.591468e+002 -6.633786e+001 -3.379988e+000 -6.390559e+001 4.723895e+000 -1.544185e-001 1.327704e+002
557500000 -8.021224e-001 -1.594881e+002 -6.580429e+001 -2.205659e+001 -6.458760e+001 -1.096067e+001 -1.516848e-001 1.326873e+002
558125000 -8.157955e-001 -1.598579e+002 -6.536629e+001 3.673963e+000 -6.621729e+001 3.434165e+000 -1.587661e-001 1.326823e+002
558750000 -8.190712e-001 -1.601669e+002 -6.636902e+001 -2.565114e+001 -6.474268e+001 -1.090882e+000 -1.413756e-001 1.326358e+002
559375000 -8.442060e-001 -1.605646e+002 -6.834905e+001 -1.719272e+001 -6.457672e+001 -2.761760e+001 -1.411239e-001 1.326317e+002
560000000 -8.548813e-001 -1.608481e+002 -6.590176e+001 -1.911234e+001 -6.643520e+001 -2.563089e+000 -1.340861e-001 1.325776e+002
560625000 -8.655816e-001 -1.611752e+002 -7.166844e+001 -2.460019e+001 -6.874026e+001 -1.686068e+000 -1.372086e-001 1.326008e+002
561250000 -8.814936e-001 -1.616106e+002 -6.613538e+001 -2.378442e+001 -6.689791e+001 -3.769230e+001 -1.309110e-001 1.325608e+002
561875000 -8.927711e-001 -1.619710e+002 -6.512988e+001 -1.275683e+000 -6.380781e+001 -1.636009e+001 -1.411265e-001 1.325995e+002
562500000 -9.130138e-001 -1.623065e+002 -6.587724e+001 -4.333741e+001 -6.587624e+001 -4.445097e+001 -1.429812e-001 1.326201e+002
563125000 -9.196457e-001 -1.626717e+002 -6.320422e+001 -1.524123e+001 -6.695338e+001 -1.493827e+001 -1.451755e-001 1.325265e+002
563750000 -9.438341e-001 -1.631255e+002 -6.746361e+001 -1.445680e+001 -6.887807e+001 8.576321e+000 -1.542043e-001 1.325430e+002
564375000 -9.632812e-001 -1.635435e+002 -6.274282e+001 -2.010301e+001 -6.626814e+001 -2.892270e+001 -1.470106e-001 1.324778e+002
565000000 -9.845504e-001 -1.640222e+002 -7.007607e+001 -2.684007e+001 -6.823012e+001 -2.055560e+001 -1.649480e-001 1.324264e+002
565625000 -1.006053e+000 -1.643678e+002 -6.180849e+001 -3.852689e+001 -6.579782e+001 -2.528786e+001 -1.650998e-001 1.323184e+002
566250000 -1.032793e+000 -1.648705e+002 -6.590195e+001 -5.109238e+001 -6.281036e+001 -3.570848e+001 -1.623931e-001 1.322371e+002
566875000 -1.066879e+000 -1.653062e+002 -6.317276e+001 -3.557763e+001 -6.447540e+001 -2.335435e+001 -1.606283e-001 1.320308e+002
567500000 -1.090686e+000 -1.657536e+002 -6.334607e+001 -2.515738e+001 -6.777495e+001 -4.435344e+001 -1.657161e-001 1.319593e+002
568125000 -1.128510e+000 -1.661205e+002 -6.314782e+001 -3.657405e+001 -6.244280e+001 -3.422287e+001 -1.676811e-001 1.318478e+002
568750000 -1.147627e+000 -1.665326e+002 -6.474683e+001 -4.146714e+001 -6.247485e+001 -3.695684e+001 -1.672727e-001 1.317085e+002
569375000 -1.179737e+000 -1.669557e+002 -6.244565e+001 -2.301375e+001 -6.626474e+001 -1.702445e+001 -1.685306e-001 1.316194e+002
570000000 -1.202849e+000 -1.673792e+002 -6.289589e+001 -2.332689e+001 -6.435050e+001 -5.660126e+001 -1.547679e-001 1.313979e+002
570625000 -1.220781e+000 -1.677539e+002 -6.639560e+001 -6.335419e+001 -6.375412e+001 -3.232656e+001 -1.646955e-001 1.313351e+002
571250000 -1.242630e+000 -1.682269e+002 -6.161187e+001 -2.844501e+001 -6.139977e+001 -2.784265e+001 -1.564905e-001 1.312976e+002
571875000 -1.280303e+000 -1.685695e+002 -6.438128e+001 -4.620256e+001 -6.571360e+001 -6.317560e+001 -1.496402e-001 1.310825e+002
572500000 -1.304963e+000 -1.689710e+002 -6.165802e+001 -3.417725e+001 -6.256895e+001 -3.850855e+001 -1.583150e-001 1.310308e+002
573125000 -1.330030e+000 -1.693064e+002 -6.365527e+001 -5.403361e+001 -6.321193e+001 -5.065309e+001 -1.457215e-001 1.309516e+002
573750000 -1.351190e+000 -1.696913e+002 -6.476556e+001 -2.442440e+001 -6.200808e+001 -3.566611e+001 -1.459944e-001 1.308750e+002
574375000 -1.375344e+000 -1.699863e+002 -6.303915e+001 -4.592140e+001 -6.317895e+001 -5.848585e+001 -1.476603e-001 1.308894e+002
575000000 -1.393937e+000 -1.703425e+002 -6.261580e+001 -5.920685e+001 -6.082877e+001 -4.831004e+001 -1.356774e-001 1.308091e+002
575625000 -1.425669e+000 -1.706554e+002 -6.405418e+001 -5.875431e+001 -6.136221e+001 -6.054767e+001 -1.505596e-001 1.307635e+002
576250000 -1.437519e+000 -1.709664e+002 -6.184908e+001 -5.379512e+001 -6.189669e+001 -6.832202e+001 -1.517938e-001 1.307236e+002
576875000 -1.458214e+000 -1.712872e+002 -5.961350e+001 -6.508282e+001 -6.055028e+001 -6.389820e+001 -1.455623e-001 1.306995e+002
577500000 -1.479581e+000 -1.716359e+002 -6.013335e+001 -6.589000e+001 -6.368394e+001 -5.801590e+001 -1.482256e-001 1.306535e+002
578125000 -1.507097e+000 -1.719674e+002 -6.065219e+001 -5.691161e+001 -6.227859e+001 -7.381450e+001 -1.445620e-001 1.307115e+002
578750000 -1.523906e+000 -1.723338e+002 -6.363188e+001 -7.298070e+001 -6.005883e+001 -7.219553e+001 -1.485122e-001 1.306333e+002
579375000 -1.545601e+000 -1.726739e+002 -6.242641e+001 -6.820343e+001 -6.083392e+001 -8.072557e+001 -1.497241e-001 1.304882e+002
580000000 -1.573124e+000 -1.729947e+002 -6.491460e+001 -9.830267e+001 -6.601157e+001 -9.191656e+001 -1.532599e-001 1.305500e+002
580625000 -1.604575e+000 -1.733518e+002 -6.335754e+001 -7.552483e+001 -6.194525e+001 -7.333389e+001 -1.499927e-001 1.304427e+002
581250000 -1.626897e+000 -1.736785e+002 -6.256212e+001 -9.969442e+001 -6.294750e+001 -7.499380e+001 -1.522043e-001 1.304035e+002
581875000 -1.649492e+000 -1.740160e+002 -6.346325e+001 -8.607168e+001 -6.200809e+001 -7.402681e+001 -1.587549e-001 1.303685e+002
582500000 -1.671736e+000 -1.743758e+002 -6.200785e+001 -8.195282e+001 -6.051357e+001 -7.971742e+001 -1.566627e-001 1.301902e+002
583125000 -1.691444e+000 -1.748509e+002 -6.229913e+001 -8.902359e+001 -6.213548e+001 -7.892997e+001 -1.584633e-001 1.300463e+002
583750000 -1.718196e+000 -1.752328e+002 -5.987011e+001 -9.353829e+001 -6.186087e+001 -8.173197e+001 -1.677917e-001 1.299992e+002
584375000 -1.740719e+000 -1.757004e+002 -5.985432e+001 -9.632819e+001 -5.964982e+001 -9.562926e+001 -1.588490e-001 1.298621e+002
585000000 -1.767331e+000 -1.760879e+002 -6.037170e+001 -1.079907e+002 -6.100700e+001 -8.569452e+001 -1.659290e-001 1.297956e+002
585625000 -1.803923e+000 -1.765438e+002 -6.000103e+001 -8.592479e+001 -6.043208e+001 -9.710158e+001 -1.524753e-001 1.297113e+002
586250000 -1.831619e+000 -1.770033e+002 -6.037566e+001 -1.023482e+002 -6.005103e+001 -9.937807e+001 -1.529286e-001 1.297290e+002
586875000 -1.856347e+000 -1.774089e+002 -6.105345e+001 -1.088995e+002 -6.284730e+001 -9.955515e+001 -1.583051e-001 1.296030e+002
587500000 -1.893735e+000 -1.778403e+002 -6.091791e+001 -1.116339e+002 -6.206189e+001 -1.047870e+002 -1.514434e-001 1.294560e+002
588125000 -1.915292e+000 -1.782211e+002 -6.292305e+001 -1.214403e+002 -6.354693e+001 -1.069801e+002 -1.481051e-001 1.294898e+002
588750000 -1.943835e+000 -1.786191e+002 -6.062253e+001 -1.205862e+002 -6.140235e+001 -1.003317e+002 -1.560199e-001 1.294375e+002
589375000 -1.964586e+000 -1.790762e+002 -6.066965e+001 -1.168955e+002 -6.188643e+001 -1.096900e+002 -1.411503e-001 1.293828e+002
590000000 -2.004193e+000 -1.794423e+002 -6.425100e+001 -1.082020e+002 -6.177073e+001 -8.909676e+001 -1.465727e-001 1.294028e+002
590625000 -2.033223e+000 -1.798606e+002 -6.124736e+001 -1.184359e+002 -6.105515e+001 -1.114475e+002 -1.436037e-001 1.293643e+002
591250000 -2.069738e+000 1.798150e+002 -6.473573e+001 -1.146283e+002 -6.236595e+001 -1.147741e+002 -1.430582e-001 1.294178e+002
591875000 -2.115577e+000 1.795442e+002 -6.222886e+001 -1.117744e+002 -6.275198e+001 -1.102079e+002 -1.436273e-001 1.294166e+002
592500000 -2.140909e+000 1.792234e+002 -6.129902e+001 -1.118350e+002 -6.489472e+001 -1.321270e+002 -1.348259e-001 1.294899e+002
593125000 -2.172488e+000 1.789642e+002 -6.297708e+001 -1.248989e+002 -6.100337e+001 -1.174492e+002 -1.493236e-001 1.295824e+002
593750000 -2.202127e+000 1.786628e+002 -6.220750e+001 -1.032603e+002 -6.224983e+001 -1.092314e+002 -1.310935e-001 1.295876e+002
594375000 -2.227125e+000 1.784010e+002 -6.109454e+001 -1.147945e+002 -6.031813e+001 -1.159045e+002 -1.346425e-001 1.296281e+002
595000000 -2.253943e+000 1.780787e+002 -6.131553e+001 -1.281298e+002 -6.103642e+001 -1.200925e+002 -1.520541e-001 1.296267e+002
595625000 -2.280753e+000 1.777461e+002 -6.239711e+001 -1.276359e+002 -5.960524e+001 -1.194861e+002 -1.430835e-001 1.295997e+002
