!Agilent Technologies,E8364B,US42250235,A.06.04.32
!Agilent E8364B: A.06.04.32
!Date: Friday, January 15, 2021 14:59:26
!Correction: S11(Full 2 Port(1,2)) S21(Full 2 Port(1,2)) S12(Full 2 Port(1,2)) S22(Full 2 Port(1,2)) 
!S2P File: Measurements: S11, S21, S12, S22:
# Hz S  dB   R 50
500000000 -1.292398e-001 -1.298410e+002 -7.011871e+001 8.379219e+001 -7.512692e+001 1.446405e+002 -1.635193e-001 1.378829e+002
500625000 -1.277006e-001 -1.301609e+002 -7.882930e+001 -6.087577e+001 -7.090272e+001 3.905431e+001 -1.678392e-001 1.377950e+002
501250000 -1.328903e-001 -1.304247e+002 -7.933867e+001 3.689433e+001 -7.666686e+001 1.104895e+002 -1.586566e-001 1.377103e+002
501875000 -1.349017e-001 -1.307511e+002 -7.517016e+001 -1.359175e+002 -6.963665e+001 1.271455e+002 -1.522207e-001 1.376826e+002
502500000 -1.365904e-001 -1.310454e+002 -7.981390e+001 -1.628557e+002 -8.338478e+001 -1.777192e+002 -1.480324e-001 1.376444e+002
503125000 -1.453409e-001 -1.313489e+002 -7.490012e+001 1.013335e+002 -8.383592e+001 1.282048e+002 -1.485922e-001 1.375284e+002
503750000 -1.466458e-001 -1.316199e+002 -7.515985e+001 -1.360007e+002 -7.071777e+001 -1.247616e+002 -1.572811e-001 1.373959e+002
504375000 -1.507922e-001 -1.319195e+002 -7.289185e+001 6.046403e+001 -8.777383e+001 1.904433e+001 -1.708021e-001 1.374369e+002
505000000 -1.510177e-001 -1.322671e+002 -7.186273e+001 1.107316e+002 -7.594375e+001 9.315488e+001 -1.669493e-001 1.374362e+002
505625000 -1.577731e-001 -1.324891e+002 -7.773007e+001 7.902275e+001 -7.665210e+001 2.203746e+001 -1.658032e-001 1.372406e+002
506250000 -1.579300e-001 -1.327903e+002 -7.960859e+001 8.867615e+001 -8.511852e+001 1.519201e+002 -1.745090e-001 1.371905e+002
506875000 -1.595779e-001 -1.330717e+002 -7.927724e+001 3.829642e+001 -8.988190e+001 1.654025e+002 -1.640649e-001 1.370787e+002
507500000 -1.656838e-001 -1.333564e+002 -7.564265e+001 6.543671e+001 -8.044460e+001 9.594209e+001 -1.643450e-001 1.369441e+002
508125000 -1.665042e-001 -1.336161e+002 -6.974890e+001 1.024521e+002 -7.267172e+001 6.407372e+001 -1.723743e-001 1.368711e+002
508750000 -1.699603e-001 -1.338861e+002 -7.769050e+001 -2.907942e+001 -7.520811e+001 -1.734037e+002 -1.741881e-001 1.367837e+002
509375000 -1.762587e-001 -1.341984e+002 -7.176849e+001 1.377310e+002 -7.628361e+001 1.100257e+002 -1.703164e-001 1.366854e+002
510000000 -1.704012e-001 -1.344894e+002 -7.668391e+001 1.073424e+002 -8.231419e+001 7.105348e+001 -1.722736e-001 1.365534e+002
510625000 -1.769716e-001 -1.347252e+002 -8.244139e+001 7.786341e+001 -7.874823e+001 -6.157768e+001 -1.633701e-001 1.364982e+002
511250000 -1.866594e-001 -1.349698e+002 -9.221771e+001 1.489093e+002 -6.837282e+001 2.845121e+001 -1.767100e-001 1.362999e+002
511875000 -1.833050e-001 -1.353003e+002 -6.944213e+001 8.790146e+001 -7.392438e+001 1.121058e+002 -1.614856e-001 1.361874e+002
512500000 -1.853984e-001 -1.355576e+002 -7.467850e+001 -5.367267e+001 -7.942867e+001 -1.372156e+001 -1.712048e-001 1.360668e+002
513125000 -1.913662e-001 -1.358362e+002 -7.619534e+001 -1.477939e+002 -7.488998e+001 5.306876e+001 -1.769740e-001 1.360479e+002
513750000 -2.005481e-001 -1.361303e+002 -7.153299e+001 1.725584e+002 -7.370242e+001 5.678936e+000 -1.707472e-001 1.358824e+002
514375000 -1.999878e-001 -1.364933e+002 -6.638085e+001 4.806688e+001 -7.805176e+001 -3.302146e+001 -1.662878e-001 1.357451e+002
515000000 -2.119370e-001 -1.367685e+002 -8.011128e+001 1.539939e+002 -7.703778e+001 -1.380056e+002 -1.624294e-001 1.356886e+002
515625000 -2.171149e-001 -1.371754e+002 -7.157364e+001 -5.677305e+001 -7.379566e+001 1.022710e+002 -1.620676e-001 1.356493e+002
516250000 -2.234734e-001 -1.374889e+002 -7.273701e+001 4.310117e+001 -8.149438e+001 -4.442913e+001 -1.655201e-001 1.355724e+002
516875000 -2.440488e-001 -1.378059e+002 -7.424438e+001 7.594360e+001 -7.696529e+001 -2.930479e+001 -1.589887e-001 1.355671e+002
517500000 -2.410428e-001 -1.381577e+002 -8.897935e+001 1.278234e+001 -7.687749e+001 4.991663e+001 -1.574471e-001 1.355284e+002
518125000 -2.495681e-001 -1.385041e+002 -7.167188e+001 6.505205e+001 -8.147562e+001 -1.203715e+002 -1.569040e-001 1.354715e+002
518750000 -2.534110e-001 -1.388424e+002 -8.178561e+001 -3.256962e+001 -6.987237e+001 2.558304e+001 -1.582534e-001 1.354349e+002
519375000 -2.654786e-001 -1.391495e+002 -8.240166e+001 -1.594192e+001 -7.463098e+001 7.345652e+001 -1.546514e-001 1.354318e+002
520000000 -2.712587e-001 -1.394981e+002 -9.354273e+001 -2.594306e+001 -7.106573e+001 1.887076e+001 -1.624241e-001 1.353565e+002
520625000 -2.771915e-001 -1.398256e+002 -7.615316e+001 1.321667e+002 -6.784045e+001 7.239753e+001 -1.535517e-001 1.353081e+002
521250000 -2.841468e-001 -1.401961e+002 -8.058028e+001 -7.103025e+001 -8.238459e+001 1.024490e+002 -1.616269e-001 1.353083e+002
521875000 -2.870719e-001 -1.405361e+002 -7.785603e+001 1.501618e+002 -7.428658e+001 -1.394171e+002 -1.458081e-001 1.353356e+002
522500000 -2.954975e-001 -1.408576e+002 -7.647244e+001 5.982729e+001 -8.275709e+001 -3.415103e+001 -1.576251e-001 1.352598e+002
523125000 -3.068586e-001 -1.411933e+002 -7.287438e+001 1.158574e+002 -7.736166e+001 2.306231e+001 -1.625047e-001 1.352397e+002
523750000 -3.144262e-001 -1.414950e+002 -7.192094e+001 -3.930864e+001 -8.049161e+001 -3.915273e+001 -1.584068e-001 1.351970e+002
524375000 -3.274147e-001 -1.418294e+002 -7.101695e+001 3.919471e+001 -7.858582e+001 2.492709e+001 -1.533748e-001 1.351508e+002
525000000 -3.239571e-001 -1.421389e+002 -7.641161e+001 -1.577194e+002 -7.626612e+001 8.863582e+001 -1.626063e-001 1.351895e+002
525625000 -3.435977e-001 -1.424127e+002 -7.345506e+001 7.449670e+000 -7.717114e+001 4.559526e+001 -1.607833e-001 1.350511e+002
526250000 -3.388515e-001 -1.427282e+002 -7.708962e+001 9.538290e+001 -8.323254e+001 -1.634634e+002 -1.663393e-001 1.349876e+002
526875000 -3.564294e-001 -1.430499e+002 -8.201089e+001 6.254004e+001 -7.542125e+001 1.232558e+002 -1.553040e-001 1.349729e+002
527500000 -3.662981e-001 -1.433116e+002 -7.565249e+001 1.225834e+001 -6.858971e+001 1.029155e+000 -1.604901e-001 1.349456e+002
528125000 -3.900506e-001 -1.436420e+002 -7.983768e+001 -1.439296e+002 -8.439438e+001 1.218254e+002 -1.617593e-001 1.349652e+002
528750000 -3.940610e-001 -1.439007e+002 -7.239365e+001 1.461522e+002 -9.135217e+001 -1.032266e+001 -1.646376e-001 1.349700e+002
529375000 -4.049462e-001 -1.441771e+002 -7.324290e+001 5.228210e+001 -8.395461e+001 -1.435952e+001 -1.579296e-001 1.348970e+002
530000000 -4.138250e-001 -1.445119e+002 -7.405656e+001 8.486798e+001 -7.682302e+001 2.449484e+001 -1.653470e-001 1.348392e+002
530625000 -4.300593e-001 -1.448090e+002 -6.980478e+001 1.282310e+002 -7.563776e+001 -4.585702e+001 -1.543607e-001 1.347384e+002
531250000 -4.367967e-001 -1.451323e+002 -7.820826e+001 -1.627612e+001 -8.552109e+001 -6.468135e+000 -1.535430e-001 1.347408e+002
531875000 -4.557656e-001 -1.454298e+002 -9.522884e+001 1.055488e+002 -8.647790e+001 1.506449e+002 -1.630054e-001 1.346452e+002
532500000 -4.661243e-001 -1.456580e+002 -6.895414e+001 7.135224e+001 -7.217889e+001 6.635256e+001 -1.576103e-001 1.346753e+002
533125000 -4.736114e-001 -1.460463e+002 -6.890093e+001 6.533870e+000 -7.710184e+001 6.538978e+000 -1.696925e-001 1.346656e+002
533750000 -4.735788e-001 -1.464076e+002 -7.348019e+001 6.949039e+001 -7.464884e+001 1.259416e+002 -1.755827e-001 1.345898e+002
534375000 -4.792653e-001 -1.467738e+002 -9.616850e+001 7.294235e+001 -7.195421e+001 2.444333e+001 -1.692279e-001 1.345176e+002
535000000 -4.969930e-001 -1.470631e+002 -7.269139e+001 3.631913e+001 -6.988305e+001 5.491393e+000 -1.684557e-001 1.345096e+002
535625000 -5.092410e-001 -1.474288e+002 -7.689620e+001 -1.635347e+002 -7.421507e+001 8.207541e+001 -1.640370e-001 1.344337e+002
536250000 -5.191954e-001 -1.477912e+002 -7.982205e+001 -1.180882e+002 -7.232986e+001 8.098362e+001 -1.566506e-001 1.343373e+002
536875000 -5.311831e-001 -1.481418e+002 -7.308086e+001 1.636300e+001 -7.151563e+001 5.038131e+000 -1.766806e-001 1.342711e+002
537500000 -5.427929e-001 -1.484257e+002 -6.834367e+001 1.901231e+001 -7.605743e+001 1.349530e+001 -1.656518e-001 1.342430e+002
538125000 -5.563558e-001 -1.487520e+002 -6.934132e+001 1.484911e+001 -7.421346e+001 -1.286586e+000 -1.680932e-001 1.342331e+002
538750000 -5.727050e-001 -1.490746e+002 -7.016808e+001 3.421464e+001 -7.397658e+001 3.251619e+001 -1.607805e-001 1.341775e+002
539375000 -5.857463e-001 -1.493962e+002 -8.015659e+001 7.369437e+001 -7.372434e+001 1.926833e+001 -1.652204e-001 1.341246e+002
540000000 -5.948210e-001 -1.497128e+002 -7.161906e+001 -1.555311e+001 -7.666592e+001 -1.634505e+002 -1.638995e-001 1.340291e+002
540625000 -6.055417e-001 -1.500513e+002 -7.114159e+001 6.189454e+000 -7.751158e+001 -2.664147e+001 -1.618397e-001 1.339809e+002
541250000 -6.094266e-001 -1.502849e+002 -7.136401e+001 4.926962e+000 -7.312322e+001 4.467125e+001 -1.592496e-001 1.339817e+002
541875000 -6.166106e-001 -1.505568e+002 -7.819107e+001 -6.914310e+001 -7.089402e+001 5.413044e+000 -1.625816e-001 1.339028e+002
542500000 -6.282016e-001 -1.508766e+002 -7.599743e+001 8.808538e+001 -7.377429e+001 2.619368e+001 -1.529997e-001 1.339367e+002
543125000 -6.310371e-001 -1.511802e+002 -7.192149e+001 4.143522e+000 -7.294501e+001 6.571278e+000 -1.466002e-001 1.338632e+002
543750000 -6.350213e-001 -1.514718e+002 -7.084350e+001 -3.252995e+001 -7.121700e+001 -4.912497e+001 -1.612478e-001 1.338852e+002
544375000 -6.431895e-001 -1.517987e+002 -6.577916e+001 9.554061e+000 -7.050323e+001 2.756647e+000 -1.494150e-001 1.338754e+002
545000000 -6.529671e-001 -1.521509e+002 -7.705545e+001 -2.733824e+001 -7.375552e+001 1.136102e+001 -1.551362e-001 1.338599e+002
545625000 -6.618246e-001 -1.524295e+002 -7.067371e+001 -3.538221e+001 -7.493584e+001 -1.615878e+001 -1.581651e-001 1.338983e+002
546250000 -6.849313e-001 -1.528049e+002 -7.396494e+001 1.333910e+002 -7.912220e+001 -4.962253e+001 -1.611968e-001 1.338636e+002
546875000 -6.934205e-001 -1.531466e+002 -7.413832e+001 -3.719207e+001 -7.546625e+001 9.011899e+000 -1.622755e-001 1.338552e+002
547500000 -7.155028e-001 -1.534998e+002 -6.952493e+001 -6.909979e+000 -8.038242e+001 8.525197e-001 -1.585824e-001 1.338406e+002
548125000 -7.368327e-001 -1.538219e+002 -6.835367e+001 5.471148e+001 -7.749874e+001 -4.700520e+001 -1.659175e-001 1.337975e+002
548750000 -7.534770e-001 -1.541807e+002 -7.022423e+001 1.175306e+001 -8.201612e+001 -1.115444e+002 -1.696308e-001 1.337482e+002
549375000 -7.751822e-001 -1.545138e+002 -8.299532e+001 7.220917e+001 -7.240446e+001 1.745690e+001 -1.750995e-001 1.335978e+002
550000000 -7.796197e-001 -1.547778e+002 -7.774053e+001 4.125681e+001 -7.678439e+001 2.206127e+001 -1.768752e-001 1.336599e+002
550625000 -7.980133e-001 -1.551037e+002 -6.980102e+001 3.237506e+000 -6.990345e+001 -1.469337e+001 -1.810254e-001 1.335382e+002
551250000 -8.118294e-001 -1.554206e+002 -7.679074e+001 -4.422904e+001 -7.952062e+001 6.610779e+000 -1.815255e-001 1.334513e+002
551875000 -8.236957e-001 -1.557371e+002 -7.306368e+001 -3.397118e+001 -7.438343e+001 -8.570828e+000 -1.833443e-001 1.333752e+002
552500000 -8.305167e-001 -1.560718e+002 -7.581850e+001 -5.063671e+001 -6.961646e+001 -2.072784e+001 -1.778502e-001 1.331985e+002
553125000 -8.340130e-001 -1.563359e+002 -7.579661e+001 -3.784243e+001 -6.454105e+001 4.823234e+001 -1.767536e-001 1.331307e+002
553750000 -8.431398e-001 -1.566628e+002 -6.790231e+001 -1.740927e-002 -7.061478e+001 -9.624693e+001 -1.786178e-001 1.329330e+002
554375000 -8.510834e-001 -1.569477e+002 -7.522227e+001 -1.470233e+001 -6.778851e+001 2.866296e+000 -1.848412e-001 1.329222e+002
555000000 -8.526477e-001 -1.573187e+002 -7.359439e+001 -7.001833e+000 -7.766013e+001 4.510019e+001 -1.795108e-001 1.327587e+002
555625000 -8.658363e-001 -1.575556e+002 -7.134889e+001 -6.587850e+001 -7.220026e+001 -5.269737e+001 -1.666863e-001 1.327453e+002
556250000 -8.710904e-001 -1.579392e+002 -7.429732e+001 -2.431191e+001 -7.516624e+001 -1.397370e+001 -1.803759e-001 1.326131e+002
556875000 -8.716949e-001 -1.582551e+002 -7.109406e+001 -3.103015e-001 -7.163934e+001 -1.501064e+001 -1.820262e-001 1.325376e+002
557500000 -8.775658e-001 -1.585989e+002 -9.584093e+001 1.192087e+002 -7.960407e+001 -5.212253e+001 -1.720585e-001 1.324575e+002
558125000 -8.832538e-001 -1.588550e+002 -7.035455e+001 -6.425309e+001 -7.153841e+001 -3.761127e+001 -1.803450e-001 1.324714e+002
558750000 -8.833737e-001 -1.591769e+002 -7.213616e+001 -2.046802e+001 -7.082967e+001 -8.955778e+001 -1.715692e-001 1.324452e+002
559375000 -8.937871e-001 -1.594899e+002 -7.724868e+001 -9.468282e+001 -7.159228e+001 7.434214e+000 -1.622221e-001 1.324106e+002
560000000 -9.101890e-001 -1.598539e+002 -8.572231e+001 -1.673857e+002 -6.983943e+001 -6.087503e+001 -1.578960e-001 1.323383e+002
560625000 -9.094219e-001 -1.601519e+002 -7.493262e+001 -7.000969e+001 -7.568883e+001 -1.579789e+001 -1.557872e-001 1.323731e+002
561250000 -9.147971e-001 -1.604788e+002 -7.423722e+001 -1.017353e+002 -7.108288e+001 -6.811507e+001 -1.573497e-001 1.322967e+002
561875000 -9.218730e-001 -1.608729e+002 -7.687495e+001 2.943771e+001 -7.257111e+001 -1.333474e+001 -1.718933e-001 1.323611e+002
562500000 -9.269054e-001 -1.612167e+002 -7.512791e+001 -1.872558e+001 -8.437440e+001 -8.215531e+001 -1.659864e-001 1.323855e+002
563125000 -9.337124e-001 -1.615792e+002 -6.916816e+001 -6.709839e+001 -8.650186e+001 -5.092707e+001 -1.536329e-001 1.323539e+002
563750000 -9.527520e-001 -1.619744e+002 -7.410594e+001 -1.052952e+001 -7.671261e+001 -2.667308e+000 -1.734383e-001 1.322643e+002
564375000 -9.681416e-001 -1.623968e+002 -7.587115e+001 1.550799e+002 -6.883936e+001 -9.442860e+001 -1.735386e-001 1.322586e+002
565000000 -9.850621e-001 -1.628078e+002 -7.098019e+001 -8.130107e+001 -7.665183e+001 -2.849938e+001 -1.813660e-001 1.321806e+002
565625000 -9.998114e-001 -1.631908e+002 -7.038756e+001 -1.305190e+002 -8.459879e+001 -6.419685e+001 -1.842681e-001 1.321177e+002
566250000 -1.012805e+000 -1.636218e+002 -6.979020e+001 -7.558670e+001 -7.085064e+001 -5.644421e+001 -1.940841e-001 1.320148e+002
566875000 -1.033813e+000 -1.640450e+002 -7.077765e+001 -5.498009e+001 -7.529106e+001 -3.496183e+001 -1.816476e-001 1.318707e+002
567500000 -1.057777e+000 -1.645323e+002 -7.541338e+001 -1.725658e+001 -7.009004e+001 1.138676e+001 -1.880153e-001 1.317023e+002
568125000 -1.077347e+000 -1.648955e+002 -7.367183e+001 -4.142099e+001 -8.164280e+001 -2.176681e+001 -1.955526e-001 1.316174e+002
568750000 -1.092667e+000 -1.653281e+002 -7.270443e+001 -2.713800e+001 -8.038914e+001 -3.021012e+001 -1.959430e-001 1.313808e+002
569375000 -1.112219e+000 -1.656950e+002 -7.898088e+001 -3.964512e+001 -6.876312e+001 -5.088242e+001 -1.947635e-001 1.312663e+002
570000000 -1.129753e+000 -1.661838e+002 -7.898505e+001 -2.159882e+001 -7.622794e+001 -1.071522e+002 -1.913907e-001 1.311506e+002
570625000 -1.133909e+000 -1.665120e+002 -7.132340e+001 -6.630075e+001 -7.761927e+001 -2.608568e+001 -1.865382e-001 1.310067e+002
571250000 -1.151878e+000 -1.669617e+002 -7.061458e+001 -5.736864e+001 -7.492908e+001 -1.649609e+002 -1.930282e-001 1.309205e+002
571875000 -1.171963e+000 -1.673552e+002 -7.220975e+001 -8.982047e+001 -7.093510e+001 -9.008482e+001 -1.811114e-001 1.307980e+002
572500000 -1.186991e+000 -1.677863e+002 -6.988715e+001 -8.086703e+001 -7.285409e+001 -1.028145e+002 -1.893514e-001 1.306993e+002
573125000 -1.201492e+000 -1.681310e+002 -6.622653e+001 -6.304018e+001 -7.171649e+001 -1.041579e+002 -1.802523e-001 1.306461e+002
573750000 -1.211195e+000 -1.685310e+002 -6.835803e+001 -7.242883e+001 -7.700454e+001 -7.805082e+001 -1.845921e-001 1.304930e+002
574375000 -1.229133e+000 -1.688870e+002 -7.844994e+001 5.296378e+001 -6.894017e+001 -8.967213e+001 -1.756907e-001 1.305221e+002
575000000 -1.240077e+000 -1.693420e+002 -7.692484e+001 -4.135043e+001 -7.997653e+001 -1.386066e+002 -1.811464e-001 1.304849e+002
575625000 -1.247609e+000 -1.696602e+002 -7.110011e+001 -9.721995e+001 -8.674080e+001 -1.684837e+002 -1.796693e-001 1.304154e+002
576250000 -1.267071e+000 -1.700087e+002 -7.198752e+001 -8.945952e+001 -7.781557e+001 -6.722243e+001 -1.808693e-001 1.303961e+002
576875000 -1.275225e+000 -1.703790e+002 -7.869884e+001 -8.719865e+001 -7.436379e+001 -7.041438e+001 -1.772041e-001 1.303564e+002
577500000 -1.299758e+000 -1.707254e+002 -7.264755e+001 -8.351710e+001 -7.427866e+001 -8.978224e+001 -1.705282e-001 1.302436e+002
578125000 -1.309679e+000 -1.711462e+002 -7.101815e+001 -6.389301e+001 -6.999691e+001 -1.110439e+002 -1.657471e-001 1.302927e+002
578750000 -1.321437e+000 -1.714791e+002 -7.696742e+001 -8.655454e+001 -7.605074e+001 -6.172943e+001 -1.755470e-001 1.303142e+002
579375000 -1.329283e+000 -1.718660e+002 -7.311732e+001 -1.336732e+000 -7.044260e+001 -1.463291e+002 -1.726259e-001 1.302038e+002
580000000 -1.339223e+000 -1.722709e+002 -7.874049e+001 -1.616995e+002 -6.948788e+001 -7.119875e+001 -1.766823e-001 1.300883e+002
580625000 -1.356412e+000 -1.727239e+002 -7.763960e+001 -1.432766e+002 -6.881800e+001 -6.379954e+001 -1.747294e-001 1.300592e+002
581250000 -1.371846e+000 -1.731329e+002 -7.164167e+001 -4.058542e+001 -7.743796e+001 -2.273613e+001 -1.846715e-001 1.300052e+002
581875000 -1.380400e+000 -1.735971e+002 -8.462592e+001 1.158996e+002 -7.831269e+001 -8.600790e+001 -1.823586e-001 1.299884e+002
582500000 -1.409249e+000 -1.740957e+002 -6.805439e+001 -9.575697e+001 -7.901018e+001 -4.194932e+001 -1.841620e-001 1.298158e+002
583125000 -1.424123e+000 -1.746469e+002 -6.821139e+001 -8.631334e+001 -7.267221e+001 -5.632281e+001 -1.882134e-001 1.296864e+002
583750000 -1.450274e+000 -1.751348e+002 -7.049989e+001 -7.427802e+001 -7.358047e+001 -9.381155e+001 -1.977164e-001 1.295807e+002
584375000 -1.474659e+000 -1.756645e+002 -7.524802e+001 -8.484945e+001 -7.463180e+001 -9.802252e+001 -1.856486e-001 1.295411e+002
585000000 -1.494220e+000 -1.761758e+002 -7.112351e+001 -1.149163e+002 -7.144775e+001 -6.509830e+001 -1.859101e-001 1.294104e+002
585625000 -1.533274e+000 -1.766742e+002 -7.192914e+001 -6.872095e+001 -6.680888e+001 -1.204461e+002 -1.791515e-001 1.293390e+002
586250000 -1.554887e+000 -1.771774e+002 -6.977719e+001 -1.029401e+002 -7.006906e+001 -8.355657e+001 -1.857854e-001 1.293511e+002
586875000 -1.570393e+000 -1.776279e+002 -7.016732e+001 -1.130039e+002 -7.051170e+001 -8.803701e+001 -1.808569e-001 1.292283e+002
587500000 -1.597921e+000 -1.781529e+002 -7.031343e+001 -1.355452e+002 -6.996629e+001 -1.278791e+002 -1.768146e-001 1.290994e+002
588125000 -1.616579e+000 -1.786255e+002 -8.006306e+001 -1.388299e+002 -6.603392e+001 -1.317843e+002 -1.721824e-001 1.290997e+002
588750000 -1.644872e+000 -1.790858e+002 -7.106586e+001 -1.352513e+002 -7.120673e+001 -1.233317e+002 -1.777759e-001 1.291104e+002
589375000 -1.658980e+000 -1.796558e+002 -8.532377e+001 -8.677456e+001 -7.411713e+001 -9.816965e+001 -1.606636e-001 1.290251e+002
590000000 -1.694862e+000 1.798258e+002 -6.828130e+001 -1.330786e+002 -6.890756e+001 -1.154863e+002 -1.667531e-001 1.290757e+002
590625000 -1.727719e+000 1.792590e+002 -7.679540e+001 -1.450250e+002 -7.369231e+001 -1.113901e+002 -1.608454e-001 1.290453e+002
591250000 -1.770001e+000 1.787585e+002 -6.971056e+001 -1.051645e+002 -6.764466e+001 -1.179745e+002 -1.610160e-001 1.291129e+002
591875000 -1.825273e+000 1.783629e+002 -7.219828e+001 -7.467863e+001 -7.194555e+001 -1.616925e+002 -1.581154e-001 1.290790e+002
592500000 -1.868569e+000 1.779031e+002 -7.592802e+001 -1.389597e+002 -7.550101e+001 -1.195299e+002 -1.646562e-001 1.291259e+002
593125000 -1.920779e+000 1.775684e+002 -7.463560e+001 -4.280152e+001 -8.217701e+001 4.144821e+001 -1.548006e-001 1.291991e+002
593750000 -1.965461e+000 1.771898e+002 -7.219368e+001 -1.161239e+002 -7.483547e+001 -1.401155e+002 -1.577732e-001 1.292449e+002
594375000 -1.991610e+000 1.768960e+002 -7.434547e+001 -9.902036e+001 -8.248554e+001 -1.087710e+002 -1.576800e-001 1.292705e+002
595000000 -2.026525e+000 1.765067e+002 -8.051318e+001 -1.171137e+002 -7.527160e+001 -1.177918e+002 -1.727863e-001 1.292745e+002
