!Agilent Technologies,E8364B,US42250235,A.06.04.32
!Agilent E8364B: A.06.04.32
!Date: Friday, January 15, 2021 14:48:13
!Correction: S11(Full 2 Port(1,2)) S21(Full 2 Port(1,2)) S12(Full 2 Port(1,2)) S22(Full 2 Port(1,2)) 
!S2P File: Measurements: S11, S21, S12, S22:
# Hz S  dB   R 50
500000000 -1.339584e-001 -1.300581e+002 -8.062400e+001 1.467325e+002 -8.036575e+001 3.907556e+000 -1.504804e-001 1.384892e+002
500625000 -1.293340e-001 -1.302747e+002 -7.264618e+001 1.139736e+002 -7.422522e+001 7.990508e+001 -1.522014e-001 1.384672e+002
501250000 -1.419377e-001 -1.306015e+002 -8.170487e+001 6.581904e+001 -7.514333e+001 5.125028e+001 -1.466199e-001 1.384025e+002
501875000 -1.447450e-001 -1.309261e+002 -9.483277e+001 -1.448443e+002 -7.357748e+001 -3.346516e+001 -1.413184e-001 1.383278e+002
502500000 -1.399504e-001 -1.312247e+002 -8.455473e+001 -9.773612e+001 -7.951192e+001 -1.575485e+002 -1.377672e-001 1.383469e+002
503125000 -1.534967e-001 -1.315563e+002 -6.954254e+001 8.816173e+001 -7.566161e+001 -6.790954e+001 -1.426802e-001 1.382176e+002
503750000 -1.590219e-001 -1.317790e+002 -8.310892e+001 -9.669379e+001 -6.988070e+001 -1.213666e+002 -1.403263e-001 1.381475e+002
504375000 -1.709354e-001 -1.321008e+002 -7.823237e+001 6.258280e+001 -7.035963e+001 2.073473e+001 -1.518980e-001 1.381692e+002
505000000 -1.692096e-001 -1.324602e+002 -6.918633e+001 -1.027601e+001 -9.185632e+001 6.303647e+000 -1.538449e-001 1.381311e+002
505625000 -1.714093e-001 -1.326772e+002 -7.352154e+001 -6.361830e+001 -7.440119e+001 -6.138148e+001 -1.473243e-001 1.380530e+002
506250000 -1.742889e-001 -1.329705e+002 -7.088950e+001 1.983976e+001 -9.706301e+001 -9.827607e+001 -1.525073e-001 1.379137e+002
506875000 -1.807166e-001 -1.332621e+002 -7.819513e+001 -5.144223e+001 -8.212975e+001 -6.936646e+001 -1.458241e-001 1.378193e+002
507500000 -1.798455e-001 -1.335345e+002 -7.860191e+001 1.373662e+001 -8.202983e+001 1.175189e+002 -1.511753e-001 1.377113e+002
508125000 -1.880937e-001 -1.338145e+002 -7.186875e+001 -5.585674e+001 -8.267168e+001 4.567230e+001 -1.508883e-001 1.376712e+002
508750000 -1.928730e-001 -1.340515e+002 -7.549854e+001 -1.557598e+001 -7.516371e+001 1.673338e+001 -1.525746e-001 1.375082e+002
509375000 -2.002111e-001 -1.344040e+002 -7.079546e+001 1.201378e+001 -7.518688e+001 -5.168236e+001 -1.485001e-001 1.374315e+002
510000000 -2.037570e-001 -1.347018e+002 -7.340249e+001 1.099446e+001 -7.205947e+001 -1.151458e+002 -1.618397e-001 1.372931e+002
510625000 -2.173018e-001 -1.348941e+002 -7.224618e+001 -9.235472e+000 -7.389523e+001 8.498055e+000 -1.516635e-001 1.371784e+002
511250000 -2.148730e-001 -1.351508e+002 -7.074084e+001 -2.859764e+001 -6.902744e+001 -6.857183e+001 -1.583662e-001 1.369751e+002
511875000 -2.175090e-001 -1.354964e+002 -7.667989e+001 -4.315812e+001 -7.261024e+001 -1.933113e+001 -1.580948e-001 1.368840e+002
512500000 -2.227809e-001 -1.357145e+002 -7.435402e+001 -5.743626e+001 -7.576548e+001 3.970001e+000 -1.629653e-001 1.367316e+002
513125000 -2.432069e-001 -1.360195e+002 -6.996627e+001 -1.337689e+000 -7.312649e+001 3.679775e+001 -1.572695e-001 1.366844e+002
513750000 -2.454061e-001 -1.362999e+002 -7.404295e+001 3.120686e+000 -7.127749e+001 -1.762088e+001 -1.595399e-001 1.366097e+002
514375000 -2.514594e-001 -1.366039e+002 -8.478155e+001 6.992715e+001 -7.533074e+001 2.040262e+001 -1.417410e-001 1.364761e+002
515000000 -2.600058e-001 -1.368713e+002 -8.305158e+001 8.740585e+001 -6.894606e+001 -3.154930e+001 -1.483144e-001 1.363818e+002
515625000 -2.761352e-001 -1.372267e+002 -7.380133e+001 -1.176503e+002 -7.851793e+001 1.740319e+001 -1.497932e-001 1.362651e+002
516250000 -2.741310e-001 -1.375240e+002 -7.354919e+001 -2.008119e+000 -8.045983e+001 8.538500e+000 -1.484700e-001 1.361997e+002
516875000 -2.937626e-001 -1.378020e+002 -7.359045e+001 -4.513295e+001 -8.866839e+001 -2.427935e+001 -1.499797e-001 1.361940e+002
517500000 -2.934523e-001 -1.381145e+002 -7.200877e+001 -3.281182e+001 -6.910238e+001 -4.304671e+001 -1.471538e-001 1.361423e+002
518125000 -3.007228e-001 -1.384778e+002 -7.107658e+001 -2.458699e+001 -7.155517e+001 5.794245e+001 -1.402075e-001 1.361221e+002
518750000 -3.084892e-001 -1.388207e+002 -7.211022e+001 -4.447871e+001 -8.617229e+001 -8.988519e+001 -1.419773e-001 1.361033e+002
519375000 -3.183193e-001 -1.390509e+002 -8.525499e+001 -8.314286e+001 -7.367844e+001 -1.478401e+002 -1.343983e-001 1.360143e+002
520000000 -3.240235e-001 -1.394349e+002 -7.658346e+001 3.415587e+000 -7.740260e+001 -6.079500e+001 -1.393248e-001 1.360518e+002
520625000 -3.236832e-001 -1.397818e+002 -6.920220e+001 -8.938163e+001 -8.582402e+001 -1.161824e+002 -1.374713e-001 1.359810e+002
521250000 -3.284290e-001 -1.400713e+002 -7.525704e+001 -7.984979e+001 -7.482439e+001 4.303003e+001 -1.365852e-001 1.360209e+002
521875000 -3.368708e-001 -1.404274e+002 -7.945347e+001 -2.723944e+001 -7.787144e+001 -3.228251e+000 -1.349630e-001 1.359804e+002
522500000 -3.404230e-001 -1.407365e+002 -8.038069e+001 -6.397752e+001 -7.818303e+001 9.153566e+000 -1.375569e-001 1.359729e+002
523125000 -3.544640e-001 -1.410685e+002 -7.843239e+001 5.280833e+001 -8.600723e+001 5.300456e+001 -1.374012e-001 1.359416e+002
523750000 -3.559226e-001 -1.413719e+002 -8.375263e+001 1.671309e+002 -7.668250e+001 -3.293348e+001 -1.430480e-001 1.359387e+002
524375000 -3.675214e-001 -1.417377e+002 -9.222610e+001 -1.226362e+002 -7.892870e+001 4.127563e+001 -1.373141e-001 1.359019e+002
525000000 -3.759947e-001 -1.420066e+002 -7.085667e+001 -2.400235e+001 -7.180254e+001 -6.457056e+001 -1.416066e-001 1.358430e+002
525625000 -3.879648e-001 -1.422224e+002 -7.522876e+001 -4.735133e+001 -7.638344e+001 -4.445321e+001 -1.548375e-001 1.357458e+002
526250000 -3.952389e-001 -1.425167e+002 -8.396739e+001 -1.331773e+002 -7.481818e+001 -3.064284e+001 -1.445710e-001 1.357645e+002
526875000 -4.037019e-001 -1.428673e+002 -7.794260e+001 -4.982152e+001 -8.586301e+001 -3.561670e+001 -1.430773e-001 1.356897e+002
527500000 -4.172187e-001 -1.431263e+002 -7.382458e+001 -2.763467e+001 -8.778222e+001 6.533111e+001 -1.515801e-001 1.356949e+002
528125000 -4.390524e-001 -1.433995e+002 -7.199023e+001 4.738431e+000 -7.012583e+001 -6.670219e+001 -1.558021e-001 1.356525e+002
528750000 -4.361655e-001 -1.436655e+002 -7.151503e+001 -1.493422e+001 -8.105279e+001 -9.561757e+000 -1.481843e-001 1.357223e+002
529375000 -4.536169e-001 -1.439407e+002 -7.409275e+001 -3.067196e+001 -7.534052e+001 -1.132293e+002 -1.489412e-001 1.355289e+002
530000000 -4.617644e-001 -1.442567e+002 -7.460822e+001 -1.208890e+002 -7.217042e+001 1.044162e+001 -1.466693e-001 1.355371e+002
530625000 -4.760522e-001 -1.444822e+002 -7.144522e+001 -8.106656e+001 -7.446570e+001 -5.806901e+001 -1.525883e-001 1.355009e+002
531250000 -4.816995e-001 -1.448047e+002 -7.975442e+001 -8.795958e+001 -7.011570e+001 -5.605804e+001 -1.405381e-001 1.354594e+002
531875000 -5.015115e-001 -1.450675e+002 -6.760223e+001 -1.984742e+001 -7.354874e+001 -3.634772e+001 -1.520104e-001 1.354201e+002
532500000 -5.029958e-001 -1.453421e+002 -7.278470e+001 -1.417535e+002 -6.744314e+001 -4.722860e+001 -1.493775e-001 1.353921e+002
533125000 -5.137046e-001 -1.456670e+002 -7.542930e+001 -6.320298e+001 -7.098987e+001 -1.168459e+002 -1.516971e-001 1.353699e+002
533750000 -5.131143e-001 -1.460591e+002 -7.081121e+001 -5.404424e+001 -7.343776e+001 -7.233591e+001 -1.538705e-001 1.353141e+002
534375000 -5.253019e-001 -1.463733e+002 -6.843400e+001 -7.106844e+001 -7.377528e+001 7.289392e+001 -1.437250e-001 1.352524e+002
535000000 -5.416098e-001 -1.466187e+002 -7.258221e+001 -2.036763e+001 -7.013749e+001 9.905826e+000 -1.500958e-001 1.352153e+002
535625000 -5.488714e-001 -1.469832e+002 -7.233682e+001 -5.173379e+001 -7.905633e+001 -9.025314e+001 -1.436538e-001 1.351516e+002
536250000 -5.559617e-001 -1.472723e+002 -6.584498e+001 -5.446023e+001 -6.964189e+001 -8.479395e+001 -1.445509e-001 1.350778e+002
536875000 -5.623014e-001 -1.476499e+002 -8.270190e+001 2.670216e+001 -7.439320e+001 -3.660697e+001 -1.570903e-001 1.350068e+002
537500000 -5.685924e-001 -1.478903e+002 -6.883556e+001 -2.642030e+001 -6.903133e+001 -6.335715e+001 -1.459637e-001 1.350190e+002
538125000 -5.744271e-001 -1.482433e+002 -6.828493e+001 -5.510765e+001 -6.681156e+001 -2.906016e+001 -1.536437e-001 1.349439e+002
538750000 -5.878543e-001 -1.485367e+002 -6.812492e+001 -6.559969e+001 -7.180349e+001 -1.081849e+002 -1.538415e-001 1.348740e+002
539375000 -5.951170e-001 -1.488562e+002 -6.972752e+001 -3.157712e+001 -7.535472e+001 -7.828770e+001 -1.483347e-001 1.348145e+002
540000000 -5.973304e-001 -1.491627e+002 -7.355015e+001 -7.331864e+001 -7.430714e+001 -3.834857e+001 -1.482882e-001 1.347511e+002
540625000 -5.986905e-001 -1.495119e+002 -7.717153e+001 -6.399925e+001 -7.156908e+001 -1.096693e+002 -1.448604e-001 1.346721e+002
541250000 -6.092704e-001 -1.497468e+002 -7.088657e+001 -1.621346e+001 -7.552666e+001 -7.380618e+001 -1.444590e-001 1.346585e+002
541875000 -6.161081e-001 -1.500325e+002 -7.200000e+001 -7.079111e+001 -7.134852e+001 -9.268823e+001 -1.524858e-001 1.345826e+002
542500000 -6.178789e-001 -1.502972e+002 -7.130721e+001 -1.160168e+002 -6.774912e+001 -7.174001e+001 -1.441338e-001 1.346299e+002
543125000 -6.164328e-001 -1.506747e+002 -7.003997e+001 -1.016108e+002 -7.709426e+001 -1.322501e+002 -1.471985e-001 1.345800e+002
543750000 -6.251368e-001 -1.509836e+002 -7.088261e+001 -1.498692e+002 -6.981995e+001 -2.528185e+001 -1.489628e-001 1.345468e+002
544375000 -6.329607e-001 -1.512881e+002 -6.736854e+001 -1.054392e+002 -7.164149e+001 -9.880901e+001 -1.402912e-001 1.345441e+002
545000000 -6.375580e-001 -1.516005e+002 -7.459286e+001 2.795701e+001 -7.488903e+001 -5.580859e+001 -1.416464e-001 1.346010e+002
545625000 -6.442584e-001 -1.519596e+002 -8.039220e+001 2.915082e+001 -7.067969e+001 -8.227992e+001 -1.425173e-001 1.346094e+002
546250000 -6.636562e-001 -1.522290e+002 -7.279807e+001 -5.475196e+001 -7.404401e+001 -8.567123e+001 -1.415423e-001 1.345187e+002
546875000 -6.746882e-001 -1.526124e+002 -7.895660e+001 -1.603488e+001 -7.039555e+001 -6.937778e+001 -1.439187e-001 1.345957e+002
547500000 -6.839565e-001 -1.529399e+002 -7.130107e+001 -7.068697e+001 -7.447726e+001 -3.822230e+001 -1.461826e-001 1.345641e+002
548125000 -6.972895e-001 -1.532218e+002 -7.318539e+001 -1.066430e+002 -7.054315e+001 -5.683145e+001 -1.424951e-001 1.344921e+002
548750000 -7.034876e-001 -1.536147e+002 -6.998823e+001 -8.314867e+001 -7.632744e+001 -3.971770e+001 -1.545424e-001 1.345060e+002
549375000 -7.226650e-001 -1.539742e+002 -7.334077e+001 -4.142429e+001 -7.009191e+001 -9.576543e+001 -1.520713e-001 1.343301e+002
550000000 -7.240554e-001 -1.543109e+002 -6.990000e+001 -7.419743e+001 -7.794875e+001 -4.429258e+001 -1.595272e-001 1.343927e+002
550625000 -7.419117e-001 -1.546276e+002 -6.840720e+001 -8.903648e+001 -6.877604e+001 -8.821885e+001 -1.579099e-001 1.342493e+002
551250000 -7.405123e-001 -1.549552e+002 -6.683410e+001 -9.358067e+001 -6.579205e+001 -1.073164e+002 -1.621952e-001 1.341523e+002
551875000 -7.525027e-001 -1.553014e+002 -6.653157e+001 -1.088958e+002 -6.679662e+001 -8.303276e+001 -1.608743e-001 1.340190e+002
552500000 -7.591991e-001 -1.556801e+002 -6.590347e+001 -8.752444e+001 -7.067097e+001 -7.579418e+001 -1.560789e-001 1.339344e+002
553125000 -7.686778e-001 -1.560065e+002 -7.151938e+001 -1.174812e+002 -8.115461e+001 -1.480388e+002 -1.713327e-001 1.338418e+002
553750000 -7.777632e-001 -1.563728e+002 -6.571722e+001 -8.365133e+001 -6.621738e+001 -1.035262e+002 -1.734074e-001 1.336719e+002
554375000 -7.791302e-001 -1.567312e+002 -7.547617e+001 -7.998727e+001 -6.890111e+001 -1.020383e+002 -1.735476e-001 1.335504e+002
555000000 -7.912070e-001 -1.570661e+002 -6.551842e+001 -8.000542e+001 -7.079796e+001 -1.080059e+002 -1.773825e-001 1.334383e+002
555625000 -8.060383e-001 -1.573818e+002 -7.507543e+001 -1.200802e+002 -6.833038e+001 -9.887843e+001 -1.587394e-001 1.333676e+002
556250000 -8.085049e-001 -1.577352e+002 -6.885115e+001 -1.205092e+002 -6.944775e+001 -1.128423e+002 -1.664666e-001 1.332547e+002
556875000 -8.104857e-001 -1.581180e+002 -6.897050e+001 -1.004076e+002 -7.139079e+001 -9.846832e+001 -1.726506e-001 1.332244e+002
557500000 -8.230093e-001 -1.584031e+002 -6.861710e+001 -1.543916e+002 -6.654716e+001 -1.041366e+002 -1.603842e-001 1.331122e+002
558125000 -8.327967e-001 -1.587027e+002 -6.431500e+001 -1.143998e+002 -7.022266e+001 -1.178308e+002 -1.621816e-001 1.331304e+002
558750000 -8.295832e-001 -1.590601e+002 -7.600834e+001 -1.285242e+002 -6.699067e+001 -1.067328e+002 -1.559037e-001 1.330155e+002
559375000 -8.485989e-001 -1.593895e+002 -6.755375e+001 -1.284102e+002 -6.998686e+001 -1.388907e+002 -1.478642e-001 1.330453e+002
560000000 -8.661084e-001 -1.597045e+002 -6.522987e+001 -1.047644e+002 -6.524460e+001 -1.161097e+002 -1.445073e-001 1.330158e+002
560625000 -8.692259e-001 -1.599960e+002 -6.819204e+001 -1.177823e+002 -6.620767e+001 -1.290922e+002 -1.497571e-001 1.330024e+002
561250000 -8.770316e-001 -1.603584e+002 -6.421841e+001 -1.290931e+002 -6.682379e+001 -1.235090e+002 -1.415595e-001 1.329818e+002
561875000 -8.853457e-001 -1.607158e+002 -7.179921e+001 -1.258559e+002 -6.839436e+001 -1.311185e+002 -1.452732e-001 1.330018e+002
562500000 -8.924999e-001 -1.610391e+002 -6.589776e+001 -1.213299e+002 -6.569172e+001 -1.356583e+002 -1.396140e-001 1.330166e+002
563125000 -8.950492e-001 -1.613955e+002 -6.606195e+001 -1.304364e+002 -6.770580e+001 -1.235148e+002 -1.425824e-001 1.329879e+002
563750000 -9.129512e-001 -1.618063e+002 -6.486821e+001 -1.391959e+002 -6.853053e+001 -1.561804e+002 -1.510438e-001 1.329550e+002
564375000 -9.254505e-001 -1.621787e+002 -6.486655e+001 -1.304251e+002 -6.473209e+001 -1.081156e+002 -1.469013e-001 1.329157e+002
565000000 -9.361534e-001 -1.626221e+002 -6.545850e+001 -1.739641e+002 -6.642698e+001 -1.474186e+002 -1.639426e-001 1.328662e+002
565625000 -9.568754e-001 -1.629875e+002 -6.615853e+001 -1.647360e+002 -6.843830e+001 -1.467206e+002 -1.657853e-001 1.327780e+002
566250000 -9.676707e-001 -1.634145e+002 -6.538215e+001 -1.298360e+002 -6.676962e+001 -1.614404e+002 -1.651959e-001 1.326986e+002
566875000 -9.835036e-001 -1.637784e+002 -7.091328e+001 -1.626908e+002 -6.677431e+001 -1.548944e+002 -1.697427e-001 1.325095e+002
567500000 -1.004515e+000 -1.642609e+002 -7.266965e+001 -1.651629e+002 -6.481470e+001 -1.371591e+002 -1.779049e-001 1.324345e+002
568125000 -1.024679e+000 -1.645951e+002 -6.397160e+001 -1.480754e+002 -6.522211e+001 -1.571255e+002 -1.738783e-001 1.322649e+002
568750000 -1.026632e+000 -1.650122e+002 -6.544013e+001 -1.554979e+002 -6.651388e+001 -1.491531e+002 -1.900894e-001 1.321513e+002
569375000 -1.038958e+000 -1.654509e+002 -6.482841e+001 -1.615655e+002 -6.968984e+001 -1.485041e+002 -1.768928e-001 1.320051e+002
570000000 -1.049069e+000 -1.659114e+002 -6.407665e+001 -1.589208e+002 -6.584311e+001 -1.470200e+002 -1.790532e-001 1.317126e+002
570625000 -1.057525e+000 -1.663241e+002 -6.529693e+001 -1.579992e+002 -6.885887e+001 -1.534397e+002 -1.761379e-001 1.317246e+002
571250000 -1.075357e+000 -1.667585e+002 -6.658518e+001 1.418976e+002 -6.751323e+001 -1.629086e+002 -1.841770e-001 1.315915e+002
571875000 -1.087170e+000 -1.672340e+002 -6.694363e+001 -1.680585e+002 -7.007990e+001 -1.559674e+002 -1.628316e-001 1.314282e+002
572500000 -1.104703e+000 -1.676364e+002 -6.766077e+001 -1.596511e+002 -6.631419e+001 1.737266e+002 -1.730844e-001 1.313549e+002
573125000 -1.128732e+000 -1.680524e+002 -7.029056e+001 1.751677e+002 -6.709603e+001 -1.465161e+002 -1.550256e-001 1.312518e+002
573750000 -1.137336e+000 -1.684554e+002 -6.671371e+001 -1.417892e+002 -6.683724e+001 -1.710327e+002 -1.697007e-001 1.311474e+002
574375000 -1.155844e+000 -1.688516e+002 -6.501774e+001 -1.736060e+002 -6.716756e+001 -1.568291e+002 -1.559004e-001 1.312002e+002
575000000 -1.171852e+000 -1.692070e+002 -6.632735e+001 1.794168e+002 -6.709444e+001 -1.494700e+002 -1.529060e-001 1.310665e+002
575625000 -1.186049e+000 -1.695562e+002 -6.744997e+001 -1.636342e+002 -6.553622e+001 -1.725035e+002 -1.575935e-001 1.310582e+002
576250000 -1.195068e+000 -1.699144e+002 -6.698278e+001 -1.669323e+002 -6.544600e+001 -1.695094e+002 -1.622145e-001 1.310412e+002
576875000 -1.204323e+000 -1.702885e+002 -6.547788e+001 -1.747462e+002 -6.850345e+001 1.774723e+002 -1.514471e-001 1.310461e+002
577500000 -1.221470e+000 -1.706569e+002 -7.141257e+001 -1.473902e+002 -6.627814e+001 -1.536451e+002 -1.506209e-001 1.309693e+002
578125000 -1.229670e+000 -1.710233e+002 -6.543629e+001 -1.753129e+002 -6.717189e+001 1.586113e+002 -1.462431e-001 1.309926e+002
578750000 -1.232770e+000 -1.714633e+002 -6.329316e+001 1.731296e+002 -6.905874e+001 -1.680679e+002 -1.552541e-001 1.309040e+002
579375000 -1.249060e+000 -1.718457e+002 -6.921699e+001 1.452220e+002 -6.610556e+001 -1.550866e+002 -1.606518e-001 1.308891e+002
580000000 -1.258147e+000 -1.722890e+002 -6.723116e+001 1.575140e+002 -6.549969e+001 1.799720e+002 -1.559012e-001 1.308458e+002
580625000 -1.280664e+000 -1.727268e+002 -6.655997e+001 1.720375e+002 -6.290862e+001 1.697379e+002 -1.585252e-001 1.307986e+002
581250000 -1.294825e+000 -1.731502e+002 -6.444479e+001 1.680728e+002 -6.647184e+001 1.643355e+002 -1.578365e-001 1.306964e+002
581875000 -1.320351e+000 -1.735824e+002 -6.633056e+001 1.708331e+002 -6.306844e+001 1.587787e+002 -1.678027e-001 1.306613e+002
582500000 -1.338723e+000 -1.740196e+002 -6.539631e+001 1.590899e+002 -6.488351e+001 1.613934e+002 -1.615655e-001 1.305690e+002
583125000 -1.353131e+000 -1.745279e+002 -6.601519e+001 1.741870e+002 -6.565502e+001 -1.685189e+002 -1.746112e-001 1.303769e+002
583750000 -1.368433e+000 -1.750060e+002 -6.473572e+001 1.412854e+002 -6.766393e+001 1.389832e+002 -1.827730e-001 1.303306e+002
584375000 -1.385062e+000 -1.754599e+002 -6.503139e+001 1.551707e+002 -6.553354e+001 1.544947e+002 -1.651175e-001 1.302034e+002
585000000 -1.400536e+000 -1.760342e+002 -6.714041e+001 1.629563e+002 -6.587482e+001 1.352717e+002 -1.767916e-001 1.300907e+002
585625000 -1.422339e+000 -1.765281e+002 -6.605171e+001 1.550049e+002 -6.419601e+001 1.459036e+002 -1.674648e-001 1.300337e+002
586250000 -1.435282e+000 -1.771053e+002 -6.746024e+001 1.150176e+002 -6.770363e+001 1.518466e+002 -1.640880e-001 1.300287e+002
586875000 -1.456258e+000 -1.776644e+002 -6.389693e+001 1.595028e+002 -6.511059e+001 1.377234e+002 -1.638890e-001 1.298309e+002
587500000 -1.489102e+000 -1.782113e+002 -6.566251e+001 1.617576e+002 -6.588854e+001 1.173739e+002 -1.627566e-001 1.298337e+002
588125000 -1.503349e+000 -1.787327e+002 -6.659238e+001 1.350751e+002 -6.403938e+001 1.405231e+002 -1.520704e-001 1.297888e+002
588750000 -1.533085e+000 -1.792351e+002 -6.621999e+001 1.382532e+002 -6.845575e+001 1.085255e+002 -1.520090e-001 1.298220e+002
589375000 -1.558204e+000 -1.798045e+002 -6.597342e+001 1.281120e+002 -6.416319e+001 1.343856e+002 -1.424312e-001 1.297025e+002
590000000 -1.596271e+000 1.797100e+002 -6.592631e+001 1.637128e+002 -6.915527e+001 1.066372e+002 -1.498870e-001 1.297670e+002
590625000 -1.625656e+000 1.792533e+002 -6.729522e+001 1.458557e+002 -6.827418e+001 1.529880e+002 -1.439548e-001 1.297691e+002
591250000 -1.657268e+000 1.787461e+002 -6.348976e+001 1.511760e+002 -6.317172e+001 1.407303e+002 -1.382870e-001 1.298109e+002
591875000 -1.695032e+000 1.783569e+002 -6.580878e+001 1.208941e+002 -6.727214e+001 1.471674e+002 -1.430696e-001 1.298309e+002
592500000 -1.731200e+000 1.779287e+002 -6.668734e+001 1.424182e+002 -6.491083e+001 1.408164e+002 -1.432257e-001 1.298947e+002
593125000 -1.757386e+000 1.775170e+002 -6.726886e+001 1.292879e+002 -6.469952e+001 1.423654e+002 -1.412990e-001 1.299119e+002
593750000 -1.797132e+000 1.770307e+002 -6.837070e+001 1.488099e+002 -6.701592e+001 1.287838e+002 -1.414119e-001 1.299664e+002
594375000 -1.812865e+000 1.766281e+002 -6.612827e+001 1.202737e+002 -6.383432e+001 1.323739e+002 -1.420750e-001 1.299759e+002
595000000 -1.852156e+000 1.761889e+002 -6.687426e+001 1.326648e+002 -6.554341e+001 1.086568e+002 -1.559100e-001 1.299731e+002
