!Agilent Technologies,E8364B,US42250235,A.06.04.32
!Agilent E8364B: A.06.04.32
!Date: Friday, January 15, 2021 14:51:50
!Correction: S11(Full 2 Port(1,2)) S21(Full 2 Port(1,2)) S12(Full 2 Port(1,2)) S22(Full 2 Port(1,2)) 
!S2P File: Measurements: S11, S21, S12, S22:
# Hz S  dB   R 50
500000000 -1.119429e-001 -1.299051e+002 -8.177414e+001 6.343341e+001 -6.697804e+001 1.683835e+002 -1.296259e-001 1.386963e+002
500625000 -1.219029e-001 -1.301273e+002 -7.222177e+001 1.668639e+002 -6.702620e+001 1.481365e+002 -1.345759e-001 1.386568e+002
501250000 -1.222894e-001 -1.303854e+002 -7.170386e+001 7.969960e+001 -7.194234e+001 -1.473336e+002 -1.379730e-001 1.385581e+002
501875000 -1.256319e-001 -1.307657e+002 -7.082306e+001 -8.461486e+001 -7.599731e+001 1.485644e+002 -1.248400e-001 1.385886e+002
502500000 -1.281705e-001 -1.310073e+002 -7.161462e+001 1.210885e+002 -7.609248e+001 -1.571906e+002 -1.254828e-001 1.385521e+002
503125000 -1.343630e-001 -1.313589e+002 -8.117312e+001 1.693409e+002 -6.773702e+001 1.720326e+002 -1.251286e-001 1.384164e+002
503750000 -1.377773e-001 -1.316017e+002 -7.731645e+001 -1.073683e+002 -7.234034e+001 1.277830e+002 -1.444279e-001 1.383567e+002
504375000 -1.413377e-001 -1.319578e+002 -7.812820e+001 9.375815e+001 -7.183722e+001 1.318999e+002 -1.436457e-001 1.383666e+002
505000000 -1.430164e-001 -1.322698e+002 -8.002428e+001 1.245441e+002 -7.510667e+001 1.186788e+002 -1.367545e-001 1.383131e+002
505625000 -1.467981e-001 -1.325034e+002 -7.081903e+001 -1.460458e+002 -7.241558e+001 -1.540400e+002 -1.364617e-001 1.382260e+002
506250000 -1.503923e-001 -1.328211e+002 -8.274904e+001 1.287745e+002 -7.821635e+001 -9.681399e+001 -1.443669e-001 1.380865e+002
506875000 -1.530300e-001 -1.331183e+002 -7.539520e+001 1.360569e+002 -7.061846e+001 1.794900e+002 -1.409632e-001 1.379859e+002
507500000 -1.529056e-001 -1.333660e+002 -6.939521e+001 -1.604676e+002 -7.771264e+001 1.306256e+002 -1.422828e-001 1.378890e+002
508125000 -1.571514e-001 -1.336816e+002 -9.079011e+001 7.277302e+001 -7.672772e+001 1.795594e+002 -1.469102e-001 1.377981e+002
508750000 -1.568637e-001 -1.339026e+002 -7.102540e+001 1.165125e+002 -8.771029e+001 1.423111e+002 -1.463477e-001 1.376641e+002
509375000 -1.643922e-001 -1.341996e+002 -9.013688e+001 1.192512e+002 -7.665536e+001 1.264413e+002 -1.476226e-001 1.375534e+002
510000000 -1.665609e-001 -1.345134e+002 -7.175294e+001 -8.195567e+001 -7.700648e+001 1.217565e+002 -1.516047e-001 1.374376e+002
510625000 -1.717613e-001 -1.347311e+002 -8.022148e+001 -1.199726e+002 -7.335224e+001 -1.636311e+002 -1.410954e-001 1.373445e+002
511250000 -1.776166e-001 -1.349928e+002 -8.025814e+001 -1.002620e+002 -7.055888e+001 1.643667e+002 -1.538502e-001 1.371872e+002
511875000 -1.717564e-001 -1.353180e+002 -7.422954e+001 -1.758954e+002 -6.945625e+001 1.116606e+002 -1.416733e-001 1.370667e+002
512500000 -1.787557e-001 -1.356160e+002 -7.267198e+001 8.671780e+001 -6.785606e+001 1.231454e+002 -1.419943e-001 1.369537e+002
513125000 -1.916552e-001 -1.359167e+002 -8.161942e+001 6.111382e+001 -8.270267e+001 -1.522876e+002 -1.532189e-001 1.369039e+002
513750000 -1.958652e-001 -1.361934e+002 -7.803593e+001 1.500508e+002 -6.919643e+001 1.558321e+002 -1.479076e-001 1.367777e+002
514375000 -2.064809e-001 -1.364983e+002 -8.302615e+001 9.889283e+001 -7.285963e+001 1.228451e+002 -1.399179e-001 1.366343e+002
515000000 -2.112931e-001 -1.367944e+002 -7.736181e+001 -3.400542e+001 -7.841515e+001 -2.822977e+001 -1.343089e-001 1.365067e+002
515625000 -2.211968e-001 -1.372003e+002 -8.044444e+001 -6.199897e+001 -7.477984e+001 1.450927e+002 -1.390495e-001 1.364995e+002
516250000 -2.178919e-001 -1.374984e+002 -8.003664e+001 7.329245e+001 -7.697907e+001 1.028626e+002 -1.349511e-001 1.364162e+002
516875000 -2.386895e-001 -1.378334e+002 -7.135356e+001 -1.762406e+002 -7.159367e+001 8.873579e+001 -1.281295e-001 1.364027e+002
517500000 -2.344505e-001 -1.381605e+002 -8.750606e+001 9.687984e+001 -8.337698e+001 -1.225768e+002 -1.349902e-001 1.363510e+002
518125000 -2.405869e-001 -1.385179e+002 -7.794485e+001 1.018434e+002 -8.295237e+001 1.215875e+002 -1.287741e-001 1.363268e+002
518750000 -2.507910e-001 -1.388702e+002 -7.534526e+001 1.156723e+002 -8.777985e+001 -1.286771e+002 -1.334669e-001 1.363381e+002
519375000 -2.595407e-001 -1.391255e+002 -7.571308e+001 1.011337e+002 -7.532222e+001 1.253899e+002 -1.229580e-001 1.362793e+002
520000000 -2.603091e-001 -1.395633e+002 -8.196362e+001 -1.102268e+002 -6.939148e+001 1.461645e+002 -1.305742e-001 1.362502e+002
520625000 -2.680021e-001 -1.398815e+002 -7.463466e+001 4.293801e+001 -6.745387e+001 1.321329e+002 -1.263983e-001 1.362139e+002
521250000 -2.742682e-001 -1.402401e+002 -7.827559e+001 -1.591019e+002 -7.126384e+001 1.626162e+002 -1.341600e-001 1.362400e+002
521875000 -2.840614e-001 -1.406288e+002 -7.623335e+001 1.046138e+002 -6.933138e+001 1.449559e+002 -1.227128e-001 1.362134e+002
522500000 -2.845860e-001 -1.409124e+002 -7.711501e+001 -5.791984e-001 -6.879556e+001 1.023347e+002 -1.318614e-001 1.361375e+002
523125000 -2.985266e-001 -1.412529e+002 -7.134019e+001 1.334291e+002 -7.682654e+001 1.258233e+002 -1.311667e-001 1.361262e+002
523750000 -3.027846e-001 -1.415862e+002 -7.569724e+001 7.280463e+001 -8.121728e+001 -1.646403e+002 -1.350876e-001 1.361457e+002
524375000 -3.156045e-001 -1.419346e+002 -7.122849e+001 1.028256e+002 -7.223219e+001 1.111617e+002 -1.195818e-001 1.360548e+002
525000000 -3.203583e-001 -1.421988e+002 -7.182211e+001 -1.745141e+002 -6.992578e+001 1.167619e+002 -1.305502e-001 1.360828e+002
525625000 -3.361648e-001 -1.424557e+002 -7.739690e+001 1.187095e+002 -7.312823e+001 9.221706e+001 -1.374397e-001 1.360214e+002
526250000 -3.283243e-001 -1.427715e+002 -7.352332e+001 1.511556e+002 -7.021441e+001 1.132576e+002 -1.303159e-001 1.359623e+002
526875000 -3.425309e-001 -1.430856e+002 -6.865538e+001 9.311366e+001 -7.111333e+001 1.284636e+002 -1.337912e-001 1.359695e+002
527500000 -3.548918e-001 -1.434146e+002 -7.673672e+001 1.493053e+002 -7.333735e+001 9.318985e+001 -1.350883e-001 1.358939e+002
528125000 -3.795123e-001 -1.436894e+002 -6.743733e+001 8.090356e+001 -7.455588e+001 1.318525e+002 -1.353211e-001 1.359031e+002
528750000 -3.827515e-001 -1.439705e+002 -8.444966e+001 1.206158e+002 -7.480868e+001 4.692749e+001 -1.332399e-001 1.358990e+002
529375000 -3.948020e-001 -1.442840e+002 -7.324684e+001 1.327574e+002 -7.160248e+001 9.611346e+001 -1.446000e-001 1.357966e+002
530000000 -4.055543e-001 -1.446563e+002 -7.285368e+001 1.141926e+002 -6.747722e+001 1.338042e+002 -1.396920e-001 1.357640e+002
530625000 -4.227189e-001 -1.449150e+002 -8.295525e+001 -1.298349e+002 -7.061469e+001 8.939911e+001 -1.446429e-001 1.356884e+002
531250000 -4.285851e-001 -1.452105e+002 -7.066759e+001 9.818661e+001 -7.073274e+001 1.068639e+002 -1.393916e-001 1.356664e+002
531875000 -4.449456e-001 -1.455501e+002 -7.213471e+001 9.205695e+001 -6.666135e+001 9.647446e+001 -1.370418e-001 1.356123e+002
532500000 -4.514054e-001 -1.458763e+002 -7.226768e+001 1.250081e+002 -7.659132e+001 1.079995e+002 -1.417232e-001 1.355462e+002
533125000 -4.617457e-001 -1.461709e+002 -7.386997e+001 8.222599e+001 -6.865595e+001 1.035315e+002 -1.482014e-001 1.355517e+002
533750000 -4.725440e-001 -1.465520e+002 -7.471555e+001 7.842046e+001 -6.810173e+001 9.149641e+001 -1.514970e-001 1.354701e+002
534375000 -4.764499e-001 -1.469236e+002 -6.741959e+001 6.962332e+001 -7.875610e+001 8.757863e+000 -1.437697e-001 1.353515e+002
535000000 -4.941860e-001 -1.472314e+002 -7.126875e+001 1.181599e+002 -6.742519e+001 6.226395e+001 -1.447200e-001 1.353439e+002
535625000 -4.997826e-001 -1.475948e+002 -7.283417e+001 1.075397e+002 -7.337385e+001 1.082791e+002 -1.424966e-001 1.353092e+002
536250000 -5.148529e-001 -1.479701e+002 -7.037231e+001 1.404355e+001 -7.623615e+001 5.961020e+001 -1.357122e-001 1.351889e+002
536875000 -5.279733e-001 -1.482980e+002 -8.198942e+001 1.610413e+002 -6.991414e+001 6.057890e+001 -1.474431e-001 1.351498e+002
537500000 -5.378978e-001 -1.485953e+002 -6.963718e+001 6.541293e+001 -7.062635e+001 2.536456e+001 -1.348728e-001 1.351438e+002
538125000 -5.479746e-001 -1.489770e+002 -7.255167e+001 -1.242586e+002 -6.971110e+001 1.164723e+002 -1.492593e-001 1.350664e+002
538750000 -5.677164e-001 -1.493407e+002 -7.043537e+001 9.685572e+001 -7.112919e+001 5.345071e+001 -1.425072e-001 1.349481e+002
539375000 -5.798632e-001 -1.496132e+002 -7.897527e+001 7.629706e+001 -7.120241e+001 4.304893e+001 -1.422886e-001 1.349418e+002
540000000 -5.904689e-001 -1.499272e+002 -7.412131e+001 -4.343209e+001 -7.490359e+001 3.698681e+001 -1.372120e-001 1.348744e+002
540625000 -6.092066e-001 -1.502932e+002 -8.762552e+001 -2.389414e+001 -7.403660e+001 6.949809e+001 -1.365664e-001 1.348218e+002
541250000 -6.155686e-001 -1.505380e+002 -6.877426e+001 3.671692e+001 -7.382413e+001 4.241156e+001 -1.277893e-001 1.347716e+002
541875000 -6.301318e-001 -1.508826e+002 -8.321806e+001 -1.401408e+001 -7.250055e+001 4.928821e+001 -1.379371e-001 1.346830e+002
542500000 -6.477560e-001 -1.511510e+002 -7.561128e+001 3.283390e+001 -6.928120e+001 4.581826e+001 -1.254065e-001 1.347776e+002
543125000 -6.530656e-001 -1.514899e+002 -7.515617e+001 -1.123731e+002 -7.168864e+001 3.532698e+001 -1.253335e-001 1.346739e+002
543750000 -6.673080e-001 -1.517694e+002 -7.574895e+001 4.175888e+001 -7.358767e+001 5.223434e+001 -1.352873e-001 1.346964e+002
544375000 -6.775302e-001 -1.520747e+002 -7.089896e+001 -1.066549e+001 -6.998174e+001 -9.043662e-002 -1.260800e-001 1.346975e+002
545000000 -6.861146e-001 -1.523354e+002 -7.413438e+001 2.040592e+001 -7.809634e+001 -1.637236e+001 -1.249000e-001 1.347635e+002
545625000 -6.996897e-001 -1.526971e+002 -8.044905e+001 4.952076e+001 -7.011168e+001 8.398483e+001 -1.304930e-001 1.347671e+002
546250000 -7.167277e-001 -1.529656e+002 -7.064713e+001 -2.768421e+001 -7.154864e+001 1.012410e+002 -1.353458e-001 1.347523e+002
546875000 -7.314076e-001 -1.533206e+002 -7.945451e+001 -7.589467e+001 -7.577129e+001 7.926192e+001 -1.426399e-001 1.348029e+002
547500000 -7.515578e-001 -1.536642e+002 -7.874647e+001 -1.190023e+001 -7.007240e+001 1.483968e+001 -1.388695e-001 1.347475e+002
548125000 -7.683092e-001 -1.539901e+002 -7.491485e+001 1.081853e+002 -7.115235e+001 4.804220e+001 -1.393606e-001 1.346843e+002
548750000 -7.840582e-001 -1.543619e+002 -8.213304e+001 -8.168642e+001 -7.146385e+001 6.764211e+001 -1.530974e-001 1.347160e+002
549375000 -7.972146e-001 -1.546819e+002 -6.873696e+001 1.018097e+002 -7.046893e+001 5.636913e+001 -1.513383e-001 1.345660e+002
550000000 -8.134197e-001 -1.549631e+002 -8.414474e+001 3.588605e+001 -7.080606e+001 5.463945e+001 -1.541871e-001 1.345233e+002
550625000 -8.351922e-001 -1.552898e+002 -7.194627e+001 1.265377e+002 -6.693689e+001 4.183810e+001 -1.539988e-001 1.344313e+002
551250000 -8.419164e-001 -1.556297e+002 -8.699966e+001 4.963029e+001 -7.157627e+001 1.961777e+001 -1.557540e-001 1.343353e+002
551875000 -8.665476e-001 -1.559275e+002 -7.325452e+001 8.966994e+001 -7.292539e+001 6.619234e+001 -1.566852e-001 1.342460e+002
552500000 -8.727979e-001 -1.562598e+002 -7.376635e+001 -1.716560e+002 -7.059100e+001 6.634478e+001 -1.545982e-001 1.341504e+002
553125000 -8.743596e-001 -1.565317e+002 -7.195618e+001 1.231015e+002 -7.100976e+001 1.745284e+001 -1.590135e-001 1.340538e+002
553750000 -8.945333e-001 -1.568772e+002 -7.554926e+001 1.011005e+002 -7.482295e+001 6.598057e+001 -1.551223e-001 1.338703e+002
554375000 -8.955855e-001 -1.571925e+002 -8.092724e+001 -1.249334e+002 -6.851273e+001 2.963391e+001 -1.588173e-001 1.337831e+002
555000000 -9.055685e-001 -1.575356e+002 -8.163273e+001 -3.730763e+001 -6.701155e+001 3.433306e+001 -1.578481e-001 1.336621e+002
555625000 -9.181194e-001 -1.577876e+002 -7.487328e+001 3.081412e+001 -7.218997e+001 4.948501e+001 -1.504446e-001 1.336577e+002
556250000 -9.275411e-001 -1.581587e+002 -7.291679e+001 1.062363e+002 -7.090114e+001 1.504910e+001 -1.570780e-001 1.334729e+002
556875000 -9.330234e-001 -1.584882e+002 -7.405085e+001 1.620455e+002 -6.681239e+001 4.697949e+001 -1.549837e-001 1.334658e+002
557500000 -9.581591e-001 -1.587899e+002 -7.074194e+001 5.179772e+001 -6.797911e+001 2.035852e+001 -1.477011e-001 1.333926e+002
558125000 -9.650064e-001 -1.590852e+002 -7.203074e+001 1.935172e+001 -6.746471e+001 3.436048e+000 -1.486847e-001 1.333808e+002
558750000 -9.726194e-001 -1.594292e+002 -6.986259e+001 5.619392e+001 -7.014940e+001 3.773403e+001 -1.450313e-001 1.333015e+002
559375000 -9.879304e-001 -1.597042e+002 -8.004504e+001 1.737231e+002 -6.903973e+001 1.187177e+001 -1.423354e-001 1.333105e+002
560000000 -1.011678e+000 -1.599477e+002 -7.423750e+001 1.121600e+002 -6.640855e+001 1.255362e+001 -1.407228e-001 1.332301e+002
560625000 -1.016735e+000 -1.601897e+002 -7.173743e+001 4.649023e+001 -6.964094e+001 -2.641301e+000 -1.431775e-001 1.332435e+002
561250000 -1.025066e+000 -1.605030e+002 -7.871011e+001 3.397065e+001 -6.748817e+001 2.738620e+001 -1.396760e-001 1.332116e+002
561875000 -1.035868e+000 -1.608008e+002 -7.452176e+001 5.099642e+000 -6.986201e+001 5.134913e+001 -1.362008e-001 1.332389e+002
562500000 -1.048295e+000 -1.610897e+002 -7.504048e+001 -4.672701e+001 -6.863840e+001 4.669194e+001 -1.339468e-001 1.332393e+002
563125000 -1.051404e+000 -1.614047e+002 -7.468081e+001 6.253923e+000 -7.100689e+001 1.643584e+001 -1.340294e-001 1.332095e+002
563750000 -1.064502e+000 -1.618042e+002 -7.227496e+001 -5.131327e+001 -6.642362e+001 -1.572012e+001 -1.510147e-001 1.331732e+002
564375000 -1.083692e+000 -1.621223e+002 -7.051711e+001 -2.069293e+000 -6.849863e+001 -1.945864e+001 -1.516238e-001 1.331873e+002
565000000 -1.096377e+000 -1.625567e+002 -7.570699e+001 4.932608e+001 -6.896508e+001 8.677970e+000 -1.569752e-001 1.330851e+002
565625000 -1.112183e+000 -1.628570e+002 -7.180540e+001 6.175280e+001 -6.807824e+001 -1.793093e+001 -1.631900e-001 1.330196e+002
566250000 -1.124792e+000 -1.632419e+002 -7.435038e+001 -4.308681e+000 -7.012461e+001 2.085910e+001 -1.659016e-001 1.328814e+002
566875000 -1.156522e+000 -1.636007e+002 -7.921108e+001 2.142847e+001 -6.768391e+001 -2.001544e+001 -1.679743e-001 1.327346e+002
567500000 -1.168901e+000 -1.640471e+002 -7.690409e+001 1.966088e+001 -6.890677e+001 3.053658e+001 -1.656642e-001 1.325977e+002
568125000 -1.190326e+000 -1.643208e+002 -7.222768e+001 3.401459e+001 -6.901996e+001 -6.126764e+000 -1.705780e-001 1.325059e+002
568750000 -1.198791e+000 -1.647036e+002 -7.358979e+001 8.017730e+000 -6.695654e+001 4.946213e+000 -1.752926e-001 1.323658e+002
569375000 -1.220837e+000 -1.650391e+002 -7.321975e+001 4.419728e+001 -6.647674e+001 -2.983148e+001 -1.665735e-001 1.322156e+002
570000000 -1.227197e+000 -1.654514e+002 -6.955309e+001 -2.603849e+001 -7.089237e+001 -1.994957e+001 -1.684976e-001 1.320272e+002
570625000 -1.230445e+000 -1.657981e+002 -7.165173e+001 1.990475e+001 -6.799362e+001 -1.208637e+001 -1.699843e-001 1.319234e+002
571250000 -1.241068e+000 -1.661897e+002 -7.644073e+001 -5.145118e+000 -6.855688e+001 3.179318e+000 -1.725445e-001 1.318495e+002
571875000 -1.253598e+000 -1.665382e+002 -7.378390e+001 -1.167941e+001 -7.591270e+001 5.631137e+001 -1.575331e-001 1.317484e+002
572500000 -1.263287e+000 -1.669429e+002 -7.666570e+001 -3.850197e+001 -7.094327e+001 -2.082850e+001 -1.608557e-001 1.315273e+002
573125000 -1.275610e+000 -1.672551e+002 -7.074022e+001 3.120103e+001 -6.808311e+001 -2.591843e+001 -1.402415e-001 1.315196e+002
573750000 -1.284774e+000 -1.676011e+002 -6.944037e+001 2.304672e+001 -6.607906e+001 -2.301115e+001 -1.598454e-001 1.314535e+002
574375000 -1.292377e+000 -1.679590e+002 -9.243621e+001 -2.381336e+001 -7.091383e+001 -3.627066e+000 -1.504081e-001 1.313849e+002
575000000 -1.301137e+000 -1.683098e+002 -7.084240e+001 -1.944043e+001 -7.194554e+001 2.501014e+001 -1.505883e-001 1.313644e+002
575625000 -1.309958e+000 -1.686169e+002 -7.251447e+001 -2.829720e-001 -6.809653e+001 -2.070245e+001 -1.519996e-001 1.313120e+002
576250000 -1.309723e+000 -1.689595e+002 -6.834821e+001 6.047388e+001 -6.973587e+001 -7.052554e+000 -1.564167e-001 1.312377e+002
576875000 -1.312412e+000 -1.692906e+002 -7.036562e+001 -2.783243e+001 -6.652643e+001 -3.677311e+000 -1.465645e-001 1.312152e+002
577500000 -1.319489e+000 -1.696178e+002 -6.861772e+001 -4.200337e+001 -7.009210e+001 -4.131219e+001 -1.537195e-001 1.311591e+002
578125000 -1.324969e+000 -1.699749e+002 -6.981116e+001 -1.576242e+001 -6.892511e+001 -3.866684e+001 -1.514934e-001 1.311953e+002
578750000 -1.318996e+000 -1.703194e+002 -7.904124e+001 -4.768579e+001 -6.785625e+001 -5.426543e+001 -1.442292e-001 1.310792e+002
579375000 -1.325949e+000 -1.707012e+002 -7.074466e+001 3.564071e+001 -6.866073e+001 -7.145385e+000 -1.541634e-001 1.310435e+002
580000000 -1.331725e+000 -1.710840e+002 -6.918167e+001 -4.100172e+001 -6.826782e+001 -2.508443e+001 -1.516977e-001 1.310420e+002
580625000 -1.338499e+000 -1.715621e+002 -7.487061e+001 -7.912904e+000 -7.375183e+001 -4.272544e+000 -1.523662e-001 1.310122e+002
581250000 -1.348760e+000 -1.719721e+002 -6.876199e+001 -5.288991e+000 -6.667230e+001 -4.376484e+001 -1.521085e-001 1.308934e+002
581875000 -1.353460e+000 -1.724576e+002 -7.550091e+001 -5.455419e+000 -6.946628e+001 -1.611450e+001 -1.600861e-001 1.308488e+002
582500000 -1.370065e+000 -1.729093e+002 -7.619787e+001 2.313444e+001 -6.479119e+001 -2.727053e+001 -1.640509e-001 1.307280e+002
583125000 -1.376627e+000 -1.734373e+002 -7.065730e+001 -1.717716e+001 -6.624349e+001 -4.097438e+001 -1.732127e-001 1.305923e+002
583750000 -1.394117e+000 -1.739280e+002 -6.964580e+001 -3.949461e+001 -6.693742e+001 -2.113444e+001 -1.683393e-001 1.304554e+002
584375000 -1.404857e+000 -1.744320e+002 -6.733800e+001 -2.684219e+001 -6.630576e+001 -3.011827e+001 -1.618033e-001 1.303626e+002
585000000 -1.417215e+000 -1.749523e+002 -6.856924e+001 2.021144e+001 -6.698341e+001 -5.386077e+001 -1.681342e-001 1.302604e+002
585625000 -1.446155e+000 -1.754843e+002 -7.036385e+001 3.692743e+000 -6.645428e+001 -2.662610e+001 -1.556385e-001 1.302031e+002
586250000 -1.464101e+000 -1.760417e+002 -6.492329e+001 4.687868e+000 -6.341168e+001 -5.030978e+001 -1.561542e-001 1.301806e+002
586875000 -1.475162e+000 -1.765637e+002 -6.776906e+001 1.527302e+000 -6.728973e+001 -4.655559e+001 -1.517812e-001 1.300302e+002
587500000 -1.508151e+000 -1.770620e+002 -7.014027e+001 -2.603667e+001 -6.588378e+001 -2.825436e+001 -1.533099e-001 1.300174e+002
588125000 -1.530497e+000 -1.775705e+002 -7.110093e+001 -4.569153e+001 -6.700169e+001 -4.004041e+001 -1.535621e-001 1.299313e+002
588750000 -1.551986e+000 -1.780601e+002 -6.678972e+001 -4.195900e+001 -6.538732e+001 -6.477163e+001 -1.537448e-001 1.299066e+002
589375000 -1.572121e+000 -1.785450e+002 -6.515599e+001 -3.509926e+001 -6.404077e+001 -4.113087e+001 -1.404563e-001 1.298666e+002
590000000 -1.597730e+000 -1.789718e+002 -6.632278e+001 -4.724400e+001 -6.433139e+001 -3.746516e+001 -1.388761e-001 1.299380e+002
590625000 -1.623493e+000 -1.794333e+002 -6.597932e+001 -4.620239e+001 -6.685588e+001 -5.324154e+001 -1.387768e-001 1.298694e+002
591250000 -1.657993e+000 -1.798425e+002 -6.833525e+001 -4.925355e+001 -6.663602e+001 -4.912514e+001 -1.427336e-001 1.299323e+002
591875000 -1.689288e+000 1.797708e+002 -6.762810e+001 -5.454550e+001 -6.289909e+001 -5.679834e+001 -1.432369e-001 1.299349e+002
592500000 -1.705277e+000 1.793503e+002 -6.610138e+001 -6.011452e+001 -6.532600e+001 -5.872296e+001 -1.392236e-001 1.300181e+002
593125000 -1.727710e+000 1.790147e+002 -6.760157e+001 -2.658357e+001 -6.162665e+001 -4.874969e+001 -1.445106e-001 1.300644e+002
593750000 -1.744583e+000 1.785594e+002 -6.736650e+001 -4.320387e+001 -6.446304e+001 -3.517749e+001 -1.376278e-001 1.300868e+002
594375000 -1.766126e+000 1.781898e+002 -6.501948e+001 -5.255735e+001 -6.390023e+001 -5.575867e+001 -1.355250e-001 1.301499e+002
595000000 -1.780236e+000 1.777382e+002 -6.205548e+001 -7.021486e+001 -6.614879e+001 -5.409689e+001 -1.552034e-001 1.300877e+002
595625000 -1.801517e+000 1.772567e+002 -6.636086e+001 -9.760054e+001 -6.446617e+001 -7.030914e+001 -1.415697e-001 1.301186e+002
