!Agilent Technologies,E8364B,US42250235,A.06.04.32
!Agilent E8364B: A.06.04.32
!Date: Friday, January 15, 2021 14:55:28
!Correction: S11(Full 2 Port(1,2)) S21(Full 2 Port(1,2)) S12(Full 2 Port(1,2)) S22(Full 2 Port(1,2)) 
!S2P File: Measurements: S11, S21, S12, S22:
# Hz S  dB   R 50
500000000 -1.432645e-001 -1.297963e+002 -7.672379e+001 1.791711e+002 -7.320850e+001 -1.253220e+002 -1.438772e-001 1.385554e+002
500625000 -1.429410e-001 -1.300726e+002 -7.730004e+001 8.044067e+001 -7.859649e+001 1.257030e+002 -1.497974e-001 1.385539e+002
501250000 -1.526594e-001 -1.303458e+002 -7.225780e+001 1.684706e+002 -7.151700e+001 1.216321e+002 -1.385926e-001 1.384299e+002
501875000 -1.535439e-001 -1.306803e+002 -7.053328e+001 1.548393e+002 -7.693662e+001 -1.441304e+002 -1.421951e-001 1.384009e+002
502500000 -1.559062e-001 -1.309021e+002 -8.100669e+001 8.175551e+000 -7.191519e+001 1.037265e+002 -1.330237e-001 1.383945e+002
503125000 -1.683489e-001 -1.312584e+002 -7.859296e+001 1.241127e+002 -6.945126e+001 -3.554391e+001 -1.385740e-001 1.382339e+002
503750000 -1.641705e-001 -1.315099e+002 -8.198755e+001 -1.564279e+002 -7.627941e+001 1.193612e+002 -1.441991e-001 1.381591e+002
504375000 -1.690568e-001 -1.318004e+002 -8.327947e+001 -1.728850e+002 -6.971559e+001 1.235151e+002 -1.529505e-001 1.381838e+002
505000000 -1.784437e-001 -1.321182e+002 -6.971899e+001 6.791068e+001 -7.972237e+001 -1.672583e+002 -1.482296e-001 1.381284e+002
505625000 -1.705682e-001 -1.323824e+002 -8.782468e+001 1.898001e+001 -7.218145e+001 6.266942e+001 -1.488118e-001 1.380421e+002
506250000 -1.763144e-001 -1.326827e+002 -8.011240e+001 8.017127e+001 -7.763330e+001 1.039209e+002 -1.569185e-001 1.379581e+002
506875000 -1.754489e-001 -1.329542e+002 -7.033506e+001 1.263015e+002 -7.238275e+001 -1.106017e+002 -1.570650e-001 1.378926e+002
507500000 -1.833014e-001 -1.331745e+002 -7.966809e+001 1.522775e+002 -8.085934e+001 9.368428e+000 -1.502117e-001 1.377501e+002
508125000 -1.863799e-001 -1.335053e+002 -7.177088e+001 6.301665e+001 -8.257983e+001 1.162029e+002 -1.578183e-001 1.376354e+002
508750000 -1.814605e-001 -1.336936e+002 -7.052099e+001 5.152608e+001 -7.316939e+001 -1.084736e+002 -1.591499e-001 1.375360e+002
509375000 -1.967697e-001 -1.340009e+002 -7.293005e+001 1.105784e+002 -7.985120e+001 4.468641e+001 -1.533412e-001 1.374674e+002
510000000 -1.833246e-001 -1.342868e+002 -7.181176e+001 1.101694e+001 -7.494162e+001 1.568633e+002 -1.595732e-001 1.372944e+002
510625000 -1.936260e-001 -1.345145e+002 -7.624434e+001 6.344262e+001 -8.373573e+001 -4.159675e+001 -1.519226e-001 1.372136e+002
511250000 -1.996053e-001 -1.347635e+002 -8.407939e+001 5.422810e+001 -7.859921e+001 -1.465123e+002 -1.664581e-001 1.370462e+002
511875000 -2.005989e-001 -1.350826e+002 -8.015198e+001 1.250054e+001 -7.322747e+001 8.419776e+001 -1.578663e-001 1.369190e+002
512500000 -2.010360e-001 -1.353114e+002 -8.150592e+001 -9.407217e+001 -8.264252e+001 -1.689969e+002 -1.545695e-001 1.367643e+002
513125000 -2.083165e-001 -1.356483e+002 -7.368105e+001 1.175462e+002 -8.149658e+001 -1.365186e+002 -1.519031e-001 1.367469e+002
513750000 -2.161759e-001 -1.358827e+002 -7.591158e+001 -1.301597e+002 -7.068243e+001 1.116678e+002 -1.576675e-001 1.366171e+002
514375000 -2.182467e-001 -1.362421e+002 -8.617799e+001 1.607165e+002 -7.070245e+001 6.167003e+001 -1.441564e-001 1.365193e+002
515000000 -2.239726e-001 -1.365097e+002 -7.786766e+001 1.494244e+002 -6.970528e+001 7.295908e+001 -1.447425e-001 1.364442e+002
515625000 -2.335957e-001 -1.369567e+002 -7.431739e+001 1.664523e+002 -6.987359e+001 1.141271e+002 -1.389409e-001 1.363316e+002
516250000 -2.399815e-001 -1.371404e+002 -7.423114e+001 6.035977e+001 -8.263602e+001 1.716797e+002 -1.442504e-001 1.362713e+002
516875000 -2.560627e-001 -1.374878e+002 -7.288958e+001 8.837009e+001 -8.103220e+001 -1.661953e+002 -1.389150e-001 1.362379e+002
517500000 -2.551617e-001 -1.378642e+002 -7.627852e+001 5.979534e+001 -7.018929e+001 7.135078e+001 -1.458213e-001 1.361911e+002
518125000 -2.539081e-001 -1.382167e+002 -8.122781e+001 1.269826e+002 -8.223630e+001 1.040821e+002 -1.351707e-001 1.361972e+002
518750000 -2.578044e-001 -1.385123e+002 -7.074807e+001 9.440739e+001 -8.081200e+001 6.978231e+001 -1.504261e-001 1.361641e+002
519375000 -2.683920e-001 -1.388003e+002 -6.901072e+001 6.414109e+001 -7.468403e+001 8.213604e+001 -1.393782e-001 1.361130e+002
520000000 -2.693323e-001 -1.391879e+002 -7.499928e+001 4.869408e+001 -8.373354e+001 8.921523e+001 -1.418374e-001 1.360993e+002
520625000 -2.703697e-001 -1.395372e+002 -7.920734e+001 8.896202e+001 -8.373433e+001 1.535653e+002 -1.355707e-001 1.360211e+002
521250000 -2.804135e-001 -1.398265e+002 -7.828705e+001 2.892146e+001 -7.098905e+001 8.284789e+001 -1.358779e-001 1.360262e+002
521875000 -2.794796e-001 -1.402121e+002 -7.820106e+001 1.352462e+002 -8.419370e+001 1.646184e+002 -1.289674e-001 1.360672e+002
522500000 -2.863942e-001 -1.405575e+002 -7.293233e+001 1.013127e+002 -7.630839e+001 -5.627749e+001 -1.413954e-001 1.360214e+002
523125000 -2.948947e-001 -1.408520e+002 -8.263632e+001 -1.801992e+001 -7.179687e+001 1.118500e+002 -1.432077e-001 1.360266e+002
523750000 -2.964066e-001 -1.411579e+002 -7.553730e+001 1.902935e+001 -6.882315e+001 9.074525e+001 -1.433926e-001 1.360066e+002
524375000 -3.137594e-001 -1.415009e+002 -7.716082e+001 1.084832e+002 -6.771520e+001 7.382610e+001 -1.414740e-001 1.359321e+002
525000000 -3.117970e-001 -1.418033e+002 -6.896850e+001 3.987482e+001 -7.076953e+001 6.782902e+001 -1.440570e-001 1.359290e+002
525625000 -3.288774e-001 -1.420261e+002 -7.381984e+001 5.699430e+001 -7.638982e+001 1.227342e+002 -1.495631e-001 1.358024e+002
526250000 -3.209915e-001 -1.423400e+002 -8.044122e+001 1.283930e+002 -7.947739e+001 1.040738e+002 -1.470051e-001 1.358222e+002
526875000 -3.314290e-001 -1.426583e+002 -6.809026e+001 1.136201e+002 -7.313873e+001 8.368318e+001 -1.466826e-001 1.357786e+002
527500000 -3.361036e-001 -1.429191e+002 -7.611579e+001 4.588017e+001 -7.763302e+001 3.720936e+001 -1.412611e-001 1.357064e+002
528125000 -3.562147e-001 -1.432055e+002 -7.269334e+001 7.546037e+001 -8.024178e+001 -1.549423e+002 -1.474857e-001 1.357259e+002
528750000 -3.553794e-001 -1.435332e+002 -6.736906e+001 6.673215e+001 -6.976012e+001 1.219507e+002 -1.414034e-001 1.357291e+002
529375000 -3.639646e-001 -1.438095e+002 -6.887918e+001 8.933291e+001 -7.289451e+001 6.663844e+001 -1.459195e-001 1.356265e+002
530000000 -3.674805e-001 -1.441394e+002 -7.671719e+001 6.959403e+001 -6.903577e+001 6.589357e+001 -1.519296e-001 1.356693e+002
530625000 -3.858198e-001 -1.444477e+002 -7.362930e+001 1.341335e+002 -7.335841e+001 3.811421e+001 -1.487103e-001 1.355531e+002
531250000 -3.886774e-001 -1.447674e+002 -6.639616e+001 7.746981e+001 -7.128080e+001 1.031580e+002 -1.364915e-001 1.354944e+002
531875000 -3.986659e-001 -1.450829e+002 -7.077457e+001 9.603841e+001 -6.781819e+001 9.493696e+001 -1.463543e-001 1.354780e+002
532500000 -3.984762e-001 -1.453727e+002 -6.833301e+001 1.123345e+002 -7.563768e+001 1.061570e+002 -1.498773e-001 1.354155e+002
533125000 -4.077710e-001 -1.457384e+002 -7.270396e+001 7.317585e+001 -7.053632e+001 8.024606e+001 -1.518406e-001 1.353683e+002
533750000 -4.117890e-001 -1.461371e+002 -7.898264e+001 1.119225e+002 -6.842957e+001 6.251385e+001 -1.655646e-001 1.353977e+002
534375000 -4.222079e-001 -1.464633e+002 -7.698810e+001 4.829509e+000 -7.096463e+001 -5.487614e+000 -1.474404e-001 1.352911e+002
535000000 -4.288234e-001 -1.468097e+002 -7.934534e+001 6.476874e+001 -7.446033e+001 2.561082e+001 -1.540914e-001 1.352636e+002
535625000 -4.346223e-001 -1.472197e+002 -7.173296e+001 4.739665e+001 -6.627491e+001 1.920502e+001 -1.495755e-001 1.351896e+002
536250000 -4.414853e-001 -1.475587e+002 -7.233971e+001 4.711989e+001 -7.691093e+001 2.785062e+001 -1.469514e-001 1.350923e+002
536875000 -4.548281e-001 -1.479879e+002 -7.026752e+001 4.864235e+001 -7.111844e+001 5.695337e+001 -1.588843e-001 1.350334e+002
537500000 -4.499992e-001 -1.482948e+002 -7.783503e+001 -2.085145e+001 -6.886625e+001 2.363996e+001 -1.459787e-001 1.350330e+002
538125000 -4.634401e-001 -1.486572e+002 -7.077192e+001 2.972260e+001 -7.439311e+001 5.631643e+001 -1.626844e-001 1.349501e+002
538750000 -4.839044e-001 -1.490199e+002 -8.073616e+001 8.981306e+001 -8.086896e+001 1.575452e+001 -1.501265e-001 1.349194e+002
539375000 -4.965348e-001 -1.493523e+002 -7.187798e+001 6.777087e+001 -7.484917e+001 -1.020435e+001 -1.415285e-001 1.348403e+002
540000000 -5.072395e-001 -1.497041e+002 -7.219375e+001 4.863558e+001 -7.389896e+001 1.018152e+002 -1.475910e-001 1.348054e+002
540625000 -5.115206e-001 -1.500207e+002 -7.108784e+001 6.084971e+001 -7.657195e+001 1.223441e+001 -1.474175e-001 1.347618e+002
541250000 -5.267453e-001 -1.503023e+002 -7.290985e+001 2.894536e+001 -7.523918e+001 3.963763e+001 -1.390131e-001 1.346974e+002
541875000 -5.403693e-001 -1.506214e+002 -7.892037e+001 -8.717902e+001 -6.848273e+001 3.418052e+001 -1.512750e-001 1.346644e+002
542500000 -5.455859e-001 -1.509493e+002 -7.701037e+001 -2.662474e+001 -8.004747e+001 4.968543e+001 -1.369215e-001 1.346748e+002
543125000 -5.442792e-001 -1.513115e+002 -8.340923e+001 -4.822801e+000 -7.559660e+001 -2.504704e+001 -1.390821e-001 1.345757e+002
543750000 -5.497822e-001 -1.515455e+002 -6.768526e+001 1.934762e+001 -8.029816e+001 3.909478e+001 -1.434928e-001 1.346237e+002
544375000 -5.583816e-001 -1.519212e+002 -7.192260e+001 4.574193e+001 -7.331892e+001 7.806696e+001 -1.456160e-001 1.346203e+002
545000000 -5.647005e-001 -1.522783e+002 -7.175732e+001 -4.134383e+001 -7.264297e+001 8.006691e+000 -1.328072e-001 1.346081e+002
545625000 -5.783262e-001 -1.526504e+002 -7.075343e+001 5.927642e+001 -7.013480e+001 6.498156e+001 -1.371347e-001 1.346448e+002
546250000 -5.991346e-001 -1.530280e+002 -7.124447e+001 5.998902e+001 -7.149680e+001 3.514174e+001 -1.440400e-001 1.346117e+002
546875000 -6.154176e-001 -1.534123e+002 -7.000297e+001 2.982286e+001 -7.309318e+001 2.655530e+001 -1.516923e-001 1.346256e+002
547500000 -6.273082e-001 -1.537842e+002 -7.615917e+001 1.069066e+002 -7.954377e+001 9.100122e+001 -1.427033e-001 1.346199e+002
548125000 -6.469982e-001 -1.540652e+002 -7.540722e+001 -1.698416e+001 -7.572649e+001 7.665897e+001 -1.405756e-001 1.345890e+002
548750000 -6.636685e-001 -1.545411e+002 -1.021308e+002 1.069354e+002 -7.806699e+001 -1.298903e+001 -1.518090e-001 1.345391e+002
549375000 -6.801831e-001 -1.548867e+002 -6.926781e+001 -2.227024e+001 -7.178342e+001 4.336155e+001 -1.566843e-001 1.343716e+002
550000000 -6.944888e-001 -1.552339e+002 -7.303470e+001 4.187268e+001 -7.149158e+001 3.226735e+001 -1.616085e-001 1.343963e+002
550625000 -7.064172e-001 -1.555734e+002 -7.490800e+001 -8.556205e+001 -7.470998e+001 3.723690e+001 -1.595974e-001 1.342882e+002
551250000 -7.211906e-001 -1.559666e+002 -7.105650e+001 6.080778e+001 -7.463416e+001 -1.448453e+002 -1.661410e-001 1.341965e+002
551875000 -7.475944e-001 -1.563090e+002 -7.247147e+001 5.976166e+001 -7.042784e+001 1.668513e+001 -1.661706e-001 1.341230e+002
552500000 -7.505983e-001 -1.566772e+002 -7.425795e+001 6.110247e+001 -7.871143e+001 -5.065936e+001 -1.664463e-001 1.339549e+002
553125000 -7.616619e-001 -1.569940e+002 -7.703482e+001 6.499477e+001 -7.394872e+001 6.648515e+001 -1.667952e-001 1.338595e+002
553750000 -7.831416e-001 -1.573965e+002 -8.643195e+001 -4.934232e+001 -7.105168e+001 -3.732625e+001 -1.670620e-001 1.337465e+002
554375000 -7.861950e-001 -1.577179e+002 -7.046838e+001 4.962341e+001 -8.700476e+001 -3.377417e+001 -1.701822e-001 1.336616e+002
555000000 -7.943839e-001 -1.580818e+002 -8.020721e+001 -9.844328e+001 -7.236069e+001 -9.316183e+001 -1.689288e-001 1.335237e+002
555625000 -8.152512e-001 -1.584504e+002 -7.079311e+001 -5.580660e+000 -7.264719e+001 2.594270e+001 -1.627271e-001 1.334996e+002
556250000 -8.245365e-001 -1.587883e+002 -7.619268e+001 5.901620e+001 -7.308177e+001 5.233359e+001 -1.567987e-001 1.333365e+002
556875000 -8.308008e-001 -1.591558e+002 -7.804013e+001 7.165285e+001 -7.616228e+001 5.800088e+000 -1.667116e-001 1.332962e+002
557500000 -8.561655e-001 -1.594649e+002 -7.204301e+001 2.715495e+001 -7.450469e+001 5.907830e+001 -1.621169e-001 1.332074e+002
558125000 -8.696704e-001 -1.597877e+002 -7.806644e+001 -8.822133e+000 -6.864666e+001 4.621159e+001 -1.618104e-001 1.331781e+002
558750000 -8.787101e-001 -1.600961e+002 -7.625008e+001 -1.993612e+000 -7.400854e+001 -8.530525e+001 -1.549462e-001 1.331340e+002
559375000 -8.951178e-001 -1.604622e+002 -7.118895e+001 3.131305e+001 -7.599397e+001 3.109335e+001 -1.528087e-001 1.331541e+002
560000000 -9.163457e-001 -1.607341e+002 -7.253333e+001 9.360996e+000 -7.396877e+001 -2.780570e+001 -1.478130e-001 1.330535e+002
560625000 -9.285454e-001 -1.610734e+002 -6.649096e+001 1.024724e+001 -6.990941e+001 1.713497e+001 -1.459071e-001 1.331114e+002
561250000 -9.370716e-001 -1.614418e+002 -7.418566e+001 6.185212e+001 -7.175459e+001 -8.264963e+000 -1.395433e-001 1.330943e+002
561875000 -9.491495e-001 -1.618612e+002 -8.244733e+001 6.517764e+001 -7.611725e+001 3.603485e+000 -1.552472e-001 1.330719e+002
562500000 -9.707047e-001 -1.621959e+002 -7.220808e+001 1.211115e+001 -8.170719e+001 7.331884e+001 -1.510331e-001 1.331416e+002
563125000 -9.804038e-001 -1.625187e+002 -7.105447e+001 -1.703028e+001 -7.738737e+001 -1.538114e+001 -1.445552e-001 1.330290e+002
563750000 -1.012470e+000 -1.629489e+002 -7.407543e+001 -8.331030e+000 -7.242782e+001 2.086394e+001 -1.607077e-001 1.330530e+002
564375000 -1.032877e+000 -1.633251e+002 -7.164120e+001 -3.452686e+001 -7.417912e+001 -8.501460e+001 -1.628845e-001 1.330264e+002
565000000 -1.054448e+000 -1.637902e+002 -6.888518e+001 2.637530e+001 -7.242967e+001 2.074937e+001 -1.609581e-001 1.329716e+002
565625000 -1.081944e+000 -1.641767e+002 -8.139661e+001 2.403753e+001 -7.070565e+001 -1.718318e+000 -1.782807e-001 1.329070e+002
566250000 -1.107250e+000 -1.646384e+002 -8.297298e+001 4.237615e+001 -7.227592e+001 2.090442e+000 -1.731678e-001 1.328120e+002
566875000 -1.140381e+000 -1.649923e+002 -6.745621e+001 -3.068708e+001 -7.205949e+001 -1.944585e+001 -1.733474e-001 1.325999e+002
567500000 -1.174740e+000 -1.654235e+002 -6.947305e+001 -1.793325e+001 -6.732142e+001 -3.292923e+001 -1.740530e-001 1.324921e+002
568125000 -1.209372e+000 -1.658016e+002 -6.887486e+001 -2.966286e+001 -7.122174e+001 -1.531626e+001 -1.802738e-001 1.323604e+002
568750000 -1.228399e+000 -1.661299e+002 -7.200526e+001 9.112707e-001 -7.601362e+001 -5.353893e+001 -1.818604e-001 1.322072e+002
569375000 -1.262854e+000 -1.665283e+002 -6.792142e+001 2.014721e+001 -7.389441e+001 -1.108997e+002 -1.802129e-001 1.321056e+002
570000000 -1.287598e+000 -1.668807e+002 -6.894471e+001 1.110100e+001 -6.734512e+001 6.664265e+000 -1.734921e-001 1.318453e+002
570625000 -1.299934e+000 -1.672050e+002 -7.022154e+001 -1.518160e+001 -7.369909e+001 5.273831e+001 -1.731610e-001 1.317913e+002
571250000 -1.315956e+000 -1.675872e+002 -6.667001e+001 -7.320445e+000 -6.644818e+001 -2.076598e+001 -1.778954e-001 1.317135e+002
571875000 -1.342891e+000 -1.679306e+002 -6.786260e+001 -3.731865e+000 -7.906282e+001 -2.899842e+001 -1.654324e-001 1.315388e+002
572500000 -1.366778e+000 -1.682918e+002 -7.289195e+001 -3.163312e+001 -6.734375e+001 -3.638712e+001 -1.674276e-001 1.313982e+002
573125000 -1.390153e+000 -1.686136e+002 -8.146199e+001 2.228775e+001 -7.042823e+001 -3.486397e+001 -1.599603e-001 1.313488e+002
573750000 -1.408563e+000 -1.689094e+002 -7.204478e+001 -6.276068e+001 -8.966972e+001 -3.363368e+001 -1.711547e-001 1.312381e+002
574375000 -1.422274e+000 -1.692026e+002 -7.347342e+001 -6.644761e+001 -6.801880e+001 -1.115844e+001 -1.661761e-001 1.312885e+002
575000000 -1.439996e+000 -1.695428e+002 -7.094383e+001 -7.011753e+001 -7.183562e+001 -4.577692e+001 -1.595374e-001 1.311855e+002
575625000 -1.452981e+000 -1.698426e+002 -7.417787e+001 -2.814091e+001 -6.943996e+001 -2.851275e+001 -1.623863e-001 1.311343e+002
576250000 -1.473889e+000 -1.701454e+002 -7.070108e+001 -2.181224e+001 -7.074165e+001 -5.639084e+001 -1.630001e-001 1.310866e+002
576875000 -1.479094e+000 -1.704543e+002 -6.983541e+001 -4.410719e+001 -7.031628e+001 -8.622741e+001 -1.587483e-001 1.311416e+002
577500000 -1.500263e+000 -1.707767e+002 -7.153239e+001 3.010722e+000 -7.245215e+001 -7.732909e+001 -1.606149e-001 1.310309e+002
578125000 -1.525556e+000 -1.711107e+002 -7.602702e+001 5.520742e+001 -6.936580e+001 -7.816602e+001 -1.617437e-001 1.310477e+002
578750000 -1.534488e+000 -1.714503e+002 -7.948126e+001 -5.513681e+001 -6.879640e+001 -7.120839e+001 -1.567807e-001 1.309572e+002
579375000 -1.557151e+000 -1.717660e+002 -6.710452e+001 -6.817824e+001 -6.997829e+001 -7.405072e+001 -1.643834e-001 1.309347e+002
580000000 -1.573715e+000 -1.720669e+002 -7.060506e+001 -1.123242e+001 -7.138042e+001 -5.572739e+001 -1.650378e-001 1.309268e+002
580625000 -1.601699e+000 -1.723793e+002 -6.977201e+001 -5.228873e+001 -7.130540e+001 -3.643588e+001 -1.612813e-001 1.308348e+002
581250000 -1.617653e+000 -1.726936e+002 -6.863948e+001 -7.060922e+001 -7.945353e+001 -8.856247e+001 -1.625226e-001 1.307208e+002
581875000 -1.630682e+000 -1.730165e+002 -6.989133e+001 -5.136517e+001 -7.225962e+001 -2.952078e+001 -1.722689e-001 1.306997e+002
582500000 -1.648590e+000 -1.733503e+002 -7.456990e+001 -6.289057e+001 -8.093040e+001 -1.071682e+001 -1.711918e-001 1.305418e+002
583125000 -1.649502e+000 -1.738586e+002 -6.789538e+001 -6.317054e+001 -7.210389e+001 -6.127219e+000 -1.846819e-001 1.304167e+002
583750000 -1.673996e+000 -1.742496e+002 -6.868585e+001 -4.452973e+001 -7.178228e+001 -2.597171e+001 -1.864329e-001 1.303472e+002
584375000 -1.686958e+000 -1.747321e+002 -7.401108e+001 6.755724e+000 -6.734202e+001 -2.018989e+001 -1.665628e-001 1.302401e+002
585000000 -1.702983e+000 -1.751648e+002 -7.665041e+001 -3.083646e+001 -6.867632e+001 -2.259122e+001 -1.714193e-001 1.301493e+002
585625000 -1.739330e+000 -1.755672e+002 -6.915714e+001 -7.153118e+001 -6.895864e+001 -3.856099e+001 -1.607112e-001 1.299695e+002
586250000 -1.749623e+000 -1.759681e+002 -7.337965e+001 -7.682312e+001 -6.947941e+001 -6.030446e+001 -1.649441e-001 1.300211e+002
586875000 -1.770149e+000 -1.764852e+002 -7.216817e+001 -1.258336e+002 -7.021484e+001 -6.491248e+001 -1.705961e-001 1.299112e+002
587500000 -1.793698e+000 -1.769252e+002 -6.918119e+001 -4.040081e+001 -6.916748e+001 -4.929735e+001 -1.627057e-001 1.298112e+002
588125000 -1.810534e+000 -1.773117e+002 -7.538845e+001 -2.950253e+001 -6.892243e+001 -5.539861e+001 -1.574970e-001 1.298523e+002
588750000 -1.840700e+000 -1.777679e+002 -6.906146e+001 -2.664846e+001 -7.321134e+001 -6.845723e+001 -1.619990e-001 1.298537e+002
589375000 -1.857030e+000 -1.781720e+002 -7.241167e+001 -3.331991e+001 -8.171168e+001 -1.530323e+002 -1.491585e-001 1.297331e+002
590000000 -1.891503e+000 -1.786168e+002 -6.862894e+001 -9.579164e+001 -7.600435e+001 -1.448392e+002 -1.539352e-001 1.297471e+002
590625000 -1.918729e+000 -1.789449e+002 -6.625988e+001 -2.705005e+001 -6.908578e+001 -3.690002e+001 -1.504935e-001 1.297413e+002
591250000 -1.940620e+000 -1.793143e+002 -6.842575e+001 -5.934098e+001 -6.670118e+001 -4.991065e+001 -1.511287e-001 1.297721e+002
591875000 -1.973559e+000 -1.795815e+002 -6.602086e+001 -7.976924e+001 -7.337807e+001 -6.850990e+001 -1.493524e-001 1.297665e+002
592500000 -1.995788e+000 -1.799138e+002 -6.887033e+001 -9.294631e+001 -7.307363e+001 -5.400455e+001 -1.466445e-001 1.298291e+002
593125000 -2.016360e+000 1.798058e+002 -7.164536e+001 -8.766926e+001 -7.012695e+001 -7.703519e+001 -1.510564e-001 1.298538e+002
593750000 -2.031519e+000 1.794273e+002 -6.788923e+001 -7.774490e+001 -7.382379e+001 -1.129447e+002 -1.402962e-001 1.299734e+002
594375000 -2.047892e+000 1.791499e+002 -6.694358e+001 -6.615237e+001 -6.525163e+001 -6.969047e+001 -1.396761e-001 1.299953e+002
595000000 -2.063058e+000 1.787508e+002 -6.972891e+001 -5.089755e+001 -6.597437e+001 -9.239429e+001 -1.596914e-001 1.299625e+002
595625000 -2.078317e+000 1.783486e+002 -7.116036e+001 -5.179180e+001 -6.833369e+001 -7.228441e+001 -1.494538e-001 1.299825e+002
