!Agilent Technologies,E8364B,US42250235,A.06.04.32
!Agilent E8364B: A.06.04.32
!Date: Thursday, October 01, 2020 14:00:29
!Correction: S11(Full 2 Port(1,2)) S21(Full 2 Port(1,2)) S12(Full 2 Port(1,2)) S22(Full 2 Port(1,2)) 
!S2P File: Measurements: S11, S21, S12, S22:
# Hz S  dB   R 50
500000000 -1.813170e-001 -1.750218e+002 -5.430631e+001 1.274520e+002 -5.404509e+001 1.249744e+002 -4.414677e-002 1.392328e+002
500377500.94375 -1.825217e-001 -1.752107e+002 -5.394999e+001 1.268653e+002 -5.422265e+001 1.244721e+002 -3.743665e-002 1.392013e+002
500755001.8875 -1.832349e-001 -1.753792e+002 -5.387944e+001 1.265540e+002 -5.437939e+001 1.246322e+002 -3.950135e-002 1.391630e+002
501132502.83126 -1.824039e-001 -1.756462e+002 -5.362006e+001 1.253283e+002 -5.408002e+001 1.234633e+002 -3.782955e-002 1.391411e+002
501510003.77501 -1.856575e-001 -1.758106e+002 -5.429129e+001 1.259122e+002 -5.417477e+001 1.218895e+002 -4.282326e-002 1.390965e+002
501887504.71876 -1.835063e-001 -1.760286e+002 -5.363471e+001 1.251989e+002 -5.426086e+001 1.226210e+002 -3.765283e-002 1.390321e+002
502265005.66251 -1.915278e-001 -1.762345e+002 -5.358435e+001 1.240351e+002 -5.407859e+001 1.222797e+002 -3.454376e-002 1.390095e+002
502642506.60627 -1.852657e-001 -1.764449e+002 -5.413036e+001 1.261837e+002 -5.369809e+001 1.222631e+002 -3.734922e-002 1.390198e+002
503020007.55002 -1.866379e-001 -1.766535e+002 -5.357408e+001 1.245543e+002 -5.405198e+001 1.239128e+002 -3.802226e-002 1.389262e+002
503397508.49377 -1.949561e-001 -1.768515e+002 -5.347998e+001 1.244929e+002 -5.389517e+001 1.195107e+002 -3.506001e-002 1.389132e+002
503775009.43752 -1.927363e-001 -1.770477e+002 -5.354937e+001 1.235007e+002 -5.391871e+001 1.210095e+002 -3.606519e-002 1.388721e+002
504152510.38128 -1.921781e-001 -1.772959e+002 -5.332753e+001 1.237607e+002 -5.366988e+001 1.218919e+002 -3.700995e-002 1.388080e+002
504530011.32503 -1.954737e-001 -1.774860e+002 -5.338256e+001 1.226773e+002 -5.387247e+001 1.214412e+002 -3.459725e-002 1.387955e+002
504907512.26878 -1.964996e-001 -1.776913e+002 -5.358348e+001 1.237237e+002 -5.387212e+001 1.210955e+002 -3.511042e-002 1.387530e+002
505285013.21253 -1.937624e-001 -1.778899e+002 -5.308952e+001 1.196621e+002 -5.363699e+001 1.203305e+002 -3.557496e-002 1.386868e+002
505662514.15629 -1.979313e-001 -1.780729e+002 -5.342652e+001 1.209889e+002 -5.360601e+001 1.197567e+002 -3.568956e-002 1.386621e+002
506040015.10004 -1.973629e-001 -1.783663e+002 -5.300240e+001 1.215272e+002 -5.369920e+001 1.194793e+002 -3.433138e-002 1.385980e+002
506417516.04379 -1.993776e-001 -1.785580e+002 -5.304667e+001 1.219330e+002 -5.342504e+001 1.181841e+002 -3.435089e-002 1.385663e+002
506795016.98754 -2.038655e-001 -1.787177e+002 -5.314962e+001 1.203740e+002 -5.339790e+001 1.204087e+002 -3.684910e-002 1.385193e+002
507172517.93129 -2.014927e-001 -1.789413e+002 -5.313688e+001 1.215763e+002 -5.323151e+001 1.179495e+002 -3.743729e-002 1.384755e+002
507550018.87505 -2.077453e-001 -1.791602e+002 -5.308257e+001 1.196560e+002 -5.327407e+001 1.187153e+002 -3.488559e-002 1.384250e+002
507927519.8188 -2.075740e-001 -1.793566e+002 -5.310112e+001 1.185076e+002 -5.331214e+001 1.177127e+002 -3.188197e-002 1.383643e+002
508305020.76255 -2.090295e-001 -1.795806e+002 -5.310963e+001 1.180113e+002 -5.316279e+001 1.184129e+002 -3.418422e-002 1.383168e+002
508682521.7063 -2.062614e-001 -1.797239e+002 -5.286649e+001 1.185750e+002 -5.299162e+001 1.174983e+002 -3.311504e-002 1.383224e+002
509060022.65006 -2.108036e-001 -1.799980e+002 -5.297668e+001 1.166689e+002 -5.278641e+001 1.172599e+002 -3.450494e-002 1.382157e+002
509437523.59381 -2.106435e-001 1.797912e+002 -5.282507e+001 1.178981e+002 -5.306544e+001 1.160497e+002 -3.476720e-002 1.381597e+002
509815024.53756 -2.129755e-001 1.795790e+002 -5.255806e+001 1.156897e+002 -5.292421e+001 1.157614e+002 -3.494178e-002 1.381199e+002
510192525.48131 -2.154482e-001 1.793448e+002 -5.256491e+001 1.172237e+002 -5.305158e+001 1.142261e+002 -3.662850e-002 1.380764e+002
510570026.42507 -2.191897e-001 1.791381e+002 -5.281910e+001 1.167255e+002 -5.276256e+001 1.164889e+002 -3.604357e-002 1.380389e+002
510947527.36882 -2.155761e-001 1.789075e+002 -5.272150e+001 1.168643e+002 -5.268387e+001 1.154268e+002 -3.904844e-002 1.379510e+002
511325028.31257 -2.217253e-001 1.787105e+002 -5.247129e+001 1.159836e+002 -5.247652e+001 1.159824e+002 -3.538423e-002 1.379178e+002
511702529.25632 -2.220337e-001 1.785045e+002 -5.264959e+001 1.166094e+002 -5.252723e+001 1.144902e+002 -3.787541e-002 1.378696e+002
512080030.20008 -2.224877e-001 1.782888e+002 -5.226286e+001 1.158952e+002 -5.277658e+001 1.140557e+002 -3.551012e-002 1.378324e+002
512457531.14383 -2.244256e-001 1.780363e+002 -5.226634e+001 1.155445e+002 -5.229339e+001 1.117615e+002 -3.787653e-002 1.378047e+002
512835032.08758 -2.239507e-001 1.778589e+002 -5.245179e+001 1.171802e+002 -5.218013e+001 1.138293e+002 -3.685228e-002 1.377171e+002
513212533.03133 -2.263709e-001 1.776075e+002 -5.231577e+001 1.157448e+002 -5.210169e+001 1.126204e+002 -3.586721e-002 1.376903e+002
513590033.97508 -2.306840e-001 1.774757e+002 -5.220596e+001 1.154890e+002 -5.205538e+001 1.135753e+002 -4.593804e-002 1.376321e+002
513967534.91884 -2.311932e-001 1.772115e+002 -5.221939e+001 1.162818e+002 -5.202211e+001 1.132131e+002 -4.629643e-002 1.375780e+002
514345035.86259 -2.314518e-001 1.769754e+002 -5.228550e+001 1.138711e+002 -5.173444e+001 1.125927e+002 -4.430499e-002 1.375726e+002
514722536.80634 -2.338674e-001 1.767674e+002 -5.182628e+001 1.143374e+002 -5.182217e+001 1.141683e+002 -4.680170e-002 1.375382e+002
515100037.75009 -2.361770e-001 1.765569e+002 -5.193890e+001 1.143448e+002 -5.175389e+001 1.124860e+002 -4.503263e-002 1.374977e+002
515477538.69385 -2.368780e-001 1.763714e+002 -5.184815e+001 1.147012e+002 -5.183754e+001 1.116234e+002 -4.479432e-002 1.374744e+002
515855039.6376 -2.388565e-001 1.761422e+002 -5.192681e+001 1.141202e+002 -5.185952e+001 1.114495e+002 -4.343794e-002 1.374477e+002
516232540.58135 -2.393593e-001 1.758534e+002 -5.176476e+001 1.113400e+002 -5.188535e+001 1.105311e+002 -4.282884e-002 1.374077e+002
516610041.5251 -2.435438e-001 1.757012e+002 -5.173286e+001 1.121245e+002 -5.197978e+001 1.099876e+002 -4.337389e-002 1.374237e+002
516987542.46886 -2.493580e-001 1.754365e+002 -5.170908e+001 1.118835e+002 -5.166661e+001 1.094142e+002 -4.052647e-002 1.373806e+002
517365043.41261 -2.512951e-001 1.752242e+002 -5.167610e+001 1.124913e+002 -5.166966e+001 1.090119e+002 -4.428823e-002 1.373669e+002
517742544.35636 -2.490231e-001 1.749417e+002 -5.138419e+001 1.121099e+002 -5.150346e+001 1.102766e+002 -4.235604e-002 1.373731e+002
518120045.30011 -2.519808e-001 1.747365e+002 -5.136497e+001 1.117855e+002 -5.161454e+001 1.096160e+002 -4.161663e-002 1.373471e+002
518497546.24387 -2.546218e-001 1.744871e+002 -5.125436e+001 1.110537e+002 -5.161353e+001 1.091487e+002 -4.193033e-002 1.373376e+002
518875047.18762 -2.539131e-001 1.742874e+002 -5.127803e+001 1.112524e+002 -5.148519e+001 1.084485e+002 -4.452215e-002 1.373303e+002
519252548.13137 -2.570592e-001 1.740175e+002 -5.104549e+001 1.109753e+002 -5.153090e+001 1.092406e+002 -4.171342e-002 1.373133e+002
519630049.07512 -2.579429e-001 1.738610e+002 -5.139766e+001 1.089251e+002 -5.170980e+001 1.085904e+002 -4.664945e-002 1.372639e+002
520007550.01888 -2.633726e-001 1.736248e+002 -5.099522e+001 1.092416e+002 -5.102593e+001 1.080997e+002 -4.243834e-002 1.372500e+002
520385050.96263 -2.656003e-001 1.733857e+002 -5.112128e+001 1.079280e+002 -5.156701e+001 1.080663e+002 -4.658516e-002 1.372471e+002
520762551.90638 -2.675996e-001 1.731277e+002 -5.084369e+001 1.083034e+002 -5.122924e+001 1.064697e+002 -4.222983e-002 1.372471e+002
521140052.85013 -2.647984e-001 1.728379e+002 -5.083280e+001 1.077958e+002 -5.124843e+001 1.070102e+002 -4.294305e-002 1.371997e+002
521517553.79388 -2.712007e-001 1.726415e+002 -5.065792e+001 1.056555e+002 -5.101069e+001 1.060834e+002 -4.533193e-002 1.371670e+002
521895054.73764 -2.726332e-001 1.723869e+002 -5.080183e+001 1.060858e+002 -5.117522e+001 1.068311e+002 -4.390405e-002 1.371706e+002
522272555.68139 -2.782542e-001 1.721915e+002 -5.057328e+001 1.073102e+002 -5.080632e+001 1.058650e+002 -4.212561e-002 1.371295e+002
522650056.62514 -2.796931e-001 1.719249e+002 -5.091022e+001 1.051940e+002 -5.098939e+001 1.079440e+002 -4.776715e-002 1.371320e+002
523027557.56889 -2.820573e-001 1.716357e+002 -5.049367e+001 1.055817e+002 -5.077334e+001 1.066996e+002 -4.944675e-002 1.370864e+002
523405058.51265 -2.843073e-001 1.714541e+002 -5.074441e+001 1.059149e+002 -5.065340e+001 1.071002e+002 -5.234902e-002 1.370889e+002
523782559.4564 -2.910124e-001 1.712099e+002 -5.062849e+001 1.038882e+002 -5.074243e+001 1.062631e+002 -5.608419e-002 1.370280e+002
524160060.40015 -2.910573e-001 1.709428e+002 -5.041911e+001 1.040833e+002 -5.052636e+001 1.044815e+002 -5.880126e-002 1.370119e+002
524537561.3439 -2.952615e-001 1.707499e+002 -5.017151e+001 1.029574e+002 -5.050207e+001 1.052854e+002 -5.025117e-002 1.369711e+002
524915062.28766 -2.974415e-001 1.704873e+002 -5.038423e+001 1.023221e+002 -5.043335e+001 1.061620e+002 -5.620580e-002 1.369020e+002
525292563.23141 -2.984019e-001 1.703167e+002 -5.043496e+001 1.022893e+002 -5.037119e+001 1.035900e+002 -6.308558e-002 1.368629e+002
525670064.17516 -3.016622e-001 1.700406e+002 -5.041058e+001 1.035291e+002 -5.054788e+001 1.039363e+002 -6.111656e-002 1.368003e+002
526047565.11891 -3.051236e-001 1.698120e+002 -5.015979e+001 1.015418e+002 -5.048210e+001 1.035777e+002 -5.972184e-002 1.367627e+002
526425066.06267 -3.055518e-001 1.695376e+002 -5.012790e+001 1.021265e+002 -5.012281e+001 1.032725e+002 -6.090925e-002 1.367089e+002
526802567.00642 -3.105223e-001 1.693013e+002 -5.032862e+001 1.015081e+002 -4.981020e+001 1.020918e+002 -6.055923e-002 1.366757e+002
527180067.95017 -3.125229e-001 1.690418e+002 -4.995670e+001 1.009345e+002 -4.991877e+001 1.028664e+002 -6.600557e-002 1.365908e+002
527557568.89392 -3.142514e-001 1.688062e+002 -5.008908e+001 1.010734e+002 -5.002945e+001 1.027763e+002 -6.766085e-002 1.364796e+002
527935069.83767 -3.190642e-001 1.685751e+002 -4.978154e+001 1.021595e+002 -4.999587e+001 1.017790e+002 -6.611824e-002 1.364649e+002
528312570.78143 -3.179702e-001 1.683351e+002 -5.028079e+001 1.020056e+002 -4.987979e+001 1.018759e+002 -6.741244e-002 1.364013e+002
528690071.72518 -3.265019e-001 1.681271e+002 -4.998153e+001 1.017043e+002 -4.987152e+001 1.014413e+002 -6.860688e-002 1.363397e+002
529067572.66893 -3.258581e-001 1.678343e+002 -5.012111e+001 1.002570e+002 -4.977199e+001 1.006128e+002 -6.625270e-002 1.362817e+002
529445073.61268 -3.325849e-001 1.675912e+002 -4.989213e+001 1.006083e+002 -4.958764e+001 1.006907e+002 -6.508266e-002 1.362007e+002
529822574.55644 -3.352596e-001 1.673333e+002 -4.977844e+001 1.002011e+002 -4.959605e+001 1.008580e+002 -6.816152e-002 1.361559e+002
530200075.50019 -3.375374e-001 1.671617e+002 -4.974798e+001 1.001543e+002 -4.956532e+001 9.971110e+001 -6.968465e-002 1.360692e+002
530577576.44394 -3.378331e-001 1.668181e+002 -4.969436e+001 9.920045e+001 -4.957089e+001 1.007089e+002 -7.027691e-002 1.360178e+002
530955077.38769 -3.463771e-001 1.666400e+002 -4.964996e+001 9.913961e+001 -4.964534e+001 9.936623e+001 -6.689147e-002 1.358960e+002
531332578.33145 -3.503359e-001 1.664101e+002 -4.942557e+001 1.001074e+002 -4.921548e+001 1.004248e+002 -7.376295e-002 1.359000e+002
531710079.2752 -3.545235e-001 1.661333e+002 -4.935203e+001 9.870616e+001 -4.929989e+001 9.783070e+001 -6.813756e-002 1.358038e+002
532087580.21895 -3.552472e-001 1.658710e+002 -4.916885e+001 9.889183e+001 -4.905265e+001 9.874796e+001 -6.885793e-002 1.357663e+002
532465081.1627 -3.641810e-001 1.656257e+002 -4.909243e+001 9.864797e+001 -4.903482e+001 9.841175e+001 -7.091556e-002 1.357201e+002
532842582.10646 -3.642783e-001 1.654030e+002 -4.906589e+001 9.803932e+001 -4.923372e+001 9.794548e+001 -6.786325e-002 1.356455e+002
533220083.05021 -3.717011e-001 1.650958e+002 -4.895058e+001 9.841635e+001 -4.897670e+001 9.711566e+001 -7.018635e-002 1.356129e+002
533597583.99396 -3.722594e-001 1.648592e+002 -4.869373e+001 9.762996e+001 -4.877784e+001 9.700635e+001 -7.005887e-002 1.355191e+002
533975084.93771 -3.843646e-001 1.646483e+002 -4.879832e+001 9.734673e+001 -4.880618e+001 9.667342e+001 -7.143652e-002 1.355045e+002
534352585.88146 -3.816550e-001 1.642983e+002 -4.897698e+001 9.653027e+001 -4.861385e+001 9.639317e+001 -6.697068e-002 1.354538e+002
534730086.82522 -3.846026e-001 1.640246e+002 -4.873568e+001 9.668953e+001 -4.865361e+001 9.499663e+001 -6.355399e-002 1.354139e+002
535107587.76897 -3.879121e-001 1.638383e+002 -4.878128e+001 9.621412e+001 -4.835751e+001 9.652493e+001 -6.672689e-002 1.353845e+002
535485088.71272 -3.959214e-001 1.635823e+002 -4.865476e+001 9.520351e+001 -4.841057e+001 9.512753e+001 -6.195201e-002 1.353176e+002
535862589.65647 -4.026878e-001 1.633115e+002 -4.846248e+001 9.708561e+001 -4.826591e+001 9.510147e+001 -6.542206e-002 1.352776e+002
536240090.60023 -4.044980e-001 1.630224e+002 -4.818935e+001 9.478318e+001 -4.843315e+001 9.468579e+001 -6.481148e-002 1.352498e+002
536617591.54398 -4.060731e-001 1.627987e+002 -4.832402e+001 9.411377e+001 -4.826265e+001 9.406005e+001 -6.229464e-002 1.352207e+002
536995092.48773 -4.120597e-001 1.625382e+002 -4.822573e+001 9.428557e+001 -4.802911e+001 9.323546e+001 -6.290399e-002 1.351890e+002
537372593.43148 -4.198645e-001 1.622860e+002 -4.810550e+001 9.397031e+001 -4.802969e+001 9.196665e+001 -6.063694e-002 1.351670e+002
537750094.37524 -4.208782e-001 1.619757e+002 -4.805786e+001 9.344460e+001 -4.797776e+001 9.263491e+001 -5.642762e-002 1.351272e+002
538127595.31899 -4.332192e-001 1.617502e+002 -4.772570e+001 9.269545e+001 -4.794201e+001 9.186977e+001 -6.007506e-002 1.350855e+002
538505096.26274 -4.373221e-001 1.614472e+002 -4.789203e+001 9.280258e+001 -4.785936e+001 9.129813e+001 -6.009344e-002 1.350716e+002
538882597.20649 -4.444546e-001 1.612169e+002 -4.777010e+001 9.169846e+001 -4.774085e+001 9.187005e+001 -5.846987e-002 1.350478e+002
539260098.15025 -4.517081e-001 1.609835e+002 -4.779543e+001 9.185283e+001 -4.751447e+001 9.027431e+001 -5.613801e-002 1.350051e+002
539637599.094 -4.549190e-001 1.607318e+002 -4.761503e+001 9.206335e+001 -4.760764e+001 9.041699e+001 -5.654919e-002 1.349821e+002
540015100.03775 -4.552673e-001 1.604971e+002 -4.755222e+001 9.114702e+001 -4.758743e+001 8.935281e+001 -5.699053e-002 1.350111e+002
540392600.9815 -4.654621e-001 1.601489e+002 -4.734972e+001 9.097989e+001 -4.754398e+001 8.888813e+001 -5.868467e-002 1.349228e+002
540770101.92525 -4.699742e-001 1.598970e+002 -4.740569e+001 9.053009e+001 -4.745579e+001 8.794136e+001 -5.730554e-002 1.349092e+002
541147602.86901 -4.746803e-001 1.596971e+002 -4.710794e+001 8.971374e+001 -4.730990e+001 8.722549e+001 -5.915196e-002 1.348898e+002
541525103.81276 -4.785349e-001 1.593510e+002 -4.723580e+001 9.014016e+001 -4.739989e+001 8.631572e+001 -5.790642e-002 1.348564e+002
541902604.75651 -4.878578e-001 1.591077e+002 -4.699126e+001 8.888557e+001 -4.731636e+001 8.754838e+001 -5.814932e-002 1.348323e+002
542280105.70026 -4.902406e-001 1.588083e+002 -4.720378e+001 8.889091e+001 -4.716432e+001 8.732264e+001 -5.655400e-002 1.348053e+002
542657606.64402 -5.000960e-001 1.586104e+002 -4.694321e+001 8.791589e+001 -4.707178e+001 8.673018e+001 -5.791777e-002 1.347947e+002
543035107.58777 -5.053589e-001 1.583208e+002 -4.686017e+001 8.696597e+001 -4.715076e+001 8.599865e+001 -5.774115e-002 1.347477e+002
543412608.53152 -5.143234e-001 1.580802e+002 -4.675329e+001 8.709100e+001 -4.694373e+001 8.541153e+001 -5.992203e-002 1.347286e+002
543790109.47527 -5.202680e-001 1.577952e+002 -4.662758e+001 8.729441e+001 -4.692125e+001 8.534182e+001 -5.990811e-002 1.346912e+002
544167610.41903 -5.280473e-001 1.574775e+002 -4.662543e+001 8.676627e+001 -4.682058e+001 8.513811e+001 -5.995176e-002 1.346739e+002
544545111.36278 -5.354033e-001 1.572409e+002 -4.639893e+001 8.532600e+001 -4.676072e+001 8.446217e+001 -5.953641e-002 1.346329e+002
544922612.30653 -5.385535e-001 1.569286e+002 -4.639464e+001 8.488265e+001 -4.665287e+001 8.386960e+001 -5.914911e-002 1.346131e+002
545300113.25028 -5.480653e-001 1.567496e+002 -4.626269e+001 8.518544e+001 -4.677737e+001 8.355833e+001 -6.039807e-002 1.346029e+002
545677614.19404 -5.556962e-001 1.564525e+002 -4.616421e+001 8.414146e+001 -4.650157e+001 8.271980e+001 -6.310456e-002 1.345522e+002
546055115.13779 -5.631628e-001 1.561596e+002 -4.612391e+001 8.379878e+001 -4.645692e+001 8.281520e+001 -6.600512e-002 1.345028e+002
546432616.08154 -5.677745e-001 1.558513e+002 -4.608334e+001 8.310446e+001 -4.628471e+001 8.183170e+001 -6.501933e-002 1.344625e+002
546810117.02529 -5.749154e-001 1.556186e+002 -4.589378e+001 8.212898e+001 -4.620117e+001 8.239230e+001 -6.661372e-002 1.344303e+002
547187617.96904 -5.848468e-001 1.552991e+002 -4.582411e+001 8.105811e+001 -4.618482e+001 8.110274e+001 -6.577709e-002 1.344061e+002
547565118.9128 -5.924569e-001 1.550521e+002 -4.588437e+001 8.079926e+001 -4.621620e+001 8.204633e+001 -7.070231e-002 1.343611e+002
547942619.85655 -6.018640e-001 1.548081e+002 -4.567069e+001 7.998392e+001 -4.607228e+001 8.047982e+001 -7.087111e-002 1.343047e+002
548320120.8003 -6.102024e-001 1.545299e+002 -4.557084e+001 7.991019e+001 -4.606456e+001 8.099886e+001 -7.325343e-002 1.342705e+002
548697621.74405 -6.185229e-001 1.541785e+002 -4.551791e+001 7.875350e+001 -4.597592e+001 7.947587e+001 -7.459071e-002 1.342230e+002
549075122.68781 -6.302520e-001 1.539422e+002 -4.553604e+001 7.873567e+001 -4.585044e+001 8.004482e+001 -7.483108e-002 1.342151e+002
549452623.63156 -6.402041e-001 1.535992e+002 -4.540480e+001 7.686795e+001 -4.566975e+001 7.926309e+001 -7.979018e-002 1.341463e+002
549830124.57531 -6.536857e-001 1.533296e+002 -4.535554e+001 7.783922e+001 -4.566612e+001 7.837188e+001 -7.768151e-002 1.340523e+002
550207625.51906 -6.585926e-001 1.530550e+002 -4.523298e+001 7.689486e+001 -4.557096e+001 7.781695e+001 -7.921867e-002 1.340488e+002
550585126.46282 -6.712734e-001 1.528313e+002 -4.536843e+001 7.568015e+001 -4.543526e+001 7.721529e+001 -7.978490e-002 1.339959e+002
550962627.40657 -6.798590e-001 1.525090e+002 -4.521828e+001 7.556097e+001 -4.536305e+001 7.714104e+001 -8.133855e-002 1.339155e+002
551340128.35032 -6.882461e-001 1.522393e+002 -4.505400e+001 7.511514e+001 -4.526944e+001 7.617754e+001 -8.439176e-002 1.338841e+002
551717629.29407 -7.024422e-001 1.519660e+002 -4.501757e+001 7.461201e+001 -4.517861e+001 7.599879e+001 -8.083306e-002 1.338509e+002
552095130.23783 -7.118555e-001 1.516048e+002 -4.502596e+001 7.419850e+001 -4.509800e+001 7.476299e+001 -8.402107e-002 1.337834e+002
552472631.18158 -7.197833e-001 1.513943e+002 -4.487266e+001 7.268283e+001 -4.504799e+001 7.412981e+001 -8.510847e-002 1.337139e+002
552850132.12533 -7.361131e-001 1.511002e+002 -4.482193e+001 7.305756e+001 -4.499745e+001 7.433964e+001 -8.630768e-002 1.336460e+002
553227633.06908 -7.442693e-001 1.507794e+002 -4.480170e+001 7.206271e+001 -4.492739e+001 7.377363e+001 -8.658989e-002 1.335875e+002
553605134.01284 -7.542152e-001 1.504939e+002 -4.471210e+001 7.206109e+001 -4.486556e+001 7.337302e+001 -9.235284e-002 1.335096e+002
553982634.95659 -7.612385e-001 1.501997e+002 -4.466673e+001 7.090646e+001 -4.477286e+001 7.224278e+001 -9.187111e-002 1.334509e+002
554360135.90034 -7.715199e-001 1.498678e+002 -4.453272e+001 7.133379e+001 -4.469415e+001 7.200102e+001 -9.147282e-002 1.333826e+002
554737636.84409 -7.891058e-001 1.496019e+002 -4.452947e+001 7.063022e+001 -4.455252e+001 7.106910e+001 -8.994278e-002 1.333401e+002
555115137.78784 -8.037318e-001 1.493122e+002 -4.439808e+001 7.118698e+001 -4.458852e+001 7.114196e+001 -9.585239e-002 1.332498e+002
555492638.7316 -8.131343e-001 1.489841e+002 -4.436171e+001 6.971873e+001 -4.441587e+001 6.990065e+001 -9.520800e-002 1.331906e+002
555870139.67535 -8.269697e-001 1.487530e+002 -4.442835e+001 6.895154e+001 -4.432291e+001 6.947547e+001 -9.728643e-002 1.331170e+002
