!Agilent Technologies,E8364B,US42250235,A.06.04.32
!Agilent E8364B: A.06.04.32
!Date: Thursday, October 01, 2020 14:20:05
!Correction: S11(Full 2 Port(1,2)) S21(Full 2 Port(1,2)) S12(Full 2 Port(1,2)) S22(Full 2 Port(1,2)) 
!S2P File: Measurements: S11, S21, S12, S22:
# Hz S  dB   R 50
500000000 -2.357108e-001 -1.752580e+002 -6.190322e+001 -2.117673e+001 -6.220763e+001 -2.006102e+001 -1.699285e-001 1.387497e+002
500377500.94375 -2.430210e-001 -1.754232e+002 -6.143052e+001 -2.503367e+001 -6.236100e+001 -2.201374e+001 -1.685163e-001 1.387099e+002
500755001.8875 -2.446985e-001 -1.755755e+002 -6.165408e+001 -2.614504e+001 -6.224416e+001 -1.908220e+001 -1.669446e-001 1.386779e+002
501132502.83126 -2.459827e-001 -1.758210e+002 -6.128948e+001 -2.937356e+001 -6.111098e+001 -2.290786e+001 -1.670137e-001 1.386158e+002
501510003.77501 -2.504604e-001 -1.759982e+002 -6.179977e+001 -2.887528e+001 -6.159623e+001 -2.492281e+001 -1.727606e-001 1.385555e+002
501887504.71876 -2.494213e-001 -1.762322e+002 -6.184472e+001 -2.406714e+001 -6.211650e+001 -3.041958e+001 -1.683952e-001 1.385035e+002
502265005.66251 -2.556382e-001 -1.763794e+002 -6.171994e+001 -3.218090e+001 -6.229105e+001 -2.476867e+001 -1.688878e-001 1.384579e+002
502642506.60627 -2.542303e-001 -1.766327e+002 -6.080531e+001 -3.150750e+001 -6.182412e+001 -2.800780e+001 -1.718654e-001 1.384473e+002
503020007.55002 -2.619924e-001 -1.767903e+002 -6.202242e+001 -3.360998e+001 -6.216871e+001 -3.232033e+001 -1.673787e-001 1.383290e+002
503397508.49377 -2.674185e-001 -1.770235e+002 -6.314122e+001 -3.331281e+001 -6.126789e+001 -2.624883e+001 -1.678354e-001 1.383173e+002
503775009.43752 -2.646516e-001 -1.772414e+002 -6.207082e+001 -3.393115e+001 -6.255864e+001 -3.283691e+001 -1.664826e-001 1.382593e+002
504152510.38128 -2.689806e-001 -1.774621e+002 -6.191332e+001 -3.519024e+001 -6.278563e+001 -3.604885e+001 -1.679019e-001 1.381908e+002
504530011.32503 -2.724070e-001 -1.776471e+002 -6.174969e+001 -3.444220e+001 -6.197695e+001 -3.744935e+001 -1.661170e-001 1.381543e+002
504907512.26878 -2.742112e-001 -1.778500e+002 -6.094940e+001 -3.238424e+001 -6.229714e+001 -3.284769e+001 -1.631481e-001 1.381051e+002
505285013.21253 -2.722941e-001 -1.780332e+002 -6.232850e+001 -4.508065e+001 -6.204478e+001 -3.109141e+001 -1.639725e-001 1.380314e+002
505662514.15629 -2.774032e-001 -1.782485e+002 -6.212113e+001 -3.372720e+001 -6.176333e+001 -3.929339e+001 -1.635815e-001 1.380089e+002
506040015.10004 -2.756832e-001 -1.785046e+002 -6.143606e+001 -3.931513e+001 -6.217815e+001 -3.295533e+001 -1.638000e-001 1.379591e+002
506417516.04379 -2.779655e-001 -1.786907e+002 -6.148134e+001 -3.689719e+001 -6.221447e+001 -4.054262e+001 -1.647410e-001 1.379060e+002
506795016.98754 -2.830191e-001 -1.788514e+002 -6.125468e+001 -4.236042e+001 -6.200802e+001 -3.196781e+001 -1.616435e-001 1.378395e+002
507172517.93129 -2.828699e-001 -1.790612e+002 -6.156732e+001 -3.554559e+001 -6.162961e+001 -3.362453e+001 -1.614322e-001 1.378198e+002
507550018.87505 -2.870020e-001 -1.792246e+002 -6.157624e+001 -4.401369e+001 -6.147853e+001 -3.661811e+001 -1.605832e-001 1.377693e+002
507927519.8188 -2.890553e-001 -1.794921e+002 -6.027087e+001 -3.658248e+001 -6.108839e+001 -4.073397e+001 -1.550664e-001 1.377184e+002
508305020.76255 -2.907035e-001 -1.796715e+002 -6.099697e+001 -4.329506e+001 -6.159060e+001 -3.893394e+001 -1.570974e-001 1.376788e+002
508682521.7063 -2.900625e-001 -1.798469e+002 -6.078662e+001 -4.500779e+001 -6.123494e+001 -4.050891e+001 -1.566636e-001 1.376816e+002
509060022.65006 -2.902826e-001 1.799201e+002 -6.091855e+001 -4.785683e+001 -6.037088e+001 -4.172631e+001 -1.588609e-001 1.375900e+002
509437523.59381 -2.921221e-001 1.796665e+002 -6.198681e+001 -4.275845e+001 -6.088969e+001 -4.258482e+001 -1.565170e-001 1.375568e+002
509815024.53756 -2.962148e-001 1.795138e+002 -6.158101e+001 -4.723717e+001 -6.121960e+001 -4.116243e+001 -1.582526e-001 1.375185e+002
510192525.48131 -2.995862e-001 1.792756e+002 -6.054910e+001 -4.932010e+001 -6.126477e+001 -4.324139e+001 -1.527777e-001 1.374713e+002
510570026.42507 -3.019760e-001 1.790735e+002 -6.167084e+001 -4.841955e+001 -6.132238e+001 -4.511818e+001 -1.521832e-001 1.374360e+002
510947527.36882 -2.989285e-001 1.788766e+002 -6.093107e+001 -5.324986e+001 -6.185961e+001 -5.006359e+001 -1.547925e-001 1.373671e+002
511325028.31257 -3.077824e-001 1.787091e+002 -6.078291e+001 -5.463349e+001 -6.072633e+001 -5.175345e+001 -1.504026e-001 1.373591e+002
511702529.25632 -3.065098e-001 1.784584e+002 -5.978129e+001 -5.394242e+001 -6.056559e+001 -4.840163e+001 -1.540590e-001 1.373182e+002
512080030.20008 -3.111660e-001 1.782467e+002 -6.105909e+001 -5.132446e+001 -6.021437e+001 -5.398240e+001 -1.528452e-001 1.372910e+002
512457531.14383 -3.135123e-001 1.780058e+002 -6.134840e+001 -5.237655e+001 -6.087298e+001 -5.321262e+001 -1.541226e-001 1.372666e+002
512835032.08758 -3.118194e-001 1.778201e+002 -6.148983e+001 -5.242849e+001 -6.034274e+001 -5.128194e+001 -1.540524e-001 1.371987e+002
513212533.03133 -3.175038e-001 1.775911e+002 -6.072845e+001 -5.767303e+001 -6.065607e+001 -5.021922e+001 -1.524828e-001 1.371644e+002
513590033.97508 -3.200838e-001 1.773909e+002 -6.087304e+001 -5.881469e+001 -6.091502e+001 -5.441281e+001 -1.550269e-001 1.371517e+002
513967534.91884 -3.214553e-001 1.771924e+002 -6.096748e+001 -5.248012e+001 -6.089779e+001 -5.966610e+001 -1.546375e-001 1.371048e+002
514345035.86259 -3.222007e-001 1.769362e+002 -6.035062e+001 -5.730146e+001 -6.072441e+001 -5.600509e+001 -1.547892e-001 1.370924e+002
514722536.80634 -3.236138e-001 1.767503e+002 -6.109900e+001 -5.545134e+001 -6.095524e+001 -5.726395e+001 -1.583257e-001 1.370620e+002
515100037.75009 -3.289256e-001 1.765929e+002 -6.081835e+001 -4.884454e+001 -6.028266e+001 -5.596653e+001 -1.586685e-001 1.370199e+002
515477538.69385 -3.323761e-001 1.763027e+002 -6.055591e+001 -5.658841e+001 -6.023655e+001 -5.829284e+001 -1.571846e-001 1.369967e+002
515855039.6376 -3.334938e-001 1.761364e+002 -6.077469e+001 -5.727636e+001 -5.993061e+001 -5.533676e+001 -1.592129e-001 1.369590e+002
516232540.58135 -3.393534e-001 1.758432e+002 -6.021208e+001 -5.695356e+001 -6.003650e+001 -5.959647e+001 -1.597471e-001 1.369333e+002
516610041.5251 -3.436140e-001 1.756811e+002 -6.007909e+001 -5.939056e+001 -5.961576e+001 -6.058932e+001 -1.578312e-001 1.369221e+002
516987542.46886 -3.516000e-001 1.754626e+002 -6.024735e+001 -5.470572e+001 -6.000902e+001 -6.164949e+001 -1.586478e-001 1.368625e+002
517365043.41261 -3.515908e-001 1.752036e+002 -6.009287e+001 -6.282635e+001 -5.955621e+001 -5.999997e+001 -1.616244e-001 1.368430e+002
517742544.35636 -3.520473e-001 1.749269e+002 -6.009442e+001 -6.426738e+001 -5.979435e+001 -6.142210e+001 -1.595231e-001 1.368382e+002
518120045.30011 -3.576391e-001 1.747418e+002 -5.981695e+001 -6.189681e+001 -5.969036e+001 -6.068812e+001 -1.621626e-001 1.368037e+002
518497546.24387 -3.581885e-001 1.744876e+002 -5.984557e+001 -6.521348e+001 -5.954401e+001 -6.644622e+001 -1.620478e-001 1.367768e+002
518875047.18762 -3.653185e-001 1.743036e+002 -5.976114e+001 -6.541770e+001 -5.957587e+001 -6.272124e+001 -1.638845e-001 1.367467e+002
519252548.13137 -3.725327e-001 1.740377e+002 -5.939865e+001 -6.636306e+001 -5.993542e+001 -6.664494e+001 -1.630966e-001 1.367055e+002
519630049.07512 -3.760118e-001 1.738804e+002 -5.927493e+001 -7.048441e+001 -5.977610e+001 -6.884842e+001 -1.661696e-001 1.366817e+002
520007550.01888 -3.783558e-001 1.736230e+002 -5.876689e+001 -7.122784e+001 -5.941695e+001 -6.826614e+001 -1.656263e-001 1.366122e+002
520385050.96263 -3.850494e-001 1.734358e+002 -5.914846e+001 -7.007033e+001 -5.918486e+001 -6.909291e+001 -1.704411e-001 1.366077e+002
520762551.90638 -3.878303e-001 1.732197e+002 -5.911503e+001 -7.022926e+001 -5.968945e+001 -7.034505e+001 -1.676990e-001 1.365894e+002
521140052.85013 -3.873273e-001 1.729012e+002 -5.910066e+001 -7.376421e+001 -5.953056e+001 -6.974176e+001 -1.664370e-001 1.365167e+002
521517553.79388 -3.940217e-001 1.727221e+002 -5.882355e+001 -7.454989e+001 -5.893019e+001 -6.991846e+001 -1.683122e-001 1.364949e+002
521895054.73764 -3.991168e-001 1.724942e+002 -5.907652e+001 -7.324186e+001 -5.946752e+001 -6.696095e+001 -1.706987e-001 1.364651e+002
522272555.68139 -4.054887e-001 1.723270e+002 -5.896185e+001 -7.707808e+001 -5.936316e+001 -7.265893e+001 -1.673414e-001 1.363941e+002
522650056.62514 -4.048749e-001 1.720706e+002 -5.865210e+001 -7.388102e+001 -5.900306e+001 -7.554014e+001 -1.687064e-001 1.363047e+002
523027557.56889 -4.075370e-001 1.718050e+002 -5.888427e+001 -7.988783e+001 -5.910027e+001 -7.797012e+001 -1.728923e-001 1.363129e+002
523405058.51265 -4.105695e-001 1.716540e+002 -5.833607e+001 -8.044839e+001 -5.883023e+001 -7.815622e+001 -1.732003e-001 1.362844e+002
523782559.4564 -4.150769e-001 1.714179e+002 -5.822491e+001 -7.943745e+001 -5.898020e+001 -8.049766e+001 -1.746411e-001 1.362386e+002
524160060.40015 -4.155028e-001 1.711081e+002 -5.896706e+001 -8.549302e+001 -5.874266e+001 -7.797202e+001 -1.787608e-001 1.361759e+002
524537561.3439 -4.216412e-001 1.709463e+002 -5.837726e+001 -8.386097e+001 -5.862359e+001 -8.008279e+001 -1.750223e-001 1.361208e+002
524915062.28766 -4.228093e-001 1.706669e+002 -5.891835e+001 -8.936377e+001 -5.861810e+001 -7.951535e+001 -1.784156e-001 1.360305e+002
525292563.23141 -4.242029e-001 1.704964e+002 -5.840690e+001 -8.372558e+001 -5.813353e+001 -8.039223e+001 -1.794923e-001 1.359853e+002
525670064.17516 -4.299517e-001 1.702620e+002 -5.915683e+001 -8.856802e+001 -5.866155e+001 -8.366876e+001 -1.780803e-001 1.359312e+002
526047565.11891 -4.320776e-001 1.700425e+002 -5.890783e+001 -8.739941e+001 -5.845826e+001 -8.381182e+001 -1.767643e-001 1.358866e+002
526425066.06267 -4.380586e-001 1.697791e+002 -5.883348e+001 -8.695560e+001 -5.816098e+001 -8.436620e+001 -1.797885e-001 1.358159e+002
526802567.00642 -4.456303e-001 1.695661e+002 -5.855203e+001 -8.858614e+001 -5.850792e+001 -8.367774e+001 -1.803555e-001 1.357712e+002
527180067.95017 -4.418410e-001 1.693020e+002 -5.806811e+001 -9.117024e+001 -5.860826e+001 -8.360279e+001 -1.802511e-001 1.356701e+002
527557568.89392 -4.475641e-001 1.690806e+002 -5.839827e+001 -9.140478e+001 -5.802083e+001 -8.443712e+001 -1.843986e-001 1.356269e+002
527935069.83767 -4.546892e-001 1.688665e+002 -5.825579e+001 -9.012515e+001 -5.807643e+001 -9.045576e+001 -1.803147e-001 1.355572e+002
528312570.78143 -4.515995e-001 1.686286e+002 -5.813687e+001 -9.342592e+001 -5.814717e+001 -8.747411e+001 -1.813583e-001 1.354782e+002
528690071.72518 -4.608917e-001 1.684462e+002 -5.807103e+001 -9.064507e+001 -5.800446e+001 -9.184351e+001 -1.853102e-001 1.354282e+002
529067572.66893 -4.629038e-001 1.681455e+002 -5.847750e+001 -9.599479e+001 -5.802875e+001 -9.394038e+001 -1.822105e-001 1.353670e+002
529445073.61268 -4.708988e-001 1.679195e+002 -5.809447e+001 -9.924292e+001 -5.805402e+001 -9.294277e+001 -1.839670e-001 1.352831e+002
529822574.55644 -4.709889e-001 1.676844e+002 -5.887849e+001 -1.003914e+002 -5.863810e+001 -9.411006e+001 -1.859288e-001 1.352177e+002
530200075.50019 -4.787689e-001 1.675120e+002 -5.850045e+001 -9.401132e+001 -5.816930e+001 -9.843855e+001 -1.839394e-001 1.351570e+002
530577576.44394 -4.835577e-001 1.671699e+002 -5.831797e+001 -1.000933e+002 -5.795768e+001 -9.599590e+001 -1.850867e-001 1.350996e+002
530955077.38769 -4.908242e-001 1.669597e+002 -5.869463e+001 -9.968744e+001 -5.824796e+001 -9.555140e+001 -1.868468e-001 1.350379e+002
531332578.33145 -5.000104e-001 1.667966e+002 -5.809386e+001 -1.005429e+002 -5.801071e+001 -9.596322e+001 -1.864956e-001 1.349751e+002
531710079.2752 -5.023747e-001 1.665105e+002 -5.857086e+001 -9.940132e+001 -5.803744e+001 -9.839449e+001 -1.814559e-001 1.349107e+002
532087580.21895 -5.103434e-001 1.662640e+002 -5.822702e+001 -1.055715e+002 -5.819115e+001 -1.012422e+002 -1.849574e-001 1.348655e+002
532465081.1627 -5.154690e-001 1.660368e+002 -5.808311e+001 -1.001772e+002 -5.812716e+001 -1.022095e+002 -1.841717e-001 1.348053e+002
532842582.10646 -5.199453e-001 1.657765e+002 -5.789993e+001 -1.031227e+002 -5.818273e+001 -9.744501e+001 -1.828364e-001 1.347482e+002
533220083.05021 -5.276036e-001 1.655155e+002 -5.811259e+001 -1.056859e+002 -5.748413e+001 -9.775720e+001 -1.863932e-001 1.346988e+002
533597583.99396 -5.318407e-001 1.652916e+002 -5.788619e+001 -1.058515e+002 -5.800878e+001 -1.053741e+002 -1.864798e-001 1.346557e+002
533975084.93771 -5.454426e-001 1.650867e+002 -5.821468e+001 -1.046221e+002 -5.799287e+001 -1.043645e+002 -1.842834e-001 1.346180e+002
534352585.88146 -5.472105e-001 1.647694e+002 -5.780935e+001 -1.076196e+002 -5.813513e+001 -1.056183e+002 -1.807153e-001 1.345648e+002
534730086.82522 -5.545486e-001 1.645302e+002 -5.795410e+001 -1.059676e+002 -5.779608e+001 -1.033324e+002 -1.806975e-001 1.345148e+002
535107587.76897 -5.599839e-001 1.643519e+002 -5.842910e+001 -1.114678e+002 -5.800771e+001 -1.047133e+002 -1.841507e-001 1.344961e+002
535485088.71272 -5.715297e-001 1.641118e+002 -5.745366e+001 -1.078789e+002 -5.795441e+001 -1.049513e+002 -1.825082e-001 1.344114e+002
535862589.65647 -5.771608e-001 1.638750e+002 -5.779435e+001 -1.058500e+002 -5.743529e+001 -1.071392e+002 -1.832077e-001 1.343820e+002
536240090.60023 -5.811004e-001 1.635867e+002 -5.756694e+001 -1.054005e+002 -5.757146e+001 -1.047566e+002 -1.823107e-001 1.343556e+002
536617591.54398 -5.872336e-001 1.633936e+002 -5.765956e+001 -1.083336e+002 -5.788354e+001 -1.062364e+002 -1.810890e-001 1.343140e+002
536995092.48773 -5.943337e-001 1.631373e+002 -5.709501e+001 -1.088116e+002 -5.741490e+001 -1.099755e+002 -1.810973e-001 1.342878e+002
537372593.43148 -6.034328e-001 1.629072e+002 -5.745756e+001 -1.085018e+002 -5.683925e+001 -1.072813e+002 -1.781320e-001 1.342469e+002
537750094.37524 -6.073865e-001 1.626056e+002 -5.756504e+001 -1.116826e+002 -5.728834e+001 -1.074818e+002 -1.769033e-001 1.342046e+002
538127595.31899 -6.208335e-001 1.624288e+002 -5.722160e+001 -1.081235e+002 -5.689808e+001 -1.115973e+002 -1.802498e-001 1.341757e+002
538505096.26274 -6.265005e-001 1.621853e+002 -5.727182e+001 -1.115936e+002 -5.691969e+001 -1.107323e+002 -1.792487e-001 1.341305e+002
538882597.20649 -6.355984e-001 1.619431e+002 -5.678485e+001 -1.121580e+002 -5.645575e+001 -1.151233e+002 -1.791305e-001 1.341004e+002
539260098.15025 -6.456845e-001 1.617271e+002 -5.707890e+001 -1.138155e+002 -5.660669e+001 -1.114531e+002 -1.751085e-001 1.340645e+002
539637599.094 -6.526058e-001 1.614873e+002 -5.648734e+001 -1.162337e+002 -5.665149e+001 -1.145678e+002 -1.764151e-001 1.340278e+002
540015100.03775 -6.593303e-001 1.613134e+002 -5.619465e+001 -1.148066e+002 -5.661798e+001 -1.180589e+002 -1.763766e-001 1.340288e+002
540392600.9815 -6.715001e-001 1.610573e+002 -5.623519e+001 -1.176319e+002 -5.646724e+001 -1.146855e+002 -1.751869e-001 1.339612e+002
540770101.92525 -6.793087e-001 1.607976e+002 -5.613553e+001 -1.203577e+002 -5.623148e+001 -1.203469e+002 -1.763261e-001 1.339182e+002
541147602.86901 -6.868020e-001 1.606724e+002 -5.594244e+001 -1.225110e+002 -5.650010e+001 -1.219947e+002 -1.757492e-001 1.338822e+002
541525103.81276 -6.900902e-001 1.603752e+002 -5.619091e+001 -1.227409e+002 -5.636983e+001 -1.227771e+002 -1.761106e-001 1.338325e+002
541902604.75651 -7.030392e-001 1.601798e+002 -5.626281e+001 -1.228948e+002 -5.586712e+001 -1.218569e+002 -1.742485e-001 1.338197e+002
542280105.70026 -7.069325e-001 1.599430e+002 -5.617583e+001 -1.223160e+002 -5.612317e+001 -1.232647e+002 -1.730265e-001 1.337704e+002
542657606.64402 -7.121701e-001 1.598118e+002 -5.594827e+001 -1.261683e+002 -5.634269e+001 -1.264444e+002 -1.741139e-001 1.337259e+002
543035107.58777 -7.183129e-001 1.595549e+002 -5.615977e+001 -1.282523e+002 -5.627619e+001 -1.251035e+002 -1.734069e-001 1.336839e+002
543412608.53152 -7.232248e-001 1.593518e+002 -5.571597e+001 -1.309893e+002 -5.609142e+001 -1.276159e+002 -1.755230e-001 1.336425e+002
543790109.47527 -7.281689e-001 1.591510e+002 -5.600891e+001 -1.285410e+002 -5.619732e+001 -1.272727e+002 -1.745791e-001 1.336009e+002
544167610.41903 -7.324566e-001 1.588709e+002 -5.600893e+001 -1.311754e+002 -5.607002e+001 -1.275764e+002 -1.747107e-001 1.335346e+002
544545111.36278 -7.358448e-001 1.587165e+002 -5.614024e+001 -1.331117e+002 -5.600201e+001 -1.306778e+002 -1.733371e-001 1.335021e+002
544922612.30653 -7.342915e-001 1.584463e+002 -5.603391e+001 -1.345859e+002 -5.596511e+001 -1.313407e+002 -1.737678e-001 1.334576e+002
545300113.25028 -7.393824e-001 1.583046e+002 -5.576408e+001 -1.356848e+002 -5.580749e+001 -1.324302e+002 -1.738804e-001 1.334514e+002
545677614.19404 -7.422948e-001 1.580463e+002 -5.620598e+001 -1.369721e+002 -5.553598e+001 -1.329361e+002 -1.768857e-001 1.333837e+002
546055115.13779 -7.454104e-001 1.577794e+002 -5.579985e+001 -1.367457e+002 -5.599005e+001 -1.359927e+002 -1.790759e-001 1.333205e+002
546432616.08154 -7.464220e-001 1.574994e+002 -5.566800e+001 -1.394286e+002 -5.612750e+001 -1.348975e+002 -1.784910e-001 1.332589e+002
546810117.02529 -7.486240e-001 1.572836e+002 -5.575546e+001 -1.390214e+002 -5.605405e+001 -1.353999e+002 -1.815031e-001 1.332148e+002
547187617.96904 -7.536622e-001 1.569774e+002 -5.559159e+001 -1.396878e+002 -5.591476e+001 -1.354717e+002 -1.790747e-001 1.331954e+002
547565118.9128 -7.630922e-001 1.567518e+002 -5.550177e+001 -1.412575e+002 -5.619241e+001 -1.366803e+002 -1.820152e-001 1.331155e+002
547942619.85655 -7.686114e-001 1.565233e+002 -5.583539e+001 -1.419227e+002 -5.593995e+001 -1.399992e+002 -1.862716e-001 1.330643e+002
548320120.8003 -7.763953e-001 1.562542e+002 -5.570243e+001 -1.417815e+002 -5.597982e+001 -1.377261e+002 -1.837824e-001 1.330164e+002
548697621.74405 -7.840900e-001 1.559264e+002 -5.587876e+001 -1.458677e+002 -5.594032e+001 -1.398073e+002 -1.857891e-001 1.329581e+002
549075122.68781 -7.962735e-001 1.557343e+002 -5.519500e+001 -1.409578e+002 -5.557813e+001 -1.392911e+002 -1.862646e-001 1.329459e+002
549452623.63156 -8.061712e-001 1.554229e+002 -5.547396e+001 -1.458545e+002 -5.593259e+001 -1.388161e+002 -1.890596e-001 1.328545e+002
549830124.57531 -8.163844e-001 1.552105e+002 -5.515560e+001 -1.418851e+002 -5.562966e+001 -1.399100e+002 -1.914087e-001 1.328152e+002
550207625.51906 -8.254399e-001 1.549389e+002 -5.556590e+001 -1.466525e+002 -5.566710e+001 -1.395640e+002 -1.875886e-001 1.327412e+002
550585126.46282 -8.349341e-001 1.547615e+002 -5.495607e+001 -1.453589e+002 -5.534955e+001 -1.424760e+002 -1.880569e-001 1.327174e+002
550962627.40657 -8.401924e-001 1.544718e+002 -5.552609e+001 -1.461588e+002 -5.535533e+001 -1.417092e+002 -1.909678e-001 1.326464e+002
551340128.35032 -8.474238e-001 1.542549e+002 -5.524767e+001 -1.502884e+002 -5.496887e+001 -1.425424e+002 -1.894037e-001 1.326048e+002
551717629.29407 -8.541409e-001 1.539729e+002 -5.499914e+001 -1.480405e+002 -5.529572e+001 -1.433437e+002 -1.906384e-001 1.325544e+002
552095130.23783 -8.640316e-001 1.536578e+002 -5.474346e+001 -1.466239e+002 -5.568017e+001 -1.436413e+002 -1.897128e-001 1.324812e+002
552472631.18158 -8.661046e-001 1.534203e+002 -5.463221e+001 -1.485138e+002 -5.508406e+001 -1.448725e+002 -1.892193e-001 1.324435e+002
552850132.12533 -8.764253e-001 1.531800e+002 -5.498757e+001 -1.505581e+002 -5.458988e+001 -1.480334e+002 -1.894397e-001 1.323817e+002
553227633.06908 -8.882924e-001 1.528871e+002 -5.456410e+001 -1.505183e+002 -5.476229e+001 -1.485920e+002 -1.921526e-001 1.323207e+002
553605134.01284 -8.958333e-001 1.526355e+002 -5.447305e+001 -1.523486e+002 -5.468306e+001 -1.463918e+002 -1.990385e-001 1.322796e+002
553982634.95659 -9.073301e-001 1.523288e+002 -5.449554e+001 -1.525783e+002 -5.480085e+001 -1.504947e+002 -1.943152e-001 1.322097e+002
554360135.90034 -9.185408e-001 1.520321e+002 -5.478038e+001 -1.542660e+002 -5.464226e+001 -1.516620e+002 -1.920254e-001 1.321504e+002
554737636.84409 -9.376326e-001 1.517988e+002 -5.441345e+001 -1.573673e+002 -5.430663e+001 -1.512858e+002 -1.950718e-001 1.321174e+002
555115137.78784 -9.511095e-001 1.515573e+002 -5.409880e+001 -1.569791e+002 -5.409409e+001 -1.526666e+002 -1.929430e-001 1.320742e+002
