!Agilent Technologies,E8364B,US42250235,A.06.04.32
!Agilent E8364B: A.06.04.32
!Date: Thursday, October 01, 2020 14:02:14
!Correction: S11(Full 2 Port(1,2)) S21(Full 2 Port(1,2)) S12(Full 2 Port(1,2)) S22(Full 2 Port(1,2)) 
!S2P File: Measurements: S11, S21, S12, S22:
# Hz S  dB   R 50
500000000 -2.739225e-001 -1.753485e+002 -5.639331e+001 3.205252e+001 -5.638742e+001 3.288520e+001 -6.560742e-002 1.390395e+002
500377500.94375 -2.767597e-001 -1.755204e+002 -5.647826e+001 3.044878e+001 -5.676651e+001 2.969911e+001 -6.551661e-002 1.390186e+002
500755001.8875 -2.820404e-001 -1.756770e+002 -5.613089e+001 3.028495e+001 -5.644053e+001 3.067116e+001 -6.173550e-002 1.390065e+002
501132502.83126 -2.829144e-001 -1.759304e+002 -5.635893e+001 2.967322e+001 -5.671573e+001 3.205884e+001 -6.347948e-002 1.389392e+002
501510003.77501 -2.882813e-001 -1.760978e+002 -5.537675e+001 3.137732e+001 -5.623677e+001 2.898932e+001 -6.623020e-002 1.389056e+002
501887504.71876 -2.904334e-001 -1.763444e+002 -5.587842e+001 3.154747e+001 -5.620305e+001 3.056645e+001 -6.174313e-002 1.388568e+002
502265005.66251 -2.961704e-001 -1.765179e+002 -5.624580e+001 2.894114e+001 -5.631890e+001 3.044599e+001 -6.338766e-002 1.388398e+002
502642506.60627 -2.980827e-001 -1.767557e+002 -5.602687e+001 2.882536e+001 -5.604136e+001 2.839794e+001 -6.370007e-002 1.388291e+002
503020007.55002 -3.026935e-001 -1.769195e+002 -5.556789e+001 2.724053e+001 -5.600106e+001 2.386973e+001 -6.407388e-002 1.387371e+002
503397508.49377 -3.111020e-001 -1.771081e+002 -5.570893e+001 2.922393e+001 -5.606220e+001 2.740408e+001 -6.194616e-002 1.387322e+002
503775009.43752 -3.130678e-001 -1.772540e+002 -5.552908e+001 2.567846e+001 -5.569835e+001 2.561754e+001 -6.220819e-002 1.386683e+002
504152510.38128 -3.148298e-001 -1.775385e+002 -5.524930e+001 2.519770e+001 -5.587201e+001 2.597295e+001 -6.278868e-002 1.386036e+002
504530011.32503 -3.218863e-001 -1.776580e+002 -5.549836e+001 2.808944e+001 -5.562664e+001 2.445048e+001 -6.233080e-002 1.385759e+002
504907512.26878 -3.240162e-001 -1.778907e+002 -5.507744e+001 2.439975e+001 -5.522051e+001 2.282715e+001 -5.946951e-002 1.385334e+002
505285013.21253 -3.246848e-001 -1.781241e+002 -5.507837e+001 2.069058e+001 -5.513023e+001 2.640559e+001 -6.110570e-002 1.384756e+002
505662514.15629 -3.315044e-001 -1.782518e+002 -5.513998e+001 2.219262e+001 -5.540512e+001 2.406956e+001 -6.018703e-002 1.384648e+002
506040015.10004 -3.334605e-001 -1.785089e+002 -5.517113e+001 2.508607e+001 -5.522078e+001 2.335583e+001 -6.044673e-002 1.383838e+002
506417516.04379 -3.380266e-001 -1.786675e+002 -5.476811e+001 1.978600e+001 -5.543621e+001 2.219450e+001 -6.143179e-002 1.383468e+002
506795016.98754 -3.395416e-001 -1.788501e+002 -5.535398e+001 2.038962e+001 -5.484715e+001 2.211436e+001 -6.164872e-002 1.382884e+002
507172517.93129 -3.427199e-001 -1.790928e+002 -5.464146e+001 1.839596e+001 -5.463149e+001 2.251037e+001 -6.100024e-002 1.382552e+002
507550018.87505 -3.481026e-001 -1.792494e+002 -5.448952e+001 1.846145e+001 -5.501260e+001 1.969610e+001 -6.443640e-002 1.381938e+002
507927519.8188 -3.498512e-001 -1.794695e+002 -5.437408e+001 1.717743e+001 -5.465774e+001 1.854880e+001 -5.885753e-002 1.381481e+002
508305020.76255 -3.532328e-001 -1.796133e+002 -5.429350e+001 1.702099e+001 -5.446483e+001 1.828306e+001 -5.987312e-002 1.380937e+002
508682521.7063 -3.561902e-001 -1.797787e+002 -5.451309e+001 1.421739e+001 -5.452179e+001 1.864820e+001 -5.800162e-002 1.380703e+002
509060022.65006 -3.584230e-001 1.799263e+002 -5.438581e+001 1.366715e+001 -5.486192e+001 1.659440e+001 -6.158490e-002 1.379980e+002
509437523.59381 -3.610931e-001 1.797696e+002 -5.466668e+001 1.373049e+001 -5.457243e+001 1.615243e+001 -6.169154e-002 1.379416e+002
509815024.53756 -3.636935e-001 1.795409e+002 -5.482014e+001 1.084207e+001 -5.401201e+001 1.340410e+001 -5.966041e-002 1.378938e+002
510192525.48131 -3.677061e-001 1.793336e+002 -5.452551e+001 1.249422e+001 -5.463443e+001 1.532839e+001 -5.943504e-002 1.378298e+002
510570026.42507 -3.708653e-001 1.791752e+002 -5.451366e+001 9.647428e+000 -5.415902e+001 1.460314e+001 -5.648373e-002 1.377928e+002
510947527.36882 -3.758442e-001 1.789372e+002 -5.433385e+001 1.016261e+001 -5.456355e+001 1.137945e+001 -6.012509e-002 1.377290e+002
511325028.31257 -3.771565e-001 1.787761e+002 -5.461480e+001 1.261167e+001 -5.463330e+001 9.444036e+000 -5.914637e-002 1.376890e+002
511702529.25632 -3.789414e-001 1.786041e+002 -5.465010e+001 1.038523e+001 -5.438866e+001 1.115003e+001 -5.668872e-002 1.376366e+002
512080030.20008 -3.826216e-001 1.784351e+002 -5.476765e+001 1.009014e+001 -5.411363e+001 1.023688e+001 -5.695699e-002 1.376004e+002
512457531.14383 -3.828385e-001 1.781709e+002 -5.467689e+001 9.535439e+000 -5.411024e+001 9.634453e+000 -6.045308e-002 1.375541e+002
512835032.08758 -3.873286e-001 1.779773e+002 -5.395751e+001 8.634433e+000 -5.419073e+001 7.472189e+000 -5.985636e-002 1.374906e+002
513212533.03133 -3.898017e-001 1.778178e+002 -5.419336e+001 9.473361e+000 -5.407135e+001 5.868462e+000 -5.723561e-002 1.374451e+002
513590033.97508 -3.912506e-001 1.776557e+002 -5.417494e+001 9.107989e+000 -5.447026e+001 7.401500e+000 -5.856116e-002 1.374380e+002
513967534.91884 -3.897725e-001 1.773774e+002 -5.405074e+001 8.013388e+000 -5.409430e+001 7.872356e+000 -5.940656e-002 1.373695e+002
514345035.86259 -3.927496e-001 1.771851e+002 -5.390077e+001 7.389473e+000 -5.421337e+001 6.132828e+000 -5.761003e-002 1.373565e+002
514722536.80634 -3.948946e-001 1.769730e+002 -5.381055e+001 7.891548e+000 -5.379327e+001 4.705608e+000 -5.591820e-002 1.373319e+002
515100037.75009 -3.988476e-001 1.768052e+002 -5.403151e+001 5.174537e+000 -5.431222e+001 5.612488e+000 -5.611796e-002 1.372822e+002
515477538.69385 -4.012906e-001 1.766384e+002 -5.414840e+001 6.279957e+000 -5.410564e+001 5.399693e+000 -5.745687e-002 1.372683e+002
515855039.6376 -4.032300e-001 1.763885e+002 -5.419657e+001 6.684411e+000 -5.405785e+001 3.328550e+000 -5.625099e-002 1.372142e+002
516232540.58135 -4.049097e-001 1.761483e+002 -5.375720e+001 3.676645e+000 -5.386197e+001 2.654382e+000 -5.656109e-002 1.372163e+002
516610041.5251 -4.106270e-001 1.759571e+002 -5.370509e+001 4.954552e+000 -5.374656e+001 1.499232e+000 -5.520496e-002 1.372047e+002
516987542.46886 -4.170675e-001 1.757430e+002 -5.338948e+001 4.552227e+000 -5.357257e+001 -2.776261e-001 -5.483928e-002 1.371720e+002
517365043.41261 -4.182959e-001 1.755431e+002 -5.372975e+001 3.616109e+000 -5.354739e+001 -1.566278e-002 -5.381213e-002 1.371456e+002
517742544.35636 -4.191624e-001 1.753305e+002 -5.330619e+001 1.377347e+000 -5.364298e+001 -1.071883e+000 -5.274678e-002 1.371470e+002
518120045.30011 -4.225971e-001 1.751038e+002 -5.332413e+001 1.022937e+000 -5.363856e+001 -2.173368e+000 -5.232697e-002 1.371107e+002
518497546.24387 -4.238707e-001 1.748636e+002 -5.349648e+001 -2.180479e-001 -5.322103e+001 -5.365928e-001 -5.356103e-002 1.371105e+002
518875047.18762 -4.291236e-001 1.747175e+002 -5.314959e+001 -6.405698e-001 -5.338996e+001 -1.239617e+000 -5.417595e-002 1.371037e+002
519252548.13137 -4.327396e-001 1.744322e+002 -5.298082e+001 -2.520157e+000 -5.336292e+001 -2.335228e+000 -5.114252e-002 1.370879e+002
519630049.07512 -4.356170e-001 1.742569e+002 -5.294133e+001 -5.468880e+000 -5.328705e+001 -3.740122e+000 -5.136916e-002 1.370441e+002
520007550.01888 -4.420939e-001 1.740843e+002 -5.290757e+001 -4.280734e+000 -5.348361e+001 -4.453621e+000 -5.170107e-002 1.370375e+002
520385050.96263 -4.423674e-001 1.738435e+002 -5.273832e+001 -5.200711e+000 -5.336246e+001 -6.199386e+000 -5.313434e-002 1.370249e+002
520762551.90638 -4.473999e-001 1.736449e+002 -5.324473e+001 -7.115364e+000 -5.304539e+001 -7.452272e+000 -5.037870e-002 1.370227e+002
521140052.85013 -4.457528e-001 1.733851e+002 -5.266090e+001 -8.074487e+000 -5.335382e+001 -7.425041e+000 -5.441034e-002 1.369939e+002
521517553.79388 -4.502388e-001 1.731925e+002 -5.308111e+001 -8.415320e+000 -5.304066e+001 -5.878402e+000 -5.125999e-002 1.369801e+002
521895054.73764 -4.532847e-001 1.729850e+002 -5.271758e+001 -9.927234e+000 -5.334637e+001 -6.954991e+000 -5.140407e-002 1.369606e+002
522272555.68139 -4.596412e-001 1.727727e+002 -5.256530e+001 -1.075179e+001 -5.317388e+001 -8.485422e+000 -5.277159e-002 1.369174e+002
522650056.62514 -4.583294e-001 1.725654e+002 -5.285213e+001 -8.977449e+000 -5.332941e+001 -9.311784e+000 -5.596296e-002 1.368880e+002
523027557.56889 -4.600968e-001 1.723105e+002 -5.288030e+001 -1.315572e+001 -5.297696e+001 -1.027901e+001 -5.458749e-002 1.368183e+002
523405058.51265 -4.642637e-001 1.721506e+002 -5.281945e+001 -1.325233e+001 -5.297388e+001 -1.136174e+001 -6.186092e-002 1.368470e+002
523782559.4564 -4.675001e-001 1.719063e+002 -5.285334e+001 -1.327987e+001 -5.281108e+001 -9.840917e+000 -6.026655e-002 1.368143e+002
524160060.40015 -4.659660e-001 1.716523e+002 -5.286831e+001 -1.410894e+001 -5.307040e+001 -1.166742e+001 -6.451096e-002 1.367896e+002
524537561.3439 -4.695408e-001 1.714841e+002 -5.289850e+001 -1.262205e+001 -5.309955e+001 -1.192832e+001 -6.136718e-002 1.367286e+002
524915062.28766 -4.695346e-001 1.712022e+002 -5.260487e+001 -1.404684e+001 -5.306425e+001 -1.211204e+001 -6.587770e-002 1.366786e+002
525292563.23141 -4.746517e-001 1.710715e+002 -5.286592e+001 -1.464297e+001 -5.300181e+001 -1.335453e+001 -6.872462e-002 1.366436e+002
525670064.17516 -4.761043e-001 1.707811e+002 -5.267659e+001 -1.495975e+001 -5.304967e+001 -1.350035e+001 -6.376258e-002 1.365729e+002
526047565.11891 -4.789757e-001 1.705978e+002 -5.308420e+001 -1.478374e+001 -5.274503e+001 -1.483122e+001 -6.428050e-002 1.365255e+002
526425066.06267 -4.841007e-001 1.703542e+002 -5.293497e+001 -1.709698e+001 -5.317281e+001 -1.524518e+001 -6.787381e-002 1.364624e+002
526802567.00642 -4.915827e-001 1.701624e+002 -5.301018e+001 -1.773765e+001 -5.294175e+001 -1.596086e+001 -6.859870e-002 1.364293e+002
527180067.95017 -4.923290e-001 1.698917e+002 -5.284569e+001 -1.725229e+001 -5.278400e+001 -1.380389e+001 -6.930836e-002 1.363498e+002
527557568.89392 -4.946567e-001 1.696252e+002 -5.295440e+001 -1.651630e+001 -5.264520e+001 -1.582824e+001 -7.469126e-002 1.363070e+002
527935069.83767 -4.988375e-001 1.694573e+002 -5.282066e+001 -1.900387e+001 -5.258290e+001 -1.875465e+001 -6.783237e-002 1.361569e+002
528312570.78143 -5.022067e-001 1.692548e+002 -5.277345e+001 -1.893898e+001 -5.267495e+001 -1.895324e+001 -7.256651e-002 1.361613e+002
528690071.72518 -5.077361e-001 1.690041e+002 -5.287941e+001 -1.785289e+001 -5.268325e+001 -1.815243e+001 -7.296941e-002 1.361064e+002
529067572.66893 -5.082707e-001 1.687813e+002 -5.266533e+001 -1.793737e+001 -5.270825e+001 -1.733062e+001 -7.476369e-002 1.360377e+002
529445073.61268 -5.189802e-001 1.685131e+002 -5.248190e+001 -2.052834e+001 -5.270818e+001 -1.895866e+001 -7.328304e-002 1.359646e+002
529822574.55644 -5.202659e-001 1.682947e+002 -5.283530e+001 -1.884879e+001 -5.260625e+001 -1.816152e+001 -7.516870e-002 1.359023e+002
530200075.50019 -5.243294e-001 1.682090e+002 -5.283271e+001 -2.045169e+001 -5.225019e+001 -1.995544e+001 -7.486597e-002 1.358321e+002
530577576.44394 -5.290502e-001 1.679201e+002 -5.244407e+001 -1.997481e+001 -5.261497e+001 -2.116166e+001 -7.938498e-002 1.357467e+002
530955077.38769 -5.369470e-001 1.677336e+002 -5.233488e+001 -1.881762e+001 -5.236337e+001 -1.872494e+001 -7.703451e-002 1.356834e+002
531332578.33145 -5.397583e-001 1.675138e+002 -5.230266e+001 -2.101664e+001 -5.242952e+001 -2.047733e+001 -7.872599e-002 1.356375e+002
531710079.2752 -5.470476e-001 1.673227e+002 -5.268802e+001 -2.218025e+001 -5.220657e+001 -2.234591e+001 -7.668974e-002 1.355570e+002
532087580.21895 -5.486249e-001 1.670724e+002 -5.231599e+001 -2.327085e+001 -5.237135e+001 -2.199538e+001 -7.930389e-002 1.355005e+002
532465081.1627 -5.521505e-001 1.668256e+002 -5.234586e+001 -2.113844e+001 -5.228098e+001 -2.316038e+001 -7.835771e-002 1.354482e+002
532842582.10646 -5.558778e-001 1.666642e+002 -5.252615e+001 -2.350057e+001 -5.225436e+001 -2.220267e+001 -7.361215e-002 1.353704e+002
533220083.05021 -5.604927e-001 1.664093e+002 -5.199625e+001 -2.225518e+001 -5.224807e+001 -2.427373e+001 -7.617740e-002 1.353356e+002
533597583.99396 -5.594869e-001 1.661578e+002 -5.215249e+001 -2.408863e+001 -5.211616e+001 -2.294112e+001 -7.782935e-002 1.352431e+002
533975084.93771 -5.719694e-001 1.660185e+002 -5.222270e+001 -2.240150e+001 -5.204282e+001 -2.468747e+001 -7.581667e-002 1.351992e+002
534352585.88146 -5.688366e-001 1.657023e+002 -5.195955e+001 -2.420267e+001 -5.183783e+001 -2.571440e+001 -7.511061e-002 1.351705e+002
534730086.82522 -5.748477e-001 1.655163e+002 -5.205287e+001 -2.511642e+001 -5.189137e+001 -2.587167e+001 -7.014654e-002 1.351207e+002
535107587.76897 -5.779212e-001 1.653037e+002 -5.206595e+001 -2.612284e+001 -5.189143e+001 -2.673399e+001 -7.618366e-002 1.350612e+002
535485088.71272 -5.847716e-001 1.651331e+002 -5.178793e+001 -2.613031e+001 -5.171422e+001 -2.769566e+001 -6.850789e-002 1.350153e+002
535862589.65647 -5.886274e-001 1.649185e+002 -5.152396e+001 -2.604879e+001 -5.149138e+001 -2.853665e+001 -7.019272e-002 1.349825e+002
536240090.60023 -5.861607e-001 1.646115e+002 -5.154039e+001 -2.596997e+001 -5.134347e+001 -2.832110e+001 -6.997639e-002 1.348953e+002
536617591.54398 -5.885741e-001 1.644745e+002 -5.161828e+001 -2.845925e+001 -5.133354e+001 -2.876362e+001 -7.078657e-002 1.349290e+002
536995092.48773 -5.907653e-001 1.642210e+002 -5.169521e+001 -2.809194e+001 -5.148444e+001 -2.958925e+001 -7.318046e-002 1.348555e+002
537372593.43148 -5.938519e-001 1.640316e+002 -5.142949e+001 -2.961599e+001 -5.133019e+001 -3.034916e+001 -6.769791e-002 1.348337e+002
537750094.37524 -5.961995e-001 1.637443e+002 -5.149621e+001 -2.948856e+001 -5.163497e+001 -3.074317e+001 -6.618267e-002 1.348238e+002
538127595.31899 -6.006250e-001 1.635305e+002 -5.140187e+001 -3.023577e+001 -5.122334e+001 -3.249122e+001 -6.903718e-002 1.347846e+002
538505096.26274 -6.016731e-001 1.632652e+002 -5.138836e+001 -3.060601e+001 -5.115648e+001 -3.258614e+001 -6.985985e-002 1.347286e+002
538882597.20649 -6.083030e-001 1.630691e+002 -5.124181e+001 -3.255832e+001 -5.110744e+001 -3.283124e+001 -6.593532e-002 1.347381e+002
539260098.15025 -6.119993e-001 1.628953e+002 -5.120755e+001 -3.183394e+001 -5.115209e+001 -3.363745e+001 -6.457338e-002 1.347101e+002
539637599.094 -6.124144e-001 1.626423e+002 -5.106501e+001 -3.192225e+001 -5.098644e+001 -3.399871e+001 -6.504368e-002 1.346844e+002
540015100.03775 -6.144233e-001 1.624028e+002 -5.085183e+001 -3.251262e+001 -5.103463e+001 -3.354222e+001 -6.648125e-002 1.346917e+002
540392600.9815 -6.178170e-001 1.621209e+002 -5.096077e+001 -3.260688e+001 -5.080321e+001 -3.534388e+001 -6.517428e-002 1.345886e+002
540770101.92525 -6.189703e-001 1.619503e+002 -5.090660e+001 -3.449105e+001 -5.109311e+001 -3.638026e+001 -6.613822e-002 1.346149e+002
541147602.86901 -6.246779e-001 1.617140e+002 -5.082295e+001 -3.521857e+001 -5.084961e+001 -3.675902e+001 -6.474049e-002 1.345778e+002
541525103.81276 -6.257374e-001 1.615053e+002 -5.079675e+001 -3.486595e+001 -5.094322e+001 -3.817748e+001 -6.512015e-002 1.345557e+002
541902604.75651 -6.306952e-001 1.612691e+002 -5.071995e+001 -3.518790e+001 -5.100248e+001 -3.864228e+001 -6.454658e-002 1.345254e+002
542280105.70026 -6.314071e-001 1.610165e+002 -5.075882e+001 -3.595875e+001 -5.073680e+001 -3.889392e+001 -6.364550e-002 1.345189e+002
542657606.64402 -6.376786e-001 1.607942e+002 -5.068980e+001 -3.682747e+001 -5.080542e+001 -3.781103e+001 -6.667835e-002 1.344854e+002
543035107.58777 -6.387932e-001 1.605655e+002 -5.056127e+001 -3.689875e+001 -5.093706e+001 -4.010706e+001 -6.558731e-002 1.344413e+002
543412608.53152 -6.433808e-001 1.603977e+002 -5.058515e+001 -3.847787e+001 -5.087989e+001 -4.024362e+001 -6.836323e-002 1.344032e+002
543790109.47527 -6.441506e-001 1.600998e+002 -5.047729e+001 -3.801316e+001 -5.072033e+001 -4.085462e+001 -6.903435e-002 1.343978e+002
544167610.41903 -6.435079e-001 1.598775e+002 -5.048382e+001 -3.855713e+001 -5.057780e+001 -4.078699e+001 -6.806528e-002 1.343753e+002
544545111.36278 -6.481973e-001 1.596279e+002 -5.039344e+001 -3.931956e+001 -5.070775e+001 -4.272187e+001 -6.562820e-002 1.343257e+002
544922612.30653 -6.502906e-001 1.594337e+002 -5.055048e+001 -4.205596e+001 -5.053841e+001 -4.108564e+001 -6.705872e-002 1.342997e+002
545300113.25028 -6.499763e-001 1.592460e+002 -5.038692e+001 -4.139648e+001 -5.055940e+001 -4.269121e+001 -6.833493e-002 1.342973e+002
545677614.19404 -6.558664e-001 1.589715e+002 -5.032923e+001 -4.238960e+001 -5.057993e+001 -4.331609e+001 -6.981061e-002 1.342409e+002
546055115.13779 -6.516470e-001 1.587119e+002 -5.012975e+001 -4.251910e+001 -5.056839e+001 -4.378711e+001 -7.224732e-002 1.342018e+002
546432616.08154 -6.538053e-001 1.584454e+002 -5.011440e+001 -4.364496e+001 -5.059774e+001 -4.369012e+001 -7.329894e-002 1.341443e+002
546810117.02529 -6.572852e-001 1.582653e+002 -5.007803e+001 -4.333139e+001 -5.051371e+001 -4.479510e+001 -7.565472e-002 1.341105e+002
547187617.96904 -6.594765e-001 1.579248e+002 -4.998354e+001 -4.497636e+001 -5.047417e+001 -4.497473e+001 -7.425500e-002 1.340758e+002
547565118.9128 -6.666427e-001 1.576837e+002 -5.007805e+001 -4.415846e+001 -5.022580e+001 -4.523095e+001 -7.920782e-002 1.340470e+002
547942619.85655 -6.666603e-001 1.574691e+002 -4.990676e+001 -4.609792e+001 -5.042448e+001 -4.588318e+001 -8.182735e-002 1.340006e+002
548320120.8003 -6.708143e-001 1.572233e+002 -4.988760e+001 -4.609910e+001 -5.044171e+001 -4.617867e+001 -8.040865e-002 1.339292e+002
548697621.74405 -6.739100e-001 1.569405e+002 -4.985040e+001 -4.817464e+001 -5.008382e+001 -4.657869e+001 -8.367721e-002 1.338940e+002
549075122.68781 -6.823944e-001 1.567028e+002 -4.997993e+001 -4.906359e+001 -5.017077e+001 -4.678610e+001 -8.463442e-002 1.338900e+002
549452623.63156 -6.847486e-001 1.564487e+002 -4.977543e+001 -4.863302e+001 -5.003707e+001 -4.740408e+001 -8.765475e-002 1.337998e+002
549830124.57531 -6.928142e-001 1.561833e+002 -4.969855e+001 -4.911700e+001 -5.009584e+001 -5.049371e+001 -8.897538e-002 1.337574e+002
550207625.51906 -6.922474e-001 1.559706e+002 -4.973813e+001 -4.972858e+001 -5.020551e+001 -4.841926e+001 -8.781212e-002 1.336959e+002
550585126.46282 -6.996580e-001 1.557672e+002 -4.969155e+001 -4.950572e+001 -4.998316e+001 -5.040601e+001 -9.016706e-002 1.336477e+002
550962627.40657 -7.026965e-001 1.554442e+002 -4.954538e+001 -5.125970e+001 -4.992139e+001 -4.947590e+001 -9.106146e-002 1.335955e+002
551340128.35032 -7.044111e-001 1.552390e+002 -4.959509e+001 -5.229398e+001 -4.999064e+001 -5.093871e+001 -9.180792e-002 1.335228e+002
551717629.29407 -7.088118e-001 1.549471e+002 -4.960426e+001 -5.210286e+001 -4.987020e+001 -5.125032e+001 -9.245296e-002 1.334740e+002
552095130.23783 -7.131502e-001 1.547108e+002 -4.964635e+001 -5.304171e+001 -4.971011e+001 -5.321534e+001 -9.166753e-002 1.334072e+002
552472631.18158 -7.138597e-001 1.544729e+002 -4.949893e+001 -5.421468e+001 -4.975864e+001 -5.433237e+001 -9.658187e-002 1.333446e+002
552850132.12533 -7.214593e-001 1.541721e+002 -4.973567e+001 -5.340561e+001 -4.982493e+001 -5.376142e+001 -9.544887e-002 1.332751e+002
553227633.06908 -7.252003e-001 1.539490e+002 -4.965458e+001 -5.546803e+001 -4.961694e+001 -5.425087e+001 -9.540122e-002 1.332117e+002
553605134.01284 -7.283933e-001 1.536420e+002 -4.942918e+001 -5.547252e+001 -4.970721e+001 -5.550588e+001 -1.025362e-001 1.331519e+002
553982634.95659 -7.307653e-001 1.533970e+002 -4.957955e+001 -5.510233e+001 -4.950101e+001 -5.435158e+001 -9.939212e-002 1.330751e+002
554360135.90034 -7.317439e-001 1.531081e+002 -4.945465e+001 -5.566303e+001 -4.967421e+001 -5.486660e+001 -9.796148e-002 1.330070e+002
554737636.84409 -7.421263e-001 1.528217e+002 -4.929603e+001 -5.508713e+001 -4.932268e+001 -5.724575e+001 -1.008039e-001 1.329630e+002
555115137.78784 -7.471333e-001 1.526307e+002 -4.925155e+001 -5.546870e+001 -4.946331e+001 -5.714857e+001 -1.020589e-001 1.328950e+002
