!Agilent Technologies,E8364B,US42250235,A.06.04.32
!Agilent E8364B: A.06.04.32
!Date: Thursday, October 01, 2020 14:02:52
!Correction: S11(Full 2 Port(1,2)) S21(Full 2 Port(1,2)) S12(Full 2 Port(1,2)) S22(Full 2 Port(1,2)) 
!S2P File: Measurements: S11, S21, S12, S22:
# Hz S  dB   R 50
500000000 -2.107501e-001 -1.752179e+002 -6.054924e+001 -4.714547e+001 -6.022318e+001 -4.843040e+001 -1.331775e-001 1.386185e+002
500377500.94375 -2.172549e-001 -1.753390e+002 -5.966248e+001 -4.670299e+001 -5.995630e+001 -5.232071e+001 -1.287523e-001 1.385619e+002
500755001.8875 -2.121877e-001 -1.755682e+002 -5.949692e+001 -4.359558e+001 -6.009778e+001 -4.802449e+001 -1.266496e-001 1.384776e+002
501132502.83126 -2.166462e-001 -1.757675e+002 -5.980794e+001 -4.902781e+001 -6.075021e+001 -5.114766e+001 -1.267844e-001 1.384194e+002
501510003.77501 -2.223950e-001 -1.759186e+002 -5.986262e+001 -4.522702e+001 -6.051936e+001 -4.991333e+001 -1.276921e-001 1.383406e+002
501887504.71876 -2.188679e-001 -1.762299e+002 -5.913916e+001 -4.212438e+001 -5.941682e+001 -4.860299e+001 -1.234807e-001 1.382661e+002
502265005.66251 -2.291380e-001 -1.763394e+002 -5.984631e+001 -4.337479e+001 -5.986794e+001 -4.808194e+001 -1.249964e-001 1.382181e+002
502642506.60627 -2.236620e-001 -1.766400e+002 -5.970035e+001 -4.397349e+001 -5.972803e+001 -4.558930e+001 -1.269444e-001 1.381891e+002
503020007.55002 -2.311506e-001 -1.767681e+002 -5.947279e+001 -4.797746e+001 -6.029608e+001 -5.283572e+001 -1.237834e-001 1.381042e+002
503397508.49377 -2.372539e-001 -1.769576e+002 -5.913858e+001 -4.416372e+001 -5.897188e+001 -5.192154e+001 -1.212757e-001 1.380728e+002
503775009.43752 -2.351720e-001 -1.772172e+002 -5.905770e+001 -4.567246e+001 -5.925535e+001 -4.841146e+001 -1.208721e-001 1.379926e+002
504152510.38128 -2.392828e-001 -1.774336e+002 -5.890714e+001 -4.415868e+001 -5.951159e+001 -5.247999e+001 -1.208271e-001 1.379534e+002
504530011.32503 -2.406902e-001 -1.776261e+002 -5.861036e+001 -4.769212e+001 -5.997448e+001 -5.023803e+001 -1.170119e-001 1.379230e+002
504907512.26878 -2.435277e-001 -1.777793e+002 -5.847740e+001 -4.744514e+001 -5.897970e+001 -5.033676e+001 -1.160286e-001 1.378699e+002
505285013.21253 -2.398366e-001 -1.780626e+002 -5.880355e+001 -5.068572e+001 -5.910947e+001 -5.354965e+001 -1.137531e-001 1.378403e+002
505662514.15629 -2.453394e-001 -1.782234e+002 -5.874441e+001 -5.071151e+001 -5.942834e+001 -5.092067e+001 -1.119436e-001 1.378063e+002
506040015.10004 -2.448603e-001 -1.784891e+002 -5.843690e+001 -4.808809e+001 -5.909433e+001 -5.535089e+001 -1.098764e-001 1.377744e+002
506417516.04379 -2.495825e-001 -1.786790e+002 -5.850115e+001 -4.788853e+001 -5.900070e+001 -5.637347e+001 -1.119139e-001 1.377675e+002
506795016.98754 -2.548099e-001 -1.788053e+002 -5.832470e+001 -5.004589e+001 -5.872012e+001 -5.571471e+001 -1.123796e-001 1.377247e+002
507172517.93129 -2.504242e-001 -1.791011e+002 -5.797797e+001 -5.089965e+001 -5.902320e+001 -5.551241e+001 -1.107042e-001 1.377240e+002
507550018.87505 -2.565357e-001 -1.792358e+002 -5.845108e+001 -5.775957e+001 -5.832774e+001 -5.699482e+001 -1.117288e-001 1.377072e+002
507927519.8188 -2.599537e-001 -1.795081e+002 -5.797183e+001 -5.461781e+001 -5.823669e+001 -5.763485e+001 -1.082747e-001 1.376562e+002
508305020.76255 -2.599454e-001 -1.797016e+002 -5.814273e+001 -5.246140e+001 -5.859115e+001 -5.737024e+001 -1.083543e-001 1.376493e+002
508682521.7063 -2.581097e-001 -1.798757e+002 -5.846898e+001 -5.700711e+001 -5.838193e+001 -6.053081e+001 -1.052913e-001 1.376208e+002
509060022.65006 -2.649524e-001 1.798952e+002 -5.808409e+001 -5.707544e+001 -5.798171e+001 -5.790798e+001 -1.066306e-001 1.376166e+002
509437523.59381 -2.654747e-001 1.796431e+002 -5.836129e+001 -5.534042e+001 -5.864293e+001 -5.720703e+001 -1.078555e-001 1.375793e+002
509815024.53756 -2.682723e-001 1.794362e+002 -5.803003e+001 -5.572829e+001 -5.791019e+001 -5.812960e+001 -1.031594e-001 1.375737e+002
510192525.48131 -2.734005e-001 1.792496e+002 -5.775861e+001 -5.581788e+001 -5.833261e+001 -6.147843e+001 -1.024005e-001 1.375258e+002
510570026.42507 -2.795064e-001 1.791053e+002 -5.762930e+001 -5.716631e+001 -5.779250e+001 -5.993155e+001 -1.034873e-001 1.375187e+002
510947527.36882 -2.732354e-001 1.788051e+002 -5.815464e+001 -5.865579e+001 -5.773917e+001 -6.362743e+001 -1.060291e-001 1.374805e+002
511325028.31257 -2.794941e-001 1.786717e+002 -5.833431e+001 -5.784645e+001 -5.753953e+001 -5.978832e+001 -1.035638e-001 1.374611e+002
511702529.25632 -2.784270e-001 1.783909e+002 -5.705249e+001 -5.891113e+001 -5.786876e+001 -6.331442e+001 -1.063386e-001 1.374171e+002
512080030.20008 -2.843663e-001 1.782180e+002 -5.777515e+001 -5.682487e+001 -5.823011e+001 -6.358520e+001 -1.050296e-001 1.374095e+002
512457531.14383 -2.842573e-001 1.780137e+002 -5.778973e+001 -6.016318e+001 -5.766819e+001 -6.610255e+001 -1.081160e-001 1.373886e+002
512835032.08758 -2.831426e-001 1.777370e+002 -5.736289e+001 -6.313610e+001 -5.776324e+001 -6.552321e+001 -1.055197e-001 1.373268e+002
513212533.03133 -2.859090e-001 1.775430e+002 -5.784386e+001 -6.317690e+001 -5.765690e+001 -6.610488e+001 -1.056792e-001 1.373022e+002
513590033.97508 -2.911092e-001 1.773651e+002 -5.787196e+001 -6.050101e+001 -5.763391e+001 -6.668070e+001 -1.091291e-001 1.372836e+002
513967534.91884 -2.893927e-001 1.771542e+002 -5.796906e+001 -6.403244e+001 -5.757934e+001 -6.950733e+001 -1.086586e-001 1.372364e+002
514345035.86259 -2.920358e-001 1.768978e+002 -5.749595e+001 -6.354844e+001 -5.743368e+001 -6.743568e+001 -1.074668e-001 1.372086e+002
514722536.80634 -2.949699e-001 1.766646e+002 -5.757526e+001 -6.388588e+001 -5.804916e+001 -6.828554e+001 -1.086627e-001 1.371904e+002
515100037.75009 -3.001391e-001 1.765468e+002 -5.725864e+001 -6.328335e+001 -5.724903e+001 -6.664652e+001 -1.104581e-001 1.371405e+002
515477538.69385 -2.996301e-001 1.762470e+002 -5.759291e+001 -6.351363e+001 -5.731570e+001 -6.790560e+001 -1.112568e-001 1.371096e+002
515855039.6376 -3.011112e-001 1.760801e+002 -5.691764e+001 -5.878749e+001 -5.730504e+001 -6.821701e+001 -1.115361e-001 1.370788e+002
516232540.58135 -3.066221e-001 1.758354e+002 -5.696610e+001 -6.198620e+001 -5.733326e+001 -7.036842e+001 -1.116400e-001 1.370293e+002
516610041.5251 -3.112947e-001 1.756099e+002 -5.693468e+001 -6.366269e+001 -5.735929e+001 -6.644025e+001 -1.084084e-001 1.370153e+002
516987542.46886 -3.136094e-001 1.754098e+002 -5.742728e+001 -6.543121e+001 -5.716305e+001 -6.871661e+001 -1.102858e-001 1.369730e+002
517365043.41261 -3.156673e-001 1.751482e+002 -5.679156e+001 -6.674963e+001 -5.705305e+001 -7.040745e+001 -1.086946e-001 1.369400e+002
517742544.35636 -3.182542e-001 1.748665e+002 -5.658964e+001 -6.623978e+001 -5.669061e+001 -7.018057e+001 -1.109608e-001 1.369142e+002
518120045.30011 -3.231733e-001 1.747228e+002 -5.666362e+001 -6.448710e+001 -5.696806e+001 -6.906806e+001 -1.119021e-001 1.368685e+002
518497546.24387 -3.220984e-001 1.744149e+002 -5.645356e+001 -6.524837e+001 -5.692227e+001 -7.267796e+001 -1.132725e-001 1.368551e+002
518875047.18762 -3.264658e-001 1.742393e+002 -5.653500e+001 -6.899970e+001 -5.659580e+001 -7.033461e+001 -1.128649e-001 1.368136e+002
519252548.13137 -3.314808e-001 1.739962e+002 -5.630203e+001 -6.751178e+001 -5.676997e+001 -7.161982e+001 -1.110254e-001 1.367650e+002
519630049.07512 -3.356690e-001 1.738028e+002 -5.625122e+001 -6.701347e+001 -5.663893e+001 -7.523093e+001 -1.143342e-001 1.367294e+002
520007550.01888 -3.373410e-001 1.735129e+002 -5.600809e+001 -6.754609e+001 -5.619702e+001 -7.403605e+001 -1.147541e-001 1.366856e+002
520385050.96263 -3.430740e-001 1.733055e+002 -5.589380e+001 -7.221368e+001 -5.630972e+001 -7.456754e+001 -1.148868e-001 1.366686e+002
520762551.90638 -3.456843e-001 1.731143e+002 -5.599466e+001 -7.030473e+001 -5.648770e+001 -7.606930e+001 -1.117979e-001 1.366249e+002
521140052.85013 -3.461641e-001 1.727758e+002 -5.571032e+001 -7.494769e+001 -5.612466e+001 -7.471192e+001 -1.136540e-001 1.365896e+002
521517553.79388 -3.526354e-001 1.726010e+002 -5.566409e+001 -7.460236e+001 -5.576814e+001 -7.857838e+001 -1.086275e-001 1.365667e+002
521895054.73764 -3.533106e-001 1.723858e+002 -5.560343e+001 -7.250962e+001 -5.609998e+001 -7.621711e+001 -1.134210e-001 1.365287e+002
522272555.68139 -3.581592e-001 1.721266e+002 -5.554308e+001 -7.386553e+001 -5.562200e+001 -7.800403e+001 -1.093602e-001 1.364803e+002
522650056.62514 -3.611039e-001 1.719362e+002 -5.529316e+001 -7.742863e+001 -5.579112e+001 -7.717516e+001 -1.163052e-001 1.364384e+002
523027557.56889 -3.646520e-001 1.716624e+002 -5.484052e+001 -7.830180e+001 -5.601874e+001 -7.879609e+001 -1.128430e-001 1.363496e+002
523405058.51265 -3.689870e-001 1.714649e+002 -5.525293e+001 -7.989120e+001 -5.581494e+001 -8.034883e+001 -1.186499e-001 1.363466e+002
523782559.4564 -3.706316e-001 1.711659e+002 -5.523034e+001 -7.958820e+001 -5.568569e+001 -7.957893e+001 -1.176850e-001 1.363276e+002
524160060.40015 -3.748323e-001 1.709025e+002 -5.533616e+001 -7.771472e+001 -5.517870e+001 -8.125404e+001 -1.184408e-001 1.362881e+002
524537561.3439 -3.807860e-001 1.707615e+002 -5.536202e+001 -7.853814e+001 -5.556518e+001 -8.080067e+001 -1.152390e-001 1.362413e+002
524915062.28766 -3.799212e-001 1.704353e+002 -5.534703e+001 -7.769270e+001 -5.527765e+001 -8.171037e+001 -1.194892e-001 1.361656e+002
525292563.23141 -3.869551e-001 1.702189e+002 -5.477638e+001 -8.183062e+001 -5.541048e+001 -8.258419e+001 -1.228252e-001 1.361330e+002
525670064.17516 -3.883215e-001 1.699628e+002 -5.489808e+001 -8.070414e+001 -5.505894e+001 -8.351896e+001 -1.221055e-001 1.360815e+002
526047565.11891 -3.955680e-001 1.697561e+002 -5.535167e+001 -8.175605e+001 -5.519123e+001 -8.349014e+001 -1.184075e-001 1.360446e+002
526425066.06267 -3.998937e-001 1.694542e+002 -5.501279e+001 -8.240853e+001 -5.478413e+001 -8.297752e+001 -1.198000e-001 1.359794e+002
526802567.00642 -4.086490e-001 1.692671e+002 -5.507407e+001 -8.174105e+001 -5.519781e+001 -8.446758e+001 -1.202989e-001 1.359496e+002
527180067.95017 -4.112221e-001 1.690464e+002 -5.523997e+001 -8.453586e+001 -5.492419e+001 -8.384043e+001 -1.207632e-001 1.358647e+002
527557568.89392 -4.168211e-001 1.687215e+002 -5.501748e+001 -8.319538e+001 -5.505690e+001 -8.660510e+001 -1.244779e-001 1.358320e+002
527935069.83767 -4.232382e-001 1.685912e+002 -5.502185e+001 -8.471754e+001 -5.479012e+001 -8.810680e+001 -1.193220e-001 1.357127e+002
528312570.78143 -4.271108e-001 1.683419e+002 -5.460114e+001 -8.547919e+001 -5.482232e+001 -8.863864e+001 -1.216395e-001 1.357151e+002
528690071.72518 -4.347822e-001 1.681150e+002 -5.472247e+001 -8.500370e+001 -5.452682e+001 -8.817490e+001 -1.225236e-001 1.356702e+002
529067572.66893 -4.383442e-001 1.678485e+002 -5.450368e+001 -8.648067e+001 -5.473044e+001 -9.123253e+001 -1.243001e-001 1.356095e+002
529445073.61268 -4.434565e-001 1.675603e+002 -5.470991e+001 -8.645174e+001 -5.470369e+001 -9.119484e+001 -1.207095e-001 1.355462e+002
529822574.55644 -4.500132e-001 1.673353e+002 -5.477404e+001 -8.608984e+001 -5.420285e+001 -9.184093e+001 -1.227049e-001 1.355036e+002
530200075.50019 -4.523319e-001 1.671307e+002 -5.453157e+001 -8.709902e+001 -5.434562e+001 -9.235871e+001 -1.228644e-001 1.354529e+002
530577576.44394 -4.618861e-001 1.668257e+002 -5.485453e+001 -8.844834e+001 -5.437819e+001 -9.171529e+001 -1.233489e-001 1.353879e+002
530955077.38769 -4.684436e-001 1.666359e+002 -5.440422e+001 -8.860044e+001 -5.437024e+001 -9.195964e+001 -1.265662e-001 1.353259e+002
531332578.33145 -4.738694e-001 1.664164e+002 -5.457428e+001 -8.940512e+001 -5.423190e+001 -9.315646e+001 -1.240970e-001 1.352889e+002
531710079.2752 -4.812213e-001 1.661555e+002 -5.448616e+001 -8.869733e+001 -5.417212e+001 -9.241250e+001 -1.198220e-001 1.352113e+002
532087580.21895 -4.899649e-001 1.659573e+002 -5.449459e+001 -8.959171e+001 -5.415940e+001 -9.465968e+001 -1.252520e-001 1.351744e+002
532465081.1627 -4.935507e-001 1.656789e+002 -5.394708e+001 -8.993554e+001 -5.422309e+001 -9.561218e+001 -1.256676e-001 1.351345e+002
532842582.10646 -4.971449e-001 1.654172e+002 -5.415579e+001 -9.000942e+001 -5.395225e+001 -9.643581e+001 -1.235378e-001 1.350631e+002
533220083.05021 -5.069057e-001 1.651709e+002 -5.408638e+001 -9.080544e+001 -5.404832e+001 -9.616245e+001 -1.238538e-001 1.350249e+002
533597583.99396 -5.114870e-001 1.649436e+002 -5.408307e+001 -9.050042e+001 -5.360808e+001 -9.583692e+001 -1.240184e-001 1.349418e+002
533975084.93771 -5.243307e-001 1.646917e+002 -5.378610e+001 -9.293375e+001 -5.362174e+001 -9.738469e+001 -1.275477e-001 1.349194e+002
534352585.88146 -5.267180e-001 1.644079e+002 -5.360411e+001 -9.483479e+001 -5.372238e+001 -9.778722e+001 -1.230476e-001 1.348949e+002
534730086.82522 -5.338070e-001 1.641870e+002 -5.381694e+001 -9.298981e+001 -5.355333e+001 -9.842367e+001 -1.184317e-001 1.348555e+002
535107587.76897 -5.391070e-001 1.639964e+002 -5.358181e+001 -9.208873e+001 -5.327168e+001 -9.803236e+001 -1.260180e-001 1.348227e+002
535485088.71272 -5.505797e-001 1.637221e+002 -5.349329e+001 -9.430957e+001 -5.351474e+001 -9.875397e+001 -1.189647e-001 1.347584e+002
535862589.65647 -5.594673e-001 1.634960e+002 -5.350211e+001 -9.387376e+001 -5.344031e+001 -1.013936e+002 -1.231753e-001 1.346991e+002
536240090.60023 -5.625695e-001 1.631978e+002 -5.314875e+001 -9.551772e+001 -5.336074e+001 -9.999620e+001 -1.234618e-001 1.346191e+002
536617591.54398 -5.667854e-001 1.629886e+002 -5.297001e+001 -9.527266e+001 -5.329111e+001 -1.008789e+002 -1.221172e-001 1.346406e+002
536995092.48773 -5.772426e-001 1.628082e+002 -5.312408e+001 -9.789530e+001 -5.285508e+001 -1.002424e+002 -1.232924e-001 1.345821e+002
537372593.43148 -5.828741e-001 1.625243e+002 -5.280650e+001 -9.854902e+001 -5.285141e+001 -1.022999e+002 -1.215085e-001 1.345453e+002
537750094.37524 -5.909749e-001 1.622538e+002 -5.307557e+001 -9.870525e+001 -5.285501e+001 -1.042097e+002 -1.189784e-001 1.345168e+002
538127595.31899 -6.000097e-001 1.620258e+002 -5.281293e+001 -9.883768e+001 -5.296382e+001 -1.038089e+002 -1.243583e-001 1.344605e+002
538505096.26274 -6.038992e-001 1.617574e+002 -5.274804e+001 -9.972392e+001 -5.263417e+001 -1.050531e+002 -1.252578e-001 1.344269e+002
538882597.20649 -6.148301e-001 1.615514e+002 -5.288143e+001 -1.009959e+002 -5.258593e+001 -1.059098e+002 -1.244875e-001 1.343927e+002
539260098.15025 -6.227217e-001 1.612718e+002 -5.263425e+001 -1.009456e+002 -5.256571e+001 -1.082944e+002 -1.209615e-001 1.343587e+002
539637599.094 -6.294426e-001 1.610208e+002 -5.256886e+001 -1.016312e+002 -5.253093e+001 -1.080530e+002 -1.215722e-001 1.342940e+002
540015100.03775 -6.372489e-001 1.607837e+002 -5.244492e+001 -1.038846e+002 -5.250900e+001 -1.078695e+002 -1.240237e-001 1.343267e+002
540392600.9815 -6.476043e-001 1.605419e+002 -5.233683e+001 -1.028298e+002 -5.217675e+001 -1.078042e+002 -1.228187e-001 1.342080e+002
540770101.92525 -6.600302e-001 1.603191e+002 -5.224555e+001 -1.031018e+002 -5.233273e+001 -1.086436e+002 -1.232080e-001 1.342000e+002
541147602.86901 -6.656792e-001 1.600995e+002 -5.218307e+001 -1.064177e+002 -5.227703e+001 -1.113445e+002 -1.248220e-001 1.341680e+002
541525103.81276 -6.731471e-001 1.597578e+002 -5.212969e+001 -1.068135e+002 -5.209217e+001 -1.122097e+002 -1.260246e-001 1.341173e+002
541902604.75651 -6.886663e-001 1.595663e+002 -5.217145e+001 -1.064791e+002 -5.218393e+001 -1.112327e+002 -1.234335e-001 1.340849e+002
542280105.70026 -6.950170e-001 1.593339e+002 -5.208713e+001 -1.059723e+002 -5.210942e+001 -1.115131e+002 -1.240158e-001 1.340524e+002
542657606.64402 -7.004849e-001 1.590870e+002 -5.178241e+001 -1.063269e+002 -5.224320e+001 -1.124283e+002 -1.267330e-001 1.340026e+002
543035107.58777 -7.165126e-001 1.588755e+002 -5.187417e+001 -1.085995e+002 -5.195965e+001 -1.161924e+002 -1.244585e-001 1.339706e+002
543412608.53152 -7.233329e-001 1.586254e+002 -5.201371e+001 -1.089455e+002 -5.200331e+001 -1.151106e+002 -1.284342e-001 1.339191e+002
543790109.47527 -7.315627e-001 1.583776e+002 -5.159097e+001 -1.097403e+002 -5.191855e+001 -1.141428e+002 -1.265292e-001 1.338932e+002
544167610.41903 -7.403544e-001 1.581776e+002 -5.163732e+001 -1.093149e+002 -5.209053e+001 -1.147012e+002 -1.295008e-001 1.338672e+002
544545111.36278 -7.475470e-001 1.579265e+002 -5.144202e+001 -1.103541e+002 -5.182421e+001 -1.165528e+002 -1.255717e-001 1.338077e+002
544922612.30653 -7.564171e-001 1.576632e+002 -5.139945e+001 -1.108651e+002 -5.166430e+001 -1.174989e+002 -1.259481e-001 1.337783e+002
545300113.25028 -7.632331e-001 1.574925e+002 -5.157880e+001 -1.120904e+002 -5.155608e+001 -1.183253e+002 -1.273391e-001 1.337591e+002
545677614.19404 -7.711676e-001 1.572440e+002 -5.124590e+001 -1.114782e+002 -5.183725e+001 -1.173372e+002 -1.288733e-001 1.337025e+002
546055115.13779 -7.805201e-001 1.570344e+002 -5.118121e+001 -1.141192e+002 -5.153369e+001 -1.196571e+002 -1.289522e-001 1.336586e+002
546432616.08154 -7.879230e-001 1.567232e+002 -5.104262e+001 -1.134600e+002 -5.167404e+001 -1.188121e+002 -1.334625e-001 1.336104e+002
546810117.02529 -7.972222e-001 1.564900e+002 -5.092952e+001 -1.143161e+002 -5.140542e+001 -1.200402e+002 -1.358168e-001 1.335855e+002
547187617.96904 -8.027265e-001 1.562199e+002 -5.107512e+001 -1.161914e+002 -5.146714e+001 -1.198180e+002 -1.321930e-001 1.335463e+002
547565118.9128 -8.183638e-001 1.559955e+002 -5.071199e+001 -1.162210e+002 -5.134216e+001 -1.195993e+002 -1.368970e-001 1.334967e+002
547942619.85655 -8.278373e-001 1.557528e+002 -5.110344e+001 -1.162811e+002 -5.129550e+001 -1.209920e+002 -1.378796e-001 1.334642e+002
548320120.8003 -8.400977e-001 1.554956e+002 -5.058806e+001 -1.166968e+002 -5.113105e+001 -1.225631e+002 -1.381069e-001 1.334044e+002
548697621.74405 -8.507458e-001 1.552495e+002 -5.045647e+001 -1.170361e+002 -5.083261e+001 -1.210524e+002 -1.405686e-001 1.333711e+002
549075122.68781 -8.637546e-001 1.550486e+002 -5.056137e+001 -1.182672e+002 -5.100260e+001 -1.239107e+002 -1.431538e-001 1.333832e+002
549452623.63156 -8.752197e-001 1.547787e+002 -5.055648e+001 -1.206619e+002 -5.075295e+001 -1.233127e+002 -1.439551e-001 1.332923e+002
549830124.57531 -8.901514e-001 1.545407e+002 -5.036273e+001 -1.222528e+002 -5.075384e+001 -1.242720e+002 -1.436298e-001 1.332128e+002
550207625.51906 -8.981644e-001 1.543022e+002 -5.032624e+001 -1.205427e+002 -5.071035e+001 -1.267359e+002 -1.442928e-001 1.331958e+002
550585126.46282 -9.101296e-001 1.540855e+002 -5.020284e+001 -1.234379e+002 -5.049107e+001 -1.263297e+002 -1.473799e-001 1.331651e+002
550962627.40657 -9.203182e-001 1.537845e+002 -5.018504e+001 -1.245393e+002 -5.037459e+001 -1.262950e+002 -1.485506e-001 1.331004e+002
551340128.35032 -9.318321e-001 1.536371e+002 -5.004196e+001 -1.235431e+002 -5.031660e+001 -1.282053e+002 -1.536033e-001 1.330549e+002
551717629.29407 -9.433699e-001 1.533316e+002 -4.995520e+001 -1.242162e+002 -5.023336e+001 -1.288044e+002 -1.501420e-001 1.330070e+002
552095130.23783 -9.522934e-001 1.530847e+002 -4.978255e+001 -1.265047e+002 -5.030757e+001 -1.307990e+002 -1.501061e-001 1.329499e+002
552472631.18158 -9.585826e-001 1.528575e+002 -4.976491e+001 -1.259609e+002 -4.997198e+001 -1.320385e+002 -1.534155e-001 1.328998e+002
552850132.12533 -9.717928e-001 1.526444e+002 -4.981269e+001 -1.279003e+002 -5.019826e+001 -1.335251e+002 -1.534876e-001 1.328395e+002
553227633.06908 -9.824166e-001 1.523852e+002 -4.952947e+001 -1.269434e+002 -5.009362e+001 -1.324718e+002 -1.539910e-001 1.327699e+002
553605134.01284 -9.921911e-001 1.521170e+002 -4.975993e+001 -1.297387e+002 -5.004875e+001 -1.332494e+002 -1.596885e-001 1.327179e+002
553982634.95659 -1.003089e+000 1.519120e+002 -4.992348e+001 -1.298028e+002 -5.001665e+001 -1.341930e+002 -1.573343e-001 1.326505e+002
554360135.90034 -1.012015e+000 1.516305e+002 -4.984980e+001 -1.312121e+002 -4.993118e+001 -1.345408e+002 -1.558750e-001 1.325870e+002
554737636.84409 -1.026640e+000 1.513770e+002 -4.964297e+001 -1.324140e+002 -4.971391e+001 -1.350744e+002 -1.586024e-001 1.325586e+002
555115137.78784 -1.039203e+000 1.511201e+002 -4.962635e+001 -1.320396e+002 -4.980111e+001 -1.357136e+002 -1.610560e-001 1.324656e+002
