!Agilent Technologies,E8364B,US42250235,A.06.04.32
!Agilent E8364B: A.06.04.32
!Date: Thursday, October 01, 2020 14:03:41
!Correction: S11(Full 2 Port(1,2)) S21(Full 2 Port(1,2)) S12(Full 2 Port(1,2)) S22(Full 2 Port(1,2)) 
!S2P File: Measurements: S11, S21, S12, S22:
# Hz S  dB   R 50
500000000 -2.146511e-001 -1.754196e+002 -6.041183e+001 -8.101235e+001 -6.096896e+001 -8.037619e+001 -1.046661e-001 1.388826e+002
500377500.94375 -2.214865e-001 -1.755364e+002 -6.115434e+001 -8.298109e+001 -6.074242e+001 -8.364925e+001 -1.039013e-001 1.388490e+002
500755001.8875 -2.201761e-001 -1.757756e+002 -6.151099e+001 -8.049117e+001 -6.042922e+001 -8.219429e+001 -1.037948e-001 1.388130e+002
501132502.83126 -2.256105e-001 -1.759758e+002 -6.024817e+001 -8.045515e+001 -6.018318e+001 -8.710283e+001 -1.034715e-001 1.387508e+002
501510003.77501 -2.299181e-001 -1.761292e+002 -6.073013e+001 -8.302316e+001 -6.106098e+001 -8.748842e+001 -1.031064e-001 1.386683e+002
501887504.71876 -2.261096e-001 -1.764486e+002 -6.085246e+001 -8.644176e+001 -6.023232e+001 -8.582390e+001 -1.020782e-001 1.386696e+002
502265005.66251 -2.357317e-001 -1.765454e+002 -6.068746e+001 -8.274758e+001 -6.039989e+001 -8.945825e+001 -1.023522e-001 1.386213e+002
502642506.60627 -2.339516e-001 -1.768486e+002 -6.021724e+001 -8.492154e+001 -6.072672e+001 -8.579515e+001 -1.042952e-001 1.386126e+002
503020007.55002 -2.419078e-001 -1.769920e+002 -6.084930e+001 -8.454578e+001 -6.133869e+001 -8.418598e+001 -1.013435e-001 1.385212e+002
503397508.49377 -2.474059e-001 -1.771821e+002 -5.968642e+001 -8.433802e+001 -6.116302e+001 -8.744231e+001 -1.039477e-001 1.385101e+002
503775009.43752 -2.492182e-001 -1.774298e+002 -5.936475e+001 -8.228922e+001 -6.065942e+001 -8.781272e+001 -1.000001e-001 1.384459e+002
504152510.38128 -2.517029e-001 -1.776196e+002 -5.992898e+001 -8.309055e+001 -6.002316e+001 -8.678641e+001 -1.016568e-001 1.383815e+002
504530011.32503 -2.559304e-001 -1.778540e+002 -5.953109e+001 -8.426611e+001 -6.080930e+001 -8.834805e+001 -9.652033e-002 1.383527e+002
504907512.26878 -2.579775e-001 -1.780132e+002 -5.995827e+001 -8.947222e+001 -6.030811e+001 -8.474714e+001 -9.897784e-002 1.383310e+002
505285013.21253 -2.558230e-001 -1.782893e+002 -5.978477e+001 -8.682699e+001 -6.012255e+001 -8.591526e+001 -9.807573e-002 1.382425e+002
505662514.15629 -2.616299e-001 -1.784622e+002 -5.969079e+001 -8.817987e+001 -5.985141e+001 -8.770441e+001 -9.687965e-002 1.382248e+002
506040015.10004 -2.633256e-001 -1.786829e+002 -5.979935e+001 -8.671001e+001 -5.996739e+001 -8.632282e+001 -9.680455e-002 1.381711e+002
506417516.04379 -2.672498e-001 -1.789231e+002 -5.943560e+001 -8.951192e+001 -5.980562e+001 -9.112148e+001 -9.687299e-002 1.381294e+002
506795016.98754 -2.750137e-001 -1.790526e+002 -5.950602e+001 -9.001356e+001 -5.969056e+001 -8.772005e+001 -9.561615e-002 1.380668e+002
507172517.93129 -2.732719e-001 -1.793390e+002 -5.928587e+001 -8.899377e+001 -5.949164e+001 -8.928988e+001 -9.796172e-002 1.380323e+002
507550018.87505 -2.814008e-001 -1.794858e+002 -5.919371e+001 -9.235981e+001 -5.897247e+001 -8.910319e+001 -9.969870e-002 1.379776e+002
507927519.8188 -2.826537e-001 -1.797535e+002 -5.926297e+001 -9.093634e+001 -5.883867e+001 -9.115403e+001 -9.382695e-002 1.379310e+002
508305020.76255 -2.864199e-001 -1.799329e+002 -5.895152e+001 -9.318357e+001 -5.882965e+001 -9.230383e+001 -9.396569e-002 1.378957e+002
508682521.7063 -2.864975e-001 1.798915e+002 -5.871721e+001 -9.504996e+001 -5.935522e+001 -9.498516e+001 -9.324402e-002 1.378852e+002
509060022.65006 -2.902448e-001 1.796171e+002 -5.883460e+001 -9.404183e+001 -5.857737e+001 -9.499570e+001 -9.653246e-002 1.378020e+002
509437523.59381 -2.965136e-001 1.794171e+002 -5.880725e+001 -9.234842e+001 -5.902377e+001 -9.773379e+001 -9.403241e-002 1.377514e+002
509815024.53756 -2.968956e-001 1.792121e+002 -5.841624e+001 -9.319042e+001 -5.870670e+001 -9.977870e+001 -9.349334e-002 1.377059e+002
510192525.48131 -3.038206e-001 1.789875e+002 -5.849803e+001 -9.775904e+001 -5.878532e+001 -9.719661e+001 -9.381709e-002 1.376484e+002
510570026.42507 -3.080496e-001 1.788624e+002 -5.897091e+001 -9.852438e+001 -5.868661e+001 -9.521339e+001 -8.965200e-002 1.376214e+002
510947527.36882 -3.058741e-001 1.785810e+002 -5.821156e+001 -1.013408e+002 -5.852610e+001 -9.801469e+001 -9.599029e-002 1.375412e+002
511325028.31257 -3.104005e-001 1.784606e+002 -5.840358e+001 -9.987463e+001 -5.864468e+001 -9.931268e+001 -9.186583e-002 1.375194e+002
511702529.25632 -3.115469e-001 1.781808e+002 -5.867889e+001 -9.961332e+001 -5.845522e+001 -1.011380e+002 -9.305587e-002 1.374670e+002
512080030.20008 -3.167980e-001 1.780216e+002 -5.760756e+001 -1.009381e+002 -5.784242e+001 -1.035441e+002 -9.054856e-002 1.374327e+002
512457531.14383 -3.168447e-001 1.777604e+002 -5.818299e+001 -9.751212e+001 -5.821011e+001 -9.954665e+001 -9.234349e-002 1.373998e+002
512835032.08758 -3.199748e-001 1.775291e+002 -5.854905e+001 -9.878363e+001 -5.833971e+001 -1.073902e+002 -9.364823e-002 1.373255e+002
513212533.03133 -3.233311e-001 1.773515e+002 -5.815621e+001 -1.031017e+002 -5.811276e+001 -1.006161e+002 -9.190378e-002 1.372981e+002
513590033.97508 -3.302937e-001 1.771700e+002 -5.844285e+001 -1.011689e+002 -5.830008e+001 -1.090146e+002 -9.306633e-002 1.372745e+002
513967534.91884 -3.282225e-001 1.769469e+002 -5.804601e+001 -1.036092e+002 -5.815278e+001 -1.063440e+002 -9.328621e-002 1.372160e+002
514345035.86259 -3.267778e-001 1.766738e+002 -5.793227e+001 -1.017053e+002 -5.786635e+001 -1.047187e+002 -9.347189e-002 1.371942e+002
514722536.80634 -3.347197e-001 1.764565e+002 -5.829891e+001 -1.013979e+002 -5.797191e+001 -1.051825e+002 -9.502664e-002 1.371684e+002
515100037.75009 -3.392677e-001 1.763301e+002 -5.767533e+001 -1.037846e+002 -5.801928e+001 -1.085472e+002 -9.219825e-002 1.371146e+002
515477538.69385 -3.413483e-001 1.760506e+002 -5.777295e+001 -1.032254e+002 -5.744742e+001 -1.121136e+002 -9.347378e-002 1.370933e+002
515855039.6376 -3.440398e-001 1.758674e+002 -5.761649e+001 -1.061401e+002 -5.808863e+001 -1.074916e+002 -9.377231e-002 1.370483e+002
516232540.58135 -3.502620e-001 1.756271e+002 -5.740517e+001 -1.054367e+002 -5.727147e+001 -1.066653e+002 -9.505668e-002 1.370321e+002
516610041.5251 -3.552834e-001 1.753756e+002 -5.710202e+001 -1.041054e+002 -5.788441e+001 -1.116778e+002 -9.216220e-002 1.370217e+002
516987542.46886 -3.602085e-001 1.751895e+002 -5.734586e+001 -1.052596e+002 -5.758171e+001 -1.099252e+002 -9.285074e-002 1.369736e+002
517365043.41261 -3.635748e-001 1.749208e+002 -5.727638e+001 -1.066079e+002 -5.788720e+001 -1.080638e+002 -9.132577e-002 1.369520e+002
517742544.35636 -3.658819e-001 1.746402e+002 -5.680509e+001 -1.043772e+002 -5.718411e+001 -1.099454e+002 -9.153525e-002 1.369438e+002
518120045.30011 -3.751598e-001 1.744989e+002 -5.685492e+001 -1.071076e+002 -5.754316e+001 -1.116381e+002 -9.085816e-002 1.369056e+002
518497546.24387 -3.743519e-001 1.741965e+002 -5.713622e+001 -1.095641e+002 -5.719460e+001 -1.123410e+002 -9.271639e-002 1.368954e+002
518875047.18762 -3.789372e-001 1.740085e+002 -5.671889e+001 -1.090951e+002 -5.699201e+001 -1.154055e+002 -9.392186e-002 1.368703e+002
519252548.13137 -3.863170e-001 1.737770e+002 -5.638158e+001 -1.057301e+002 -5.743359e+001 -1.137810e+002 -9.058676e-002 1.368468e+002
519630049.07512 -3.931251e-001 1.735913e+002 -5.630824e+001 -1.109229e+002 -5.718682e+001 -1.145540e+002 -9.224852e-002 1.368144e+002
520007550.01888 -3.979032e-001 1.733132e+002 -5.649457e+001 -1.117613e+002 -5.724740e+001 -1.140949e+002 -9.216645e-002 1.367799e+002
520385050.96263 -4.030348e-001 1.730853e+002 -5.638559e+001 -1.128476e+002 -5.680025e+001 -1.131113e+002 -9.522901e-002 1.367612e+002
520762551.90638 -4.094260e-001 1.729259e+002 -5.601806e+001 -1.136574e+002 -5.673019e+001 -1.137445e+002 -9.002357e-002 1.367464e+002
521140052.85013 -4.129398e-001 1.725954e+002 -5.606146e+001 -1.134823e+002 -5.641802e+001 -1.152030e+002 -9.295201e-002 1.367021e+002
521517553.79388 -4.194498e-001 1.724496e+002 -5.600939e+001 -1.152638e+002 -5.627438e+001 -1.169460e+002 -9.274905e-002 1.366919e+002
521895054.73764 -4.240674e-001 1.721646e+002 -5.589975e+001 -1.180402e+002 -5.650064e+001 -1.174364e+002 -9.224082e-002 1.366623e+002
522272555.68139 -4.312580e-001 1.719829e+002 -5.559467e+001 -1.182136e+002 -5.614136e+001 -1.161165e+002 -9.059503e-002 1.366151e+002
522650056.62514 -4.351523e-001 1.717514e+002 -5.561816e+001 -1.197386e+002 -5.600516e+001 -1.201582e+002 -9.060871e-002 1.365414e+002
523027557.56889 -4.365705e-001 1.715012e+002 -5.545457e+001 -1.203461e+002 -5.593051e+001 -1.195376e+002 -9.662256e-002 1.365598e+002
523405058.51265 -4.451041e-001 1.713023e+002 -5.571092e+001 -1.220774e+002 -5.591003e+001 -1.208168e+002 -9.543874e-002 1.365217e+002
523782559.4564 -4.520026e-001 1.710345e+002 -5.553343e+001 -1.231148e+002 -5.545448e+001 -1.224289e+002 -9.674121e-002 1.365016e+002
524160060.40015 -4.552355e-001 1.707736e+002 -5.580877e+001 -1.207035e+002 -5.599003e+001 -1.235213e+002 -1.011732e-001 1.364399e+002
524537561.3439 -4.603825e-001 1.706303e+002 -5.549739e+001 -1.227619e+002 -5.589158e+001 -1.260051e+002 -9.853982e-002 1.363872e+002
524915062.28766 -4.657162e-001 1.703102e+002 -5.542808e+001 -1.226476e+002 -5.613801e+001 -1.251593e+002 -9.824473e-002 1.363156e+002
525292563.23141 -4.703448e-001 1.701188e+002 -5.545393e+001 -1.260264e+002 -5.559425e+001 -1.257112e+002 -1.013857e-001 1.362924e+002
525670064.17516 -4.761662e-001 1.698643e+002 -5.587936e+001 -1.279268e+002 -5.555629e+001 -1.268324e+002 -9.782266e-002 1.362394e+002
526047565.11891 -4.829497e-001 1.696333e+002 -5.565152e+001 -1.255216e+002 -5.613595e+001 -1.269083e+002 -9.882827e-002 1.361874e+002
526425066.06267 -4.918204e-001 1.693930e+002 -5.530747e+001 -1.280068e+002 -5.567405e+001 -1.287844e+002 -1.011864e-001 1.361166e+002
526802567.00642 -5.007358e-001 1.692099e+002 -5.559203e+001 -1.283342e+002 -5.510953e+001 -1.299428e+002 -1.030219e-001 1.360805e+002
527180067.95017 -5.067506e-001 1.689925e+002 -5.531215e+001 -1.305117e+002 -5.501554e+001 -1.308041e+002 -1.032017e-001 1.359960e+002
527557568.89392 -5.123169e-001 1.686870e+002 -5.515333e+001 -1.345981e+002 -5.511775e+001 -1.314921e+002 -1.049139e-001 1.359613e+002
527935069.83767 -5.210068e-001 1.685760e+002 -5.537274e+001 -1.302021e+002 -5.497771e+001 -1.304296e+002 -1.059632e-001 1.358760e+002
528312570.78143 -5.255186e-001 1.682820e+002 -5.521141e+001 -1.287460e+002 -5.484366e+001 -1.315104e+002 -1.064576e-001 1.358149e+002
528690071.72518 -5.357072e-001 1.681180e+002 -5.527965e+001 -1.300387e+002 -5.551556e+001 -1.340000e+002 -1.112098e-001 1.357764e+002
529067572.66893 -5.390431e-001 1.678861e+002 -5.492205e+001 -1.348919e+002 -5.527221e+001 -1.355820e+002 -1.077918e-001 1.356870e+002
529445073.61268 -5.480183e-001 1.676276e+002 -5.530932e+001 -1.316967e+002 -5.479470e+001 -1.348000e+002 -1.084675e-001 1.356231e+002
529822574.55644 -5.529696e-001 1.673973e+002 -5.517716e+001 -1.345290e+002 -5.503409e+001 -1.352349e+002 -1.070386e-001 1.355690e+002
530200075.50019 -5.629481e-001 1.671926e+002 -5.494475e+001 -1.327740e+002 -5.453890e+001 -1.356928e+002 -1.106430e-001 1.354939e+002
530577576.44394 -5.670459e-001 1.669162e+002 -5.453903e+001 -1.350469e+002 -5.448589e+001 -1.367135e+002 -1.117132e-001 1.354334e+002
530955077.38769 -5.758889e-001 1.667201e+002 -5.512071e+001 -1.354423e+002 -5.462720e+001 -1.383431e+002 -1.127187e-001 1.353780e+002
531332578.33145 -5.863414e-001 1.665255e+002 -5.458139e+001 -1.348898e+002 -5.474671e+001 -1.380791e+002 -1.161579e-001 1.352926e+002
531710079.2752 -5.921120e-001 1.662772e+002 -5.450596e+001 -1.378568e+002 -5.462953e+001 -1.395357e+002 -1.113509e-001 1.352285e+002
532087580.21895 -6.041663e-001 1.660553e+002 -5.454384e+001 -1.348539e+002 -5.419291e+001 -1.409748e+002 -1.136631e-001 1.351703e+002
532465081.1627 -6.106528e-001 1.658344e+002 -5.438472e+001 -1.363748e+002 -5.446389e+001 -1.388214e+002 -1.132381e-001 1.351300e+002
532842582.10646 -6.163197e-001 1.656087e+002 -5.441800e+001 -1.389763e+002 -5.445486e+001 -1.426115e+002 -1.107543e-001 1.350476e+002
533220083.05021 -6.282467e-001 1.653693e+002 -5.444961e+001 -1.393270e+002 -5.461684e+001 -1.433374e+002 -1.141315e-001 1.350132e+002
533597583.99396 -6.324348e-001 1.651571e+002 -5.399535e+001 -1.401575e+002 -5.440362e+001 -1.429026e+002 -1.152288e-001 1.349603e+002
533975084.93771 -6.490922e-001 1.649352e+002 -5.382758e+001 -1.409031e+002 -5.414237e+001 -1.431942e+002 -1.136814e-001 1.348926e+002
534352585.88146 -6.518486e-001 1.646736e+002 -5.371287e+001 -1.413477e+002 -5.415221e+001 -1.439972e+002 -1.115647e-001 1.348406e+002
534730086.82522 -6.606297e-001 1.644555e+002 -5.399751e+001 -1.408502e+002 -5.402946e+001 -1.461558e+002 -1.102697e-001 1.348291e+002
535107587.76897 -6.681511e-001 1.642997e+002 -5.361832e+001 -1.435092e+002 -5.386509e+001 -1.473289e+002 -1.151172e-001 1.347176e+002
535485088.71272 -6.815963e-001 1.640791e+002 -5.341167e+001 -1.434641e+002 -5.383452e+001 -1.469708e+002 -1.112115e-001 1.346931e+002
535862589.65647 -6.882273e-001 1.638660e+002 -5.321875e+001 -1.441309e+002 -5.360142e+001 -1.487497e+002 -1.110326e-001 1.346674e+002
536240090.60023 -6.912466e-001 1.635957e+002 -5.384150e+001 -1.455397e+002 -5.388812e+001 -1.497677e+002 -1.088006e-001 1.345828e+002
536617591.54398 -6.990888e-001 1.634268e+002 -5.349767e+001 -1.465204e+002 -5.368761e+001 -1.503564e+002 -1.102924e-001 1.345944e+002
536995092.48773 -7.058942e-001 1.632224e+002 -5.351838e+001 -1.459650e+002 -5.349026e+001 -1.526119e+002 -1.115345e-001 1.345366e+002
537372593.43148 -7.161558e-001 1.630074e+002 -5.328646e+001 -1.491474e+002 -5.352899e+001 -1.527967e+002 -1.098657e-001 1.345054e+002
537750094.37524 -7.228065e-001 1.627333e+002 -5.340693e+001 -1.474119e+002 -5.336385e+001 -1.538671e+002 -1.077686e-001 1.344931e+002
538127595.31899 -7.309452e-001 1.625664e+002 -5.336592e+001 -1.506849e+002 -5.336401e+001 -1.562335e+002 -1.111739e-001 1.344351e+002
538505096.26274 -7.371680e-001 1.623456e+002 -5.306908e+001 -1.532883e+002 -5.364700e+001 -1.554061e+002 -1.132880e-001 1.343851e+002
538882597.20649 -7.471267e-001 1.621187e+002 -5.328819e+001 -1.518701e+002 -5.324586e+001 -1.560455e+002 -1.101042e-001 1.343197e+002
539260098.15025 -7.561970e-001 1.619335e+002 -5.305108e+001 -1.523312e+002 -5.337962e+001 -1.593598e+002 -1.073952e-001 1.343361e+002
539637599.094 -7.616429e-001 1.617103e+002 -5.302966e+001 -1.533691e+002 -5.319528e+001 -1.578308e+002 -1.077131e-001 1.343018e+002
540015100.03775 -7.681820e-001 1.615329e+002 -5.282233e+001 -1.541500e+002 -5.322412e+001 -1.597619e+002 -1.106055e-001 1.343068e+002
540392600.9815 -7.817018e-001 1.612933e+002 -5.301311e+001 -1.561832e+002 -5.310554e+001 -1.604951e+002 -1.114325e-001 1.342313e+002
540770101.92525 -7.909657e-001 1.610585e+002 -5.305898e+001 -1.569380e+002 -5.329811e+001 -1.610305e+002 -1.105723e-001 1.342151e+002
541147602.86901 -7.942396e-001 1.609318e+002 -5.311765e+001 -1.560046e+002 -5.314782e+001 -1.620278e+002 -1.088676e-001 1.341850e+002
541525103.81276 -7.986264e-001 1.606205e+002 -5.268161e+001 -1.579097e+002 -5.303335e+001 -1.636189e+002 -1.099622e-001 1.341381e+002
541902604.75651 -8.119289e-001 1.604698e+002 -5.269474e+001 -1.598293e+002 -5.291194e+001 -1.639698e+002 -1.090437e-001 1.341167e+002
542280105.70026 -8.192088e-001 1.602703e+002 -5.286483e+001 -1.601832e+002 -5.330803e+001 -1.660710e+002 -1.085771e-001 1.340673e+002
542657606.64402 -8.203818e-001 1.600773e+002 -5.301749e+001 -1.597839e+002 -5.322559e+001 -1.671743e+002 -1.086224e-001 1.340469e+002
543035107.58777 -8.310080e-001 1.598948e+002 -5.276758e+001 -1.608120e+002 -5.278085e+001 -1.674280e+002 -1.114892e-001 1.340105e+002
543412608.53152 -8.373644e-001 1.596856e+002 -5.251936e+001 -1.629023e+002 -5.337051e+001 -1.692995e+002 -1.128607e-001 1.339615e+002
543790109.47527 -8.398368e-001 1.594630e+002 -5.267195e+001 -1.623282e+002 -5.304403e+001 -1.689003e+002 -1.116439e-001 1.339267e+002
544167610.41903 -8.462974e-001 1.592973e+002 -5.278001e+001 -1.638929e+002 -5.292591e+001 -1.699004e+002 -1.141735e-001 1.339164e+002
544545111.36278 -8.486835e-001 1.590773e+002 -5.255302e+001 -1.656453e+002 -5.301556e+001 -1.693029e+002 -1.079681e-001 1.338609e+002
544922612.30653 -8.544044e-001 1.588576e+002 -5.247376e+001 -1.662998e+002 -5.289412e+001 -1.707436e+002 -1.093740e-001 1.338271e+002
545300113.25028 -8.583757e-001 1.586875e+002 -5.242411e+001 -1.653542e+002 -5.302631e+001 -1.731599e+002 -1.107289e-001 1.338143e+002
545677614.19404 -8.637231e-001 1.584886e+002 -5.262338e+001 -1.676725e+002 -5.296800e+001 -1.712901e+002 -1.131362e-001 1.337533e+002
546055115.13779 -8.676478e-001 1.582460e+002 -5.239887e+001 -1.691172e+002 -5.307753e+001 -1.739177e+002 -1.172864e-001 1.337124e+002
546432616.08154 -8.707167e-001 1.579927e+002 -5.235628e+001 -1.680764e+002 -5.301960e+001 -1.743415e+002 -1.168573e-001 1.336227e+002
546810117.02529 -8.745342e-001 1.578125e+002 -5.229409e+001 -1.689427e+002 -5.289786e+001 -1.765842e+002 -1.201894e-001 1.336268e+002
547187617.96904 -8.788509e-001 1.575580e+002 -5.231950e+001 -1.719231e+002 -5.314321e+001 -1.754900e+002 -1.190919e-001 1.335893e+002
547565118.9128 -8.888271e-001 1.573567e+002 -5.240708e+001 -1.699675e+002 -5.284304e+001 -1.764858e+002 -1.237691e-001 1.335299e+002
547942619.85655 -8.931405e-001 1.571395e+002 -5.227045e+001 -1.733746e+002 -5.271187e+001 -1.764294e+002 -1.235306e-001 1.334993e+002
548320120.8003 -9.005474e-001 1.569042e+002 -5.240177e+001 -1.728092e+002 -5.284633e+001 -1.774835e+002 -1.224337e-001 1.334461e+002
548697621.74405 -9.093229e-001 1.566663e+002 -5.227483e+001 -1.755608e+002 -5.284130e+001 -1.767940e+002 -1.243789e-001 1.334026e+002
549075122.68781 -9.149505e-001 1.564953e+002 -5.224667e+001 -1.748820e+002 -5.288759e+001 -1.784122e+002 -1.261900e-001 1.333914e+002
549452623.63156 -9.205756e-001 1.562791e+002 -5.224175e+001 -1.764447e+002 -5.280231e+001 -1.792557e+002 -1.294975e-001 1.333056e+002
549830124.57531 -9.266029e-001 1.560606e+002 -5.225303e+001 -1.769067e+002 -5.295381e+001 -1.789337e+002 -1.307584e-001 1.332637e+002
550207625.51906 -9.293305e-001 1.558417e+002 -5.192686e+001 -1.778980e+002 -5.262133e+001 -1.796609e+002 -1.294430e-001 1.331968e+002
550585126.46282 -9.364259e-001 1.556293e+002 -5.178335e+001 -1.783909e+002 -5.285618e+001 1.794894e+002 -1.328026e-001 1.331588e+002
550962627.40657 -9.399141e-001 1.553599e+002 -5.201329e+001 -1.787840e+002 -5.283863e+001 1.783654e+002 -1.332810e-001 1.330994e+002
551340128.35032 -9.418021e-001 1.551923e+002 -5.223186e+001 1.791888e+002 -5.240489e+001 1.770828e+002 -1.314643e-001 1.330570e+002
551717629.29407 -9.484472e-001 1.549425e+002 -5.234216e+001 1.798350e+002 -5.263530e+001 1.769709e+002 -1.316450e-001 1.330027e+002
552095130.23783 -9.532908e-001 1.546940e+002 -5.218845e+001 1.784538e+002 -5.266628e+001 1.757301e+002 -1.305604e-001 1.329467e+002
552472631.18158 -9.512490e-001 1.544946e+002 -5.216658e+001 1.770762e+002 -5.251475e+001 1.745116e+002 -1.330104e-001 1.328803e+002
552850132.12533 -9.590718e-001 1.542722e+002 -5.196827e+001 1.784576e+002 -5.290691e+001 1.733770e+002 -1.324369e-001 1.328284e+002
553227633.06908 -9.635718e-001 1.540341e+002 -5.189540e+001 1.774770e+002 -5.247349e+001 1.743645e+002 -1.336532e-001 1.327556e+002
553605134.01284 -9.679182e-001 1.537860e+002 -5.210350e+001 1.759699e+002 -5.250827e+001 1.733038e+002 -1.389513e-001 1.326985e+002
553982634.95659 -9.726980e-001 1.535725e+002 -5.194917e+001 1.769101e+002 -5.266566e+001 1.731035e+002 -1.372830e-001 1.326251e+002
554360135.90034 -9.774266e-001 1.532355e+002 -5.206427e+001 1.748261e+002 -5.243109e+001 1.711659e+002 -1.354594e-001 1.325748e+002
554737636.84409 -9.874920e-001 1.530264e+002 -5.215612e+001 1.756020e+002 -5.264674e+001 1.722186e+002 -1.386054e-001 1.325334e+002
555115137.78784 -9.951387e-001 1.527930e+002 -5.220794e+001 1.744881e+002 -5.250981e+001 1.707957e+002 -1.372933e-001 1.324619e+002
