!Agilent Technologies,E8364B,US42250235,A.06.04.32
!Agilent E8364B: A.06.04.32
!Date: Thursday, October 01, 2020 14:04:17
!Correction: S11(Full 2 Port(1,2)) S21(Full 2 Port(1,2)) S12(Full 2 Port(1,2)) S22(Full 2 Port(1,2)) 
!S2P File: Measurements: S11, S21, S12, S22:
# Hz S  dB   R 50
500000000 -2.531428e-001 -1.753401e+002 -6.162001e+001 -1.437623e+002 -6.106197e+001 -1.438885e+002 -1.048035e-001 1.389602e+002
500377500.94375 -2.559415e-001 -1.754428e+002 -6.145620e+001 -1.412771e+002 -6.207284e+001 -1.403816e+002 -1.030401e-001 1.389128e+002
500755001.8875 -2.557615e-001 -1.757072e+002 -6.159183e+001 -1.403494e+002 -6.057227e+001 -1.466416e+002 -1.046785e-001 1.388986e+002
501132502.83126 -2.576555e-001 -1.758835e+002 -6.093085e+001 -1.443463e+002 -6.155732e+001 -1.424383e+002 -1.024507e-001 1.388352e+002
501510003.77501 -2.662593e-001 -1.760280e+002 -6.077465e+001 -1.479467e+002 -6.161755e+001 -1.442091e+002 -1.081840e-001 1.387306e+002
501887504.71876 -2.646407e-001 -1.763389e+002 -6.081836e+001 -1.490108e+002 -6.111953e+001 -1.483161e+002 -1.027306e-001 1.387288e+002
502265005.66251 -2.721230e-001 -1.764834e+002 -6.151421e+001 -1.493359e+002 -6.069272e+001 -1.454948e+002 -1.038939e-001 1.386968e+002
502642506.60627 -2.714478e-001 -1.767369e+002 -6.047223e+001 -1.515687e+002 -6.128348e+001 -1.461689e+002 -1.042075e-001 1.386927e+002
503020007.55002 -2.819906e-001 -1.768730e+002 -6.090598e+001 -1.489757e+002 -6.170342e+001 -1.463041e+002 -1.042275e-001 1.385893e+002
503397508.49377 -2.863986e-001 -1.770505e+002 -6.138690e+001 -1.550124e+002 -6.081519e+001 -1.473490e+002 -1.041112e-001 1.385757e+002
503775009.43752 -2.895964e-001 -1.772796e+002 -6.142440e+001 -1.519047e+002 -6.060420e+001 -1.499263e+002 -1.025423e-001 1.385128e+002
504152510.38128 -2.891183e-001 -1.775180e+002 -6.061277e+001 -1.499201e+002 -6.077601e+001 -1.528212e+002 -1.036642e-001 1.384516e+002
504530011.32503 -2.946539e-001 -1.776492e+002 -6.069519e+001 -1.563062e+002 -6.071304e+001 -1.498097e+002 -1.019562e-001 1.384210e+002
504907512.26878 -2.989511e-001 -1.778918e+002 -6.010014e+001 -1.598086e+002 -6.133900e+001 -1.530259e+002 -1.019181e-001 1.383790e+002
505285013.21253 -2.982353e-001 -1.781106e+002 -6.062032e+001 -1.524308e+002 -6.121940e+001 -1.458542e+002 -1.007384e-001 1.383120e+002
505662514.15629 -3.011595e-001 -1.782826e+002 -6.071249e+001 -1.571031e+002 -6.014740e+001 -1.534457e+002 -1.056270e-001 1.382840e+002
506040015.10004 -3.029431e-001 -1.784880e+002 -5.988297e+001 -1.565457e+002 -6.057944e+001 -1.506393e+002 -9.897576e-002 1.382498e+002
506417516.04379 -3.084360e-001 -1.786691e+002 -5.973189e+001 -1.578775e+002 -6.032431e+001 -1.543682e+002 -1.028539e-001 1.381730e+002
506795016.98754 -3.143969e-001 -1.788242e+002 -5.949023e+001 -1.592405e+002 -6.056688e+001 -1.549556e+002 -9.915010e-002 1.381286e+002
507172517.93129 -3.140864e-001 -1.791024e+002 -6.013770e+001 -1.554595e+002 -5.992468e+001 -1.534588e+002 -1.039966e-001 1.380788e+002
507550018.87505 -3.175982e-001 -1.792759e+002 -5.971173e+001 -1.571269e+002 -5.996984e+001 -1.546584e+002 -1.038702e-001 1.380445e+002
507927519.8188 -3.213329e-001 -1.794936e+002 -5.965087e+001 -1.552597e+002 -6.016056e+001 -1.524558e+002 -9.905591e-002 1.379823e+002
508305020.76255 -3.243918e-001 -1.796259e+002 -6.008213e+001 -1.584930e+002 -5.882670e+001 -1.569538e+002 -1.006720e-001 1.379589e+002
508682521.7063 -3.250192e-001 -1.798285e+002 -5.932662e+001 -1.638972e+002 -5.972369e+001 -1.606468e+002 -9.762707e-002 1.379381e+002
509060022.65006 -3.255826e-001 1.799145e+002 -5.931007e+001 -1.630776e+002 -6.002310e+001 -1.597350e+002 -1.006009e-001 1.378527e+002
509437523.59381 -3.284304e-001 1.797074e+002 -5.947897e+001 -1.699403e+002 -5.949193e+001 -1.587506e+002 -1.033385e-001 1.378136e+002
509815024.53756 -3.301297e-001 1.795151e+002 -5.965283e+001 -1.659555e+002 -5.986980e+001 -1.578267e+002 -9.907211e-002 1.377620e+002
510192525.48131 -3.352102e-001 1.793293e+002 -5.982307e+001 -1.654804e+002 -5.886515e+001 -1.622095e+002 -9.698943e-002 1.377100e+002
510570026.42507 -3.357981e-001 1.791987e+002 -5.986182e+001 -1.672215e+002 -5.954158e+001 -1.649450e+002 -1.004691e-001 1.376739e+002
510947527.36882 -3.365766e-001 1.789479e+002 -6.007224e+001 -1.721391e+002 -5.933113e+001 -1.642808e+002 -1.007620e-001 1.375978e+002
511325028.31257 -3.379065e-001 1.787483e+002 -5.931202e+001 -1.666415e+002 -5.907172e+001 -1.624480e+002 -9.863288e-002 1.375708e+002
511702529.25632 -3.398704e-001 1.785134e+002 -5.934994e+001 -1.692911e+002 -5.948797e+001 -1.666303e+002 -9.967937e-002 1.375121e+002
512080030.20008 -3.403349e-001 1.783799e+002 -5.971177e+001 -1.726811e+002 -5.932442e+001 -1.658872e+002 -9.946860e-002 1.374861e+002
512457531.14383 -3.438922e-001 1.781118e+002 -5.921832e+001 -1.696429e+002 -5.901303e+001 -1.697006e+002 -9.983264e-002 1.374551e+002
512835032.08758 -3.461877e-001 1.778850e+002 -5.950721e+001 -1.742214e+002 -5.943000e+001 -1.675816e+002 -9.729274e-002 1.373687e+002
513212533.03133 -3.474535e-001 1.776974e+002 -5.930677e+001 -1.719576e+002 -5.894131e+001 -1.687125e+002 -9.939532e-002 1.373374e+002
513590033.97508 -3.503964e-001 1.775293e+002 -5.919373e+001 -1.741223e+002 -5.883536e+001 -1.683596e+002 -1.001520e-001 1.373229e+002
513967534.91884 -3.518658e-001 1.772684e+002 -5.928642e+001 -1.717737e+002 -5.877731e+001 -1.701207e+002 -9.857681e-002 1.372664e+002
514345035.86259 -3.536129e-001 1.770253e+002 -5.905074e+001 -1.711262e+002 -5.927504e+001 -1.702859e+002 -9.857080e-002 1.372487e+002
514722536.80634 -3.586072e-001 1.768262e+002 -5.947372e+001 -1.769913e+002 -5.944806e+001 -1.697494e+002 -9.924038e-002 1.372265e+002
515100037.75009 -3.608306e-001 1.766784e+002 -5.891755e+001 -1.757950e+002 -5.853037e+001 -1.727449e+002 -9.942792e-002 1.371741e+002
515477538.69385 -3.644222e-001 1.764447e+002 -5.893403e+001 -1.760745e+002 -5.869305e+001 -1.701657e+002 -9.871268e-002 1.371412e+002
515855039.6376 -3.671985e-001 1.762185e+002 -5.871888e+001 -1.751280e+002 -5.897199e+001 -1.729279e+002 -9.807638e-002 1.371024e+002
516232540.58135 -3.714788e-001 1.760081e+002 -5.880948e+001 -1.758863e+002 -5.885908e+001 -1.737069e+002 -9.978188e-002 1.370781e+002
516610041.5251 -3.727376e-001 1.758099e+002 -5.903703e+001 -1.791045e+002 -5.895510e+001 -1.732109e+002 -9.698936e-002 1.370620e+002
516987542.46886 -3.812067e-001 1.755615e+002 -5.835146e+001 -1.738923e+002 -5.899448e+001 -1.755411e+002 -9.768999e-002 1.370260e+002
517365043.41261 -3.845833e-001 1.753811e+002 -5.862954e+001 -1.785577e+002 -5.859895e+001 -1.764402e+002 -9.587102e-002 1.370237e+002
517742544.35636 -3.861299e-001 1.751480e+002 -5.872155e+001 1.766864e+002 -5.850309e+001 -1.779321e+002 -9.833984e-002 1.370053e+002
518120045.30011 -3.887774e-001 1.749170e+002 -5.878820e+001 -1.798858e+002 -5.851258e+001 -1.791463e+002 -9.663744e-002 1.369720e+002
518497546.24387 -3.926516e-001 1.747171e+002 -5.842451e+001 -1.797104e+002 -5.871843e+001 1.796893e+002 -9.507316e-002 1.369550e+002
518875047.18762 -3.951735e-001 1.744823e+002 -5.818732e+001 1.757959e+002 -5.832171e+001 1.785131e+002 -9.460715e-002 1.369380e+002
519252548.13137 -4.007239e-001 1.742720e+002 -5.849683e+001 1.771165e+002 -5.842542e+001 -1.794007e+002 -9.427557e-002 1.369144e+002
519630049.07512 -4.045532e-001 1.740592e+002 -5.784626e+001 1.742900e+002 -5.810463e+001 1.782528e+002 -9.782737e-002 1.368877e+002
520007550.01888 -4.096341e-001 1.738261e+002 -5.800754e+001 1.738355e+002 -5.819337e+001 1.780249e+002 -9.295867e-002 1.368443e+002
520385050.96263 -4.107004e-001 1.736134e+002 -5.804205e+001 1.766858e+002 -5.825683e+001 1.794940e+002 -9.714073e-002 1.368330e+002
520762551.90638 -4.169005e-001 1.734210e+002 -5.822617e+001 1.698353e+002 -5.839974e+001 1.796932e+002 -9.351902e-002 1.368317e+002
521140052.85013 -4.181466e-001 1.731776e+002 -5.791728e+001 1.735268e+002 -5.833168e+001 -1.788381e+002 -9.242187e-002 1.367649e+002
521517553.79388 -4.206198e-001 1.730009e+002 -5.758494e+001 1.728698e+002 -5.783879e+001 1.755771e+002 -9.410392e-002 1.367607e+002
521895054.73764 -4.238338e-001 1.727342e+002 -5.740455e+001 1.716044e+002 -5.811635e+001 1.757063e+002 -9.179132e-002 1.367423e+002
522272555.68139 -4.294963e-001 1.725312e+002 -5.740268e+001 1.668360e+002 -5.791852e+001 1.742987e+002 -9.056284e-002 1.366958e+002
522650056.62514 -4.298370e-001 1.722980e+002 -5.741025e+001 1.680439e+002 -5.787494e+001 1.735767e+002 -8.857839e-002 1.366362e+002
523027557.56889 -4.322073e-001 1.720939e+002 -5.727749e+001 1.673848e+002 -5.750657e+001 1.730422e+002 -9.491009e-002 1.366377e+002
523405058.51265 -4.342983e-001 1.718683e+002 -5.756196e+001 1.656561e+002 -5.722620e+001 1.736529e+002 -9.446393e-002 1.366214e+002
523782559.4564 -4.380921e-001 1.716372e+002 -5.766240e+001 1.665378e+002 -5.762762e+001 1.717846e+002 -9.791162e-002 1.365849e+002
524160060.40015 -4.390123e-001 1.713928e+002 -5.764589e+001 1.656438e+002 -5.768241e+001 1.751449e+002 -9.985282e-002 1.365407e+002
524537561.3439 -4.424011e-001 1.712444e+002 -5.788653e+001 1.613604e+002 -5.764545e+001 1.707102e+002 -9.592842e-002 1.364981e+002
524915062.28766 -4.443763e-001 1.709353e+002 -5.693258e+001 1.614673e+002 -5.748956e+001 1.683215e+002 -9.795861e-002 1.364283e+002
525292563.23141 -4.506153e-001 1.707453e+002 -5.738993e+001 1.602990e+002 -5.754237e+001 1.683599e+002 -9.899804e-002 1.363913e+002
525670064.17516 -4.523074e-001 1.705005e+002 -5.795878e+001 1.608058e+002 -5.727843e+001 1.679351e+002 -9.853532e-002 1.363463e+002
526047565.11891 -4.564661e-001 1.702765e+002 -5.677858e+001 1.615873e+002 -5.751670e+001 1.671241e+002 -9.722117e-002 1.362923e+002
526425066.06267 -4.593788e-001 1.700323e+002 -5.736787e+001 1.580375e+002 -5.750047e+001 1.677298e+002 -1.004785e-001 1.362308e+002
526802567.00642 -4.661335e-001 1.698899e+002 -5.733215e+001 1.590111e+002 -5.741982e+001 1.625236e+002 -1.018358e-001 1.361995e+002
527180067.95017 -4.694830e-001 1.696443e+002 -5.696770e+001 1.602411e+002 -5.719012e+001 1.647341e+002 -9.931359e-002 1.361318e+002
527557568.89392 -4.704219e-001 1.693345e+002 -5.757307e+001 1.555153e+002 -5.734834e+001 1.650818e+002 -1.051326e-001 1.360646e+002
527935069.83767 -4.759146e-001 1.692233e+002 -5.720707e+001 1.571324e+002 -5.705824e+001 1.628056e+002 -1.003156e-001 1.359975e+002
528312570.78143 -4.786411e-001 1.689786e+002 -5.749232e+001 1.524513e+002 -5.708249e+001 1.613897e+002 -1.004833e-001 1.359339e+002
528690071.72518 -4.794276e-001 1.687191e+002 -5.746006e+001 1.552860e+002 -5.731620e+001 1.615996e+002 -1.032315e-001 1.358718e+002
529067572.66893 -4.875298e-001 1.684731e+002 -5.712598e+001 1.561927e+002 -5.760641e+001 1.609718e+002 -1.018970e-001 1.358145e+002
529445073.61268 -4.899962e-001 1.682047e+002 -5.722351e+001 1.561735e+002 -5.682581e+001 1.616111e+002 -1.037912e-001 1.357513e+002
529822574.55644 -4.971722e-001 1.679851e+002 -5.720243e+001 1.535697e+002 -5.690704e+001 1.613001e+002 -1.040040e-001 1.357009e+002
530200075.50019 -5.018631e-001 1.678251e+002 -5.686923e+001 1.527937e+002 -5.718574e+001 1.593253e+002 -1.057831e-001 1.356109e+002
530577576.44394 -5.054810e-001 1.675782e+002 -5.671432e+001 1.529437e+002 -5.683123e+001 1.593303e+002 -1.068099e-001 1.355650e+002
530955077.38769 -5.123188e-001 1.673327e+002 -5.710541e+001 1.549795e+002 -5.632015e+001 1.609911e+002 -1.087645e-001 1.354952e+002
531332578.33145 -5.176143e-001 1.671450e+002 -5.677658e+001 1.551637e+002 -5.655159e+001 1.574731e+002 -1.064365e-001 1.354320e+002
531710079.2752 -5.254128e-001 1.668950e+002 -5.696476e+001 1.513688e+002 -5.620446e+001 1.573831e+002 -1.047891e-001 1.353686e+002
532087580.21895 -5.292324e-001 1.667337e+002 -5.705585e+001 1.525680e+002 -5.673402e+001 1.553165e+002 -1.083692e-001 1.353342e+002
532465081.1627 -5.325522e-001 1.664261e+002 -5.673239e+001 1.493817e+002 -5.639489e+001 1.563909e+002 -1.047985e-001 1.352661e+002
532842582.10646 -5.357754e-001 1.662257e+002 -5.637210e+001 1.492754e+002 -5.670110e+001 1.577704e+002 -1.037057e-001 1.352029e+002
533220083.05021 -5.425885e-001 1.660311e+002 -5.707515e+001 1.476619e+002 -5.620687e+001 1.531545e+002 -1.088455e-001 1.351447e+002
533597583.99396 -5.424635e-001 1.657471e+002 -5.663622e+001 1.472368e+002 -5.654885e+001 1.494815e+002 -1.084482e-001 1.351039e+002
533975084.93771 -5.547053e-001 1.655556e+002 -5.623686e+001 1.481175e+002 -5.614068e+001 1.526494e+002 -1.059862e-001 1.350383e+002
534352585.88146 -5.562726e-001 1.653302e+002 -5.662764e+001 1.454803e+002 -5.635147e+001 1.513059e+002 -1.040017e-001 1.350063e+002
534730086.82522 -5.592011e-001 1.650574e+002 -5.643933e+001 1.445541e+002 -5.612349e+001 1.501140e+002 -1.042009e-001 1.349106e+002
535107587.76897 -5.628570e-001 1.649277e+002 -5.639558e+001 1.449965e+002 -5.613597e+001 1.481677e+002 -1.079077e-001 1.349132e+002
535485088.71272 -5.677244e-001 1.646685e+002 -5.632346e+001 1.439049e+002 -5.600953e+001 1.481077e+002 -1.031643e-001 1.348452e+002
535862589.65647 -5.721699e-001 1.644459e+002 -5.570118e+001 1.395285e+002 -5.618044e+001 1.489372e+002 -1.032592e-001 1.348234e+002
536240090.60023 -5.739107e-001 1.641971e+002 -5.592697e+001 1.416821e+002 -5.561303e+001 1.486916e+002 -1.032245e-001 1.348020e+002
536617591.54398 -5.778453e-001 1.639840e+002 -5.612141e+001 1.406961e+002 -5.594255e+001 1.443964e+002 -1.032864e-001 1.347502e+002
536995092.48773 -5.836901e-001 1.637905e+002 -5.635229e+001 1.378843e+002 -5.606567e+001 1.450638e+002 -1.051586e-001 1.347073e+002
537372593.43148 -5.865273e-001 1.635345e+002 -5.620561e+001 1.384748e+002 -5.580536e+001 1.423369e+002 -9.974998e-002 1.346731e+002
537750094.37524 -5.909588e-001 1.632747e+002 -5.564111e+001 1.366631e+002 -5.573867e+001 1.420086e+002 -1.004676e-001 1.346538e+002
538127595.31899 -5.958451e-001 1.630645e+002 -5.583527e+001 1.402225e+002 -5.564830e+001 1.415104e+002 -1.014729e-001 1.346084e+002
538505096.26274 -5.967630e-001 1.627538e+002 -5.605553e+001 1.361563e+002 -5.577759e+001 1.422466e+002 -1.016780e-001 1.345608e+002
538882597.20649 -6.065577e-001 1.625822e+002 -5.552501e+001 1.355884e+002 -5.536688e+001 1.413676e+002 -9.912788e-002 1.345060e+002
539260098.15025 -6.088529e-001 1.623820e+002 -5.587283e+001 1.342338e+002 -5.574724e+001 1.381082e+002 -9.837934e-002 1.345050e+002
539637599.094 -6.121897e-001 1.620716e+002 -5.568155e+001 1.357504e+002 -5.550869e+001 1.379285e+002 -9.971331e-002 1.344755e+002
540015100.03775 -6.159819e-001 1.618595e+002 -5.579087e+001 1.348219e+002 -5.580933e+001 1.343537e+002 -1.000849e-001 1.344869e+002
540392600.9815 -6.240891e-001 1.615897e+002 -5.577360e+001 1.328273e+002 -5.547665e+001 1.354243e+002 -9.920942e-002 1.344039e+002
540770101.92525 -6.298901e-001 1.614392e+002 -5.570446e+001 1.329221e+002 -5.609663e+001 1.360153e+002 -9.845958e-002 1.343902e+002
541147602.86901 -6.302672e-001 1.611711e+002 -5.568694e+001 1.319038e+002 -5.509777e+001 1.341207e+002 -9.883405e-002 1.343539e+002
541525103.81276 -6.358197e-001 1.608971e+002 -5.526831e+001 1.296672e+002 -5.594504e+001 1.337894e+002 -9.988236e-002 1.343158e+002
541902604.75651 -6.442401e-001 1.607460e+002 -5.586783e+001 1.258627e+002 -5.587616e+001 1.335731e+002 -9.879304e-002 1.342942e+002
542280105.70026 -6.468567e-001 1.604528e+002 -5.546385e+001 1.284595e+002 -5.549641e+001 1.310492e+002 -9.702360e-002 1.342528e+002
542657606.64402 -6.502813e-001 1.602314e+002 -5.511056e+001 1.282861e+002 -5.555484e+001 1.327757e+002 -9.695226e-002 1.342240e+002
543035107.58777 -6.559515e-001 1.600055e+002 -5.561771e+001 1.238060e+002 -5.570044e+001 1.279324e+002 -9.731656e-002 1.341796e+002
543412608.53152 -6.600344e-001 1.598097e+002 -5.488040e+001 1.243475e+002 -5.580234e+001 1.289568e+002 -1.008364e-001 1.341463e+002
543790109.47527 -6.645433e-001 1.595497e+002 -5.560363e+001 1.252616e+002 -5.587803e+001 1.279181e+002 -9.883274e-002 1.341143e+002
544167610.41903 -6.673340e-001 1.593640e+002 -5.573164e+001 1.216506e+002 -5.557265e+001 1.262261e+002 -9.923014e-002 1.340556e+002
544545111.36278 -6.674086e-001 1.590822e+002 -5.575118e+001 1.247455e+002 -5.570663e+001 1.270918e+002 -9.923347e-002 1.340572e+002
544922612.30653 -6.686872e-001 1.588569e+002 -5.555666e+001 1.211337e+002 -5.571615e+001 1.258806e+002 -1.003041e-001 1.340268e+002
545300113.25028 -6.701730e-001 1.586507e+002 -5.600387e+001 1.210655e+002 -5.613641e+001 1.273821e+002 -1.011138e-001 1.340173e+002
545677614.19404 -6.758267e-001 1.584150e+002 -5.571915e+001 1.214046e+002 -5.552120e+001 1.256852e+002 -1.037028e-001 1.339467e+002
546055115.13779 -6.790283e-001 1.581920e+002 -5.551426e+001 1.206286e+002 -5.546454e+001 1.260502e+002 -1.049797e-001 1.339046e+002
546432616.08154 -6.804065e-001 1.579027e+002 -5.537868e+001 1.197471e+002 -5.584921e+001 1.253299e+002 -1.054091e-001 1.338165e+002
546810117.02529 -6.813248e-001 1.576371e+002 -5.520908e+001 1.200283e+002 -5.579357e+001 1.235519e+002 -1.083243e-001 1.338178e+002
547187617.96904 -6.885959e-001 1.573786e+002 -5.543700e+001 1.179866e+002 -5.569507e+001 1.241201e+002 -1.062834e-001 1.338029e+002
547565118.9128 -6.950116e-001 1.570870e+002 -5.514426e+001 1.173192e+002 -5.550234e+001 1.261579e+002 -1.119003e-001 1.337310e+002
547942619.85655 -6.979451e-001 1.568651e+002 -5.544639e+001 1.165130e+002 -5.546669e+001 1.251607e+002 -1.125489e-001 1.336924e+002
548320120.8003 -7.052040e-001 1.565959e+002 -5.522522e+001 1.171186e+002 -5.549394e+001 1.257731e+002 -1.107777e-001 1.336528e+002
548697621.74405 -7.112599e-001 1.563602e+002 -5.534878e+001 1.179911e+002 -5.557654e+001 1.238140e+002 -1.122927e-001 1.336184e+002
549075122.68781 -7.235268e-001 1.560753e+002 -5.524563e+001 1.174995e+002 -5.505127e+001 1.250457e+002 -1.151780e-001 1.336021e+002
549452623.63156 -7.274721e-001 1.558395e+002 -5.494787e+001 1.182711e+002 -5.588052e+001 1.223534e+002 -1.186973e-001 1.335065e+002
549830124.57531 -7.392908e-001 1.555986e+002 -5.489880e+001 1.159033e+002 -5.549519e+001 1.218681e+002 -1.186389e-001 1.334709e+002
550207625.51906 -7.373608e-001 1.553403e+002 -5.491927e+001 1.156536e+002 -5.493940e+001 1.219727e+002 -1.150157e-001 1.334314e+002
550585126.46282 -7.461900e-001 1.550932e+002 -5.468386e+001 1.119033e+002 -5.508949e+001 1.208482e+002 -1.196230e-001 1.333615e+002
550962627.40657 -7.517449e-001 1.548012e+002 -5.474057e+001 1.121476e+002 -5.508002e+001 1.211614e+002 -1.194955e-001 1.333287e+002
551340128.35032 -7.561462e-001 1.546109e+002 -5.488841e+001 1.123883e+002 -5.495107e+001 1.198121e+002 -1.204055e-001 1.332812e+002
551717629.29407 -7.608714e-001 1.543079e+002 -5.474285e+001 1.113023e+002 -5.496907e+001 1.176395e+002 -1.193276e-001 1.332143e+002
552095130.23783 -7.638077e-001 1.540401e+002 -5.493411e+001 1.098719e+002 -5.504409e+001 1.173009e+002 -1.207823e-001 1.331563e+002
552472631.18158 -7.658295e-001 1.537865e+002 -5.492257e+001 1.106459e+002 -5.518354e+001 1.150918e+002 -1.224596e-001 1.331035e+002
552850132.12533 -7.761527e-001 1.535133e+002 -5.461168e+001 1.108151e+002 -5.481830e+001 1.153593e+002 -1.226186e-001 1.330485e+002
553227633.06908 -7.804176e-001 1.532536e+002 -5.476207e+001 1.074354e+002 -5.465366e+001 1.161478e+002 -1.207864e-001 1.329779e+002
553605134.01284 -7.880247e-001 1.530049e+002 -5.477138e+001 1.067102e+002 -5.508464e+001 1.151106e+002 -1.288055e-001 1.329137e+002
553982634.95659 -7.932460e-001 1.527209e+002 -5.473279e+001 1.079343e+002 -5.493774e+001 1.143905e+002 -1.231312e-001 1.328584e+002
554360135.90034 -7.997580e-001 1.524414e+002 -5.472960e+001 1.071427e+002 -5.465748e+001 1.142818e+002 -1.198514e-001 1.328127e+002
554737636.84409 -8.122669e-001 1.521289e+002 -5.482144e+001 1.058779e+002 -5.486076e+001 1.126573e+002 -1.226893e-001 1.327595e+002
555115137.78784 -8.202807e-001 1.519084e+002 -5.470988e+001 1.064008e+002 -5.462645e+001 1.119655e+002 -1.238828e-001 1.326859e+002
555492638.7316 -8.280997e-001 1.516216e+002 -5.485649e+001 1.044239e+002 -5.472523e+001 1.126023e+002 -1.224482e-001 1.326469e+002
