!Agilent Technologies,E8364B,US42250235,A.06.04.32
!Agilent E8364B: A.06.04.32
!Date: Thursday, October 01, 2020 14:13:29
!Correction: S11(Full 2 Port(1,2)) S21(Full 2 Port(1,2)) S12(Full 2 Port(1,2)) S22(Full 2 Port(1,2)) 
!S2P File: Measurements: S11, S21, S12, S22:
# Hz S  dB   R 50
500000000 -2.275657e-001 -1.753709e+002 -6.354258e+001 8.960931e+001 -6.549328e+001 8.198005e+001 -1.545775e-001 1.383643e+002
500377500.94375 -2.340215e-001 -1.755217e+002 -6.477295e+001 9.885133e+001 -6.509505e+001 8.359016e+001 -1.533011e-001 1.383198e+002
500755001.8875 -2.315730e-001 -1.757100e+002 -6.376047e+001 9.163605e+001 -6.377400e+001 9.323125e+001 -1.489957e-001 1.382875e+002
501132502.83126 -2.349005e-001 -1.759225e+002 -6.457143e+001 9.090943e+001 -6.465158e+001 8.595837e+001 -1.509701e-001 1.382354e+002
501510003.77501 -2.400689e-001 -1.761228e+002 -6.328762e+001 8.486845e+001 -6.398963e+001 8.502511e+001 -1.558618e-001 1.381453e+002
501887504.71876 -2.407553e-001 -1.763399e+002 -6.467044e+001 8.310416e+001 -6.425610e+001 8.700874e+001 -1.526967e-001 1.381114e+002
502265005.66251 -2.478091e-001 -1.765131e+002 -6.281427e+001 7.999891e+001 -6.394595e+001 8.866977e+001 -1.549600e-001 1.380829e+002
502642506.60627 -2.489363e-001 -1.767605e+002 -6.337916e+001 9.143121e+001 -6.349256e+001 8.347558e+001 -1.547497e-001 1.380831e+002
503020007.55002 -2.545788e-001 -1.769330e+002 -6.332115e+001 8.670369e+001 -6.362389e+001 9.142445e+001 -1.515012e-001 1.379696e+002
503397508.49377 -2.599139e-001 -1.771593e+002 -6.344700e+001 9.004603e+001 -6.400610e+001 8.163367e+001 -1.541162e-001 1.379608e+002
503775009.43752 -2.571179e-001 -1.773826e+002 -6.343202e+001 8.584664e+001 -6.400848e+001 7.887453e+001 -1.517207e-001 1.378821e+002
504152510.38128 -2.628975e-001 -1.776074e+002 -6.264717e+001 7.913764e+001 -6.270333e+001 7.772575e+001 -1.539870e-001 1.378171e+002
504530011.32503 -2.676193e-001 -1.777992e+002 -6.302055e+001 7.934587e+001 -6.316492e+001 8.138939e+001 -1.505765e-001 1.377930e+002
504907512.26878 -2.691701e-001 -1.779880e+002 -6.245725e+001 8.677490e+001 -6.406474e+001 7.902565e+001 -1.490239e-001 1.377391e+002
505285013.21253 -2.691865e-001 -1.781921e+002 -6.279251e+001 8.403461e+001 -6.363181e+001 7.610534e+001 -1.498499e-001 1.376847e+002
505662514.15629 -2.738164e-001 -1.783998e+002 -6.263685e+001 8.048811e+001 -6.394049e+001 7.659109e+001 -1.492135e-001 1.376614e+002
506040015.10004 -2.729285e-001 -1.786411e+002 -6.227214e+001 7.932075e+001 -6.373037e+001 7.802188e+001 -1.480564e-001 1.375960e+002
506417516.04379 -2.772450e-001 -1.788279e+002 -6.233555e+001 7.666279e+001 -6.260750e+001 7.583940e+001 -1.505516e-001 1.375443e+002
506795016.98754 -2.831633e-001 -1.789986e+002 -6.298413e+001 7.411902e+001 -6.295632e+001 7.318395e+001 -1.493927e-001 1.375031e+002
507172517.93129 -2.840294e-001 -1.792029e+002 -6.319112e+001 7.094966e+001 -6.235868e+001 7.494289e+001 -1.463564e-001 1.374659e+002
507550018.87505 -2.886458e-001 -1.793847e+002 -6.262811e+001 7.959064e+001 -6.314386e+001 7.763491e+001 -1.495509e-001 1.374029e+002
507927519.8188 -2.899926e-001 -1.796507e+002 -6.228704e+001 7.060681e+001 -6.255920e+001 7.185538e+001 -1.459845e-001 1.373591e+002
508305020.76255 -2.926342e-001 -1.798410e+002 -6.123547e+001 7.395877e+001 -6.255508e+001 7.302824e+001 -1.460071e-001 1.373225e+002
508682521.7063 -2.950405e-001 1.799905e+002 -6.209525e+001 6.824728e+001 -6.226451e+001 7.277094e+001 -1.439020e-001 1.373254e+002
509060022.65006 -2.965172e-001 1.797548e+002 -6.228993e+001 7.252565e+001 -6.287239e+001 6.851210e+001 -1.442613e-001 1.372357e+002
509437523.59381 -2.948684e-001 1.795077e+002 -6.265554e+001 7.435457e+001 -6.240495e+001 7.339703e+001 -1.445836e-001 1.371954e+002
509815024.53756 -3.014564e-001 1.793407e+002 -6.261692e+001 6.776751e+001 -6.273690e+001 7.115356e+001 -1.444159e-001 1.371645e+002
510192525.48131 -3.054421e-001 1.791206e+002 -6.193688e+001 6.715852e+001 -6.202520e+001 7.448211e+001 -1.397057e-001 1.371146e+002
510570026.42507 -3.123753e-001 1.788967e+002 -6.171928e+001 7.201405e+001 -6.214461e+001 6.846607e+001 -1.376445e-001 1.370823e+002
510947527.36882 -3.094833e-001 1.786997e+002 -6.210644e+001 6.697628e+001 -6.214741e+001 6.287323e+001 -1.388898e-001 1.370175e+002
511325028.31257 -3.165355e-001 1.785354e+002 -6.236155e+001 6.734597e+001 -6.153304e+001 6.187206e+001 -1.363561e-001 1.369934e+002
511702529.25632 -3.176940e-001 1.782831e+002 -6.157147e+001 6.706475e+001 -6.149749e+001 6.272928e+001 -1.377259e-001 1.369484e+002
512080030.20008 -3.210416e-001 1.780659e+002 -6.154849e+001 7.224152e+001 -6.184941e+001 6.447146e+001 -1.366635e-001 1.369194e+002
512457531.14383 -3.227195e-001 1.778360e+002 -6.174495e+001 7.041143e+001 -6.170931e+001 6.808631e+001 -1.378198e-001 1.368781e+002
512835032.08758 -3.260076e-001 1.776571e+002 -6.131872e+001 6.292300e+001 -6.156640e+001 6.126143e+001 -1.388140e-001 1.368168e+002
513212533.03133 -3.283764e-001 1.774183e+002 -6.206799e+001 6.296408e+001 -6.157300e+001 6.035139e+001 -1.362877e-001 1.367926e+002
513590033.97508 -3.330075e-001 1.772446e+002 -6.183307e+001 6.204809e+001 -6.186786e+001 6.063181e+001 -1.380146e-001 1.367718e+002
513967534.91884 -3.352580e-001 1.770318e+002 -6.116715e+001 6.628747e+001 -6.183477e+001 6.403896e+001 -1.385007e-001 1.367126e+002
514345035.86259 -3.378786e-001 1.767721e+002 -6.097118e+001 5.467316e+001 -6.095304e+001 5.596423e+001 -1.377363e-001 1.367051e+002
514722536.80634 -3.407395e-001 1.765816e+002 -6.143438e+001 5.782368e+001 -6.108088e+001 5.836344e+001 -1.408541e-001 1.366783e+002
515100037.75009 -3.470709e-001 1.764266e+002 -6.084082e+001 6.432793e+001 -6.104304e+001 5.506767e+001 -1.388514e-001 1.366267e+002
515477538.69385 -3.500188e-001 1.761459e+002 -6.092546e+001 5.885727e+001 -6.131755e+001 5.893702e+001 -1.403624e-001 1.366166e+002
515855039.6376 -3.500120e-001 1.759629e+002 -6.097200e+001 5.939774e+001 -6.194931e+001 4.920774e+001 -1.367271e-001 1.365719e+002
516232540.58135 -3.561973e-001 1.756706e+002 -6.108077e+001 6.331383e+001 -6.078685e+001 5.971928e+001 -1.406478e-001 1.365349e+002
516610041.5251 -3.637168e-001 1.755155e+002 -6.100503e+001 5.358277e+001 -6.063894e+001 5.433126e+001 -1.392869e-001 1.365236e+002
516987542.46886 -3.706193e-001 1.752922e+002 -6.056068e+001 5.345972e+001 -6.135067e+001 5.135999e+001 -1.384380e-001 1.364948e+002
517365043.41261 -3.733647e-001 1.750323e+002 -6.063055e+001 5.148165e+001 -6.090908e+001 4.943778e+001 -1.388250e-001 1.364715e+002
517742544.35636 -3.729643e-001 1.747650e+002 -6.076000e+001 5.666308e+001 -6.161516e+001 4.974186e+001 -1.400354e-001 1.364582e+002
518120045.30011 -3.812044e-001 1.745712e+002 -6.067807e+001 5.754546e+001 -6.099260e+001 4.762523e+001 -1.388139e-001 1.364254e+002
518497546.24387 -3.806393e-001 1.743281e+002 -5.996188e+001 5.304391e+001 -6.117194e+001 4.978455e+001 -1.397991e-001 1.364106e+002
518875047.18762 -3.913231e-001 1.741279e+002 -6.027803e+001 5.035206e+001 -6.001117e+001 4.426942e+001 -1.401173e-001 1.363930e+002
519252548.13137 -3.958887e-001 1.738763e+002 -6.014273e+001 5.198260e+001 -6.038772e+001 4.832478e+001 -1.397689e-001 1.363607e+002
519630049.07512 -4.026181e-001 1.737370e+002 -6.057485e+001 4.608887e+001 -6.042231e+001 4.388520e+001 -1.393615e-001 1.363298e+002
520007550.01888 -4.045819e-001 1.734550e+002 -6.008908e+001 4.460913e+001 -6.056274e+001 4.087357e+001 -1.425197e-001 1.362961e+002
520385050.96263 -4.132551e-001 1.732929e+002 -6.036496e+001 4.521481e+001 -6.050646e+001 4.711252e+001 -1.432330e-001 1.362623e+002
520762551.90638 -4.165950e-001 1.730774e+002 -6.011185e+001 4.733663e+001 -6.141796e+001 3.720238e+001 -1.391329e-001 1.362776e+002
521140052.85013 -4.172118e-001 1.727486e+002 -5.937910e+001 3.949725e+001 -6.019385e+001 3.834719e+001 -1.432740e-001 1.362306e+002
521517553.79388 -4.261333e-001 1.725881e+002 -5.993066e+001 3.976795e+001 -6.060015e+001 4.488752e+001 -1.456041e-001 1.362106e+002
521895054.73764 -4.309804e-001 1.723654e+002 -5.985113e+001 4.166304e+001 -6.080377e+001 3.911089e+001 -1.409956e-001 1.361924e+002
522272555.68139 -4.378715e-001 1.721941e+002 -6.060297e+001 3.894815e+001 -6.079214e+001 3.602008e+001 -1.390536e-001 1.361436e+002
522650056.62514 -4.392715e-001 1.719281e+002 -6.081479e+001 4.673620e+001 -6.001191e+001 3.515245e+001 -1.419851e-001 1.360686e+002
523027557.56889 -4.432475e-001 1.716870e+002 -6.003916e+001 4.187227e+001 -6.077765e+001 4.085228e+001 -1.444689e-001 1.360598e+002
523405058.51265 -4.488856e-001 1.715379e+002 -6.041536e+001 3.999618e+001 -6.033961e+001 3.813924e+001 -1.456047e-001 1.360749e+002
523782559.4564 -4.539025e-001 1.713073e+002 -5.941681e+001 3.867308e+001 -5.946914e+001 3.246573e+001 -1.479787e-001 1.360463e+002
524160060.40015 -4.562790e-001 1.710056e+002 -6.110562e+001 3.738177e+001 -5.986919e+001 3.174181e+001 -1.499076e-001 1.359985e+002
524537561.3439 -4.618590e-001 1.708660e+002 -6.035797e+001 3.947941e+001 -5.975486e+001 3.725180e+001 -1.453512e-001 1.359651e+002
524915062.28766 -4.626369e-001 1.705688e+002 -5.975645e+001 4.337205e+001 -5.993959e+001 3.293717e+001 -1.485070e-001 1.359270e+002
525292563.23141 -4.693457e-001 1.704347e+002 -5.995980e+001 3.656853e+001 -5.940017e+001 3.937136e+001 -1.502719e-001 1.358703e+002
525670064.17516 -4.718841e-001 1.701844e+002 -5.962666e+001 3.796558e+001 -6.007160e+001 3.593243e+001 -1.486600e-001 1.358319e+002
526047565.11891 -4.752595e-001 1.699205e+002 -5.940878e+001 3.801108e+001 -5.943225e+001 2.927368e+001 -1.485461e-001 1.358023e+002
526425066.06267 -4.827876e-001 1.697225e+002 -5.965673e+001 3.404734e+001 -5.971810e+001 3.283983e+001 -1.486652e-001 1.357319e+002
526802567.00642 -4.905150e-001 1.694865e+002 -5.952240e+001 2.887391e+001 -5.967299e+001 3.205353e+001 -1.528124e-001 1.356974e+002
527180067.95017 -4.911326e-001 1.692519e+002 -5.926603e+001 3.447956e+001 -5.934893e+001 3.223613e+001 -1.506273e-001 1.356369e+002
527557568.89392 -4.971492e-001 1.690299e+002 -6.018046e+001 3.406246e+001 -5.935786e+001 2.927721e+001 -1.543459e-001 1.355950e+002
527935069.83767 -5.011446e-001 1.688140e+002 -5.906372e+001 3.334022e+001 -5.902535e+001 2.797586e+001 -1.463613e-001 1.354906e+002
528312570.78143 -5.025644e-001 1.685845e+002 -5.909745e+001 3.202740e+001 -5.921923e+001 3.202439e+001 -1.524239e-001 1.354817e+002
528690071.72518 -5.126873e-001 1.684212e+002 -5.904405e+001 3.438624e+001 -5.937013e+001 2.839016e+001 -1.534308e-001 1.354203e+002
529067572.66893 -5.138512e-001 1.681201e+002 -5.885924e+001 2.572198e+001 -5.913358e+001 2.998722e+001 -1.511588e-001 1.353649e+002
529445073.61268 -5.240425e-001 1.679004e+002 -5.886178e+001 3.069051e+001 -5.999805e+001 2.369598e+001 -1.563978e-001 1.353064e+002
529822574.55644 -5.280397e-001 1.676266e+002 -5.912868e+001 2.665518e+001 -5.887353e+001 2.764331e+001 -1.545286e-001 1.352525e+002
530200075.50019 -5.342491e-001 1.675077e+002 -5.962566e+001 2.512965e+001 -5.886106e+001 2.571888e+001 -1.538699e-001 1.351745e+002
530577576.44394 -5.386835e-001 1.671701e+002 -5.924078e+001 2.648318e+001 -5.946952e+001 2.652560e+001 -1.584961e-001 1.351224e+002
530955077.38769 -5.471262e-001 1.670315e+002 -5.842424e+001 2.685229e+001 -5.859494e+001 2.513536e+001 -1.569606e-001 1.350558e+002
531332578.33145 -5.555122e-001 1.668164e+002 -5.850317e+001 2.439268e+001 -5.923716e+001 2.234202e+001 -1.569063e-001 1.350151e+002
531710079.2752 -5.595954e-001 1.665493e+002 -5.842022e+001 2.368028e+001 -5.890336e+001 2.173167e+001 -1.509061e-001 1.349368e+002
532087580.21895 -5.680438e-001 1.663040e+002 -5.818398e+001 2.694528e+001 -5.874686e+001 2.063793e+001 -1.574321e-001 1.348869e+002
532465081.1627 -5.739893e-001 1.660959e+002 -5.875934e+001 2.402238e+001 -5.849970e+001 2.095010e+001 -1.535735e-001 1.348456e+002
532842582.10646 -5.794293e-001 1.658944e+002 -5.831733e+001 2.291607e+001 -5.855623e+001 1.957381e+001 -1.541960e-001 1.347743e+002
533220083.05021 -5.884276e-001 1.656037e+002 -5.840747e+001 2.385245e+001 -5.891061e+001 1.740563e+001 -1.540784e-001 1.347334e+002
533597583.99396 -5.900863e-001 1.653954e+002 -5.794058e+001 2.015273e+001 -5.825084e+001 2.170305e+001 -1.544843e-001 1.346978e+002
533975084.93771 -6.057623e-001 1.652123e+002 -5.783257e+001 2.205528e+001 -5.833501e+001 1.553831e+001 -1.538907e-001 1.346310e+002
534352585.88146 -6.092105e-001 1.649112e+002 -5.791719e+001 2.173390e+001 -5.847528e+001 2.101544e+001 -1.512614e-001 1.345954e+002
534730086.82522 -6.159459e-001 1.646788e+002 -5.816717e+001 2.464315e+001 -5.840183e+001 1.732303e+001 -1.485969e-001 1.345488e+002
535107587.76897 -6.218888e-001 1.645191e+002 -5.809572e+001 2.237716e+001 -5.824067e+001 1.572169e+001 -1.539314e-001 1.344682e+002
535485088.71272 -6.318676e-001 1.643057e+002 -5.793592e+001 1.981209e+001 -5.774467e+001 1.935843e+001 -1.489937e-001 1.344474e+002
535862589.65647 -6.373251e-001 1.640815e+002 -5.753752e+001 1.973897e+001 -5.762418e+001 1.361622e+001 -1.467870e-001 1.344013e+002
536240090.60023 -6.407356e-001 1.638058e+002 -5.680397e+001 1.657725e+001 -5.779235e+001 1.586755e+001 -1.447930e-001 1.343188e+002
536617591.54398 -6.421281e-001 1.636339e+002 -5.717358e+001 1.455881e+001 -5.741483e+001 1.332179e+001 -1.469989e-001 1.343484e+002
536995092.48773 -6.515898e-001 1.634046e+002 -5.696847e+001 1.622917e+001 -5.705379e+001 1.421870e+001 -1.469355e-001 1.343134e+002
537372593.43148 -6.578288e-001 1.631650e+002 -5.727056e+001 1.699546e+001 -5.716862e+001 1.086304e+001 -1.426727e-001 1.342701e+002
537750094.37524 -6.622224e-001 1.628913e+002 -5.701291e+001 1.517458e+001 -5.722722e+001 1.052419e+001 -1.404951e-001 1.342682e+002
538127595.31899 -6.746695e-001 1.627193e+002 -5.639177e+001 9.956724e+000 -5.670574e+001 6.445267e+000 -1.416681e-001 1.342208e+002
538505096.26274 -6.787109e-001 1.624656e+002 -5.652679e+001 1.060185e+001 -5.691620e+001 5.570303e+000 -1.448842e-001 1.341820e+002
538882597.20649 -6.871852e-001 1.622652e+002 -5.598244e+001 7.443551e+000 -5.699395e+001 6.945485e+000 -1.403142e-001 1.341349e+002
539260098.15025 -6.952853e-001 1.620625e+002 -5.650001e+001 7.915660e+000 -5.686310e+001 8.794244e+000 -1.391478e-001 1.341458e+002
539637599.094 -7.007417e-001 1.618401e+002 -5.612917e+001 7.856731e+000 -5.662256e+001 3.823112e+000 -1.400933e-001 1.341307e+002
540015100.03775 -7.064165e-001 1.616575e+002 -5.569468e+001 7.597640e+000 -5.644007e+001 2.052023e+000 -1.422348e-001 1.341386e+002
540392600.9815 -7.190543e-001 1.614174e+002 -5.572678e+001 8.160091e+000 -5.625051e+001 -4.834827e-001 -1.373500e-001 1.340285e+002
540770101.92525 -7.266114e-001 1.611812e+002 -5.580484e+001 5.551906e+000 -5.675574e+001 -1.338223e+000 -1.400824e-001 1.340596e+002
541147602.86901 -7.299829e-001 1.610596e+002 -5.625472e+001 2.449552e+000 -5.647400e+001 -9.469165e-001 -1.389714e-001 1.340241e+002
541525103.81276 -7.355565e-001 1.607731e+002 -5.605686e+001 7.738632e-001 -5.639174e+001 -2.467205e+000 -1.394935e-001 1.339966e+002
541902604.75651 -7.437524e-001 1.606154e+002 -5.620237e+001 -2.441117e-002 -5.636546e+001 -5.588604e+000 -1.377041e-001 1.339871e+002
542280105.70026 -7.479655e-001 1.603617e+002 -5.581580e+001 -1.165066e+000 -5.612860e+001 -5.521444e+000 -1.354999e-001 1.339684e+002
542657606.64402 -7.532999e-001 1.602514e+002 -5.561522e+001 -3.770005e+000 -5.650387e+001 -8.252814e+000 -1.387004e-001 1.339243e+002
543035107.58777 -7.573662e-001 1.600114e+002 -5.576558e+001 -4.082717e+000 -5.627588e+001 -8.440316e+000 -1.370590e-001 1.339049e+002
543412608.53152 -7.617358e-001 1.598475e+002 -5.593548e+001 -7.212887e+000 -5.602954e+001 -6.570573e+000 -1.415070e-001 1.338585e+002
543790109.47527 -7.616466e-001 1.596232e+002 -5.599531e+001 -8.958337e+000 -5.627964e+001 -1.298555e+001 -1.394947e-001 1.338441e+002
544167610.41903 -7.641938e-001 1.593577e+002 -5.582795e+001 -5.982159e+000 -5.622938e+001 -1.323983e+001 -1.415700e-001 1.338391e+002
544545111.36278 -7.672507e-001 1.591938e+002 -5.543040e+001 -9.411798e+000 -5.596921e+001 -1.151769e+001 -1.356041e-001 1.337873e+002
544922612.30653 -7.648451e-001 1.589487e+002 -5.530637e+001 -1.256567e+001 -5.635262e+001 -1.505460e+001 -1.377454e-001 1.337407e+002
545300113.25028 -7.676980e-001 1.587914e+002 -5.521602e+001 -1.026804e+001 -5.664735e+001 -1.534135e+001 -1.404244e-001 1.337449e+002
545677614.19404 -7.715170e-001 1.585526e+002 -5.543402e+001 -1.265867e+001 -5.643285e+001 -1.599655e+001 -1.426356e-001 1.336908e+002
546055115.13779 -7.708784e-001 1.582971e+002 -5.527992e+001 -1.521427e+001 -5.624464e+001 -1.749701e+001 -1.466573e-001 1.336516e+002
546432616.08154 -7.677208e-001 1.580279e+002 -5.539722e+001 -1.528044e+001 -5.607563e+001 -1.608065e+001 -1.482272e-001 1.335568e+002
546810117.02529 -7.711553e-001 1.578059e+002 -5.562558e+001 -1.613100e+001 -5.614951e+001 -1.820496e+001 -1.514028e-001 1.335681e+002
547187617.96904 -7.758973e-001 1.575248e+002 -5.525545e+001 -1.523922e+001 -5.628663e+001 -1.722697e+001 -1.481143e-001 1.335438e+002
547565118.9128 -7.822596e-001 1.573078e+002 -5.570521e+001 -2.101439e+001 -5.618060e+001 -2.062570e+001 -1.532339e-001 1.334868e+002
547942619.85655 -7.857407e-001 1.570990e+002 -5.550141e+001 -1.756694e+001 -5.594100e+001 -2.001135e+001 -1.569809e-001 1.334596e+002
548320120.8003 -7.915337e-001 1.568469e+002 -5.537807e+001 -2.090866e+001 -5.594781e+001 -2.014959e+001 -1.535025e-001 1.333911e+002
548697621.74405 -7.976291e-001 1.565304e+002 -5.538128e+001 -2.141086e+001 -5.621270e+001 -2.141450e+001 -1.568565e-001 1.333524e+002
549075122.68781 -8.033150e-001 1.563528e+002 -5.568170e+001 -2.093461e+001 -5.624961e+001 -2.238544e+001 -1.576829e-001 1.333470e+002
549452623.63156 -8.124213e-001 1.560471e+002 -5.564383e+001 -2.075823e+001 -5.592422e+001 -2.269386e+001 -1.627777e-001 1.332565e+002
549830124.57531 -8.205223e-001 1.558488e+002 -5.534637e+001 -2.299267e+001 -5.596013e+001 -2.582649e+001 -1.660787e-001 1.332132e+002
550207625.51906 -8.211269e-001 1.555892e+002 -5.496518e+001 -2.567268e+001 -5.595057e+001 -2.613823e+001 -1.626138e-001 1.331526e+002
550585126.46282 -8.259464e-001 1.554102e+002 -5.518686e+001 -2.619295e+001 -5.608575e+001 -2.709207e+001 -1.665195e-001 1.331037e+002
550962627.40657 -8.332862e-001 1.551245e+002 -5.532838e+001 -2.698804e+001 -5.596849e+001 -2.815091e+001 -1.671693e-001 1.330615e+002
551340128.35032 -8.359970e-001 1.549194e+002 -5.547139e+001 -2.580985e+001 -5.563426e+001 -3.146756e+001 -1.669879e-001 1.330083e+002
551717629.29407 -8.412079e-001 1.546571e+002 -5.535605e+001 -2.821349e+001 -5.574533e+001 -2.867547e+001 -1.668213e-001 1.329535e+002
552095130.23783 -8.460018e-001 1.543390e+002 -5.521223e+001 -3.042891e+001 -5.590662e+001 -3.319680e+001 -1.681482e-001 1.328739e+002
552472631.18158 -8.447127e-001 1.541175e+002 -5.554008e+001 -2.985194e+001 -5.586216e+001 -3.119263e+001 -1.675419e-001 1.328206e+002
552850132.12533 -8.521740e-001 1.538766e+002 -5.527699e+001 -3.244457e+001 -5.572502e+001 -3.363881e+001 -1.701043e-001 1.327715e+002
553227633.06908 -8.599177e-001 1.535871e+002 -5.523262e+001 -3.247515e+001 -5.594526e+001 -3.296165e+001 -1.662085e-001 1.326919e+002
553605134.01284 -8.640644e-001 1.533397e+002 -5.585176e+001 -3.120602e+001 -5.608710e+001 -3.610643e+001 -1.743504e-001 1.326372e+002
553982634.95659 -8.706146e-001 1.530506e+002 -5.553922e+001 -3.116070e+001 -5.583749e+001 -3.482442e+001 -1.697945e-001 1.325855e+002
554360135.90034 -8.764029e-001 1.527515e+002 -5.556675e+001 -3.331001e+001 -5.601892e+001 -3.469471e+001 -1.701365e-001 1.325156e+002
554737636.84409 -8.908674e-001 1.525065e+002 -5.571535e+001 -3.549536e+001 -5.595350e+001 -3.511704e+001 -1.739685e-001 1.324667e+002
555115137.78784 -9.016289e-001 1.522562e+002 -5.542056e+001 -3.362627e+001 -5.569711e+001 -3.523903e+001 -1.683677e-001 1.324149e+002
555492638.7316 -9.097688e-001 1.519509e+002 -5.490128e+001 -3.743329e+001 -5.580643e+001 -3.590731e+001 -1.696676e-001 1.323646e+002
