!Agilent Technologies,E8364B,US42250235,A.06.04.32
!Agilent E8364B: A.06.04.32
!Date: Thursday, October 01, 2020 14:15:04
!Correction: S11(Full 2 Port(1,2)) S21(Full 2 Port(1,2)) S12(Full 2 Port(1,2)) S22(Full 2 Port(1,2)) 
!S2P File: Measurements: S11, S21, S12, S22:
# Hz S  dB   R 50
500000000 -2.218144e-001 -1.753323e+002 -6.513223e+001 1.033597e+002 -6.422162e+001 9.447726e+001 -1.992378e-001 1.383029e+002
500377500.94375 -2.259768e-001 -1.755468e+002 -6.521502e+001 9.854668e+001 -6.434682e+001 8.264481e+001 -1.972615e-001 1.382559e+002
500755001.8875 -2.284359e-001 -1.756984e+002 -6.361348e+001 1.008577e+002 -6.506628e+001 8.250285e+001 -1.991581e-001 1.382116e+002
501132502.83126 -2.289762e-001 -1.759499e+002 -6.391687e+001 9.925268e+001 -6.440372e+001 8.557391e+001 -1.987021e-001 1.381745e+002
501510003.77501 -2.334892e-001 -1.761495e+002 -6.449716e+001 9.873921e+001 -6.431055e+001 8.745460e+001 -1.995242e-001 1.381202e+002
501887504.71876 -2.349241e-001 -1.763648e+002 -6.359922e+001 1.072684e+002 -6.428168e+001 8.896394e+001 -1.982976e-001 1.380818e+002
502265005.66251 -2.432343e-001 -1.765731e+002 -6.374503e+001 9.271363e+001 -6.425925e+001 8.346602e+001 -1.981833e-001 1.380266e+002
502642506.60627 -2.412210e-001 -1.767846e+002 -6.383507e+001 9.813674e+001 -6.420042e+001 8.576712e+001 -1.962974e-001 1.379622e+002
503020007.55002 -2.469156e-001 -1.770105e+002 -6.270391e+001 9.296204e+001 -6.269033e+001 8.562074e+001 -1.988280e-001 1.379307e+002
503397508.49377 -2.548023e-001 -1.771998e+002 -6.294146e+001 1.016788e+002 -6.314158e+001 8.160210e+001 -1.966545e-001 1.378987e+002
503775009.43752 -2.543659e-001 -1.773924e+002 -6.276635e+001 9.504160e+001 -6.334959e+001 7.878187e+001 -2.000636e-001 1.378408e+002
504152510.38128 -2.556129e-001 -1.776435e+002 -6.442462e+001 1.002733e+002 -6.394866e+001 7.970194e+001 -2.026912e-001 1.377910e+002
504530011.32503 -2.604355e-001 -1.778183e+002 -6.290796e+001 9.527310e+001 -6.339747e+001 8.160580e+001 -1.974386e-001 1.377411e+002
504907512.26878 -2.614164e-001 -1.780368e+002 -6.263637e+001 9.294396e+001 -6.332419e+001 8.586808e+001 -1.966693e-001 1.377048e+002
505285013.21253 -2.641772e-001 -1.782254e+002 -6.335703e+001 9.268674e+001 -6.252791e+001 8.379835e+001 -1.976190e-001 1.376542e+002
505662514.15629 -2.683392e-001 -1.784199e+002 -6.445680e+001 8.982079e+001 -6.332416e+001 8.384717e+001 -1.964390e-001 1.376195e+002
506040015.10004 -2.664706e-001 -1.786897e+002 -6.293259e+001 8.691477e+001 -6.281621e+001 7.576530e+001 -1.943629e-001 1.375427e+002
506417516.04379 -2.712373e-001 -1.788845e+002 -6.269384e+001 8.544613e+001 -6.324352e+001 7.386993e+001 -1.951086e-001 1.375270e+002
506795016.98754 -2.747079e-001 -1.790413e+002 -6.208201e+001 8.650311e+001 -6.268361e+001 7.671707e+001 -1.961902e-001 1.374654e+002
507172517.93129 -2.779282e-001 -1.792457e+002 -6.337809e+001 8.197549e+001 -6.303462e+001 7.485027e+001 -1.985403e-001 1.374300e+002
507550018.87505 -2.825427e-001 -1.794583e+002 -6.249745e+001 8.633278e+001 -6.267360e+001 7.446051e+001 -2.000702e-001 1.373947e+002
507927519.8188 -2.868792e-001 -1.796570e+002 -6.256519e+001 9.139364e+001 -6.226775e+001 7.388815e+001 -1.947604e-001 1.373240e+002
508305020.76255 -2.868345e-001 -1.798928e+002 -6.243187e+001 8.589845e+001 -6.300471e+001 7.399436e+001 -1.956121e-001 1.372870e+002
508682521.7063 -2.880806e-001 1.799664e+002 -6.182824e+001 9.004890e+001 -6.158127e+001 7.434816e+001 -1.934312e-001 1.372848e+002
509060022.65006 -2.932446e-001 1.797143e+002 -6.211459e+001 8.620813e+001 -6.130805e+001 7.293127e+001 -1.951346e-001 1.371989e+002
509437523.59381 -2.919020e-001 1.794951e+002 -6.250487e+001 8.820660e+001 -6.208949e+001 6.899165e+001 -1.963386e-001 1.371262e+002
509815024.53756 -2.958928e-001 1.792840e+002 -6.232848e+001 7.547314e+001 -6.219349e+001 6.639397e+001 -1.903540e-001 1.370914e+002
510192525.48131 -2.979971e-001 1.790323e+002 -6.301247e+001 7.651056e+001 -6.158647e+001 6.581390e+001 -1.915325e-001 1.370412e+002
510570026.42507 -3.030187e-001 1.788574e+002 -6.192717e+001 9.194292e+001 -6.196944e+001 6.504706e+001 -1.928359e-001 1.370010e+002
510947527.36882 -3.038895e-001 1.786185e+002 -6.172355e+001 8.196241e+001 -6.227521e+001 6.597892e+001 -1.941739e-001 1.369437e+002
511325028.31257 -3.108828e-001 1.784355e+002 -6.175791e+001 8.111423e+001 -6.230103e+001 6.324434e+001 -1.908815e-001 1.368999e+002
511702529.25632 -3.112632e-001 1.782429e+002 -6.262740e+001 7.924737e+001 -6.192895e+001 6.531912e+001 -1.922676e-001 1.368585e+002
512080030.20008 -3.149437e-001 1.780240e+002 -6.216647e+001 7.986351e+001 -6.204171e+001 6.173891e+001 -1.927714e-001 1.368271e+002
512457531.14383 -3.175740e-001 1.778205e+002 -6.107771e+001 7.936358e+001 -6.198635e+001 5.970010e+001 -1.927566e-001 1.367772e+002
512835032.08758 -3.187017e-001 1.775716e+002 -6.183056e+001 8.094435e+001 -6.115984e+001 5.950383e+001 -1.929806e-001 1.367178e+002
513212533.03133 -3.258368e-001 1.774109e+002 -6.141273e+001 8.148597e+001 -6.118256e+001 5.892222e+001 -1.934596e-001 1.366859e+002
513590033.97508 -3.294952e-001 1.772390e+002 -6.126669e+001 8.062285e+001 -6.090973e+001 6.268232e+001 -1.953142e-001 1.366419e+002
513967534.91884 -3.304214e-001 1.769372e+002 -6.149717e+001 7.584846e+001 -6.092335e+001 5.904453e+001 -1.955665e-001 1.366081e+002
514345035.86259 -3.339785e-001 1.767460e+002 -6.083684e+001 7.450886e+001 -6.140400e+001 5.810686e+001 -1.972143e-001 1.365771e+002
514722536.80634 -3.361160e-001 1.765438e+002 -6.151431e+001 7.711486e+001 -6.150409e+001 5.987851e+001 -1.968002e-001 1.365502e+002
515100037.75009 -3.410542e-001 1.763161e+002 -6.166375e+001 6.954453e+001 -6.161436e+001 5.777126e+001 -1.966323e-001 1.365004e+002
515477538.69385 -3.448120e-001 1.761374e+002 -6.142740e+001 6.941583e+001 -6.118258e+001 5.368868e+001 -1.955010e-001 1.364651e+002
515855039.6376 -3.449378e-001 1.758804e+002 -6.104938e+001 6.957870e+001 -6.162410e+001 5.268352e+001 -1.942578e-001 1.364471e+002
516232540.58135 -3.513118e-001 1.756304e+002 -6.095759e+001 7.444422e+001 -6.144814e+001 5.329878e+001 -1.958294e-001 1.363985e+002
516610041.5251 -3.566009e-001 1.754689e+002 -6.066864e+001 7.202467e+001 -6.113013e+001 5.226808e+001 -1.950208e-001 1.363934e+002
516987542.46886 -3.663085e-001 1.752027e+002 -6.072794e+001 6.713885e+001 -6.089833e+001 5.181710e+001 -1.957724e-001 1.363537e+002
517365043.41261 -3.672134e-001 1.749779e+002 -6.045868e+001 6.822477e+001 -6.092611e+001 5.327914e+001 -1.945682e-001 1.363171e+002
517742544.35636 -3.698078e-001 1.747191e+002 -6.110068e+001 7.075380e+001 -6.070005e+001 4.845491e+001 -1.968039e-001 1.363085e+002
518120045.30011 -3.782057e-001 1.745218e+002 -6.039821e+001 6.543051e+001 -6.045154e+001 4.552557e+001 -1.948875e-001 1.362782e+002
518497546.24387 -3.827389e-001 1.742615e+002 -6.059503e+001 6.444204e+001 -6.060150e+001 4.588931e+001 -1.968924e-001 1.362644e+002
518875047.18762 -3.870091e-001 1.740715e+002 -6.114166e+001 5.849819e+001 -6.040651e+001 4.532734e+001 -1.999443e-001 1.362442e+002
519252548.13137 -3.911193e-001 1.738207e+002 -6.023713e+001 5.910270e+001 -6.132695e+001 4.531594e+001 -1.959078e-001 1.361993e+002
519630049.07512 -3.982190e-001 1.736264e+002 -6.095028e+001 5.953038e+001 -6.094714e+001 4.484579e+001 -1.968245e-001 1.361526e+002
520007550.01888 -4.043464e-001 1.734382e+002 -6.074522e+001 6.094006e+001 -6.086254e+001 4.353241e+001 -1.940491e-001 1.361518e+002
520385050.96263 -4.099838e-001 1.732182e+002 -6.037822e+001 5.901163e+001 -6.088868e+001 3.898499e+001 -1.966994e-001 1.361187e+002
520762551.90638 -4.118514e-001 1.729700e+002 -5.933773e+001 6.134814e+001 -6.027171e+001 4.127662e+001 -1.957601e-001 1.361037e+002
521140052.85013 -4.140249e-001 1.726910e+002 -5.993467e+001 6.104908e+001 -6.099712e+001 4.010236e+001 -1.966293e-001 1.360675e+002
521517553.79388 -4.237589e-001 1.724998e+002 -6.098786e+001 5.115490e+001 -6.007402e+001 3.522187e+001 -1.953825e-001 1.360440e+002
521895054.73764 -4.287128e-001 1.723293e+002 -6.082423e+001 5.265512e+001 -6.056568e+001 4.041347e+001 -1.970164e-001 1.360128e+002
522272555.68139 -4.344777e-001 1.720673e+002 -5.987749e+001 5.239605e+001 -6.074940e+001 4.259106e+001 -1.959407e-001 1.359595e+002
522650056.62514 -4.346172e-001 1.718562e+002 -6.046920e+001 5.256385e+001 -6.109068e+001 3.587631e+001 -1.986121e-001 1.359493e+002
523027557.56889 -4.392780e-001 1.715946e+002 -5.981100e+001 5.785047e+001 -6.024101e+001 3.604035e+001 -1.993058e-001 1.359026e+002
523405058.51265 -4.430625e-001 1.714347e+002 -6.028558e+001 5.063512e+001 -6.069542e+001 3.911171e+001 -2.033829e-001 1.358898e+002
523782559.4564 -4.503117e-001 1.711850e+002 -6.055137e+001 4.975463e+001 -6.009989e+001 3.396454e+001 -1.998280e-001 1.358421e+002
524160060.40015 -4.487698e-001 1.709384e+002 -5.984029e+001 5.384798e+001 -5.949312e+001 3.739772e+001 -2.059236e-001 1.358172e+002
524537561.3439 -4.560781e-001 1.707583e+002 -5.947517e+001 4.947211e+001 -5.998908e+001 3.493712e+001 -1.998395e-001 1.357619e+002
524915062.28766 -4.569685e-001 1.704762e+002 -6.010000e+001 5.568338e+001 -6.012166e+001 3.905517e+001 -2.025859e-001 1.356884e+002
525292563.23141 -4.627019e-001 1.703417e+002 -5.904003e+001 5.286482e+001 -5.989545e+001 3.196297e+001 -2.070273e-001 1.356466e+002
525670064.17516 -4.663481e-001 1.700853e+002 -5.972446e+001 4.942231e+001 -6.018602e+001 3.785012e+001 -2.067184e-001 1.356135e+002
526047565.11891 -4.706890e-001 1.698315e+002 -5.965149e+001 4.719261e+001 -5.925251e+001 2.862022e+001 -2.047746e-001 1.355630e+002
526425066.06267 -4.749319e-001 1.696178e+002 -5.895475e+001 4.744707e+001 -5.961253e+001 3.451400e+001 -2.072285e-001 1.354861e+002
526802567.00642 -4.838656e-001 1.693902e+002 -5.871608e+001 4.679308e+001 -6.007189e+001 2.915234e+001 -2.075852e-001 1.354572e+002
527180067.95017 -4.865171e-001 1.691506e+002 -5.946493e+001 4.353376e+001 -5.929893e+001 2.580920e+001 -2.062298e-001 1.353737e+002
527557568.89392 -4.919728e-001 1.689247e+002 -5.952767e+001 4.543495e+001 -5.963440e+001 3.070230e+001 -2.076884e-001 1.352678e+002
527935069.83767 -4.988855e-001 1.687013e+002 -5.934702e+001 4.842335e+001 -5.968628e+001 2.635657e+001 -2.085820e-001 1.352684e+002
528312570.78143 -4.992955e-001 1.684866e+002 -5.927957e+001 4.345354e+001 -5.960960e+001 2.711973e+001 -2.095524e-001 1.351877e+002
528690071.72518 -5.090182e-001 1.682407e+002 -5.909048e+001 4.442185e+001 -5.989137e+001 2.717893e+001 -2.105214e-001 1.351414e+002
529067572.66893 -5.130489e-001 1.680063e+002 -5.914283e+001 4.646335e+001 -5.972290e+001 2.382132e+001 -2.070164e-001 1.350835e+002
529445073.61268 -5.218875e-001 1.677867e+002 -5.896729e+001 4.289523e+001 -5.969811e+001 2.653554e+001 -2.081666e-001 1.349838e+002
529822574.55644 -5.251021e-001 1.675280e+002 -5.891422e+001 4.227735e+001 -5.897494e+001 2.537790e+001 -2.099662e-001 1.349470e+002
530200075.50019 -5.311703e-001 1.673986e+002 -5.938564e+001 4.295967e+001 -5.917670e+001 2.478181e+001 -2.099482e-001 1.348871e+002
530577576.44394 -5.358304e-001 1.670668e+002 -5.922245e+001 4.286949e+001 -5.868556e+001 2.413054e+001 -2.132727e-001 1.348028e+002
530955077.38769 -5.492958e-001 1.669160e+002 -5.870444e+001 4.106694e+001 -5.930249e+001 2.099145e+001 -2.108218e-001 1.347281e+002
531332578.33145 -5.565596e-001 1.666996e+002 -5.898648e+001 4.067822e+001 -5.916997e+001 2.588666e+001 -2.138969e-001 1.346834e+002
531710079.2752 -5.648460e-001 1.664320e+002 -5.794031e+001 3.811705e+001 -5.910383e+001 1.848255e+001 -2.068212e-001 1.345897e+002
532087580.21895 -5.690833e-001 1.661935e+002 -5.833183e+001 3.865811e+001 -5.859416e+001 2.354270e+001 -2.127815e-001 1.345726e+002
532465081.1627 -5.800403e-001 1.659814e+002 -5.819759e+001 3.767343e+001 -5.866885e+001 2.260710e+001 -2.099235e-001 1.344897e+002
532842582.10646 -5.854424e-001 1.657743e+002 -5.875484e+001 3.852219e+001 -5.856617e+001 2.037192e+001 -2.088358e-001 1.344310e+002
533220083.05021 -5.929474e-001 1.654835e+002 -5.818102e+001 3.657171e+001 -5.858289e+001 1.906533e+001 -2.139615e-001 1.343878e+002
533597583.99396 -5.978316e-001 1.652317e+002 -5.787968e+001 3.461212e+001 -5.824921e+001 1.675174e+001 -2.105990e-001 1.342758e+002
533975084.93771 -6.147026e-001 1.650824e+002 -5.799755e+001 3.558182e+001 -5.853915e+001 1.354814e+001 -2.126343e-001 1.342543e+002
534352585.88146 -6.176021e-001 1.647856e+002 -5.808334e+001 3.623140e+001 -5.800214e+001 1.545113e+001 -2.075355e-001 1.342245e+002
534730086.82522 -6.235275e-001 1.645528e+002 -5.817464e+001 3.340722e+001 -5.778888e+001 1.588337e+001 -2.022651e-001 1.341738e+002
535107587.76897 -6.317276e-001 1.643893e+002 -5.780470e+001 3.319195e+001 -5.752796e+001 1.641269e+001 -2.074787e-001 1.341541e+002
535485088.71272 -6.397195e-001 1.641853e+002 -5.750127e+001 3.208925e+001 -5.758419e+001 1.504764e+001 -2.051881e-001 1.340710e+002
535862589.65647 -6.478308e-001 1.639993e+002 -5.725221e+001 3.013836e+001 -5.722049e+001 1.426665e+001 -2.036428e-001 1.340155e+002
536240090.60023 -6.501302e-001 1.636834e+002 -5.702365e+001 2.899599e+001 -5.755959e+001 1.402046e+001 -2.055888e-001 1.339946e+002
536617591.54398 -6.539059e-001 1.634931e+002 -5.713638e+001 2.898508e+001 -5.710748e+001 1.090575e+001 -2.030710e-001 1.339650e+002
536995092.48773 -6.637214e-001 1.632720e+002 -5.654727e+001 3.001369e+001 -5.727383e+001 1.057960e+001 -2.064985e-001 1.339223e+002
537372593.43148 -6.737086e-001 1.630365e+002 -5.688812e+001 2.560861e+001 -5.705828e+001 7.163574e+000 -2.010453e-001 1.338715e+002
537750094.37524 -6.762264e-001 1.627682e+002 -5.660409e+001 2.770776e+001 -5.665637e+001 6.847160e+000 -1.980942e-001 1.338513e+002
538127595.31899 -6.881916e-001 1.625771e+002 -5.637059e+001 2.552405e+001 -5.724473e+001 5.897416e+000 -2.023909e-001 1.338141e+002
538505096.26274 -6.959518e-001 1.623340e+002 -5.643074e+001 2.189964e+001 -5.679662e+001 5.697178e+000 -2.025059e-001 1.337886e+002
538882597.20649 -7.075745e-001 1.621364e+002 -5.632777e+001 2.290082e+001 -5.666403e+001 1.924899e+000 -1.988108e-001 1.337645e+002
539260098.15025 -7.172621e-001 1.619522e+002 -5.625053e+001 2.171662e+001 -5.691577e+001 4.061731e+000 -1.937608e-001 1.337329e+002
539637599.094 -7.221934e-001 1.617414e+002 -5.607156e+001 1.915001e+001 -5.651495e+001 1.609751e+000 -1.950930e-001 1.337057e+002
540015100.03775 -7.298840e-001 1.615584e+002 -5.583045e+001 1.949582e+001 -5.677332e+001 -1.628506e-001 -1.953942e-001 1.337241e+002
540392600.9815 -7.402903e-001 1.612733e+002 -5.573543e+001 1.911576e+001 -5.637504e+001 -1.375707e+000 -1.924225e-001 1.336432e+002
540770101.92525 -7.436163e-001 1.610934e+002 -5.579097e+001 1.650540e+001 -5.646591e+001 -3.206099e+000 -1.953408e-001 1.336190e+002
541147602.86901 -7.531978e-001 1.609232e+002 -5.574825e+001 1.535307e+001 -5.664699e+001 -2.248380e+000 -1.949081e-001 1.335784e+002
541525103.81276 -7.576780e-001 1.607328e+002 -5.550706e+001 1.149574e+001 -5.644767e+001 -5.016863e+000 -1.929412e-001 1.335432e+002
541902604.75651 -7.650701e-001 1.605301e+002 -5.546477e+001 9.029938e+000 -5.628313e+001 -5.339759e+000 -1.945697e-001 1.335294e+002
542280105.70026 -7.669761e-001 1.603076e+002 -5.551698e+001 1.008346e+001 -5.669069e+001 -6.768294e+000 -1.924811e-001 1.335112e+002
542657606.64402 -7.757350e-001 1.601977e+002 -5.549671e+001 9.378326e+000 -5.627778e+001 -7.860748e+000 -1.928632e-001 1.334659e+002
543035107.58777 -7.789797e-001 1.599246e+002 -5.549510e+001 7.603619e+000 -5.655879e+001 -1.242622e+001 -1.956760e-001 1.334410e+002
543412608.53152 -7.856697e-001 1.597996e+002 -5.521597e+001 6.923291e+000 -5.649797e+001 -1.223736e+001 -1.965770e-001 1.334001e+002
543790109.47527 -7.874806e-001 1.595917e+002 -5.526260e+001 5.787880e+000 -5.634046e+001 -1.269585e+001 -1.972224e-001 1.333694e+002
544167610.41903 -7.877731e-001 1.593375e+002 -5.518909e+001 3.429750e+000 -5.618756e+001 -1.283658e+001 -1.977377e-001 1.333547e+002
544545111.36278 -7.901765e-001 1.591863e+002 -5.538985e+001 4.445789e+000 -5.616092e+001 -1.398154e+001 -1.968378e-001 1.332870e+002
544922612.30653 -7.906630e-001 1.589295e+002 -5.557859e+001 -4.529804e-001 -5.654061e+001 -1.558806e+001 -1.963224e-001 1.332609e+002
545300113.25028 -7.894157e-001 1.587966e+002 -5.541851e+001 -1.264556e+000 -5.633698e+001 -1.516151e+001 -1.977835e-001 1.332506e+002
545677614.19404 -7.941476e-001 1.585721e+002 -5.546009e+001 5.126536e-001 -5.623541e+001 -1.765009e+001 -1.998249e-001 1.331988e+002
546055115.13779 -7.939811e-001 1.583142e+002 -5.521870e+001 -3.942878e+000 -5.631836e+001 -1.871682e+001 -2.012648e-001 1.331515e+002
546432616.08154 -7.919754e-001 1.580317e+002 -5.562225e+001 -8.275025e+000 -5.639433e+001 -1.640874e+001 -2.051493e-001 1.331006e+002
546810117.02529 -7.921488e-001 1.578273e+002 -5.502799e+001 -5.121672e+000 -5.602229e+001 -1.843006e+001 -2.073375e-001 1.330517e+002
547187617.96904 -7.952777e-001 1.575484e+002 -5.552341e+001 -6.168016e+000 -5.601134e+001 -2.051760e+001 -2.060593e-001 1.330234e+002
547565118.9128 -8.035687e-001 1.573127e+002 -5.522614e+001 -5.351979e+000 -5.623963e+001 -2.244845e+001 -2.121488e-001 1.329660e+002
547942619.85655 -8.041322e-001 1.571344e+002 -5.550299e+001 -5.769288e+000 -5.624660e+001 -2.138018e+001 -2.126673e-001 1.329080e+002
548320120.8003 -8.117277e-001 1.568660e+002 -5.527929e+001 -9.269925e+000 -5.616217e+001 -2.077104e+001 -2.135850e-001 1.328481e+002
548697621.74405 -8.152699e-001 1.565681e+002 -5.516037e+001 -8.392258e+000 -5.615101e+001 -2.383430e+001 -2.172023e-001 1.328050e+002
549075122.68781 -8.235129e-001 1.563715e+002 -5.547789e+001 -1.234609e+001 -5.628078e+001 -2.444081e+001 -2.179863e-001 1.328026e+002
549452623.63156 -8.286176e-001 1.560560e+002 -5.520314e+001 -1.155731e+001 -5.591228e+001 -2.651747e+001 -2.232152e-001 1.327070e+002
549830124.57531 -8.381487e-001 1.558439e+002 -5.500174e+001 -1.321713e+001 -5.598741e+001 -2.638348e+001 -2.244234e-001 1.326103e+002
550207625.51906 -8.385003e-001 1.556124e+002 -5.519075e+001 -1.276715e+001 -5.570660e+001 -2.707517e+001 -2.236283e-001 1.325973e+002
550585126.46282 -8.473421e-001 1.554359e+002 -5.518095e+001 -1.447350e+001 -5.592703e+001 -3.083493e+001 -2.281558e-001 1.325532e+002
550962627.40657 -8.483614e-001 1.551115e+002 -5.537831e+001 -1.607103e+001 -5.588591e+001 -2.872988e+001 -2.248770e-001 1.324774e+002
551340128.35032 -8.506714e-001 1.549413e+002 -5.546398e+001 -1.679444e+001 -5.603521e+001 -2.833410e+001 -2.280355e-001 1.323992e+002
551717629.29407 -8.586276e-001 1.546676e+002 -5.550219e+001 -1.477112e+001 -5.626880e+001 -2.973218e+001 -2.274049e-001 1.323565e+002
552095130.23783 -8.631029e-001 1.543545e+002 -5.477212e+001 -1.785754e+001 -5.590838e+001 -3.168933e+001 -2.295003e-001 1.322955e+002
552472631.18158 -8.648648e-001 1.541601e+002 -5.551778e+001 -1.551304e+001 -5.580363e+001 -3.315084e+001 -2.313290e-001 1.322307e+002
552850132.12533 -8.723588e-001 1.538891e+002 -5.487907e+001 -1.935675e+001 -5.594904e+001 -3.496394e+001 -2.346654e-001 1.321507e+002
553227633.06908 -8.793582e-001 1.536325e+002 -5.543080e+001 -1.782588e+001 -5.571280e+001 -3.494707e+001 -2.344654e-001 1.320847e+002
553605134.01284 -8.829966e-001 1.533185e+002 -5.526269e+001 -2.052580e+001 -5.604494e+001 -3.476327e+001 -2.419595e-001 1.320433e+002
553982634.95659 -8.900294e-001 1.530570e+002 -5.551025e+001 -2.080151e+001 -5.547969e+001 -3.566269e+001 -2.376772e-001 1.319688e+002
554360135.90034 -8.964617e-001 1.527623e+002 -5.521716e+001 -1.999411e+001 -5.566958e+001 -3.746900e+001 -2.366346e-001 1.318992e+002
554737636.84409 -9.126975e-001 1.525359e+002 -5.536261e+001 -2.380348e+001 -5.557468e+001 -3.724116e+001 -2.361712e-001 1.318595e+002
555115137.78784 -9.220585e-001 1.523204e+002 -5.504959e+001 -2.149597e+001 -5.569400e+001 -3.772538e+001 -2.402264e-001 1.317831e+002
555492638.7316 -9.306175e-001 1.520107e+002 -5.525261e+001 -2.472763e+001 -5.554728e+001 -4.073655e+001 -2.378790e-001 1.317292e+002
