!Agilent Technologies,E8364B,US42250235,A.06.04.32
!Agilent E8364B: A.06.04.32
!Date: Thursday, October 01, 2020 14:19:08
!Correction: S11(Full 2 Port(1,2)) S21(Full 2 Port(1,2)) S12(Full 2 Port(1,2)) S22(Full 2 Port(1,2)) 
!S2P File: Measurements: S11, S21, S12, S22:
# Hz S  dB   R 50
500000000 -2.415763e-001 -1.753925e+002 -6.325005e+001 4.653589e+001 -6.354688e+001 4.506657e+001 -1.410456e-001 1.388246e+002
500377500.94375 -2.433472e-001 -1.754996e+002 -6.313166e+001 4.662817e+001 -6.334501e+001 5.079584e+001 -1.397933e-001 1.387825e+002
500755001.8875 -2.442735e-001 -1.757680e+002 -6.393226e+001 4.662039e+001 -6.342578e+001 4.641620e+001 -1.396433e-001 1.387474e+002
501132502.83126 -2.485193e-001 -1.759067e+002 -6.379348e+001 4.842117e+001 -6.322284e+001 4.869934e+001 -1.405312e-001 1.386897e+002
501510003.77501 -2.524726e-001 -1.760965e+002 -6.260088e+001 4.943654e+001 -6.389827e+001 4.828980e+001 -1.431147e-001 1.385664e+002
501887504.71876 -2.501756e-001 -1.764178e+002 -6.373013e+001 4.809869e+001 -6.409383e+001 4.998361e+001 -1.385016e-001 1.385741e+002
502265005.66251 -2.595206e-001 -1.765732e+002 -6.398907e+001 4.962782e+001 -6.385403e+001 4.049780e+001 -1.392938e-001 1.385248e+002
502642506.60627 -2.590393e-001 -1.768131e+002 -6.283588e+001 4.060095e+001 -6.296408e+001 4.340915e+001 -1.426320e-001 1.385127e+002
503020007.55002 -2.654238e-001 -1.769616e+002 -6.232301e+001 4.583302e+001 -6.306902e+001 3.895058e+001 -1.366739e-001 1.384096e+002
503397508.49377 -2.737559e-001 -1.771729e+002 -6.258792e+001 3.808549e+001 -6.408305e+001 4.047179e+001 -1.394610e-001 1.383732e+002
503775009.43752 -2.741461e-001 -1.773413e+002 -6.318848e+001 3.506686e+001 -6.361086e+001 4.397816e+001 -1.397247e-001 1.383023e+002
504152510.38128 -2.782248e-001 -1.776003e+002 -6.264247e+001 4.229470e+001 -6.329825e+001 4.030467e+001 -1.395210e-001 1.382354e+002
504530011.32503 -2.830648e-001 -1.777365e+002 -6.362641e+001 3.812412e+001 -6.333106e+001 3.821956e+001 -1.340841e-001 1.382005e+002
504907512.26878 -2.863262e-001 -1.779683e+002 -6.258326e+001 3.791661e+001 -6.262247e+001 4.061878e+001 -1.350789e-001 1.381469e+002
505285013.21253 -2.830244e-001 -1.782017e+002 -6.212672e+001 4.101003e+001 -6.230106e+001 3.839952e+001 -1.387686e-001 1.380834e+002
505662514.15629 -2.871611e-001 -1.783781e+002 -6.296435e+001 3.681423e+001 -6.217066e+001 3.889743e+001 -1.370246e-001 1.380327e+002
506040015.10004 -2.903704e-001 -1.785959e+002 -6.288812e+001 3.173290e+001 -6.286345e+001 4.066477e+001 -1.326618e-001 1.379976e+002
506417516.04379 -2.933549e-001 -1.787677e+002 -6.295487e+001 4.020023e+001 -6.254771e+001 3.726346e+001 -1.363184e-001 1.379493e+002
506795016.98754 -2.992120e-001 -1.789576e+002 -6.196352e+001 4.375354e+001 -6.382610e+001 3.650489e+001 -1.334792e-001 1.378916e+002
507172517.93129 -2.977970e-001 -1.792065e+002 -6.302693e+001 3.326776e+001 -6.308532e+001 3.904678e+001 -1.342710e-001 1.378531e+002
507550018.87505 -3.022393e-001 -1.793936e+002 -6.200035e+001 3.497659e+001 -6.210722e+001 3.247512e+001 -1.350440e-001 1.377984e+002
507927519.8188 -3.053987e-001 -1.796124e+002 -6.182657e+001 3.331506e+001 -6.251097e+001 3.468412e+001 -1.323013e-001 1.377402e+002
508305020.76255 -3.080058e-001 -1.797554e+002 -6.142658e+001 3.400181e+001 -6.197699e+001 3.238234e+001 -1.298638e-001 1.377118e+002
508682521.7063 -3.061293e-001 -1.799776e+002 -6.161800e+001 2.681211e+001 -6.216026e+001 3.418156e+001 -1.279610e-001 1.377023e+002
509060022.65006 -3.130982e-001 1.797602e+002 -6.144768e+001 2.635445e+001 -6.149767e+001 2.985541e+001 -1.291220e-001 1.376228e+002
509437523.59381 -3.120998e-001 1.795555e+002 -6.182996e+001 2.971573e+001 -6.188977e+001 3.031553e+001 -1.295782e-001 1.375916e+002
509815024.53756 -3.176339e-001 1.793631e+002 -6.188630e+001 2.651141e+001 -6.194945e+001 2.629255e+001 -1.269054e-001 1.375503e+002
510192525.48131 -3.209985e-001 1.791549e+002 -6.156374e+001 2.175550e+001 -6.192213e+001 2.722891e+001 -1.261853e-001 1.375023e+002
510570026.42507 -3.265652e-001 1.790377e+002 -6.121708e+001 2.726246e+001 -6.172244e+001 2.875527e+001 -1.227119e-001 1.374828e+002
510947527.36882 -3.243709e-001 1.787721e+002 -6.198738e+001 1.856930e+001 -6.167757e+001 2.219744e+001 -1.266835e-001 1.374061e+002
511325028.31257 -3.283710e-001 1.785763e+002 -6.240365e+001 2.095200e+001 -6.284013e+001 2.439722e+001 -1.246575e-001 1.373852e+002
511702529.25632 -3.298666e-001 1.783215e+002 -6.235595e+001 2.593021e+001 -6.178468e+001 2.614345e+001 -1.229119e-001 1.373472e+002
512080030.20008 -3.332433e-001 1.782111e+002 -6.233237e+001 2.259624e+001 -6.243214e+001 2.182788e+001 -1.215518e-001 1.373296e+002
512457531.14383 -3.351359e-001 1.779202e+002 -6.197601e+001 2.000153e+001 -6.110646e+001 2.175307e+001 -1.267728e-001 1.373083e+002
512835032.08758 -3.396965e-001 1.777151e+002 -6.202765e+001 1.991626e+001 -6.153510e+001 1.921089e+001 -1.258118e-001 1.372340e+002
513212533.03133 -3.419918e-001 1.775414e+002 -6.189761e+001 1.996305e+001 -6.193069e+001 1.670779e+001 -1.260497e-001 1.372038e+002
513590033.97508 -3.500518e-001 1.773665e+002 -6.176685e+001 2.005843e+001 -6.203807e+001 2.233086e+001 -1.271023e-001 1.372029e+002
513967534.91884 -3.489922e-001 1.770939e+002 -6.191019e+001 2.116079e+001 -6.070052e+001 1.977001e+001 -1.219499e-001 1.371557e+002
514345035.86259 -3.478951e-001 1.768712e+002 -6.175933e+001 1.790241e+001 -6.127792e+001 2.058498e+001 -1.246231e-001 1.371486e+002
514722536.80634 -3.540360e-001 1.766676e+002 -6.190803e+001 2.252084e+001 -6.108154e+001 1.261086e+001 -1.258939e-001 1.371195e+002
515100037.75009 -3.554371e-001 1.765166e+002 -6.092946e+001 2.094686e+001 -6.176161e+001 1.195947e+001 -1.254613e-001 1.370764e+002
515477538.69385 -3.591534e-001 1.762811e+002 -6.175112e+001 1.589863e+001 -6.100683e+001 1.437819e+001 -1.267041e-001 1.370574e+002
515855039.6376 -3.639042e-001 1.760551e+002 -6.100159e+001 1.729182e+001 -6.097861e+001 1.438291e+001 -1.274046e-001 1.370260e+002
516232540.58135 -3.691101e-001 1.758346e+002 -6.041194e+001 1.144521e+001 -6.093910e+001 1.190069e+001 -1.307705e-001 1.370001e+002
516610041.5251 -3.729140e-001 1.756344e+002 -6.047308e+001 1.618006e+001 -6.048401e+001 1.334801e+001 -1.297887e-001 1.369975e+002
516987542.46886 -3.804519e-001 1.753848e+002 -6.161143e+001 1.523462e+001 -6.044051e+001 1.311774e+001 -1.277806e-001 1.369458e+002
517365043.41261 -3.818606e-001 1.751806e+002 -6.042556e+001 8.483107e+000 -6.163305e+001 1.559889e+001 -1.282676e-001 1.369269e+002
517742544.35636 -3.847526e-001 1.749673e+002 -6.080965e+001 1.220796e+001 -6.046874e+001 8.437089e+000 -1.312961e-001 1.369074e+002
518120045.30011 -3.890034e-001 1.747425e+002 -6.084172e+001 9.011598e+000 -6.044906e+001 9.741437e+000 -1.289127e-001 1.368837e+002
518497546.24387 -3.909282e-001 1.745222e+002 -6.065504e+001 9.744723e+000 -6.103177e+001 7.184250e+000 -1.296174e-001 1.368507e+002
518875047.18762 -3.973768e-001 1.742923e+002 -5.987218e+001 6.123038e+000 -6.095644e+001 5.396805e+000 -1.348617e-001 1.368253e+002
519252548.13137 -4.028444e-001 1.740923e+002 -6.038612e+001 5.828485e+000 -6.087875e+001 5.268229e+000 -1.345791e-001 1.367803e+002
519630049.07512 -4.066377e-001 1.738630e+002 -5.993729e+001 5.654130e+000 -6.103526e+001 6.319102e+000 -1.364702e-001 1.367368e+002
520007550.01888 -4.133531e-001 1.736201e+002 -5.991146e+001 3.192986e+000 -6.107177e+001 7.279763e+000 -1.346694e-001 1.366939e+002
520385050.96263 -4.165127e-001 1.734238e+002 -6.079624e+001 4.389790e+000 -6.052182e+001 4.358437e+000 -1.356680e-001 1.366601e+002
520762551.90638 -4.227162e-001 1.732164e+002 -5.971839e+001 2.351293e+000 -6.048567e+001 1.113483e+000 -1.336872e-001 1.366497e+002
521140052.85013 -4.231321e-001 1.729760e+002 -6.036649e+001 -1.532781e+000 -6.036050e+001 -9.211946e-001 -1.351701e-001 1.365894e+002
521517553.79388 -4.318399e-001 1.728049e+002 -6.018204e+001 -3.013211e-001 -6.060777e+001 -1.231285e+000 -1.378871e-001 1.365522e+002
521895054.73764 -4.334840e-001 1.725430e+002 -6.035773e+001 4.445698e+000 -6.088792e+001 -1.048731e-001 -1.354206e-001 1.365359e+002
522272555.68139 -4.384665e-001 1.723383e+002 -5.980511e+001 -2.456289e+000 -6.057593e+001 1.284588e+000 -1.359731e-001 1.364474e+002
522650056.62514 -4.395818e-001 1.721193e+002 -5.988044e+001 -5.260892e+000 -6.047157e+001 -1.074632e+000 -1.372008e-001 1.363905e+002
523027557.56889 -4.438898e-001 1.719060e+002 -6.001146e+001 -3.755135e+000 -6.031399e+001 -4.689900e+000 -1.435804e-001 1.363813e+002
523405058.51265 -4.468118e-001 1.716857e+002 -6.016530e+001 -6.153261e+000 -6.041201e+001 -4.281003e+000 -1.431499e-001 1.363307e+002
523782559.4564 -4.521281e-001 1.714987e+002 -5.970357e+001 -9.507565e+000 -5.973018e+001 -4.939999e+000 -1.440420e-001 1.362844e+002
524160060.40015 -4.529799e-001 1.712198e+002 -5.978736e+001 -9.106531e+000 -5.989796e+001 -6.260072e+000 -1.463827e-001 1.362537e+002
524537561.3439 -4.564694e-001 1.710854e+002 -6.039257e+001 -4.120508e+000 -6.033923e+001 -3.002661e+000 -1.444120e-001 1.361779e+002
524915062.28766 -4.578961e-001 1.707699e+002 -5.966169e+001 -1.406804e+001 -6.039790e+001 -4.465435e+000 -1.432709e-001 1.360935e+002
525292563.23141 -4.619889e-001 1.705835e+002 -5.984464e+001 -1.217048e+001 -6.009887e+001 -8.154011e+000 -1.493466e-001 1.360523e+002
525670064.17516 -4.648186e-001 1.703416e+002 -5.946970e+001 -1.157838e+001 -6.010648e+001 -8.017216e+000 -1.451760e-001 1.359954e+002
526047565.11891 -4.718058e-001 1.701226e+002 -6.026242e+001 -1.057838e+001 -6.001280e+001 -7.895877e+000 -1.448200e-001 1.359409e+002
526425066.06267 -4.720730e-001 1.698763e+002 -5.993404e+001 -1.060416e+001 -6.039020e+001 -1.289824e+001 -1.486496e-001 1.358659e+002
526802567.00642 -4.773971e-001 1.697093e+002 -5.943873e+001 -1.240248e+001 -5.994692e+001 -1.531593e+001 -1.490330e-001 1.358153e+002
527180067.95017 -4.814534e-001 1.694988e+002 -6.023744e+001 -1.450130e+001 -5.993003e+001 -9.583889e+000 -1.476510e-001 1.357352e+002
527557568.89392 -4.833247e-001 1.692100e+002 -5.994849e+001 -1.759666e+001 -5.953512e+001 -1.132150e+001 -1.499365e-001 1.356769e+002
527935069.83767 -4.880917e-001 1.690812e+002 -5.971180e+001 -1.470582e+001 -5.996151e+001 -1.062883e+001 -1.485897e-001 1.356150e+002
528312570.78143 -4.921655e-001 1.688618e+002 -6.007201e+001 -1.538154e+001 -5.997805e+001 -1.362028e+001 -1.498418e-001 1.355667e+002
528690071.72518 -4.923882e-001 1.686109e+002 -5.996417e+001 -1.598861e+001 -5.934218e+001 -1.413400e+001 -1.539169e-001 1.354895e+002
529067572.66893 -5.016866e-001 1.683923e+002 -5.987047e+001 -1.643373e+001 -5.945404e+001 -1.192443e+001 -1.486887e-001 1.354403e+002
529445073.61268 -5.012473e-001 1.680795e+002 -5.996813e+001 -1.435418e+001 -6.031898e+001 -1.602015e+001 -1.501274e-001 1.353660e+002
529822574.55644 -5.052554e-001 1.678526e+002 -5.956049e+001 -1.586953e+001 -5.953464e+001 -1.636967e+001 -1.506982e-001 1.353216e+002
530200075.50019 -5.101040e-001 1.677012e+002 -5.941520e+001 -1.439447e+001 -5.936271e+001 -2.058771e+001 -1.543974e-001 1.352370e+002
530577576.44394 -5.164521e-001 1.674454e+002 -5.958210e+001 -1.949547e+001 -5.958249e+001 -1.956177e+001 -1.511993e-001 1.351793e+002
530955077.38769 -5.223038e-001 1.672244e+002 -5.964156e+001 -2.368151e+001 -5.982564e+001 -2.172553e+001 -1.510280e-001 1.351353e+002
531332578.33145 -5.299080e-001 1.670091e+002 -5.961124e+001 -1.746769e+001 -5.936894e+001 -1.661133e+001 -1.528675e-001 1.350938e+002
531710079.2752 -5.367635e-001 1.667648e+002 -5.947918e+001 -1.611199e+001 -5.931476e+001 -2.084878e+001 -1.483724e-001 1.350027e+002
532087580.21895 -5.414277e-001 1.665844e+002 -5.931152e+001 -2.535874e+001 -5.947759e+001 -1.830293e+001 -1.506585e-001 1.349715e+002
532465081.1627 -5.464599e-001 1.662675e+002 -5.962961e+001 -2.452829e+001 -5.929518e+001 -2.003781e+001 -1.500389e-001 1.349365e+002
532842582.10646 -5.501410e-001 1.660710e+002 -5.972347e+001 -2.092010e+001 -5.931945e+001 -2.442897e+001 -1.477697e-001 1.348560e+002
533220083.05021 -5.592418e-001 1.658678e+002 -5.943586e+001 -2.105634e+001 -5.966297e+001 -1.856050e+001 -1.511596e-001 1.348195e+002
533597583.99396 -5.603095e-001 1.655768e+002 -5.855541e+001 -2.301358e+001 -5.942920e+001 -2.024893e+001 -1.527234e-001 1.347824e+002
533975084.93771 -5.732501e-001 1.653867e+002 -5.953480e+001 -2.339213e+001 -5.936381e+001 -2.398591e+001 -1.495352e-001 1.347279e+002
534352585.88146 -5.762635e-001 1.651651e+002 -5.916505e+001 -2.346972e+001 -5.943324e+001 -2.476102e+001 -1.460381e-001 1.346983e+002
534730086.82522 -5.796769e-001 1.648753e+002 -5.895207e+001 -2.328465e+001 -5.903667e+001 -2.378180e+001 -1.499703e-001 1.346052e+002
535107587.76897 -5.842560e-001 1.647475e+002 -5.968160e+001 -2.417356e+001 -5.893781e+001 -2.431766e+001 -1.487889e-001 1.346116e+002
535485088.71272 -5.917299e-001 1.644911e+002 -5.934871e+001 -2.420082e+001 -5.845401e+001 -2.430849e+001 -1.440962e-001 1.345575e+002
535862589.65647 -5.943941e-001 1.642609e+002 -5.909169e+001 -2.900835e+001 -5.865737e+001 -2.517319e+001 -1.450482e-001 1.345260e+002
536240090.60023 -5.977066e-001 1.640253e+002 -5.899751e+001 -3.047663e+001 -5.861428e+001 -2.392817e+001 -1.465559e-001 1.344926e+002
536617591.54398 -6.052024e-001 1.637967e+002 -5.840250e+001 -2.596616e+001 -5.887318e+001 -2.440943e+001 -1.456551e-001 1.344587e+002
536995092.48773 -6.077670e-001 1.636055e+002 -5.831549e+001 -2.844317e+001 -5.841555e+001 -2.749966e+001 -1.473755e-001 1.344171e+002
537372593.43148 -6.158155e-001 1.633600e+002 -5.842162e+001 -2.797462e+001 -5.842467e+001 -2.592698e+001 -1.447528e-001 1.343853e+002
537750094.37524 -6.217358e-001 1.631012e+002 -5.788974e+001 -2.982862e+001 -5.775281e+001 -2.771394e+001 -1.432598e-001 1.343692e+002
538127595.31899 -6.303424e-001 1.629013e+002 -5.836568e+001 -2.809753e+001 -5.822763e+001 -2.912963e+001 -1.452297e-001 1.343121e+002
538505096.26274 -6.297166e-001 1.626004e+002 -5.780805e+001 -3.308008e+001 -5.776587e+001 -3.181605e+001 -1.464325e-001 1.342828e+002
538882597.20649 -6.406096e-001 1.624329e+002 -5.795658e+001 -2.950969e+001 -5.801746e+001 -3.356001e+001 -1.429688e-001 1.342044e+002
539260098.15025 -6.477486e-001 1.621805e+002 -5.820568e+001 -3.168523e+001 -5.782318e+001 -3.493537e+001 -1.425122e-001 1.342164e+002
539637599.094 -6.486590e-001 1.619551e+002 -5.809671e+001 -3.598968e+001 -5.784046e+001 -3.638144e+001 -1.451692e-001 1.341816e+002
540015100.03775 -6.547810e-001 1.617477e+002 -5.765905e+001 -3.820063e+001 -5.792166e+001 -3.913089e+001 -1.447549e-001 1.341847e+002
540392600.9815 -6.621882e-001 1.614989e+002 -5.708904e+001 -3.725267e+001 -5.763826e+001 -3.777092e+001 -1.443533e-001 1.340959e+002
540770101.92525 -6.717179e-001 1.613566e+002 -5.728584e+001 -3.808807e+001 -5.714894e+001 -3.758910e+001 -1.456890e-001 1.340829e+002
541147602.86901 -6.699802e-001 1.611193e+002 -5.772874e+001 -4.036150e+001 -5.700755e+001 -4.161086e+001 -1.435793e-001 1.340356e+002
541525103.81276 -6.776346e-001 1.608482e+002 -5.734935e+001 -4.190048e+001 -5.721383e+001 -4.349505e+001 -1.443700e-001 1.339828e+002
541902604.75651 -6.852396e-001 1.607251e+002 -5.675538e+001 -3.905193e+001 -5.742758e+001 -4.286546e+001 -1.433894e-001 1.339630e+002
542280105.70026 -6.865695e-001 1.604488e+002 -5.739393e+001 -4.054214e+001 -5.745778e+001 -4.512223e+001 -1.420438e-001 1.339243e+002
542657606.64402 -6.890558e-001 1.602446e+002 -5.701690e+001 -4.750095e+001 -5.754939e+001 -4.307986e+001 -1.437348e-001 1.338831e+002
543035107.58777 -6.942652e-001 1.600022e+002 -5.701668e+001 -4.273275e+001 -5.745814e+001 -4.611883e+001 -1.439429e-001 1.338323e+002
543412608.53152 -6.993212e-001 1.598197e+002 -5.731459e+001 -4.707779e+001 -5.704005e+001 -4.549835e+001 -1.462685e-001 1.337873e+002
543790109.47527 -6.983106e-001 1.595764e+002 -5.705452e+001 -4.709247e+001 -5.756029e+001 -4.591284e+001 -1.460406e-001 1.337364e+002
544167610.41903 -7.018743e-001 1.593963e+002 -5.689854e+001 -4.763050e+001 -5.743060e+001 -4.755375e+001 -1.467501e-001 1.336555e+002
544545111.36278 -7.012332e-001 1.591278e+002 -5.674069e+001 -4.877708e+001 -5.717938e+001 -4.743652e+001 -1.427894e-001 1.336551e+002
544922612.30653 -7.031218e-001 1.588901e+002 -5.695144e+001 -5.086599e+001 -5.748654e+001 -4.990715e+001 -1.423446e-001 1.336041e+002
545300113.25028 -7.022067e-001 1.587085e+002 -5.693359e+001 -4.927295e+001 -5.698686e+001 -4.914928e+001 -1.453745e-001 1.335880e+002
545677614.19404 -7.048563e-001 1.584701e+002 -5.661198e+001 -4.950066e+001 -5.744184e+001 -4.880913e+001 -1.437928e-001 1.335218e+002
546055115.13779 -7.086017e-001 1.582617e+002 -5.685859e+001 -5.124686e+001 -5.731013e+001 -5.336857e+001 -1.487303e-001 1.334601e+002
546432616.08154 -7.084297e-001 1.579785e+002 -5.659869e+001 -5.443031e+001 -5.707372e+001 -5.144443e+001 -1.478743e-001 1.333799e+002
546810117.02529 -7.073427e-001 1.577187e+002 -5.660742e+001 -5.101709e+001 -5.694849e+001 -5.190305e+001 -1.503517e-001 1.333562e+002
547187617.96904 -7.116383e-001 1.574536e+002 -5.642548e+001 -5.533685e+001 -5.704390e+001 -5.355509e+001 -1.491216e-001 1.333227e+002
547565118.9128 -7.193808e-001 1.571465e+002 -5.702991e+001 -5.327073e+001 -5.667484e+001 -5.520416e+001 -1.521536e-001 1.332671e+002
547942619.85655 -7.186515e-001 1.569092e+002 -5.659528e+001 -5.585630e+001 -5.686159e+001 -5.512811e+001 -1.550588e-001 1.332251e+002
548320120.8003 -7.250051e-001 1.566539e+002 -5.666558e+001 -5.755994e+001 -5.674018e+001 -5.581823e+001 -1.508002e-001 1.331655e+002
548697621.74405 -7.335174e-001 1.563970e+002 -5.645897e+001 -5.673341e+001 -5.651855e+001 -5.753718e+001 -1.539721e-001 1.331160e+002
549075122.68781 -7.421892e-001 1.561126e+002 -5.655962e+001 -5.715555e+001 -5.664922e+001 -5.707335e+001 -1.540005e-001 1.331074e+002
549452623.63156 -7.511594e-001 1.558824e+002 -5.646118e+001 -6.292909e+001 -5.671510e+001 -6.029397e+001 -1.581606e-001 1.330163e+002
549830124.57531 -7.596025e-001 1.556028e+002 -5.624044e+001 -6.222971e+001 -5.662209e+001 -6.076175e+001 -1.592000e-001 1.329776e+002
550207625.51906 -7.598392e-001 1.553652e+002 -5.589397e+001 -6.200097e+001 -5.641384e+001 -5.813183e+001 -1.568697e-001 1.329245e+002
550585126.46282 -7.666765e-001 1.551380e+002 -5.619947e+001 -6.239061e+001 -5.644369e+001 -6.004747e+001 -1.579074e-001 1.328765e+002
550962627.40657 -7.731397e-001 1.548357e+002 -5.589653e+001 -6.336752e+001 -5.642525e+001 -6.223872e+001 -1.584400e-001 1.328224e+002
551340128.35032 -7.744555e-001 1.546402e+002 -5.592940e+001 -6.441728e+001 -5.567975e+001 -6.124020e+001 -1.587124e-001 1.327846e+002
551717629.29407 -7.826914e-001 1.543414e+002 -5.590508e+001 -6.601057e+001 -5.555248e+001 -6.355486e+001 -1.579539e-001 1.327284e+002
552095130.23783 -7.879830e-001 1.540739e+002 -5.576516e+001 -6.994922e+001 -5.584077e+001 -6.306717e+001 -1.566712e-001 1.326646e+002
552472631.18158 -7.890404e-001 1.538047e+002 -5.599311e+001 -6.717059e+001 -5.582928e+001 -6.748909e+001 -1.593105e-001 1.326174e+002
552850132.12533 -7.955906e-001 1.535218e+002 -5.603048e+001 -6.931254e+001 -5.581248e+001 -6.496856e+001 -1.583274e-001 1.325597e+002
553227633.06908 -8.024731e-001 1.532729e+002 -5.620602e+001 -7.000591e+001 -5.589457e+001 -6.877193e+001 -1.587438e-001 1.325107e+002
553605134.01284 -8.077570e-001 1.529690e+002 -5.571741e+001 -7.211855e+001 -5.563210e+001 -6.727319e+001 -1.658536e-001 1.324643e+002
553982634.95659 -8.172303e-001 1.527107e+002 -5.575708e+001 -7.312563e+001 -5.564416e+001 -6.968047e+001 -1.614848e-001 1.324016e+002
554360135.90034 -8.261746e-001 1.524440e+002 -5.598483e+001 -7.278645e+001 -5.576271e+001 -7.164968e+001 -1.606644e-001 1.323581e+002
554737636.84409 -8.370363e-001 1.521337e+002 -5.584182e+001 -7.429044e+001 -5.573270e+001 -7.036726e+001 -1.635285e-001 1.323139e+002
555115137.78784 -8.458291e-001 1.519068e+002 -5.546062e+001 -7.374577e+001 -5.585341e+001 -7.096063e+001 -1.636314e-001 1.322630e+002
