!Agilent Technologies,E8364B,US42250235,A.06.04.32
!Agilent E8364B: A.06.04.32
!Date: Thursday, October 01, 2020 14:22:06
!Correction: S11(Full 2 Port(1,2)) S21(Full 2 Port(1,2)) S12(Full 2 Port(1,2)) S22(Full 2 Port(1,2)) 
!S2P File: Measurements: S11, S21, S12, S22:
# Hz S  dB   R 50
500000000 -2.108817e-001 -1.755043e+002 -5.677526e+001 9.562802e+001 -6.236160e+001 3.258425e+001 -1.723058e-001 1.373292e+002
500377500.94375 -2.168356e-001 -1.756654e+002 -5.626082e+001 9.130403e+001 -6.263623e+001 2.977752e+001 -1.723251e-001 1.373015e+002
500755001.8875 -2.155594e-001 -1.758531e+002 -5.634759e+001 9.127393e+001 -6.239743e+001 3.100523e+001 -1.730486e-001 1.372698e+002
501132502.83126 -2.201769e-001 -1.760420e+002 -5.661616e+001 9.210205e+001 -6.348450e+001 3.028023e+001 -1.734719e-001 1.372052e+002
501510003.77501 -2.231113e-001 -1.762766e+002 -5.652399e+001 9.134180e+001 -6.230536e+001 2.863372e+001 -1.777903e-001 1.371147e+002
501887504.71876 -2.232840e-001 -1.764973e+002 -5.643972e+001 9.072350e+001 -6.270434e+001 2.173979e+001 -1.728752e-001 1.370939e+002
502265005.66251 -2.315023e-001 -1.766689e+002 -5.675338e+001 9.188019e+001 -6.311585e+001 2.611852e+001 -1.721280e-001 1.370437e+002
502642506.60627 -2.296990e-001 -1.769283e+002 -5.600667e+001 8.910938e+001 -6.191074e+001 2.410609e+001 -1.751092e-001 1.370366e+002
503020007.55002 -2.381209e-001 -1.771337e+002 -5.542522e+001 8.920737e+001 -6.192882e+001 2.338338e+001 -1.723116e-001 1.369358e+002
503397508.49377 -2.421335e-001 -1.773468e+002 -5.564548e+001 9.063846e+001 -6.308508e+001 1.897882e+001 -1.754922e-001 1.369189e+002
503775009.43752 -2.418651e-001 -1.775776e+002 -5.603578e+001 8.995621e+001 -6.237024e+001 1.978571e+001 -1.745996e-001 1.368570e+002
504152510.38128 -2.448303e-001 -1.778148e+002 -5.558190e+001 8.947724e+001 -6.266517e+001 1.417843e+001 -1.751990e-001 1.367866e+002
504530011.32503 -2.499604e-001 -1.780026e+002 -5.534724e+001 8.701405e+001 -6.262730e+001 2.554713e+001 -1.729268e-001 1.367433e+002
504907512.26878 -2.523401e-001 -1.781609e+002 -5.576841e+001 8.664030e+001 -6.178587e+001 1.491488e+001 -1.745031e-001 1.367080e+002
505285013.21253 -2.526363e-001 -1.784070e+002 -5.521637e+001 8.589832e+001 -6.201418e+001 1.612379e+001 -1.731249e-001 1.366300e+002
505662514.15629 -2.558874e-001 -1.786098e+002 -5.518242e+001 8.429402e+001 -6.233269e+001 2.102292e+001 -1.725647e-001 1.365981e+002
506040015.10004 -2.581104e-001 -1.788734e+002 -5.507674e+001 8.461746e+001 -6.245198e+001 1.279692e+001 -1.688980e-001 1.365513e+002
506417516.04379 -2.606295e-001 -1.790710e+002 -5.515933e+001 8.462531e+001 -6.216470e+001 1.422184e+001 -1.684208e-001 1.364822e+002
506795016.98754 -2.696424e-001 -1.792292e+002 -5.530904e+001 8.521432e+001 -6.177946e+001 1.860009e+001 -1.698221e-001 1.364279e+002
507172517.93129 -2.686194e-001 -1.794390e+002 -5.553770e+001 8.569409e+001 -6.117614e+001 1.442220e+001 -1.693798e-001 1.363974e+002
507550018.87505 -2.754759e-001 -1.796281e+002 -5.467686e+001 8.294760e+001 -6.192779e+001 1.658963e+001 -1.684843e-001 1.363650e+002
507927519.8188 -2.747563e-001 -1.798939e+002 -5.512238e+001 8.185537e+001 -6.183581e+001 9.757466e+000 -1.645989e-001 1.362898e+002
508305020.76255 -2.760181e-001 1.799155e+002 -5.466919e+001 8.046313e+001 -6.128224e+001 1.031883e+001 -1.676540e-001 1.362752e+002
508682521.7063 -2.775423e-001 1.797200e+002 -5.491223e+001 8.206582e+001 -6.245992e+001 1.506089e+001 -1.620400e-001 1.362652e+002
509060022.65006 -2.822150e-001 1.794860e+002 -5.503274e+001 8.222767e+001 -6.166567e+001 1.438687e+001 -1.651410e-001 1.361902e+002
509437523.59381 -2.839199e-001 1.792266e+002 -5.462121e+001 8.143010e+001 -6.101018e+001 1.176412e+001 -1.640620e-001 1.361447e+002
509815024.53756 -2.886514e-001 1.790686e+002 -5.449263e+001 8.237735e+001 -6.096429e+001 1.242950e+001 -1.593843e-001 1.361149e+002
510192525.48131 -2.929125e-001 1.788342e+002 -5.459674e+001 8.160979e+001 -6.154649e+001 1.014941e+001 -1.603646e-001 1.360474e+002
510570026.42507 -3.002077e-001 1.786127e+002 -5.433039e+001 7.927406e+001 -6.183349e+001 7.651895e+000 -1.604074e-001 1.360500e+002
510947527.36882 -2.968783e-001 1.784230e+002 -5.448278e+001 7.995964e+001 -6.028606e+001 5.153732e+000 -1.591066e-001 1.359832e+002
511325028.31257 -3.054417e-001 1.782436e+002 -5.399142e+001 7.836105e+001 -6.082682e+001 9.808270e+000 -1.567534e-001 1.359605e+002
511702529.25632 -3.047030e-001 1.779513e+002 -5.371413e+001 7.852983e+001 -6.070813e+001 9.066880e+000 -1.586596e-001 1.359100e+002
512080030.20008 -3.107961e-001 1.777754e+002 -5.396880e+001 7.816299e+001 -6.073008e+001 8.669070e+000 -1.573898e-001 1.358964e+002
512457531.14383 -3.122532e-001 1.775322e+002 -5.400858e+001 7.828011e+001 -6.073790e+001 8.186594e+000 -1.576817e-001 1.358649e+002
512835032.08758 -3.147181e-001 1.772946e+002 -5.400126e+001 7.779713e+001 -6.089030e+001 5.018428e+000 -1.586147e-001 1.358065e+002
513212533.03133 -3.209778e-001 1.771111e+002 -5.366418e+001 7.755951e+001 -6.019333e+001 4.972030e+000 -1.569490e-001 1.357908e+002
513590033.97508 -3.238976e-001 1.769165e+002 -5.364557e+001 7.708879e+001 -6.019144e+001 3.915048e+000 -1.605444e-001 1.357848e+002
513967534.91884 -3.280586e-001 1.766916e+002 -5.342887e+001 7.601227e+001 -6.040167e+001 6.114633e+000 -1.614311e-001 1.357437e+002
514345035.86259 -3.309906e-001 1.764385e+002 -5.342019e+001 7.536844e+001 -5.977261e+001 2.699398e+000 -1.597600e-001 1.357479e+002
514722536.80634 -3.327782e-001 1.762510e+002 -5.317367e+001 7.513637e+001 -6.006401e+001 -1.913020e+000 -1.598490e-001 1.357150e+002
515100037.75009 -3.399120e-001 1.760901e+002 -5.313264e+001 7.467539e+001 -6.031079e+001 -4.334342e-001 -1.641437e-001 1.356726e+002
515477538.69385 -3.413101e-001 1.757805e+002 -5.327966e+001 7.249973e+001 -5.968037e+001 -1.530677e+000 -1.635858e-001 1.356591e+002
515855039.6376 -3.450522e-001 1.756232e+002 -5.312568e+001 7.252801e+001 -5.995547e+001 -3.701572e-001 -1.631463e-001 1.356369e+002
516232540.58135 -3.510986e-001 1.753312e+002 -5.276051e+001 7.369583e+001 -5.957447e+001 -4.060571e+000 -1.650411e-001 1.356183e+002
516610041.5251 -3.577643e-001 1.751684e+002 -5.285634e+001 7.201800e+001 -5.972309e+001 -3.451093e+000 -1.665686e-001 1.356162e+002
516987542.46886 -3.645078e-001 1.749359e+002 -5.272992e+001 7.124688e+001 -5.993418e+001 -4.903566e+000 -1.663225e-001 1.355920e+002
517365043.41261 -3.674281e-001 1.746810e+002 -5.254304e+001 7.191537e+001 -5.964595e+001 -3.427879e+000 -1.645485e-001 1.355856e+002
517742544.35636 -3.698258e-001 1.743770e+002 -5.242223e+001 6.992329e+001 -5.943125e+001 -4.710390e+000 -1.700408e-001 1.355800e+002
518120045.30011 -3.791115e-001 1.742251e+002 -5.252363e+001 7.025378e+001 -5.922190e+001 -5.870267e+000 -1.707809e-001 1.355566e+002
518497546.24387 -3.794717e-001 1.739170e+002 -5.232925e+001 6.927601e+001 -5.942808e+001 -5.589291e+000 -1.729951e-001 1.355457e+002
518875047.18762 -3.873257e-001 1.737027e+002 -5.233281e+001 6.731453e+001 -5.953701e+001 -4.524688e+000 -1.762616e-001 1.355249e+002
519252548.13137 -3.905820e-001 1.734397e+002 -5.231869e+001 6.699012e+001 -5.931107e+001 -6.675186e+000 -1.767321e-001 1.354582e+002
519630049.07512 -4.007397e-001 1.732708e+002 -5.229295e+001 6.670303e+001 -5.870682e+001 -1.179337e+001 -1.778971e-001 1.354740e+002
520007550.01888 -4.050401e-001 1.729985e+002 -5.211353e+001 6.609910e+001 -5.929374e+001 -1.152753e+001 -1.797793e-001 1.354366e+002
520385050.96263 -4.134212e-001 1.728130e+002 -5.187648e+001 6.505805e+001 -5.859454e+001 -1.148159e+001 -1.801722e-001 1.354244e+002
520762551.90638 -4.202755e-001 1.726073e+002 -5.200373e+001 6.539881e+001 -5.910446e+001 -1.074598e+001 -1.796480e-001 1.354151e+002
521140052.85013 -4.227165e-001 1.722671e+002 -5.176212e+001 6.331497e+001 -5.896355e+001 -1.334326e+001 -1.807453e-001 1.353910e+002
521517553.79388 -4.331120e-001 1.720847e+002 -5.174028e+001 6.240410e+001 -5.867985e+001 -1.480683e+001 -1.812064e-001 1.353327e+002
521895054.73764 -4.383645e-001 1.718464e+002 -5.173714e+001 6.144493e+001 -5.852516e+001 -1.607164e+001 -1.858760e-001 1.353348e+002
522272555.68139 -4.468045e-001 1.716738e+002 -5.165683e+001 6.145056e+001 -5.897820e+001 -1.656554e+001 -1.854306e-001 1.352736e+002
522650056.62514 -4.497584e-001 1.714327e+002 -5.177121e+001 5.974160e+001 -5.884675e+001 -1.763340e+001 -1.871404e-001 1.352600e+002
523027557.56889 -4.561874e-001 1.711430e+002 -5.160051e+001 6.097435e+001 -5.858616e+001 -1.655047e+001 -1.890035e-001 1.352120e+002
523405058.51265 -4.628055e-001 1.709883e+002 -5.148187e+001 6.092822e+001 -5.852306e+001 -1.942606e+001 -1.925381e-001 1.351759e+002
523782559.4564 -4.829741e-001 1.715712e+002 -5.894242e+001 -2.392161e+000 -5.876030e+001 -1.442244e+001 -1.934240e-001 1.351435e+002
524160060.40015 -4.802414e-001 1.713348e+002 -5.911827e+001 -5.823117e+000 -5.882824e+001 -2.056068e+001 -1.951410e-001 1.351052e+002
524537561.3439 -4.859965e-001 1.711658e+002 -5.948529e+001 -5.974852e+000 -5.863142e+001 -2.191524e+001 -1.903067e-001 1.350477e+002
524915062.28766 -4.858336e-001 1.709076e+002 -5.922015e+001 -7.252553e+000 -5.912170e+001 -2.633506e+001 -1.944708e-001 1.349691e+002
525292563.23141 -4.870458e-001 1.707994e+002 -5.923072e+001 -1.108459e+001 -5.869456e+001 -2.520145e+001 -1.975864e-001 1.349426e+002
525670064.17516 -4.887078e-001 1.705100e+002 -5.912420e+001 -1.034153e+001 -5.864190e+001 -2.385368e+001 -1.972899e-001 1.348828e+002
526047565.11891 -4.919027e-001 1.703097e+002 -5.879116e+001 -7.420360e+000 -5.818315e+001 -2.503829e+001 -1.987385e-001 1.348328e+002
526425066.06267 -4.921898e-001 1.701134e+002 -5.929462e+001 -8.899457e+000 -5.866826e+001 -3.000612e+001 -1.995333e-001 1.347610e+002
526802567.00642 -4.955081e-001 1.698788e+002 -5.919439e+001 -7.864300e+000 -5.850875e+001 -2.700030e+001 -1.988736e-001 1.347329e+002
527180067.95017 -4.962821e-001 1.696501e+002 -5.885987e+001 -9.806291e+000 -5.866691e+001 -2.632168e+001 -1.982818e-001 1.346415e+002
527557568.89392 -4.977735e-001 1.694314e+002 -5.926394e+001 -1.354672e+001 -5.826874e+001 -2.581076e+001 -2.019196e-001 1.345854e+002
527935069.83767 -4.986748e-001 1.692083e+002 -5.905606e+001 -1.253969e+001 -5.879777e+001 -3.016011e+001 -2.011657e-001 1.345278e+002
528312570.78143 -5.015905e-001 1.689913e+002 -5.864308e+001 -1.283968e+001 -5.847978e+001 -2.745796e+001 -2.038080e-001 1.344557e+002
528690071.72518 -5.065045e-001 1.687408e+002 -5.936940e+001 -1.526451e+001 -5.865919e+001 -3.201117e+001 -2.042155e-001 1.343965e+002
529067572.66893 -5.080971e-001 1.685093e+002 -5.888491e+001 -9.110106e+000 -5.835184e+001 -2.812126e+001 -2.036304e-001 1.343325e+002
529445073.61268 -5.132880e-001 1.682290e+002 -5.946934e+001 -1.009608e+001 -5.833346e+001 -2.965957e+001 -2.043362e-001 1.342655e+002
529822574.55644 -5.148063e-001 1.680049e+002 -5.888476e+001 -1.455243e+001 -5.807855e+001 -2.750813e+001 -2.057597e-001 1.342027e+002
530200075.50019 -5.200846e-001 1.678727e+002 -5.888523e+001 -1.346253e+001 -5.841322e+001 -3.039090e+001 -2.059068e-001 1.341313e+002
530577576.44394 -5.228440e-001 1.675263e+002 -5.881882e+001 -1.243999e+001 -5.845753e+001 -3.002214e+001 -2.072224e-001 1.340661e+002
530955077.38769 -5.292862e-001 1.673834e+002 -5.881783e+001 -1.095018e+001 -5.797710e+001 -3.105243e+001 -2.097979e-001 1.340183e+002
531332578.33145 -5.364074e-001 1.671224e+002 -5.824765e+001 -1.379582e+001 -5.847677e+001 -2.941236e+001 -2.110474e-001 1.339739e+002
531710079.2752 -5.462746e-001 1.669294e+002 -5.831074e+001 -1.255503e+001 -5.799652e+001 -3.249148e+001 -2.052303e-001 1.338823e+002
532087580.21895 -5.473797e-001 1.666631e+002 -5.786128e+001 -1.927694e+001 -5.806739e+001 -3.341208e+001 -2.085675e-001 1.338520e+002
532465081.1627 -5.550828e-001 1.663989e+002 -5.860987e+001 -1.444971e+001 -5.810631e+001 -3.190474e+001 -2.086584e-001 1.338138e+002
532842582.10646 -5.588333e-001 1.662207e+002 -5.884080e+001 -1.721210e+001 -5.797979e+001 -3.293486e+001 -2.038400e-001 1.337456e+002
533220083.05021 -5.674919e-001 1.659323e+002 -5.834245e+001 -1.895524e+001 -5.774440e+001 -3.620737e+001 -2.067061e-001 1.336938e+002
533597583.99396 -5.699866e-001 1.656812e+002 -5.832489e+001 -2.005357e+001 -5.813799e+001 -3.547778e+001 -2.095970e-001 1.336587e+002
533975084.93771 -5.844948e-001 1.655258e+002 -5.748374e+001 -2.215459e+001 -5.751519e+001 -3.753566e+001 -2.071279e-001 1.336148e+002
534352585.88146 -5.863461e-001 1.652060e+002 -5.805324e+001 -1.934907e+001 -5.725076e+001 -3.634231e+001 -2.044359e-001 1.335848e+002
534730086.82522 -5.942719e-001 1.650178e+002 -5.763704e+001 -2.249476e+001 -5.739982e+001 -3.990048e+001 -2.019574e-001 1.335511e+002
535107587.76897 -6.030756e-001 1.648114e+002 -5.797153e+001 -2.247781e+001 -5.757450e+001 -3.927682e+001 -2.076539e-001 1.334609e+002
535485088.71272 -6.115926e-001 1.646066e+002 -5.816528e+001 -2.024271e+001 -5.781306e+001 -3.815553e+001 -1.983723e-001 1.334536e+002
535862589.65647 -6.196714e-001 1.644284e+002 -5.820726e+001 -2.823603e+001 -5.721317e+001 -3.850471e+001 -2.016994e-001 1.334145e+002
536240090.60023 -6.188713e-001 1.641317e+002 -5.818771e+001 -2.781315e+001 -5.802724e+001 -4.193651e+001 -2.018356e-001 1.334039e+002
536617591.54398 -6.229037e-001 1.639970e+002 -5.825472e+001 -2.819475e+001 -5.747902e+001 -4.322420e+001 -1.995197e-001 1.333889e+002
536995092.48773 -6.244372e-001 1.637328e+002 -5.759653e+001 -2.859875e+001 -5.726810e+001 -4.198856e+001 -1.988003e-001 1.333060e+002
537372593.43148 -6.312021e-001 1.635130e+002 -5.774683e+001 -2.629746e+001 -5.703188e+001 -4.304065e+001 -2.012967e-001 1.333254e+002
537750094.37524 -6.342858e-001 1.632674e+002 -5.769487e+001 -2.935335e+001 -5.722752e+001 -4.636772e+001 -1.979128e-001 1.333224e+002
538127595.31899 -6.414875e-001 1.630699e+002 -5.823543e+001 -3.184674e+001 -5.669311e+001 -4.414292e+001 -1.978602e-001 1.332801e+002
538505096.26274 -6.440274e-001 1.627975e+002 -5.795645e+001 -2.848696e+001 -5.698423e+001 -4.547804e+001 -2.008431e-001 1.332067e+002
538882597.20649 -6.504615e-001 1.626164e+002 -5.741866e+001 -3.424137e+001 -5.680595e+001 -4.826168e+001 -1.988944e-001 1.332424e+002
539260098.15025 -6.551980e-001 1.624116e+002 -5.727695e+001 -3.068579e+001 -5.676988e+001 -4.671814e+001 -1.943386e-001 1.332110e+002
539637599.094 -6.579114e-001 1.622121e+002 -5.807751e+001 -3.097040e+001 -5.631625e+001 -4.815135e+001 -1.973156e-001 1.331885e+002
540015100.03775 -6.591313e-001 1.619970e+002 -5.759998e+001 -3.452697e+001 -5.676266e+001 -4.903316e+001 -1.970426e-001 1.332068e+002
540392600.9815 -6.623675e-001 1.616820e+002 -5.781891e+001 -3.284468e+001 -5.716368e+001 -5.023369e+001 -1.965822e-001 1.331376e+002
540770101.92525 -6.637563e-001 1.614875e+002 -5.813427e+001 -3.640886e+001 -5.684727e+001 -5.045631e+001 -1.975214e-001 1.331398e+002
541147602.86901 -6.680952e-001 1.612640e+002 -5.783249e+001 -3.436243e+001 -5.684074e+001 -5.082663e+001 -1.956732e-001 1.330863e+002
541525103.81276 -6.707515e-001 1.610480e+002 -5.772837e+001 -3.789068e+001 -5.683850e+001 -5.242190e+001 -1.977922e-001 1.330635e+002
541902604.75651 -6.756682e-001 1.608090e+002 -5.739046e+001 -3.791590e+001 -5.659994e+001 -5.164433e+001 -1.979565e-001 1.330454e+002
542280105.70026 -6.777418e-001 1.605424e+002 -5.719093e+001 -3.894851e+001 -5.682378e+001 -5.334177e+001 -1.938815e-001 1.330304e+002
542657606.64402 -6.836891e-001 1.603780e+002 -5.751870e+001 -3.947630e+001 -5.748800e+001 -5.245312e+001 -1.955698e-001 1.329869e+002
543035107.58777 -6.857648e-001 1.600660e+002 -5.712072e+001 -4.009751e+001 -5.697789e+001 -5.305687e+001 -1.967323e-001 1.329525e+002
543412608.53152 -6.910611e-001 1.598964e+002 -5.756346e+001 -3.963160e+001 -5.655899e+001 -5.637474e+001 -2.001819e-001 1.329185e+002
543790109.47527 -6.971701e-001 1.596019e+002 -5.748244e+001 -4.279021e+001 -5.721985e+001 -5.395210e+001 -1.985893e-001 1.328873e+002
544167610.41903 -6.982788e-001 1.593415e+002 -5.688625e+001 -4.390823e+001 -5.675493e+001 -5.561193e+001 -2.002752e-001 1.328130e+002
544545111.36278 -7.060933e-001 1.591128e+002 -5.746754e+001 -4.235706e+001 -5.720356e+001 -5.647186e+001 -1.977882e-001 1.328056e+002
544922612.30653 -7.104846e-001 1.589098e+002 -5.739278e+001 -4.529587e+001 -5.677058e+001 -5.567350e+001 -1.980207e-001 1.327676e+002
545300113.25028 -7.136563e-001 1.587290e+002 -5.730303e+001 -4.386731e+001 -5.711489e+001 -5.328741e+001 -2.001756e-001 1.327463e+002
545677614.19404 -7.223085e-001 1.584518e+002 -5.702045e+001 -4.694786e+001 -5.690918e+001 -5.797561e+001 -1.995596e-001 1.326961e+002
546055115.13779 -7.256494e-001 1.581724e+002 -5.723632e+001 -4.552436e+001 -5.656503e+001 -5.707420e+001 -2.034247e-001 1.326471e+002
546432616.08154 -7.287186e-001 1.579012e+002 -5.668611e+001 -4.519900e+001 -5.668461e+001 -5.532153e+001 -2.038673e-001 1.325843e+002
546810117.02529 -7.372909e-001 1.577278e+002 -5.626737e+001 -4.499472e+001 -5.637187e+001 -5.709175e+001 -2.085115e-001 1.325372e+002
547187617.96904 -7.444394e-001 1.573826e+002 -5.677425e+001 -4.850232e+001 -5.624152e+001 -5.935120e+001 -2.081373e-001 1.325095e+002
547565118.9128 -7.552867e-001 1.571339e+002 -5.658968e+001 -4.847400e+001 -5.615519e+001 -6.057896e+001 -2.136507e-001 1.324367e+002
547942619.85655 -7.607720e-001 1.569216e+002 -5.663042e+001 -5.038867e+001 -5.600529e+001 -6.057098e+001 -2.131405e-001 1.324104e+002
548320120.8003 -7.749501e-001 1.566647e+002 -5.647920e+001 -5.210700e+001 -5.604732e+001 -5.991563e+001 -2.119065e-001 1.323348e+002
548697621.74405 -7.870179e-001 1.564025e+002 -5.640210e+001 -5.402747e+001 -5.637815e+001 -6.073513e+001 -2.134177e-001 1.322770e+002
549075122.68781 -7.989805e-001 1.561942e+002 -5.664012e+001 -5.463472e+001 -5.597783e+001 -6.255477e+001 -2.202453e-001 1.322790e+002
549452623.63156 -8.086920e-001 1.559395e+002 -5.709334e+001 -5.530391e+001 -5.585434e+001 -6.231063e+001 -2.221527e-001 1.321859e+002
549830124.57531 -8.224579e-001 1.557362e+002 -5.651308e+001 -5.418452e+001 -5.604887e+001 -6.273171e+001 -2.233533e-001 1.321261e+002
550207625.51906 -8.252451e-001 1.555536e+002 -5.700501e+001 -5.434456e+001 -5.576559e+001 -6.484238e+001 -2.239295e-001 1.320759e+002
550585126.46282 -8.343877e-001 1.554008e+002 -5.666909e+001 -5.541468e+001 -5.564025e+001 -6.633774e+001 -2.266165e-001 1.320349e+002
550962627.40657 -8.388774e-001 1.551185e+002 -5.668823e+001 -5.862054e+001 -5.575375e+001 -6.533276e+001 -2.259394e-001 1.319815e+002
551340128.35032 -8.412085e-001 1.549508e+002 -5.697047e+001 -5.446831e+001 -5.565810e+001 -6.764127e+001 -2.280777e-001 1.319215e+002
551717629.29407 -8.489399e-001 1.547300e+002 -5.652000e+001 -5.846523e+001 -5.581934e+001 -6.733289e+001 -2.286336e-001 1.318865e+002
552095130.23783 -8.526983e-001 1.544767e+002 -5.668903e+001 -5.662088e+001 -5.587636e+001 -6.798065e+001 -2.285662e-001 1.318155e+002
552472631.18158 -8.538392e-001 1.542825e+002 -5.654560e+001 -5.785992e+001 -5.543806e+001 -6.869656e+001 -2.318809e-001 1.317740e+002
552850132.12533 -8.590841e-001 1.539855e+002 -5.650360e+001 -6.426760e+001 -5.588847e+001 -6.846828e+001 -2.318837e-001 1.317235e+002
553227633.06908 -8.645577e-001 1.537844e+002 -5.655964e+001 -5.849757e+001 -5.558075e+001 -6.869151e+001 -2.309234e-001 1.316756e+002
553605134.01284 -8.689014e-001 1.534949e+002 -5.653359e+001 -6.090314e+001 -5.576355e+001 -7.009689e+001 -2.426424e-001 1.316298e+002
553982634.95659 -8.732753e-001 1.532600e+002 -5.631298e+001 -6.169563e+001 -5.533310e+001 -7.048939e+001 -2.365357e-001 1.315792e+002
554360135.90034 -8.739132e-001 1.529645e+002 -5.644710e+001 -6.168715e+001 -5.529889e+001 -7.123865e+001 -2.340281e-001 1.315342e+002
554737636.84409 -8.861285e-001 1.527216e+002 -5.587320e+001 -6.612649e+001 -5.518312e+001 -7.072905e+001 -2.353030e-001 1.315128e+002
555115137.78784 -8.970348e-001 1.525528e+002 -5.588244e+001 -6.400430e+001 -5.557859e+001 -7.180740e+001 -2.372687e-001 1.314632e+002
