!Agilent Technologies,E8364B,US42250235,A.06.04.32
!Agilent E8364B: A.06.04.32
!Date: Thursday, October 01, 2020 14:37:56
!Correction: S11(Full 2 Port(1,2)) S21(Full 2 Port(1,2)) S12(Full 2 Port(1,2)) S22(Full 2 Port(1,2)) 
!S2P File: Measurements: S11, S21, S12, S22:
# Hz S  dB   R 50
500000000 -2.332442e-001 -1.751697e+002 -6.135387e+001 1.488420e+002 -6.168472e+001 1.453614e+002 -2.248408e-001 1.378855e+002
500377500.94375 -2.393442e-001 -1.752746e+002 -6.131567e+001 1.494786e+002 -6.191886e+001 1.458063e+002 -2.254299e-001 1.378332e+002
500755001.8875 -2.359233e-001 -1.755241e+002 -6.121286e+001 1.511492e+002 -6.212771e+001 1.442061e+002 -2.246741e-001 1.377885e+002
501132502.83126 -2.401035e-001 -1.757285e+002 -6.057074e+001 1.476509e+002 -6.271672e+001 1.478542e+002 -2.295634e-001 1.377128e+002
501510003.77501 -2.464392e-001 -1.758835e+002 -6.181912e+001 1.495224e+002 -6.125954e+001 1.444719e+002 -2.300970e-001 1.376445e+002
501887504.71876 -2.435038e-001 -1.761873e+002 -6.076398e+001 1.533940e+002 -6.129930e+001 1.425467e+002 -2.277418e-001 1.375630e+002
502265005.66251 -2.542040e-001 -1.762982e+002 -6.071504e+001 1.468053e+002 -6.189264e+001 1.400038e+002 -2.295487e-001 1.374913e+002
502642506.60627 -2.480010e-001 -1.765998e+002 -6.050051e+001 1.410964e+002 -6.025009e+001 1.381662e+002 -2.323319e-001 1.374763e+002
503020007.55002 -2.578902e-001 -1.767223e+002 -6.016516e+001 1.429683e+002 -6.192403e+001 1.404769e+002 -2.306482e-001 1.373510e+002
503397508.49377 -2.666866e-001 -1.769253e+002 -6.034368e+001 1.393280e+002 -6.074890e+001 1.398114e+002 -2.298901e-001 1.373017e+002
503775009.43752 -2.637767e-001 -1.771593e+002 -6.107066e+001 1.419651e+002 -6.053370e+001 1.365173e+002 -2.337766e-001 1.372160e+002
504152510.38128 -2.654820e-001 -1.773806e+002 -6.030181e+001 1.405062e+002 -6.111454e+001 1.397653e+002 -2.321464e-001 1.371387e+002
504530011.32503 -2.694926e-001 -1.775588e+002 -6.022513e+001 1.400202e+002 -6.062289e+001 1.374306e+002 -2.308985e-001 1.370816e+002
504907512.26878 -2.732314e-001 -1.777078e+002 -6.083857e+001 1.378140e+002 -6.092658e+001 1.331470e+002 -2.312104e-001 1.370171e+002
505285013.21253 -2.674679e-001 -1.779781e+002 -6.095864e+001 1.315864e+002 -6.083627e+001 1.301115e+002 -2.315103e-001 1.369292e+002
505662514.15629 -2.712809e-001 -1.781323e+002 -5.973838e+001 1.342058e+002 -6.063657e+001 1.358121e+002 -2.286730e-001 1.368614e+002
506040015.10004 -2.723063e-001 -1.783332e+002 -6.064195e+001 1.345927e+002 -6.149984e+001 1.311213e+002 -2.304755e-001 1.367863e+002
506417516.04379 -2.737809e-001 -1.785580e+002 -6.036775e+001 1.277760e+002 -6.095323e+001 1.285734e+002 -2.293700e-001 1.367406e+002
506795016.98754 -2.800975e-001 -1.786936e+002 -6.117129e+001 1.330198e+002 -6.113002e+001 1.288813e+002 -2.304237e-001 1.366498e+002
507172517.93129 -2.774854e-001 -1.789722e+002 -5.939211e+001 1.286293e+002 -6.126733e+001 1.293335e+002 -2.294467e-001 1.365902e+002
507550018.87505 -2.842999e-001 -1.791231e+002 -6.063416e+001 1.343000e+002 -6.133532e+001 1.268060e+002 -2.292940e-001 1.365522e+002
507927519.8188 -2.818658e-001 -1.793778e+002 -6.083471e+001 1.285527e+002 -6.055101e+001 1.285092e+002 -2.249410e-001 1.364639e+002
508305020.76255 -2.858938e-001 -1.795578e+002 -6.071178e+001 1.314247e+002 -6.063666e+001 1.232171e+002 -2.258765e-001 1.364120e+002
508682521.7063 -2.830177e-001 -1.797349e+002 -6.057418e+001 1.283174e+002 -6.102755e+001 1.304584e+002 -2.232905e-001 1.363841e+002
509060022.65006 -2.855645e-001 1.799974e+002 -6.002293e+001 1.314956e+002 -6.117344e+001 1.285706e+002 -2.257976e-001 1.362815e+002
509437523.59381 -2.855383e-001 1.797629e+002 -6.062671e+001 1.277040e+002 -6.046231e+001 1.286084e+002 -2.263921e-001 1.362302e+002
509815024.53756 -2.891420e-001 1.795655e+002 -6.065724e+001 1.300013e+002 -6.113485e+001 1.254957e+002 -2.209607e-001 1.361770e+002
510192525.48131 -2.940704e-001 1.793869e+002 -6.044807e+001 1.285714e+002 -6.024293e+001 1.281473e+002 -2.206024e-001 1.361071e+002
510570026.42507 -2.984357e-001 1.792165e+002 -6.047163e+001 1.202367e+002 -6.052576e+001 1.208572e+002 -2.191684e-001 1.360664e+002
510947527.36882 -2.941967e-001 1.789190e+002 -6.025266e+001 1.278213e+002 -6.050300e+001 1.226435e+002 -2.192630e-001 1.359910e+002
511325028.31257 -2.995575e-001 1.787912e+002 -6.080038e+001 1.254398e+002 -6.004442e+001 1.237166e+002 -2.154170e-001 1.359756e+002
511702529.25632 -2.994485e-001 1.785035e+002 -6.028626e+001 1.241877e+002 -6.026134e+001 1.165199e+002 -2.170510e-001 1.358976e+002
512080030.20008 -3.062870e-001 1.783432e+002 -6.016472e+001 1.268886e+002 -6.020076e+001 1.196723e+002 -2.157065e-001 1.358761e+002
512457531.14383 -3.064998e-001 1.781223e+002 -5.986064e+001 1.212890e+002 -6.052829e+001 1.179095e+002 -2.170057e-001 1.358232e+002
512835032.08758 -3.104679e-001 1.778498e+002 -6.019829e+001 1.227643e+002 -5.990119e+001 1.177699e+002 -2.173733e-001 1.357610e+002
513212533.03133 -3.140846e-001 1.776738e+002 -5.974444e+001 1.220297e+002 -5.956775e+001 1.133748e+002 -2.146687e-001 1.357402e+002
513590033.97508 -3.190533e-001 1.774936e+002 -5.921460e+001 1.182783e+002 -6.020209e+001 1.126414e+002 -2.160095e-001 1.357092e+002
513967534.91884 -3.199033e-001 1.772771e+002 -5.963607e+001 1.179213e+002 -5.998088e+001 1.149992e+002 -2.148959e-001 1.356697e+002
514345035.86259 -3.188148e-001 1.770229e+002 -5.965746e+001 1.205384e+002 -5.999958e+001 1.124559e+002 -2.154118e-001 1.356552e+002
514722536.80634 -3.231975e-001 1.768066e+002 -5.985264e+001 1.178449e+002 -5.984828e+001 1.106796e+002 -2.143262e-001 1.356342e+002
515100037.75009 -3.286101e-001 1.766919e+002 -5.904993e+001 1.171579e+002 -6.033174e+001 1.099418e+002 -2.171842e-001 1.355766e+002
515477538.69385 -3.303993e-001 1.764040e+002 -5.949316e+001 1.179783e+002 -5.939971e+001 1.119346e+002 -2.168604e-001 1.355519e+002
515855039.6376 -3.306278e-001 1.762461e+002 -5.963432e+001 1.153888e+002 -5.905862e+001 1.122323e+002 -2.180243e-001 1.355224e+002
516232540.58135 -3.374120e-001 1.759862e+002 -5.948059e+001 1.156218e+002 -6.031532e+001 1.071029e+002 -2.167875e-001 1.354881e+002
516610041.5251 -3.405609e-001 1.757484e+002 -5.933559e+001 1.148176e+002 -6.046286e+001 1.091012e+002 -2.146179e-001 1.355075e+002
516987542.46886 -3.462474e-001 1.755693e+002 -5.944929e+001 1.155260e+002 -5.953060e+001 1.085308e+002 -2.152713e-001 1.354722e+002
517365043.41261 -3.479085e-001 1.753535e+002 -5.897364e+001 1.179267e+002 -5.996267e+001 1.063710e+002 -2.153374e-001 1.354407e+002
517742544.35636 -3.495176e-001 1.750435e+002 -5.906218e+001 1.118333e+002 -5.984714e+001 1.114404e+002 -2.148930e-001 1.354336e+002
518120045.30011 -3.568141e-001 1.748881e+002 -5.865787e+001 1.109741e+002 -5.972155e+001 1.077526e+002 -2.148889e-001 1.353992e+002
518497546.24387 -3.557318e-001 1.745866e+002 -5.837841e+001 1.107722e+002 -5.958754e+001 1.045649e+002 -2.180820e-001 1.353786e+002
518875047.18762 -3.596514e-001 1.744085e+002 -5.866369e+001 1.106142e+002 -5.927351e+001 1.029764e+002 -2.191478e-001 1.353771e+002
519252548.13137 -3.672212e-001 1.741593e+002 -5.880417e+001 1.102419e+002 -5.940657e+001 1.018333e+002 -2.165755e-001 1.353303e+002
519630049.07512 -3.699819e-001 1.739749e+002 -5.831571e+001 1.105819e+002 -5.935560e+001 1.044262e+002 -2.170811e-001 1.352920e+002
520007550.01888 -3.729500e-001 1.737166e+002 -5.839576e+001 1.036119e+002 -5.905072e+001 1.000533e+002 -2.184683e-001 1.352701e+002
520385050.96263 -3.774995e-001 1.734929e+002 -5.808904e+001 1.046849e+002 -5.931306e+001 1.013125e+002 -2.188621e-001 1.352589e+002
520762551.90638 -3.829596e-001 1.733269e+002 -5.832111e+001 1.063715e+002 -5.893951e+001 9.982931e+001 -2.182150e-001 1.352334e+002
521140052.85013 -3.843060e-001 1.730101e+002 -5.844280e+001 1.023400e+002 -5.900461e+001 1.027499e+002 -2.176259e-001 1.351892e+002
521517553.79388 -3.906142e-001 1.728224e+002 -5.863338e+001 1.031115e+002 -5.867793e+001 9.925845e+001 -2.175427e-001 1.351631e+002
521895054.73764 -3.942382e-001 1.725872e+002 -5.873326e+001 9.854910e+001 -5.887064e+001 9.947297e+001 -2.178410e-001 1.351382e+002
522272555.68139 -4.007957e-001 1.724150e+002 -5.811541e+001 9.761472e+001 -5.875996e+001 9.737578e+001 -2.186688e-001 1.350736e+002
522650056.62514 -4.022392e-001 1.721837e+002 -5.778819e+001 1.002644e+002 -5.843508e+001 1.011510e+002 -2.207395e-001 1.350014e+002
523027557.56889 -4.046342e-001 1.719349e+002 -5.813391e+001 9.682670e+001 -5.846162e+001 9.538853e+001 -2.212789e-001 1.350110e+002
523405058.51265 -4.080005e-001 1.717485e+002 -5.817647e+001 9.981554e+001 -5.875026e+001 9.371352e+001 -2.242628e-001 1.349125e+002
523782559.4564 -4.116726e-001 1.714973e+002 -5.780089e+001 9.293044e+001 -5.887057e+001 9.607938e+001 -2.198998e-001 1.349223e+002
524160060.40015 -4.151290e-001 1.712276e+002 -5.784125e+001 9.453601e+001 -5.841416e+001 9.262056e+001 -2.239107e-001 1.348943e+002
524537561.3439 -4.175251e-001 1.711008e+002 -5.820582e+001 9.472758e+001 -5.859981e+001 9.295329e+001 -2.192863e-001 1.348175e+002
524915062.28766 -4.192872e-001 1.707896e+002 -5.838446e+001 9.036665e+001 -5.877472e+001 9.081586e+001 -2.224253e-001 1.347434e+002
525292563.23141 -4.205807e-001 1.705979e+002 -5.787901e+001 9.103249e+001 -5.863856e+001 9.203876e+001 -2.228567e-001 1.347066e+002
525670064.17516 -4.237408e-001 1.703500e+002 -5.795399e+001 9.424477e+001 -5.835949e+001 8.950114e+001 -2.191932e-001 1.346370e+002
526047565.11891 -4.278826e-001 1.700987e+002 -5.804002e+001 9.091119e+001 -5.859180e+001 8.739597e+001 -2.180491e-001 1.345756e+002
526425066.06267 -4.292773e-001 1.698558e+002 -5.820394e+001 8.937098e+001 -5.808913e+001 8.760441e+001 -2.168260e-001 1.345040e+002
526802567.00642 -4.390402e-001 1.696821e+002 -5.759766e+001 8.922524e+001 -5.855035e+001 8.590347e+001 -2.209742e-001 1.344543e+002
527180067.95017 -4.395918e-001 1.694582e+002 -5.840915e+001 8.890936e+001 -5.831909e+001 8.828648e+001 -2.181197e-001 1.343624e+002
527557568.89392 -4.418699e-001 1.691597e+002 -5.810397e+001 8.903474e+001 -5.824331e+001 8.584558e+001 -2.211088e-001 1.343193e+002
527935069.83767 -4.461226e-001 1.690271e+002 -5.768186e+001 8.658841e+001 -5.909995e+001 8.148884e+001 -2.166376e-001 1.342381e+002
528312570.78143 -4.481106e-001 1.687220e+002 -5.792889e+001 8.694051e+001 -5.808190e+001 8.333419e+001 -2.167739e-001 1.341690e+002
528690071.72518 -4.517487e-001 1.685572e+002 -5.778419e+001 8.586402e+001 -5.879848e+001 8.395315e+001 -2.146637e-001 1.341123e+002
529067572.66893 -4.541834e-001 1.682903e+002 -5.821465e+001 8.503337e+001 -5.861683e+001 8.371542e+001 -2.102294e-001 1.340411e+002
529445073.61268 -4.610016e-001 1.680233e+002 -5.846016e+001 8.491177e+001 -5.873515e+001 8.401608e+001 -2.117878e-001 1.339719e+002
529822574.55644 -4.651047e-001 1.677809e+002 -5.806856e+001 8.076945e+001 -5.809041e+001 8.178996e+001 -2.142782e-001 1.338915e+002
530200075.50019 -4.689997e-001 1.675639e+002 -5.816411e+001 8.321698e+001 -5.829601e+001 8.211465e+001 -2.117460e-001 1.338175e+002
530577576.44394 -4.739617e-001 1.672572e+002 -5.795543e+001 8.512666e+001 -5.786009e+001 8.027898e+001 -2.087236e-001 1.337485e+002
530955077.38769 -4.814960e-001 1.670692e+002 -5.791066e+001 8.241113e+001 -5.806567e+001 7.897790e+001 -2.098149e-001 1.336998e+002
531332578.33145 -4.883522e-001 1.668402e+002 -5.762132e+001 8.545493e+001 -5.753570e+001 7.871083e+001 -2.079382e-001 1.336140e+002
531710079.2752 -4.928511e-001 1.665901e+002 -5.753474e+001 7.969605e+001 -5.790986e+001 7.870739e+001 -2.048761e-001 1.335639e+002
532087580.21895 -5.019616e-001 1.663840e+002 -5.741846e+001 8.393604e+001 -5.828413e+001 7.635089e+001 -2.066483e-001 1.335057e+002
532465081.1627 -5.077598e-001 1.661049e+002 -5.803267e+001 7.997220e+001 -5.757838e+001 7.639491e+001 -2.022573e-001 1.334634e+002
532842582.10646 -5.121287e-001 1.658422e+002 -5.734566e+001 8.129240e+001 -5.786618e+001 7.592644e+001 -1.982407e-001 1.333952e+002
533220083.05021 -5.240158e-001 1.656046e+002 -5.784552e+001 7.800446e+001 -5.785742e+001 7.389457e+001 -1.990876e-001 1.333708e+002
533597583.99396 -5.283110e-001 1.653743e+002 -5.717255e+001 7.924667e+001 -5.754050e+001 7.207320e+001 -1.980275e-001 1.333171e+002
533975084.93771 -5.420557e-001 1.651457e+002 -5.686623e+001 7.860214e+001 -5.760983e+001 7.268504e+001 -1.946160e-001 1.332722e+002
534352585.88146 -5.432355e-001 1.648727e+002 -5.726163e+001 7.781742e+001 -5.764083e+001 7.278966e+001 -1.899815e-001 1.332519e+002
534730086.82522 -5.534101e-001 1.646324e+002 -5.717144e+001 7.351385e+001 -5.736126e+001 6.917941e+001 -1.884146e-001 1.332115e+002
535107587.76897 -5.613099e-001 1.644986e+002 -5.710156e+001 7.221745e+001 -5.735221e+001 6.875510e+001 -1.879440e-001 1.331809e+002
535485088.71272 -5.723831e-001 1.642494e+002 -5.713874e+001 7.564146e+001 -5.720374e+001 6.983995e+001 -1.836439e-001 1.331430e+002
535862589.65647 -5.778140e-001 1.640386e+002 -5.696885e+001 7.486800e+001 -5.739924e+001 6.955048e+001 -1.837758e-001 1.331208e+002
536240090.60023 -5.802330e-001 1.637711e+002 -5.751285e+001 7.389834e+001 -5.738796e+001 6.988790e+001 -1.824576e-001 1.331102e+002
536617591.54398 -5.851372e-001 1.635974e+002 -5.695325e+001 7.160968e+001 -5.774578e+001 6.848055e+001 -1.802287e-001 1.330874e+002
536995092.48773 -5.898859e-001 1.634161e+002 -5.703499e+001 7.131340e+001 -5.743881e+001 6.725953e+001 -1.788791e-001 1.330742e+002
537372593.43148 -5.939777e-001 1.631326e+002 -5.725306e+001 7.096093e+001 -5.732841e+001 6.767236e+001 -1.737768e-001 1.330574e+002
537750094.37524 -6.006721e-001 1.629039e+002 -5.652739e+001 6.795719e+001 -5.728236e+001 6.435368e+001 -1.732380e-001 1.330468e+002
538127595.31899 -6.049859e-001 1.626849e+002 -5.642336e+001 6.782809e+001 -5.684786e+001 6.101176e+001 -1.728969e-001 1.330349e+002
538505096.26274 -6.078877e-001 1.624344e+002 -5.655268e+001 6.951665e+001 -5.670536e+001 6.444296e+001 -1.707065e-001 1.329673e+002
538882597.20649 -6.167737e-001 1.622339e+002 -5.657805e+001 6.710667e+001 -5.689399e+001 6.143736e+001 -1.692759e-001 1.330093e+002
539260098.15025 -6.214743e-001 1.619829e+002 -5.654227e+001 6.799010e+001 -5.729694e+001 6.425611e+001 -1.651511e-001 1.330080e+002
539637599.094 -6.233521e-001 1.617382e+002 -5.686370e+001 6.377083e+001 -5.668697e+001 6.063135e+001 -1.674732e-001 1.329904e+002
540015100.03775 -6.270615e-001 1.615012e+002 -5.612309e+001 6.372466e+001 -5.647134e+001 5.822756e+001 -1.681498e-001 1.330285e+002
540392600.9815 -6.359542e-001 1.612810e+002 -5.602012e+001 6.269154e+001 -5.681402e+001 5.913247e+001 -1.641975e-001 1.329710e+002
540770101.92525 -6.416129e-001 1.610696e+002 -5.636658e+001 6.503654e+001 -5.674051e+001 5.915496e+001 -1.673724e-001 1.329763e+002
541147602.86901 -6.442203e-001 1.608459e+002 -5.631662e+001 6.076886e+001 -5.684590e+001 5.918422e+001 -1.644860e-001 1.329583e+002
541525103.81276 -6.475015e-001 1.605044e+002 -5.627847e+001 6.032183e+001 -5.654561e+001 5.543041e+001 -1.631942e-001 1.329302e+002
541902604.75651 -6.554496e-001 1.603205e+002 -5.632124e+001 5.904626e+001 -5.673484e+001 5.407517e+001 -1.625377e-001 1.329435e+002
542280105.70026 -6.587545e-001 1.600951e+002 -5.595765e+001 5.875614e+001 -5.701657e+001 5.221843e+001 -1.623679e-001 1.329330e+002
542657606.64402 -6.598267e-001 1.598418e+002 -5.578016e+001 5.951912e+001 -5.675294e+001 5.231339e+001 -1.632050e-001 1.329124e+002
543035107.58777 -6.702693e-001 1.596036e+002 -5.600826e+001 5.746888e+001 -5.659431e+001 5.223947e+001 -1.625320e-001 1.328994e+002
543412608.53152 -6.713832e-001 1.593473e+002 -5.596984e+001 5.452118e+001 -5.694599e+001 5.279125e+001 -1.660267e-001 1.328650e+002
543790109.47527 -6.768132e-001 1.590746e+002 -5.602396e+001 5.626700e+001 -5.705133e+001 5.021380e+001 -1.645357e-001 1.328480e+002
544167610.41903 -6.832698e-001 1.588602e+002 -5.592204e+001 5.598421e+001 -5.674440e+001 5.140309e+001 -1.688442e-001 1.328345e+002
544545111.36278 -6.855106e-001 1.585893e+002 -5.561468e+001 5.441757e+001 -5.695710e+001 5.281889e+001 -1.651515e-001 1.327879e+002
544922612.30653 -6.900692e-001 1.583181e+002 -5.596840e+001 5.441832e+001 -5.699806e+001 5.104890e+001 -1.658439e-001 1.327745e+002
545300113.25028 -6.941996e-001 1.581325e+002 -5.600327e+001 5.402587e+001 -5.639544e+001 4.744107e+001 -1.674152e-001 1.327620e+002
545677614.19404 -7.043890e-001 1.578720e+002 -5.591256e+001 5.278651e+001 -5.671994e+001 4.853802e+001 -1.686544e-001 1.327115e+002
546055115.13779 -7.095400e-001 1.576243e+002 -5.588752e+001 5.409966e+001 -5.631916e+001 4.882346e+001 -1.709393e-001 1.326772e+002
546432616.08154 -7.136021e-001 1.573096e+002 -5.587179e+001 5.150906e+001 -5.624828e+001 4.779257e+001 -1.733057e-001 1.326258e+002
546810117.02529 -7.197939e-001 1.570836e+002 -5.599168e+001 5.226865e+001 -5.620068e+001 4.662244e+001 -1.787630e-001 1.325859e+002
547187617.96904 -7.247725e-001 1.567729e+002 -5.553643e+001 4.995287e+001 -5.632549e+001 4.709211e+001 -1.758617e-001 1.325582e+002
547565118.9128 -7.405491e-001 1.565162e+002 -5.553533e+001 4.942649e+001 -5.630759e+001 4.579118e+001 -1.836845e-001 1.325196e+002
547942619.85655 -7.496846e-001 1.562481e+002 -5.546620e+001 4.718480e+001 -5.665294e+001 4.245890e+001 -1.846175e-001 1.324662e+002
548320120.8003 -7.609950e-001 1.559858e+002 -5.533558e+001 4.749235e+001 -5.619696e+001 4.430068e+001 -1.846787e-001 1.324167e+002
548697621.74405 -7.762890e-001 1.557377e+002 -5.551704e+001 4.851048e+001 -5.619403e+001 4.458627e+001 -1.856348e-001 1.323746e+002
549075122.68781 -7.891927e-001 1.554815e+002 -5.558428e+001 4.524647e+001 -5.603567e+001 4.240347e+001 -1.863973e-001 1.323619e+002
549452623.63156 -8.028296e-001 1.552403e+002 -5.560004e+001 4.904833e+001 -5.596387e+001 4.217508e+001 -1.907282e-001 1.322959e+002
549830124.57531 -8.174705e-001 1.550111e+002 -5.531097e+001 4.525048e+001 -5.629332e+001 4.009426e+001 -1.895406e-001 1.321890e+002
550207625.51906 -8.254707e-001 1.547774e+002 -5.503409e+001 4.502786e+001 -5.597484e+001 4.035875e+001 -1.916116e-001 1.322151e+002
550585126.46282 -8.362070e-001 1.545615e+002 -5.526323e+001 4.382227e+001 -5.552918e+001 3.896436e+001 -1.919330e-001 1.321589e+002
550962627.40657 -8.442944e-001 1.542641e+002 -5.473653e+001 4.335769e+001 -5.550203e+001 3.850674e+001 -1.959087e-001 1.321101e+002
551340128.35032 -8.527114e-001 1.541372e+002 -5.511706e+001 4.108751e+001 -5.563710e+001 3.812296e+001 -2.015091e-001 1.320083e+002
551717629.29407 -8.647362e-001 1.538233e+002 -5.525895e+001 3.938571e+001 -5.538226e+001 3.542405e+001 -1.971639e-001 1.320378e+002
552095130.23783 -8.750318e-001 1.535672e+002 -5.506795e+001 3.894853e+001 -5.538125e+001 3.628146e+001 -1.978576e-001 1.319894e+002
552472631.18158 -8.778148e-001 1.533520e+002 -5.479207e+001 3.982500e+001 -5.549950e+001 3.533101e+001 -2.004335e-001 1.319621e+002
552850132.12533 -8.899955e-001 1.531311e+002 -5.486313e+001 3.911184e+001 -5.504549e+001 3.312191e+001 -2.007641e-001 1.319001e+002
553227633.06908 -8.994702e-001 1.528651e+002 -5.515767e+001 3.878349e+001 -5.542142e+001 3.214050e+001 -1.980997e-001 1.318600e+002
553605134.01284 -9.073229e-001 1.525927e+002 -5.475758e+001 3.327458e+001 -5.526609e+001 3.262409e+001 -2.037016e-001 1.318298e+002
553982634.95659 -9.171679e-001 1.523521e+002 -5.481298e+001 3.322696e+001 -5.514537e+001 3.137289e+001 -2.031927e-001 1.317996e+002
554360135.90034 -9.275207e-001 1.521097e+002 -5.467460e+001 3.580614e+001 -5.513471e+001 3.010989e+001 -2.007250e-001 1.317833e+002
554737636.84409 -9.424340e-001 1.518027e+002 -5.496302e+001 3.301600e+001 -5.495023e+001 3.163877e+001 -2.013488e-001 1.317685e+002
555115137.78784 -9.539064e-001 1.516175e+002 -5.446798e+001 3.208204e+001 -5.532169e+001 2.789668e+001 -2.038878e-001 1.317373e+002
555492638.7316 -9.656443e-001 1.513220e+002 -5.483289e+001 3.215086e+001 -5.485597e+001 2.765392e+001 -2.023802e-001 1.317111e+002
555870139.67535 -9.761401e-001 1.511801e+002 -5.480838e+001 3.225039e+001 -5.536015e+001 2.744599e+001 -2.022866e-001 1.316880e+002
