!Agilent Technologies,E8364B,US42250235,A.06.04.32
!Agilent E8364B: A.06.04.32
!Date: Thursday, October 01, 2020 14:42:07
!Correction: S11(Full 2 Port(1,2)) S21(Full 2 Port(1,2)) S12(Full 2 Port(1,2)) S22(Full 2 Port(1,2)) 
!S2P File: Measurements: S11, S21, S12, S22:
# Hz S  dB   R 50
500000000 -2.340716e-001 -1.753168e+002 -6.456808e+001 6.803227e+001 -6.370479e+001 6.196162e+001 -2.041246e-001 1.382055e+002
500377500.94375 -2.383326e-001 -1.754298e+002 -6.285570e+001 6.357070e+001 -6.288016e+001 5.930341e+001 -2.049125e-001 1.381624e+002
500755001.8875 -2.357999e-001 -1.756912e+002 -6.357585e+001 6.388531e+001 -6.279494e+001 6.434721e+001 -2.032409e-001 1.380994e+002
501132502.83126 -2.373405e-001 -1.758728e+002 -6.343247e+001 6.473769e+001 -6.362719e+001 5.717269e+001 -2.056192e-001 1.380258e+002
501510003.77501 -2.454396e-001 -1.760281e+002 -6.238726e+001 5.862226e+001 -6.292290e+001 6.252448e+001 -2.110821e-001 1.379550e+002
501887504.71876 -2.428141e-001 -1.763379e+002 -6.204966e+001 5.497312e+001 -6.348055e+001 6.225459e+001 -2.114408e-001 1.378866e+002
502265005.66251 -2.529581e-001 -1.764852e+002 -6.201909e+001 5.801890e+001 -6.295357e+001 5.843078e+001 -2.109056e-001 1.378243e+002
502642506.60627 -2.537767e-001 -1.767384e+002 -6.214913e+001 5.274244e+001 -6.269246e+001 5.823199e+001 -2.155062e-001 1.377828e+002
503020007.55002 -2.611135e-001 -1.769037e+002 -6.366372e+001 5.377563e+001 -6.344419e+001 5.198734e+001 -2.144506e-001 1.376550e+002
503397508.49377 -2.677647e-001 -1.770685e+002 -6.284659e+001 5.750626e+001 -6.179840e+001 5.897189e+001 -2.146588e-001 1.375964e+002
503775009.43752 -2.686760e-001 -1.773049e+002 -6.247726e+001 5.366362e+001 -6.178801e+001 5.451327e+001 -2.145093e-001 1.375122e+002
504152510.38128 -2.714937e-001 -1.775183e+002 -6.234805e+001 5.726509e+001 -6.238069e+001 5.847528e+001 -2.190719e-001 1.374134e+002
504530011.32503 -2.769454e-001 -1.776584e+002 -6.169495e+001 5.501263e+001 -6.283691e+001 5.074855e+001 -2.161099e-001 1.373521e+002
504907512.26878 -2.802690e-001 -1.778781e+002 -6.361045e+001 4.879401e+001 -6.193839e+001 5.253999e+001 -2.159907e-001 1.372606e+002
505285013.21253 -2.778173e-001 -1.781147e+002 -6.176686e+001 4.549958e+001 -6.197262e+001 5.139939e+001 -2.179759e-001 1.371800e+002
505662514.15629 -2.829354e-001 -1.782823e+002 -6.203226e+001 5.064882e+001 -6.260654e+001 5.858432e+001 -2.148817e-001 1.370986e+002
506040015.10004 -2.836824e-001 -1.784977e+002 -6.226516e+001 4.710225e+001 -6.189141e+001 4.966668e+001 -2.163659e-001 1.370245e+002
506417516.04379 -2.863037e-001 -1.786769e+002 -6.149331e+001 4.695248e+001 -6.139991e+001 5.054913e+001 -2.164387e-001 1.369655e+002
506795016.98754 -2.916406e-001 -1.788415e+002 -6.154951e+001 4.585349e+001 -6.156608e+001 4.583465e+001 -2.168264e-001 1.368646e+002
507172517.93129 -2.890019e-001 -1.791350e+002 -6.208765e+001 4.630208e+001 -6.160392e+001 4.334938e+001 -2.154481e-001 1.368062e+002
507550018.87505 -2.929762e-001 -1.793092e+002 -6.213073e+001 4.245573e+001 -6.214208e+001 4.380472e+001 -2.167225e-001 1.367278e+002
507927519.8188 -2.938533e-001 -1.795365e+002 -6.188061e+001 4.147356e+001 -6.154205e+001 4.541901e+001 -2.132010e-001 1.366294e+002
508305020.76255 -2.975210e-001 -1.796865e+002 -6.298229e+001 3.839128e+001 -6.188704e+001 4.398999e+001 -2.118818e-001 1.365854e+002
508682521.7063 -2.952764e-001 -1.799042e+002 -6.201059e+001 3.513432e+001 -6.173897e+001 4.704720e+001 -2.110996e-001 1.365085e+002
509060022.65006 -3.006022e-001 1.798204e+002 -6.176923e+001 3.941695e+001 -6.151056e+001 4.119083e+001 -2.129028e-001 1.364555e+002
509437523.59381 -3.002102e-001 1.796113e+002 -6.133099e+001 4.101048e+001 -6.093463e+001 4.212198e+001 -2.109203e-001 1.363828e+002
509815024.53756 -3.030343e-001 1.793890e+002 -6.112906e+001 3.841490e+001 -6.171368e+001 3.876384e+001 -2.076148e-001 1.363162e+002
510192525.48131 -3.086403e-001 1.791754e+002 -6.174842e+001 3.655820e+001 -6.121343e+001 3.846113e+001 -2.068247e-001 1.362665e+002
510570026.42507 -3.143016e-001 1.790488e+002 -6.176225e+001 3.277250e+001 -6.180823e+001 4.127543e+001 -2.066696e-001 1.362105e+002
510947527.36882 -3.133746e-001 1.787775e+002 -6.131927e+001 3.078067e+001 -6.206553e+001 3.477399e+001 -2.078066e-001 1.361485e+002
511325028.31257 -3.174054e-001 1.785853e+002 -6.160470e+001 3.276190e+001 -6.164386e+001 3.800417e+001 -2.060196e-001 1.361144e+002
511702529.25632 -3.201790e-001 1.783235e+002 -6.165143e+001 3.651257e+001 -6.135558e+001 4.487238e+001 -2.020293e-001 1.360528e+002
512080030.20008 -3.243303e-001 1.781965e+002 -6.119926e+001 3.181741e+001 -6.100217e+001 3.695443e+001 -2.015539e-001 1.360310e+002
512457531.14383 -3.300605e-001 1.779042e+002 -6.143804e+001 2.885246e+001 -6.103316e+001 3.409507e+001 -2.027422e-001 1.359951e+002
512835032.08758 -3.347645e-001 1.777004e+002 -6.095862e+001 3.465315e+001 -6.141398e+001 3.549598e+001 -2.047194e-001 1.359373e+002
513212533.03133 -3.365969e-001 1.775219e+002 -6.069831e+001 2.997745e+001 -6.025899e+001 3.548387e+001 -2.036922e-001 1.359132e+002
513590033.97508 -3.434572e-001 1.773489e+002 -6.145169e+001 2.645214e+001 -6.016666e+001 3.141673e+001 -2.025804e-001 1.358918e+002
513967534.91884 -3.456388e-001 1.770832e+002 -6.041862e+001 2.981883e+001 -6.028932e+001 3.024184e+001 -2.033684e-001 1.358506e+002
514345035.86259 -3.483803e-001 1.768623e+002 -6.057746e+001 2.709072e+001 -6.029301e+001 3.227569e+001 -1.996086e-001 1.358393e+002
514722536.80634 -3.513260e-001 1.766663e+002 -6.143304e+001 2.789192e+001 -6.044440e+001 3.296048e+001 -2.026587e-001 1.358241e+002
515100037.75009 -3.545409e-001 1.765263e+002 -6.018909e+001 2.467237e+001 -6.024675e+001 2.868650e+001 -2.018242e-001 1.357808e+002
515477538.69385 -3.595190e-001 1.762857e+002 -6.077913e+001 2.503970e+001 -6.053321e+001 2.826052e+001 -2.022251e-001 1.357776e+002
515855039.6376 -3.607735e-001 1.760462e+002 -6.061227e+001 2.314411e+001 -6.051328e+001 3.090709e+001 -2.019744e-001 1.357554e+002
516232540.58135 -3.672447e-001 1.758296e+002 -6.016603e+001 2.488716e+001 -6.017345e+001 2.451570e+001 -2.020881e-001 1.357255e+002
516610041.5251 -3.749695e-001 1.756371e+002 -6.040648e+001 2.507788e+001 -5.992653e+001 2.569447e+001 -2.000764e-001 1.357289e+002
516987542.46886 -3.792948e-001 1.753893e+002 -6.000698e+001 2.264914e+001 -5.987109e+001 2.092891e+001 -2.036465e-001 1.357047e+002
517365043.41261 -3.853939e-001 1.751973e+002 -6.003342e+001 2.007853e+001 -6.005444e+001 2.574226e+001 -2.013249e-001 1.356843e+002
517742544.35636 -3.880996e-001 1.749827e+002 -5.989896e+001 2.120595e+001 -6.016663e+001 2.048230e+001 -2.021682e-001 1.356893e+002
518120045.30011 -3.914864e-001 1.747556e+002 -5.968452e+001 1.808973e+001 -5.979064e+001 2.569702e+001 -2.006582e-001 1.356646e+002
518497546.24387 -3.941965e-001 1.745456e+002 -6.025611e+001 1.922939e+001 -5.944051e+001 1.566122e+001 -2.050916e-001 1.356627e+002
518875047.18762 -4.007924e-001 1.743207e+002 -5.995052e+001 1.300570e+001 -5.962850e+001 1.589178e+001 -2.029354e-001 1.356345e+002
519252548.13137 -4.065155e-001 1.741083e+002 -5.940977e+001 1.241131e+001 -5.968732e+001 1.222611e+001 -2.051584e-001 1.356031e+002
519630049.07512 -4.097011e-001 1.739038e+002 -5.938901e+001 1.543925e+001 -5.939574e+001 1.225121e+001 -2.035889e-001 1.355877e+002
520007550.01888 -4.161876e-001 1.736729e+002 -5.901913e+001 9.393268e+000 -5.932446e+001 1.202727e+001 -2.049934e-001 1.355565e+002
520385050.96263 -4.189968e-001 1.734661e+002 -5.916214e+001 1.106029e+001 -5.947630e+001 1.343411e+001 -2.060076e-001 1.355354e+002
520762551.90638 -4.234745e-001 1.732668e+002 -5.975209e+001 5.031119e+000 -5.914905e+001 1.326297e+001 -2.049447e-001 1.355194e+002
521140052.85013 -4.270789e-001 1.730279e+002 -5.864407e+001 8.277559e+000 -5.925753e+001 1.062741e+001 -2.067238e-001 1.354668e+002
521517553.79388 -4.345112e-001 1.728578e+002 -5.922243e+001 7.962843e+000 -5.917047e+001 7.746878e+000 -2.053820e-001 1.354368e+002
521895054.73764 -4.366232e-001 1.725900e+002 -6.019258e+001 5.776921e+000 -5.926853e+001 7.426288e+000 -2.078588e-001 1.354116e+002
522272555.68139 -4.426029e-001 1.723899e+002 -5.915228e+001 4.393366e-001 -5.906502e+001 5.970562e+000 -2.056949e-001 1.353518e+002
522650056.62514 -4.467298e-001 1.722051e+002 -5.945315e+001 3.314202e+000 -5.877499e+001 7.156592e+000 -2.096181e-001 1.352503e+002
523027557.56889 -4.467905e-001 1.719681e+002 -5.961500e+001 -1.496556e+000 -5.911599e+001 6.147077e+000 -2.116220e-001 1.352794e+002
523405058.51265 -4.503815e-001 1.717358e+002 -5.960485e+001 -4.229904e+000 -5.959043e+001 5.707777e+000 -2.148901e-001 1.351826e+002
523782559.4564 -4.565594e-001 1.715649e+002 -5.964820e+001 7.592428e-001 -5.900469e+001 5.069427e+000 -2.144158e-001 1.351680e+002
524160060.40015 -4.569887e-001 1.712826e+002 -5.933543e+001 -5.408211e-001 -5.879608e+001 6.148369e-001 -2.167244e-001 1.351079e+002
524537561.3439 -4.593526e-001 1.711513e+002 -5.966639e+001 -5.183680e+000 -5.907723e+001 2.702183e-001 -2.111729e-001 1.350462e+002
524915062.28766 -4.593518e-001 1.708560e+002 -5.933242e+001 -3.550407e+000 -5.921380e+001 1.634870e+000 -2.156062e-001 1.349515e+002
525292563.23141 -4.635177e-001 1.706671e+002 -6.006441e+001 -5.859655e-001 -5.944677e+001 -1.523710e+000 -2.172608e-001 1.348847e+002
525670064.17516 -4.636150e-001 1.704189e+002 -5.957921e+001 -5.068635e+000 -5.882608e+001 3.813855e+000 -2.149789e-001 1.348133e+002
526047565.11891 -4.698493e-001 1.702017e+002 -5.961204e+001 -2.521012e+000 -5.888717e+001 -1.869159e+000 -2.127189e-001 1.347659e+002
526425066.06267 -4.713394e-001 1.699674e+002 -5.887261e+001 -4.933050e+000 -5.956967e+001 -1.643120e+000 -2.165656e-001 1.346717e+002
526802567.00642 -4.789482e-001 1.697924e+002 -5.972583e+001 -7.472669e+000 -5.895892e+001 -2.002264e+000 -2.155513e-001 1.346066e+002
527180067.95017 -4.820874e-001 1.695772e+002 -5.949215e+001 -9.925756e+000 -5.866880e+001 -5.266116e+000 -2.116484e-001 1.345071e+002
527557568.89392 -4.833634e-001 1.692756e+002 -5.920435e+001 -8.731160e+000 -5.893993e+001 -2.928822e+000 -2.141303e-001 1.344283e+002
527935069.83767 -4.871777e-001 1.691545e+002 -5.912159e+001 -1.177466e+001 -5.893559e+001 -3.347276e+000 -2.145853e-001 1.343478e+002
528312570.78143 -4.897127e-001 1.688973e+002 -5.992785e+001 -8.519428e+000 -5.916286e+001 -3.162159e+000 -2.128153e-001 1.342707e+002
528690071.72518 -4.900239e-001 1.686461e+002 -5.979523e+001 -1.014863e+001 -5.846564e+001 -7.178931e+000 -2.125763e-001 1.341843e+002
529067572.66893 -4.957114e-001 1.684233e+002 -5.965998e+001 -1.415702e+001 -5.933067e+001 -1.026970e+001 -2.087428e-001 1.341089e+002
529445073.61268 -4.998406e-001 1.681305e+002 -5.909420e+001 -1.161215e+001 -5.939963e+001 -9.255291e+000 -2.083821e-001 1.340381e+002
529822574.55644 -5.056017e-001 1.678941e+002 -5.875492e+001 -1.514387e+001 -5.897864e+001 -9.726323e+000 -2.084706e-001 1.339579e+002
530200075.50019 -5.101274e-001 1.677253e+002 -5.894107e+001 -1.506371e+001 -5.837981e+001 -1.066689e+001 -2.044004e-001 1.338690e+002
530577576.44394 -5.172666e-001 1.674628e+002 -5.922622e+001 -1.369642e+001 -5.817942e+001 -1.068315e+001 -2.031931e-001 1.338009e+002
530955077.38769 -5.245063e-001 1.672371e+002 -5.842047e+001 -1.636995e+001 -5.830067e+001 -1.095220e+001 -2.065365e-001 1.337399e+002
531332578.33145 -5.328943e-001 1.670160e+002 -5.869377e+001 -1.880864e+001 -5.825312e+001 -9.625218e+000 -2.030367e-001 1.336756e+002
531710079.2752 -5.388604e-001 1.667691e+002 -5.863131e+001 -1.793372e+001 -5.820725e+001 -1.296752e+001 -1.989860e-001 1.336127e+002
532087580.21895 -5.459399e-001 1.665931e+002 -5.835240e+001 -2.125933e+001 -5.756761e+001 -1.319544e+001 -1.981761e-001 1.335713e+002
532465081.1627 -5.514318e-001 1.662939e+002 -5.858328e+001 -2.035929e+001 -5.775115e+001 -1.699372e+001 -1.947576e-001 1.335173e+002
532842582.10646 -5.562412e-001 1.660925e+002 -5.789579e+001 -2.369912e+001 -5.773934e+001 -1.376759e+001 -1.910565e-001 1.334555e+002
533220083.05021 -5.672836e-001 1.659014e+002 -5.806425e+001 -2.303695e+001 -5.742947e+001 -1.638395e+001 -1.929603e-001 1.334232e+002
533597583.99396 -5.676681e-001 1.656035e+002 -5.851299e+001 -2.673629e+001 -5.789743e+001 -2.152930e+001 -1.912045e-001 1.333802e+002
533975084.93771 -5.831270e-001 1.654245e+002 -5.856691e+001 -2.445051e+001 -5.781492e+001 -2.147080e+001 -1.872322e-001 1.333354e+002
534352585.88146 -5.873134e-001 1.652020e+002 -5.827650e+001 -2.553589e+001 -5.792979e+001 -2.441735e+001 -1.853132e-001 1.333153e+002
534730086.82522 -5.943248e-001 1.649394e+002 -5.818504e+001 -2.739840e+001 -5.848206e+001 -2.297192e+001 -1.786918e-001 1.332765e+002
535107587.76897 -5.992385e-001 1.648234e+002 -5.812454e+001 -3.125776e+001 -5.804911e+001 -2.052918e+001 -1.805817e-001 1.332680e+002
535485088.71272 -6.064926e-001 1.645836e+002 -5.828483e+001 -3.141093e+001 -5.774926e+001 -2.414071e+001 -1.759362e-001 1.332246e+002
535862589.65647 -6.107018e-001 1.643785e+002 -5.824980e+001 -2.893221e+001 -5.799973e+001 -2.781962e+001 -1.762452e-001 1.332124e+002
536240090.60023 -6.108562e-001 1.641485e+002 -5.824751e+001 -2.940395e+001 -5.796278e+001 -2.694441e+001 -1.741830e-001 1.332142e+002
536617591.54398 -6.129841e-001 1.639391e+002 -5.831260e+001 -2.976399e+001 -5.772662e+001 -2.766689e+001 -1.727588e-001 1.332139e+002
536995092.48773 -6.177796e-001 1.637815e+002 -5.867385e+001 -3.384671e+001 -5.763337e+001 -2.982278e+001 -1.717596e-001 1.331868e+002
537372593.43148 -6.198765e-001 1.635037e+002 -5.828755e+001 -3.225077e+001 -5.800494e+001 -2.925297e+001 -1.664522e-001 1.331892e+002
537750094.37524 -6.262357e-001 1.632976e+002 -5.838850e+001 -3.200901e+001 -5.794500e+001 -3.137213e+001 -1.653663e-001 1.331846e+002
538127595.31899 -6.276615e-001 1.631002e+002 -5.867539e+001 -3.598110e+001 -5.785996e+001 -3.093884e+001 -1.657256e-001 1.331656e+002
538505096.26274 -6.281751e-001 1.627870e+002 -5.845827e+001 -3.455305e+001 -5.760381e+001 -2.863497e+001 -1.657778e-001 1.331574e+002
538882597.20649 -6.362296e-001 1.626356e+002 -5.844709e+001 -3.931916e+001 -5.777333e+001 -3.254803e+001 -1.640434e-001 1.331526e+002
539260098.15025 -6.371544e-001 1.623875e+002 -5.788592e+001 -3.949718e+001 -5.762716e+001 -3.284761e+001 -1.611910e-001 1.331579e+002
539637599.094 -6.377517e-001 1.621383e+002 -5.784384e+001 -3.841353e+001 -5.768532e+001 -3.277201e+001 -1.611845e-001 1.331557e+002
540015100.03775 -6.391470e-001 1.619217e+002 -5.781969e+001 -3.733248e+001 -5.747734e+001 -3.272339e+001 -1.633417e-001 1.331874e+002
540392600.9815 -6.466108e-001 1.616507e+002 -5.784283e+001 -3.787848e+001 -5.798296e+001 -3.854058e+001 -1.608829e-001 1.331380e+002
540770101.92525 -6.520548e-001 1.615082e+002 -5.789383e+001 -3.905843e+001 -5.739277e+001 -3.669593e+001 -1.638012e-001 1.331408e+002
541147602.86901 -6.506636e-001 1.612442e+002 -5.737166e+001 -4.170636e+001 -5.705230e+001 -3.843943e+001 -1.623651e-001 1.331258e+002
541525103.81276 -6.555667e-001 1.609705e+002 -5.765674e+001 -4.063357e+001 -5.704609e+001 -3.841533e+001 -1.632712e-001 1.331000e+002
541902604.75651 -6.614409e-001 1.608243e+002 -5.744823e+001 -3.981803e+001 -5.744828e+001 -4.319850e+001 -1.648470e-001 1.330935e+002
542280105.70026 -6.654603e-001 1.605237e+002 -5.732212e+001 -4.293504e+001 -5.757835e+001 -4.287057e+001 -1.624555e-001 1.330839e+002
542657606.64402 -6.648025e-001 1.602999e+002 -5.704637e+001 -4.386372e+001 -5.730063e+001 -4.342341e+001 -1.633531e-001 1.330601e+002
543035107.58777 -6.698025e-001 1.600391e+002 -5.721363e+001 -4.617604e+001 -5.723815e+001 -4.324947e+001 -1.649660e-001 1.330313e+002
543412608.53152 -6.742915e-001 1.598230e+002 -5.709859e+001 -4.835592e+001 -5.689817e+001 -4.177005e+001 -1.677766e-001 1.329919e+002
543790109.47527 -6.766065e-001 1.595502e+002 -5.690476e+001 -4.842026e+001 -5.726328e+001 -4.231144e+001 -1.684412e-001 1.329609e+002
544167610.41903 -6.808837e-001 1.593569e+002 -5.698537e+001 -4.878866e+001 -5.694912e+001 -4.516594e+001 -1.700256e-001 1.329525e+002
544545111.36278 -6.815226e-001 1.590592e+002 -5.708431e+001 -4.889190e+001 -5.711391e+001 -4.594772e+001 -1.680350e-001 1.329067e+002
544922612.30653 -6.884912e-001 1.587941e+002 -5.679141e+001 -4.986854e+001 -5.728717e+001 -4.626290e+001 -1.695816e-001 1.328639e+002
545300113.25028 -6.911484e-001 1.586135e+002 -5.652272e+001 -5.203072e+001 -5.725738e+001 -4.907585e+001 -1.721953e-001 1.328559e+002
545677614.19404 -7.009404e-001 1.583971e+002 -5.630259e+001 -5.269969e+001 -5.673878e+001 -4.788451e+001 -1.744746e-001 1.327926e+002
546055115.13779 -7.033522e-001 1.581365e+002 -5.661766e+001 -5.471562e+001 -5.684266e+001 -4.862647e+001 -1.760294e-001 1.327263e+002
546432616.08154 -7.072042e-001 1.578385e+002 -5.668579e+001 -5.921918e+001 -5.646067e+001 -5.106222e+001 -1.771441e-001 1.326883e+002
546810117.02529 -7.104565e-001 1.575760e+002 -5.643555e+001 -5.705217e+001 -5.676007e+001 -5.184486e+001 -1.811209e-001 1.326268e+002
547187617.96904 -7.178864e-001 1.573244e+002 -5.649547e+001 -5.938517e+001 -5.632296e+001 -5.271229e+001 -1.777862e-001 1.326069e+002
547565118.9128 -7.301211e-001 1.570201e+002 -5.642165e+001 -5.783091e+001 -5.678215e+001 -5.128954e+001 -1.830628e-001 1.325430e+002
547942619.85655 -7.354532e-001 1.568122e+002 -5.639029e+001 -5.912179e+001 -5.602458e+001 -5.289939e+001 -1.867478e-001 1.324932e+002
548320120.8003 -7.478081e-001 1.565370e+002 -5.653597e+001 -6.276590e+001 -5.607809e+001 -5.619738e+001 -1.853283e-001 1.324332e+002
548697621.74405 -7.552387e-001 1.563067e+002 -5.633619e+001 -6.111382e+001 -5.640771e+001 -5.526860e+001 -1.872511e-001 1.323854e+002
549075122.68781 -7.648086e-001 1.560457e+002 -5.597015e+001 -6.304325e+001 -5.611359e+001 -5.909578e+001 -1.903199e-001 1.323685e+002
549452623.63156 -7.740310e-001 1.558291e+002 -5.609018e+001 -6.245997e+001 -5.643199e+001 -5.769522e+001 -1.916072e-001 1.322849e+002
549830124.57531 -7.877962e-001 1.555948e+002 -5.638556e+001 -6.565419e+001 -5.608541e+001 -6.035168e+001 -1.884779e-001 1.321695e+002
550207625.51906 -7.898387e-001 1.553527e+002 -5.610202e+001 -7.100824e+001 -5.604419e+001 -6.149413e+001 -1.906096e-001 1.321893e+002
550585126.46282 -7.981929e-001 1.551247e+002 -5.655785e+001 -6.776324e+001 -5.593974e+001 -6.080568e+001 -1.924571e-001 1.321365e+002
550962627.40657 -8.037901e-001 1.548577e+002 -5.638355e+001 -7.011750e+001 -5.633472e+001 -6.526738e+001 -1.919766e-001 1.320884e+002
551340128.35032 -8.069050e-001 1.546568e+002 -5.606145e+001 -7.121370e+001 -5.623251e+001 -6.669405e+001 -1.953169e-001 1.320110e+002
551717629.29407 -8.129969e-001 1.543780e+002 -5.644428e+001 -7.436161e+001 -5.634526e+001 -6.717899e+001 -1.901918e-001 1.320285e+002
552095130.23783 -8.173238e-001 1.541508e+002 -5.677880e+001 -7.250159e+001 -5.639993e+001 -6.817967e+001 -1.891219e-001 1.319712e+002
552472631.18158 -8.195313e-001 1.538813e+002 -5.611023e+001 -7.465693e+001 -5.673971e+001 -6.861533e+001 -1.897735e-001 1.319499e+002
552850132.12533 -8.283721e-001 1.536266e+002 -5.652709e+001 -7.239811e+001 -5.617291e+001 -6.701218e+001 -1.884694e-001 1.319138e+002
553227633.06908 -8.333254e-001 1.533851e+002 -5.657845e+001 -7.557511e+001 -5.581309e+001 -7.002042e+001 -1.899088e-001 1.318911e+002
553605134.01284 -8.429264e-001 1.531461e+002 -5.623219e+001 -7.530695e+001 -5.634180e+001 -7.171667e+001 -1.940471e-001 1.318652e+002
553982634.95659 -8.489845e-001 1.528560e+002 -5.636402e+001 -7.753736e+001 -5.666566e+001 -7.154154e+001 -1.920348e-001 1.318531e+002
554360135.90034 -8.574973e-001 1.526161e+002 -5.653895e+001 -7.720667e+001 -5.646748e+001 -6.995332e+001 -1.891791e-001 1.318372e+002
554737636.84409 -8.697869e-001 1.523280e+002 -5.603109e+001 -7.798388e+001 -5.648026e+001 -7.357918e+001 -1.893509e-001 1.318528e+002
555115137.78784 -8.821771e-001 1.521245e+002 -5.605309e+001 -8.118214e+001 -5.632535e+001 -7.445547e+001 -1.873248e-001 1.318400e+002
555492638.7316 -8.898298e-001 1.518646e+002 -5.687687e+001 -8.108994e+001 -5.628801e+001 -7.446140e+001 -1.873106e-001 1.318403e+002
