!Agilent Technologies,E8364B,US42250235,A.06.04.32
!Agilent E8364B: A.06.04.32
!Date: Thursday, October 01, 2020 14:56:00
!Correction: S11(Full 2 Port(1,2)) S21(Full 2 Port(1,2)) S12(Full 2 Port(1,2)) S22(Full 2 Port(1,2)) 
!S2P File: Measurements: S11, S21, S12, S22:
# Hz S  dB   R 50
500000000 -2.294164e-001 -1.750735e+002 -6.339287e+001 -3.365072e+001 -6.491076e+001 -2.367942e+001 -1.071435e-001 1.386840e+002
500377500.94375 -2.306942e-001 -1.752660e+002 -6.544681e+001 -2.597532e+001 -6.489779e+001 -1.956022e+001 -1.060605e-001 1.386875e+002
500755001.8875 -2.346837e-001 -1.754702e+002 -6.531528e+001 -2.794711e+001 -6.488336e+001 -2.298399e+001 -1.019911e-001 1.386759e+002
501132502.83126 -2.357947e-001 -1.756740e+002 -6.489132e+001 -3.128779e+001 -6.400257e+001 -2.230531e+001 -1.048664e-001 1.386555e+002
501510003.77501 -2.400615e-001 -1.758356e+002 -6.511848e+001 -2.778502e+001 -6.516422e+001 -3.099868e+001 -1.003745e-001 1.386459e+002
501887504.71876 -2.391094e-001 -1.761223e+002 -6.352621e+001 -3.295604e+001 -6.547664e+001 -3.182920e+001 -9.777197e-002 1.386065e+002
502265005.66251 -2.429652e-001 -1.763008e+002 -6.446664e+001 -3.704338e+001 -6.406757e+001 -2.532442e+001 -9.944531e-002 1.386044e+002
502642506.60627 -2.475212e-001 -1.765113e+002 -6.297029e+001 -3.564338e+001 -6.405891e+001 -2.710781e+001 -9.638944e-002 1.386223e+002
503020007.55002 -2.530353e-001 -1.767056e+002 -6.453336e+001 -3.033659e+001 -6.448640e+001 -2.970092e+001 -9.923840e-002 1.385554e+002
503397508.49377 -2.513703e-001 -1.769023e+002 -6.469540e+001 -4.640389e+001 -6.513479e+001 -3.614743e+001 -9.648544e-002 1.385344e+002
503775009.43752 -2.558292e-001 -1.770925e+002 -6.399009e+001 -3.313269e+001 -6.560758e+001 -2.822558e+001 -9.757297e-002 1.384966e+002
504152510.38128 -2.592619e-001 -1.772806e+002 -6.310382e+001 -4.135865e+001 -6.396109e+001 -3.656845e+001 -9.873462e-002 1.384565e+002
504530011.32503 -2.614257e-001 -1.774914e+002 -6.336718e+001 -4.374876e+001 -6.410736e+001 -3.231806e+001 -9.881543e-002 1.384200e+002
504907512.26878 -2.632735e-001 -1.776711e+002 -6.384725e+001 -3.558308e+001 -6.418876e+001 -3.409273e+001 -9.877176e-002 1.384005e+002
505285013.21253 -2.646366e-001 -1.778523e+002 -6.304680e+001 -3.427104e+001 -6.452044e+001 -3.907381e+001 -9.938714e-002 1.383842e+002
505662514.15629 -2.622952e-001 -1.780684e+002 -6.367683e+001 -4.480995e+001 -6.438556e+001 -3.711716e+001 -9.827900e-002 1.383390e+002
506040015.10004 -2.672828e-001 -1.782358e+002 -6.321888e+001 -5.214558e+001 -6.447822e+001 -3.353202e+001 -9.929172e-002 1.382898e+002
506417516.04379 -2.677661e-001 -1.784636e+002 -6.426530e+001 -4.891845e+001 -6.385437e+001 -3.892209e+001 -9.850800e-002 1.382555e+002
506795016.98754 -2.683577e-001 -1.786703e+002 -6.326272e+001 -4.816631e+001 -6.403177e+001 -3.284426e+001 -9.717912e-002 1.381966e+002
507172517.93129 -2.699628e-001 -1.788618e+002 -6.370879e+001 -5.093774e+001 -6.409559e+001 -4.333616e+001 -9.752734e-002 1.381692e+002
507550018.87505 -2.742448e-001 -1.790709e+002 -6.334893e+001 -4.852383e+001 -6.282513e+001 -4.369885e+001 -1.031847e-001 1.380971e+002
507927519.8188 -2.794350e-001 -1.792874e+002 -6.230912e+001 -5.455286e+001 -6.379706e+001 -3.997223e+001 -1.009831e-001 1.380759e+002
508305020.76255 -2.772103e-001 -1.794871e+002 -6.247845e+001 -5.186511e+001 -6.373792e+001 -4.013356e+001 -9.970853e-002 1.380333e+002
508682521.7063 -2.781318e-001 -1.797385e+002 -6.298542e+001 -5.631303e+001 -6.323071e+001 -4.427101e+001 -1.052479e-001 1.379976e+002
509060022.65006 -2.844698e-001 -1.799168e+002 -6.317166e+001 -5.183390e+001 -6.272351e+001 -4.847657e+001 -1.036738e-001 1.379253e+002
509437523.59381 -2.816898e-001 1.798640e+002 -6.294767e+001 -5.296617e+001 -6.325112e+001 -4.667730e+001 -1.006472e-001 1.379033e+002
509815024.53756 -2.840587e-001 1.796537e+002 -6.315678e+001 -5.236937e+001 -6.293029e+001 -4.184087e+001 -1.013763e-001 1.378456e+002
510192525.48131 -2.879207e-001 1.794442e+002 -6.318140e+001 -5.952827e+001 -6.304654e+001 -4.988161e+001 -9.957948e-002 1.377960e+002
510570026.42507 -2.929761e-001 1.792077e+002 -6.309579e+001 -5.588220e+001 -6.292599e+001 -4.992763e+001 -9.918689e-002 1.377513e+002
510947527.36882 -2.957272e-001 1.790468e+002 -6.276251e+001 -5.787089e+001 -6.350092e+001 -4.494841e+001 -1.000102e-001 1.377256e+002
511325028.31257 -2.975510e-001 1.787997e+002 -6.348431e+001 -6.070867e+001 -6.423679e+001 -4.889186e+001 -9.807713e-002 1.376805e+002
511702529.25632 -3.015911e-001 1.785374e+002 -6.312085e+001 -5.991202e+001 -6.318880e+001 -5.455511e+001 -9.803965e-002 1.376433e+002
512080030.20008 -3.058329e-001 1.783676e+002 -6.223832e+001 -6.035280e+001 -6.255701e+001 -5.544986e+001 -9.822870e-002 1.375879e+002
512457531.14383 -3.084395e-001 1.781487e+002 -6.232873e+001 -6.404890e+001 -6.288084e+001 -5.364742e+001 -9.736052e-002 1.375628e+002
512835032.08758 -3.174997e-001 1.779071e+002 -6.360059e+001 -6.231626e+001 -6.272707e+001 -5.053173e+001 -9.582758e-002 1.375457e+002
513212533.03133 -3.147149e-001 1.777025e+002 -6.224426e+001 -6.487955e+001 -6.240395e+001 -5.465795e+001 -9.764095e-002 1.374928e+002
513590033.97508 -3.164967e-001 1.774616e+002 -6.375378e+001 -6.298587e+001 -6.265535e+001 -5.681969e+001 -9.437397e-002 1.374674e+002
513967534.91884 -3.223961e-001 1.772726e+002 -6.247974e+001 -6.340596e+001 -6.230227e+001 -5.545930e+001 -9.515822e-002 1.374586e+002
514345035.86259 -3.219874e-001 1.770135e+002 -6.263063e+001 -6.729263e+001 -6.348804e+001 -5.556900e+001 -9.649619e-002 1.374263e+002
514722536.80634 -3.263315e-001 1.768529e+002 -6.265517e+001 -6.271621e+001 -6.263902e+001 -5.430290e+001 -9.543814e-002 1.373958e+002
515100037.75009 -3.226298e-001 1.766338e+002 -6.378876e+001 -6.560664e+001 -6.305186e+001 -5.817209e+001 -9.327420e-002 1.373757e+002
515477538.69385 -3.263142e-001 1.763655e+002 -6.313863e+001 -6.950578e+001 -6.297966e+001 -5.627289e+001 -9.524121e-002 1.373473e+002
515855039.6376 -3.301547e-001 1.761836e+002 -6.246698e+001 -6.508527e+001 -6.223441e+001 -5.851668e+001 -9.342938e-002 1.373334e+002
516232540.58135 -3.366023e-001 1.759619e+002 -6.331456e+001 -6.128437e+001 -6.276928e+001 -6.020597e+001 -9.213146e-002 1.373256e+002
516610041.5251 -3.394660e-001 1.757341e+002 -6.241621e+001 -6.681808e+001 -6.241764e+001 -5.555386e+001 -9.573929e-002 1.373124e+002
516987542.46886 -3.386616e-001 1.754908e+002 -6.190969e+001 -6.279781e+001 -6.280075e+001 -5.925817e+001 -9.706154e-002 1.372855e+002
517365043.41261 -3.440102e-001 1.752949e+002 -6.160090e+001 -6.508040e+001 -6.243690e+001 -5.792413e+001 -9.437387e-002 1.372394e+002
517742544.35636 -3.484050e-001 1.750628e+002 -6.154040e+001 -6.654298e+001 -6.166445e+001 -6.331913e+001 -9.605740e-002 1.372690e+002
518120045.30011 -3.519945e-001 1.748439e+002 -6.144387e+001 -6.629568e+001 -6.198773e+001 -6.246887e+001 -9.468900e-002 1.372386e+002
518497546.24387 -3.528805e-001 1.746742e+002 -6.144285e+001 -6.785773e+001 -6.168375e+001 -6.180498e+001 -9.337575e-002 1.371772e+002
518875047.18762 -3.589543e-001 1.744041e+002 -6.075281e+001 -7.172857e+001 -6.153078e+001 -6.590816e+001 -9.387077e-002 1.372296e+002
519252548.13137 -3.646197e-001 1.741901e+002 -6.160949e+001 -6.996569e+001 -6.089090e+001 -6.204331e+001 -1.003115e-001 1.372060e+002
519630049.07512 -3.719209e-001 1.739623e+002 -6.141681e+001 -7.078097e+001 -6.166317e+001 -6.914177e+001 -9.786022e-002 1.371633e+002
520007550.01888 -3.759789e-001 1.736948e+002 -6.088565e+001 -7.516863e+001 -6.095485e+001 -6.336371e+001 -1.042895e-001 1.371879e+002
520385050.96263 -3.792529e-001 1.735426e+002 -6.081680e+001 -7.923428e+001 -6.115545e+001 -6.548748e+001 -1.046805e-001 1.371373e+002
520762551.90638 -3.850637e-001 1.732977e+002 -6.090036e+001 -7.738503e+001 -6.139740e+001 -7.149625e+001 -1.020906e-001 1.370753e+002
521140052.85013 -3.879633e-001 1.731247e+002 -6.088136e+001 -8.403719e+001 -6.105270e+001 -7.048573e+001 -1.030218e-001 1.370856e+002
521517553.79388 -3.922893e-001 1.729200e+002 -6.105759e+001 -8.355074e+001 -6.113810e+001 -7.337173e+001 -1.050453e-001 1.371029e+002
521895054.73764 -3.944284e-001 1.726549e+002 -6.110968e+001 -8.211553e+001 -6.152377e+001 -7.304369e+001 -1.094092e-001 1.370529e+002
522272555.68139 -4.008824e-001 1.724411e+002 -5.976147e+001 -8.678222e+001 -6.136213e+001 -7.389603e+001 -1.101602e-001 1.370416e+002
522650056.62514 -4.071021e-001 1.722160e+002 -6.069427e+001 -8.645815e+001 -6.078317e+001 -7.548587e+001 -1.141057e-001 1.370004e+002
523027557.56889 -4.125942e-001 1.720523e+002 -5.982316e+001 -9.332790e+001 -6.111013e+001 -7.666396e+001 -1.178797e-001 1.369661e+002
523405058.51265 -4.123439e-001 1.717632e+002 -6.039825e+001 -8.868080e+001 -6.018282e+001 -7.716908e+001 -1.154948e-001 1.369855e+002
523782559.4564 -4.179605e-001 1.715666e+002 -6.002533e+001 -8.665670e+001 -6.076081e+001 -7.919537e+001 -1.185122e-001 1.368970e+002
524160060.40015 -4.210981e-001 1.713325e+002 -6.046248e+001 -9.055802e+001 -6.067610e+001 -7.905659e+001 -1.205916e-001 1.368421e+002
524537561.3439 -4.195940e-001 1.711241e+002 -6.092563e+001 -9.174869e+001 -6.025568e+001 -7.680741e+001 -1.273505e-001 1.368118e+002
524915062.28766 -4.275120e-001 1.709241e+002 -6.068854e+001 -8.761408e+001 -6.061902e+001 -7.598206e+001 -1.281299e-001 1.367717e+002
525292563.23141 -4.321746e-001 1.705932e+002 -6.037657e+001 -9.317552e+001 -6.087145e+001 -8.014122e+001 -1.301804e-001 1.367023e+002
525670064.17516 -4.314825e-001 1.704022e+002 -6.109833e+001 -9.298960e+001 -6.098322e+001 -8.384041e+001 -1.303364e-001 1.366495e+002
526047565.11891 -4.370684e-001 1.701720e+002 -6.051690e+001 -9.798430e+001 -6.012240e+001 -8.641900e+001 -1.317385e-001 1.365878e+002
526425066.06267 -4.403284e-001 1.698969e+002 -6.035264e+001 -9.467098e+001 -6.080825e+001 -8.363988e+001 -1.385327e-001 1.365339e+002
526802567.00642 -4.410757e-001 1.697032e+002 -6.036703e+001 -9.366228e+001 -6.074692e+001 -8.795916e+001 -1.376266e-001 1.364597e+002
527180067.95017 -4.472874e-001 1.694568e+002 -6.025527e+001 -9.798849e+001 -6.038913e+001 -8.454295e+001 -1.393289e-001 1.363968e+002
527557568.89392 -4.487738e-001 1.692265e+002 -6.057217e+001 -9.661935e+001 -6.071544e+001 -8.254163e+001 -1.346475e-001 1.363499e+002
527935069.83767 -4.543368e-001 1.690051e+002 -6.057166e+001 -9.504251e+001 -6.063850e+001 -9.094183e+001 -1.400448e-001 1.362635e+002
528312570.78143 -4.604370e-001 1.687733e+002 -6.013065e+001 -9.538091e+001 -6.089361e+001 -8.883554e+001 -1.374803e-001 1.362108e+002
528690071.72518 -4.573704e-001 1.685094e+002 -6.058316e+001 -9.699961e+001 -6.086831e+001 -8.972720e+001 -1.353940e-001 1.361425e+002
529067572.66893 -4.664547e-001 1.682487e+002 -6.009410e+001 -9.660363e+001 -5.994720e+001 -8.833070e+001 -1.407505e-001 1.360951e+002
529445073.61268 -4.695417e-001 1.680291e+002 -5.990108e+001 -9.959085e+001 -6.031270e+001 -9.147787e+001 -1.385669e-001 1.360368e+002
529822574.55644 -4.709419e-001 1.677690e+002 -5.968029e+001 -1.012432e+002 -6.008099e+001 -9.159347e+001 -1.389216e-001 1.359398e+002
530200075.50019 -4.783618e-001 1.674810e+002 -5.980394e+001 -1.024488e+002 -6.027161e+001 -9.271381e+001 -1.389720e-001 1.358813e+002
530577576.44394 -4.906431e-001 1.672892e+002 -6.006344e+001 -9.596603e+001 -5.974595e+001 -8.899937e+001 -1.385179e-001 1.358113e+002
530955077.38769 -4.941552e-001 1.670001e+002 -5.952449e+001 -1.004383e+002 -6.039239e+001 -8.925630e+001 -1.359840e-001 1.357734e+002
531332578.33145 -4.996870e-001 1.668004e+002 -5.930383e+001 -1.006379e+002 -5.985688e+001 -8.994453e+001 -1.338958e-001 1.357033e+002
531710079.2752 -5.086515e-001 1.665070e+002 -5.940798e+001 -1.005250e+002 -5.962799e+001 -9.340148e+001 -1.375729e-001 1.356068e+002
532087580.21895 -5.155682e-001 1.663251e+002 -5.902656e+001 -1.038584e+002 -5.914787e+001 -9.402524e+001 -1.315696e-001 1.355680e+002
532465081.1627 -5.220808e-001 1.660718e+002 -5.899699e+001 -1.050308e+002 -5.923151e+001 -1.000376e+002 -1.326682e-001 1.355190e+002
532842582.10646 -5.281650e-001 1.658520e+002 -5.930799e+001 -1.072175e+002 -5.892603e+001 -9.501667e+001 -1.309571e-001 1.354124e+002
533220083.05021 -5.384769e-001 1.656585e+002 -5.907396e+001 -1.058754e+002 -5.867697e+001 -1.000785e+002 -1.313183e-001 1.354148e+002
533597583.99396 -5.449702e-001 1.653631e+002 -5.861156e+001 -1.101870e+002 -5.884466e+001 -9.897613e+001 -1.286320e-001 1.354020e+002
533975084.93771 -5.562397e-001 1.651133e+002 -5.890541e+001 -1.095913e+002 -5.856827e+001 -1.050891e+002 -1.276432e-001 1.353148e+002
534352585.88146 -5.674251e-001 1.649697e+002 -5.943380e+001 -1.136550e+002 -5.835566e+001 -1.010068e+002 -1.254586e-001 1.352634e+002
534730086.82522 -5.768347e-001 1.647102e+002 -5.880249e+001 -1.155156e+002 -5.866351e+001 -1.050012e+002 -1.245175e-001 1.352329e+002
535107587.76897 -5.860192e-001 1.645372e+002 -5.902902e+001 -1.151283e+002 -5.869598e+001 -1.042610e+002 -1.271165e-001 1.351514e+002
535485088.71272 -5.904145e-001 1.642901e+002 -5.970116e+001 -1.175484e+002 -5.862952e+001 -1.096436e+002 -1.216385e-001 1.351739e+002
535862589.65647 -5.966057e-001 1.640307e+002 -5.877488e+001 -1.181271e+002 -5.863759e+001 -1.064180e+002 -1.186338e-001 1.351193e+002
536240090.60023 -6.014245e-001 1.639067e+002 -5.835071e+001 -1.164590e+002 -5.891541e+001 -1.069291e+002 -1.182127e-001 1.350967e+002
536617591.54398 -6.079366e-001 1.636251e+002 -5.851040e+001 -1.176607e+002 -5.860721e+001 -1.122056e+002 -1.191502e-001 1.350658e+002
536995092.48773 -6.164691e-001 1.634639e+002 -5.865475e+001 -1.181198e+002 -5.866794e+001 -1.093394e+002 -1.165192e-001 1.350562e+002
537372593.43148 -6.194028e-001 1.631987e+002 -5.812967e+001 -1.248385e+002 -5.862226e+001 -1.125164e+002 -1.119782e-001 1.350354e+002
537750094.37524 -6.275465e-001 1.629545e+002 -5.804898e+001 -1.201688e+002 -5.884272e+001 -1.150966e+002 -1.106211e-001 1.350104e+002
538127595.31899 -6.309966e-001 1.627802e+002 -5.826569e+001 -1.232712e+002 -5.860182e+001 -1.160309e+002 -1.123222e-001 1.349962e+002
538505096.26274 -6.355994e-001 1.625221e+002 -5.822111e+001 -1.266909e+002 -5.837365e+001 -1.155761e+002 -1.112054e-001 1.350127e+002
538882597.20649 -6.414768e-001 1.623256e+002 -5.816342e+001 -1.300223e+002 -5.871906e+001 -1.167098e+002 -1.108090e-001 1.349677e+002
539260098.15025 -6.487320e-001 1.620453e+002 -5.811305e+001 -1.278303e+002 -5.851453e+001 -1.200141e+002 -1.057361e-001 1.349549e+002
539637599.094 -6.544837e-001 1.617988e+002 -5.826789e+001 -1.252311e+002 -5.819799e+001 -1.239063e+002 -1.095823e-001 1.349436e+002
540015100.03775 -6.611998e-001 1.615874e+002 -5.830436e+001 -1.286282e+002 -5.851404e+001 -1.201456e+002 -1.061749e-001 1.349952e+002
540392600.9815 -6.636043e-001 1.613797e+002 -5.831578e+001 -1.285148e+002 -5.876881e+001 -1.213565e+002 -1.092867e-001 1.349278e+002
540770101.92525 -6.756671e-001 1.611194e+002 -5.800718e+001 -1.310982e+002 -5.832682e+001 -1.236404e+002 -1.064885e-001 1.349290e+002
541147602.86901 -6.747012e-001 1.608810e+002 -5.793340e+001 -1.310020e+002 -5.812177e+001 -1.238504e+002 -1.066696e-001 1.349209e+002
541525103.81276 -6.799641e-001 1.606012e+002 -5.782428e+001 -1.319389e+002 -5.821502e+001 -1.234996e+002 -1.076923e-001 1.349084e+002
541902604.75651 -6.861634e-001 1.604505e+002 -5.778243e+001 -1.364480e+002 -5.807373e+001 -1.262949e+002 -1.092983e-001 1.349094e+002
542280105.70026 -6.958721e-001 1.601715e+002 -5.764997e+001 -1.368641e+002 -5.842968e+001 -1.237222e+002 -1.080774e-001 1.348878e+002
542657606.64402 -6.950344e-001 1.598780e+002 -5.799862e+001 -1.391361e+002 -5.852393e+001 -1.280151e+002 -1.099056e-001 1.348885e+002
543035107.58777 -7.041807e-001 1.596924e+002 -5.819580e+001 -1.385653e+002 -5.866505e+001 -1.303418e+002 -1.086183e-001 1.348631e+002
543412608.53152 -7.112470e-001 1.594307e+002 -5.793416e+001 -1.402062e+002 -5.841485e+001 -1.273798e+002 -1.117407e-001 1.348541e+002
543790109.47527 -7.182328e-001 1.592302e+002 -5.800935e+001 -1.409605e+002 -5.856076e+001 -1.286039e+002 -1.093398e-001 1.348163e+002
544167610.41903 -7.272031e-001 1.590142e+002 -5.802657e+001 -1.389097e+002 -5.820449e+001 -1.289412e+002 -1.099229e-001 1.348043e+002
544545111.36278 -7.232926e-001 1.587675e+002 -5.792202e+001 -1.399032e+002 -5.803456e+001 -1.302813e+002 -1.122805e-001 1.347913e+002
544922612.30653 -7.340456e-001 1.585065e+002 -5.745617e+001 -1.401552e+002 -5.814071e+001 -1.319470e+002 -1.092097e-001 1.347684e+002
545300113.25028 -7.404988e-001 1.582453e+002 -5.806236e+001 -1.376394e+002 -5.820876e+001 -1.335530e+002 -1.112122e-001 1.347421e+002
545677614.19404 -7.448995e-001 1.580541e+002 -5.781733e+001 -1.439541e+002 -5.837027e+001 -1.331571e+002 -1.146837e-001 1.346976e+002
546055115.13779 -7.518192e-001 1.578128e+002 -5.733877e+001 -1.439303e+002 -5.820606e+001 -1.356514e+002 -1.147949e-001 1.347004e+002
546432616.08154 -7.584041e-001 1.575531e+002 -5.752218e+001 -1.443315e+002 -5.805936e+001 -1.353956e+002 -1.148162e-001 1.346525e+002
546810117.02529 -7.643150e-001 1.572257e+002 -5.737104e+001 -1.450614e+002 -5.830491e+001 -1.328330e+002 -1.140548e-001 1.346133e+002
547187617.96904 -7.728009e-001 1.570628e+002 -5.698581e+001 -1.439272e+002 -5.813537e+001 -1.345005e+002 -1.143622e-001 1.345913e+002
547565118.9128 -7.838283e-001 1.567637e+002 -5.760794e+001 -1.508400e+002 -5.737023e+001 -1.369716e+002 -1.145806e-001 1.345223e+002
547942619.85655 -7.974884e-001 1.564970e+002 -5.780384e+001 -1.477052e+002 -5.768204e+001 -1.361168e+002 -1.099786e-001 1.344848e+002
548320120.8003 -8.062555e-001 1.562621e+002 -5.728883e+001 -1.478296e+002 -5.766249e+001 -1.364666e+002 -1.129972e-001 1.344549e+002
548697621.74405 -8.179454e-001 1.560596e+002 -5.722818e+001 -1.495062e+002 -5.776883e+001 -1.388763e+002 -1.109819e-001 1.343882e+002
549075122.68781 -8.311507e-001 1.557882e+002 -5.743906e+001 -1.509012e+002 -5.743423e+001 -1.386088e+002 -1.144561e-001 1.344039e+002
549452623.63156 -8.442525e-001 1.555946e+002 -5.673372e+001 -1.509212e+002 -5.770713e+001 -1.419000e+002 -1.152621e-001 1.342959e+002
549830124.57531 -8.534529e-001 1.553716e+002 -5.687527e+001 -1.516614e+002 -5.719777e+001 -1.418323e+002 -1.160841e-001 1.342599e+002
550207625.51906 -8.628619e-001 1.551417e+002 -5.666715e+001 -1.565301e+002 -5.706900e+001 -1.433593e+002 -1.173662e-001 1.341872e+002
550585126.46282 -8.742546e-001 1.548936e+002 -5.717988e+001 -1.587589e+002 -5.686388e+001 -1.446481e+002 -1.170097e-001 1.341339e+002
550962627.40657 -8.812985e-001 1.546946e+002 -5.687407e+001 -1.605098e+002 -5.715419e+001 -1.456220e+002 -1.164029e-001 1.340857e+002
551340128.35032 -8.893276e-001 1.544816e+002 -5.622185e+001 -1.609014e+002 -5.694067e+001 -1.466200e+002 -1.159663e-001 1.340337e+002
551717629.29407 -8.987882e-001 1.542134e+002 -5.683947e+001 -1.590315e+002 -5.699931e+001 -1.467998e+002 -1.167756e-001 1.339713e+002
552095130.23783 -9.052692e-001 1.540169e+002 -5.680986e+001 -1.620729e+002 -5.697982e+001 -1.494564e+002 -1.111145e-001 1.339032e+002
552472631.18158 -9.138599e-001 1.537527e+002 -5.669431e+001 -1.646650e+002 -5.692973e+001 -1.505919e+002 -1.123537e-001 1.338597e+002
552850132.12533 -9.179856e-001 1.535361e+002 -5.660007e+001 -1.625675e+002 -5.698186e+001 -1.503923e+002 -1.138048e-001 1.337897e+002
553227633.06908 -9.269509e-001 1.532683e+002 -5.649302e+001 -1.634592e+002 -5.680490e+001 -1.504755e+002 -1.147287e-001 1.337420e+002
553605134.01284 -9.381212e-001 1.530412e+002 -5.631471e+001 -1.669638e+002 -5.689733e+001 -1.498176e+002 -1.102267e-001 1.336857e+002
553982634.95659 -9.492105e-001 1.528156e+002 -5.636617e+001 -1.656521e+002 -5.700445e+001 -1.558802e+002 -1.103018e-001 1.336560e+002
554360135.90034 -9.628417e-001 1.526245e+002 -5.662937e+001 -1.685443e+002 -5.611163e+001 -1.545610e+002 -1.095942e-001 1.336008e+002
554737636.84409 -9.707245e-001 1.523536e+002 -5.680781e+001 -1.671736e+002 -5.666688e+001 -1.560058e+002 -1.102474e-001 1.335718e+002
555115137.78784 -9.786019e-001 1.521173e+002 -5.662746e+001 -1.674541e+002 -5.668105e+001 -1.566964e+002 -1.040083e-001 1.335155e+002
