!Agilent Technologies,E8364B,US42250235,A.06.04.32
!Agilent E8364B: A.06.04.32
!Date: Thursday, October 01, 2020 14:22:28
!Correction: S11(Full 2 Port(1,2)) S21(Full 2 Port(1,2)) S12(Full 2 Port(1,2)) S22(Full 2 Port(1,2)) 
!S2P File: Measurements: S11, S21, S12, S22:
# Hz S  dB   R 50
500000000 -2.059633e-001 -1.753836e+002 -5.977778e+001 1.024728e+002 -5.907749e+001 1.015810e+002 -1.829691e-001 1.375440e+002
500377500.94375 -2.104627e-001 -1.755126e+002 -5.858731e+001 1.043560e+002 -5.921747e+001 1.010938e+002 -1.801767e-001 1.374976e+002
500755001.8875 -2.079117e-001 -1.757577e+002 -5.891441e+001 9.821738e+001 -5.941719e+001 9.983553e+001 -1.818902e-001 1.374745e+002
501132502.83126 -2.130730e-001 -1.759621e+002 -5.851525e+001 1.025763e+002 -5.928476e+001 9.771558e+001 -1.793082e-001 1.374240e+002
501510003.77501 -2.158704e-001 -1.761138e+002 -5.862397e+001 1.016945e+002 -5.891087e+001 9.949088e+001 -1.848730e-001 1.373091e+002
501887504.71876 -2.137389e-001 -1.764296e+002 -5.860940e+001 1.020541e+002 -5.908589e+001 9.898917e+001 -1.818145e-001 1.373292e+002
502265005.66251 -2.222250e-001 -1.765465e+002 -5.864029e+001 1.015547e+002 -5.903585e+001 9.975420e+001 -1.823495e-001 1.372845e+002
502642506.60627 -2.185623e-001 -1.768351e+002 -5.871473e+001 9.699806e+001 -5.911530e+001 9.693047e+001 -1.839159e-001 1.372763e+002
503020007.55002 -2.270474e-001 -1.770046e+002 -5.811250e+001 9.752407e+001 -5.797273e+001 9.623100e+001 -1.805244e-001 1.371593e+002
503397508.49377 -2.319596e-001 -1.771836e+002 -5.848228e+001 9.410939e+001 -5.890905e+001 9.593508e+001 -1.858984e-001 1.371474e+002
503775009.43752 -2.325570e-001 -1.774428e+002 -5.834311e+001 9.615594e+001 -5.860103e+001 1.006162e+002 -1.834861e-001 1.371038e+002
504152510.38128 -2.361498e-001 -1.776523e+002 -5.868179e+001 9.614452e+001 -5.873782e+001 9.595979e+001 -1.838487e-001 1.370327e+002
504530011.32503 -2.395844e-001 -1.778222e+002 -5.853049e+001 9.613136e+001 -5.860189e+001 9.722014e+001 -1.817919e-001 1.369963e+002
504907512.26878 -2.436901e-001 -1.780226e+002 -5.842059e+001 1.015477e+002 -5.839903e+001 9.756434e+001 -1.792729e-001 1.369386e+002
505285013.21253 -2.407214e-001 -1.783068e+002 -5.825817e+001 9.547353e+001 -5.846155e+001 9.781402e+001 -1.808805e-001 1.368909e+002
505662514.15629 -2.456910e-001 -1.784834e+002 -5.833144e+001 9.062299e+001 -5.798678e+001 9.401720e+001 -1.822583e-001 1.368311e+002
506040015.10004 -2.482273e-001 -1.787022e+002 -5.806507e+001 9.695763e+001 -5.821898e+001 9.412303e+001 -1.777049e-001 1.367883e+002
506417516.04379 -2.520992e-001 -1.789319e+002 -5.770568e+001 9.273500e+001 -5.859631e+001 1.001213e+002 -1.765450e-001 1.367333e+002
506795016.98754 -2.548541e-001 -1.790559e+002 -5.821327e+001 9.631944e+001 -5.826189e+001 9.306416e+001 -1.801374e-001 1.366937e+002
507172517.93129 -2.546153e-001 -1.793371e+002 -5.783814e+001 9.350364e+001 -5.738855e+001 9.228100e+001 -1.811732e-001 1.366467e+002
507550018.87505 -2.604268e-001 -1.794801e+002 -5.771539e+001 9.299017e+001 -5.790466e+001 9.319049e+001 -1.795457e-001 1.366115e+002
507927519.8188 -2.610484e-001 -1.797540e+002 -5.781863e+001 9.121470e+001 -5.781815e+001 9.580701e+001 -1.791662e-001 1.365514e+002
508305020.76255 -2.629178e-001 -1.799375e+002 -5.745274e+001 9.213307e+001 -5.728533e+001 9.205290e+001 -1.759931e-001 1.365286e+002
508682521.7063 -2.642698e-001 1.798709e+002 -5.779024e+001 9.368310e+001 -5.774566e+001 9.272288e+001 -1.724623e-001 1.365079e+002
509060022.65006 -2.669953e-001 1.796051e+002 -5.741100e+001 9.177742e+001 -5.767976e+001 9.161362e+001 -1.737588e-001 1.364212e+002
509437523.59381 -2.706796e-001 1.793837e+002 -5.743216e+001 8.581767e+001 -5.725910e+001 9.152441e+001 -1.755242e-001 1.363986e+002
509815024.53756 -2.713613e-001 1.791846e+002 -5.720852e+001 9.366488e+001 -5.739722e+001 8.836646e+001 -1.723458e-001 1.363505e+002
510192525.48131 -2.779096e-001 1.789567e+002 -5.706777e+001 8.635131e+001 -5.715679e+001 8.905708e+001 -1.702757e-001 1.363132e+002
510570026.42507 -2.831581e-001 1.788235e+002 -5.688918e+001 8.858419e+001 -5.692289e+001 9.142070e+001 -1.691225e-001 1.362921e+002
510947527.36882 -2.770602e-001 1.785210e+002 -5.712101e+001 8.562192e+001 -5.713842e+001 9.026814e+001 -1.698098e-001 1.362305e+002
511325028.31257 -2.841598e-001 1.784004e+002 -5.731411e+001 8.787259e+001 -5.670126e+001 8.754535e+001 -1.644329e-001 1.362135e+002
511702529.25632 -2.854835e-001 1.781073e+002 -5.684504e+001 8.522601e+001 -5.675543e+001 8.944540e+001 -1.673707e-001 1.361462e+002
512080030.20008 -2.897476e-001 1.779485e+002 -5.688280e+001 8.852780e+001 -5.647295e+001 8.877981e+001 -1.657809e-001 1.361577e+002
512457531.14383 -2.930784e-001 1.776872e+002 -5.683739e+001 8.900523e+001 -5.649478e+001 8.668703e+001 -1.700066e-001 1.361192e+002
512835032.08758 -2.951849e-001 1.774462e+002 -5.645530e+001 8.908086e+001 -5.616313e+001 8.692720e+001 -1.686312e-001 1.360575e+002
513212533.03133 -2.976544e-001 1.772529e+002 -5.618443e+001 9.052222e+001 -5.636883e+001 8.619746e+001 -1.684469e-001 1.360399e+002
513590033.97508 -3.031506e-001 1.770708e+002 -5.620038e+001 8.521757e+001 -5.609941e+001 8.343208e+001 -1.712409e-001 1.360244e+002
513967534.91884 -3.043127e-001 1.768008e+002 -5.644706e+001 8.460990e+001 -5.616832e+001 8.255096e+001 -1.667105e-001 1.359855e+002
514345035.86259 -3.046995e-001 1.765783e+002 -5.614210e+001 8.406683e+001 -5.611050e+001 8.193404e+001 -1.679083e-001 1.359920e+002
514722536.80634 -3.109829e-001 1.763564e+002 -5.608937e+001 8.590649e+001 -5.592756e+001 7.783971e+001 -1.689715e-001 1.359651e+002
515100037.75009 -3.151401e-001 1.762080e+002 -5.579359e+001 8.419736e+001 -5.610649e+001 8.286078e+001 -1.701151e-001 1.359304e+002
515477538.69385 -3.201369e-001 1.759601e+002 -5.580547e+001 8.614258e+001 -5.629248e+001 8.172326e+001 -1.712928e-001 1.359201e+002
515855039.6376 -3.193057e-001 1.757271e+002 -5.594054e+001 8.467822e+001 -5.584534e+001 8.108105e+001 -1.701518e-001 1.358867e+002
516232540.58135 -3.261097e-001 1.755253e+002 -5.557064e+001 8.285333e+001 -5.587055e+001 7.928591e+001 -1.736332e-001 1.358751e+002
516610041.5251 -3.280282e-001 1.752702e+002 -5.581002e+001 8.284845e+001 -5.555035e+001 7.892130e+001 -1.708007e-001 1.358771e+002
516987542.46886 -3.346841e-001 1.750151e+002 -5.549235e+001 8.258819e+001 -5.568471e+001 7.859474e+001 -1.705074e-001 1.358384e+002
517365043.41261 -3.388328e-001 1.748503e+002 -5.568102e+001 8.347227e+001 -5.598732e+001 7.813972e+001 -1.710613e-001 1.358374e+002
517742544.35636 -3.417253e-001 1.745171e+002 -5.574181e+001 7.978883e+001 -5.573625e+001 7.803796e+001 -1.733215e-001 1.358456e+002
518120045.30011 -3.464579e-001 1.743609e+002 -5.538380e+001 7.899613e+001 -5.573139e+001 7.691238e+001 -1.741497e-001 1.358172e+002
518497546.24387 -3.510869e-001 1.740932e+002 -5.524577e+001 8.010134e+001 -5.567796e+001 7.669027e+001 -1.742944e-001 1.358046e+002
518875047.18762 -3.559470e-001 1.738279e+002 -5.534558e+001 7.801185e+001 -5.552762e+001 7.748112e+001 -1.752559e-001 1.357953e+002
519252548.13137 -3.641109e-001 1.736074e+002 -5.515797e+001 7.928004e+001 -5.530463e+001 7.688714e+001 -1.779869e-001 1.357563e+002
519630049.07512 -3.703581e-001 1.733855e+002 -5.465213e+001 7.721880e+001 -5.538197e+001 7.805490e+001 -1.816800e-001 1.357276e+002
520007550.01888 -3.756914e-001 1.731316e+002 -5.472212e+001 7.626216e+001 -5.515349e+001 7.387337e+001 -1.805051e-001 1.357069e+002
520385050.96263 -3.792055e-001 1.729039e+002 -5.490724e+001 7.262858e+001 -5.513796e+001 7.553826e+001 -1.804300e-001 1.356756e+002
520762551.90638 -3.894136e-001 1.727230e+002 -5.455724e+001 7.823515e+001 -5.505903e+001 7.416970e+001 -1.794618e-001 1.356738e+002
521140052.85013 -3.889359e-001 1.724326e+002 -5.492253e+001 7.324758e+001 -5.499824e+001 7.315964e+001 -1.781560e-001 1.356352e+002
521517553.79388 -3.968959e-001 1.722122e+002 -5.488097e+001 7.210801e+001 -5.469113e+001 7.331734e+001 -1.804404e-001 1.356178e+002
521895054.73764 -4.052919e-001 1.720031e+002 -5.440177e+001 7.450384e+001 -5.492131e+001 7.387090e+001 -1.816918e-001 1.356033e+002
522272555.68139 -4.106555e-001 1.717501e+002 -5.415629e+001 7.259460e+001 -5.515846e+001 7.241180e+001 -1.807174e-001 1.355470e+002
522650056.62514 -4.150665e-001 1.715562e+002 -5.479454e+001 7.176888e+001 -5.482555e+001 7.357787e+001 -1.851507e-001 1.355279e+002
523027557.56889 -4.197084e-001 1.712973e+002 -5.492718e+001 7.230876e+001 -5.476766e+001 7.173698e+001 -1.885820e-001 1.354890e+002
523405058.51265 -4.267025e-001 1.711127e+002 -5.427728e+001 7.048352e+001 -5.437233e+001 7.322913e+001 -1.868370e-001 1.354658e+002
523782559.4564 -4.325702e-001 1.708748e+002 -5.434421e+001 7.063148e+001 -5.491059e+001 7.025520e+001 -1.893408e-001 1.354213e+002
524160060.40015 -4.356374e-001 1.705904e+002 -5.452898e+001 6.851661e+001 -5.497496e+001 7.078880e+001 -1.935307e-001 1.353684e+002
524537561.3439 -4.423066e-001 1.704448e+002 -5.433687e+001 7.123161e+001 -5.452058e+001 7.211985e+001 -1.877782e-001 1.353129e+002
524915062.28766 -4.444636e-001 1.701256e+002 -5.397005e+001 7.103587e+001 -5.451335e+001 6.784457e+001 -1.924185e-001 1.352489e+002
525292563.23141 -4.484915e-001 1.699286e+002 -5.449361e+001 6.974333e+001 -5.434310e+001 6.939189e+001 -1.951516e-001 1.352095e+002
525670064.17516 -4.559189e-001 1.696868e+002 -5.417779e+001 6.837491e+001 -5.431338e+001 6.829968e+001 -1.939559e-001 1.351503e+002
526047565.11891 -4.621444e-001 1.694452e+002 -5.385176e+001 6.876456e+001 -5.392080e+001 6.894512e+001 -1.925629e-001 1.350925e+002
526425066.06267 -4.671435e-001 1.692106e+002 -5.400392e+001 6.651926e+001 -5.392825e+001 6.516332e+001 -1.907375e-001 1.350363e+002
526802567.00642 -4.745134e-001 1.690332e+002 -5.437703e+001 6.565580e+001 -5.412672e+001 6.681376e+001 -1.941482e-001 1.349977e+002
527180067.95017 -4.798381e-001 1.688138e+002 -5.406177e+001 6.592990e+001 -5.391325e+001 6.815391e+001 -1.952850e-001 1.348940e+002
527557568.89392 -4.861061e-001 1.685173e+002 -5.362263e+001 6.506631e+001 -5.385902e+001 6.554595e+001 -1.953834e-001 1.348121e+002
527935069.83767 -4.907935e-001 1.683868e+002 -5.374612e+001 6.643525e+001 -5.375756e+001 6.428831e+001 -1.939833e-001 1.347915e+002
528312570.78143 -4.945050e-001 1.681431e+002 -5.358854e+001 6.509436e+001 -5.367185e+001 6.501537e+001 -1.940354e-001 1.347327e+002
528690071.72518 -4.986289e-001 1.679361e+002 -5.372633e+001 6.571822e+001 -5.353616e+001 6.487111e+001 -1.968310e-001 1.346500e+002
529067572.66893 -5.047141e-001 1.676731e+002 -5.330618e+001 6.433057e+001 -5.316618e+001 6.328138e+001 -1.953994e-001 1.345899e+002
529445073.61268 -5.071957e-001 1.673814e+002 -5.353812e+001 6.414288e+001 -5.330569e+001 6.198027e+001 -1.945295e-001 1.345264e+002
529822574.55644 -5.129561e-001 1.671244e+002 -5.313961e+001 6.204056e+001 -5.328373e+001 6.242011e+001 -1.953139e-001 1.344634e+002
530200075.50019 -5.215324e-001 1.669651e+002 -5.341850e+001 6.382557e+001 -5.333792e+001 6.206484e+001 -1.965119e-001 1.343950e+002
530577576.44394 -5.274310e-001 1.666607e+002 -5.297400e+001 6.166727e+001 -5.291737e+001 6.011078e+001 -1.997196e-001 1.343493e+002
530955077.38769 -5.332569e-001 1.664523e+002 -5.294617e+001 6.216612e+001 -5.315860e+001 6.071590e+001 -1.962257e-001 1.342314e+002
531332578.33145 -5.448788e-001 1.662406e+002 -5.269133e+001 6.270510e+001 -5.264837e+001 6.118953e+001 -1.997519e-001 1.342405e+002
531710079.2752 -5.530334e-001 1.659563e+002 -5.286011e+001 6.124397e+001 -5.280622e+001 5.775439e+001 -1.949179e-001 1.341582e+002
532087580.21895 -5.619115e-001 1.657748e+002 -5.258717e+001 5.961238e+001 -5.256358e+001 5.744490e+001 -1.954217e-001 1.341227e+002
532465081.1627 -5.691082e-001 1.654451e+002 -5.281895e+001 5.806398e+001 -5.259879e+001 5.809133e+001 -1.953361e-001 1.340762e+002
532842582.10646 -5.705963e-001 1.652352e+002 -5.269090e+001 5.889734e+001 -5.263113e+001 5.619046e+001 -1.914361e-001 1.339957e+002
533220083.05021 -5.830652e-001 1.649880e+002 -5.236772e+001 5.897292e+001 -5.241047e+001 5.716733e+001 -1.959672e-001 1.339583e+002
533597583.99396 -5.902781e-001 1.647494e+002 -5.255264e+001 5.728422e+001 -5.247988e+001 5.477498e+001 -1.951783e-001 1.338812e+002
533975084.93771 -6.044534e-001 1.644894e+002 -5.227085e+001 5.675615e+001 -5.222196e+001 5.528815e+001 -1.965384e-001 1.338743e+002
534352585.88146 -6.098373e-001 1.642215e+002 -5.230787e+001 5.697388e+001 -5.231538e+001 5.495384e+001 -1.911061e-001 1.338411e+002
534730086.82522 -6.189774e-001 1.639646e+002 -5.213826e+001 5.499379e+001 -5.216805e+001 5.290775e+001 -1.885400e-001 1.337987e+002
535107587.76897 -6.305725e-001 1.638198e+002 -5.178355e+001 5.515814e+001 -5.209506e+001 5.273863e+001 -1.898465e-001 1.337667e+002
535485088.71272 -6.427550e-001 1.635624e+002 -5.213273e+001 5.474106e+001 -5.213133e+001 5.366544e+001 -1.862893e-001 1.337174e+002
535862589.65647 -6.503670e-001 1.633283e+002 -5.210131e+001 5.609286e+001 -5.204978e+001 5.314777e+001 -1.886269e-001 1.336700e+002
536240090.60023 -6.563325e-001 1.630380e+002 -5.194623e+001 5.229537e+001 -5.180128e+001 5.179205e+001 -1.905043e-001 1.336570e+002
536617591.54398 -6.642311e-001 1.628639e+002 -5.189078e+001 5.378330e+001 -5.179630e+001 5.148685e+001 -1.871448e-001 1.336137e+002
536995092.48773 -6.752832e-001 1.626751e+002 -5.187198e+001 5.145241e+001 -5.180621e+001 5.105015e+001 -1.879600e-001 1.335945e+002
537372593.43148 -6.851054e-001 1.623913e+002 -5.164869e+001 5.270724e+001 -5.173080e+001 5.015547e+001 -1.858905e-001 1.335748e+002
537750094.37524 -6.947653e-001 1.621627e+002 -5.135932e+001 5.074216e+001 -5.149835e+001 4.986023e+001 -1.828390e-001 1.335469e+002
538127595.31899 -7.055258e-001 1.619740e+002 -5.148375e+001 5.182096e+001 -5.149220e+001 4.924661e+001 -1.834942e-001 1.335154e+002
538505096.26274 -7.134443e-001 1.616864e+002 -5.146662e+001 4.942048e+001 -5.164461e+001 4.851847e+001 -1.845457e-001 1.334941e+002
538882597.20649 -7.256424e-001 1.614938e+002 -5.117596e+001 4.981801e+001 -5.137375e+001 4.626443e+001 -1.832865e-001 1.334757e+002
539260098.15025 -7.322194e-001 1.612622e+002 -5.145654e+001 4.857280e+001 -5.128556e+001 4.640851e+001 -1.822276e-001 1.334523e+002
539637599.094 -7.383267e-001 1.610069e+002 -5.116367e+001 4.800151e+001 -5.130016e+001 4.591500e+001 -1.805696e-001 1.334243e+002
540015100.03775 -7.463134e-001 1.607917e+002 -5.107540e+001 4.919070e+001 -5.111029e+001 4.526062e+001 -1.808107e-001 1.334379e+002
540392600.9815 -7.613816e-001 1.605769e+002 -5.093352e+001 4.705294e+001 -5.090756e+001 4.449522e+001 -1.790296e-001 1.333709e+002
540770101.92525 -7.723564e-001 1.603916e+002 -5.079346e+001 4.503773e+001 -5.097594e+001 4.308645e+001 -1.810177e-001 1.333512e+002
541147602.86901 -7.766870e-001 1.601487e+002 -5.099155e+001 4.550593e+001 -5.081215e+001 4.312737e+001 -1.784486e-001 1.333218e+002
541525103.81276 -7.855078e-001 1.598755e+002 -5.056547e+001 4.624162e+001 -5.067619e+001 4.275638e+001 -1.777458e-001 1.332755e+002
541902604.75651 -7.997682e-001 1.597237e+002 -5.047763e+001 4.403448e+001 -5.059724e+001 4.195569e+001 -1.780908e-001 1.332536e+002
542280105.70026 -8.065381e-001 1.594804e+002 -5.055418e+001 4.402985e+001 -5.064930e+001 4.112700e+001 -1.763767e-001 1.332316e+002
542657606.64402 -8.105881e-001 1.592479e+002 -5.047490e+001 4.363139e+001 -5.071924e+001 4.018161e+001 -1.777920e-001 1.331929e+002
543035107.58777 -8.229377e-001 1.590493e+002 -5.018856e+001 4.291967e+001 -5.059471e+001 4.076322e+001 -1.777997e-001 1.331634e+002
543412608.53152 -8.329256e-001 1.588030e+002 -5.012276e+001 4.182302e+001 -5.055853e+001 3.725456e+001 -1.824729e-001 1.331301e+002
543790109.47527 -8.401953e-001 1.585685e+002 -5.014859e+001 4.032256e+001 -5.043061e+001 3.903059e+001 -1.803994e-001 1.330810e+002
544167610.41903 -8.519156e-001 1.583913e+002 -4.996354e+001 3.868564e+001 -5.013322e+001 3.784944e+001 -1.826364e-001 1.330594e+002
544545111.36278 -8.567326e-001 1.581355e+002 -5.002168e+001 3.938426e+001 -5.023909e+001 3.773266e+001 -1.801524e-001 1.330002e+002
544922612.30653 -8.682345e-001 1.579062e+002 -4.967661e+001 3.799666e+001 -5.018954e+001 3.599556e+001 -1.798890e-001 1.329648e+002
545300113.25028 -8.757122e-001 1.577405e+002 -4.953954e+001 3.631910e+001 -4.999487e+001 3.601324e+001 -1.809897e-001 1.329461e+002
545677614.19404 -8.861868e-001 1.575250e+002 -4.961686e+001 3.540120e+001 -4.997937e+001 3.560008e+001 -1.824499e-001 1.328871e+002
546055115.13779 -8.974857e-001 1.573277e+002 -4.948816e+001 3.462350e+001 -5.003265e+001 3.309180e+001 -1.856043e-001 1.328239e+002
546432616.08154 -9.015479e-001 1.570305e+002 -4.943953e+001 3.463050e+001 -4.993591e+001 3.208285e+001 -1.858452e-001 1.327818e+002
546810117.02529 -9.050305e-001 1.568186e+002 -4.949836e+001 3.143918e+001 -4.975790e+001 3.249232e+001 -1.875199e-001 1.327297e+002
547187617.96904 -9.154075e-001 1.565505e+002 -4.948190e+001 3.165378e+001 -4.971451e+001 3.002403e+001 -1.872826e-001 1.326839e+002
547565118.9128 -9.288672e-001 1.563129e+002 -4.943253e+001 3.103202e+001 -4.965335e+001 3.081887e+001 -1.937030e-001 1.326374e+002
547942619.85655 -9.331485e-001 1.561009e+002 -4.955475e+001 2.923191e+001 -4.985512e+001 3.027283e+001 -1.929814e-001 1.325976e+002
548320120.8003 -9.496926e-001 1.558536e+002 -4.910351e+001 3.022127e+001 -4.956980e+001 2.871882e+001 -1.929415e-001 1.325279e+002
548697621.74405 -9.622705e-001 1.556248e+002 -4.922583e+001 2.913978e+001 -4.963152e+001 2.907746e+001 -1.952586e-001 1.324712e+002
549075122.68781 -9.758680e-001 1.553694e+002 -4.932314e+001 2.869645e+001 -4.951145e+001 2.760073e+001 -1.959121e-001 1.324560e+002
549452623.63156 -9.894589e-001 1.551660e+002 -4.923689e+001 2.800633e+001 -4.956091e+001 2.828781e+001 -1.981668e-001 1.323746e+002
549830124.57531 -1.003203e+000 1.549433e+002 -4.913576e+001 2.672765e+001 -4.933767e+001 2.719955e+001 -2.010279e-001 1.323208e+002
550207625.51906 -1.012626e+000 1.547229e+002 -4.914578e+001 2.752252e+001 -4.937165e+001 2.662318e+001 -1.984709e-001 1.322635e+002
550585126.46282 -1.024499e+000 1.545294e+002 -4.905743e+001 2.622816e+001 -4.918393e+001 2.491337e+001 -2.013296e-001 1.322273e+002
550962627.40657 -1.037895e+000 1.542716e+002 -4.900326e+001 2.489656e+001 -4.926746e+001 2.431090e+001 -2.023774e-001 1.321598e+002
551340128.35032 -1.046334e+000 1.541057e+002 -4.899321e+001 2.394781e+001 -4.916406e+001 2.411830e+001 -2.040147e-001 1.321409e+002
551717629.29407 -1.058219e+000 1.538488e+002 -4.884366e+001 2.288300e+001 -4.903632e+001 2.372121e+001 -2.009543e-001 1.320703e+002
552095130.23783 -1.065217e+000 1.536292e+002 -4.885862e+001 2.271404e+001 -4.903757e+001 2.273559e+001 -2.017649e-001 1.320276e+002
552472631.18158 -1.070272e+000 1.534124e+002 -4.863430e+001 2.249893e+001 -4.881400e+001 2.185808e+001 -2.042762e-001 1.319659e+002
552850132.12533 -1.081533e+000 1.531832e+002 -4.858613e+001 2.189373e+001 -4.870847e+001 2.195873e+001 -2.018238e-001 1.319194e+002
553227633.06908 -1.091032e+000 1.529683e+002 -4.865733e+001 2.051869e+001 -4.855502e+001 2.149322e+001 -2.001145e-001 1.318695e+002
553605134.01284 -1.100750e+000 1.527030e+002 -4.845524e+001 2.031666e+001 -4.866925e+001 1.986977e+001 -2.076614e-001 1.318246e+002
553982634.95659 -1.111080e+000 1.524792e+002 -4.865947e+001 1.917180e+001 -4.863091e+001 1.975543e+001 -2.072591e-001 1.317666e+002
554360135.90034 -1.120657e+000 1.522496e+002 -4.828286e+001 1.898114e+001 -4.856927e+001 1.898251e+001 -2.012097e-001 1.317275e+002
554737636.84409 -1.142866e+000 1.519570e+002 -4.838936e+001 1.788628e+001 -4.846355e+001 1.880021e+001 -2.065777e-001 1.317124e+002
555115137.78784 -1.154609e+000 1.517901e+002 -4.811657e+001 1.689802e+001 -4.830577e+001 1.783876e+001 -2.079528e-001 1.316603e+002
555492638.7316 -1.170331e+000 1.515487e+002 -4.815212e+001 1.623032e+001 -4.823063e+001 1.692373e+001 -2.033359e-001 1.316194e+002
555870139.67535 -1.184331e+000 1.513209e+002 -4.801771e+001 1.604204e+001 -4.811799e+001 1.475920e+001 -2.098888e-001 1.315589e+002
