!Agilent Technologies,E8364B,US42250235,A.06.04.32
!Agilent E8364B: A.06.04.32
!Date: Thursday, October 01, 2020 14:33:15
!Correction: S11(Full 2 Port(1,2)) S21(Full 2 Port(1,2)) S12(Full 2 Port(1,2)) S22(Full 2 Port(1,2)) 
!S2P File: Measurements: S11, S21, S12, S22:
# Hz S  dB   R 50
500000000 -2.163773e-001 -1.752741e+002 -5.917059e+001 -5.884414e+001 -5.997614e+001 -6.345981e+001 -2.088962e-001 1.380257e+002
500377500.94375 -2.203290e-001 -1.753934e+002 -5.912877e+001 -6.313213e+001 -6.007864e+001 -6.578143e+001 -2.057754e-001 1.379866e+002
500755001.8875 -2.186393e-001 -1.756373e+002 -5.930378e+001 -5.858348e+001 -6.031207e+001 -6.196404e+001 -2.041309e-001 1.379448e+002
501132502.83126 -2.199039e-001 -1.758325e+002 -5.952875e+001 -5.919188e+001 -5.931549e+001 -6.566732e+001 -2.074241e-001 1.379007e+002
501510003.77501 -2.245514e-001 -1.759931e+002 -5.988464e+001 -5.689839e+001 -5.930636e+001 -6.355612e+001 -2.097052e-001 1.378439e+002
501887504.71876 -2.215870e-001 -1.763107e+002 -5.891294e+001 -6.240091e+001 -5.917189e+001 -6.446815e+001 -2.079986e-001 1.377814e+002
502265005.66251 -2.322850e-001 -1.764227e+002 -5.922092e+001 -6.171678e+001 -5.988523e+001 -6.342385e+001 -2.089321e-001 1.377438e+002
502642506.60627 -2.264156e-001 -1.767247e+002 -5.849612e+001 -6.405119e+001 -5.970522e+001 -6.190617e+001 -2.110389e-001 1.377388e+002
503020007.55002 -2.365520e-001 -1.768579e+002 -5.930027e+001 -6.440417e+001 -5.901655e+001 -6.407180e+001 -2.091268e-001 1.376477e+002
503397508.49377 -2.431393e-001 -1.770599e+002 -5.928192e+001 -6.421916e+001 -5.917627e+001 -6.504407e+001 -2.073985e-001 1.376040e+002
503775009.43752 -2.417679e-001 -1.773095e+002 -5.886025e+001 -6.068424e+001 -5.922660e+001 -6.729788e+001 -2.127003e-001 1.375366e+002
504152510.38128 -2.434846e-001 -1.775128e+002 -5.904711e+001 -6.918790e+001 -5.937337e+001 -6.686693e+001 -2.111762e-001 1.374783e+002
504530011.32503 -2.472831e-001 -1.777243e+002 -5.811464e+001 -6.563468e+001 -5.946645e+001 -7.249255e+001 -2.094750e-001 1.374421e+002
504907512.26878 -2.490823e-001 -1.778955e+002 -5.906192e+001 -6.910944e+001 -5.936403e+001 -6.898536e+001 -2.091122e-001 1.373858e+002
505285013.21253 -2.503711e-001 -1.781641e+002 -5.870646e+001 -7.468481e+001 -5.891874e+001 -6.959893e+001 -2.071151e-001 1.373456e+002
505662514.15629 -2.527401e-001 -1.783228e+002 -5.908990e+001 -7.037644e+001 -5.897387e+001 -6.784647e+001 -2.096639e-001 1.373017e+002
506040015.10004 -2.552947e-001 -1.785491e+002 -5.827510e+001 -6.653967e+001 -5.831587e+001 -7.036655e+001 -2.083718e-001 1.372391e+002
506417516.04379 -2.568075e-001 -1.787748e+002 -5.923648e+001 -7.133938e+001 -5.885134e+001 -7.460206e+001 -2.065459e-001 1.372028e+002
506795016.98754 -2.607588e-001 -1.788966e+002 -5.919063e+001 -7.124327e+001 -5.902138e+001 -7.192576e+001 -2.106106e-001 1.371386e+002
507172517.93129 -2.625060e-001 -1.791767e+002 -5.879803e+001 -7.234073e+001 -5.897005e+001 -7.305497e+001 -2.095468e-001 1.371162e+002
507550018.87505 -2.681439e-001 -1.793110e+002 -5.863728e+001 -7.482239e+001 -5.887993e+001 -7.317853e+001 -2.077780e-001 1.370859e+002
507927519.8188 -2.678162e-001 -1.795664e+002 -5.883915e+001 -7.264789e+001 -5.868952e+001 -7.559574e+001 -2.045585e-001 1.370132e+002
508305020.76255 -2.706056e-001 -1.797602e+002 -5.819859e+001 -7.363913e+001 -5.883509e+001 -7.420316e+001 -2.047920e-001 1.370005e+002
508682521.7063 -2.678872e-001 -1.799372e+002 -5.857635e+001 -7.622363e+001 -5.819257e+001 -7.989082e+001 -2.008605e-001 1.369459e+002
509060022.65006 -2.694140e-001 1.797936e+002 -5.854543e+001 -7.328833e+001 -5.795562e+001 -7.574654e+001 -2.026278e-001 1.369272e+002
509437523.59381 -2.724480e-001 1.795746e+002 -5.802335e+001 -7.338005e+001 -5.869400e+001 -8.148684e+001 -2.014198e-001 1.368843e+002
509815024.53756 -2.750894e-001 1.793843e+002 -5.852203e+001 -7.872704e+001 -5.798878e+001 -7.769049e+001 -1.989835e-001 1.368552e+002
510192525.48131 -2.811458e-001 1.791590e+002 -5.784818e+001 -7.782460e+001 -5.868271e+001 -7.445377e+001 -1.977164e-001 1.368169e+002
510570026.42507 -2.831778e-001 1.790210e+002 -5.825076e+001 -7.705097e+001 -5.807913e+001 -8.016084e+001 -1.949063e-001 1.368074e+002
510947527.36882 -2.807261e-001 1.787154e+002 -5.842919e+001 -7.988031e+001 -5.819643e+001 -7.799795e+001 -1.984285e-001 1.367595e+002
511325028.31257 -2.840711e-001 1.785899e+002 -5.831407e+001 -7.725411e+001 -5.775296e+001 -7.963539e+001 -1.943363e-001 1.367378e+002
511702529.25632 -2.855838e-001 1.782849e+002 -5.798745e+001 -7.818265e+001 -5.829493e+001 -8.271748e+001 -1.943649e-001 1.367048e+002
512080030.20008 -2.911364e-001 1.781335e+002 -5.833228e+001 -8.026998e+001 -5.796873e+001 -8.272237e+001 -1.919436e-001 1.367029e+002
512457531.14383 -2.919996e-001 1.779028e+002 -5.835536e+001 -7.733161e+001 -5.811687e+001 -8.287309e+001 -1.949869e-001 1.366803e+002
512835032.08758 -2.918639e-001 1.776274e+002 -5.814259e+001 -7.657561e+001 -5.806643e+001 -8.243667e+001 -1.945220e-001 1.366281e+002
513212533.03133 -2.980017e-001 1.774412e+002 -5.774712e+001 -8.428828e+001 -5.764543e+001 -8.243797e+001 -1.932791e-001 1.366312e+002
513590033.97508 -3.029477e-001 1.772527e+002 -5.854271e+001 -8.131748e+001 -5.777256e+001 -8.269156e+001 -1.938410e-001 1.366266e+002
513967534.91884 -3.055236e-001 1.769728e+002 -5.836156e+001 -8.165885e+001 -5.743595e+001 -8.339294e+001 -1.940497e-001 1.365923e+002
514345035.86259 -3.035825e-001 1.767487e+002 -5.778715e+001 -7.968858e+001 -5.817107e+001 -8.310812e+001 -1.952761e-001 1.365830e+002
514722536.80634 -3.091030e-001 1.765327e+002 -5.777358e+001 -8.184053e+001 -5.768961e+001 -8.438710e+001 -1.944730e-001 1.365806e+002
515100037.75009 -3.131821e-001 1.764010e+002 -5.800683e+001 -8.438171e+001 -5.732154e+001 -8.582082e+001 -1.939713e-001 1.365546e+002
515477538.69385 -3.156217e-001 1.761171e+002 -5.792171e+001 -7.978395e+001 -5.798038e+001 -8.665228e+001 -1.933198e-001 1.365510e+002
515855039.6376 -3.172430e-001 1.758909e+002 -5.738628e+001 -8.215372e+001 -5.762179e+001 -8.864068e+001 -1.951038e-001 1.365460e+002
516232540.58135 -3.234835e-001 1.756781e+002 -5.707835e+001 -8.306837e+001 -5.763980e+001 -8.812189e+001 -1.953003e-001 1.365133e+002
516610041.5251 -3.272658e-001 1.754310e+002 -5.727526e+001 -8.286317e+001 -5.757991e+001 -8.753219e+001 -1.936534e-001 1.365297e+002
516987542.46886 -3.345542e-001 1.751821e+002 -5.752797e+001 -8.285158e+001 -5.693724e+001 -8.827773e+001 -1.960631e-001 1.365119e+002
517365043.41261 -3.372186e-001 1.750154e+002 -5.715686e+001 -8.712053e+001 -5.757400e+001 -8.854936e+001 -1.950543e-001 1.365079e+002
517742544.35636 -3.370958e-001 1.746903e+002 -5.706980e+001 -8.424255e+001 -5.728588e+001 -8.785118e+001 -1.973809e-001 1.365100e+002
518120045.30011 -3.455619e-001 1.745411e+002 -5.637150e+001 -8.251791e+001 -5.691299e+001 -8.746718e+001 -1.964587e-001 1.364903e+002
518497546.24387 -3.463443e-001 1.742683e+002 -5.673240e+001 -8.235016e+001 -5.673573e+001 -9.029262e+001 -1.984178e-001 1.364874e+002
518875047.18762 -3.498822e-001 1.740207e+002 -5.671760e+001 -8.891829e+001 -5.656377e+001 -8.872932e+001 -1.985057e-001 1.364821e+002
519252548.13137 -3.570324e-001 1.737997e+002 -5.648989e+001 -8.586414e+001 -5.673750e+001 -8.864312e+001 -1.992742e-001 1.364386e+002
519630049.07512 -3.635782e-001 1.735970e+002 -5.665054e+001 -8.789507e+001 -5.606268e+001 -9.171423e+001 -2.005759e-001 1.364313e+002
520007550.01888 -3.702968e-001 1.733331e+002 -5.636478e+001 -8.854149e+001 -5.618689e+001 -9.152757e+001 -2.009890e-001 1.364049e+002
520385050.96263 -3.738758e-001 1.731159e+002 -5.599961e+001 -8.819200e+001 -5.670428e+001 -9.632846e+001 -2.011137e-001 1.364075e+002
520762551.90638 -3.807269e-001 1.729303e+002 -5.617753e+001 -9.077560e+001 -5.618895e+001 -9.101176e+001 -2.000298e-001 1.363946e+002
521140052.85013 -3.811449e-001 1.726414e+002 -5.602956e+001 -9.415038e+001 -5.643172e+001 -9.397038e+001 -2.016486e-001 1.363676e+002
521517553.79388 -3.886290e-001 1.724233e+002 -5.546217e+001 -9.294158e+001 -5.641772e+001 -9.385822e+001 -1.995626e-001 1.363390e+002
521895054.73764 -3.925967e-001 1.722123e+002 -5.593134e+001 -9.382359e+001 -5.640435e+001 -9.635794e+001 -2.011110e-001 1.363217e+002
522272555.68139 -4.024483e-001 1.719589e+002 -5.593778e+001 -9.373455e+001 -5.599965e+001 -9.568454e+001 -2.001850e-001 1.362718e+002
522650056.62514 -4.065645e-001 1.717734e+002 -5.563765e+001 -9.874575e+001 -5.585389e+001 -9.700569e+001 -2.027264e-001 1.361937e+002
523027557.56889 -4.096307e-001 1.715118e+002 -5.530827e+001 -9.602731e+001 -5.569431e+001 -9.748623e+001 -2.055092e-001 1.362224e+002
523405058.51265 -4.163163e-001 1.713206e+002 -5.565160e+001 -9.745314e+001 -5.600050e+001 -9.731648e+001 -2.043247e-001 1.361290e+002
523782559.4564 -4.255523e-001 1.711094e+002 -5.576304e+001 -9.845029e+001 -5.570285e+001 -9.711086e+001 -2.061646e-001 1.361414e+002
524160060.40015 -4.259658e-001 1.708001e+002 -5.579416e+001 -1.002523e+002 -5.565147e+001 -9.940507e+001 -2.089341e-001 1.361153e+002
524537561.3439 -4.322831e-001 1.706608e+002 -5.547424e+001 -9.678278e+001 -5.563373e+001 -1.008551e+002 -2.045723e-001 1.360576e+002
524915062.28766 -4.338034e-001 1.703570e+002 -5.586540e+001 -1.014133e+002 -5.575063e+001 -1.028139e+002 -2.101868e-001 1.359839e+002
525292563.23141 -4.384437e-001 1.701761e+002 -5.595131e+001 -1.005845e+002 -5.548391e+001 -1.030223e+002 -2.106572e-001 1.359496e+002
525670064.17516 -4.430316e-001 1.699157e+002 -5.569832e+001 -1.034606e+002 -5.544660e+001 -1.010326e+002 -2.068015e-001 1.358951e+002
526047565.11891 -4.474288e-001 1.696807e+002 -5.583444e+001 -1.045694e+002 -5.512753e+001 -1.028502e+002 -2.062175e-001 1.358414e+002
526425066.06267 -4.542406e-001 1.694363e+002 -5.503135e+001 -1.028725e+002 -5.522978e+001 -1.050762e+002 -2.074122e-001 1.357723e+002
526802567.00642 -4.615313e-001 1.692674e+002 -5.544522e+001 -1.030030e+002 -5.537434e+001 -1.033724e+002 -2.100627e-001 1.357186e+002
527180067.95017 -4.655720e-001 1.690478e+002 -5.554224e+001 -1.061592e+002 -5.516971e+001 -1.034917e+002 -2.074998e-001 1.356344e+002
527557568.89392 -4.692732e-001 1.687460e+002 -5.543922e+001 -1.037492e+002 -5.513786e+001 -1.040021e+002 -2.120515e-001 1.355790e+002
527935069.83767 -4.746192e-001 1.686166e+002 -5.532623e+001 -1.056334e+002 -5.509207e+001 -1.045424e+002 -2.113540e-001 1.354995e+002
528312570.78143 -4.780534e-001 1.683677e+002 -5.503864e+001 -1.061463e+002 -5.511179e+001 -1.067817e+002 -2.105548e-001 1.354424e+002
528690071.72518 -4.835436e-001 1.681460e+002 -5.517931e+001 -1.058513e+002 -5.529302e+001 -1.052556e+002 -2.138741e-001 1.353660e+002
529067572.66893 -4.869058e-001 1.678917e+002 -5.521618e+001 -1.061082e+002 -5.495452e+001 -1.081084e+002 -2.096610e-001 1.353189e+002
529445073.61268 -4.889005e-001 1.675843e+002 -5.512278e+001 -1.052996e+002 -5.465416e+001 -1.099727e+002 -2.118270e-001 1.352351e+002
529822574.55644 -4.973242e-001 1.673728e+002 -5.511788e+001 -1.067358e+002 -5.451765e+001 -1.075772e+002 -2.100418e-001 1.351652e+002
530200075.50019 -5.014119e-001 1.671652e+002 -5.492259e+001 -1.082737e+002 -5.477494e+001 -1.099176e+002 -2.120169e-001 1.350931e+002
530577576.44394 -5.075258e-001 1.668712e+002 -5.500806e+001 -1.078003e+002 -5.485233e+001 -1.088623e+002 -2.130999e-001 1.350440e+002
530955077.38769 -5.149658e-001 1.666531e+002 -5.480010e+001 -1.083623e+002 -5.459054e+001 -1.114180e+002 -2.104782e-001 1.349473e+002
531332578.33145 -5.236559e-001 1.664335e+002 -5.449020e+001 -1.069060e+002 -5.427956e+001 -1.097036e+002 -2.099092e-001 1.348874e+002
531710079.2752 -5.295407e-001 1.661664e+002 -5.446444e+001 -1.104662e+002 -5.418509e+001 -1.131810e+002 -2.077017e-001 1.348270e+002
532087580.21895 -5.394601e-001 1.659798e+002 -5.441601e+001 -1.082379e+002 -5.421606e+001 -1.110299e+002 -2.077859e-001 1.347741e+002
532465081.1627 -5.448945e-001 1.656419e+002 -5.429207e+001 -1.095624e+002 -5.414947e+001 -1.126387e+002 -2.078912e-001 1.347299e+002
532842582.10646 -5.502296e-001 1.654411e+002 -5.443188e+001 -1.096717e+002 -5.408509e+001 -1.147861e+002 -2.053570e-001 1.346370e+002
533220083.05021 -5.607204e-001 1.651778e+002 -5.450142e+001 -1.126545e+002 -5.396883e+001 -1.137316e+002 -2.049376e-001 1.346070e+002
533597583.99396 -5.675282e-001 1.649613e+002 -5.421381e+001 -1.121215e+002 -5.428679e+001 -1.163161e+002 -2.037327e-001 1.344879e+002
533975084.93771 -5.802383e-001 1.647075e+002 -5.428350e+001 -1.137151e+002 -5.407303e+001 -1.171455e+002 -2.039419e-001 1.344872e+002
534352585.88146 -5.864959e-001 1.644285e+002 -5.430028e+001 -1.135231e+002 -5.374063e+001 -1.174817e+002 -2.011208e-001 1.344552e+002
534730086.82522 -5.950813e-001 1.641817e+002 -5.413660e+001 -1.140480e+002 -5.362669e+001 -1.166975e+002 -1.983511e-001 1.344111e+002
535107587.76897 -6.051554e-001 1.640245e+002 -5.420240e+001 -1.143401e+002 -5.414945e+001 -1.177346e+002 -1.997375e-001 1.343723e+002
535485088.71272 -6.189504e-001 1.637859e+002 -5.405719e+001 -1.144889e+002 -5.379178e+001 -1.173650e+002 -1.930739e-001 1.343273e+002
535862589.65647 -6.265488e-001 1.635569e+002 -5.374891e+001 -1.145894e+002 -5.357557e+001 -1.204395e+002 -1.958836e-001 1.342958e+002
536240090.60023 -6.301254e-001 1.632712e+002 -5.372265e+001 -1.170070e+002 -5.351366e+001 -1.196925e+002 -1.960370e-001 1.342771e+002
536617591.54398 -6.410282e-001 1.630720e+002 -5.366705e+001 -1.157649e+002 -5.336505e+001 -1.203208e+002 -1.948195e-001 1.342345e+002
536995092.48773 -6.495090e-001 1.629061e+002 -5.317800e+001 -1.155902e+002 -5.322356e+001 -1.193148e+002 -1.932837e-001 1.342063e+002
537372593.43148 -6.562548e-001 1.626261e+002 -5.335503e+001 -1.167953e+002 -5.307515e+001 -1.208171e+002 -1.885009e-001 1.341825e+002
537750094.37524 -6.690827e-001 1.623898e+002 -5.359694e+001 -1.190600e+002 -5.306715e+001 -1.217502e+002 -1.875632e-001 1.341636e+002
538127595.31899 -6.774058e-001 1.621710e+002 -5.299966e+001 -1.213162e+002 -5.288579e+001 -1.246091e+002 -1.880035e-001 1.341278e+002
538505096.26274 -6.826596e-001 1.619314e+002 -5.294801e+001 -1.195237e+002 -5.275108e+001 -1.255867e+002 -1.894827e-001 1.340561e+002
538882597.20649 -6.948853e-001 1.617378e+002 -5.310089e+001 -1.212205e+002 -5.277288e+001 -1.242980e+002 -1.906976e-001 1.340712e+002
539260098.15025 -7.056098e-001 1.615014e+002 -5.289204e+001 -1.224302e+002 -5.271046e+001 -1.258632e+002 -1.856527e-001 1.340568e+002
539637599.094 -7.107899e-001 1.612478e+002 -5.301344e+001 -1.223817e+002 -5.271194e+001 -1.277605e+002 -1.876291e-001 1.340318e+002
540015100.03775 -7.172450e-001 1.610298e+002 -5.276760e+001 -1.232037e+002 -5.264979e+001 -1.285653e+002 -1.874456e-001 1.340616e+002
540392600.9815 -7.319445e-001 1.608307e+002 -5.268268e+001 -1.265176e+002 -5.274800e+001 -1.284185e+002 -1.867272e-001 1.339894e+002
540770101.92525 -7.413533e-001 1.606339e+002 -5.248880e+001 -1.245889e+002 -5.247028e+001 -1.290123e+002 -1.878788e-001 1.339705e+002
541147602.86901 -7.465935e-001 1.604272e+002 -5.250525e+001 -1.267416e+002 -5.247304e+001 -1.305551e+002 -1.853301e-001 1.339456e+002
541525103.81276 -7.521359e-001 1.601264e+002 -5.239023e+001 -1.270045e+002 -5.246603e+001 -1.308662e+002 -1.860946e-001 1.339024e+002
541902604.75651 -7.684386e-001 1.599918e+002 -5.259757e+001 -1.303537e+002 -5.236782e+001 -1.322127e+002 -1.879343e-001 1.338743e+002
542280105.70026 -7.721839e-001 1.597425e+002 -5.233968e+001 -1.299992e+002 -5.234801e+001 -1.346232e+002 -1.876537e-001 1.338469e+002
542657606.64402 -7.758491e-001 1.595108e+002 -5.215320e+001 -1.291930e+002 -5.224997e+001 -1.358542e+002 -1.873359e-001 1.338254e+002
543035107.58777 -7.860597e-001 1.593230e+002 -5.210136e+001 -1.305253e+002 -5.246725e+001 -1.360181e+002 -1.895889e-001 1.337767e+002
543412608.53152 -7.931539e-001 1.590740e+002 -5.217378e+001 -1.316288e+002 -5.229622e+001 -1.380294e+002 -1.929004e-001 1.337486e+002
543790109.47527 -8.016393e-001 1.588378e+002 -5.218250e+001 -1.328959e+002 -5.224012e+001 -1.371301e+002 -1.905400e-001 1.336942e+002
544167610.41903 -8.061686e-001 1.586675e+002 -5.211452e+001 -1.326607e+002 -5.234733e+001 -1.364334e+002 -1.940930e-001 1.336744e+002
544545111.36278 -8.100850e-001 1.584169e+002 -5.214216e+001 -1.343700e+002 -5.219039e+001 -1.368486e+002 -1.943529e-001 1.336110e+002
544922612.30653 -8.182569e-001 1.581767e+002 -5.170968e+001 -1.351604e+002 -5.233315e+001 -1.386691e+002 -1.927908e-001 1.335605e+002
545300113.25028 -8.224440e-001 1.580001e+002 -5.161992e+001 -1.364263e+002 -5.195768e+001 -1.394807e+002 -1.956864e-001 1.335575e+002
545677614.19404 -8.320079e-001 1.577791e+002 -5.188943e+001 -1.365052e+002 -5.168670e+001 -1.404933e+002 -1.994615e-001 1.334677e+002
546055115.13779 -8.383707e-001 1.575658e+002 -5.174088e+001 -1.368271e+002 -5.177343e+001 -1.418345e+002 -2.003688e-001 1.334097e+002
546432616.08154 -8.413088e-001 1.572586e+002 -5.160328e+001 -1.379669e+002 -5.181786e+001 -1.425201e+002 -2.040028e-001 1.333580e+002
546810117.02529 -8.472276e-001 1.570468e+002 -5.141529e+001 -1.386200e+002 -5.181930e+001 -1.414973e+002 -2.067458e-001 1.332981e+002
547187617.96904 -8.541782e-001 1.567599e+002 -5.168400e+001 -1.395421e+002 -5.186615e+001 -1.437912e+002 -2.071148e-001 1.332496e+002
547565118.9128 -8.689600e-001 1.565131e+002 -5.141302e+001 -1.416284e+002 -5.185737e+001 -1.447482e+002 -2.118183e-001 1.331873e+002
547942619.85655 -8.761390e-001 1.562980e+002 -5.150494e+001 -1.422299e+002 -5.161771e+001 -1.428757e+002 -2.147207e-001 1.331237e+002
548320120.8003 -8.861679e-001 1.560457e+002 -5.150862e+001 -1.422878e+002 -5.137877e+001 -1.443899e+002 -2.147916e-001 1.330602e+002
548697621.74405 -8.995121e-001 1.558201e+002 -5.127317e+001 -1.424922e+002 -5.146575e+001 -1.453783e+002 -2.170565e-001 1.329919e+002
549075122.68781 -9.106084e-001 1.555641e+002 -5.125462e+001 -1.439961e+002 -5.160600e+001 -1.473647e+002 -2.198361e-001 1.329649e+002
549452623.63156 -9.235544e-001 1.553383e+002 -5.104372e+001 -1.441757e+002 -5.134947e+001 -1.475919e+002 -2.201989e-001 1.328654e+002
549830124.57531 -9.376962e-001 1.551245e+002 -5.122354e+001 -1.463281e+002 -5.126977e+001 -1.475746e+002 -2.195408e-001 1.327253e+002
550207625.51906 -9.463159e-001 1.548977e+002 -5.123277e+001 -1.466835e+002 -5.120569e+001 -1.485501e+002 -2.220102e-001 1.327406e+002
550585126.46282 -9.569650e-001 1.546824e+002 -5.099746e+001 -1.473275e+002 -5.123417e+001 -1.511444e+002 -2.290999e-001 1.326676e+002
550962627.40657 -9.666880e-001 1.544223e+002 -5.106134e+001 -1.472579e+002 -5.101185e+001 -1.512252e+002 -2.298437e-001 1.325965e+002
551340128.35032 -9.752532e-001 1.542800e+002 -5.078012e+001 -1.490137e+002 -5.096182e+001 -1.511958e+002 -2.314340e-001 1.324915e+002
551717629.29407 -9.878731e-001 1.539819e+002 -5.102413e+001 -1.501399e+002 -5.075506e+001 -1.537253e+002 -2.285243e-001 1.324725e+002
552095130.23783 -9.951673e-001 1.537514e+002 -5.094099e+001 -1.522635e+002 -5.085762e+001 -1.530606e+002 -2.255271e-001 1.324205e+002
552472631.18158 -1.000551e+000 1.535479e+002 -5.090494e+001 -1.513798e+002 -5.104680e+001 -1.535412e+002 -2.317013e-001 1.323420e+002
552850132.12533 -1.013304e+000 1.533080e+002 -5.097663e+001 -1.536420e+002 -5.105663e+001 -1.540224e+002 -2.316106e-001 1.322918e+002
553227633.06908 -1.023184e+000 1.530974e+002 -5.076190e+001 -1.527204e+002 -5.066964e+001 -1.563616e+002 -2.296757e-001 1.322149e+002
553605134.01284 -1.031071e+000 1.528339e+002 -5.087730e+001 -1.531932e+002 -5.072863e+001 -1.559478e+002 -2.373324e-001 1.321871e+002
553982634.95659 -1.041355e+000 1.526054e+002 -5.084933e+001 -1.544665e+002 -5.079263e+001 -1.548542e+002 -2.332302e-001 1.321232e+002
554360135.90034 -1.050023e+000 1.523856e+002 -5.052861e+001 -1.545198e+002 -5.072367e+001 -1.576298e+002 -2.306237e-001 1.320690e+002
554737636.84409 -1.068160e+000 1.520998e+002 -5.038005e+001 -1.552076e+002 -5.067197e+001 -1.586831e+002 -2.322806e-001 1.320266e+002
555115137.78784 -1.082243e+000 1.519269e+002 -5.080716e+001 -1.559002e+002 -5.045429e+001 -1.597923e+002 -2.351718e-001 1.319656e+002
