!Agilent Technologies,E8364B,US42250235,A.06.04.32
!Agilent E8364B: A.06.04.32
!Date: Thursday, October 01, 2020 14:38:39
!Correction: S11(Full 2 Port(1,2)) S21(Full 2 Port(1,2)) S12(Full 2 Port(1,2)) S22(Full 2 Port(1,2)) 
!S2P File: Measurements: S11, S21, S12, S22:
# Hz S  dB   R 50
500000000 -2.383373e-001 -1.752240e+002 -6.071619e+001 1.659922e+002 -6.119146e+001 1.658976e+002 -1.815030e-001 1.382939e+002
500377500.94375 -2.456079e-001 -1.753788e+002 -6.111052e+001 1.639741e+002 -6.038560e+001 1.609294e+002 -1.844777e-001 1.382330e+002
500755001.8875 -2.430798e-001 -1.755641e+002 -6.067832e+001 1.576250e+002 -6.082133e+001 1.629600e+002 -1.830040e-001 1.381917e+002
501132502.83126 -2.464529e-001 -1.757750e+002 -6.048770e+001 1.585527e+002 -6.109312e+001 1.578015e+002 -1.835217e-001 1.381262e+002
501510003.77501 -2.492284e-001 -1.759578e+002 -6.047961e+001 1.609938e+002 -6.000866e+001 1.605231e+002 -1.897305e-001 1.380031e+002
501887504.71876 -2.492971e-001 -1.761921e+002 -6.045041e+001 1.561272e+002 -6.043068e+001 1.547428e+002 -1.898672e-001 1.379707e+002
502265005.66251 -2.614983e-001 -1.763486e+002 -6.011318e+001 1.559513e+002 -6.019971e+001 1.600296e+002 -1.913197e-001 1.379000e+002
502642506.60627 -2.580416e-001 -1.765822e+002 -5.982672e+001 1.567994e+002 -5.975362e+001 1.558208e+002 -1.938871e-001 1.378768e+002
503020007.55002 -2.643693e-001 -1.767690e+002 -6.082465e+001 1.543548e+002 -6.056297e+001 1.528368e+002 -1.927678e-001 1.377293e+002
503397508.49377 -2.703874e-001 -1.769953e+002 -6.015692e+001 1.506200e+002 -6.002422e+001 1.548824e+002 -1.922964e-001 1.376915e+002
503775009.43752 -2.664997e-001 -1.772003e+002 -6.021815e+001 1.485543e+002 -5.991209e+001 1.550832e+002 -1.949885e-001 1.376102e+002
504152510.38128 -2.742916e-001 -1.774133e+002 -5.941928e+001 1.502859e+002 -6.074768e+001 1.504027e+002 -1.944666e-001 1.375081e+002
504530011.32503 -2.773680e-001 -1.776040e+002 -6.005023e+001 1.460009e+002 -6.024856e+001 1.535934e+002 -1.927756e-001 1.374297e+002
504907512.26878 -2.767012e-001 -1.777852e+002 -6.029972e+001 1.484812e+002 -6.030494e+001 1.494114e+002 -1.917472e-001 1.373533e+002
505285013.21253 -2.755068e-001 -1.779800e+002 -6.087613e+001 1.469648e+002 -6.011076e+001 1.489123e+002 -1.916621e-001 1.372524e+002
505662514.15629 -2.785960e-001 -1.781690e+002 -6.076020e+001 1.445610e+002 -5.966752e+001 1.486406e+002 -1.928113e-001 1.371946e+002
506040015.10004 -2.786992e-001 -1.784333e+002 -6.042940e+001 1.472114e+002 -5.982631e+001 1.457440e+002 -1.910926e-001 1.371078e+002
506417516.04379 -2.822572e-001 -1.786140e+002 -5.997353e+001 1.445339e+002 -5.994687e+001 1.480088e+002 -1.932800e-001 1.370255e+002
506795016.98754 -2.871191e-001 -1.787878e+002 -5.938196e+001 1.452360e+002 -6.053090e+001 1.492173e+002 -1.924079e-001 1.369438e+002
507172517.93129 -2.871477e-001 -1.789832e+002 -6.045091e+001 1.419134e+002 -6.001293e+001 1.465557e+002 -1.918484e-001 1.368895e+002
507550018.87505 -2.890995e-001 -1.791709e+002 -6.031877e+001 1.374407e+002 -5.981849e+001 1.438906e+002 -1.891022e-001 1.367997e+002
507927519.8188 -2.920604e-001 -1.794442e+002 -6.041211e+001 1.389745e+002 -5.994316e+001 1.411114e+002 -1.893930e-001 1.367192e+002
508305020.76255 -2.934461e-001 -1.796113e+002 -6.025237e+001 1.401285e+002 -5.983397e+001 1.421605e+002 -1.871090e-001 1.366600e+002
508682521.7063 -2.928603e-001 -1.797776e+002 -6.045303e+001 1.416685e+002 -5.976041e+001 1.455388e+002 -1.858575e-001 1.366161e+002
509060022.65006 -2.941749e-001 1.799887e+002 -5.952667e+001 1.417977e+002 -5.914271e+001 1.449877e+002 -1.879036e-001 1.365236e+002
509437523.59381 -2.928592e-001 1.797374e+002 -5.988514e+001 1.411940e+002 -5.972742e+001 1.408459e+002 -1.848133e-001 1.364512e+002
509815024.53756 -2.949925e-001 1.795602e+002 -5.998306e+001 1.390414e+002 -5.970520e+001 1.411391e+002 -1.852646e-001 1.364039e+002
510192525.48131 -2.995679e-001 1.793399e+002 -5.955687e+001 1.384785e+002 -5.984098e+001 1.386522e+002 -1.805907e-001 1.363236e+002
510570026.42507 -3.040957e-001 1.791384e+002 -6.007156e+001 1.351682e+002 -5.984263e+001 1.395253e+002 -1.789585e-001 1.362779e+002
510947527.36882 -3.008775e-001 1.789380e+002 -5.922866e+001 1.364646e+002 -5.948826e+001 1.385887e+002 -1.818735e-001 1.362039e+002
511325028.31257 -3.082093e-001 1.787579e+002 -6.054464e+001 1.362768e+002 -5.946668e+001 1.354906e+002 -1.795224e-001 1.361915e+002
511702529.25632 -3.055733e-001 1.784909e+002 -5.931217e+001 1.360534e+002 -5.925645e+001 1.373571e+002 -1.766697e-001 1.361205e+002
512080030.20008 -3.109410e-001 1.783094e+002 -5.954124e+001 1.329219e+002 -5.926210e+001 1.342626e+002 -1.760411e-001 1.360810e+002
512457531.14383 -3.131501e-001 1.780741e+002 -5.911876e+001 1.331583e+002 -5.941152e+001 1.358556e+002 -1.777845e-001 1.360642e+002
512835032.08758 -3.129756e-001 1.778804e+002 -5.984409e+001 1.341119e+002 -5.903392e+001 1.350114e+002 -1.758680e-001 1.359877e+002
513212533.03133 -3.156014e-001 1.776723e+002 -5.904964e+001 1.340110e+002 -5.933305e+001 1.318071e+002 -1.735139e-001 1.359693e+002
513590033.97508 -3.193302e-001 1.774822e+002 -6.019254e+001 1.292765e+002 -5.936679e+001 1.321015e+002 -1.762038e-001 1.359679e+002
513967534.91884 -3.208153e-001 1.772695e+002 -5.935603e+001 1.300003e+002 -5.958764e+001 1.323333e+002 -1.736183e-001 1.359197e+002
514345035.86259 -3.223658e-001 1.770041e+002 -5.904948e+001 1.292921e+002 -5.920468e+001 1.287146e+002 -1.697657e-001 1.358964e+002
514722536.80634 -3.227329e-001 1.768345e+002 -5.913199e+001 1.327438e+002 -5.867073e+001 1.312649e+002 -1.734309e-001 1.358910e+002
515100037.75009 -3.278319e-001 1.766686e+002 -5.878669e+001 1.328552e+002 -5.893419e+001 1.258640e+002 -1.710357e-001 1.358497e+002
515477538.69385 -3.294235e-001 1.763858e+002 -5.948343e+001 1.291170e+002 -5.868181e+001 1.340456e+002 -1.726951e-001 1.358518e+002
515855039.6376 -3.297847e-001 1.762101e+002 -5.963107e+001 1.279867e+002 -5.886717e+001 1.272570e+002 -1.737911e-001 1.358291e+002
516232540.58135 -3.375133e-001 1.759394e+002 -5.900249e+001 1.280514e+002 -5.971086e+001 1.277647e+002 -1.737525e-001 1.358091e+002
516610041.5251 -3.383519e-001 1.757631e+002 -5.903805e+001 1.312554e+002 -5.919897e+001 1.267354e+002 -1.712171e-001 1.358283e+002
516987542.46886 -3.461722e-001 1.755484e+002 -5.865019e+001 1.257723e+002 -5.891153e+001 1.260901e+002 -1.720621e-001 1.357988e+002
517365043.41261 -3.478389e-001 1.752903e+002 -5.942326e+001 1.263221e+002 -5.882190e+001 1.237175e+002 -1.709637e-001 1.357962e+002
517742544.35636 -3.507110e-001 1.750171e+002 -5.868163e+001 1.264466e+002 -5.859087e+001 1.251725e+002 -1.737590e-001 1.357932e+002
518120045.30011 -3.541094e-001 1.748673e+002 -5.873170e+001 1.252735e+002 -5.838591e+001 1.227280e+002 -1.701059e-001 1.357838e+002
518497546.24387 -3.567314e-001 1.745771e+002 -5.823743e+001 1.231546e+002 -5.900373e+001 1.225720e+002 -1.724633e-001 1.357686e+002
518875047.18762 -3.590930e-001 1.743783e+002 -5.863370e+001 1.224395e+002 -5.816727e+001 1.240055e+002 -1.743239e-001 1.357578e+002
519252548.13137 -3.632920e-001 1.741118e+002 -5.845715e+001 1.209451e+002 -5.857460e+001 1.227076e+002 -1.723534e-001 1.357511e+002
519630049.07512 -3.659291e-001 1.739657e+002 -5.777931e+001 1.205892e+002 -5.834324e+001 1.241017e+002 -1.762770e-001 1.357011e+002
520007550.01888 -3.689265e-001 1.736871e+002 -5.837124e+001 1.197185e+002 -5.850997e+001 1.212003e+002 -1.757424e-001 1.356784e+002
520385050.96263 -3.762035e-001 1.735047e+002 -5.896684e+001 1.203580e+002 -5.832616e+001 1.204825e+002 -1.800112e-001 1.356590e+002
520762551.90638 -3.800952e-001 1.732977e+002 -5.817738e+001 1.195926e+002 -5.809374e+001 1.197928e+002 -1.757716e-001 1.356661e+002
521140052.85013 -3.771005e-001 1.729675e+002 -5.804809e+001 1.188231e+002 -5.792708e+001 1.170085e+002 -1.765817e-001 1.356156e+002
521517553.79388 -3.869249e-001 1.727833e+002 -5.768330e+001 1.169288e+002 -5.808291e+001 1.202811e+002 -1.786144e-001 1.355939e+002
521895054.73764 -3.914213e-001 1.725576e+002 -5.765890e+001 1.145436e+002 -5.831421e+001 1.163210e+002 -1.789940e-001 1.355697e+002
522272555.68139 -3.974106e-001 1.723844e+002 -5.752173e+001 1.133230e+002 -5.770993e+001 1.185985e+002 -1.776695e-001 1.354970e+002
522650056.62514 -3.968967e-001 1.721174e+002 -5.786967e+001 1.133614e+002 -5.747140e+001 1.155080e+002 -1.824691e-001 1.354881e+002
523027557.56889 -4.031631e-001 1.718587e+002 -5.771463e+001 1.099525e+002 -5.770731e+001 1.147230e+002 -1.850338e-001 1.354292e+002
523405058.51265 -4.020568e-001 1.717031e+002 -5.768006e+001 1.127828e+002 -5.797153e+001 1.101316e+002 -1.832592e-001 1.354092e+002
523782559.4564 -4.085290e-001 1.714438e+002 -5.733670e+001 1.099766e+002 -5.797088e+001 1.124668e+002 -1.862940e-001 1.353483e+002
524160060.40015 -4.100638e-001 1.712175e+002 -5.753114e+001 1.128939e+002 -5.754017e+001 1.137357e+002 -1.848590e-001 1.352898e+002
524537561.3439 -4.140168e-001 1.710137e+002 -5.751432e+001 1.059334e+002 -5.716958e+001 1.141249e+002 -1.835608e-001 1.352099e+002
524915062.28766 -4.138639e-001 1.707161e+002 -5.736524e+001 1.067464e+002 -5.750212e+001 1.110629e+002 -1.857172e-001 1.351410e+002
525292563.23141 -4.170975e-001 1.705521e+002 -5.763813e+001 1.090122e+002 -5.719621e+001 1.087769e+002 -1.880965e-001 1.350847e+002
525670064.17516 -4.203798e-001 1.703326e+002 -5.726529e+001 1.084632e+002 -5.701070e+001 1.072032e+002 -1.839057e-001 1.350117e+002
526047565.11891 -4.234884e-001 1.701011e+002 -5.722119e+001 1.051830e+002 -5.721694e+001 1.088576e+002 -1.842531e-001 1.349456e+002
526425066.06267 -4.264936e-001 1.698098e+002 -5.741351e+001 1.029293e+002 -5.748903e+001 1.046992e+002 -1.860595e-001 1.348729e+002
526802567.00642 -4.347440e-001 1.696260e+002 -5.708498e+001 1.060737e+002 -5.730047e+001 1.070683e+002 -1.853835e-001 1.348139e+002
527180067.95017 -4.326056e-001 1.693749e+002 -5.709521e+001 1.029736e+002 -5.740611e+001 1.084812e+002 -1.842745e-001 1.347197e+002
527557568.89392 -4.365296e-001 1.691506e+002 -5.708883e+001 1.020686e+002 -5.677479e+001 1.014188e+002 -1.865217e-001 1.345943e+002
527935069.83767 -4.403149e-001 1.689340e+002 -5.741603e+001 1.009031e+002 -5.671324e+001 1.056971e+002 -1.826056e-001 1.345471e+002
528312570.78143 -4.410569e-001 1.686909e+002 -5.709218e+001 9.811962e+001 -5.659085e+001 1.008644e+002 -1.838443e-001 1.344666e+002
528690071.72518 -4.497207e-001 1.684964e+002 -5.710010e+001 9.908585e+001 -5.722997e+001 1.023200e+002 -1.820533e-001 1.343923e+002
529067572.66893 -4.501156e-001 1.682103e+002 -5.748743e+001 1.001643e+002 -5.701200e+001 1.016895e+002 -1.821563e-001 1.343125e+002
529445073.61268 -4.576577e-001 1.679751e+002 -5.681052e+001 9.673646e+001 -5.663568e+001 9.959686e+001 -1.777708e-001 1.342298e+002
529822574.55644 -4.598511e-001 1.677348e+002 -5.783160e+001 9.635023e+001 -5.716464e+001 9.995728e+001 -1.782349e-001 1.341544e+002
530200075.50019 -4.647819e-001 1.675614e+002 -5.725885e+001 9.827482e+001 -5.725065e+001 9.896610e+001 -1.777844e-001 1.340816e+002
530577576.44394 -4.655081e-001 1.672277e+002 -5.781022e+001 9.792337e+001 -5.661956e+001 9.830777e+001 -1.769501e-001 1.340047e+002
530955077.38769 -4.733651e-001 1.670219e+002 -5.703833e+001 9.470081e+001 -5.692207e+001 9.838973e+001 -1.777887e-001 1.339296e+002
531332578.33145 -4.815096e-001 1.668400e+002 -5.700858e+001 9.742522e+001 -5.700766e+001 9.550452e+001 -1.767202e-001 1.338873e+002
531710079.2752 -4.850932e-001 1.665586e+002 -5.684510e+001 9.662823e+001 -5.633627e+001 9.524194e+001 -1.710961e-001 1.337772e+002
532087580.21895 -4.912920e-001 1.662941e+002 -5.646249e+001 9.597249e+001 -5.693474e+001 9.866875e+001 -1.701216e-001 1.337632e+002
532465081.1627 -4.968553e-001 1.660628e+002 -5.680562e+001 9.033617e+001 -5.656168e+001 9.389323e+001 -1.677787e-001 1.337033e+002
532842582.10646 -5.006462e-001 1.657976e+002 -5.690740e+001 9.280001e+001 -5.645452e+001 9.278154e+001 -1.633510e-001 1.336489e+002
533220083.05021 -5.100181e-001 1.655445e+002 -5.649735e+001 9.353734e+001 -5.645453e+001 9.001407e+001 -1.627779e-001 1.336027e+002
533597583.99396 -5.131013e-001 1.653219e+002 -5.647321e+001 8.999123e+001 -5.655984e+001 9.411603e+001 -1.600462e-001 1.335346e+002
533975084.93771 -5.279942e-001 1.650613e+002 -5.722409e+001 9.096574e+001 -5.628015e+001 9.119473e+001 -1.599542e-001 1.335271e+002
534352585.88146 -5.311593e-001 1.647965e+002 -5.686897e+001 8.597840e+001 -5.689213e+001 9.002020e+001 -1.527836e-001 1.335087e+002
534730086.82522 -5.397277e-001 1.645374e+002 -5.646360e+001 8.868867e+001 -5.642641e+001 9.018818e+001 -1.493324e-001 1.334788e+002
535107587.76897 -5.479378e-001 1.643767e+002 -5.683646e+001 8.920996e+001 -5.656968e+001 9.005308e+001 -1.505452e-001 1.334741e+002
535485088.71272 -5.576259e-001 1.641394e+002 -5.625325e+001 8.825030e+001 -5.626091e+001 8.991946e+001 -1.440687e-001 1.334278e+002
535862589.65647 -5.601885e-001 1.639086e+002 -5.676011e+001 8.758562e+001 -5.652572e+001 8.969473e+001 -1.460963e-001 1.334121e+002
536240090.60023 -5.638654e-001 1.636429e+002 -5.647353e+001 8.976495e+001 -5.627645e+001 8.957450e+001 -1.443858e-001 1.334068e+002
536617591.54398 -5.683538e-001 1.634413e+002 -5.613482e+001 8.684447e+001 -5.593246e+001 8.729364e+001 -1.418994e-001 1.333872e+002
536995092.48773 -5.770772e-001 1.632034e+002 -5.607326e+001 8.628957e+001 -5.619810e+001 8.602533e+001 -1.413832e-001 1.333931e+002
537372593.43148 -5.830809e-001 1.629739e+002 -5.635537e+001 8.450166e+001 -5.582881e+001 8.684084e+001 -1.364724e-001 1.333938e+002
537750094.37524 -5.870364e-001 1.626699e+002 -5.633995e+001 8.271363e+001 -5.586843e+001 8.334483e+001 -1.332365e-001 1.334019e+002
538127595.31899 -5.973076e-001 1.625060e+002 -5.580789e+001 8.420456e+001 -5.538435e+001 8.419518e+001 -1.362223e-001 1.333867e+002
538505096.26274 -6.025391e-001 1.622543e+002 -5.609488e+001 8.256068e+001 -5.637010e+001 8.268407e+001 -1.350302e-001 1.333770e+002
538882597.20649 -6.087607e-001 1.620184e+002 -5.581458e+001 8.097137e+001 -5.567781e+001 8.074470e+001 -1.336599e-001 1.333907e+002
539260098.15025 -6.145242e-001 1.618014e+002 -5.572439e+001 8.230538e+001 -5.569688e+001 8.007346e+001 -1.291696e-001 1.333978e+002
539637599.094 -6.228833e-001 1.615562e+002 -5.570685e+001 8.217230e+001 -5.531019e+001 8.058733e+001 -1.275984e-001 1.333948e+002
540015100.03775 -6.263667e-001 1.613809e+002 -5.560387e+001 7.936320e+001 -5.520986e+001 7.681285e+001 -1.298107e-001 1.334338e+002
540392600.9815 -6.351535e-001 1.611056e+002 -5.563306e+001 7.899444e+001 -5.553632e+001 7.711794e+001 -1.274190e-001 1.333855e+002
540770101.92525 -6.386693e-001 1.608546e+002 -5.511621e+001 7.828368e+001 -5.540932e+001 7.712273e+001 -1.273640e-001 1.333952e+002
541147602.86901 -6.455982e-001 1.606898e+002 -5.543827e+001 7.546971e+001 -5.559591e+001 7.536002e+001 -1.278613e-001 1.333877e+002
541525103.81276 -6.451670e-001 1.603906e+002 -5.528407e+001 7.548316e+001 -5.532752e+001 7.456705e+001 -1.255880e-001 1.333913e+002
541902604.75651 -6.561207e-001 1.601929e+002 -5.528068e+001 7.303721e+001 -5.508361e+001 7.429219e+001 -1.274624e-001 1.333915e+002
542280105.70026 -6.592053e-001 1.599162e+002 -5.525917e+001 7.457600e+001 -5.523977e+001 7.306612e+001 -1.250146e-001 1.333706e+002
542657606.64402 -6.634454e-001 1.597845e+002 -5.497115e+001 7.179584e+001 -5.553764e+001 7.155007e+001 -1.282557e-001 1.333599e+002
543035107.58777 -6.686695e-001 1.595042e+002 -5.540689e+001 7.108887e+001 -5.485271e+001 7.100769e+001 -1.271631e-001 1.333495e+002
543412608.53152 -6.714721e-001 1.592494e+002 -5.510349e+001 7.276753e+001 -5.523158e+001 6.933070e+001 -1.320255e-001 1.333268e+002
543790109.47527 -6.786283e-001 1.590339e+002 -5.522581e+001 6.959943e+001 -5.517867e+001 6.882306e+001 -1.305950e-001 1.332991e+002
544167610.41903 -6.820703e-001 1.587426e+002 -5.501422e+001 6.713394e+001 -5.504788e+001 6.948407e+001 -1.323347e-001 1.332914e+002
544545111.36278 -6.873014e-001 1.585400e+002 -5.523742e+001 6.835785e+001 -5.562665e+001 6.993888e+001 -1.311838e-001 1.332459e+002
544922612.30653 -6.878864e-001 1.582418e+002 -5.473834e+001 6.748775e+001 -5.498365e+001 6.818506e+001 -1.310745e-001 1.332211e+002
545300113.25028 -6.913573e-001 1.580793e+002 -5.483617e+001 6.689520e+001 -5.504327e+001 6.685876e+001 -1.334805e-001 1.332141e+002
545677614.19404 -6.980317e-001 1.577913e+002 -5.474628e+001 6.528285e+001 -5.502273e+001 6.584011e+001 -1.347448e-001 1.331588e+002
546055115.13779 -7.036143e-001 1.575127e+002 -5.491684e+001 6.318937e+001 -5.505547e+001 6.558391e+001 -1.379876e-001 1.331093e+002
546432616.08154 -7.065186e-001 1.572144e+002 -5.473775e+001 6.516348e+001 -5.519994e+001 6.482438e+001 -1.383190e-001 1.330567e+002
546810117.02529 -7.101840e-001 1.569782e+002 -5.461584e+001 6.260065e+001 -5.474560e+001 6.283123e+001 -1.415929e-001 1.330207e+002
547187617.96904 -7.184514e-001 1.566619e+002 -5.440451e+001 6.058046e+001 -5.490308e+001 6.259285e+001 -1.441046e-001 1.329717e+002
547565118.9128 -7.285246e-001 1.564158e+002 -5.518714e+001 6.062473e+001 -5.490039e+001 6.288450e+001 -1.462700e-001 1.329211e+002
547942619.85655 -7.359450e-001 1.561715e+002 -5.467056e+001 5.937911e+001 -5.467089e+001 6.127987e+001 -1.480925e-001 1.328661e+002
548320120.8003 -7.486730e-001 1.559028e+002 -5.469783e+001 5.877529e+001 -5.463362e+001 6.108401e+001 -1.503388e-001 1.328116e+002
548697621.74405 -7.584475e-001 1.555560e+002 -5.448442e+001 5.817193e+001 -5.475729e+001 6.092362e+001 -1.529533e-001 1.327752e+002
549075122.68781 -7.735404e-001 1.553617e+002 -5.469649e+001 5.666227e+001 -5.449714e+001 5.768324e+001 -1.520682e-001 1.327627e+002
549452623.63156 -7.851349e-001 1.550427e+002 -5.441725e+001 5.783806e+001 -5.484810e+001 5.855580e+001 -1.565342e-001 1.326668e+002
549830124.57531 -8.017388e-001 1.548374e+002 -5.464198e+001 5.539471e+001 -5.452999e+001 5.972397e+001 -1.541786e-001 1.326291e+002
550207625.51906 -8.110083e-001 1.545779e+002 -5.423516e+001 5.552074e+001 -5.460721e+001 5.806222e+001 -1.587962e-001 1.325809e+002
550585126.46282 -8.223199e-001 1.543791e+002 -5.418652e+001 5.593130e+001 -5.459605e+001 5.598222e+001 -1.593602e-001 1.325483e+002
550962627.40657 -8.316724e-001 1.540879e+002 -5.462354e+001 5.207196e+001 -5.472437e+001 5.440504e+001 -1.576619e-001 1.324851e+002
551340128.35032 -8.408339e-001 1.539049e+002 -5.455379e+001 5.221930e+001 -5.446291e+001 5.523314e+001 -1.583443e-001 1.323713e+002
551717629.29407 -8.518782e-001 1.536188e+002 -5.442303e+001 5.335323e+001 -5.457457e+001 5.502718e+001 -1.573462e-001 1.323895e+002
552095130.23783 -8.635036e-001 1.533288e+002 -5.435717e+001 5.099633e+001 -5.419228e+001 5.330342e+001 -1.611544e-001 1.323530e+002
552472631.18158 -8.671017e-001 1.530999e+002 -5.448099e+001 5.162492e+001 -5.433648e+001 5.402467e+001 -1.590340e-001 1.323263e+002
552850132.12533 -8.816352e-001 1.528689e+002 -5.416410e+001 4.900895e+001 -5.446470e+001 5.176715e+001 -1.606031e-001 1.322836e+002
553227633.06908 -8.927631e-001 1.525797e+002 -5.422869e+001 4.763567e+001 -5.407605e+001 5.155407e+001 -1.599186e-001 1.322528e+002
553605134.01284 -9.003676e-001 1.523530e+002 -5.436860e+001 4.957419e+001 -5.417154e+001 4.978864e+001 -1.659481e-001 1.322264e+002
553982634.95659 -9.105013e-001 1.520765e+002 -5.423761e+001 4.902295e+001 -5.426538e+001 5.153113e+001 -1.626755e-001 1.321881e+002
554360135.90034 -9.193584e-001 1.517768e+002 -5.419373e+001 4.994662e+001 -5.424049e+001 4.890097e+001 -1.607550e-001 1.321655e+002
554737636.84409 -9.377013e-001 1.515530e+002 -5.389285e+001 4.728695e+001 -5.394205e+001 4.930973e+001 -1.609863e-001 1.321606e+002
555115137.78784 -9.526953e-001 1.513119e+002 -5.407921e+001 4.465661e+001 -5.394836e+001 4.781407e+001 -1.618935e-001 1.321390e+002
555492638.7316 -9.627483e-001 1.510293e+002 -5.414309e+001 4.848385e+001 -5.403457e+001 4.639446e+001 -1.617203e-001 1.321242e+002
555870139.67535 -9.752365e-001 1.508638e+002 -5.365771e+001 4.717502e+001 -5.356027e+001 4.929916e+001 -1.605911e-001 1.321234e+002
