!Agilent Technologies,E8364B,US42250235,A.06.04.32
!Agilent E8364B: A.06.04.32
!Date: Thursday, October 01, 2020 14:56:21
!Correction: S11(Full 2 Port(1,2)) S21(Full 2 Port(1,2)) S12(Full 2 Port(1,2)) S22(Full 2 Port(1,2)) 
!S2P File: Measurements: S11, S21, S12, S22:
# Hz S  dB   R 50
500000000 -2.304898e-001 -1.750773e+002 -6.302109e+001 -1.353355e+001 -6.300219e+001 -2.558016e+000 -1.460124e-001 1.380111e+002
500377500.94375 -2.314568e-001 -1.753169e+002 -6.288119e+001 -1.945203e+001 -6.315444e+001 -7.175969e+000 -1.436071e-001 1.379709e+002
500755001.8875 -2.365913e-001 -1.754466e+002 -6.303666e+001 -1.768971e+001 -6.260432e+001 -8.449894e+000 -1.378568e-001 1.379756e+002
501132502.83126 -2.377530e-001 -1.756990e+002 -6.268014e+001 -2.440646e+001 -6.377747e+001 -1.057847e+001 -1.419095e-001 1.379666e+002
501510003.77501 -2.411242e-001 -1.759060e+002 -6.354796e+001 -1.636861e+001 -6.189586e+001 -6.979809e+000 -1.382871e-001 1.379541e+002
501887504.71876 -2.476376e-001 -1.761172e+002 -6.232824e+001 -2.559154e+001 -6.344738e+001 -3.987957e+000 -1.374454e-001 1.379333e+002
502265005.66251 -2.514994e-001 -1.763148e+002 -6.249856e+001 -2.326142e+001 -6.312593e+001 -1.384691e+001 -1.380963e-001 1.379184e+002
502642506.60627 -2.507297e-001 -1.765263e+002 -6.289439e+001 -2.500505e+001 -6.283149e+001 -7.066287e+000 -1.382931e-001 1.379303e+002
503020007.55002 -2.572941e-001 -1.767252e+002 -6.325592e+001 -2.511068e+001 -6.196272e+001 -1.074307e+001 -1.398479e-001 1.378740e+002
503397508.49377 -2.587157e-001 -1.769142e+002 -6.231809e+001 -2.226565e+001 -6.241462e+001 -1.362800e+001 -1.361565e-001 1.378399e+002
503775009.43752 -2.595722e-001 -1.771019e+002 -6.279446e+001 -2.967987e+001 -6.211538e+001 -8.134546e+000 -1.380598e-001 1.378264e+002
504152510.38128 -2.647724e-001 -1.772990e+002 -6.289660e+001 -2.752510e+001 -6.265150e+001 -9.163035e+000 -1.364265e-001 1.377748e+002
504530011.32503 -2.644598e-001 -1.774979e+002 -6.197016e+001 -2.847313e+001 -6.277551e+001 -1.507419e+001 -1.372089e-001 1.377557e+002
504907512.26878 -2.683738e-001 -1.776807e+002 -6.228064e+001 -2.231351e+001 -6.158905e+001 -1.658158e+001 -1.362792e-001 1.377147e+002
505285013.21253 -2.702694e-001 -1.778793e+002 -6.176078e+001 -2.583085e+001 -6.160916e+001 -1.327795e+001 -1.389724e-001 1.376984e+002
505662514.15629 -2.706184e-001 -1.780458e+002 -6.298477e+001 -2.807414e+001 -6.212006e+001 -2.044119e+001 -1.395633e-001 1.376588e+002
506040015.10004 -2.757858e-001 -1.782762e+002 -6.311157e+001 -3.143366e+001 -6.224173e+001 -1.436789e+001 -1.373028e-001 1.376119e+002
506417516.04379 -2.735382e-001 -1.784792e+002 -6.192838e+001 -3.434033e+001 -6.219561e+001 -1.855609e+001 -1.377595e-001 1.375790e+002
506795016.98754 -2.787416e-001 -1.786715e+002 -6.167372e+001 -3.361831e+001 -6.230844e+001 -1.611469e+001 -1.350762e-001 1.375195e+002
507172517.93129 -2.802155e-001 -1.788793e+002 -6.213977e+001 -3.747548e+001 -6.204408e+001 -1.785586e+001 -1.345989e-001 1.374895e+002
507550018.87505 -2.833815e-001 -1.790703e+002 -6.233111e+001 -3.697512e+001 -6.200341e+001 -1.942831e+001 -1.369531e-001 1.374305e+002
507927519.8188 -2.834418e-001 -1.792795e+002 -6.162020e+001 -3.833623e+001 -6.160452e+001 -1.441547e+001 -1.395686e-001 1.374050e+002
508305020.76255 -2.861241e-001 -1.794873e+002 -6.170564e+001 -3.747713e+001 -6.147549e+001 -2.050622e+001 -1.400790e-001 1.373542e+002
508682521.7063 -2.894024e-001 -1.796889e+002 -6.166862e+001 -4.281708e+001 -6.150176e+001 -2.802662e+001 -1.436938e-001 1.373351e+002
509060022.65006 -2.914602e-001 -1.798971e+002 -6.133411e+001 -4.262669e+001 -6.126141e+001 -2.322301e+001 -1.376718e-001 1.372413e+002
509437523.59381 -2.916394e-001 1.798890e+002 -6.158976e+001 -4.351720e+001 -6.152693e+001 -2.953757e+001 -1.367216e-001 1.372378e+002
509815024.53756 -2.918805e-001 1.796749e+002 -6.075523e+001 -4.428326e+001 -6.131594e+001 -2.393855e+001 -1.360674e-001 1.371913e+002
510192525.48131 -2.932746e-001 1.794649e+002 -6.144380e+001 -4.546050e+001 -6.055497e+001 -3.121575e+001 -1.371369e-001 1.371393e+002
510570026.42507 -2.989219e-001 1.792360e+002 -6.155043e+001 -5.226170e+001 -6.146888e+001 -2.720069e+001 -1.355910e-001 1.370803e+002
510947527.36882 -3.024461e-001 1.790609e+002 -6.187763e+001 -4.868373e+001 -6.070342e+001 -2.905670e+001 -1.373742e-001 1.370558e+002
511325028.31257 -3.038054e-001 1.788282e+002 -6.091832e+001 -4.936607e+001 -6.199453e+001 -3.141739e+001 -1.352398e-001 1.370064e+002
511702529.25632 -3.052905e-001 1.785719e+002 -6.216089e+001 -4.794666e+001 -6.114611e+001 -3.106843e+001 -1.360999e-001 1.369888e+002
512080030.20008 -3.115821e-001 1.783886e+002 -6.191367e+001 -4.556279e+001 -6.082451e+001 -3.042021e+001 -1.337210e-001 1.369359e+002
512457531.14383 -3.134680e-001 1.781850e+002 -6.132897e+001 -5.308244e+001 -6.142700e+001 -3.474209e+001 -1.319796e-001 1.369233e+002
512835032.08758 -3.161075e-001 1.779599e+002 -6.144580e+001 -5.159866e+001 -6.131465e+001 -3.437396e+001 -1.334095e-001 1.368801e+002
513212533.03133 -3.182475e-001 1.777493e+002 -6.105438e+001 -5.891261e+001 -6.089736e+001 -3.701949e+001 -1.302750e-001 1.368246e+002
513590033.97508 -3.191582e-001 1.774982e+002 -6.132736e+001 -5.243921e+001 -6.105007e+001 -3.486113e+001 -1.292673e-001 1.368149e+002
513967534.91884 -3.266037e-001 1.773147e+002 -6.144719e+001 -5.494672e+001 -6.045845e+001 -3.593770e+001 -1.257256e-001 1.367602e+002
514345035.86259 -3.259122e-001 1.770886e+002 -6.111119e+001 -5.205436e+001 -6.050983e+001 -3.550423e+001 -1.288642e-001 1.367672e+002
514722536.80634 -3.260629e-001 1.768992e+002 -6.137944e+001 -5.098580e+001 -6.083028e+001 -3.696141e+001 -1.289534e-001 1.367411e+002
515100037.75009 -3.274629e-001 1.766714e+002 -6.100197e+001 -5.580976e+001 -6.101913e+001 -4.008418e+001 -1.273432e-001 1.367316e+002
515477538.69385 -3.300405e-001 1.764031e+002 -6.152393e+001 -5.577776e+001 -6.045355e+001 -3.830328e+001 -1.268593e-001 1.366898e+002
515855039.6376 -3.333838e-001 1.762328e+002 -6.149930e+001 -5.728147e+001 -6.059958e+001 -3.790381e+001 -1.254784e-001 1.366850e+002
516232540.58135 -3.373839e-001 1.760113e+002 -6.065203e+001 -5.299399e+001 -6.007206e+001 -4.338017e+001 -1.258714e-001 1.366629e+002
516610041.5251 -3.417903e-001 1.757766e+002 -6.075010e+001 -5.356742e+001 -6.018824e+001 -4.214485e+001 -1.286040e-001 1.366671e+002
516987542.46886 -3.423796e-001 1.755649e+002 -6.110934e+001 -5.462348e+001 -6.086731e+001 -4.462054e+001 -1.297908e-001 1.366395e+002
517365043.41261 -3.477788e-001 1.753546e+002 -6.018743e+001 -5.807815e+001 -6.041826e+001 -4.364120e+001 -1.276344e-001 1.366003e+002
517742544.35636 -3.486542e-001 1.751185e+002 -6.069233e+001 -6.554108e+001 -6.039129e+001 -4.693555e+001 -1.298865e-001 1.366132e+002
518120045.30011 -3.524910e-001 1.748990e+002 -6.032880e+001 -6.056753e+001 -6.011913e+001 -4.491853e+001 -1.271840e-001 1.366004e+002
518497546.24387 -3.551354e-001 1.746748e+002 -6.046195e+001 -6.029266e+001 -6.011131e+001 -4.589959e+001 -1.273167e-001 1.365861e+002
518875047.18762 -3.609948e-001 1.745013e+002 -6.004207e+001 -6.146592e+001 -5.994809e+001 -4.350723e+001 -1.276618e-001 1.365873e+002
519252548.13137 -3.684964e-001 1.742382e+002 -5.982875e+001 -6.364731e+001 -5.946820e+001 -4.938975e+001 -1.306011e-001 1.365754e+002
519630049.07512 -3.703631e-001 1.739941e+002 -6.005171e+001 -6.065984e+001 -5.973413e+001 -4.821352e+001 -1.317129e-001 1.365530e+002
520007550.01888 -3.736287e-001 1.737864e+002 -5.968646e+001 -6.706114e+001 -5.953047e+001 -5.067936e+001 -1.362360e-001 1.364609e+002
520385050.96263 -3.763723e-001 1.735854e+002 -6.040577e+001 -6.592599e+001 -5.953422e+001 -5.449076e+001 -1.346523e-001 1.365053e+002
520762551.90638 -3.814113e-001 1.733547e+002 -5.920399e+001 -6.718340e+001 -5.944668e+001 -5.223947e+001 -1.353878e-001 1.364947e+002
521140052.85013 -3.874331e-001 1.731718e+002 -5.992347e+001 -7.401785e+001 -5.927850e+001 -5.341413e+001 -1.342772e-001 1.364563e+002
521517553.79388 -3.925790e-001 1.729491e+002 -5.994990e+001 -6.828338e+001 -5.894022e+001 -5.301276e+001 -1.394779e-001 1.364446e+002
521895054.73764 -3.922647e-001 1.726771e+002 -6.002722e+001 -7.427578e+001 -5.908344e+001 -4.980931e+001 -1.439252e-001 1.364204e+002
522272555.68139 -3.958803e-001 1.724746e+002 -5.985855e+001 -7.557782e+001 -5.924057e+001 -5.845745e+001 -1.451616e-001 1.363897e+002
522650056.62514 -4.012510e-001 1.722574e+002 -6.026370e+001 -7.247521e+001 -5.917098e+001 -5.914383e+001 -1.427178e-001 1.362907e+002
523027557.56889 -4.082516e-001 1.720536e+002 -5.913450e+001 -7.318023e+001 -5.870839e+001 -5.876610e+001 -1.501567e-001 1.363254e+002
523405058.51265 -4.075459e-001 1.718030e+002 -5.906711e+001 -7.992530e+001 -5.889605e+001 -5.988469e+001 -1.492268e-001 1.363469e+002
523782559.4564 -4.115588e-001 1.715850e+002 -5.963383e+001 -7.785742e+001 -5.864650e+001 -5.886260e+001 -1.500494e-001 1.362441e+002
524160060.40015 -4.155054e-001 1.713920e+002 -5.936399e+001 -7.969286e+001 -5.902213e+001 -6.537627e+001 -1.512882e-001 1.362002e+002
524537561.3439 -4.172958e-001 1.711415e+002 -5.927939e+001 -8.341700e+001 -5.868950e+001 -6.400936e+001 -1.575137e-001 1.361508e+002
524915062.28766 -4.240671e-001 1.709360e+002 -5.906496e+001 -8.061335e+001 -5.887881e+001 -6.337422e+001 -1.556544e-001 1.361189e+002
525292563.23141 -4.277303e-001 1.706496e+002 -5.911429e+001 -8.238383e+001 -5.855713e+001 -6.567619e+001 -1.613155e-001 1.360635e+002
525670064.17516 -4.286550e-001 1.704246e+002 -5.938898e+001 -9.028393e+001 -5.836380e+001 -6.680199e+001 -1.610827e-001 1.359886e+002
526047565.11891 -4.332412e-001 1.702137e+002 -5.934959e+001 -8.363145e+001 -5.843071e+001 -7.051007e+001 -1.678791e-001 1.359366e+002
526425066.06267 -4.407494e-001 1.699082e+002 -5.885911e+001 -8.565742e+001 -5.869864e+001 -6.677499e+001 -1.674659e-001 1.359089e+002
526802567.00642 -4.406896e-001 1.697111e+002 -5.921775e+001 -8.619703e+001 -5.855805e+001 -7.151036e+001 -1.681287e-001 1.358256e+002
527180067.95017 -4.461689e-001 1.694592e+002 -5.936504e+001 -8.708337e+001 -5.794939e+001 -7.071346e+001 -1.684516e-001 1.357606e+002
527557568.89392 -4.490132e-001 1.692246e+002 -5.905213e+001 -9.018320e+001 -5.865314e+001 -6.988171e+001 -1.673808e-001 1.356550e+002
527935069.83767 -4.541923e-001 1.690089e+002 -5.874228e+001 -8.942144e+001 -5.860379e+001 -6.897031e+001 -1.694525e-001 1.356290e+002
528312570.78143 -4.596199e-001 1.687941e+002 -5.896867e+001 -9.217378e+001 -5.815016e+001 -7.475627e+001 -1.682692e-001 1.355741e+002
528690071.72518 -4.568179e-001 1.685193e+002 -5.965498e+001 -9.255399e+001 -5.813902e+001 -7.323387e+001 -1.641412e-001 1.355145e+002
529067572.66893 -4.641021e-001 1.682687e+002 -5.907546e+001 -9.204469e+001 -5.826167e+001 -7.279382e+001 -1.710776e-001 1.354564e+002
529445073.61268 -4.677334e-001 1.680508e+002 -5.866698e+001 -9.490458e+001 -5.855167e+001 -7.499807e+001 -1.690342e-001 1.354097e+002
529822574.55644 -4.716447e-001 1.677936e+002 -5.919749e+001 -9.371549e+001 -5.809883e+001 -7.501996e+001 -1.713058e-001 1.353015e+002
530200075.50019 -4.803203e-001 1.675126e+002 -5.914504e+001 -9.415607e+001 -5.837666e+001 -7.809859e+001 -1.672819e-001 1.352415e+002
530577576.44394 -4.872831e-001 1.673255e+002 -5.975740e+001 -9.092650e+001 -5.823338e+001 -7.848031e+001 -1.703434e-001 1.351529e+002
530955077.38769 -4.951555e-001 1.670668e+002 -5.843776e+001 -9.543797e+001 -5.808304e+001 -7.745428e+001 -1.668043e-001 1.351260e+002
531332578.33145 -4.975283e-001 1.668248e+002 -5.850905e+001 -9.433908e+001 -5.859982e+001 -7.894731e+001 -1.645358e-001 1.350582e+002
531710079.2752 -5.038661e-001 1.666008e+002 -5.893601e+001 -9.606690e+001 -5.814839e+001 -7.798696e+001 -1.680158e-001 1.349705e+002
532087580.21895 -5.102139e-001 1.663712e+002 -5.904582e+001 -9.658793e+001 -5.746036e+001 -8.064581e+001 -1.622811e-001 1.349189e+002
532465081.1627 -5.159847e-001 1.661051e+002 -5.851471e+001 -1.005776e+002 -5.771842e+001 -8.103067e+001 -1.633283e-001 1.348629e+002
532842582.10646 -5.222000e-001 1.658728e+002 -5.868531e+001 -1.018994e+002 -5.764113e+001 -8.203189e+001 -1.613784e-001 1.348045e+002
533220083.05021 -5.297747e-001 1.656418e+002 -5.874353e+001 -1.030605e+002 -5.768275e+001 -8.271313e+001 -1.578029e-001 1.347720e+002
533597583.99396 -5.388049e-001 1.653948e+002 -5.802260e+001 -1.045997e+002 -5.778149e+001 -8.315868e+001 -1.589698e-001 1.347489e+002
533975084.93771 -5.468925e-001 1.651292e+002 -5.844588e+001 -1.032314e+002 -5.690670e+001 -8.647610e+001 -1.610246e-001 1.346604e+002
534352585.88146 -5.558550e-001 1.649806e+002 -5.871145e+001 -1.042308e+002 -5.732696e+001 -8.707262e+001 -1.569569e-001 1.346191e+002
534730086.82522 -5.648061e-001 1.647290e+002 -5.897296e+001 -1.031912e+002 -5.742607e+001 -8.742360e+001 -1.532455e-001 1.345893e+002
535107587.76897 -5.718324e-001 1.645060e+002 -5.870600e+001 -1.040860e+002 -5.783794e+001 -8.934848e+001 -1.538852e-001 1.345669e+002
535485088.71272 -5.797306e-001 1.642795e+002 -5.867112e+001 -1.058135e+002 -5.750045e+001 -8.678402e+001 -1.521393e-001 1.344983e+002
535862589.65647 -5.893111e-001 1.640553e+002 -5.824687e+001 -1.070011e+002 -5.727834e+001 -8.905215e+001 -1.506667e-001 1.344726e+002
536240090.60023 -5.916615e-001 1.638732e+002 -5.846299e+001 -1.071559e+002 -5.754760e+001 -8.591438e+001 -1.498942e-001 1.344613e+002
536617591.54398 -5.997530e-001 1.636001e+002 -5.816780e+001 -1.079978e+002 -5.726286e+001 -9.072350e+001 -1.485902e-001 1.344163e+002
536995092.48773 -6.102561e-001 1.634216e+002 -5.774088e+001 -1.095665e+002 -5.725063e+001 -9.131287e+001 -1.452622e-001 1.344084e+002
537372593.43148 -6.185111e-001 1.631578e+002 -5.786075e+001 -1.082657e+002 -5.753387e+001 -9.010999e+001 -1.428021e-001 1.343883e+002
537750094.37524 -6.197591e-001 1.629121e+002 -5.750865e+001 -1.112645e+002 -5.699214e+001 -9.197008e+001 -1.433389e-001 1.343660e+002
538127595.31899 -6.283880e-001 1.626808e+002 -5.754810e+001 -1.118688e+002 -5.658423e+001 -9.540228e+001 -1.451535e-001 1.343467e+002
538505096.26274 -6.353264e-001 1.624825e+002 -5.744031e+001 -1.165426e+002 -5.674710e+001 -9.824513e+001 -1.386622e-001 1.343791e+002
538882597.20649 -6.398748e-001 1.622477e+002 -5.720266e+001 -1.140245e+002 -5.621131e+001 -9.491283e+001 -1.390960e-001 1.343162e+002
539260098.15025 -6.516024e-001 1.620109e+002 -5.752456e+001 -1.166517e+002 -5.640224e+001 -9.958444e+001 -1.378526e-001 1.343204e+002
539637599.094 -6.574068e-001 1.618039e+002 -5.768411e+001 -1.135004e+002 -5.638182e+001 -9.887753e+001 -1.403224e-001 1.343006e+002
540015100.03775 -6.675839e-001 1.615600e+002 -5.777715e+001 -1.188849e+002 -5.665937e+001 -1.022940e+002 -1.370033e-001 1.343586e+002
540392600.9815 -6.694297e-001 1.613385e+002 -5.708316e+001 -1.196428e+002 -5.644117e+001 -1.002330e+002 -1.374027e-001 1.342813e+002
540770101.92525 -6.783323e-001 1.611110e+002 -5.683980e+001 -1.175609e+002 -5.638910e+001 -1.030402e+002 -1.360528e-001 1.342966e+002
541147602.86901 -6.807005e-001 1.608809e+002 -5.688528e+001 -1.223496e+002 -5.658547e+001 -1.082352e+002 -1.378378e-001 1.342690e+002
541525103.81276 -6.870616e-001 1.606655e+002 -5.722743e+001 -1.222660e+002 -5.598063e+001 -1.055167e+002 -1.396495e-001 1.342441e+002
541902604.75651 -6.937640e-001 1.604768e+002 -5.657113e+001 -1.255796e+002 -5.611649e+001 -1.074105e+002 -1.389316e-001 1.342447e+002
542280105.70026 -6.980304e-001 1.602201e+002 -5.695160e+001 -1.238719e+002 -5.616972e+001 -1.077059e+002 -1.348535e-001 1.342409e+002
542657606.64402 -7.053400e-001 1.599252e+002 -5.687191e+001 -1.275040e+002 -5.644353e+001 -1.089207e+002 -1.403432e-001 1.342204e+002
543035107.58777 -7.047437e-001 1.597572e+002 -5.702628e+001 -1.279962e+002 -5.639978e+001 -1.093344e+002 -1.380110e-001 1.342098e+002
543412608.53152 -7.118009e-001 1.594949e+002 -5.646442e+001 -1.261789e+002 -5.612800e+001 -1.117010e+002 -1.436002e-001 1.342023e+002
543790109.47527 -7.148777e-001 1.592962e+002 -5.674504e+001 -1.301865e+002 -5.642689e+001 -1.082099e+002 -1.416360e-001 1.341635e+002
544167610.41903 -7.228257e-001 1.590773e+002 -5.651885e+001 -1.324778e+002 -5.599868e+001 -1.109563e+002 -1.395359e-001 1.341498e+002
544545111.36278 -7.211758e-001 1.588144e+002 -5.659832e+001 -1.308528e+002 -5.612191e+001 -1.120836e+002 -1.431380e-001 1.341288e+002
544922612.30653 -7.267746e-001 1.585762e+002 -5.656163e+001 -1.335770e+002 -5.631216e+001 -1.133390e+002 -1.412971e-001 1.341169e+002
545300113.25028 -7.315400e-001 1.583047e+002 -5.638063e+001 -1.342045e+002 -5.620101e+001 -1.135622e+002 -1.422571e-001 1.340779e+002
545677614.19404 -7.355351e-001 1.581227e+002 -5.635110e+001 -1.353849e+002 -5.602240e+001 -1.156663e+002 -1.432021e-001 1.340488e+002
546055115.13779 -7.406936e-001 1.578437e+002 -5.687449e+001 -1.376572e+002 -5.598919e+001 -1.149015e+002 -1.438213e-001 1.340239e+002
546432616.08154 -7.481076e-001 1.576164e+002 -5.658808e+001 -1.400638e+002 -5.613367e+001 -1.159460e+002 -1.436649e-001 1.339752e+002
546810117.02529 -7.529569e-001 1.573147e+002 -5.637198e+001 -1.396144e+002 -5.570135e+001 -1.177522e+002 -1.470347e-001 1.339525e+002
547187617.96904 -7.592071e-001 1.570709e+002 -5.670348e+001 -1.391131e+002 -5.595382e+001 -1.196305e+002 -1.449350e-001 1.339308e+002
547565118.9128 -7.676969e-001 1.568020e+002 -5.631843e+001 -1.415618e+002 -5.591129e+001 -1.177716e+002 -1.476156e-001 1.338641e+002
547942619.85655 -7.797315e-001 1.565410e+002 -5.634659e+001 -1.393064e+002 -5.531317e+001 -1.155215e+002 -1.433946e-001 1.338165e+002
548320120.8003 -7.873082e-001 1.562786e+002 -5.655114e+001 -1.417789e+002 -5.598314e+001 -1.199728e+002 -1.469208e-001 1.337779e+002
548697621.74405 -7.989691e-001 1.560470e+002 -5.639029e+001 -1.466690e+002 -5.573230e+001 -1.227192e+002 -1.451192e-001 1.337117e+002
549075122.68781 -8.109030e-001 1.557992e+002 -5.619630e+001 -1.439022e+002 -5.540014e+001 -1.221276e+002 -1.474164e-001 1.337486e+002
549452623.63156 -8.245674e-001 1.555888e+002 -5.634221e+001 -1.429618e+002 -5.563807e+001 -1.222186e+002 -1.463314e-001 1.336245e+002
549830124.57531 -8.356668e-001 1.553620e+002 -5.634987e+001 -1.433853e+002 -5.521780e+001 -1.219137e+002 -1.475058e-001 1.335866e+002
550207625.51906 -8.433959e-001 1.551044e+002 -5.638538e+001 -1.482427e+002 -5.533815e+001 -1.235881e+002 -1.491949e-001 1.335121e+002
550585126.46282 -8.542886e-001 1.548409e+002 -5.602905e+001 -1.473328e+002 -5.497583e+001 -1.267647e+002 -1.474952e-001 1.334683e+002
550962627.40657 -8.623536e-001 1.546941e+002 -5.574133e+001 -1.496697e+002 -5.469960e+001 -1.251330e+002 -1.469877e-001 1.334231e+002
551340128.35032 -8.717006e-001 1.544182e+002 -5.608553e+001 -1.473985e+002 -5.456813e+001 -1.274227e+002 -1.475719e-001 1.333368e+002
551717629.29407 -8.825406e-001 1.541472e+002 -5.605018e+001 -1.499026e+002 -5.500037e+001 -1.281288e+002 -1.491139e-001 1.332970e+002
552095130.23783 -8.863486e-001 1.539531e+002 -5.612955e+001 -1.504970e+002 -5.481556e+001 -1.307612e+002 -1.472377e-001 1.332325e+002
552472631.18158 -8.956974e-001 1.536774e+002 -5.573027e+001 -1.504831e+002 -5.479176e+001 -1.323427e+002 -1.440591e-001 1.331884e+002
552850132.12533 -9.021505e-001 1.534282e+002 -5.575148e+001 -1.528575e+002 -5.459700e+001 -1.318702e+002 -1.440599e-001 1.331270e+002
553227633.06908 -9.141908e-001 1.531735e+002 -5.604424e+001 -1.531740e+002 -5.454400e+001 -1.312788e+002 -1.476488e-001 1.330762e+002
553605134.01284 -9.223699e-001 1.529246e+002 -5.547832e+001 -1.559306e+002 -5.440289e+001 -1.329978e+002 -1.406803e-001 1.330412e+002
553982634.95659 -9.345949e-001 1.526765e+002 -5.557528e+001 -1.541712e+002 -5.425457e+001 -1.359387e+002 -1.442588e-001 1.329872e+002
554360135.90034 -9.450244e-001 1.524426e+002 -5.570691e+001 -1.593902e+002 -5.430473e+001 -1.327815e+002 -1.428350e-001 1.329417e+002
554737636.84409 -9.567849e-001 1.521828e+002 -5.538145e+001 -1.587524e+002 -5.403520e+001 -1.385170e+002 -1.414539e-001 1.328967e+002
555115137.78784 -9.650803e-001 1.519986e+002 -5.522284e+001 -1.582116e+002 -5.432110e+001 -1.363804e+002 -1.370042e-001 1.328427e+002
