!Agilent Technologies,E8364B,US42250235,A.06.04.32
!Agilent E8364B: A.06.04.32
!Date: Thursday, October 01, 2020 14:23:04
!Correction: S11(Full 2 Port(1,2)) S21(Full 2 Port(1,2)) S12(Full 2 Port(1,2)) S22(Full 2 Port(1,2)) 
!S2P File: Measurements: S11, S21, S12, S22:
# Hz S  dB   R 50
500000000 -1.757803e-001 -1.753590e+002 -5.329968e+001 9.647082e+001 -5.358830e+001 9.556843e+001 -1.427711e-001 1.388838e+002
500377500.94375 -1.802852e-001 -1.754753e+002 -5.335722e+001 9.484933e+001 -5.342339e+001 9.391711e+001 -1.385798e-001 1.388479e+002
500755001.8875 -1.761528e-001 -1.757451e+002 -5.320232e+001 9.516813e+001 -5.344728e+001 9.544597e+001 -1.394284e-001 1.388151e+002
501132502.83126 -1.773170e-001 -1.758797e+002 -5.325392e+001 9.555396e+001 -5.322009e+001 9.455353e+001 -1.394112e-001 1.387815e+002
501510003.77501 -1.830529e-001 -1.760892e+002 -5.346095e+001 9.322616e+001 -5.360836e+001 9.493394e+001 -1.423221e-001 1.387221e+002
501887504.71876 -1.802777e-001 -1.764047e+002 -5.314141e+001 9.607850e+001 -5.316325e+001 9.284145e+001 -1.413760e-001 1.386636e+002
502265005.66251 -1.827282e-001 -1.765629e+002 -5.313179e+001 9.440593e+001 -5.350621e+001 9.080742e+001 -1.424865e-001 1.386297e+002
502642506.60627 -1.818487e-001 -1.768282e+002 -5.277888e+001 9.139627e+001 -5.290860e+001 9.178570e+001 -1.459997e-001 1.386156e+002
503020007.55002 -1.896720e-001 -1.769926e+002 -5.303468e+001 9.162225e+001 -5.311968e+001 9.043445e+001 -1.445625e-001 1.385388e+002
503397508.49377 -1.953162e-001 -1.771672e+002 -5.307784e+001 9.174115e+001 -5.307854e+001 9.138997e+001 -1.428577e-001 1.385088e+002
503775009.43752 -1.955007e-001 -1.774247e+002 -5.269201e+001 9.191791e+001 -5.296961e+001 9.120235e+001 -1.462262e-001 1.384371e+002
504152510.38128 -1.936639e-001 -1.776700e+002 -5.256286e+001 8.881891e+001 -5.317754e+001 9.099892e+001 -1.441530e-001 1.383813e+002
504530011.32503 -1.974667e-001 -1.778123e+002 -5.264081e+001 8.911990e+001 -5.279800e+001 8.891110e+001 -1.411705e-001 1.383414e+002
504907512.26878 -1.989317e-001 -1.780610e+002 -5.272430e+001 8.915253e+001 -5.266700e+001 9.015340e+001 -1.429089e-001 1.383129e+002
505285013.21253 -1.970636e-001 -1.783148e+002 -5.218407e+001 9.011388e+001 -5.292339e+001 8.904049e+001 -1.429556e-001 1.382291e+002
505662514.15629 -2.013009e-001 -1.784899e+002 -5.251270e+001 8.912237e+001 -5.275669e+001 9.002530e+001 -1.387319e-001 1.381894e+002
506040015.10004 -1.998015e-001 -1.787162e+002 -5.243737e+001 9.037511e+001 -5.269108e+001 8.932896e+001 -1.421217e-001 1.381392e+002
506417516.04379 -2.025122e-001 -1.789161e+002 -5.246566e+001 8.698861e+001 -5.235442e+001 9.000048e+001 -1.409286e-001 1.381159e+002
506795016.98754 -2.089361e-001 -1.791024e+002 -5.235502e+001 8.746255e+001 -5.219216e+001 8.719370e+001 -1.385574e-001 1.380408e+002
507172517.93129 -2.085107e-001 -1.793848e+002 -5.228675e+001 8.765803e+001 -5.233372e+001 8.945776e+001 -1.395430e-001 1.380246e+002
507550018.87505 -2.095896e-001 -1.795801e+002 -5.220404e+001 8.857030e+001 -5.203695e+001 8.888297e+001 -1.387496e-001 1.379760e+002
507927519.8188 -2.137190e-001 -1.797800e+002 -5.191815e+001 8.515163e+001 -5.192865e+001 8.747826e+001 -1.359900e-001 1.379207e+002
508305020.76255 -2.166338e-001 1.799897e+002 -5.200756e+001 8.456245e+001 -5.193505e+001 8.530001e+001 -1.358785e-001 1.378747e+002
508682521.7063 -2.179165e-001 1.797900e+002 -5.194102e+001 8.413525e+001 -5.182130e+001 8.763739e+001 -1.355275e-001 1.378708e+002
509060022.65006 -2.211631e-001 1.795265e+002 -5.178850e+001 8.511183e+001 -5.204243e+001 8.722160e+001 -1.361623e-001 1.377918e+002
509437523.59381 -2.207405e-001 1.793137e+002 -5.203699e+001 8.569518e+001 -5.186938e+001 8.585796e+001 -1.369124e-001 1.377467e+002
509815024.53756 -2.274448e-001 1.790821e+002 -5.199976e+001 8.497158e+001 -5.165417e+001 8.442020e+001 -1.336810e-001 1.377077e+002
510192525.48131 -2.302865e-001 1.788700e+002 -5.153996e+001 8.466154e+001 -5.162331e+001 8.566302e+001 -1.325121e-001 1.376505e+002
510570026.42507 -2.336393e-001 1.787391e+002 -5.181913e+001 8.428442e+001 -5.158182e+001 8.379155e+001 -1.320872e-001 1.376399e+002
510947527.36882 -2.348488e-001 1.784654e+002 -5.149661e+001 8.443076e+001 -5.149705e+001 8.288979e+001 -1.323737e-001 1.375916e+002
511325028.31257 -2.363977e-001 1.782644e+002 -5.147424e+001 8.363245e+001 -5.139777e+001 8.258321e+001 -1.300192e-001 1.375631e+002
511702529.25632 -2.389025e-001 1.779920e+002 -5.178670e+001 8.294165e+001 -5.118531e+001 8.291943e+001 -1.290335e-001 1.375181e+002
512080030.20008 -2.406036e-001 1.778529e+002 -5.134766e+001 8.251160e+001 -5.127318e+001 8.244358e+001 -1.305404e-001 1.375037e+002
512457531.14383 -2.430094e-001 1.775605e+002 -5.139494e+001 8.311056e+001 -5.128037e+001 8.198512e+001 -1.320219e-001 1.374773e+002
512835032.08758 -2.478089e-001 1.773293e+002 -5.124083e+001 8.270673e+001 -5.094608e+001 8.071380e+001 -1.299930e-001 1.374076e+002
513212533.03133 -2.500802e-001 1.771286e+002 -5.120502e+001 8.172500e+001 -5.103827e+001 8.129379e+001 -1.307933e-001 1.373891e+002
513590033.97508 -2.557391e-001 1.769458e+002 -5.099564e+001 7.958996e+001 -5.102055e+001 8.020653e+001 -1.303384e-001 1.373756e+002
513967534.91884 -2.583121e-001 1.766753e+002 -5.080613e+001 8.051927e+001 -5.098743e+001 8.092133e+001 -1.333046e-001 1.373433e+002
514345035.86259 -2.566716e-001 1.764197e+002 -5.093357e+001 8.075452e+001 -5.081855e+001 8.069137e+001 -1.337931e-001 1.373384e+002
514722536.80634 -2.610668e-001 1.762137e+002 -5.097830e+001 7.964304e+001 -5.055514e+001 7.821152e+001 -1.343511e-001 1.373065e+002
515100037.75009 -2.641252e-001 1.760559e+002 -5.062258e+001 7.912453e+001 -5.073966e+001 7.808619e+001 -1.342936e-001 1.372573e+002
515477538.69385 -2.691007e-001 1.758209e+002 -5.055830e+001 7.797479e+001 -5.054983e+001 7.761552e+001 -1.362050e-001 1.372566e+002
515855039.6376 -2.705726e-001 1.755734e+002 -5.039744e+001 7.921518e+001 -5.062767e+001 7.616939e+001 -1.332995e-001 1.372353e+002
516232540.58135 -2.749368e-001 1.753392e+002 -5.035147e+001 7.980265e+001 -5.052165e+001 7.603185e+001 -1.363072e-001 1.372017e+002
516610041.5251 -2.808297e-001 1.751222e+002 -5.023256e+001 7.694998e+001 -5.048357e+001 7.627876e+001 -1.375965e-001 1.371985e+002
516987542.46886 -2.855926e-001 1.748615e+002 -5.026285e+001 7.795327e+001 -5.025099e+001 7.668284e+001 -1.359060e-001 1.371872e+002
517365043.41261 -2.896971e-001 1.746393e+002 -4.994234e+001 7.755981e+001 -5.017885e+001 7.552457e+001 -1.385159e-001 1.371420e+002
517742544.35636 -2.873288e-001 1.744089e+002 -5.005498e+001 7.680122e+001 -5.035891e+001 7.463679e+001 -1.414893e-001 1.371397e+002
518120045.30011 -2.911194e-001 1.741578e+002 -4.986845e+001 7.556689e+001 -5.026254e+001 7.575397e+001 -1.412898e-001 1.371107e+002
518497546.24387 -2.975214e-001 1.739238e+002 -4.968017e+001 7.400269e+001 -5.010953e+001 7.457143e+001 -1.433608e-001 1.371090e+002
518875047.18762 -3.002657e-001 1.736801e+002 -4.960908e+001 7.444337e+001 -4.985671e+001 7.478506e+001 -1.445570e-001 1.370852e+002
519252548.13137 -3.052183e-001 1.734354e+002 -4.949476e+001 7.391251e+001 -5.010566e+001 7.301289e+001 -1.433802e-001 1.370473e+002
519630049.07512 -3.078937e-001 1.732010e+002 -4.949875e+001 7.299350e+001 -4.982194e+001 7.351559e+001 -1.455028e-001 1.370056e+002
520007550.01888 -3.141704e-001 1.729428e+002 -4.956271e+001 7.264211e+001 -4.983539e+001 7.374493e+001 -1.487778e-001 1.369947e+002
520385050.96263 -3.162135e-001 1.727172e+002 -4.928088e+001 7.263558e+001 -4.996947e+001 7.301357e+001 -1.483637e-001 1.369543e+002
520762551.90638 -3.229373e-001 1.724704e+002 -4.913071e+001 7.246507e+001 -4.964691e+001 7.256958e+001 -1.446824e-001 1.369587e+002
521140052.85013 -3.221268e-001 1.722211e+002 -4.929372e+001 7.103104e+001 -4.961946e+001 7.227634e+001 -1.472632e-001 1.369191e+002
521517553.79388 -3.323195e-001 1.719986e+002 -4.909871e+001 7.035990e+001 -4.953863e+001 7.124694e+001 -1.484495e-001 1.368791e+002
521895054.73764 -3.329500e-001 1.717066e+002 -4.920922e+001 7.014429e+001 -4.937474e+001 6.945536e+001 -1.492754e-001 1.368581e+002
522272555.68139 -3.412203e-001 1.714715e+002 -4.895753e+001 6.958581e+001 -4.930370e+001 7.109801e+001 -1.485677e-001 1.367966e+002
522650056.62514 -3.459479e-001 1.712657e+002 -4.897211e+001 6.928994e+001 -4.928469e+001 6.975680e+001 -1.533553e-001 1.367762e+002
523027557.56889 -3.486478e-001 1.709869e+002 -4.882311e+001 6.857580e+001 -4.905656e+001 6.952486e+001 -1.559744e-001 1.367238e+002
523405058.51265 -3.551173e-001 1.707431e+002 -4.879533e+001 6.735119e+001 -4.914498e+001 6.805363e+001 -1.570068e-001 1.366997e+002
523782559.4564 -3.633430e-001 1.705333e+002 -4.881103e+001 6.669300e+001 -4.897651e+001 6.886431e+001 -1.566286e-001 1.366484e+002
524160060.40015 -3.657084e-001 1.702176e+002 -4.853057e+001 6.665754e+001 -4.891438e+001 6.809039e+001 -1.613903e-001 1.366176e+002
524537561.3439 -3.688331e-001 1.700737e+002 -4.882035e+001 6.498909e+001 -4.884032e+001 6.676254e+001 -1.578425e-001 1.365568e+002
524915062.28766 -3.745179e-001 1.697355e+002 -4.852891e+001 6.508248e+001 -4.875931e+001 6.686707e+001 -1.583422e-001 1.364696e+002
525292563.23141 -3.812714e-001 1.695277e+002 -4.851654e+001 6.420805e+001 -4.871716e+001 6.538329e+001 -1.632684e-001 1.364292e+002
525670064.17516 -3.842779e-001 1.692587e+002 -4.870340e+001 6.435392e+001 -4.873969e+001 6.486869e+001 -1.595862e-001 1.363721e+002
526047565.11891 -3.925605e-001 1.690198e+002 -4.844529e+001 6.410037e+001 -4.848705e+001 6.531605e+001 -1.616373e-001 1.363111e+002
526425066.06267 -3.954896e-001 1.687474e+002 -4.844720e+001 6.352533e+001 -4.847306e+001 6.419188e+001 -1.615091e-001 1.362557e+002
526802567.00642 -4.043567e-001 1.685602e+002 -4.816794e+001 6.202626e+001 -4.847438e+001 6.500066e+001 -1.640207e-001 1.361952e+002
527180067.95017 -4.115530e-001 1.683260e+002 -4.814158e+001 6.198453e+001 -4.817236e+001 6.408720e+001 -1.613599e-001 1.361046e+002
527557568.89392 -4.148417e-001 1.679999e+002 -4.813744e+001 6.177213e+001 -4.806099e+001 6.325559e+001 -1.659400e-001 1.360508e+002
527935069.83767 -4.239975e-001 1.678616e+002 -4.813374e+001 6.122020e+001 -4.811638e+001 6.379255e+001 -1.614743e-001 1.359823e+002
528312570.78143 -4.290037e-001 1.676085e+002 -4.810786e+001 6.123144e+001 -4.801242e+001 6.271366e+001 -1.647338e-001 1.359002e+002
528690071.72518 -4.334356e-001 1.673406e+002 -4.812566e+001 6.024320e+001 -4.802839e+001 6.138624e+001 -1.638912e-001 1.358521e+002
529067572.66893 -4.425147e-001 1.671004e+002 -4.813542e+001 5.886010e+001 -4.781447e+001 6.140176e+001 -1.630619e-001 1.357678e+002
529445073.61268 -4.470463e-001 1.667781e+002 -4.792087e+001 6.046638e+001 -4.779718e+001 6.003326e+001 -1.624414e-001 1.356908e+002
529822574.55644 -4.554452e-001 1.665345e+002 -4.790542e+001 5.934943e+001 -4.780217e+001 5.947729e+001 -1.652564e-001 1.356253e+002
530200075.50019 -4.591433e-001 1.663588e+002 -4.783641e+001 5.839358e+001 -4.765001e+001 6.035495e+001 -1.644757e-001 1.355529e+002
530577576.44394 -4.694160e-001 1.660829e+002 -4.760675e+001 5.832835e+001 -4.761600e+001 5.911260e+001 -1.656137e-001 1.354865e+002
530955077.38769 -4.754061e-001 1.658306e+002 -4.754900e+001 5.885136e+001 -4.744616e+001 5.871463e+001 -1.659240e-001 1.353592e+002
531332578.33145 -4.875872e-001 1.655944e+002 -4.760290e+001 5.720442e+001 -4.743147e+001 5.966954e+001 -1.694653e-001 1.353503e+002
531710079.2752 -4.966032e-001 1.653188e+002 -4.745585e+001 5.785335e+001 -4.737439e+001 5.850185e+001 -1.645389e-001 1.352691e+002
532087580.21895 -5.045827e-001 1.651256e+002 -4.727664e+001 5.745639e+001 -4.717463e+001 5.786203e+001 -1.671103e-001 1.352186e+002
532465081.1627 -5.146406e-001 1.647864e+002 -4.730096e+001 5.772763e+001 -4.710091e+001 5.741244e+001 -1.678198e-001 1.351569e+002
532842582.10646 -5.177330e-001 1.645544e+002 -4.701686e+001 5.703803e+001 -4.715261e+001 5.660061e+001 -1.646529e-001 1.350875e+002
533220083.05021 -5.303868e-001 1.643363e+002 -4.711045e+001 5.641613e+001 -4.705787e+001 5.652573e+001 -1.676321e-001 1.350255e+002
533597583.99396 -5.330556e-001 1.640156e+002 -4.680921e+001 5.572061e+001 -4.685432e+001 5.666354e+001 -1.647681e-001 1.349435e+002
533975084.93771 -5.519261e-001 1.638057e+002 -4.687756e+001 5.622038e+001 -4.671857e+001 5.464124e+001 -1.678699e-001 1.349140e+002
534352585.88146 -5.557327e-001 1.635288e+002 -4.665574e+001 5.554126e+001 -4.667282e+001 5.535814e+001 -1.639831e-001 1.348830e+002
534730086.82522 -5.655238e-001 1.632207e+002 -4.666797e+001 5.399062e+001 -4.657333e+001 5.480133e+001 -1.602774e-001 1.348185e+002
535107587.76897 -5.776418e-001 1.630522e+002 -4.657023e+001 5.332369e+001 -4.651492e+001 5.440444e+001 -1.660501e-001 1.347947e+002
535485088.71272 -5.878876e-001 1.627717e+002 -4.655439e+001 5.344815e+001 -4.637938e+001 5.247403e+001 -1.615139e-001 1.347029e+002
535862589.65647 -5.967141e-001 1.625115e+002 -4.642153e+001 5.264493e+001 -4.639993e+001 5.239081e+001 -1.644364e-001 1.346682e+002
536240090.60023 -6.037921e-001 1.622375e+002 -4.626550e+001 5.205642e+001 -4.616283e+001 5.326920e+001 -1.656724e-001 1.346391e+002
536617591.54398 -6.130961e-001 1.620051e+002 -4.626197e+001 5.161125e+001 -4.600529e+001 5.118538e+001 -1.634555e-001 1.345946e+002
536995092.48773 -6.246340e-001 1.617884e+002 -4.601680e+001 5.081941e+001 -4.603022e+001 5.059594e+001 -1.647342e-001 1.345484e+002
537372593.43148 -6.364502e-001 1.615117e+002 -4.598044e+001 5.003138e+001 -4.587334e+001 4.984009e+001 -1.597386e-001 1.345138e+002
537750094.37524 -6.483369e-001 1.612282e+002 -4.583582e+001 4.937115e+001 -4.566898e+001 4.949799e+001 -1.569376e-001 1.344884e+002
538127595.31899 -6.576673e-001 1.610060e+002 -4.566870e+001 4.933901e+001 -4.559177e+001 4.864304e+001 -1.610215e-001 1.344453e+002
538505096.26274 -6.666237e-001 1.606599e+002 -4.566334e+001 4.836178e+001 -4.557198e+001 4.836119e+001 -1.603492e-001 1.343958e+002
538882597.20649 -6.831520e-001 1.604698e+002 -4.549324e+001 4.801719e+001 -4.546725e+001 4.731295e+001 -1.600167e-001 1.343745e+002
539260098.15025 -6.937888e-001 1.602074e+002 -4.540954e+001 4.744752e+001 -4.541518e+001 4.691899e+001 -1.548631e-001 1.343384e+002
539637599.094 -7.039316e-001 1.599308e+002 -4.515472e+001 4.667913e+001 -4.533297e+001 4.600947e+001 -1.557701e-001 1.342726e+002
540015100.03775 -7.149922e-001 1.596913e+002 -4.528795e+001 4.603695e+001 -4.525761e+001 4.490321e+001 -1.564593e-001 1.343149e+002
540392600.9815 -7.307330e-001 1.593925e+002 -4.498900e+001 4.550971e+001 -4.516588e+001 4.436619e+001 -1.559557e-001 1.342161e+002
540770101.92525 -7.453845e-001 1.592170e+002 -4.496181e+001 4.391558e+001 -4.501961e+001 4.366661e+001 -1.573766e-001 1.341937e+002
541147602.86901 -7.526553e-001 1.589485e+002 -4.488995e+001 4.381516e+001 -4.499973e+001 4.311946e+001 -1.541285e-001 1.341624e+002
541525103.81276 -7.698190e-001 1.586443e+002 -4.472982e+001 4.351746e+001 -4.489890e+001 4.259161e+001 -1.553002e-001 1.341237e+002
541902604.75651 -7.846547e-001 1.584827e+002 -4.461959e+001 4.149181e+001 -4.481142e+001 4.152119e+001 -1.554044e-001 1.340745e+002
542280105.70026 -7.985249e-001 1.581882e+002 -4.443951e+001 4.171599e+001 -4.471665e+001 4.061653e+001 -1.558628e-001 1.340382e+002
542657606.64402 -8.101681e-001 1.579411e+002 -4.444211e+001 4.053792e+001 -4.461236e+001 4.049667e+001 -1.553881e-001 1.339902e+002
543035107.58777 -8.267788e-001 1.576998e+002 -4.429465e+001 3.969529e+001 -4.449853e+001 3.882162e+001 -1.566795e-001 1.339453e+002
543412608.53152 -8.421783e-001 1.574646e+002 -4.428092e+001 3.916019e+001 -4.453797e+001 3.882547e+001 -1.598395e-001 1.338947e+002
543790109.47527 -8.570563e-001 1.572062e+002 -4.419737e+001 3.891386e+001 -4.442784e+001 3.806018e+001 -1.571410e-001 1.338516e+002
544167610.41903 -8.713065e-001 1.570271e+002 -4.400720e+001 3.814861e+001 -4.432434e+001 3.715819e+001 -1.605943e-001 1.338168e+002
544545111.36278 -8.827758e-001 1.567420e+002 -4.394388e+001 3.658430e+001 -4.435865e+001 3.641003e+001 -1.565962e-001 1.337426e+002
544922612.30653 -9.005054e-001 1.564961e+002 -4.388107e+001 3.549021e+001 -4.415513e+001 3.649010e+001 -1.554517e-001 1.336891e+002
545300113.25028 -9.140245e-001 1.563239e+002 -4.369896e+001 3.506516e+001 -4.412625e+001 3.505428e+001 -1.581103e-001 1.336712e+002
545677614.19404 -9.308448e-001 1.561488e+002 -4.366286e+001 3.451638e+001 -4.402134e+001 3.474947e+001 -1.597582e-001 1.335907e+002
546055115.13779 -9.442071e-001 1.559015e+002 -4.351978e+001 3.290203e+001 -4.396269e+001 3.398846e+001 -1.621279e-001 1.335256e+002
546432616.08154 -9.600980e-001 1.556319e+002 -4.349699e+001 3.227497e+001 -4.384810e+001 3.281514e+001 -1.633874e-001 1.334616e+002
546810117.02529 -9.718511e-001 1.553963e+002 -4.340599e+001 3.100393e+001 -4.370734e+001 3.210797e+001 -1.655194e-001 1.334103e+002
547187617.96904 -9.887065e-001 1.551677e+002 -4.330358e+001 3.007558e+001 -4.372750e+001 3.113562e+001 -1.638815e-001 1.333604e+002
547565118.9128 -1.007316e+000 1.548900e+002 -4.335664e+001 2.972830e+001 -4.358790e+001 3.037287e+001 -1.716853e-001 1.332684e+002
547942619.85655 -1.020467e+000 1.546940e+002 -4.317365e+001 2.812806e+001 -4.359052e+001 2.979655e+001 -1.722425e-001 1.332250e+002
548320120.8003 -1.037653e+000 1.544628e+002 -4.314949e+001 2.681051e+001 -4.344503e+001 2.874974e+001 -1.714307e-001 1.331425e+002
548697621.74405 -1.055361e+000 1.542365e+002 -4.312657e+001 2.620880e+001 -4.339079e+001 2.811481e+001 -1.730417e-001 1.330795e+002
549075122.68781 -1.071893e+000 1.539839e+002 -4.291764e+001 2.485916e+001 -4.339062e+001 2.714024e+001 -1.741120e-001 1.330713e+002
549452623.63156 -1.093407e+000 1.537833e+002 -4.290317e+001 2.443263e+001 -4.331857e+001 2.634218e+001 -1.789024e-001 1.329669e+002
549830124.57531 -1.115154e+000 1.535610e+002 -4.284809e+001 2.311388e+001 -4.325239e+001 2.556021e+001 -1.800050e-001 1.328614e+002
550207625.51906 -1.124291e+000 1.533437e+002 -4.285693e+001 2.230930e+001 -4.308997e+001 2.451443e+001 -1.786550e-001 1.328337e+002
550585126.46282 -1.142695e+000 1.531510e+002 -4.273979e+001 2.164965e+001 -4.305571e+001 2.444100e+001 -1.816561e-001 1.327811e+002
550962627.40657 -1.162136e+000 1.528777e+002 -4.279869e+001 2.087386e+001 -4.287484e+001 2.349947e+001 -1.815162e-001 1.326990e+002
551340128.35032 -1.176175e+000 1.527260e+002 -4.266336e+001 1.966164e+001 -4.294740e+001 2.206109e+001 -1.833137e-001 1.326266e+002
551717629.29407 -1.191727e+000 1.524898e+002 -4.270404e+001 1.821412e+001 -4.288982e+001 2.084219e+001 -1.824889e-001 1.325850e+002
552095130.23783 -1.208236e+000 1.522552e+002 -4.263651e+001 1.748447e+001 -4.290420e+001 2.031433e+001 -1.824501e-001 1.325102e+002
552472631.18158 -1.218695e+000 1.520621e+002 -4.254460e+001 1.653734e+001 -4.278436e+001 1.996978e+001 -1.849159e-001 1.324608e+002
552850132.12533 -1.236800e+000 1.518362e+002 -4.259239e+001 1.667684e+001 -4.276044e+001 1.907309e+001 -1.842774e-001 1.323795e+002
553227633.06908 -1.251354e+000 1.516367e+002 -4.250946e+001 1.522178e+001 -4.265827e+001 1.781532e+001 -1.854138e-001 1.323245e+002
553605134.01284 -1.263825e+000 1.513774e+002 -4.259187e+001 1.489358e+001 -4.256413e+001 1.691240e+001 -1.914487e-001 1.322695e+002
553982634.95659 -1.282339e+000 1.511931e+002 -4.250117e+001 1.432878e+001 -4.255114e+001 1.670187e+001 -1.865066e-001 1.321925e+002
554360135.90034 -1.297990e+000 1.509778e+002 -4.246399e+001 1.323242e+001 -4.250634e+001 1.490888e+001 -1.861783e-001 1.321494e+002
554737636.84409 -1.319609e+000 1.506952e+002 -4.240033e+001 1.260642e+001 -4.233509e+001 1.464381e+001 -1.871593e-001 1.321027e+002
555115137.78784 -1.339970e+000 1.505382e+002 -4.236757e+001 1.178887e+001 -4.236688e+001 1.441819e+001 -1.898414e-001 1.320415e+002
555492638.7316 -1.358433e+000 1.503154e+002 -4.224137e+001 1.165722e+001 -4.228867e+001 1.294926e+001 -1.878860e-001 1.319923e+002
555870139.67535 -1.375173e+000 1.501154e+002 -4.224778e+001 1.025415e+001 -4.220609e+001 1.243935e+001 -1.903187e-001 1.319291e+002
