!Agilent Technologies,E8364B,US42250235,A.06.04.32
!Agilent E8364B: A.06.04.32
!Date: Thursday, October 01, 2020 14:29:04
!Correction: S11(Full 2 Port(1,2)) S21(Full 2 Port(1,2)) S12(Full 2 Port(1,2)) S22(Full 2 Port(1,2)) 
!S2P File: Measurements: S11, S21, S12, S22:
# Hz S  dB   R 50
500000000 -2.797160e-001 -1.753703e+002 -5.431514e+001 3.706847e+001 -5.488499e+001 3.664590e+001 -2.080341e-001 1.374728e+002
500377500.94375 -2.850813e-001 -1.754804e+002 -5.424563e+001 3.760305e+001 -5.462859e+001 3.445853e+001 -2.073033e-001 1.374361e+002
500755001.8875 -2.839411e-001 -1.757477e+002 -5.458073e+001 3.641819e+001 -5.474562e+001 3.490540e+001 -2.080044e-001 1.373898e+002
501132502.83126 -2.850903e-001 -1.758794e+002 -5.422498e+001 3.504123e+001 -5.440993e+001 3.164759e+001 -2.091643e-001 1.373288e+002
501510003.77501 -2.917382e-001 -1.761013e+002 -5.411538e+001 3.453219e+001 -5.435534e+001 3.253167e+001 -2.112726e-001 1.372870e+002
501887504.71876 -2.943551e-001 -1.763762e+002 -5.428788e+001 3.453434e+001 -5.403444e+001 3.200369e+001 -2.097073e-001 1.372273e+002
502265005.66251 -3.000151e-001 -1.765233e+002 -5.416083e+001 3.219730e+001 -5.450573e+001 3.066033e+001 -2.108559e-001 1.371665e+002
502642506.60627 -2.999233e-001 -1.767698e+002 -5.380890e+001 3.232564e+001 -5.425112e+001 3.058756e+001 -2.129254e-001 1.371648e+002
503020007.55002 -3.081455e-001 -1.769236e+002 -5.345856e+001 3.125339e+001 -5.425889e+001 3.021032e+001 -2.086118e-001 1.370611e+002
503397508.49377 -3.158299e-001 -1.771345e+002 -5.375278e+001 3.001937e+001 -5.399592e+001 3.012861e+001 -2.107893e-001 1.370344e+002
503775009.43752 -3.181777e-001 -1.772717e+002 -5.377386e+001 3.006262e+001 -5.372823e+001 2.965902e+001 -2.104436e-001 1.369647e+002
504152510.38128 -3.184776e-001 -1.775433e+002 -5.332917e+001 2.988182e+001 -5.386624e+001 2.964255e+001 -2.103205e-001 1.368915e+002
504530011.32503 -3.273120e-001 -1.776769e+002 -5.359046e+001 2.504237e+001 -5.404008e+001 2.833080e+001 -2.082667e-001 1.368421e+002
504907512.26878 -3.287236e-001 -1.779094e+002 -5.345832e+001 2.814142e+001 -5.356936e+001 2.692261e+001 -2.091945e-001 1.367931e+002
505285013.21253 -3.272387e-001 -1.781404e+002 -5.352498e+001 2.631447e+001 -5.412491e+001 2.557895e+001 -2.096477e-001 1.367184e+002
505662514.15629 -3.356186e-001 -1.783005e+002 -5.322781e+001 2.207726e+001 -5.358023e+001 2.449685e+001 -2.101595e-001 1.366891e+002
506040015.10004 -3.358876e-001 -1.785129e+002 -5.313579e+001 2.337593e+001 -5.342293e+001 2.433852e+001 -2.052820e-001 1.366150e+002
506417516.04379 -3.395429e-001 -1.786900e+002 -5.298486e+001 2.413926e+001 -5.336350e+001 2.280309e+001 -2.080158e-001 1.365864e+002
506795016.98754 -3.464079e-001 -1.788831e+002 -5.303485e+001 2.130477e+001 -5.335939e+001 2.436075e+001 -2.072274e-001 1.365191e+002
507172517.93129 -3.464482e-001 -1.791193e+002 -5.309205e+001 1.986393e+001 -5.327520e+001 2.130659e+001 -2.058442e-001 1.364805e+002
507550018.87505 -3.520426e-001 -1.792842e+002 -5.295803e+001 2.207898e+001 -5.296426e+001 1.907678e+001 -2.090180e-001 1.364386e+002
507927519.8188 -3.544884e-001 -1.795169e+002 -5.312384e+001 2.201042e+001 -5.312407e+001 2.043585e+001 -2.027974e-001 1.363553e+002
508305020.76255 -3.577216e-001 -1.796460e+002 -5.276801e+001 1.685882e+001 -5.303913e+001 2.110570e+001 -2.026116e-001 1.363320e+002
508682521.7063 -3.579932e-001 -1.798603e+002 -5.307732e+001 1.816515e+001 -5.269936e+001 2.019026e+001 -2.020127e-001 1.363265e+002
509060022.65006 -3.668164e-001 1.798972e+002 -5.277480e+001 1.756826e+001 -5.308564e+001 1.862143e+001 -2.051541e-001 1.362577e+002
509437523.59381 -3.673176e-001 1.797383e+002 -5.273262e+001 1.659149e+001 -5.292415e+001 1.725829e+001 -2.019837e-001 1.362119e+002
509815024.53756 -3.730427e-001 1.795196e+002 -5.244837e+001 1.388061e+001 -5.274142e+001 1.771425e+001 -2.013519e-001 1.361875e+002
510192525.48131 -3.737212e-001 1.793162e+002 -5.256004e+001 1.568742e+001 -5.277357e+001 1.584473e+001 -1.964824e-001 1.361353e+002
510570026.42507 -3.813599e-001 1.791612e+002 -5.254496e+001 1.475630e+001 -5.245250e+001 1.257596e+001 -1.954335e-001 1.361330e+002
510947527.36882 -3.835616e-001 1.789084e+002 -5.252360e+001 1.533786e+001 -5.241340e+001 1.602041e+001 -1.983274e-001 1.360682e+002
511325028.31257 -3.852434e-001 1.787554e+002 -5.253551e+001 1.144490e+001 -5.263562e+001 1.216923e+001 -1.965702e-001 1.360451e+002
511702529.25632 -3.896202e-001 1.785419e+002 -5.259190e+001 1.381631e+001 -5.238874e+001 1.373136e+001 -1.957339e-001 1.359921e+002
512080030.20008 -3.926943e-001 1.784117e+002 -5.257486e+001 1.323579e+001 -5.226906e+001 1.154365e+001 -1.970223e-001 1.359761e+002
512457531.14383 -3.928687e-001 1.781481e+002 -5.256799e+001 1.109733e+001 -5.241066e+001 1.126021e+001 -1.979922e-001 1.359743e+002
512835032.08758 -3.978896e-001 1.779448e+002 -5.229090e+001 9.674833e+000 -5.224921e+001 1.058185e+001 -2.006809e-001 1.359178e+002
513212533.03133 -4.013194e-001 1.778067e+002 -5.240717e+001 1.061996e+001 -5.228333e+001 9.055814e+000 -1.992276e-001 1.359042e+002
513590033.97508 -4.076447e-001 1.776194e+002 -5.227843e+001 9.142077e+000 -5.224596e+001 9.100512e+000 -1.983092e-001 1.358941e+002
513967534.91884 -4.090575e-001 1.773536e+002 -5.204232e+001 1.038085e+001 -5.217900e+001 8.195189e+000 -2.020654e-001 1.358611e+002
514345035.86259 -4.076895e-001 1.771820e+002 -5.227813e+001 7.916375e+000 -5.190068e+001 8.473840e+000 -1.990803e-001 1.358504e+002
514722536.80634 -4.114034e-001 1.769618e+002 -5.234408e+001 7.706726e+000 -5.198792e+001 7.056915e+000 -2.049227e-001 1.358392e+002
515100037.75009 -4.127205e-001 1.768202e+002 -5.224623e+001 7.673722e+000 -5.196281e+001 6.689192e+000 -2.030816e-001 1.358189e+002
515477538.69385 -4.176431e-001 1.766004e+002 -5.210118e+001 5.953053e+000 -5.194315e+001 3.056168e+000 -2.051351e-001 1.358141e+002
515855039.6376 -4.214592e-001 1.763897e+002 -5.191095e+001 7.056710e+000 -5.196563e+001 4.646836e+000 -2.043318e-001 1.357816e+002
516232540.58135 -4.279155e-001 1.761664e+002 -5.175422e+001 4.703501e+000 -5.208575e+001 3.190609e+000 -2.069724e-001 1.357835e+002
516610041.5251 -4.284637e-001 1.759681e+002 -5.173095e+001 4.368344e+000 -5.196961e+001 4.742502e+000 -2.043787e-001 1.357854e+002
516987542.46886 -4.356599e-001 1.757499e+002 -5.156152e+001 4.125745e+000 -5.154564e+001 2.629768e+000 -2.026990e-001 1.357444e+002
517365043.41261 -4.388037e-001 1.755531e+002 -5.142223e+001 3.098521e+000 -5.172582e+001 1.975983e+000 -2.050802e-001 1.357350e+002
517742544.35636 -4.390900e-001 1.753400e+002 -5.109548e+001 2.580382e+000 -5.158873e+001 1.960904e+000 -2.061652e-001 1.357458e+002
518120045.30011 -4.418655e-001 1.751188e+002 -5.119940e+001 1.533908e+000 -5.172509e+001 -6.249791e-001 -2.084616e-001 1.357061e+002
518497546.24387 -4.455330e-001 1.749102e+002 -5.112337e+001 1.314627e+000 -5.151868e+001 3.853604e-001 -2.101367e-001 1.357090e+002
518875047.18762 -4.488958e-001 1.747312e+002 -5.124409e+001 -1.406121e+000 -5.153474e+001 -1.041282e+000 -2.127274e-001 1.356875e+002
519252548.13137 -4.535870e-001 1.744444e+002 -5.125861e+001 -1.658469e+000 -5.138457e+001 -9.001359e-001 -2.123154e-001 1.356668e+002
519630049.07512 -4.525785e-001 1.742710e+002 -5.104918e+001 -7.994629e-001 -5.132125e+001 -1.338658e+000 -2.143769e-001 1.356374e+002
520007550.01888 -4.618899e-001 1.740623e+002 -5.099838e+001 -3.749996e+000 -5.133307e+001 -3.088000e+000 -2.128583e-001 1.356187e+002
520385050.96263 -4.630892e-001 1.738523e+002 -5.068917e+001 -4.056409e+000 -5.148878e+001 -3.282663e+000 -2.169276e-001 1.355995e+002
520762551.90638 -4.683483e-001 1.736366e+002 -5.082498e+001 -4.917028e+000 -5.133220e+001 -4.108222e+000 -2.148031e-001 1.355889e+002
521140052.85013 -4.709924e-001 1.734203e+002 -5.070640e+001 -4.446120e+000 -5.129890e+001 -5.575842e+000 -2.159651e-001 1.355465e+002
521517553.79388 -4.761173e-001 1.732402e+002 -5.090739e+001 -5.815383e+000 -5.116025e+001 -7.151286e+000 -2.169274e-001 1.355145e+002
521895054.73764 -4.792745e-001 1.729836e+002 -5.088644e+001 -7.405794e+000 -5.128812e+001 -6.265258e+000 -2.173319e-001 1.355026e+002
522272555.68139 -4.825340e-001 1.727865e+002 -5.070778e+001 -1.012800e+001 -5.088158e+001 -7.325183e+000 -2.169059e-001 1.354364e+002
522650056.62514 -4.844404e-001 1.725719e+002 -5.088621e+001 -1.103636e+001 -5.106276e+001 -7.480302e+000 -2.180031e-001 1.353634e+002
523027557.56889 -4.878183e-001 1.723696e+002 -5.082150e+001 -1.053082e+001 -5.114301e+001 -8.936492e+000 -2.212533e-001 1.353724e+002
523405058.51265 -4.934250e-001 1.721637e+002 -5.074717e+001 -1.033251e+001 -5.094386e+001 -9.798849e+000 -2.219109e-001 1.353493e+002
523782559.4564 -4.959426e-001 1.719479e+002 -5.066100e+001 -1.077884e+001 -5.087259e+001 -9.553149e+000 -2.224350e-001 1.353094e+002
524160060.40015 -4.957282e-001 1.717565e+002 -5.096836e+001 -1.452256e+001 -5.100224e+001 -1.044783e+001 -2.249857e-001 1.352492e+002
524537561.3439 -4.976431e-001 1.715405e+002 -5.073822e+001 -1.329240e+001 -5.119369e+001 -1.041208e+001 -2.249887e-001 1.351919e+002
524915062.28766 -4.998260e-001 1.713115e+002 -5.059828e+001 -1.512102e+001 -5.093782e+001 -1.221342e+001 -2.261582e-001 1.351249e+002
525292563.23141 -5.061229e-001 1.711143e+002 -5.073245e+001 -1.465973e+001 -5.058789e+001 -1.256232e+001 -2.281863e-001 1.350774e+002
525670064.17516 -5.047273e-001 1.708714e+002 -5.108574e+001 -1.663178e+001 -5.069869e+001 -1.293184e+001 -2.265276e-001 1.350165e+002
526047565.11891 -5.124744e-001 1.706669e+002 -5.088104e+001 -1.643387e+001 -5.062128e+001 -1.496499e+001 -2.242022e-001 1.349740e+002
526425066.06267 -5.112441e-001 1.704353e+002 -5.084424e+001 -1.651616e+001 -5.079334e+001 -1.595244e+001 -2.263346e-001 1.349162e+002
526802567.00642 -5.177208e-001 1.703093e+002 -5.105817e+001 -1.887873e+001 -5.059534e+001 -1.629995e+001 -2.268810e-001 1.348585e+002
527180067.95017 -5.206255e-001 1.700447e+002 -5.097805e+001 -1.724268e+001 -5.081365e+001 -1.696234e+001 -2.272137e-001 1.347663e+002
527557568.89392 -5.217848e-001 1.697888e+002 -5.080949e+001 -1.947780e+001 -5.053847e+001 -1.853944e+001 -2.298804e-001 1.347205e+002
527935069.83767 -5.229347e-001 1.696321e+002 -5.077459e+001 -2.033451e+001 -5.046744e+001 -1.975212e+001 -2.230189e-001 1.346123e+002
528312570.78143 -5.274307e-001 1.694662e+002 -5.065883e+001 -2.061862e+001 -5.052959e+001 -1.902975e+001 -2.271385e-001 1.345749e+002
528690071.72518 -5.295927e-001 1.692169e+002 -5.064083e+001 -2.308538e+001 -5.054309e+001 -2.148695e+001 -2.305929e-001 1.345336e+002
529067572.66893 -5.325860e-001 1.689773e+002 -5.079216e+001 -2.076660e+001 -5.072673e+001 -1.926689e+001 -2.289273e-001 1.344603e+002
529445073.61268 -5.346003e-001 1.687144e+002 -5.094768e+001 -2.187682e+001 -5.088017e+001 -2.170629e+001 -2.284015e-001 1.343882e+002
529822574.55644 -5.356494e-001 1.685101e+002 -5.082645e+001 -2.203125e+001 -5.047882e+001 -2.169597e+001 -2.271204e-001 1.343385e+002
530200075.50019 -5.418099e-001 1.683664e+002 -5.069260e+001 -2.084774e+001 -5.056123e+001 -2.107390e+001 -2.260511e-001 1.342896e+002
530577576.44394 -5.455487e-001 1.681240e+002 -5.051611e+001 -2.129325e+001 -5.050969e+001 -2.390248e+001 -2.288416e-001 1.342378e+002
530955077.38769 -5.532463e-001 1.678831e+002 -5.072139e+001 -2.394440e+001 -5.072150e+001 -2.274720e+001 -2.246789e-001 1.341650e+002
531332578.33145 -5.560060e-001 1.676997e+002 -5.048212e+001 -2.389964e+001 -5.048380e+001 -2.352120e+001 -2.259431e-001 1.341178e+002
531710079.2752 -5.624562e-001 1.674608e+002 -5.050357e+001 -2.249232e+001 -5.050356e+001 -2.255226e+001 -2.227462e-001 1.340735e+002
532087580.21895 -5.618330e-001 1.672587e+002 -5.064377e+001 -2.451178e+001 -5.038928e+001 -2.398498e+001 -2.235382e-001 1.340207e+002
532465081.1627 -5.662708e-001 1.669927e+002 -5.061438e+001 -2.334159e+001 -5.033855e+001 -2.350959e+001 -2.225122e-001 1.339909e+002
532842582.10646 -5.691319e-001 1.667977e+002 -5.039058e+001 -2.452570e+001 -5.015741e+001 -2.545085e+001 -2.198528e-001 1.339274e+002
533220083.05021 -5.756836e-001 1.666178e+002 -5.020851e+001 -2.549699e+001 -5.009211e+001 -2.465771e+001 -2.221214e-001 1.338997e+002
533597583.99396 -5.752909e-001 1.663275e+002 -5.023385e+001 -2.730084e+001 -4.990712e+001 -2.659355e+001 -2.230257e-001 1.338636e+002
533975084.93771 -5.833133e-001 1.661496e+002 -5.054078e+001 -2.586113e+001 -5.016560e+001 -2.610564e+001 -2.199864e-001 1.338138e+002
534352585.88146 -5.842357e-001 1.659098e+002 -5.036162e+001 -2.695483e+001 -4.997588e+001 -2.708272e+001 -2.160972e-001 1.337832e+002
534730086.82522 -5.879893e-001 1.656289e+002 -5.015900e+001 -2.811609e+001 -5.004670e+001 -2.687459e+001 -2.150644e-001 1.337654e+002
535107587.76897 -5.918688e-001 1.655206e+002 -5.001137e+001 -2.666456e+001 -4.986825e+001 -2.785862e+001 -2.178805e-001 1.336881e+002
535485088.71272 -5.984980e-001 1.652982e+002 -4.999115e+001 -2.829563e+001 -5.005938e+001 -2.804699e+001 -2.096781e-001 1.336974e+002
535862589.65647 -6.020633e-001 1.650428e+002 -4.971091e+001 -2.953157e+001 -4.985741e+001 -2.780794e+001 -2.108890e-001 1.336717e+002
536240090.60023 -6.023000e-001 1.648066e+002 -4.988705e+001 -2.839820e+001 -4.988795e+001 -2.884601e+001 -2.067801e-001 1.336012e+002
536617591.54398 -6.040607e-001 1.646302e+002 -4.982298e+001 -2.996874e+001 -4.954951e+001 -2.968665e+001 -2.079370e-001 1.336422e+002
536995092.48773 -6.047268e-001 1.644105e+002 -4.970512e+001 -3.125339e+001 -4.977752e+001 -2.951141e+001 -2.103535e-001 1.335974e+002
537372593.43148 -6.126174e-001 1.641815e+002 -4.970469e+001 -3.017025e+001 -4.960999e+001 -3.079145e+001 -2.067080e-001 1.335859e+002
537750094.37524 -6.150407e-001 1.639285e+002 -4.961396e+001 -3.163921e+001 -4.962761e+001 -3.108319e+001 -2.044320e-001 1.335784e+002
538127595.31899 -6.185778e-001 1.637364e+002 -4.954516e+001 -3.278701e+001 -4.937793e+001 -3.256471e+001 -2.078038e-001 1.335365e+002
538505096.26274 -6.195337e-001 1.634323e+002 -4.939713e+001 -3.416251e+001 -4.929286e+001 -3.415151e+001 -2.062887e-001 1.335144e+002
538882597.20649 -6.250517e-001 1.632718e+002 -4.925568e+001 -3.328829e+001 -4.931415e+001 -3.353358e+001 -2.030986e-001 1.334601e+002
539260098.15025 -6.312366e-001 1.630739e+002 -4.946245e+001 -3.291161e+001 -4.944484e+001 -3.452225e+001 -2.005301e-001 1.334827e+002
539637599.094 -6.282919e-001 1.627983e+002 -4.940871e+001 -3.561129e+001 -4.926731e+001 -3.538469e+001 -2.033962e-001 1.334630e+002
540015100.03775 -6.303536e-001 1.625974e+002 -4.934357e+001 -3.619186e+001 -4.898270e+001 -3.696725e+001 -2.044392e-001 1.334781e+002
540392600.9815 -6.339732e-001 1.623412e+002 -4.919322e+001 -3.743475e+001 -4.921951e+001 -3.861081e+001 -2.018230e-001 1.334048e+002
540770101.92525 -6.399078e-001 1.621934e+002 -4.908323e+001 -3.699104e+001 -4.925533e+001 -3.790953e+001 -2.035949e-001 1.333885e+002
541147602.86901 -6.380153e-001 1.619382e+002 -4.898632e+001 -3.788105e+001 -4.897854e+001 -3.974570e+001 -2.033253e-001 1.333482e+002
541525103.81276 -6.412296e-001 1.616780e+002 -4.906507e+001 -3.875072e+001 -4.913864e+001 -4.036599e+001 -2.010906e-001 1.333132e+002
541902604.75651 -6.446061e-001 1.615403e+002 -4.893289e+001 -3.944140e+001 -4.921752e+001 -4.153705e+001 -2.027396e-001 1.332869e+002
542280105.70026 -6.458203e-001 1.612567e+002 -4.876860e+001 -4.070497e+001 -4.907307e+001 -4.109556e+001 -2.012134e-001 1.332509e+002
542657606.64402 -6.455325e-001 1.610204e+002 -4.907600e+001 -4.122438e+001 -4.906699e+001 -4.186804e+001 -2.021347e-001 1.332098e+002
543035107.58777 -6.454322e-001 1.607964e+002 -4.881750e+001 -4.158671e+001 -4.905519e+001 -4.197715e+001 -2.020861e-001 1.331633e+002
543412608.53152 -6.512323e-001 1.605799e+002 -4.882445e+001 -4.291553e+001 -4.911064e+001 -4.338011e+001 -2.058078e-001 1.331235e+002
543790109.47527 -6.513117e-001 1.603330e+002 -4.899870e+001 -4.339120e+001 -4.898674e+001 -4.466393e+001 -2.060005e-001 1.330761e+002
544167610.41903 -6.508404e-001 1.601146e+002 -4.876462e+001 -4.333222e+001 -4.897188e+001 -4.396656e+001 -2.080370e-001 1.330611e+002
544545111.36278 -6.527789e-001 1.598574e+002 -4.874995e+001 -4.445655e+001 -4.905024e+001 -4.418954e+001 -2.050175e-001 1.329846e+002
544922612.30653 -6.565448e-001 1.596671e+002 -4.859711e+001 -4.557738e+001 -4.887352e+001 -4.564717e+001 -2.051759e-001 1.329325e+002
545300113.25028 -6.546531e-001 1.594479e+002 -4.868355e+001 -4.666167e+001 -4.901927e+001 -4.581370e+001 -2.072574e-001 1.329187e+002
545677614.19404 -6.599145e-001 1.592461e+002 -4.854718e+001 -4.653979e+001 -4.887926e+001 -4.653033e+001 -2.110197e-001 1.328384e+002
546055115.13779 -6.612133e-001 1.589888e+002 -4.870253e+001 -4.649876e+001 -4.881917e+001 -4.751502e+001 -2.133745e-001 1.327748e+002
546432616.08154 -6.629407e-001 1.587229e+002 -4.859743e+001 -4.824877e+001 -4.885838e+001 -4.806683e+001 -2.125471e-001 1.326773e+002
546810117.02529 -6.606112e-001 1.584817e+002 -4.856088e+001 -4.948311e+001 -4.885946e+001 -4.820173e+001 -2.164533e-001 1.326617e+002
547187617.96904 -6.656245e-001 1.582366e+002 -4.857766e+001 -4.922339e+001 -4.875420e+001 -4.882032e+001 -2.136733e-001 1.326232e+002
547565118.9128 -6.722503e-001 1.579442e+002 -4.861771e+001 -4.925444e+001 -4.888530e+001 -4.905751e+001 -2.197180e-001 1.325410e+002
547942619.85655 -6.729935e-001 1.577151e+002 -4.847549e+001 -5.040518e+001 -4.876864e+001 -5.016940e+001 -2.179859e-001 1.325073e+002
548320120.8003 -6.776658e-001 1.574751e+002 -4.831709e+001 -5.098673e+001 -4.876743e+001 -5.004626e+001 -2.178188e-001 1.324441e+002
548697621.74405 -6.787715e-001 1.572197e+002 -4.843317e+001 -5.221384e+001 -4.870886e+001 -5.121611e+001 -2.212658e-001 1.323732e+002
549075122.68781 -6.846092e-001 1.569580e+002 -4.831809e+001 -5.320168e+001 -4.867387e+001 -5.097769e+001 -2.240576e-001 1.323643e+002
549452623.63156 -6.878119e-001 1.566882e+002 -4.834309e+001 -5.338680e+001 -4.859549e+001 -5.208577e+001 -2.258728e-001 1.322693e+002
549830124.57531 -6.949994e-001 1.564373e+002 -4.831198e+001 -5.440937e+001 -4.840374e+001 -5.256919e+001 -2.276019e-001 1.322233e+002
550207625.51906 -6.926032e-001 1.562025e+002 -4.832555e+001 -5.350532e+001 -4.854860e+001 -5.336991e+001 -2.256910e-001 1.321670e+002
550585126.46282 -6.998771e-001 1.559586e+002 -4.847458e+001 -5.673805e+001 -4.842569e+001 -5.370585e+001 -2.286006e-001 1.321100e+002
550962627.40657 -7.054099e-001 1.556661e+002 -4.811928e+001 -5.597287e+001 -4.837909e+001 -5.548906e+001 -2.268149e-001 1.320565e+002
551340128.35032 -7.072530e-001 1.554589e+002 -4.830183e+001 -5.626819e+001 -4.838427e+001 -5.481208e+001 -2.278196e-001 1.320299e+002
551717629.29407 -7.112461e-001 1.551666e+002 -4.846521e+001 -5.739279e+001 -4.833000e+001 -5.546656e+001 -2.258995e-001 1.319572e+002
552095130.23783 -7.159644e-001 1.549387e+002 -4.816465e+001 -5.699026e+001 -4.836585e+001 -5.774373e+001 -2.285983e-001 1.318958e+002
552472631.18158 -7.152546e-001 1.546501e+002 -4.853098e+001 -5.726793e+001 -4.840437e+001 -5.765953e+001 -2.271431e-001 1.318572e+002
552850132.12533 -7.222974e-001 1.543763e+002 -4.837126e+001 -5.880780e+001 -4.836234e+001 -5.705228e+001 -2.276152e-001 1.318200e+002
553227633.06908 -7.266071e-001 1.541498e+002 -4.825522e+001 -5.840905e+001 -4.827663e+001 -5.727760e+001 -2.275690e-001 1.317751e+002
553605134.01284 -7.321774e-001 1.538646e+002 -4.831278e+001 -6.007827e+001 -4.832136e+001 -5.823334e+001 -2.373899e-001 1.317292e+002
553982634.95659 -7.348616e-001 1.536183e+002 -4.826622e+001 -5.928387e+001 -4.826835e+001 -5.816638e+001 -2.315870e-001 1.316858e+002
554360135.90034 -7.393970e-001 1.533690e+002 -4.827757e+001 -5.927942e+001 -4.819154e+001 -5.798372e+001 -2.298720e-001 1.316458e+002
554737636.84409 -7.473719e-001 1.530535e+002 -4.814264e+001 -6.079473e+001 -4.800294e+001 -5.961290e+001 -2.295412e-001 1.316322e+002
555115137.78784 -7.530512e-001 1.528394e+002 -4.807065e+001 -6.108513e+001 -4.802526e+001 -6.009312e+001 -2.296891e-001 1.315857e+002
