!Agilent Technologies,E8364B,US42250235,A.06.04.32
!Agilent E8364B: A.06.04.32
!Date: Thursday, October 01, 2020 14:33:46
!Correction: S11(Full 2 Port(1,2)) S21(Full 2 Port(1,2)) S12(Full 2 Port(1,2)) S22(Full 2 Port(1,2)) 
!S2P File: Measurements: S11, S21, S12, S22:
# Hz S  dB   R 50
500000000 -2.154813e-001 -1.752068e+002 -5.825731e+001 -5.013316e+001 -5.859632e+001 -5.100011e+001 -1.923106e-001 1.378772e+002
500377500.94375 -2.192761e-001 -1.753227e+002 -5.855035e+001 -4.992425e+001 -5.836770e+001 -5.305031e+001 -1.913797e-001 1.378537e+002
500755001.8875 -2.138176e-001 -1.755697e+002 -5.830594e+001 -5.630693e+001 -5.896178e+001 -4.719099e+001 -1.902996e-001 1.378127e+002
501132502.83126 -2.183360e-001 -1.757647e+002 -5.809023e+001 -4.973837e+001 -5.814264e+001 -5.493779e+001 -1.928356e-001 1.377657e+002
501510003.77501 -2.229552e-001 -1.759204e+002 -5.802029e+001 -5.020134e+001 -5.787374e+001 -5.070446e+001 -1.943935e-001 1.377059e+002
501887504.71876 -2.200809e-001 -1.762307e+002 -5.757826e+001 -5.407734e+001 -5.896795e+001 -5.311917e+001 -1.937137e-001 1.376343e+002
502265005.66251 -2.283090e-001 -1.763352e+002 -5.781508e+001 -5.556218e+001 -5.841247e+001 -5.710247e+001 -1.944688e-001 1.375959e+002
502642506.60627 -2.242223e-001 -1.766277e+002 -5.854637e+001 -5.406779e+001 -5.852100e+001 -5.680474e+001 -1.969845e-001 1.375927e+002
503020007.55002 -2.304931e-001 -1.767559e+002 -5.810389e+001 -5.542647e+001 -5.830558e+001 -5.618643e+001 -1.957325e-001 1.374816e+002
503397508.49377 -2.362554e-001 -1.769653e+002 -5.819141e+001 -5.753398e+001 -5.820447e+001 -5.784857e+001 -1.956731e-001 1.374705e+002
503775009.43752 -2.349977e-001 -1.772074e+002 -5.795147e+001 -5.725009e+001 -5.856875e+001 -5.480544e+001 -1.963320e-001 1.374072e+002
504152510.38128 -2.375467e-001 -1.774132e+002 -5.742870e+001 -5.534569e+001 -5.790645e+001 -5.787760e+001 -1.958008e-001 1.373290e+002
504530011.32503 -2.417168e-001 -1.776386e+002 -5.745959e+001 -5.682271e+001 -5.833468e+001 -5.987022e+001 -1.963239e-001 1.372874e+002
504907512.26878 -2.418353e-001 -1.778031e+002 -5.723806e+001 -5.844354e+001 -5.811330e+001 -5.652708e+001 -1.934666e-001 1.372493e+002
505285013.21253 -2.390261e-001 -1.780719e+002 -5.743715e+001 -5.592890e+001 -5.800899e+001 -5.502382e+001 -1.944283e-001 1.371917e+002
505662514.15629 -2.422057e-001 -1.782354e+002 -5.773681e+001 -5.977468e+001 -5.702494e+001 -5.896294e+001 -1.909034e-001 1.371520e+002
506040015.10004 -2.447032e-001 -1.784547e+002 -5.726307e+001 -6.161380e+001 -5.730506e+001 -5.839810e+001 -1.913279e-001 1.370992e+002
506417516.04379 -2.457349e-001 -1.786850e+002 -5.702430e+001 -6.206565e+001 -5.764682e+001 -5.746986e+001 -1.912072e-001 1.370603e+002
506795016.98754 -2.505786e-001 -1.788141e+002 -5.756803e+001 -6.076630e+001 -5.723366e+001 -6.000620e+001 -1.915743e-001 1.369992e+002
507172517.93129 -2.507554e-001 -1.791071e+002 -5.684981e+001 -6.003590e+001 -5.747316e+001 -6.146070e+001 -1.895812e-001 1.369789e+002
507550018.87505 -2.564279e-001 -1.792477e+002 -5.663828e+001 -6.322635e+001 -5.737587e+001 -6.314337e+001 -1.920533e-001 1.369238e+002
507927519.8188 -2.565045e-001 -1.795223e+002 -5.681250e+001 -6.457552e+001 -5.687421e+001 -6.127043e+001 -1.883336e-001 1.368755e+002
508305020.76255 -2.574715e-001 -1.797077e+002 -5.696910e+001 -6.465414e+001 -5.685392e+001 -6.146865e+001 -1.884741e-001 1.368450e+002
508682521.7063 -2.582110e-001 -1.798741e+002 -5.686862e+001 -6.509741e+001 -5.725520e+001 -6.323317e+001 -1.831056e-001 1.368009e+002
509060022.65006 -2.621844e-001 1.798483e+002 -5.713838e+001 -6.832600e+001 -5.704275e+001 -6.530349e+001 -1.868135e-001 1.367663e+002
509437523.59381 -2.630453e-001 1.796315e+002 -5.687871e+001 -6.360537e+001 -5.692455e+001 -6.500220e+001 -1.849209e-001 1.367332e+002
509815024.53756 -2.656931e-001 1.794270e+002 -5.684703e+001 -6.768026e+001 -5.652407e+001 -6.675203e+001 -1.848414e-001 1.367142e+002
510192525.48131 -2.722890e-001 1.792043e+002 -5.658410e+001 -6.631034e+001 -5.707684e+001 -6.513599e+001 -1.804546e-001 1.366710e+002
510570026.42507 -2.768530e-001 1.790805e+002 -5.654929e+001 -6.665657e+001 -5.660354e+001 -6.935709e+001 -1.801023e-001 1.366403e+002
510947527.36882 -2.697523e-001 1.787951e+002 -5.679294e+001 -6.838986e+001 -5.620149e+001 -7.030483e+001 -1.844658e-001 1.365984e+002
511325028.31257 -2.788433e-001 1.786580e+002 -5.677313e+001 -7.157259e+001 -5.692700e+001 -6.745892e+001 -1.804989e-001 1.365760e+002
511702529.25632 -2.796730e-001 1.783826e+002 -5.668729e+001 -6.938362e+001 -5.580214e+001 -6.991677e+001 -1.794974e-001 1.365343e+002
512080030.20008 -2.809991e-001 1.782086e+002 -5.660903e+001 -7.196562e+001 -5.628983e+001 -6.925703e+001 -1.788477e-001 1.365212e+002
512457531.14383 -2.823103e-001 1.779960e+002 -5.644171e+001 -7.047204e+001 -5.596975e+001 -6.759058e+001 -1.828590e-001 1.365128e+002
512835032.08758 -2.834931e-001 1.777222e+002 -5.634755e+001 -7.121195e+001 -5.624973e+001 -7.194010e+001 -1.811360e-001 1.364709e+002
513212533.03133 -2.873709e-001 1.775431e+002 -5.621918e+001 -7.262627e+001 -5.590799e+001 -7.301180e+001 -1.809189e-001 1.364476e+002
513590033.97508 -2.936135e-001 1.773464e+002 -5.630505e+001 -7.105947e+001 -5.612814e+001 -7.248879e+001 -1.833412e-001 1.364491e+002
513967534.91884 -2.916524e-001 1.771350e+002 -5.622912e+001 -7.407395e+001 -5.592845e+001 -7.385892e+001 -1.809373e-001 1.364142e+002
514345035.86259 -2.898110e-001 1.768639e+002 -5.608527e+001 -7.340744e+001 -5.614682e+001 -7.351099e+001 -1.825058e-001 1.364145e+002
514722536.80634 -2.953550e-001 1.766316e+002 -5.588870e+001 -7.216163e+001 -5.626143e+001 -7.602554e+001 -1.838836e-001 1.364172e+002
515100037.75009 -2.984667e-001 1.765233e+002 -5.621288e+001 -7.421707e+001 -5.600736e+001 -7.557660e+001 -1.847854e-001 1.363729e+002
515477538.69385 -3.001752e-001 1.762219e+002 -5.579181e+001 -7.316505e+001 -5.576513e+001 -7.590510e+001 -1.838082e-001 1.363770e+002
515855039.6376 -3.016527e-001 1.760466e+002 -5.632339e+001 -7.510304e+001 -5.587846e+001 -7.923034e+001 -1.859387e-001 1.363419e+002
516232540.58135 -3.064380e-001 1.757806e+002 -5.579718e+001 -7.582529e+001 -5.604935e+001 -7.845851e+001 -1.852326e-001 1.363425e+002
516610041.5251 -3.077719e-001 1.755325e+002 -5.582335e+001 -7.627224e+001 -5.600544e+001 -7.683465e+001 -1.846294e-001 1.363410e+002
516987542.46886 -3.131007e-001 1.753497e+002 -5.548230e+001 -7.487844e+001 -5.579342e+001 -7.673518e+001 -1.862710e-001 1.363057e+002
517365043.41261 -3.166942e-001 1.751237e+002 -5.540351e+001 -7.676287e+001 -5.554863e+001 -7.984133e+001 -1.855337e-001 1.363171e+002
517742544.35636 -3.163309e-001 1.747980e+002 -5.563361e+001 -7.737177e+001 -5.557818e+001 -7.897449e+001 -1.878548e-001 1.363181e+002
518120045.30011 -3.232555e-001 1.746479e+002 -5.532453e+001 -7.564950e+001 -5.545143e+001 -7.900504e+001 -1.878428e-001 1.362880e+002
518497546.24387 -3.237942e-001 1.743451e+002 -5.511015e+001 -7.783974e+001 -5.546379e+001 -7.759237e+001 -1.891326e-001 1.362803e+002
518875047.18762 -3.269226e-001 1.741324e+002 -5.507462e+001 -7.857620e+001 -5.550298e+001 -7.867317e+001 -1.896135e-001 1.362715e+002
519252548.13137 -3.317289e-001 1.739041e+002 -5.493150e+001 -7.914503e+001 -5.567831e+001 -7.823407e+001 -1.914341e-001 1.362551e+002
519630049.07512 -3.380837e-001 1.736918e+002 -5.459890e+001 -7.963173e+001 -5.536909e+001 -8.230998e+001 -1.894384e-001 1.362303e+002
520007550.01888 -3.405421e-001 1.734195e+002 -5.461342e+001 -8.261102e+001 -5.487867e+001 -8.119518e+001 -1.920404e-001 1.362153e+002
520385050.96263 -3.449217e-001 1.731966e+002 -5.447057e+001 -8.109846e+001 -5.498935e+001 -8.072925e+001 -1.938922e-001 1.361868e+002
520762551.90638 -3.514975e-001 1.730062e+002 -5.464056e+001 -8.231297e+001 -5.496590e+001 -8.178882e+001 -1.924678e-001 1.361862e+002
521140052.85013 -3.522050e-001 1.726665e+002 -5.440457e+001 -8.344785e+001 -5.487473e+001 -8.230322e+001 -1.924380e-001 1.361361e+002
521517553.79388 -3.591275e-001 1.724869e+002 -5.435590e+001 -8.528776e+001 -5.468109e+001 -8.382712e+001 -1.957498e-001 1.361306e+002
521895054.73764 -3.631369e-001 1.722755e+002 -5.464804e+001 -8.477827e+001 -5.463276e+001 -8.629238e+001 -1.949972e-001 1.361135e+002
522272555.68139 -3.676921e-001 1.720225e+002 -5.423857e+001 -8.422626e+001 -5.446388e+001 -8.592901e+001 -1.948590e-001 1.360478e+002
522650056.62514 -3.726180e-001 1.718111e+002 -5.432683e+001 -8.794704e+001 -5.455438e+001 -8.495808e+001 -1.964343e-001 1.359870e+002
523027557.56889 -3.767893e-001 1.715556e+002 -5.399996e+001 -8.851955e+001 -5.435067e+001 -8.548156e+001 -1.989150e-001 1.359982e+002
523405058.51265 -3.821764e-001 1.713506e+002 -5.448886e+001 -8.903927e+001 -5.451946e+001 -8.776646e+001 -1.969929e-001 1.359097e+002
523782559.4564 -3.875014e-001 1.710733e+002 -5.417233e+001 -9.036038e+001 -5.430517e+001 -8.930820e+001 -2.011682e-001 1.359287e+002
524160060.40015 -3.896300e-001 1.708190e+002 -5.408884e+001 -8.980817e+001 -5.411454e+001 -8.978363e+001 -2.056583e-001 1.358866e+002
524537561.3439 -3.936780e-001 1.706589e+002 -5.369230e+001 -8.967292e+001 -5.380584e+001 -8.947431e+001 -2.005948e-001 1.358241e+002
524915062.28766 -4.001681e-001 1.703504e+002 -5.410073e+001 -9.109216e+001 -5.391159e+001 -9.070810e+001 -2.018724e-001 1.357457e+002
525292563.23141 -4.023632e-001 1.701504e+002 -5.378366e+001 -9.317038e+001 -5.405980e+001 -9.011057e+001 -2.055444e-001 1.357074e+002
525670064.17516 -4.084836e-001 1.698993e+002 -5.392912e+001 -9.179536e+001 -5.409322e+001 -8.985775e+001 -2.026860e-001 1.356619e+002
526047565.11891 -4.121935e-001 1.696382e+002 -5.379199e+001 -9.361440e+001 -5.435966e+001 -9.146047e+001 -2.004278e-001 1.356004e+002
526425066.06267 -4.180321e-001 1.693979e+002 -5.347327e+001 -9.224539e+001 -5.368319e+001 -9.012180e+001 -2.017485e-001 1.355289e+002
526802567.00642 -4.269437e-001 1.692199e+002 -5.383994e+001 -9.470294e+001 -5.361898e+001 -9.282592e+001 -2.040326e-001 1.354611e+002
527180067.95017 -4.311281e-001 1.689872e+002 -5.381955e+001 -9.657307e+001 -5.369827e+001 -9.363964e+001 -2.021359e-001 1.354032e+002
527557568.89392 -4.327786e-001 1.686812e+002 -5.379521e+001 -9.621863e+001 -5.346451e+001 -9.239742e+001 -2.050799e-001 1.353364e+002
527935069.83767 -4.426382e-001 1.685424e+002 -5.348565e+001 -9.554002e+001 -5.336666e+001 -9.554967e+001 -2.015863e-001 1.352712e+002
528312570.78143 -4.474452e-001 1.682478e+002 -5.361209e+001 -9.696539e+001 -5.322190e+001 -9.699290e+001 -2.044571e-001 1.351821e+002
528690071.72518 -4.529807e-001 1.680730e+002 -5.326822e+001 -9.771180e+001 -5.316251e+001 -9.538714e+001 -2.072715e-001 1.351216e+002
529067572.66893 -4.565521e-001 1.678251e+002 -5.346052e+001 -9.966527e+001 -5.346642e+001 -9.926981e+001 -2.036469e-001 1.350469e+002
529445073.61268 -4.642802e-001 1.675496e+002 -5.330947e+001 -9.875368e+001 -5.354913e+001 -9.855344e+001 -2.038744e-001 1.349865e+002
529822574.55644 -4.698052e-001 1.672937e+002 -5.337212e+001 -1.000251e+002 -5.303882e+001 -9.887165e+001 -2.040761e-001 1.348586e+002
530200075.50019 -4.740906e-001 1.670847e+002 -5.322587e+001 -9.905134e+001 -5.308238e+001 -9.874818e+001 -2.039607e-001 1.348281e+002
530577576.44394 -4.772437e-001 1.667677e+002 -5.316510e+001 -9.939204e+001 -5.345333e+001 -9.932588e+001 -2.074501e-001 1.347626e+002
530955077.38769 -4.860200e-001 1.665909e+002 -5.312885e+001 -1.007053e+002 -5.319923e+001 -1.012857e+002 -2.035015e-001 1.347034e+002
531332578.33145 -4.938445e-001 1.663688e+002 -5.314063e+001 -1.012613e+002 -5.312752e+001 -1.008173e+002 -2.050558e-001 1.346280e+002
531710079.2752 -5.009786e-001 1.660996e+002 -5.289253e+001 -9.958710e+001 -5.295226e+001 -1.015274e+002 -2.025279e-001 1.345726e+002
532087580.21895 -5.086460e-001 1.658924e+002 -5.281058e+001 -1.023335e+002 -5.265162e+001 -1.036584e+002 -2.021246e-001 1.345122e+002
532465081.1627 -5.143175e-001 1.656087e+002 -5.287479e+001 -1.033138e+002 -5.269630e+001 -1.030943e+002 -2.030297e-001 1.344724e+002
532842582.10646 -5.207385e-001 1.653521e+002 -5.298985e+001 -1.035215e+002 -5.270437e+001 -1.028423e+002 -1.983530e-001 1.343820e+002
533220083.05021 -5.312968e-001 1.650981e+002 -5.297659e+001 -1.043919e+002 -5.263963e+001 -1.030271e+002 -2.034945e-001 1.343522e+002
533597583.99396 -5.352952e-001 1.648740e+002 -5.268709e+001 -1.039494e+002 -5.279979e+001 -1.045602e+002 -1.975479e-001 1.342357e+002
533975084.93771 -5.507165e-001 1.646188e+002 -5.255663e+001 -1.039637e+002 -5.277886e+001 -1.054422e+002 -1.999246e-001 1.342501e+002
534352585.88146 -5.550565e-001 1.643422e+002 -5.293418e+001 -1.049220e+002 -5.251841e+001 -1.047778e+002 -1.945140e-001 1.341973e+002
534730086.82522 -5.586069e-001 1.640915e+002 -5.254186e+001 -1.070184e+002 -5.238920e+001 -1.062836e+002 -1.917944e-001 1.341464e+002
535107587.76897 -5.671886e-001 1.639114e+002 -5.252481e+001 -1.071603e+002 -5.215137e+001 -1.065939e+002 -1.954661e-001 1.341260e+002
535485088.71272 -5.818655e-001 1.636864e+002 -5.212289e+001 -1.070215e+002 -5.211349e+001 -1.059554e+002 -1.908706e-001 1.340596e+002
535862589.65647 -5.861582e-001 1.634403e+002 -5.202012e+001 -1.072548e+002 -5.181034e+001 -1.063821e+002 -1.903726e-001 1.340198e+002
536240090.60023 -5.911828e-001 1.631586e+002 -5.199433e+001 -1.074746e+002 -5.224930e+001 -1.079538e+002 -1.902131e-001 1.339909e+002
536617591.54398 -5.982651e-001 1.629660e+002 -5.206071e+001 -1.089830e+002 -5.195647e+001 -1.100840e+002 -1.905976e-001 1.339621e+002
536995092.48773 -6.070245e-001 1.627250e+002 -5.174548e+001 -1.098348e+002 -5.170653e+001 -1.099428e+002 -1.908602e-001 1.339485e+002
537372593.43148 -6.142635e-001 1.624724e+002 -5.156195e+001 -1.104220e+002 -5.141532e+001 -1.095075e+002 -1.875875e-001 1.339034e+002
537750094.37524 -6.245121e-001 1.622155e+002 -5.159396e+001 -1.116459e+002 -5.156579e+001 -1.106997e+002 -1.855496e-001 1.338836e+002
538127595.31899 -6.307622e-001 1.619953e+002 -5.143589e+001 -1.111343e+002 -5.167160e+001 -1.127523e+002 -1.866805e-001 1.338618e+002
538505096.26274 -6.383894e-001 1.617338e+002 -5.143995e+001 -1.127288e+002 -5.138125e+001 -1.142225e+002 -1.877948e-001 1.338290e+002
538882597.20649 -6.492447e-001 1.614838e+002 -5.111603e+001 -1.142119e+002 -5.129345e+001 -1.149400e+002 -1.834151e-001 1.338153e+002
539260098.15025 -6.583912e-001 1.612675e+002 -5.095712e+001 -1.142221e+002 -5.131436e+001 -1.160803e+002 -1.806767e-001 1.337814e+002
539637599.094 -6.655895e-001 1.610034e+002 -5.110649e+001 -1.162820e+002 -5.113147e+001 -1.150649e+002 -1.807782e-001 1.337703e+002
540015100.03775 -6.710629e-001 1.607720e+002 -5.107976e+001 -1.172607e+002 -5.111953e+001 -1.176434e+002 -1.824987e-001 1.337803e+002
540392600.9815 -6.860222e-001 1.605230e+002 -5.099364e+001 -1.162833e+002 -5.107158e+001 -1.181478e+002 -1.810409e-001 1.337201e+002
540770101.92525 -6.972761e-001 1.602601e+002 -5.074686e+001 -1.166564e+002 -5.105500e+001 -1.179713e+002 -1.803857e-001 1.336956e+002
541147602.86901 -7.020278e-001 1.600869e+002 -5.091192e+001 -1.182994e+002 -5.093587e+001 -1.201374e+002 -1.817611e-001 1.336740e+002
541525103.81276 -7.109127e-001 1.597572e+002 -5.082424e+001 -1.202325e+002 -5.084125e+001 -1.205775e+002 -1.810542e-001 1.336309e+002
541902604.75651 -7.271299e-001 1.595750e+002 -5.073835e+001 -1.207052e+002 -5.076011e+001 -1.200761e+002 -1.816888e-001 1.336138e+002
542280105.70026 -7.357860e-001 1.593438e+002 -5.060632e+001 -1.209229e+002 -5.066940e+001 -1.214848e+002 -1.793637e-001 1.335851e+002
542657606.64402 -7.439601e-001 1.591064e+002 -5.056976e+001 -1.209100e+002 -5.080119e+001 -1.234648e+002 -1.815003e-001 1.335471e+002
543035107.58777 -7.557089e-001 1.588730e+002 -5.052741e+001 -1.222094e+002 -5.058531e+001 -1.256099e+002 -1.806647e-001 1.335130e+002
543412608.53152 -7.676060e-001 1.586414e+002 -5.032225e+001 -1.231495e+002 -5.069756e+001 -1.247166e+002 -1.826927e-001 1.334772e+002
543790109.47527 -7.749612e-001 1.583889e+002 -5.040618e+001 -1.239146e+002 -5.064591e+001 -1.269995e+002 -1.817695e-001 1.334402e+002
544167610.41903 -7.875720e-001 1.582008e+002 -5.030427e+001 -1.258706e+002 -5.048171e+001 -1.256525e+002 -1.846489e-001 1.334195e+002
544545111.36278 -7.952576e-001 1.579625e+002 -5.022559e+001 -1.252268e+002 -5.035652e+001 -1.265278e+002 -1.838349e-001 1.333565e+002
544922612.30653 -8.032157e-001 1.577101e+002 -5.004659e+001 -1.261632e+002 -5.024783e+001 -1.283024e+002 -1.813777e-001 1.333118e+002
545300113.25028 -8.118397e-001 1.575248e+002 -5.006827e+001 -1.270270e+002 -5.027664e+001 -1.277986e+002 -1.863274e-001 1.333020e+002
545677614.19404 -8.219160e-001 1.573195e+002 -4.986032e+001 -1.282740e+002 -5.032360e+001 -1.292244e+002 -1.881108e-001 1.332274e+002
546055115.13779 -8.313537e-001 1.570740e+002 -4.979563e+001 -1.289194e+002 -5.024175e+001 -1.293280e+002 -1.894152e-001 1.331730e+002
546432616.08154 -8.387501e-001 1.567961e+002 -4.977842e+001 -1.296604e+002 -5.015233e+001 -1.313676e+002 -1.896309e-001 1.331077e+002
546810117.02529 -8.455276e-001 1.566127e+002 -4.963321e+001 -1.311073e+002 -5.022182e+001 -1.317529e+002 -1.944725e-001 1.330522e+002
547187617.96904 -8.559492e-001 1.563228e+002 -4.986906e+001 -1.320296e+002 -5.014312e+001 -1.315258e+002 -1.917024e-001 1.330120e+002
547565118.9128 -8.697830e-001 1.561109e+002 -4.965834e+001 -1.323902e+002 -5.000962e+001 -1.318394e+002 -1.984735e-001 1.329426e+002
547942619.85655 -8.784838e-001 1.558778e+002 -4.972469e+001 -1.340239e+002 -4.998182e+001 -1.339112e+002 -1.989409e-001 1.328843e+002
548320120.8003 -8.898662e-001 1.556338e+002 -4.967647e+001 -1.337785e+002 -4.990546e+001 -1.338678e+002 -2.020169e-001 1.328132e+002
548697621.74405 -9.023606e-001 1.554223e+002 -4.938892e+001 -1.355691e+002 -4.987864e+001 -1.365004e+002 -2.037192e-001 1.327508e+002
549075122.68781 -9.173685e-001 1.552125e+002 -4.948027e+001 -1.370573e+002 -4.991624e+001 -1.354041e+002 -2.050266e-001 1.327239e+002
549452623.63156 -9.268959e-001 1.549543e+002 -4.915386e+001 -1.374304e+002 -4.956226e+001 -1.362999e+002 -2.104142e-001 1.326369e+002
549830124.57531 -9.436662e-001 1.547333e+002 -4.925513e+001 -1.393077e+002 -4.978761e+001 -1.367072e+002 -2.083330e-001 1.325658e+002
550207625.51906 -9.515386e-001 1.545286e+002 -4.916971e+001 -1.398903e+002 -4.962582e+001 -1.386854e+002 -2.099529e-001 1.325158e+002
550585126.46282 -9.631633e-001 1.543039e+002 -4.911273e+001 -1.400165e+002 -4.946094e+001 -1.389355e+002 -2.122936e-001 1.324467e+002
550962627.40657 -9.705785e-001 1.540175e+002 -4.897478e+001 -1.413208e+002 -4.948750e+001 -1.399138e+002 -2.148417e-001 1.323768e+002
551340128.35032 -9.823987e-001 1.538896e+002 -4.902877e+001 -1.426585e+002 -4.940818e+001 -1.408596e+002 -2.152834e-001 1.322573e+002
551717629.29407 -9.933992e-001 1.535852e+002 -4.900002e+001 -1.417998e+002 -4.932415e+001 -1.409702e+002 -2.133108e-001 1.322609e+002
552095130.23783 -1.003703e+000 1.533401e+002 -4.905666e+001 -1.430390e+002 -4.909411e+001 -1.420770e+002 -2.156853e-001 1.322070e+002
552472631.18158 -1.007820e+000 1.531248e+002 -4.902523e+001 -1.447696e+002 -4.932477e+001 -1.431603e+002 -2.176510e-001 1.321419e+002
552850132.12533 -1.022252e+000 1.529228e+002 -4.906980e+001 -1.459213e+002 -4.902264e+001 -1.444747e+002 -2.182546e-001 1.320582e+002
553227633.06908 -1.032267e+000 1.526653e+002 -4.897860e+001 -1.456545e+002 -4.906376e+001 -1.441493e+002 -2.169020e-001 1.320166e+002
553605134.01284 -1.041824e+000 1.524063e+002 -4.895082e+001 -1.463096e+002 -4.913057e+001 -1.468934e+002 -2.227557e-001 1.319622e+002
553982634.95659 -1.055736e+000 1.522175e+002 -4.884161e+001 -1.477684e+002 -4.906035e+001 -1.465531e+002 -2.199929e-001 1.318968e+002
554360135.90034 -1.061625e+000 1.519434e+002 -4.889288e+001 -1.477200e+002 -4.897010e+001 -1.466787e+002 -2.175343e-001 1.318508e+002
554737636.84409 -1.080977e+000 1.516883e+002 -4.883247e+001 -1.478899e+002 -4.887215e+001 -1.478548e+002 -2.164978e-001 1.318213e+002
555115137.78784 -1.094679e+000 1.514709e+002 -4.875647e+001 -1.488215e+002 -4.884045e+001 -1.489863e+002 -2.204597e-001 1.317558e+002
