!Agilent Technologies,E8364B,US42250235,A.06.04.32
!Agilent E8364B: A.06.04.32
!Date: Thursday, October 01, 2020 14:39:28
!Correction: S11(Full 2 Port(1,2)) S21(Full 2 Port(1,2)) S12(Full 2 Port(1,2)) S22(Full 2 Port(1,2)) 
!S2P File: Measurements: S11, S21, S12, S22:
# Hz S  dB   R 50
500000000 -2.338779e-001 -1.751982e+002 -6.051345e+001 1.600841e+002 -6.099944e+001 1.609854e+002 -2.271309e-001 1.378011e+002
500377500.94375 -2.391194e-001 -1.753783e+002 -6.132014e+001 1.560291e+002 -6.117991e+001 1.642800e+002 -2.265874e-001 1.377409e+002
500755001.8875 -2.387720e-001 -1.755520e+002 -6.090937e+001 1.546840e+002 -6.030972e+001 1.613332e+002 -2.256585e-001 1.377066e+002
501132502.83126 -2.413911e-001 -1.758004e+002 -6.047842e+001 1.587315e+002 -6.060829e+001 1.600468e+002 -2.290654e-001 1.376162e+002
501510003.77501 -2.427631e-001 -1.759722e+002 -6.014692e+001 1.535567e+002 -6.010461e+001 1.609042e+002 -2.333076e-001 1.374842e+002
501887504.71876 -2.438065e-001 -1.762326e+002 -6.028538e+001 1.525698e+002 -6.070089e+001 1.578850e+002 -2.321641e-001 1.374721e+002
502265005.66251 -2.513481e-001 -1.763997e+002 -6.077897e+001 1.521867e+002 -6.083784e+001 1.572263e+002 -2.327550e-001 1.373934e+002
502642506.60627 -2.490128e-001 -1.766445e+002 -5.935670e+001 1.556798e+002 -6.068552e+001 1.591898e+002 -2.365944e-001 1.373829e+002
503020007.55002 -2.519314e-001 -1.767923e+002 -6.016602e+001 1.520810e+002 -6.058797e+001 1.535240e+002 -2.331355e-001 1.372299e+002
503397508.49377 -2.615424e-001 -1.770186e+002 -6.025302e+001 1.521984e+002 -6.012698e+001 1.581129e+002 -2.345310e-001 1.371916e+002
503775009.43752 -2.606728e-001 -1.771517e+002 -5.938565e+001 1.473199e+002 -6.030486e+001 1.528788e+002 -2.344929e-001 1.370976e+002
504152510.38128 -2.576015e-001 -1.774317e+002 -6.022587e+001 1.495657e+002 -6.072958e+001 1.516520e+002 -2.373556e-001 1.370130e+002
504530011.32503 -2.638863e-001 -1.775905e+002 -5.996629e+001 1.481469e+002 -6.023195e+001 1.503579e+002 -2.321537e-001 1.369530e+002
504907512.26878 -2.671349e-001 -1.778088e+002 -6.015099e+001 1.425150e+002 -5.971790e+001 1.571878e+002 -2.338454e-001 1.368768e+002
505285013.21253 -2.659891e-001 -1.779915e+002 -5.943623e+001 1.427839e+002 -6.071906e+001 1.490594e+002 -2.333342e-001 1.367687e+002
505662514.15629 -2.711681e-001 -1.781683e+002 -5.969920e+001 1.405053e+002 -6.031964e+001 1.470558e+002 -2.352734e-001 1.367117e+002
506040015.10004 -2.717686e-001 -1.784445e+002 -5.980117e+001 1.419432e+002 -5.982788e+001 1.500124e+002 -2.322077e-001 1.366301e+002
506417516.04379 -2.749246e-001 -1.786422e+002 -5.987249e+001 1.422150e+002 -5.970077e+001 1.522136e+002 -2.337825e-001 1.365460e+002
506795016.98754 -2.790422e-001 -1.787941e+002 -5.949261e+001 1.366133e+002 -6.002718e+001 1.488887e+002 -2.334602e-001 1.364637e+002
507172517.93129 -2.758295e-001 -1.790427e+002 -6.004847e+001 1.400067e+002 -6.012552e+001 1.481308e+002 -2.321814e-001 1.364157e+002
507550018.87505 -2.810338e-001 -1.792218e+002 -5.972341e+001 1.405338e+002 -6.056530e+001 1.499150e+002 -2.324126e-001 1.363347e+002
507927519.8188 -2.837263e-001 -1.794431e+002 -5.963914e+001 1.392450e+002 -5.975495e+001 1.468102e+002 -2.303724e-001 1.362465e+002
508305020.76255 -2.849811e-001 -1.795862e+002 -5.955545e+001 1.363947e+002 -5.923540e+001 1.451072e+002 -2.299221e-001 1.361978e+002
508682521.7063 -2.854046e-001 -1.797580e+002 -5.954491e+001 1.332369e+002 -5.953197e+001 1.400041e+002 -2.273203e-001 1.361600e+002
509060022.65006 -2.893887e-001 1.799283e+002 -5.935210e+001 1.355930e+002 -5.965049e+001 1.409184e+002 -2.287968e-001 1.360550e+002
509437523.59381 -2.883451e-001 1.797581e+002 -5.883007e+001 1.312880e+002 -5.872791e+001 1.446261e+002 -2.294267e-001 1.360033e+002
509815024.53756 -2.904174e-001 1.795278e+002 -5.920447e+001 1.362015e+002 -5.903699e+001 1.423943e+002 -2.254957e-001 1.359436e+002
510192525.48131 -2.932072e-001 1.793087e+002 -5.886636e+001 1.349893e+002 -5.880804e+001 1.384078e+002 -2.222183e-001 1.358932e+002
510570026.42507 -2.955228e-001 1.791428e+002 -5.968930e+001 1.325405e+002 -5.954310e+001 1.424323e+002 -2.229934e-001 1.358536e+002
510947527.36882 -2.949421e-001 1.789059e+002 -5.911200e+001 1.305016e+002 -5.901928e+001 1.382415e+002 -2.251023e-001 1.357625e+002
511325028.31257 -2.995422e-001 1.787113e+002 -5.890541e+001 1.279647e+002 -5.894075e+001 1.381339e+002 -2.206169e-001 1.357364e+002
511702529.25632 -3.027613e-001 1.785191e+002 -5.878009e+001 1.331817e+002 -5.942738e+001 1.337267e+002 -2.222875e-001 1.356625e+002
512080030.20008 -3.026960e-001 1.782961e+002 -5.916364e+001 1.297583e+002 -5.883658e+001 1.390764e+002 -2.191240e-001 1.356532e+002
512457531.14383 -3.034553e-001 1.780996e+002 -5.925701e+001 1.330385e+002 -5.889301e+001 1.338394e+002 -2.233396e-001 1.356135e+002
512835032.08758 -3.047679e-001 1.778499e+002 -5.956569e+001 1.252359e+002 -5.911241e+001 1.324581e+002 -2.203648e-001 1.355451e+002
513212533.03133 -3.084358e-001 1.776790e+002 -5.877638e+001 1.219691e+002 -5.892760e+001 1.369026e+002 -2.202737e-001 1.355136e+002
513590033.97508 -3.122769e-001 1.775188e+002 -5.907308e+001 1.310860e+002 -5.894999e+001 1.335041e+002 -2.228235e-001 1.355007e+002
513967534.91884 -3.134577e-001 1.772145e+002 -5.906175e+001 1.252004e+002 -5.915860e+001 1.309717e+002 -2.180146e-001 1.354450e+002
514345035.86259 -3.141336e-001 1.770156e+002 -5.900903e+001 1.296025e+002 -5.873202e+001 1.341252e+002 -2.194178e-001 1.354364e+002
514722536.80634 -3.142644e-001 1.767630e+002 -5.868722e+001 1.241623e+002 -5.967404e+001 1.277954e+002 -2.211140e-001 1.354119e+002
515100037.75009 -3.177206e-001 1.766082e+002 -5.910136e+001 1.234827e+002 -5.873227e+001 1.306196e+002 -2.224154e-001 1.353685e+002
515477538.69385 -3.209862e-001 1.764035e+002 -5.869414e+001 1.242142e+002 -5.856088e+001 1.275613e+002 -2.219608e-001 1.353593e+002
515855039.6376 -3.234655e-001 1.761553e+002 -5.855562e+001 1.251887e+002 -5.868184e+001 1.305544e+002 -2.223847e-001 1.353229e+002
516232540.58135 -3.291492e-001 1.759087e+002 -5.867799e+001 1.265160e+002 -5.907603e+001 1.275901e+002 -2.240943e-001 1.353204e+002
516610041.5251 -3.287671e-001 1.756983e+002 -5.877854e+001 1.251479e+002 -5.840469e+001 1.295483e+002 -2.235346e-001 1.353068e+002
516987542.46886 -3.369536e-001 1.754752e+002 -5.852217e+001 1.223999e+002 -5.844762e+001 1.266609e+002 -2.203953e-001 1.352837e+002
517365043.41261 -3.407191e-001 1.752539e+002 -5.824566e+001 1.216626e+002 -5.850261e+001 1.250414e+002 -2.224250e-001 1.352679e+002
517742544.35636 -3.413623e-001 1.750209e+002 -5.795051e+001 1.184087e+002 -5.871782e+001 1.253019e+002 -2.235941e-001 1.352670e+002
518120045.30011 -3.446670e-001 1.747808e+002 -5.844100e+001 1.259021e+002 -5.880526e+001 1.254850e+002 -2.235858e-001 1.352573e+002
518497546.24387 -3.455753e-001 1.745384e+002 -5.812159e+001 1.205731e+002 -5.851918e+001 1.238068e+002 -2.249704e-001 1.352391e+002
518875047.18762 -3.491152e-001 1.743773e+002 -5.762882e+001 1.161584e+002 -5.849219e+001 1.220596e+002 -2.266574e-001 1.352233e+002
519252548.13137 -3.530688e-001 1.740664e+002 -5.798819e+001 1.150853e+002 -5.807137e+001 1.186908e+002 -2.242941e-001 1.351999e+002
519630049.07512 -3.550068e-001 1.738793e+002 -5.776546e+001 1.160500e+002 -5.839285e+001 1.232218e+002 -2.302003e-001 1.351624e+002
520007550.01888 -3.635315e-001 1.736898e+002 -5.821381e+001 1.157725e+002 -5.829798e+001 1.191345e+002 -2.262141e-001 1.351276e+002
520385050.96263 -3.647932e-001 1.734330e+002 -5.808128e+001 1.177427e+002 -5.845441e+001 1.216179e+002 -2.308128e-001 1.351149e+002
520762551.90638 -3.698271e-001 1.732218e+002 -5.776180e+001 1.112666e+002 -5.796016e+001 1.181176e+002 -2.280952e-001 1.351046e+002
521140052.85013 -3.699715e-001 1.729472e+002 -5.738256e+001 1.160067e+002 -5.816969e+001 1.186398e+002 -2.266244e-001 1.350515e+002
521517553.79388 -3.778240e-001 1.727520e+002 -5.762344e+001 1.137868e+002 -5.839735e+001 1.198433e+002 -2.276012e-001 1.350151e+002
521895054.73764 -3.817700e-001 1.725176e+002 -5.766294e+001 1.119585e+002 -5.801894e+001 1.171562e+002 -2.283942e-001 1.350030e+002
522272555.68139 -3.890140e-001 1.722933e+002 -5.706732e+001 1.116833e+002 -5.784042e+001 1.201352e+002 -2.271564e-001 1.349313e+002
522650056.62514 -3.877806e-001 1.720715e+002 -5.807378e+001 1.097662e+002 -5.808132e+001 1.188848e+002 -2.306315e-001 1.349215e+002
523027557.56889 -3.889193e-001 1.718017e+002 -5.785963e+001 1.063223e+002 -5.794123e+001 1.175270e+002 -2.322707e-001 1.348512e+002
523405058.51265 -3.923001e-001 1.716331e+002 -5.772542e+001 1.055384e+002 -5.747480e+001 1.155006e+002 -2.318088e-001 1.348261e+002
523782559.4564 -3.994475e-001 1.713870e+002 -5.732452e+001 1.092919e+002 -5.747350e+001 1.165516e+002 -2.337787e-001 1.347779e+002
524160060.40015 -4.013176e-001 1.711598e+002 -5.771979e+001 1.048455e+002 -5.756620e+001 1.158606e+002 -2.344788e-001 1.347209e+002
524537561.3439 -4.036557e-001 1.709301e+002 -5.728126e+001 1.050115e+002 -5.772606e+001 1.129600e+002 -2.319200e-001 1.346613e+002
524915062.28766 -4.044027e-001 1.706633e+002 -5.730443e+001 1.087589e+002 -5.710868e+001 1.148533e+002 -2.321972e-001 1.345781e+002
525292563.23141 -4.110524e-001 1.705194e+002 -5.719949e+001 1.042051e+002 -5.747670e+001 1.114270e+002 -2.362479e-001 1.345108e+002
525670064.17516 -4.131479e-001 1.702219e+002 -5.690183e+001 1.043447e+002 -5.711163e+001 1.122416e+002 -2.348275e-001 1.344438e+002
526047565.11891 -4.192733e-001 1.700237e+002 -5.678470e+001 1.003652e+002 -5.649040e+001 1.140057e+002 -2.327590e-001 1.343839e+002
526425066.06267 -4.226618e-001 1.697699e+002 -5.709716e+001 1.048496e+002 -5.685249e+001 1.086794e+002 -2.315761e-001 1.342867e+002
526802567.00642 -4.274410e-001 1.695710e+002 -5.745771e+001 1.055730e+002 -5.669126e+001 1.112209e+002 -2.301001e-001 1.342648e+002
527180067.95017 -4.324265e-001 1.692923e+002 -5.694851e+001 1.031085e+002 -5.715100e+001 1.077656e+002 -2.304114e-001 1.341690e+002
527557568.89392 -4.332752e-001 1.690162e+002 -5.699150e+001 1.016476e+002 -5.663096e+001 1.097296e+002 -2.324030e-001 1.340882e+002
527935069.83767 -4.369034e-001 1.688459e+002 -5.710971e+001 1.049823e+002 -5.641945e+001 1.076513e+002 -2.274223e-001 1.340222e+002
528312570.78143 -4.390770e-001 1.686142e+002 -5.725923e+001 9.761377e+001 -5.648139e+001 1.070599e+002 -2.313031e-001 1.339431e+002
528690071.72518 -4.443902e-001 1.683674e+002 -5.667357e+001 1.009484e+002 -5.666125e+001 1.048017e+002 -2.258031e-001 1.338678e+002
529067572.66893 -4.482580e-001 1.681281e+002 -5.661146e+001 9.732092e+001 -5.682455e+001 1.055479e+002 -2.274869e-001 1.337833e+002
529445073.61268 -4.588185e-001 1.678172e+002 -5.657230e+001 1.009239e+002 -5.625537e+001 1.031047e+002 -2.256753e-001 1.337060e+002
529822574.55644 -4.592410e-001 1.675941e+002 -5.659257e+001 9.851309e+001 -5.644609e+001 1.014979e+002 -2.240140e-001 1.336396e+002
530200075.50019 -4.671811e-001 1.674776e+002 -5.627628e+001 9.740115e+001 -5.592478e+001 1.021184e+002 -2.222053e-001 1.335593e+002
530577576.44394 -4.678871e-001 1.671824e+002 -5.598694e+001 9.376228e+001 -5.601506e+001 1.040051e+002 -2.222880e-001 1.334914e+002
530955077.38769 -4.755120e-001 1.669704e+002 -5.625813e+001 9.535361e+001 -5.602106e+001 9.999664e+001 -2.213350e-001 1.334458e+002
531332578.33145 -4.820387e-001 1.667112e+002 -5.641159e+001 8.969370e+001 -5.599066e+001 1.029405e+002 -2.206422e-001 1.333811e+002
531710079.2752 -4.884560e-001 1.664969e+002 -5.600502e+001 9.431216e+001 -5.599298e+001 9.851863e+001 -2.155620e-001 1.332988e+002
532087580.21895 -4.924242e-001 1.662129e+002 -5.597683e+001 9.322707e+001 -5.620976e+001 9.775909e+001 -2.165771e-001 1.332752e+002
532465081.1627 -4.982812e-001 1.659486e+002 -5.587162e+001 9.253963e+001 -5.596252e+001 1.000382e+002 -2.111973e-001 1.332256e+002
532842582.10646 -5.016561e-001 1.657589e+002 -5.586916e+001 9.200793e+001 -5.581113e+001 9.652394e+001 -2.062878e-001 1.331550e+002
533220083.05021 -5.136829e-001 1.654709e+002 -5.557168e+001 9.000275e+001 -5.588452e+001 9.747113e+001 -2.091078e-001 1.331219e+002
533597583.99396 -5.137849e-001 1.652045e+002 -5.608198e+001 9.202795e+001 -5.597984e+001 9.562231e+001 -2.061795e-001 1.330876e+002
533975084.93771 -5.312577e-001 1.650452e+002 -5.593492e+001 8.730734e+001 -5.548140e+001 9.576964e+001 -2.033965e-001 1.330348e+002
534352585.88146 -5.305788e-001 1.647159e+002 -5.594007e+001 8.880446e+001 -5.578156e+001 9.064921e+001 -1.982495e-001 1.330447e+002
534730086.82522 -5.413125e-001 1.645108e+002 -5.584116e+001 8.815730e+001 -5.522941e+001 9.407227e+001 -1.948512e-001 1.330189e+002
535107587.76897 -5.453185e-001 1.642979e+002 -5.592357e+001 8.936169e+001 -5.565587e+001 9.392494e+001 -1.959167e-001 1.329935e+002
535485088.71272 -5.534084e-001 1.641044e+002 -5.556962e+001 8.764536e+001 -5.530087e+001 9.063827e+001 -1.895314e-001 1.329445e+002
535862589.65647 -5.589154e-001 1.638714e+002 -5.542804e+001 8.470165e+001 -5.527275e+001 8.989059e+001 -1.882955e-001 1.329310e+002
536240090.60023 -5.597075e-001 1.635426e+002 -5.530133e+001 8.681726e+001 -5.527274e+001 8.846046e+001 -1.881188e-001 1.329274e+002
536617591.54398 -5.675437e-001 1.633830e+002 -5.532272e+001 8.398946e+001 -5.558996e+001 8.933839e+001 -1.818772e-001 1.329306e+002
536995092.48773 -5.708879e-001 1.631155e+002 -5.550555e+001 8.597332e+001 -5.530372e+001 8.974272e+001 -1.837949e-001 1.329077e+002
537372593.43148 -5.808176e-001 1.628652e+002 -5.493853e+001 8.390657e+001 -5.554814e+001 8.705051e+001 -1.781631e-001 1.329146e+002
537750094.37524 -5.844830e-001 1.625931e+002 -5.489109e+001 8.266539e+001 -5.502408e+001 8.440658e+001 -1.745881e-001 1.329129e+002
538127595.31899 -5.970100e-001 1.623523e+002 -5.458112e+001 7.996591e+001 -5.496639e+001 8.516497e+001 -1.776266e-001 1.329007e+002
538505096.26274 -5.994450e-001 1.620945e+002 -5.478146e+001 8.326527e+001 -5.461419e+001 8.521214e+001 -1.775120e-001 1.328958e+002
538882597.20649 -6.095638e-001 1.618729e+002 -5.480680e+001 7.833003e+001 -5.462371e+001 8.494788e+001 -1.733740e-001 1.329218e+002
539260098.15025 -6.189398e-001 1.616593e+002 -5.416691e+001 7.778335e+001 -5.473449e+001 8.534816e+001 -1.688995e-001 1.329206e+002
539637599.094 -6.241933e-001 1.614339e+002 -5.451091e+001 8.024402e+001 -5.451260e+001 8.414729e+001 -1.686346e-001 1.329140e+002
540015100.03775 -6.301996e-001 1.612101e+002 -5.429920e+001 7.614458e+001 -5.445614e+001 8.057361e+001 -1.682710e-001 1.329565e+002
540392600.9815 -6.410641e-001 1.608882e+002 -5.403013e+001 7.822610e+001 -5.462199e+001 8.033220e+001 -1.672642e-001 1.329021e+002
540770101.92525 -6.466944e-001 1.606824e+002 -5.397619e+001 7.468330e+001 -5.437113e+001 7.816254e+001 -1.645552e-001 1.329127e+002
541147602.86901 -6.571035e-001 1.604715e+002 -5.410852e+001 7.420039e+001 -5.465402e+001 7.651264e+001 -1.652834e-001 1.329067e+002
541525103.81276 -6.652168e-001 1.602541e+002 -5.417413e+001 7.240301e+001 -5.437689e+001 7.916060e+001 -1.636275e-001 1.329021e+002
541902604.75651 -6.720889e-001 1.600165e+002 -5.424564e+001 7.076103e+001 -5.430995e+001 7.457314e+001 -1.636563e-001 1.328904e+002
542280105.70026 -6.755713e-001 1.597713e+002 -5.427661e+001 7.033575e+001 -5.438919e+001 7.457395e+001 -1.614785e-001 1.328926e+002
542657606.64402 -6.881840e-001 1.596208e+002 -5.365497e+001 6.791044e+001 -5.408659e+001 7.294598e+001 -1.640199e-001 1.328702e+002
543035107.58777 -6.924792e-001 1.593251e+002 -5.396445e+001 6.707128e+001 -5.414569e+001 7.104675e+001 -1.630424e-001 1.328566e+002
543412608.53152 -7.012615e-001 1.591750e+002 -5.361871e+001 6.614292e+001 -5.431705e+001 6.969984e+001 -1.663553e-001 1.328348e+002
543790109.47527 -7.058724e-001 1.589039e+002 -5.360411e+001 6.566648e+001 -5.426331e+001 6.985721e+001 -1.636998e-001 1.328080e+002
544167610.41903 -7.090250e-001 1.586567e+002 -5.367506e+001 6.765978e+001 -5.393039e+001 6.946779e+001 -1.672403e-001 1.328075e+002
544545111.36278 -7.172451e-001 1.584152e+002 -5.370377e+001 6.479852e+001 -5.409666e+001 6.759038e+001 -1.652932e-001 1.327487e+002
544922612.30653 -7.208843e-001 1.582220e+002 -5.367113e+001 6.091111e+001 -5.394833e+001 6.769747e+001 -1.651244e-001 1.327231e+002
545300113.25028 -7.255680e-001 1.580285e+002 -5.345959e+001 6.093734e+001 -5.399286e+001 6.733970e+001 -1.671703e-001 1.327211e+002
545677614.19404 -7.341641e-001 1.577569e+002 -5.339795e+001 6.138506e+001 -5.409044e+001 6.499783e+001 -1.694460e-001 1.326707e+002
546055115.13779 -7.349055e-001 1.574902e+002 -5.320722e+001 5.979850e+001 -5.385531e+001 6.523336e+001 -1.715394e-001 1.326351e+002
546432616.08154 -7.374973e-001 1.572105e+002 -5.336986e+001 6.016978e+001 -5.405740e+001 6.557753e+001 -1.741286e-001 1.325990e+002
546810117.02529 -7.437049e-001 1.570304e+002 -5.324883e+001 5.899127e+001 -5.392424e+001 6.477152e+001 -1.754672e-001 1.325408e+002
547187617.96904 -7.503462e-001 1.566819e+002 -5.336931e+001 5.780240e+001 -5.367303e+001 6.405463e+001 -1.724280e-001 1.325099e+002
547565118.9128 -7.633434e-001 1.564275e+002 -5.314737e+001 5.670368e+001 -5.394843e+001 6.211745e+001 -1.781453e-001 1.324568e+002
547942619.85655 -7.683232e-001 1.562362e+002 -5.316720e+001 5.556695e+001 -5.381926e+001 6.141544e+001 -1.788676e-001 1.324226e+002
548320120.8003 -7.777408e-001 1.559294e+002 -5.305323e+001 5.546908e+001 -5.363367e+001 6.126288e+001 -1.789691e-001 1.323573e+002
548697621.74405 -7.870133e-001 1.556542e+002 -5.295535e+001 5.392622e+001 -5.358396e+001 5.980251e+001 -1.814806e-001 1.323293e+002
549075122.68781 -7.977265e-001 1.554632e+002 -5.298898e+001 5.148707e+001 -5.335408e+001 6.087055e+001 -1.824613e-001 1.323230e+002
549452623.63156 -8.078781e-001 1.551398e+002 -5.299813e+001 5.255472e+001 -5.362429e+001 5.915364e+001 -1.880197e-001 1.322313e+002
549830124.57531 -8.231040e-001 1.549071e+002 -5.321519e+001 5.118680e+001 -5.333879e+001 5.694654e+001 -1.878114e-001 1.322070e+002
550207625.51906 -8.257304e-001 1.546736e+002 -5.307141e+001 5.038218e+001 -5.367672e+001 5.660516e+001 -1.872770e-001 1.321511e+002
550585126.46282 -8.387474e-001 1.544915e+002 -5.311225e+001 4.780566e+001 -5.342152e+001 5.607631e+001 -1.898110e-001 1.321137e+002
550962627.40657 -8.467504e-001 1.541724e+002 -5.299668e+001 4.666380e+001 -5.352850e+001 5.653971e+001 -1.894466e-001 1.320665e+002
551340128.35032 -8.529932e-001 1.539610e+002 -5.331679e+001 4.534989e+001 -5.350659e+001 5.560263e+001 -1.900014e-001 1.320276e+002
551717629.29407 -8.618657e-001 1.537148e+002 -5.314335e+001 4.529631e+001 -5.327618e+001 5.276925e+001 -1.892350e-001 1.319361e+002
552095130.23783 -8.698658e-001 1.534039e+002 -5.308401e+001 4.654273e+001 -5.346809e+001 5.179420e+001 -1.891039e-001 1.319529e+002
552472631.18158 -8.735769e-001 1.532109e+002 -5.311045e+001 4.351460e+001 -5.335315e+001 5.128141e+001 -1.938001e-001 1.319155e+002
552850132.12533 -8.855516e-001 1.529045e+002 -5.306924e+001 4.334077e+001 -5.322508e+001 5.155276e+001 -1.918661e-001 1.318896e+002
553227633.06908 -8.969867e-001 1.526774e+002 -5.322091e+001 4.221005e+001 -5.306215e+001 5.094217e+001 -1.906237e-001 1.318408e+002
553605134.01284 -9.050239e-001 1.523795e+002 -5.328758e+001 4.345226e+001 -5.323124e+001 4.836865e+001 -1.985019e-001 1.318170e+002
553982634.95659 -9.132343e-001 1.521098e+002 -5.290776e+001 4.180829e+001 -5.299784e+001 4.798113e+001 -1.945991e-001 1.318011e+002
554360135.90034 -9.228816e-001 1.518115e+002 -5.319860e+001 4.152417e+001 -5.299889e+001 4.679806e+001 -1.968488e-001 1.317670e+002
554737636.84409 -9.402862e-001 1.515851e+002 -5.304935e+001 4.307484e+001 -5.302594e+001 4.763848e+001 -1.945957e-001 1.317710e+002
555115137.78784 -9.535775e-001 1.513620e+002 -5.292361e+001 4.190862e+001 -5.288123e+001 4.769225e+001 -1.958936e-001 1.317499e+002
555492638.7316 -9.657646e-001 1.510281e+002 -5.268711e+001 3.931039e+001 -5.274797e+001 4.606522e+001 -1.952457e-001 1.317315e+002
555870139.67535 -9.774668e-001 1.508216e+002 -5.285755e+001 3.896915e+001 -5.285997e+001 4.403690e+001 -1.968876e-001 1.317305e+002
