!Agilent Technologies,E8364B,US42250235,A.06.04.32
!Agilent E8364B: A.06.04.32
!Date: Thursday, October 01, 2020 14:42:50
!Correction: S11(Full 2 Port(1,2)) S21(Full 2 Port(1,2)) S12(Full 2 Port(1,2)) S22(Full 2 Port(1,2)) 
!S2P File: Measurements: S11, S21, S12, S22:
# Hz S  dB   R 50
500000000 -2.206554e-001 -1.752241e+002 -6.214330e+001 1.011157e+002 -6.138248e+001 1.070412e+002 -2.205452e-001 1.378908e+002
500377500.94375 -2.261013e-001 -1.754289e+002 -6.099030e+001 1.001919e+002 -6.162940e+001 1.035111e+002 -2.202430e-001 1.378221e+002
500755001.8875 -2.272288e-001 -1.755921e+002 -6.097875e+001 1.013845e+002 -6.130278e+001 9.956390e+001 -2.212776e-001 1.377576e+002
501132502.83126 -2.285139e-001 -1.758404e+002 -6.106306e+001 9.705294e+001 -6.033192e+001 9.925315e+001 -2.219408e-001 1.377006e+002
501510003.77501 -2.338757e-001 -1.760243e+002 -6.120955e+001 9.939360e+001 -6.082572e+001 1.043178e+002 -2.266521e-001 1.376187e+002
501887504.71876 -2.328943e-001 -1.762410e+002 -6.023958e+001 9.385143e+001 -6.111642e+001 1.001674e+002 -2.263888e-001 1.375389e+002
502265005.66251 -2.430185e-001 -1.764568e+002 -6.085126e+001 9.865919e+001 -6.136994e+001 9.580846e+001 -2.286103e-001 1.374808e+002
502642506.60627 -2.396523e-001 -1.766622e+002 -6.029740e+001 9.430766e+001 -6.108535e+001 9.839457e+001 -2.321421e-001 1.373921e+002
503020007.55002 -2.435818e-001 -1.768750e+002 -6.053206e+001 9.260429e+001 -6.018264e+001 1.007419e+002 -2.308360e-001 1.373181e+002
503397508.49377 -2.544203e-001 -1.770621e+002 -6.029333e+001 9.040340e+001 -6.038181e+001 9.551979e+001 -2.305100e-001 1.372499e+002
503775009.43752 -2.526809e-001 -1.772735e+002 -6.076159e+001 8.715549e+001 -6.159328e+001 1.000689e+002 -2.331076e-001 1.371833e+002
504152510.38128 -2.550606e-001 -1.775154e+002 -5.968837e+001 9.442017e+001 -6.049568e+001 9.514861e+001 -2.346959e-001 1.370798e+002
504530011.32503 -2.586412e-001 -1.776892e+002 -6.088242e+001 9.096319e+001 -6.094823e+001 9.615274e+001 -2.308053e-001 1.370222e+002
504907512.26878 -2.593857e-001 -1.778906e+002 -6.119584e+001 8.996815e+001 -6.070964e+001 9.797351e+001 -2.360354e-001 1.369362e+002
505285013.21253 -2.596268e-001 -1.780857e+002 -6.030206e+001 9.134615e+001 -6.023619e+001 9.645447e+001 -2.343129e-001 1.368320e+002
505662514.15629 -2.663900e-001 -1.782863e+002 -5.959194e+001 8.881191e+001 -6.015845e+001 9.490865e+001 -2.355684e-001 1.367640e+002
506040015.10004 -2.623392e-001 -1.785576e+002 -5.958332e+001 8.759623e+001 -6.044647e+001 9.423994e+001 -2.355148e-001 1.366941e+002
506417516.04379 -2.667871e-001 -1.787457e+002 -5.998600e+001 9.130318e+001 -6.016721e+001 9.461610e+001 -2.338449e-001 1.366013e+002
506795016.98754 -2.723660e-001 -1.789114e+002 -6.031086e+001 8.391203e+001 -6.003867e+001 9.213744e+001 -2.345432e-001 1.365226e+002
507172517.93129 -2.738388e-001 -1.791197e+002 -6.040364e+001 8.415779e+001 -5.992378e+001 9.119279e+001 -2.384176e-001 1.364647e+002
507550018.87505 -2.765099e-001 -1.793381e+002 -5.998165e+001 8.561254e+001 -5.977017e+001 8.866665e+001 -2.378186e-001 1.364045e+002
507927519.8188 -2.824198e-001 -1.795230e+002 -5.972981e+001 8.539046e+001 -5.957711e+001 9.208013e+001 -2.320586e-001 1.363047e+002
508305020.76255 -2.831291e-001 -1.797437e+002 -6.003051e+001 8.109001e+001 -5.981298e+001 9.108455e+001 -2.330231e-001 1.362403e+002
508682521.7063 -2.830039e-001 -1.798981e+002 -5.907668e+001 8.257430e+001 -5.980111e+001 8.627463e+001 -2.322839e-001 1.361945e+002
509060022.65006 -2.877198e-001 1.798509e+002 -5.965256e+001 8.041756e+001 -5.916075e+001 8.872334e+001 -2.325859e-001 1.361098e+002
509437523.59381 -2.865054e-001 1.795950e+002 -5.946621e+001 8.650920e+001 -5.998246e+001 8.411118e+001 -2.331799e-001 1.360337e+002
509815024.53756 -2.916362e-001 1.794305e+002 -5.967285e+001 7.622305e+001 -5.935062e+001 8.737637e+001 -2.265269e-001 1.359796e+002
510192525.48131 -2.959069e-001 1.792068e+002 -5.845625e+001 7.459270e+001 -5.913424e+001 8.580727e+001 -2.292248e-001 1.359126e+002
510570026.42507 -2.975841e-001 1.789930e+002 -5.928812e+001 7.531432e+001 -5.892556e+001 8.274093e+001 -2.310518e-001 1.358769e+002
510947527.36882 -2.958848e-001 1.787661e+002 -5.929190e+001 7.312625e+001 -5.893593e+001 7.851995e+001 -2.286280e-001 1.357963e+002
511325028.31257 -3.042859e-001 1.785730e+002 -5.894714e+001 7.620367e+001 -5.905441e+001 8.235100e+001 -2.270909e-001 1.357756e+002
511702529.25632 -3.057868e-001 1.783795e+002 -5.867093e+001 7.150389e+001 -5.833960e+001 7.997478e+001 -2.226346e-001 1.357116e+002
512080030.20008 -3.075428e-001 1.781593e+002 -5.950439e+001 7.433743e+001 -5.922515e+001 7.747307e+001 -2.236700e-001 1.356734e+002
512457531.14383 -3.095646e-001 1.779121e+002 -5.906671e+001 7.340897e+001 -5.901711e+001 7.500726e+001 -2.250513e-001 1.356462e+002
512835032.08758 -3.114112e-001 1.777387e+002 -5.935462e+001 7.233359e+001 -5.854433e+001 7.598526e+001 -2.224334e-001 1.355740e+002
513212533.03133 -3.174707e-001 1.775049e+002 -5.872220e+001 7.065453e+001 -5.911873e+001 7.744459e+001 -2.241063e-001 1.355681e+002
513590033.97508 -3.200615e-001 1.773670e+002 -5.874760e+001 6.992936e+001 -5.821482e+001 7.163570e+001 -2.240943e-001 1.355407e+002
513967534.91884 -3.199565e-001 1.771039e+002 -5.878039e+001 7.384438e+001 -5.914438e+001 7.604276e+001 -2.227556e-001 1.354992e+002
514345035.86259 -3.236259e-001 1.768434e+002 -5.909895e+001 6.643446e+001 -5.851157e+001 7.700494e+001 -2.226831e-001 1.355011e+002
514722536.80634 -3.246379e-001 1.766696e+002 -5.898348e+001 6.769537e+001 -5.869584e+001 6.992497e+001 -2.230463e-001 1.354678e+002
515100037.75009 -3.312280e-001 1.764583e+002 -5.881326e+001 6.678477e+001 -5.872182e+001 7.195760e+001 -2.235579e-001 1.354492e+002
515477538.69385 -3.331870e-001 1.762746e+002 -5.830573e+001 6.452768e+001 -5.904983e+001 6.885487e+001 -2.229260e-001 1.354315e+002
515855039.6376 -3.358985e-001 1.760395e+002 -5.832988e+001 6.394493e+001 -5.853045e+001 7.091355e+001 -2.209921e-001 1.354196e+002
516232540.58135 -3.403566e-001 1.757605e+002 -5.841956e+001 6.702454e+001 -5.847935e+001 6.596977e+001 -2.206794e-001 1.353900e+002
516610041.5251 -3.474222e-001 1.756024e+002 -5.819970e+001 6.159515e+001 -5.833039e+001 6.811035e+001 -2.195283e-001 1.353918e+002
516987542.46886 -3.513236e-001 1.753353e+002 -5.913264e+001 6.675084e+001 -5.812043e+001 6.977342e+001 -2.195868e-001 1.353621e+002
517365043.41261 -3.569226e-001 1.751140e+002 -5.812532e+001 6.453826e+001 -5.839174e+001 6.774992e+001 -2.207049e-001 1.353614e+002
517742544.35636 -3.576535e-001 1.748356e+002 -5.826653e+001 5.857545e+001 -5.822504e+001 6.460577e+001 -2.213304e-001 1.353765e+002
518120045.30011 -3.648810e-001 1.746376e+002 -5.818394e+001 6.420071e+001 -5.813032e+001 6.409654e+001 -2.216781e-001 1.353422e+002
518497546.24387 -3.661883e-001 1.743910e+002 -5.756670e+001 5.937320e+001 -5.814580e+001 6.251961e+001 -2.200165e-001 1.353479e+002
518875047.18762 -3.725506e-001 1.741898e+002 -5.812337e+001 5.918617e+001 -5.779454e+001 5.956165e+001 -2.223278e-001 1.353213e+002
519252548.13137 -3.790441e-001 1.739253e+002 -5.809714e+001 5.863159e+001 -5.802180e+001 6.513120e+001 -2.208358e-001 1.353035e+002
519630049.07512 -3.862464e-001 1.737849e+002 -5.758621e+001 5.275003e+001 -5.793975e+001 6.104519e+001 -2.243242e-001 1.352625e+002
520007550.01888 -3.938822e-001 1.735457e+002 -5.723046e+001 5.095964e+001 -5.819145e+001 6.106980e+001 -2.222162e-001 1.352469e+002
520385050.96263 -3.956876e-001 1.733342e+002 -5.830848e+001 5.270811e+001 -5.780431e+001 5.870568e+001 -2.258278e-001 1.352344e+002
520762551.90638 -4.000936e-001 1.730872e+002 -5.760979e+001 5.210442e+001 -5.761934e+001 5.827087e+001 -2.223111e-001 1.352274e+002
521140052.85013 -4.009892e-001 1.728029e+002 -5.722243e+001 4.757425e+001 -5.782702e+001 5.911033e+001 -2.241379e-001 1.351826e+002
521517553.79388 -4.108133e-001 1.726278e+002 -5.777255e+001 5.048239e+001 -5.770541e+001 5.725336e+001 -2.229972e-001 1.351352e+002
521895054.73764 -4.168904e-001 1.723969e+002 -5.798378e+001 4.654861e+001 -5.769774e+001 5.647642e+001 -2.217138e-001 1.351100e+002
522272555.68139 -4.221227e-001 1.722267e+002 -5.792088e+001 5.041056e+001 -5.748978e+001 5.422179e+001 -2.237864e-001 1.350421e+002
522650056.62514 -4.234379e-001 1.719661e+002 -5.788699e+001 4.898580e+001 -5.780375e+001 5.471943e+001 -2.248293e-001 1.350298e+002
523027557.56889 -4.281254e-001 1.717046e+002 -5.752624e+001 4.937975e+001 -5.734249e+001 5.172564e+001 -2.260597e-001 1.349700e+002
523405058.51265 -4.335799e-001 1.715652e+002 -5.765704e+001 4.528028e+001 -5.733890e+001 5.378178e+001 -2.290054e-001 1.349567e+002
523782559.4564 -4.392771e-001 1.713062e+002 -5.778782e+001 4.609086e+001 -5.741771e+001 5.372322e+001 -2.274772e-001 1.348923e+002
524160060.40015 -4.394266e-001 1.710784e+002 -5.745097e+001 4.162150e+001 -5.748407e+001 5.231958e+001 -2.300672e-001 1.348484e+002
524537561.3439 -4.449908e-001 1.708649e+002 -5.790809e+001 4.421627e+001 -5.731023e+001 5.157490e+001 -2.253255e-001 1.347706e+002
524915062.28766 -4.492566e-001 1.706228e+002 -5.781880e+001 4.373253e+001 -5.707726e+001 5.019862e+001 -2.292386e-001 1.346891e+002
525292563.23141 -4.539203e-001 1.704453e+002 -5.731101e+001 3.945658e+001 -5.697138e+001 5.128033e+001 -2.298364e-001 1.346300e+002
525670064.17516 -4.561589e-001 1.702108e+002 -5.771649e+001 3.812992e+001 -5.697675e+001 4.918631e+001 -2.258077e-001 1.345525e+002
526047565.11891 -4.603979e-001 1.699679e+002 -5.793244e+001 3.855727e+001 -5.739404e+001 4.501873e+001 -2.284574e-001 1.344961e+002
526425066.06267 -4.659854e-001 1.697291e+002 -5.691683e+001 3.866450e+001 -5.704888e+001 4.925494e+001 -2.282655e-001 1.344301e+002
526802567.00642 -4.759955e-001 1.695189e+002 -5.730866e+001 4.085260e+001 -5.693819e+001 4.929954e+001 -2.271111e-001 1.343562e+002
527180067.95017 -4.757652e-001 1.692630e+002 -5.687322e+001 3.927447e+001 -5.697727e+001 4.439603e+001 -2.261725e-001 1.342606e+002
527557568.89392 -4.817087e-001 1.690511e+002 -5.727953e+001 3.955864e+001 -5.693656e+001 4.546617e+001 -2.282448e-001 1.342035e+002
527935069.83767 -4.862430e-001 1.688248e+002 -5.700584e+001 4.088533e+001 -5.688186e+001 4.835482e+001 -2.247968e-001 1.340629e+002
528312570.78143 -4.886246e-001 1.685841e+002 -5.728169e+001 3.939947e+001 -5.684747e+001 4.491131e+001 -2.251896e-001 1.340332e+002
528690071.72518 -4.987695e-001 1.684077e+002 -5.679965e+001 3.934084e+001 -5.698507e+001 4.479115e+001 -2.235296e-001 1.339701e+002
529067572.66893 -4.968199e-001 1.681318e+002 -5.681308e+001 3.720958e+001 -5.632752e+001 4.597908e+001 -2.213274e-001 1.338964e+002
529445073.61268 -5.089254e-001 1.679001e+002 -5.648548e+001 3.690734e+001 -5.613966e+001 4.380436e+001 -2.174288e-001 1.338163e+002
529822574.55644 -5.125585e-001 1.676641e+002 -5.678239e+001 3.520130e+001 -5.611431e+001 4.229689e+001 -2.177833e-001 1.337470e+002
530200075.50019 -5.194619e-001 1.674902e+002 -5.667712e+001 3.574652e+001 -5.637079e+001 4.104543e+001 -2.172640e-001 1.336522e+002
530577576.44394 -5.219267e-001 1.671606e+002 -5.635831e+001 3.237653e+001 -5.611414e+001 4.406289e+001 -2.159101e-001 1.335979e+002
530955077.38769 -5.330955e-001 1.670080e+002 -5.650336e+001 3.361032e+001 -5.585962e+001 4.037424e+001 -2.133995e-001 1.335365e+002
531332578.33145 -5.378194e-001 1.668017e+002 -5.657817e+001 3.066787e+001 -5.611455e+001 3.978646e+001 -2.129859e-001 1.334810e+002
531710079.2752 -5.473385e-001 1.665230e+002 -5.636030e+001 3.051468e+001 -5.619609e+001 4.105799e+001 -2.087223e-001 1.334061e+002
532087580.21895 -5.513874e-001 1.662819e+002 -5.610538e+001 3.077855e+001 -5.601916e+001 3.752326e+001 -2.075215e-001 1.333622e+002
532465081.1627 -5.603312e-001 1.660633e+002 -5.598311e+001 2.930183e+001 -5.575458e+001 3.891984e+001 -2.044611e-001 1.333113e+002
532842582.10646 -5.652323e-001 1.658536e+002 -5.636136e+001 2.987543e+001 -5.571110e+001 3.452158e+001 -2.022763e-001 1.332666e+002
533220083.05021 -5.724429e-001 1.655665e+002 -5.580185e+001 2.768646e+001 -5.605425e+001 3.530732e+001 -2.017654e-001 1.332314e+002
533597583.99396 -5.781760e-001 1.653609e+002 -5.635321e+001 2.927209e+001 -5.588486e+001 3.363158e+001 -1.995288e-001 1.331843e+002
533975084.93771 -5.948746e-001 1.651558e+002 -5.567288e+001 2.608992e+001 -5.558693e+001 3.092315e+001 -1.972066e-001 1.331353e+002
534352585.88146 -5.956418e-001 1.648669e+002 -5.596241e+001 2.711584e+001 -5.572039e+001 3.110956e+001 -1.944925e-001 1.331330e+002
534730086.82522 -6.023028e-001 1.646233e+002 -5.577349e+001 2.690079e+001 -5.566797e+001 3.199535e+001 -1.879764e-001 1.330930e+002
535107587.76897 -6.107307e-001 1.644490e+002 -5.557635e+001 2.428858e+001 -5.516060e+001 2.909961e+001 -1.911636e-001 1.330926e+002
535485088.71272 -6.187042e-001 1.642272e+002 -5.539265e+001 2.312419e+001 -5.549889e+001 3.204518e+001 -1.829914e-001 1.330433e+002
535862589.65647 -6.263188e-001 1.639860e+002 -5.531921e+001 2.513244e+001 -5.504370e+001 2.945438e+001 -1.811067e-001 1.330200e+002
536240090.60023 -6.278628e-001 1.637243e+002 -5.551513e+001 2.140654e+001 -5.521068e+001 2.940969e+001 -1.814373e-001 1.330221e+002
536617591.54398 -6.350600e-001 1.635307e+002 -5.549704e+001 2.381151e+001 -5.482406e+001 2.903571e+001 -1.796050e-001 1.330154e+002
536995092.48773 -6.430859e-001 1.633104e+002 -5.492881e+001 2.113895e+001 -5.496572e+001 2.792003e+001 -1.822053e-001 1.329934e+002
537372593.43148 -6.543249e-001 1.630834e+002 -5.516889e+001 2.035422e+001 -5.478109e+001 2.860084e+001 -1.772352e-001 1.329812e+002
537750094.37524 -6.580557e-001 1.628172e+002 -5.477308e+001 2.079393e+001 -5.447678e+001 2.540582e+001 -1.730797e-001 1.330114e+002
538127595.31899 -6.684883e-001 1.626380e+002 -5.433441e+001 1.988888e+001 -5.432463e+001 2.375494e+001 -1.754764e-001 1.329821e+002
538505096.26274 -6.752908e-001 1.623641e+002 -5.465152e+001 1.835311e+001 -5.421139e+001 2.317042e+001 -1.762980e-001 1.329755e+002
538882597.20649 -6.839756e-001 1.621605e+002 -5.440940e+001 1.658218e+001 -5.443719e+001 2.261385e+001 -1.727320e-001 1.329858e+002
539260098.15025 -6.954165e-001 1.619651e+002 -5.443477e+001 1.408480e+001 -5.400406e+001 2.093400e+001 -1.676856e-001 1.329827e+002
539637599.094 -7.016400e-001 1.617746e+002 -5.423986e+001 1.256237e+001 -5.405928e+001 1.892172e+001 -1.716925e-001 1.329859e+002
540015100.03775 -7.078001e-001 1.615883e+002 -5.416122e+001 1.397581e+001 -5.404690e+001 1.711605e+001 -1.710093e-001 1.330234e+002
540392600.9815 -7.198722e-001 1.612988e+002 -5.391801e+001 1.062277e+001 -5.362327e+001 1.662519e+001 -1.687968e-001 1.329532e+002
540770101.92525 -7.244878e-001 1.610951e+002 -5.387246e+001 1.062444e+001 -5.345268e+001 1.355335e+001 -1.700859e-001 1.329760e+002
541147602.86901 -7.340226e-001 1.609613e+002 -5.390072e+001 8.774841e+000 -5.364828e+001 1.324596e+001 -1.700415e-001 1.329559e+002
541525103.81276 -7.372961e-001 1.606843e+002 -5.368539e+001 6.750461e+000 -5.348586e+001 1.070117e+001 -1.708094e-001 1.329309e+002
541902604.75651 -7.452471e-001 1.605212e+002 -5.354745e+001 6.796278e+000 -5.361231e+001 1.292485e+001 -1.713804e-001 1.329400e+002
542280105.70026 -7.501819e-001 1.602663e+002 -5.378518e+001 3.722644e+000 -5.343774e+001 7.674030e+000 -1.712406e-001 1.329109e+002
542657606.64402 -7.592565e-001 1.601668e+002 -5.334330e+001 3.177105e+000 -5.351674e+001 7.123065e+000 -1.724835e-001 1.328830e+002
543035107.58777 -7.667281e-001 1.599369e+002 -5.361058e+001 2.377478e+000 -5.343829e+001 8.232802e+000 -1.739328e-001 1.328575e+002
543412608.53152 -7.699457e-001 1.597701e+002 -5.317498e+001 6.616166e-001 -5.360931e+001 4.409305e+000 -1.753311e-001 1.328226e+002
543790109.47527 -7.740969e-001 1.595345e+002 -5.345820e+001 -4.124378e-001 -5.341608e+001 4.940380e+000 -1.752778e-001 1.327982e+002
544167610.41903 -7.750785e-001 1.592721e+002 -5.355832e+001 -1.636442e-001 -5.337032e+001 3.101065e+000 -1.810796e-001 1.327869e+002
544545111.36278 -7.816945e-001 1.591162e+002 -5.329488e+001 -4.054204e+000 -5.345829e+001 1.851936e+000 -1.762120e-001 1.327417e+002
544922612.30653 -7.813751e-001 1.588578e+002 -5.306600e+001 -5.626621e+000 -5.315940e+001 4.477272e-001 -1.792986e-001 1.327002e+002
545300113.25028 -7.827477e-001 1.587246e+002 -5.342076e+001 -3.958524e+000 -5.333091e+001 -3.271515e-001 -1.803524e-001 1.326742e+002
545677614.19404 -7.881855e-001 1.584721e+002 -5.326701e+001 -6.728729e+000 -5.331356e+001 -2.228616e+000 -1.823902e-001 1.326217e+002
546055115.13779 -7.889730e-001 1.582208e+002 -5.300079e+001 -8.021275e+000 -5.328897e+001 -3.838644e-001 -1.863243e-001 1.325706e+002
546432616.08154 -7.895888e-001 1.579493e+002 -5.308774e+001 -1.031208e+001 -5.299063e+001 -3.755480e+000 -1.861385e-001 1.325100e+002
546810117.02529 -7.904737e-001 1.577444e+002 -5.333462e+001 -1.110099e+001 -5.313201e+001 -4.127207e+000 -1.900942e-001 1.324588e+002
547187617.96904 -7.953579e-001 1.574594e+002 -5.304279e+001 -1.256197e+001 -5.344743e+001 -5.619485e+000 -1.896213e-001 1.324187e+002
547565118.9128 -8.033913e-001 1.572117e+002 -5.332169e+001 -1.388207e+001 -5.337283e+001 -5.579534e+000 -1.940744e-001 1.323551e+002
547942619.85655 -8.083140e-001 1.570421e+002 -5.316985e+001 -1.450098e+001 -5.318650e+001 -6.891376e+000 -1.962420e-001 1.323006e+002
548320120.8003 -8.150948e-001 1.567969e+002 -5.296695e+001 -1.505788e+001 -5.346080e+001 -8.658629e+000 -1.949672e-001 1.322530e+002
548697621.74405 -8.198067e-001 1.564961e+002 -5.318542e+001 -1.552382e+001 -5.331326e+001 -9.346535e+000 -1.997788e-001 1.321800e+002
549075122.68781 -8.266633e-001 1.563192e+002 -5.320995e+001 -1.809058e+001 -5.331469e+001 -1.053678e+001 -1.992056e-001 1.321824e+002
549452623.63156 -8.343834e-001 1.560193e+002 -5.297138e+001 -1.746126e+001 -5.297727e+001 -1.130894e+001 -2.025790e-001 1.320870e+002
549830124.57531 -8.450012e-001 1.557938e+002 -5.301232e+001 -2.182436e+001 -5.297691e+001 -1.230324e+001 -2.007572e-001 1.320465e+002
550207625.51906 -8.455724e-001 1.555699e+002 -5.312193e+001 -2.058631e+001 -5.295359e+001 -1.277566e+001 -2.009160e-001 1.319953e+002
550585126.46282 -8.522778e-001 1.553942e+002 -5.273211e+001 -2.251357e+001 -5.305721e+001 -1.420725e+001 -2.048893e-001 1.319574e+002
550962627.40657 -8.534211e-001 1.550827e+002 -5.327878e+001 -2.392491e+001 -5.301085e+001 -1.662401e+001 -2.022060e-001 1.318951e+002
551340128.35032 -8.582888e-001 1.549091e+002 -5.342329e+001 -2.372408e+001 -5.340185e+001 -1.551203e+001 -2.019659e-001 1.318755e+002
551717629.29407 -8.647987e-001 1.546478e+002 -5.313523e+001 -2.438879e+001 -5.294720e+001 -1.844194e+001 -2.026862e-001 1.318270e+002
552095130.23783 -8.703620e-001 1.543267e+002 -5.309317e+001 -2.536166e+001 -5.293264e+001 -1.834517e+001 -2.020768e-001 1.317712e+002
552472631.18158 -8.724836e-001 1.541530e+002 -5.312747e+001 -2.584551e+001 -5.307855e+001 -2.070184e+001 -2.031390e-001 1.317527e+002
552850132.12533 -8.805546e-001 1.538842e+002 -5.343272e+001 -2.637132e+001 -5.317691e+001 -2.112884e+001 -2.029719e-001 1.317150e+002
553227633.06908 -8.860628e-001 1.536372e+002 -5.316569e+001 -2.803057e+001 -5.284265e+001 -2.095196e+001 -2.010314e-001 1.316732e+002
553605134.01284 -8.932875e-001 1.533620e+002 -5.304028e+001 -2.701513e+001 -5.282484e+001 -2.336038e+001 -2.072292e-001 1.316508e+002
553982634.95659 -8.987299e-001 1.530728e+002 -5.299016e+001 -3.040938e+001 -5.322382e+001 -2.238927e+001 -1.995607e-001 1.316296e+002
554360135.90034 -9.059123e-001 1.527922e+002 -5.321404e+001 -3.128907e+001 -5.311301e+001 -2.305996e+001 -1.987372e-001 1.316094e+002
554737636.84409 -9.183776e-001 1.525643e+002 -5.331244e+001 -2.836933e+001 -5.274910e+001 -2.398456e+001 -1.997359e-001 1.316288e+002
555115137.78784 -9.306093e-001 1.523660e+002 -5.353301e+001 -3.257360e+001 -5.289279e+001 -2.423394e+001 -1.989493e-001 1.316093e+002
555492638.7316 -9.359658e-001 1.520377e+002 -5.307510e+001 -3.202391e+001 -5.285361e+001 -2.522478e+001 -2.019211e-001 1.316101e+002
