!Agilent Technologies,E8364B,US42250235,A.06.04.32
!Agilent E8364B: A.06.04.32
!Date: Thursday, October 01, 2020 14:56:43
!Correction: S11(Full 2 Port(1,2)) S21(Full 2 Port(1,2)) S12(Full 2 Port(1,2)) S22(Full 2 Port(1,2)) 
!S2P File: Measurements: S11, S21, S12, S22:
# Hz S  dB   R 50
500000000 -2.334681e-001 -1.751042e+002 -6.188908e+001 -1.074796e+001 -6.338597e+001 -1.151245e+001 -1.464961e-001 1.384071e+002
500377500.94375 -2.399402e-001 -1.753262e+002 -6.272441e+001 -1.333282e+001 -6.170950e+001 -1.418772e+001 -1.423865e-001 1.384008e+002
500755001.8875 -2.387744e-001 -1.754704e+002 -6.211364e+001 -6.479707e+000 -6.214073e+001 -1.672950e+001 -1.378787e-001 1.383796e+002
501132502.83126 -2.453142e-001 -1.756914e+002 -6.212547e+001 -1.368090e+001 -6.244011e+001 -1.852396e+001 -1.411408e-001 1.383653e+002
501510003.77501 -2.477877e-001 -1.759002e+002 -6.257403e+001 -1.641273e+001 -6.223304e+001 -1.799352e+001 -1.403081e-001 1.383517e+002
501887504.71876 -2.480627e-001 -1.760837e+002 -6.255889e+001 -9.145097e+000 -6.222456e+001 -1.182561e+001 -1.391818e-001 1.383394e+002
502265005.66251 -2.545199e-001 -1.762633e+002 -6.166451e+001 -1.872255e+001 -6.172474e+001 -2.002443e+001 -1.397973e-001 1.383168e+002
502642506.60627 -2.553024e-001 -1.764795e+002 -6.101387e+001 -1.732254e+001 -6.257903e+001 -1.460990e+001 -1.380620e-001 1.383206e+002
503020007.55002 -2.622231e-001 -1.766779e+002 -6.146795e+001 -2.450905e+001 -6.154359e+001 -2.064746e+001 -1.403598e-001 1.382586e+002
503397508.49377 -2.613895e-001 -1.768741e+002 -6.137045e+001 -1.559901e+001 -6.183192e+001 -1.601780e+001 -1.342145e-001 1.382220e+002
503775009.43752 -2.602628e-001 -1.771540e+002 -6.127494e+001 -1.212478e+001 -6.269412e+001 -1.912523e+001 -1.362667e-001 1.382174e+002
504152510.38128 -2.661690e-001 -1.772986e+002 -6.225972e+001 -1.907969e+001 -6.260362e+001 -2.618746e+001 -1.378080e-001 1.381611e+002
504530011.32503 -2.641971e-001 -1.775375e+002 -6.208776e+001 -2.381786e+001 -6.316886e+001 -2.119334e+001 -1.409741e-001 1.381713e+002
504907512.26878 -2.696998e-001 -1.776951e+002 -6.111903e+001 -1.973411e+001 -6.269313e+001 -2.188922e+001 -1.384095e-001 1.381255e+002
505285013.21253 -2.759601e-001 -1.778386e+002 -6.166565e+001 -2.192599e+001 -6.256719e+001 -2.369846e+001 -1.384301e-001 1.380967e+002
505662514.15629 -2.754876e-001 -1.780694e+002 -6.127821e+001 -2.081004e+001 -6.286274e+001 -2.391399e+001 -1.385156e-001 1.380478e+002
506040015.10004 -2.753531e-001 -1.782868e+002 -6.203475e+001 -2.347390e+001 -6.257785e+001 -2.415682e+001 -1.393391e-001 1.380234e+002
506417516.04379 -2.769396e-001 -1.785196e+002 -6.211386e+001 -2.598486e+001 -6.195779e+001 -2.144683e+001 -1.393219e-001 1.379688e+002
506795016.98754 -2.813946e-001 -1.786649e+002 -6.145065e+001 -2.380570e+001 -6.156002e+001 -2.269075e+001 -1.380060e-001 1.379175e+002
507172517.93129 -2.849399e-001 -1.788384e+002 -6.112461e+001 -2.586073e+001 -6.186048e+001 -2.507943e+001 -1.368822e-001 1.378809e+002
507550018.87505 -2.855773e-001 -1.790218e+002 -6.088966e+001 -2.313445e+001 -6.140158e+001 -2.549989e+001 -1.383691e-001 1.378307e+002
507927519.8188 -2.894321e-001 -1.792779e+002 -6.042463e+001 -2.387734e+001 -6.169824e+001 -2.775353e+001 -1.412536e-001 1.377852e+002
508305020.76255 -2.897635e-001 -1.795161e+002 -6.134980e+001 -2.929615e+001 -6.172571e+001 -2.689051e+001 -1.416102e-001 1.377579e+002
508682521.7063 -2.907400e-001 -1.797232e+002 -6.139802e+001 -2.843197e+001 -6.138540e+001 -2.652077e+001 -1.435645e-001 1.377259e+002
509060022.65006 -2.958355e-001 -1.798578e+002 -6.050211e+001 -2.885983e+001 -6.104139e+001 -3.113701e+001 -1.403152e-001 1.376530e+002
509437523.59381 -2.944696e-001 1.798479e+002 -6.127429e+001 -3.305989e+001 -6.192617e+001 -2.978541e+001 -1.402137e-001 1.376240e+002
509815024.53756 -2.960102e-001 1.797346e+002 -6.066674e+001 -3.211626e+001 -6.084498e+001 -3.084296e+001 -1.381939e-001 1.375576e+002
510192525.48131 -3.011662e-001 1.795155e+002 -6.120906e+001 -3.598829e+001 -6.051183e+001 -3.492533e+001 -1.398537e-001 1.375126e+002
510570026.42507 -3.063836e-001 1.792283e+002 -6.100737e+001 -3.641037e+001 -6.128817e+001 -4.008109e+001 -1.390354e-001 1.374701e+002
510947527.36882 -3.041863e-001 1.791118e+002 -6.177419e+001 -3.194793e+001 -6.112450e+001 -4.033401e+001 -1.379980e-001 1.374329e+002
511325028.31257 -3.083801e-001 1.788496e+002 -6.112939e+001 -3.183910e+001 -6.077470e+001 -3.729371e+001 -1.374545e-001 1.373885e+002
511702529.25632 -3.079387e-001 1.786348e+002 -6.170576e+001 -3.660397e+001 -6.050046e+001 -3.818021e+001 -1.384456e-001 1.373631e+002
512080030.20008 -3.143863e-001 1.783606e+002 -6.122244e+001 -3.736756e+001 -6.058202e+001 -4.519212e+001 -1.371288e-001 1.373085e+002
512457531.14383 -3.179674e-001 1.782039e+002 -6.048278e+001 -3.891445e+001 -6.053517e+001 -4.596683e+001 -1.348524e-001 1.372770e+002
512835032.08758 -3.192901e-001 1.780026e+002 -6.078887e+001 -4.205557e+001 -6.091569e+001 -3.915173e+001 -1.363960e-001 1.372495e+002
513212533.03133 -3.202075e-001 1.777241e+002 -6.103857e+001 -3.947629e+001 -6.133610e+001 -4.202814e+001 -1.348386e-001 1.371939e+002
513590033.97508 -3.213647e-001 1.774967e+002 -6.131504e+001 -4.327168e+001 -6.098034e+001 -4.694668e+001 -1.319909e-001 1.371828e+002
513967534.91884 -3.269837e-001 1.773745e+002 -6.133332e+001 -3.528577e+001 -6.066714e+001 -4.589411e+001 -1.290471e-001 1.371303e+002
514345035.86259 -3.267839e-001 1.770869e+002 -6.171650e+001 -3.819453e+001 -6.036179e+001 -4.519216e+001 -1.331107e-001 1.371273e+002
514722536.80634 -3.300516e-001 1.769387e+002 -6.042408e+001 -4.411154e+001 -6.061767e+001 -4.458360e+001 -1.321073e-001 1.371103e+002
515100037.75009 -3.323295e-001 1.766875e+002 -6.096920e+001 -4.514766e+001 -6.058127e+001 -4.450222e+001 -1.318078e-001 1.370845e+002
515477538.69385 -3.313510e-001 1.764547e+002 -6.053594e+001 -4.339553e+001 -6.100499e+001 -4.298844e+001 -1.307043e-001 1.370607e+002
515855039.6376 -3.323196e-001 1.762871e+002 -6.024030e+001 -4.611599e+001 -6.152379e+001 -5.021356e+001 -1.277162e-001 1.370477e+002
516232540.58135 -3.374082e-001 1.760120e+002 -6.024353e+001 -4.658609e+001 -6.080386e+001 -4.585702e+001 -1.276823e-001 1.370300e+002
516610041.5251 -3.406295e-001 1.758315e+002 -6.009480e+001 -4.537032e+001 -6.026793e+001 -5.109259e+001 -1.308046e-001 1.370163e+002
516987542.46886 -3.416656e-001 1.755704e+002 -6.016000e+001 -4.218497e+001 -6.031718e+001 -4.934056e+001 -1.329308e-001 1.370047e+002
517365043.41261 -3.485527e-001 1.753507e+002 -5.966168e+001 -4.603002e+001 -5.994897e+001 -4.869368e+001 -1.312255e-001 1.369848e+002
517742544.35636 -3.516479e-001 1.750857e+002 -6.069299e+001 -4.376513e+001 -6.081477e+001 -5.079042e+001 -1.333141e-001 1.369784e+002
518120045.30011 -3.577151e-001 1.749056e+002 -5.980391e+001 -4.892246e+001 -6.005001e+001 -5.129103e+001 -1.318540e-001 1.369697e+002
518497546.24387 -3.608734e-001 1.747133e+002 -5.956646e+001 -4.669224e+001 -6.067350e+001 -5.616384e+001 -1.315823e-001 1.369499e+002
518875047.18762 -3.655553e-001 1.744831e+002 -5.972694e+001 -4.915121e+001 -6.010259e+001 -5.572793e+001 -1.308373e-001 1.369397e+002
519252548.13137 -3.718734e-001 1.742651e+002 -6.006216e+001 -5.342929e+001 -5.980571e+001 -5.412296e+001 -1.342505e-001 1.369150e+002
519630049.07512 -3.795510e-001 1.740645e+002 -5.917153e+001 -5.643457e+001 -5.935965e+001 -5.935961e+001 -1.357248e-001 1.369074e+002
520007550.01888 -3.797513e-001 1.737781e+002 -5.964497e+001 -5.519831e+001 -5.970152e+001 -5.765977e+001 -1.349527e-001 1.369074e+002
520385050.96263 -3.833362e-001 1.736513e+002 -5.934856e+001 -5.235261e+001 -5.994738e+001 -6.091029e+001 -1.385993e-001 1.368584e+002
520762551.90638 -3.865111e-001 1.734298e+002 -5.939381e+001 -5.445950e+001 -6.004538e+001 -6.026878e+001 -1.374077e-001 1.368556e+002
521140052.85013 -3.914062e-001 1.731491e+002 -5.928372e+001 -6.041801e+001 -5.964338e+001 -5.832831e+001 -1.378610e-001 1.368205e+002
521517553.79388 -3.935836e-001 1.729664e+002 -5.907200e+001 -6.022477e+001 -6.014882e+001 -5.906335e+001 -1.422378e-001 1.368144e+002
521895054.73764 -3.976968e-001 1.727396e+002 -5.925653e+001 -5.961281e+001 -5.914625e+001 -6.221719e+001 -1.434805e-001 1.367654e+002
522272555.68139 -4.011058e-001 1.725536e+002 -5.924206e+001 -5.876064e+001 -5.901317e+001 -6.281420e+001 -1.462270e-001 1.367462e+002
522650056.62514 -4.042348e-001 1.723000e+002 -5.929590e+001 -6.207359e+001 -5.980146e+001 -6.522948e+001 -1.463847e-001 1.366619e+002
523027557.56889 -4.114034e-001 1.720924e+002 -5.856517e+001 -6.336470e+001 -5.897859e+001 -6.307789e+001 -1.496985e-001 1.366994e+002
523405058.51265 -4.100714e-001 1.718811e+002 -5.946637e+001 -6.632423e+001 -5.922520e+001 -6.667599e+001 -1.506443e-001 1.366981e+002
523782559.4564 -4.157567e-001 1.716386e+002 -5.884496e+001 -6.169653e+001 -5.850916e+001 -6.649284e+001 -1.543683e-001 1.366052e+002
524160060.40015 -4.195697e-001 1.714330e+002 -5.890998e+001 -6.679521e+001 -5.936097e+001 -6.510697e+001 -1.542247e-001 1.365609e+002
524537561.3439 -4.203022e-001 1.711830e+002 -5.860381e+001 -6.994594e+001 -5.874810e+001 -6.830342e+001 -1.579346e-001 1.365164e+002
524915062.28766 -4.270419e-001 1.709500e+002 -5.861272e+001 -6.952706e+001 -5.843817e+001 -7.062277e+001 -1.561588e-001 1.364906e+002
525292563.23141 -4.255540e-001 1.706611e+002 -5.831361e+001 -7.115253e+001 -5.824934e+001 -7.161208e+001 -1.607989e-001 1.364127e+002
525670064.17516 -4.280480e-001 1.705149e+002 -5.873007e+001 -7.253568e+001 -5.886959e+001 -7.240445e+001 -1.624566e-001 1.363501e+002
526047565.11891 -4.320020e-001 1.702598e+002 -5.820180e+001 -6.907719e+001 -5.829458e+001 -7.207222e+001 -1.635262e-001 1.362955e+002
526425066.06267 -4.394982e-001 1.700004e+002 -5.834384e+001 -7.459322e+001 -5.874203e+001 -7.482332e+001 -1.682529e-001 1.362188e+002
526802567.00642 -4.422855e-001 1.697328e+002 -5.907594e+001 -7.391330e+001 -5.826930e+001 -7.840480e+001 -1.675937e-001 1.361729e+002
527180067.95017 -4.432365e-001 1.695211e+002 -5.814973e+001 -7.533752e+001 -5.855242e+001 -7.714246e+001 -1.707512e-001 1.360810e+002
527557568.89392 -4.492839e-001 1.693375e+002 -5.842383e+001 -7.364524e+001 -5.827934e+001 -7.735188e+001 -1.673278e-001 1.360424e+002
527935069.83767 -4.586699e-001 1.690603e+002 -5.863082e+001 -7.738667e+001 -5.814858e+001 -8.284286e+001 -1.706517e-001 1.359833e+002
528312570.78143 -4.590246e-001 1.687998e+002 -5.795734e+001 -7.630105e+001 -5.834011e+001 -7.961121e+001 -1.690002e-001 1.359021e+002
528690071.72518 -4.628430e-001 1.686312e+002 -5.822792e+001 -7.929549e+001 -5.879437e+001 -8.224307e+001 -1.664706e-001 1.358350e+002
529067572.66893 -4.668037e-001 1.683367e+002 -5.817688e+001 -8.293443e+001 -5.840275e+001 -7.981145e+001 -1.695656e-001 1.357860e+002
529445073.61268 -4.707867e-001 1.681759e+002 -5.886603e+001 -7.938303e+001 -5.839156e+001 -8.658106e+001 -1.706455e-001 1.357177e+002
529822574.55644 -4.759938e-001 1.679152e+002 -5.807920e+001 -7.972810e+001 -5.879576e+001 -8.431483e+001 -1.711823e-001 1.356346e+002
530200075.50019 -4.789732e-001 1.676211e+002 -5.796864e+001 -8.383115e+001 -5.878785e+001 -8.231180e+001 -1.679430e-001 1.355622e+002
530577576.44394 -4.854639e-001 1.673522e+002 -5.870702e+001 -8.462925e+001 -5.877423e+001 -8.780450e+001 -1.686885e-001 1.354915e+002
530955077.38769 -4.893675e-001 1.671245e+002 -5.804869e+001 -8.413292e+001 -5.831854e+001 -8.857558e+001 -1.695223e-001 1.354429e+002
531332578.33145 -4.956053e-001 1.669660e+002 -5.815723e+001 -8.576012e+001 -5.853683e+001 -9.032536e+001 -1.669727e-001 1.353870e+002
531710079.2752 -5.000908e-001 1.666605e+002 -5.802308e+001 -8.288406e+001 -5.818331e+001 -8.850101e+001 -1.665789e-001 1.352911e+002
532087580.21895 -5.085278e-001 1.664621e+002 -5.858407e+001 -8.592718e+001 -5.875651e+001 -8.709763e+001 -1.623198e-001 1.352532e+002
532465081.1627 -5.105140e-001 1.662478e+002 -5.801136e+001 -8.498907e+001 -5.809052e+001 -9.230993e+001 -1.615228e-001 1.351780e+002
532842582.10646 -5.163806e-001 1.660025e+002 -5.800407e+001 -8.583268e+001 -5.805862e+001 -9.223078e+001 -1.587037e-001 1.350761e+002
533220083.05021 -5.224458e-001 1.657512e+002 -5.805802e+001 -8.863991e+001 -5.772736e+001 -9.116250e+001 -1.587526e-001 1.350982e+002
533597583.99396 -5.318931e-001 1.655402e+002 -5.825797e+001 -9.001104e+001 -5.809240e+001 -9.203239e+001 -1.544693e-001 1.350831e+002
533975084.93771 -5.405105e-001 1.652306e+002 -5.789731e+001 -8.969695e+001 -5.817693e+001 -9.328536e+001 -1.561853e-001 1.349824e+002
534352585.88146 -5.475945e-001 1.650580e+002 -5.819777e+001 -8.822041e+001 -5.837605e+001 -9.610953e+001 -1.538146e-001 1.349509e+002
534730086.82522 -5.550714e-001 1.648201e+002 -5.812984e+001 -9.487230e+001 -5.796806e+001 -9.733886e+001 -1.508155e-001 1.349168e+002
535107587.76897 -5.600005e-001 1.646056e+002 -5.774300e+001 -9.436383e+001 -5.769530e+001 -9.306439e+001 -1.524290e-001 1.348846e+002
535485088.71272 -5.649465e-001 1.643272e+002 -5.812593e+001 -8.883755e+001 -5.808641e+001 -9.455407e+001 -1.507523e-001 1.348346e+002
535862589.65647 -5.714836e-001 1.640904e+002 -5.812511e+001 -9.297103e+001 -5.864491e+001 -9.461443e+001 -1.476313e-001 1.347977e+002
536240090.60023 -5.759361e-001 1.638990e+002 -5.800232e+001 -9.315628e+001 -5.794141e+001 -9.794378e+001 -1.471386e-001 1.347649e+002
536617591.54398 -5.854913e-001 1.635990e+002 -5.812994e+001 -9.369455e+001 -5.819614e+001 -9.706123e+001 -1.452158e-001 1.347207e+002
536995092.48773 -5.927153e-001 1.634190e+002 -5.758865e+001 -9.345834e+001 -5.786179e+001 -9.828052e+001 -1.435804e-001 1.347067e+002
537372593.43148 -5.993641e-001 1.631576e+002 -5.788886e+001 -9.020425e+001 -5.751498e+001 -9.870798e+001 -1.405692e-001 1.346903e+002
537750094.37524 -6.033375e-001 1.628989e+002 -5.733335e+001 -9.319897e+001 -5.748815e+001 -9.877576e+001 -1.393082e-001 1.346695e+002
538127595.31899 -6.169035e-001 1.627169e+002 -5.775537e+001 -9.477289e+001 -5.766928e+001 -1.004422e+002 -1.410206e-001 1.346664e+002
538505096.26274 -6.224253e-001 1.624955e+002 -5.692386e+001 -9.504410e+001 -5.720296e+001 -1.003765e+002 -1.384965e-001 1.346678e+002
538882597.20649 -6.286603e-001 1.622645e+002 -5.709813e+001 -9.799889e+001 -5.727177e+001 -1.014156e+002 -1.362838e-001 1.346137e+002
539260098.15025 -6.395119e-001 1.619795e+002 -5.663347e+001 -9.484092e+001 -5.719263e+001 -1.018982e+002 -1.349956e-001 1.346118e+002
539637599.094 -6.495735e-001 1.617728e+002 -5.694536e+001 -9.732487e+001 -5.689898e+001 -1.026818e+002 -1.368472e-001 1.345849e+002
540015100.03775 -6.555780e-001 1.616116e+002 -5.648092e+001 -9.808362e+001 -5.632700e+001 -1.033036e+002 -1.330089e-001 1.346420e+002
540392600.9815 -6.619614e-001 1.613963e+002 -5.646640e+001 -1.010539e+002 -5.685020e+001 -1.054331e+002 -1.369250e-001 1.345587e+002
540770101.92525 -6.734030e-001 1.610728e+002 -5.621928e+001 -1.005077e+002 -5.664497e+001 -1.046343e+002 -1.348096e-001 1.345727e+002
541147602.86901 -6.764154e-001 1.609401e+002 -5.641674e+001 -1.009423e+002 -5.674105e+001 -1.086977e+002 -1.355828e-001 1.345491e+002
541525103.81276 -6.780246e-001 1.606426e+002 -5.611254e+001 -1.043879e+002 -5.647307e+001 -1.073027e+002 -1.362318e-001 1.345455e+002
541902604.75651 -6.864901e-001 1.604383e+002 -5.598594e+001 -1.067084e+002 -5.595657e+001 -1.129637e+002 -1.380441e-001 1.345258e+002
542280105.70026 -6.928271e-001 1.602213e+002 -5.618926e+001 -1.068934e+002 -5.634044e+001 -1.142597e+002 -1.348885e-001 1.345106e+002
542657606.64402 -6.968802e-001 1.600332e+002 -5.580985e+001 -1.061199e+002 -5.621213e+001 -1.128659e+002 -1.378053e-001 1.344871e+002
543035107.58777 -7.024875e-001 1.598483e+002 -5.604740e+001 -1.098638e+002 -5.625623e+001 -1.152097e+002 -1.365962e-001 1.344770e+002
543412608.53152 -7.055840e-001 1.595876e+002 -5.604985e+001 -1.074163e+002 -5.623677e+001 -1.151878e+002 -1.396137e-001 1.344519e+002
543790109.47527 -7.105099e-001 1.594141e+002 -5.612777e+001 -1.103457e+002 -5.615467e+001 -1.179903e+002 -1.383772e-001 1.344235e+002
544167610.41903 -7.174836e-001 1.591343e+002 -5.588045e+001 -1.110319e+002 -5.605644e+001 -1.201080e+002 -1.378462e-001 1.343976e+002
544545111.36278 -7.144349e-001 1.589704e+002 -5.589019e+001 -1.144200e+002 -5.643801e+001 -1.201844e+002 -1.403498e-001 1.343796e+002
544922612.30653 -7.165527e-001 1.586460e+002 -5.582752e+001 -1.134496e+002 -5.593515e+001 -1.216064e+002 -1.402649e-001 1.343525e+002
545300113.25028 -7.226101e-001 1.584486e+002 -5.568317e+001 -1.159409e+002 -5.629629e+001 -1.218718e+002 -1.398430e-001 1.343234e+002
545677614.19404 -7.224038e-001 1.582002e+002 -5.608508e+001 -1.144382e+002 -5.615667e+001 -1.220605e+002 -1.419062e-001 1.342809e+002
546055115.13779 -7.252496e-001 1.579573e+002 -5.599083e+001 -1.176375e+002 -5.605176e+001 -1.226556e+002 -1.441171e-001 1.342727e+002
546432616.08154 -7.285933e-001 1.576888e+002 -5.556768e+001 -1.158750e+002 -5.612283e+001 -1.243349e+002 -1.438697e-001 1.342121e+002
546810117.02529 -7.332878e-001 1.574049e+002 -5.560303e+001 -1.172343e+002 -5.641972e+001 -1.234781e+002 -1.443089e-001 1.341713e+002
547187617.96904 -7.347885e-001 1.571966e+002 -5.579771e+001 -1.208789e+002 -5.598140e+001 -1.280624e+002 -1.434392e-001 1.341491e+002
547565118.9128 -7.442116e-001 1.569184e+002 -5.587119e+001 -1.208110e+002 -5.607756e+001 -1.259303e+002 -1.432965e-001 1.340827e+002
547942619.85655 -7.521268e-001 1.566952e+002 -5.597515e+001 -1.234481e+002 -5.566522e+001 -1.277348e+002 -1.411663e-001 1.340351e+002
548320120.8003 -7.568285e-001 1.563989e+002 -5.580892e+001 -1.225192e+002 -5.585593e+001 -1.278109e+002 -1.452511e-001 1.339828e+002
548697621.74405 -7.646428e-001 1.561424e+002 -5.528696e+001 -1.223382e+002 -5.580442e+001 -1.257057e+002 -1.440210e-001 1.339202e+002
549075122.68781 -7.746996e-001 1.559259e+002 -5.562394e+001 -1.244526e+002 -5.592018e+001 -1.284618e+002 -1.466376e-001 1.339398e+002
549452623.63156 -7.853724e-001 1.556351e+002 -5.568056e+001 -1.244545e+002 -5.597229e+001 -1.286183e+002 -1.475638e-001 1.338178e+002
549830124.57531 -7.923697e-001 1.554352e+002 -5.546211e+001 -1.270365e+002 -5.587990e+001 -1.309685e+002 -1.446618e-001 1.337738e+002
550207625.51906 -8.003768e-001 1.551352e+002 -5.520620e+001 -1.237664e+002 -5.569699e+001 -1.297006e+002 -1.491891e-001 1.337093e+002
550585126.46282 -8.097604e-001 1.548902e+002 -5.532678e+001 -1.247525e+002 -5.561204e+001 -1.316125e+002 -1.461250e-001 1.336557e+002
550962627.40657 -8.132398e-001 1.546281e+002 -5.502182e+001 -1.267932e+002 -5.539126e+001 -1.320024e+002 -1.449205e-001 1.336080e+002
551340128.35032 -8.225035e-001 1.544127e+002 -5.500525e+001 -1.271208e+002 -5.537274e+001 -1.343427e+002 -1.456576e-001 1.335190e+002
551717629.29407 -8.329565e-001 1.541338e+002 -5.498574e+001 -1.275290e+002 -5.544454e+001 -1.309810e+002 -1.471309e-001 1.334702e+002
552095130.23783 -8.397615e-001 1.538326e+002 -5.496574e+001 -1.273296e+002 -5.526381e+001 -1.331616e+002 -1.459826e-001 1.334183e+002
552472631.18158 -8.486588e-001 1.536061e+002 -5.498806e+001 -1.312822e+002 -5.488664e+001 -1.344322e+002 -1.445315e-001 1.333653e+002
552850132.12533 -8.529825e-001 1.533657e+002 -5.482697e+001 -1.306235e+002 -5.486366e+001 -1.360720e+002 -1.469223e-001 1.332977e+002
553227633.06908 -8.676395e-001 1.530597e+002 -5.472572e+001 -1.319688e+002 -5.476593e+001 -1.400486e+002 -1.466187e-001 1.332481e+002
553605134.01284 -8.765645e-001 1.528203e+002 -5.427108e+001 -1.326890e+002 -5.472505e+001 -1.373486e+002 -1.411426e-001 1.331941e+002
553982634.95659 -8.906889e-001 1.524937e+002 -5.443025e+001 -1.326152e+002 -5.466398e+001 -1.386199e+002 -1.463434e-001 1.331352e+002
554360135.90034 -9.021878e-001 1.522342e+002 -5.436854e+001 -1.351726e+002 -5.490989e+001 -1.390871e+002 -1.444654e-001 1.330717e+002
554737636.84409 -9.145508e-001 1.520068e+002 -5.393645e+001 -1.378700e+002 -5.434551e+001 -1.432130e+002 -1.457753e-001 1.330447e+002
555115137.78784 -9.255356e-001 1.517568e+002 -5.426727e+001 -1.357212e+002 -5.403116e+001 -1.413471e+002 -1.370196e-001 1.329803e+002
