!Agilent Technologies,E8364B,US42250235,A.06.04.32
!Agilent E8364B: A.06.04.32
!Date: Thursday, October 01, 2020 14:23:26
!Correction: S11(Full 2 Port(1,2)) S21(Full 2 Port(1,2)) S12(Full 2 Port(1,2)) S22(Full 2 Port(1,2)) 
!S2P File: Measurements: S11, S21, S12, S22:
# Hz S  dB   R 50
500000000 -1.893767e-001 -1.753698e+002 -5.405590e+001 1.025218e+002 -5.438452e+001 1.024391e+002 -1.305901e-001 1.393580e+002
500377500.94375 -1.923683e-001 -1.754939e+002 -5.401015e+001 1.032249e+002 -5.445847e+001 1.019879e+002 -1.299460e-001 1.393428e+002
500755001.8875 -1.894589e-001 -1.757311e+002 -5.414466e+001 9.981921e+001 -5.409806e+001 1.040678e+002 -1.295112e-001 1.393091e+002
501132502.83126 -1.932106e-001 -1.759382e+002 -5.406993e+001 1.004182e+002 -5.394617e+001 1.030636e+002 -1.302960e-001 1.392672e+002
501510003.77501 -1.976730e-001 -1.760926e+002 -5.367670e+001 9.843884e+001 -5.419835e+001 1.008849e+002 -1.346836e-001 1.392258e+002
501887504.71876 -1.931069e-001 -1.764131e+002 -5.370824e+001 1.014721e+002 -5.395723e+001 1.019044e+002 -1.339562e-001 1.391719e+002
502265005.66251 -2.014028e-001 -1.765262e+002 -5.363219e+001 1.006263e+002 -5.392844e+001 1.015402e+002 -1.334806e-001 1.391338e+002
502642506.60627 -1.969879e-001 -1.768133e+002 -5.380139e+001 9.918607e+001 -5.385007e+001 1.015453e+002 -1.343372e-001 1.391395e+002
503020007.55002 -2.070909e-001 -1.769598e+002 -5.339382e+001 9.964874e+001 -5.389060e+001 1.012340e+002 -1.334288e-001 1.390408e+002
503397508.49377 -2.111882e-001 -1.771584e+002 -5.332959e+001 9.531823e+001 -5.397070e+001 9.893049e+001 -1.323527e-001 1.390172e+002
503775009.43752 -2.077076e-001 -1.774243e+002 -5.356937e+001 9.866891e+001 -5.370382e+001 9.848592e+001 -1.326294e-001 1.389456e+002
504152510.38128 -2.123409e-001 -1.776223e+002 -5.299200e+001 9.680238e+001 -5.352057e+001 9.857925e+001 -1.352060e-001 1.388971e+002
504530011.32503 -2.164938e-001 -1.778397e+002 -5.323750e+001 9.793283e+001 -5.353388e+001 9.878864e+001 -1.320760e-001 1.388504e+002
504907512.26878 -2.179244e-001 -1.780254e+002 -5.328654e+001 9.743876e+001 -5.340947e+001 9.745588e+001 -1.328130e-001 1.388110e+002
505285013.21253 -2.148042e-001 -1.783068e+002 -5.326245e+001 9.665356e+001 -5.330006e+001 9.911098e+001 -1.334322e-001 1.387549e+002
505662514.15629 -2.177805e-001 -1.784897e+002 -5.297757e+001 9.406401e+001 -5.340188e+001 9.746715e+001 -1.296944e-001 1.387075e+002
506040015.10004 -2.192302e-001 -1.787215e+002 -5.281836e+001 9.515486e+001 -5.329155e+001 9.962234e+001 -1.297778e-001 1.386573e+002
506417516.04379 -2.232322e-001 -1.789640e+002 -5.280699e+001 9.439892e+001 -5.311143e+001 9.620525e+001 -1.288323e-001 1.386205e+002
506795016.98754 -2.291670e-001 -1.790838e+002 -5.291175e+001 9.331975e+001 -5.294990e+001 9.702562e+001 -1.304803e-001 1.385633e+002
507172517.93129 -2.285098e-001 -1.793938e+002 -5.257303e+001 9.264901e+001 -5.312077e+001 9.768309e+001 -1.323514e-001 1.385226e+002
507550018.87505 -2.339893e-001 -1.795416e+002 -5.251464e+001 9.163548e+001 -5.296853e+001 9.684410e+001 -1.293304e-001 1.384961e+002
507927519.8188 -2.355557e-001 -1.798121e+002 -5.257721e+001 9.106246e+001 -5.293295e+001 9.490979e+001 -1.255561e-001 1.384169e+002
508305020.76255 -2.366988e-001 -1.799939e+002 -5.248384e+001 9.283167e+001 -5.274964e+001 9.772198e+001 -1.245229e-001 1.383962e+002
508682521.7063 -2.365729e-001 1.798058e+002 -5.258878e+001 9.204964e+001 -5.263845e+001 9.334515e+001 -1.204971e-001 1.383433e+002
509060022.65006 -2.420406e-001 1.795280e+002 -5.261887e+001 8.917552e+001 -5.235397e+001 9.554746e+001 -1.232954e-001 1.383008e+002
509437523.59381 -2.422704e-001 1.793191e+002 -5.230389e+001 9.039677e+001 -5.253965e+001 9.372189e+001 -1.236561e-001 1.382630e+002
509815024.53756 -2.464638e-001 1.790967e+002 -5.200208e+001 8.829157e+001 -5.216755e+001 9.271427e+001 -1.216976e-001 1.382231e+002
510192525.48131 -2.511441e-001 1.788950e+002 -5.223251e+001 8.801716e+001 -5.226237e+001 9.320244e+001 -1.196016e-001 1.381713e+002
510570026.42507 -2.583224e-001 1.787605e+002 -5.218929e+001 8.888899e+001 -5.209496e+001 9.043412e+001 -1.191078e-001 1.381476e+002
510947527.36882 -2.537858e-001 1.784506e+002 -5.237647e+001 8.920896e+001 -5.218013e+001 9.286407e+001 -1.229892e-001 1.380922e+002
511325028.31257 -2.617892e-001 1.783250e+002 -5.236536e+001 8.899377e+001 -5.215537e+001 9.111329e+001 -1.205218e-001 1.380586e+002
511702529.25632 -2.614977e-001 1.780341e+002 -5.194918e+001 8.873254e+001 -5.206877e+001 9.101740e+001 -1.176171e-001 1.380226e+002
512080030.20008 -2.666017e-001 1.778630e+002 -5.177693e+001 8.823947e+001 -5.189111e+001 9.029454e+001 -1.176486e-001 1.380049e+002
512457531.14383 -2.661285e-001 1.776118e+002 -5.190073e+001 8.686285e+001 -5.160659e+001 8.990378e+001 -1.218013e-001 1.379789e+002
512835032.08758 -2.694458e-001 1.773629e+002 -5.148895e+001 8.706425e+001 -5.149534e+001 9.054207e+001 -1.217342e-001 1.379189e+002
513212533.03133 -2.727201e-001 1.771701e+002 -5.169140e+001 8.658324e+001 -5.174430e+001 8.818966e+001 -1.202632e-001 1.378945e+002
513590033.97508 -2.790397e-001 1.769843e+002 -5.173772e+001 8.739154e+001 -5.162421e+001 8.868500e+001 -1.202962e-001 1.378798e+002
513967534.91884 -2.790620e-001 1.767147e+002 -5.143600e+001 8.800993e+001 -5.142101e+001 8.769813e+001 -1.233616e-001 1.378459e+002
514345035.86259 -2.775338e-001 1.764844e+002 -5.152778e+001 8.709014e+001 -5.146680e+001 8.911988e+001 -1.224187e-001 1.378275e+002
514722536.80634 -2.835719e-001 1.762673e+002 -5.120935e+001 8.631420e+001 -5.115841e+001 8.601100e+001 -1.241472e-001 1.378175e+002
515100037.75009 -2.866303e-001 1.761104e+002 -5.110782e+001 8.372442e+001 -5.116477e+001 8.573440e+001 -1.238399e-001 1.377777e+002
515477538.69385 -2.924358e-001 1.758478e+002 -5.100987e+001 8.569511e+001 -5.118122e+001 8.577126e+001 -1.254552e-001 1.377512e+002
515855039.6376 -2.935458e-001 1.756010e+002 -5.084731e+001 8.613335e+001 -5.106042e+001 8.431853e+001 -1.253281e-001 1.377256e+002
516232540.58135 -2.999263e-001 1.754218e+002 -5.096723e+001 8.473294e+001 -5.098493e+001 8.437774e+001 -1.242954e-001 1.376955e+002
516610041.5251 -3.048681e-001 1.751819e+002 -5.050600e+001 8.405273e+001 -5.096542e+001 8.262096e+001 -1.240387e-001 1.376999e+002
516987542.46886 -3.100710e-001 1.749120e+002 -5.077814e+001 8.371346e+001 -5.091515e+001 8.258034e+001 -1.260005e-001 1.376641e+002
517365043.41261 -3.171498e-001 1.747399e+002 -5.042230e+001 8.274866e+001 -5.072882e+001 8.296362e+001 -1.271161e-001 1.376591e+002
517742544.35636 -3.157896e-001 1.744273e+002 -5.065762e+001 8.191371e+001 -5.077843e+001 8.374347e+001 -1.281424e-001 1.376452e+002
518120045.30011 -3.209984e-001 1.742573e+002 -5.030254e+001 8.185374e+001 -5.075479e+001 8.180286e+001 -1.287280e-001 1.376133e+002
518497546.24387 -3.239986e-001 1.740025e+002 -5.020608e+001 8.218913e+001 -5.059353e+001 8.035910e+001 -1.288293e-001 1.376028e+002
518875047.18762 -3.294049e-001 1.737528e+002 -5.007663e+001 8.002209e+001 -5.056713e+001 8.166754e+001 -1.316052e-001 1.375844e+002
519252548.13137 -3.354659e-001 1.735282e+002 -5.004706e+001 8.110941e+001 -5.052712e+001 8.081902e+001 -1.303221e-001 1.375369e+002
519630049.07512 -3.364540e-001 1.732834e+002 -4.987315e+001 7.964255e+001 -5.037078e+001 7.985331e+001 -1.307948e-001 1.375154e+002
520007550.01888 -3.445820e-001 1.730288e+002 -4.976551e+001 7.844234e+001 -5.051961e+001 7.978825e+001 -1.332812e-001 1.374904e+002
520385050.96263 -3.490450e-001 1.728015e+002 -4.978782e+001 7.825599e+001 -5.015437e+001 8.009751e+001 -1.327313e-001 1.374737e+002
520762551.90638 -3.545895e-001 1.726175e+002 -4.951119e+001 7.808445e+001 -5.029815e+001 8.012906e+001 -1.337896e-001 1.374633e+002
521140052.85013 -3.539130e-001 1.723211e+002 -4.942233e+001 7.691026e+001 -5.027634e+001 7.825912e+001 -1.341675e-001 1.374038e+002
521517553.79388 -3.617981e-001 1.720901e+002 -4.950108e+001 7.672839e+001 -5.005472e+001 7.949815e+001 -1.327808e-001 1.373943e+002
521895054.73764 -3.688400e-001 1.718650e+002 -4.961115e+001 7.627834e+001 -5.004425e+001 7.850874e+001 -1.354552e-001 1.373516e+002
522272555.68139 -3.738576e-001 1.716010e+002 -4.937350e+001 7.410120e+001 -4.972054e+001 7.805753e+001 -1.344660e-001 1.373013e+002
522650056.62514 -3.769652e-001 1.713910e+002 -4.928885e+001 7.419308e+001 -4.950925e+001 7.652851e+001 -1.372315e-001 1.372689e+002
523027557.56889 -3.825249e-001 1.711293e+002 -4.926716e+001 7.421803e+001 -4.956282e+001 7.699980e+001 -1.360041e-001 1.371758e+002
523405058.51265 -3.890208e-001 1.709265e+002 -4.914742e+001 7.274349e+001 -4.933773e+001 7.615645e+001 -1.417041e-001 1.372051e+002
523782559.4564 -3.946263e-001 1.706830e+002 -4.886764e+001 7.271642e+001 -4.933310e+001 7.623754e+001 -1.408520e-001 1.371333e+002
524160060.40015 -3.986843e-001 1.703720e+002 -4.905284e+001 7.219836e+001 -4.929710e+001 7.578647e+001 -1.452993e-001 1.371131e+002
524537561.3439 -4.052354e-001 1.702298e+002 -4.899068e+001 7.164886e+001 -4.930519e+001 7.572409e+001 -1.421701e-001 1.370490e+002
524915062.28766 -4.086721e-001 1.699088e+002 -4.869691e+001 6.892807e+001 -4.915147e+001 7.389315e+001 -1.472231e-001 1.369650e+002
525292563.23141 -4.162333e-001 1.696988e+002 -4.875589e+001 6.947652e+001 -4.898047e+001 7.454832e+001 -1.496627e-001 1.369190e+002
525670064.17516 -4.182023e-001 1.694460e+002 -4.869407e+001 7.005195e+001 -4.887229e+001 7.387805e+001 -1.488311e-001 1.368667e+002
526047565.11891 -4.258324e-001 1.692003e+002 -4.854067e+001 6.840257e+001 -4.884573e+001 7.151846e+001 -1.490311e-001 1.368002e+002
526425066.06267 -4.330590e-001 1.689651e+002 -4.860741e+001 6.760731e+001 -4.877779e+001 7.175970e+001 -1.484019e-001 1.367267e+002
526802567.00642 -4.413593e-001 1.687754e+002 -4.868411e+001 6.707925e+001 -4.856556e+001 7.096575e+001 -1.521261e-001 1.366604e+002
527180067.95017 -4.450753e-001 1.685483e+002 -4.840049e+001 6.784190e+001 -4.844854e+001 6.957076e+001 -1.501990e-001 1.365791e+002
527557568.89392 -4.503356e-001 1.682471e+002 -4.845001e+001 6.599181e+001 -4.846331e+001 6.862505e+001 -1.545644e-001 1.365253e+002
527935069.83767 -4.580782e-001 1.681023e+002 -4.843600e+001 6.566250e+001 -4.866504e+001 6.899702e+001 -1.490488e-001 1.363842e+002
528312570.78143 -4.636501e-001 1.678577e+002 -4.834005e+001 6.582118e+001 -4.829462e+001 6.805588e+001 -1.523096e-001 1.363653e+002
528690071.72518 -4.663557e-001 1.675971e+002 -4.829850e+001 6.454139e+001 -4.839995e+001 6.782661e+001 -1.557535e-001 1.363027e+002
529067572.66893 -4.742100e-001 1.673579e+002 -4.812054e+001 6.375914e+001 -4.825030e+001 6.799577e+001 -1.511962e-001 1.362250e+002
529445073.61268 -4.773761e-001 1.670474e+002 -4.809553e+001 6.380287e+001 -4.826289e+001 6.695000e+001 -1.522839e-001 1.361623e+002
529822574.55644 -4.850213e-001 1.668025e+002 -4.815050e+001 6.395087e+001 -4.801530e+001 6.692077e+001 -1.541118e-001 1.360856e+002
530200075.50019 -4.926874e-001 1.666245e+002 -4.791205e+001 6.301436e+001 -4.797660e+001 6.577799e+001 -1.549139e-001 1.360250e+002
530577576.44394 -4.974635e-001 1.663133e+002 -4.783203e+001 6.273861e+001 -4.793164e+001 6.517838e+001 -1.550978e-001 1.359509e+002
530955077.38769 -5.077848e-001 1.661207e+002 -4.772989e+001 6.339048e+001 -4.777769e+001 6.428837e+001 -1.535124e-001 1.358621e+002
531332578.33145 -5.169773e-001 1.658976e+002 -4.787416e+001 6.222551e+001 -4.778606e+001 6.458013e+001 -1.556690e-001 1.357985e+002
531710079.2752 -5.231529e-001 1.656174e+002 -4.764479e+001 6.114938e+001 -4.761478e+001 6.401255e+001 -1.510273e-001 1.357105e+002
532087580.21895 -5.327165e-001 1.654365e+002 -4.770378e+001 6.086491e+001 -4.766812e+001 6.424393e+001 -1.549725e-001 1.356555e+002
532465081.1627 -5.416721e-001 1.651029e+002 -4.756360e+001 6.087709e+001 -4.754382e+001 6.321975e+001 -1.537894e-001 1.356054e+002
532842582.10646 -5.452569e-001 1.648804e+002 -4.750794e+001 6.065356e+001 -4.726987e+001 6.316201e+001 -1.512501e-001 1.355239e+002
533220083.05021 -5.556847e-001 1.646604e+002 -4.739526e+001 6.074489e+001 -4.748734e+001 6.214868e+001 -1.539141e-001 1.354819e+002
533597583.99396 -5.618517e-001 1.643605e+002 -4.726584e+001 5.940046e+001 -4.732185e+001 6.168267e+001 -1.538036e-001 1.354223e+002
533975084.93771 -5.771347e-001 1.641311e+002 -4.731491e+001 5.955859e+001 -4.719769e+001 6.079418e+001 -1.542040e-001 1.353486e+002
534352585.88146 -5.814020e-001 1.638407e+002 -4.710618e+001 5.916126e+001 -4.708343e+001 6.044403e+001 -1.513769e-001 1.353114e+002
534730086.82522 -5.905107e-001 1.635699e+002 -4.693592e+001 5.769691e+001 -4.692342e+001 5.976941e+001 -1.466049e-001 1.352615e+002
535107587.76897 -6.002763e-001 1.634190e+002 -4.690993e+001 5.808124e+001 -4.693669e+001 5.940294e+001 -1.523661e-001 1.351808e+002
535485088.71272 -6.132928e-001 1.631441e+002 -4.675143e+001 5.793895e+001 -4.680664e+001 5.898750e+001 -1.465844e-001 1.351520e+002
535862589.65647 -6.211965e-001 1.629082e+002 -4.663766e+001 5.716608e+001 -4.679158e+001 5.890254e+001 -1.476780e-001 1.350961e+002
536240090.60023 -6.266656e-001 1.626355e+002 -4.656656e+001 5.592928e+001 -4.654737e+001 5.775228e+001 -1.476586e-001 1.350065e+002
536617591.54398 -6.331166e-001 1.623887e+002 -4.650576e+001 5.544721e+001 -4.648981e+001 5.686187e+001 -1.457566e-001 1.350273e+002
536995092.48773 -6.447495e-001 1.621893e+002 -4.643272e+001 5.472610e+001 -4.632974e+001 5.613868e+001 -1.470155e-001 1.349810e+002
537372593.43148 -6.552646e-001 1.618896e+002 -4.624289e+001 5.545485e+001 -4.622294e+001 5.602009e+001 -1.419572e-001 1.349339e+002
537750094.37524 -6.647602e-001 1.616269e+002 -4.603014e+001 5.436123e+001 -4.615731e+001 5.567537e+001 -1.404120e-001 1.349017e+002
538127595.31899 -6.767285e-001 1.614224e+002 -4.612885e+001 5.352028e+001 -4.607771e+001 5.371524e+001 -1.430529e-001 1.348452e+002
538505096.26274 -6.850996e-001 1.611166e+002 -4.601437e+001 5.338960e+001 -4.597373e+001 5.285928e+001 -1.442987e-001 1.348177e+002
538882597.20649 -6.985254e-001 1.608966e+002 -4.586209e+001 5.235858e+001 -4.586055e+001 5.225636e+001 -1.431204e-001 1.347906e+002
539260098.15025 -7.096672e-001 1.606336e+002 -4.581863e+001 5.167559e+001 -4.579333e+001 5.191763e+001 -1.360616e-001 1.347482e+002
539637599.094 -7.204700e-001 1.603619e+002 -4.562063e+001 5.115449e+001 -4.569607e+001 5.119588e+001 -1.393139e-001 1.346991e+002
540015100.03775 -7.308484e-001 1.601220e+002 -4.545776e+001 4.990900e+001 -4.563592e+001 5.105997e+001 -1.418740e-001 1.347183e+002
540392600.9815 -7.464908e-001 1.598805e+002 -4.532888e+001 4.945582e+001 -4.545262e+001 4.947178e+001 -1.400362e-001 1.345779e+002
540770101.92525 -7.613416e-001 1.596763e+002 -4.523974e+001 4.889744e+001 -4.542623e+001 4.914153e+001 -1.378718e-001 1.345903e+002
541147602.86901 -7.714389e-001 1.594041e+002 -4.506069e+001 4.687264e+001 -4.530715e+001 4.785245e+001 -1.392413e-001 1.345572e+002
541525103.81276 -7.850745e-001 1.591333e+002 -4.512388e+001 4.662576e+001 -4.525322e+001 4.728262e+001 -1.388400e-001 1.345019e+002
541902604.75651 -8.035161e-001 1.589755e+002 -4.493317e+001 4.592001e+001 -4.523453e+001 4.637959e+001 -1.393849e-001 1.344681e+002
542280105.70026 -8.149605e-001 1.586796e+002 -4.488812e+001 4.561086e+001 -4.503650e+001 4.576623e+001 -1.375380e-001 1.344295e+002
542657606.64402 -8.239962e-001 1.584724e+002 -4.475423e+001 4.426688e+001 -4.504332e+001 4.451313e+001 -1.380485e-001 1.343706e+002
543035107.58777 -8.398810e-001 1.582322e+002 -4.461243e+001 4.419942e+001 -4.504814e+001 4.329325e+001 -1.380630e-001 1.343293e+002
543412608.53152 -8.516348e-001 1.580208e+002 -4.458224e+001 4.351475e+001 -4.491853e+001 4.334835e+001 -1.402381e-001 1.342618e+002
543790109.47527 -8.665330e-001 1.577907e+002 -4.448749e+001 4.174924e+001 -4.490965e+001 4.252508e+001 -1.409755e-001 1.342138e+002
544167610.41903 -8.799469e-001 1.576120e+002 -4.442147e+001 4.129579e+001 -4.469169e+001 4.217232e+001 -1.427872e-001 1.341715e+002
544545111.36278 -8.929962e-001 1.573730e+002 -4.441976e+001 3.986378e+001 -4.475397e+001 4.116054e+001 -1.397000e-001 1.340947e+002
544922612.30653 -9.036323e-001 1.571216e+002 -4.423795e+001 3.944442e+001 -4.463361e+001 4.030627e+001 -1.391516e-001 1.340410e+002
545300113.25028 -9.170241e-001 1.569681e+002 -4.417242e+001 3.876532e+001 -4.461340e+001 3.945717e+001 -1.412134e-001 1.340176e+002
545677614.19404 -9.333135e-001 1.567663e+002 -4.416701e+001 3.751637e+001 -4.453005e+001 3.911427e+001 -1.447727e-001 1.339376e+002
546055115.13779 -9.440305e-001 1.565758e+002 -4.398188e+001 3.703637e+001 -4.444423e+001 3.846677e+001 -1.467372e-001 1.338620e+002
546432616.08154 -9.539791e-001 1.563218e+002 -4.394482e+001 3.676835e+001 -4.438733e+001 3.730189e+001 -1.503035e-001 1.338031e+002
546810117.02529 -9.634045e-001 1.561129e+002 -4.388941e+001 3.507207e+001 -4.431941e+001 3.721705e+001 -1.512642e-001 1.337308e+002
547187617.96904 -9.785388e-001 1.558979e+002 -4.375513e+001 3.415315e+001 -4.417881e+001 3.581111e+001 -1.473693e-001 1.336944e+002
547565118.9128 -9.924983e-001 1.556324e+002 -4.375285e+001 3.315779e+001 -4.416926e+001 3.506748e+001 -1.511585e-001 1.336097e+002
547942619.85655 -1.001662e+000 1.554383e+002 -4.355889e+001 3.240988e+001 -4.414557e+001 3.380897e+001 -1.532952e-001 1.335432e+002
548320120.8003 -1.014566e+000 1.552248e+002 -4.357621e+001 3.172350e+001 -4.403722e+001 3.379799e+001 -1.539509e-001 1.334608e+002
548697621.74405 -1.029601e+000 1.550119e+002 -4.361987e+001 3.055299e+001 -4.402102e+001 3.277469e+001 -1.549992e-001 1.333957e+002
549075122.68781 -1.042267e+000 1.547642e+002 -4.350832e+001 2.989144e+001 -4.391142e+001 3.241210e+001 -1.568565e-001 1.333676e+002
549452623.63156 -1.054714e+000 1.545734e+002 -4.349774e+001 2.912157e+001 -4.380824e+001 3.134704e+001 -1.576151e-001 1.332824e+002
549830124.57531 -1.071170e+000 1.543542e+002 -4.337402e+001 2.872126e+001 -4.377020e+001 3.092074e+001 -1.610377e-001 1.331982e+002
550207625.51906 -1.077157e+000 1.541398e+002 -4.327369e+001 2.714136e+001 -4.377292e+001 2.929211e+001 -1.619529e-001 1.331374e+002
550585126.46282 -1.093454e+000 1.539253e+002 -4.340093e+001 2.726498e+001 -4.361797e+001 2.863620e+001 -1.624448e-001 1.330701e+002
550962627.40657 -1.106212e+000 1.536611e+002 -4.318117e+001 2.559173e+001 -4.361747e+001 2.789276e+001 -1.603793e-001 1.329922e+002
551340128.35032 -1.113046e+000 1.535003e+002 -4.320855e+001 2.434798e+001 -4.347375e+001 2.748179e+001 -1.637640e-001 1.329276e+002
551717629.29407 -1.128074e+000 1.532578e+002 -4.322081e+001 2.298577e+001 -4.339985e+001 2.652432e+001 -1.646203e-001 1.328800e+002
552095130.23783 -1.138243e+000 1.530219e+002 -4.317547e+001 2.299770e+001 -4.338686e+001 2.637734e+001 -1.632331e-001 1.327833e+002
552472631.18158 -1.146900e+000 1.528201e+002 -4.308113e+001 2.331261e+001 -4.331942e+001 2.540938e+001 -1.634835e-001 1.327355e+002
552850132.12533 -1.160313e+000 1.525930e+002 -4.304630e+001 2.173205e+001 -4.322681e+001 2.444759e+001 -1.636123e-001 1.326491e+002
553227633.06908 -1.171137e+000 1.523849e+002 -4.314453e+001 2.091352e+001 -4.321959e+001 2.336938e+001 -1.615236e-001 1.325895e+002
553605134.01284 -1.184255e+000 1.521679e+002 -4.301004e+001 1.979037e+001 -4.311195e+001 2.280956e+001 -1.681580e-001 1.325276e+002
553982634.95659 -1.196359e+000 1.519248e+002 -4.294633e+001 1.965959e+001 -4.310096e+001 2.165906e+001 -1.666779e-001 1.324584e+002
554360135.90034 -1.206756e+000 1.517029e+002 -4.286826e+001 1.879155e+001 -4.303472e+001 2.185314e+001 -1.651126e-001 1.324063e+002
554737636.84409 -1.224037e+000 1.514279e+002 -4.287760e+001 1.835056e+001 -4.298666e+001 2.087692e+001 -1.667620e-001 1.323473e+002
555115137.78784 -1.238250e+000 1.512604e+002 -4.283413e+001 1.745612e+001 -4.294532e+001 1.986665e+001 -1.679071e-001 1.322782e+002
555492638.7316 -1.248846e+000 1.510231e+002 -4.277497e+001 1.641633e+001 -4.283224e+001 1.885202e+001 -1.665886e-001 1.322401e+002
555870139.67535 -1.263582e+000 1.508150e+002 -4.270445e+001 1.620700e+001 -4.277513e+001 1.802202e+001 -1.696881e-001 1.321813e+002
