!Agilent Technologies,E8364B,US42250235,A.06.04.32
!Agilent E8364B: A.06.04.32
!Date: Thursday, October 01, 2020 14:35:03
!Correction: S11(Full 2 Port(1,2)) S21(Full 2 Port(1,2)) S12(Full 2 Port(1,2)) S22(Full 2 Port(1,2)) 
!S2P File: Measurements: S11, S21, S12, S22:
# Hz S  dB   R 50
500000000 -2.192401e-001 -1.752306e+002 -5.983323e+001 -7.248392e+001 -5.982744e+001 -7.350764e+001 -1.671271e-001 1.376295e+002
500377500.94375 -2.255537e-001 -1.754417e+002 -5.933614e+001 -7.683713e+001 -5.980320e+001 -7.534006e+001 -1.642621e-001 1.375715e+002
500755001.8875 -2.270434e-001 -1.755932e+002 -5.946259e+001 -7.364269e+001 -6.000163e+001 -8.166130e+001 -1.661497e-001 1.375331e+002
501132502.83126 -2.263627e-001 -1.758293e+002 -5.951276e+001 -7.967728e+001 -5.969413e+001 -8.004790e+001 -1.688776e-001 1.374542e+002
501510003.77501 -2.333033e-001 -1.760268e+002 -5.852855e+001 -7.783585e+001 -5.951021e+001 -8.315430e+001 -1.719551e-001 1.373465e+002
501887504.71876 -2.317441e-001 -1.762474e+002 -5.954737e+001 -7.846639e+001 -5.932890e+001 -8.333863e+001 -1.700376e-001 1.373247e+002
502265005.66251 -2.371333e-001 -1.764414e+002 -5.918238e+001 -8.069103e+001 -5.923800e+001 -7.708446e+001 -1.708584e-001 1.372438e+002
502642506.60627 -2.352310e-001 -1.766566e+002 -5.941401e+001 -7.989227e+001 -5.972299e+001 -8.251274e+001 -1.753287e-001 1.372329e+002
503020007.55002 -2.398429e-001 -1.768200e+002 -5.893242e+001 -8.298174e+001 -5.946230e+001 -8.141618e+001 -1.699300e-001 1.371106e+002
503397508.49377 -2.454478e-001 -1.770544e+002 -5.908453e+001 -8.397228e+001 -5.911694e+001 -8.377429e+001 -1.758178e-001 1.370708e+002
503775009.43752 -2.406893e-001 -1.772686e+002 -5.880697e+001 -8.251462e+001 -5.884970e+001 -8.238558e+001 -1.707622e-001 1.370106e+002
504152510.38128 -2.435116e-001 -1.775232e+002 -5.969423e+001 -8.379735e+001 -5.933285e+001 -8.199342e+001 -1.747771e-001 1.369144e+002
504530011.32503 -2.480967e-001 -1.777004e+002 -5.900549e+001 -7.942815e+001 -5.899751e+001 -8.239955e+001 -1.715794e-001 1.368708e+002
504907512.26878 -2.489062e-001 -1.779060e+002 -5.924203e+001 -7.904153e+001 -5.933508e+001 -7.969512e+001 -1.717202e-001 1.367984e+002
505285013.21253 -2.482458e-001 -1.781091e+002 -5.867190e+001 -8.213505e+001 -5.907676e+001 -8.236050e+001 -1.696452e-001 1.367177e+002
505662514.15629 -2.490204e-001 -1.783228e+002 -5.889072e+001 -8.281675e+001 -5.846751e+001 -8.431791e+001 -1.751020e-001 1.366550e+002
506040015.10004 -2.502850e-001 -1.785879e+002 -5.884547e+001 -8.151766e+001 -5.884780e+001 -8.299699e+001 -1.723257e-001 1.366038e+002
506417516.04379 -2.541262e-001 -1.787632e+002 -5.831158e+001 -8.380641e+001 -5.852447e+001 -8.317838e+001 -1.722057e-001 1.365328e+002
506795016.98754 -2.604411e-001 -1.789497e+002 -5.908662e+001 -8.563995e+001 -5.887146e+001 -8.338796e+001 -1.700736e-001 1.364619e+002
507172517.93129 -2.592887e-001 -1.791512e+002 -5.824296e+001 -8.677666e+001 -5.824428e+001 -8.251003e+001 -1.724445e-001 1.364198e+002
507550018.87505 -2.650907e-001 -1.793414e+002 -5.870266e+001 -8.612730e+001 -5.802501e+001 -8.226638e+001 -1.725303e-001 1.363514e+002
507927519.8188 -2.663032e-001 -1.796085e+002 -5.780725e+001 -8.701370e+001 -5.827243e+001 -8.663699e+001 -1.667958e-001 1.362921e+002
508305020.76255 -2.702467e-001 -1.797862e+002 -5.835977e+001 -8.646140e+001 -5.823333e+001 -8.276338e+001 -1.693247e-001 1.362513e+002
508682521.7063 -2.719668e-001 -1.799430e+002 -5.851466e+001 -8.641099e+001 -5.835590e+001 -8.845250e+001 -1.666804e-001 1.362335e+002
509060022.65006 -2.774601e-001 1.797934e+002 -5.797708e+001 -8.754501e+001 -5.815077e+001 -8.805683e+001 -1.704711e-001 1.361355e+002
509437523.59381 -2.759245e-001 1.795457e+002 -5.794875e+001 -8.778540e+001 -5.796814e+001 -9.027701e+001 -1.692218e-001 1.360909e+002
509815024.53756 -2.814470e-001 1.793814e+002 -5.741597e+001 -9.388119e+001 -5.794680e+001 -8.901884e+001 -1.663919e-001 1.360435e+002
510192525.48131 -2.851540e-001 1.791558e+002 -5.772889e+001 -9.149081e+001 -5.732446e+001 -9.033266e+001 -1.643662e-001 1.359947e+002
510570026.42507 -2.902164e-001 1.789487e+002 -5.797161e+001 -9.060319e+001 -5.793283e+001 -8.880093e+001 -1.649107e-001 1.359684e+002
510947527.36882 -2.895561e-001 1.787456e+002 -5.756307e+001 -8.876718e+001 -5.762560e+001 -9.029530e+001 -1.646472e-001 1.358980e+002
511325028.31257 -2.945243e-001 1.785747e+002 -5.783321e+001 -9.191505e+001 -5.739772e+001 -9.467548e+001 -1.625286e-001 1.358686e+002
511702529.25632 -2.953134e-001 1.783322e+002 -5.730570e+001 -9.280328e+001 -5.737153e+001 -9.487963e+001 -1.622051e-001 1.358198e+002
512080030.20008 -2.990124e-001 1.780906e+002 -5.736906e+001 -9.329675e+001 -5.714489e+001 -9.437711e+001 -1.594519e-001 1.357887e+002
512457531.14383 -3.017873e-001 1.778536e+002 -5.746297e+001 -9.180618e+001 -5.742595e+001 -9.259110e+001 -1.635085e-001 1.357738e+002
512835032.08758 -3.013294e-001 1.776698e+002 -5.726538e+001 -9.614501e+001 -5.709803e+001 -9.251621e+001 -1.634350e-001 1.357034e+002
513212533.03133 -3.084507e-001 1.774260e+002 -5.677544e+001 -9.732645e+001 -5.681830e+001 -9.572844e+001 -1.633578e-001 1.356814e+002
513590033.97508 -3.104263e-001 1.772367e+002 -5.703553e+001 -9.814476e+001 -5.687119e+001 -9.653351e+001 -1.617748e-001 1.356686e+002
513967534.91884 -3.147217e-001 1.770194e+002 -5.690304e+001 -9.534633e+001 -5.717706e+001 -9.671701e+001 -1.617827e-001 1.356250e+002
514345035.86259 -3.168372e-001 1.767511e+002 -5.702690e+001 -9.759136e+001 -5.703132e+001 -9.616522e+001 -1.625226e-001 1.356109e+002
514722536.80634 -3.207519e-001 1.765702e+002 -5.683182e+001 -1.003056e+002 -5.650250e+001 -9.800375e+001 -1.642362e-001 1.355793e+002
515100037.75009 -3.233950e-001 1.764060e+002 -5.668402e+001 -1.000700e+002 -5.653957e+001 -9.759212e+001 -1.647968e-001 1.355551e+002
515477538.69385 -3.272142e-001 1.761302e+002 -5.667181e+001 -9.770245e+001 -5.650658e+001 -9.863271e+001 -1.652825e-001 1.355389e+002
515855039.6376 -3.315230e-001 1.759408e+002 -5.675814e+001 -9.881356e+001 -5.672995e+001 -1.020518e+002 -1.635057e-001 1.355022e+002
516232540.58135 -3.369487e-001 1.756451e+002 -5.673791e+001 -9.977367e+001 -5.672600e+001 -1.034403e+002 -1.642306e-001 1.354879e+002
516610041.5251 -3.433580e-001 1.754941e+002 -5.656558e+001 -9.987000e+001 -5.674053e+001 -1.012425e+002 -1.649849e-001 1.354774e+002
516987542.46886 -3.466599e-001 1.752593e+002 -5.649124e+001 -1.019511e+002 -5.655423e+001 -1.044096e+002 -1.634479e-001 1.354577e+002
517365043.41261 -3.522486e-001 1.750031e+002 -5.638097e+001 -1.028358e+002 -5.642838e+001 -1.046954e+002 -1.660521e-001 1.354363e+002
517742544.35636 -3.522962e-001 1.747229e+002 -5.605632e+001 -1.038087e+002 -5.641149e+001 -1.068003e+002 -1.689554e-001 1.354312e+002
518120045.30011 -3.615853e-001 1.745755e+002 -5.594667e+001 -1.056691e+002 -5.651571e+001 -1.062252e+002 -1.698627e-001 1.354075e+002
518497546.24387 -3.608766e-001 1.742937e+002 -5.620403e+001 -1.036614e+002 -5.673427e+001 -1.052936e+002 -1.665182e-001 1.354007e+002
518875047.18762 -3.663280e-001 1.740899e+002 -5.653217e+001 -1.054199e+002 -5.642105e+001 -1.055623e+002 -1.709902e-001 1.353708e+002
519252548.13137 -3.727491e-001 1.738249e+002 -5.603940e+001 -1.058501e+002 -5.678391e+001 -1.058026e+002 -1.705132e-001 1.353313e+002
519630049.07512 -3.789011e-001 1.736635e+002 -5.611995e+001 -1.067077e+002 -5.634672e+001 -1.074023e+002 -1.768508e-001 1.352962e+002
520007550.01888 -3.851331e-001 1.734027e+002 -5.621383e+001 -1.053434e+002 -5.647329e+001 -1.097865e+002 -1.727901e-001 1.352796e+002
520385050.96263 -3.872713e-001 1.732203e+002 -5.630544e+001 -1.080666e+002 -5.642730e+001 -1.056397e+002 -1.764202e-001 1.352443e+002
520762551.90638 -3.952382e-001 1.730087e+002 -5.610194e+001 -1.121562e+002 -5.628508e+001 -1.064936e+002 -1.739094e-001 1.352298e+002
521140052.85013 -3.927087e-001 1.726657e+002 -5.593917e+001 -1.094214e+002 -5.597066e+001 -1.113757e+002 -1.726098e-001 1.351761e+002
521517553.79388 -4.027145e-001 1.724971e+002 -5.585218e+001 -1.090714e+002 -5.620704e+001 -1.095484e+002 -1.780489e-001 1.351586e+002
521895054.73764 -4.052935e-001 1.722630e+002 -5.548681e+001 -1.107769e+002 -5.566322e+001 -1.119765e+002 -1.745774e-001 1.351284e+002
522272555.68139 -4.125021e-001 1.720737e+002 -5.550772e+001 -1.087838e+002 -5.572025e+001 -1.108868e+002 -1.771064e-001 1.350594e+002
522650056.62514 -4.153593e-001 1.718146e+002 -5.543418e+001 -1.106249e+002 -5.555664e+001 -1.100878e+002 -1.793818e-001 1.350418e+002
523027557.56889 -4.221041e-001 1.715613e+002 -5.507404e+001 -1.107856e+002 -5.604753e+001 -1.106353e+002 -1.787895e-001 1.349908e+002
523405058.51265 -4.236587e-001 1.714058e+002 -5.544397e+001 -1.143885e+002 -5.557220e+001 -1.130454e+002 -1.813534e-001 1.349655e+002
523782559.4564 -4.313460e-001 1.711463e+002 -5.526508e+001 -1.137830e+002 -5.545776e+001 -1.127608e+002 -1.803230e-001 1.349128e+002
524160060.40015 -4.318478e-001 1.709066e+002 -5.535273e+001 -1.158948e+002 -5.538476e+001 -1.150874e+002 -1.823772e-001 1.348757e+002
524537561.3439 -4.386550e-001 1.707020e+002 -5.516566e+001 -1.166821e+002 -5.535647e+001 -1.124388e+002 -1.815861e-001 1.348013e+002
524915062.28766 -4.393835e-001 1.704068e+002 -5.531239e+001 -1.156250e+002 -5.484964e+001 -1.136243e+002 -1.830703e-001 1.347530e+002
525292563.23141 -4.446888e-001 1.702493e+002 -5.502977e+001 -1.180391e+002 -5.485493e+001 -1.157938e+002 -1.887576e-001 1.347047e+002
525670064.17516 -4.482043e-001 1.700052e+002 -5.512630e+001 -1.150081e+002 -5.532082e+001 -1.167579e+002 -1.852743e-001 1.346333e+002
526047565.11891 -4.537708e-001 1.697796e+002 -5.482856e+001 -1.180542e+002 -5.434974e+001 -1.158458e+002 -1.850046e-001 1.345771e+002
526425066.06267 -4.594338e-001 1.695193e+002 -5.451142e+001 -1.210841e+002 -5.481103e+001 -1.161845e+002 -1.823906e-001 1.345028e+002
526802567.00642 -4.653761e-001 1.692938e+002 -5.484684e+001 -1.186921e+002 -5.440890e+001 -1.190273e+002 -1.815488e-001 1.344583e+002
527180067.95017 -4.669835e-001 1.690326e+002 -5.444526e+001 -1.199011e+002 -5.449936e+001 -1.202070e+002 -1.796856e-001 1.343762e+002
527557568.89392 -4.762934e-001 1.688060e+002 -5.436515e+001 -1.185577e+002 -5.428085e+001 -1.172659e+002 -1.837603e-001 1.343156e+002
527935069.83767 -4.837528e-001 1.685786e+002 -5.428693e+001 -1.203425e+002 -5.401991e+001 -1.211633e+002 -1.796459e-001 1.342556e+002
528312570.78143 -4.840924e-001 1.683337e+002 -5.421190e+001 -1.217285e+002 -5.408679e+001 -1.220562e+002 -1.793076e-001 1.341797e+002
528690071.72518 -4.935826e-001 1.681493e+002 -5.472466e+001 -1.215252e+002 -5.407402e+001 -1.231975e+002 -1.789998e-001 1.341289e+002
529067572.66893 -4.956577e-001 1.678597e+002 -5.425370e+001 -1.250162e+002 -5.394262e+001 -1.239991e+002 -1.772276e-001 1.340605e+002
529445073.61268 -5.055677e-001 1.676373e+002 -5.446278e+001 -1.246410e+002 -5.415232e+001 -1.240125e+002 -1.757754e-001 1.339924e+002
529822574.55644 -5.116886e-001 1.673842e+002 -5.425635e+001 -1.258686e+002 -5.411436e+001 -1.265494e+002 -1.772795e-001 1.339408e+002
530200075.50019 -5.179111e-001 1.672224e+002 -5.406044e+001 -1.260042e+002 -5.389577e+001 -1.245539e+002 -1.757263e-001 1.338626e+002
530577576.44394 -5.252900e-001 1.668950e+002 -5.426006e+001 -1.286681e+002 -5.410584e+001 -1.276932e+002 -1.771884e-001 1.338016e+002
530955077.38769 -5.350728e-001 1.666867e+002 -5.390799e+001 -1.270279e+002 -5.408825e+001 -1.287460e+002 -1.753914e-001 1.337120e+002
531332578.33145 -5.449755e-001 1.665114e+002 -5.387648e+001 -1.284896e+002 -5.391267e+001 -1.292395e+002 -1.793814e-001 1.336713e+002
531710079.2752 -5.506806e-001 1.662421e+002 -5.391228e+001 -1.293917e+002 -5.364200e+001 -1.294009e+002 -1.764437e-001 1.335858e+002
532087580.21895 -5.578328e-001 1.659939e+002 -5.406617e+001 -1.291554e+002 -5.381379e+001 -1.319447e+002 -1.795284e-001 1.335614e+002
532465081.1627 -5.666308e-001 1.657726e+002 -5.369126e+001 -1.300963e+002 -5.382471e+001 -1.303418e+002 -1.796231e-001 1.335061e+002
532842582.10646 -5.709727e-001 1.655279e+002 -5.400199e+001 -1.311831e+002 -5.337924e+001 -1.336949e+002 -1.760603e-001 1.334337e+002
533220083.05021 -5.819396e-001 1.652811e+002 -5.343758e+001 -1.308083e+002 -5.369143e+001 -1.333101e+002 -1.786098e-001 1.333967e+002
533597583.99396 -5.887756e-001 1.650559e+002 -5.373157e+001 -1.323686e+002 -5.354400e+001 -1.348837e+002 -1.781079e-001 1.333427e+002
533975084.93771 -6.024158e-001 1.648100e+002 -5.347733e+001 -1.329005e+002 -5.334227e+001 -1.358318e+002 -1.806313e-001 1.332751e+002
534352585.88146 -6.066758e-001 1.645472e+002 -5.355522e+001 -1.333361e+002 -5.364231e+001 -1.360365e+002 -1.820441e-001 1.332078e+002
534730086.82522 -6.138323e-001 1.643149e+002 -5.331978e+001 -1.361148e+002 -5.322660e+001 -1.371048e+002 -1.788447e-001 1.331584e+002
535107587.76897 -6.217275e-001 1.641426e+002 -5.324405e+001 -1.366333e+002 -5.328515e+001 -1.351218e+002 -1.858329e-001 1.331249e+002
535485088.71272 -6.327276e-001 1.639089e+002 -5.330603e+001 -1.356881e+002 -5.323312e+001 -1.361169e+002 -1.756040e-001 1.330622e+002
535862589.65647 -6.425056e-001 1.636703e+002 -5.340160e+001 -1.351374e+002 -5.306390e+001 -1.371718e+002 -1.763316e-001 1.330585e+002
536240090.60023 -6.457517e-001 1.633844e+002 -5.317275e+001 -1.372566e+002 -5.308644e+001 -1.371736e+002 -1.697285e-001 1.330520e+002
536617591.54398 -6.508785e-001 1.631969e+002 -5.311440e+001 -1.368181e+002 -5.290990e+001 -1.382559e+002 -1.675534e-001 1.330440e+002
536995092.48773 -6.600417e-001 1.629583e+002 -5.313322e+001 -1.387096e+002 -5.291853e+001 -1.400345e+002 -1.678192e-001 1.330241e+002
537372593.43148 -6.723921e-001 1.627194e+002 -5.279628e+001 -1.398491e+002 -5.271765e+001 -1.397731e+002 -1.648772e-001 1.329984e+002
537750094.37524 -6.808124e-001 1.624323e+002 -5.271783e+001 -1.384819e+002 -5.275194e+001 -1.411872e+002 -1.582041e-001 1.330154e+002
538127595.31899 -6.932701e-001 1.622534e+002 -5.262870e+001 -1.420649e+002 -5.275414e+001 -1.402548e+002 -1.621788e-001 1.329663e+002
538505096.26274 -7.013305e-001 1.619983e+002 -5.247158e+001 -1.419104e+002 -5.253208e+001 -1.415965e+002 -1.638199e-001 1.329615e+002
538882597.20649 -7.126338e-001 1.617789e+002 -5.262033e+001 -1.408177e+002 -5.259338e+001 -1.428064e+002 -1.580894e-001 1.329619e+002
539260098.15025 -7.244843e-001 1.615657e+002 -5.257004e+001 -1.431531e+002 -5.242107e+001 -1.434247e+002 -1.544179e-001 1.329597e+002
539637599.094 -7.344580e-001 1.613211e+002 -5.209330e+001 -1.449909e+002 -5.214697e+001 -1.457750e+002 -1.556923e-001 1.329642e+002
540015100.03775 -7.384603e-001 1.611472e+002 -5.226295e+001 -1.444885e+002 -5.215086e+001 -1.463587e+002 -1.539414e-001 1.330018e+002
540392600.9815 -7.547584e-001 1.609045e+002 -5.221402e+001 -1.450939e+002 -5.202275e+001 -1.475134e+002 -1.514647e-001 1.329388e+002
540770101.92525 -7.626445e-001 1.606572e+002 -5.197122e+001 -1.476837e+002 -5.171284e+001 -1.481307e+002 -1.498854e-001 1.329730e+002
541147602.86901 -7.756031e-001 1.605199e+002 -5.215873e+001 -1.478656e+002 -5.209280e+001 -1.495234e+002 -1.491148e-001 1.329567e+002
541525103.81276 -7.810575e-001 1.602276e+002 -5.188128e+001 -1.508167e+002 -5.200415e+001 -1.498576e+002 -1.495992e-001 1.329542e+002
541902604.75651 -7.943992e-001 1.600579e+002 -5.207058e+001 -1.493713e+002 -5.192961e+001 -1.507219e+002 -1.454445e-001 1.329519e+002
542280105.70026 -8.012162e-001 1.598136e+002 -5.201220e+001 -1.511577e+002 -5.186925e+001 -1.524227e+002 -1.435405e-001 1.329585e+002
542657606.64402 -8.096552e-001 1.596933e+002 -5.177583e+001 -1.515190e+002 -5.187708e+001 -1.535193e+002 -1.425437e-001 1.329441e+002
543035107.58777 -8.203811e-001 1.594496e+002 -5.183777e+001 -1.523770e+002 -5.179346e+001 -1.541262e+002 -1.426597e-001 1.329365e+002
543412608.53152 -8.314748e-001 1.592799e+002 -5.177463e+001 -1.531973e+002 -5.179787e+001 -1.542317e+002 -1.441262e-001 1.329189e+002
543790109.47527 -8.377734e-001 1.590568e+002 -5.146361e+001 -1.552573e+002 -5.195583e+001 -1.579513e+002 -1.447863e-001 1.329100e+002
544167610.41903 -8.467928e-001 1.588170e+002 -5.152210e+001 -1.539241e+002 -5.178875e+001 -1.591357e+002 -1.468254e-001 1.329256e+002
544545111.36278 -8.545552e-001 1.586548e+002 -5.177837e+001 -1.565100e+002 -5.182384e+001 -1.582242e+002 -1.397190e-001 1.328809e+002
544922612.30653 -8.578404e-001 1.584242e+002 -5.170232e+001 -1.579712e+002 -5.177347e+001 -1.597166e+002 -1.432448e-001 1.328663e+002
545300113.25028 -8.664593e-001 1.583087e+002 -5.156585e+001 -1.567260e+002 -5.185022e+001 -1.591178e+002 -1.429176e-001 1.328771e+002
545677614.19404 -8.728621e-001 1.580773e+002 -5.147449e+001 -1.595778e+002 -5.170687e+001 -1.586682e+002 -1.456608e-001 1.328229e+002
546055115.13779 -8.760395e-001 1.578663e+002 -5.147979e+001 -1.582282e+002 -5.169980e+001 -1.606642e+002 -1.474035e-001 1.328064e+002
546432616.08154 -8.802180e-001 1.576159e+002 -5.143122e+001 -1.619552e+002 -5.160812e+001 -1.620126e+002 -1.504050e-001 1.327523e+002
546810117.02529 -8.848587e-001 1.574535e+002 -5.125043e+001 -1.605114e+002 -5.163945e+001 -1.611798e+002 -1.561421e-001 1.327291e+002
547187617.96904 -8.874511e-001 1.572006e+002 -5.133699e+001 -1.624047e+002 -5.157162e+001 -1.637578e+002 -1.531916e-001 1.327102e+002
547565118.9128 -8.977070e-001 1.570115e+002 -5.128218e+001 -1.617251e+002 -5.166747e+001 -1.634416e+002 -1.597701e-001 1.326669e+002
547942619.85655 -9.002630e-001 1.568210e+002 -5.149878e+001 -1.625642e+002 -5.187865e+001 -1.644801e+002 -1.610352e-001 1.326269e+002
548320120.8003 -9.075363e-001 1.565939e+002 -5.113391e+001 -1.639422e+002 -5.159375e+001 -1.647256e+002 -1.602751e-001 1.325675e+002
548697621.74405 -9.121647e-001 1.563146e+002 -5.138960e+001 -1.648668e+002 -5.162006e+001 -1.655619e+002 -1.664421e-001 1.325383e+002
549075122.68781 -9.203922e-001 1.561361e+002 -5.115916e+001 -1.658178e+002 -5.144926e+001 -1.659218e+002 -1.672222e-001 1.325326e+002
549452623.63156 -9.278569e-001 1.558329e+002 -5.117685e+001 -1.666025e+002 -5.151315e+001 -1.664311e+002 -1.714929e-001 1.324470e+002
549830124.57531 -9.370846e-001 1.556668e+002 -5.131887e+001 -1.658921e+002 -5.151110e+001 -1.664660e+002 -1.736578e-001 1.324119e+002
550207625.51906 -9.393094e-001 1.554187e+002 -5.120274e+001 -1.672408e+002 -5.148101e+001 -1.678992e+002 -1.714151e-001 1.323529e+002
550585126.46282 -9.463962e-001 1.552372e+002 -5.102218e+001 -1.680686e+002 -5.146463e+001 -1.665971e+002 -1.761781e-001 1.323175e+002
550962627.40657 -9.509338e-001 1.549579e+002 -5.103964e+001 -1.698049e+002 -5.139688e+001 -1.681299e+002 -1.796049e-001 1.322616e+002
551340128.35032 -9.564397e-001 1.547708e+002 -5.084044e+001 -1.685329e+002 -5.117069e+001 -1.675885e+002 -1.803641e-001 1.322056e+002
551717629.29407 -9.638314e-001 1.545099e+002 -5.089231e+001 -1.708490e+002 -5.094333e+001 -1.686188e+002 -1.806261e-001 1.321637e+002
552095130.23783 -9.697430e-001 1.542031e+002 -5.106413e+001 -1.701208e+002 -5.112149e+001 -1.699935e+002 -1.833599e-001 1.320973e+002
552472631.18158 -9.737992e-001 1.540263e+002 -5.091166e+001 -1.713131e+002 -5.096065e+001 -1.708172e+002 -1.819808e-001 1.320685e+002
552850132.12533 -9.858081e-001 1.537734e+002 -5.088409e+001 -1.696940e+002 -5.085140e+001 -1.717137e+002 -1.801838e-001 1.320275e+002
553227633.06908 -9.931932e-001 1.534912e+002 -5.073336e+001 -1.726145e+002 -5.071117e+001 -1.729395e+002 -1.796384e-001 1.319864e+002
553605134.01284 -1.001695e+000 1.532683e+002 -5.092789e+001 -1.733986e+002 -5.074105e+001 -1.730026e+002 -1.843146e-001 1.319852e+002
553982634.95659 -1.010576e+000 1.529940e+002 -5.081701e+001 -1.742146e+002 -5.089753e+001 -1.730231e+002 -1.788055e-001 1.319549e+002
554360135.90034 -1.016063e+000 1.527099e+002 -5.067586e+001 -1.748578e+002 -5.062103e+001 -1.745562e+002 -1.760247e-001 1.319388e+002
554737636.84409 -1.034007e+000 1.525065e+002 -5.063245e+001 -1.748343e+002 -5.050164e+001 -1.752011e+002 -1.742553e-001 1.319500e+002
555115137.78784 -1.046439e+000 1.522767e+002 -5.057722e+001 -1.730950e+002 -5.035987e+001 -1.756143e+002 -1.759586e-001 1.319168e+002
