!Agilent Technologies,E8364B,US42250235,A.06.04.32
!Agilent E8364B: A.06.04.32
!Date: Thursday, October 01, 2020 14:40:33
!Correction: S11(Full 2 Port(1,2)) S21(Full 2 Port(1,2)) S12(Full 2 Port(1,2)) S22(Full 2 Port(1,2)) 
!S2P File: Measurements: S11, S21, S12, S22:
# Hz S  dB   R 50
500000000 -2.499216e-001 -1.751832e+002 -5.959657e+001 -1.770508e+002 -6.041198e+001 1.734597e+002 -2.524263e-001 1.374405e+002
500377500.94375 -2.498782e-001 -1.753827e+002 -6.007769e+001 -1.793714e+002 -6.075173e+001 1.753636e+002 -2.533482e-001 1.373856e+002
500755001.8875 -2.537758e-001 -1.755256e+002 -5.993390e+001 -1.794541e+002 -6.056764e+001 1.725160e+002 -2.522274e-001 1.373468e+002
501132502.83126 -2.525529e-001 -1.757659e+002 -5.932096e+001 -1.790164e+002 -6.122385e+001 1.700311e+002 -2.531212e-001 1.372626e+002
501510003.77501 -2.575262e-001 -1.759528e+002 -5.942324e+001 1.778188e+002 -6.085171e+001 1.711632e+002 -2.576065e-001 1.371684e+002
501887504.71876 -2.573721e-001 -1.761651e+002 -5.880778e+001 -1.799653e+002 -6.110674e+001 1.716547e+002 -2.540564e-001 1.371393e+002
502265005.66251 -2.638315e-001 -1.763659e+002 -5.897665e+001 -1.796464e+002 -6.092409e+001 1.721026e+002 -2.582812e-001 1.370619e+002
502642506.60627 -2.611654e-001 -1.765653e+002 -5.983323e+001 1.752715e+002 -6.031722e+001 1.739514e+002 -2.612452e-001 1.370404e+002
503020007.55002 -2.659044e-001 -1.767746e+002 -5.938622e+001 1.781225e+002 -6.061113e+001 1.706293e+002 -2.545531e-001 1.369216e+002
503397508.49377 -2.731442e-001 -1.769498e+002 -5.851184e+001 1.742903e+002 -5.972003e+001 1.670847e+002 -2.613321e-001 1.368629e+002
503775009.43752 -2.674377e-001 -1.771479e+002 -5.899410e+001 1.742822e+002 -6.004488e+001 1.696717e+002 -2.570478e-001 1.367773e+002
504152510.38128 -2.694953e-001 -1.773878e+002 -5.850436e+001 1.674851e+002 -5.950249e+001 1.651577e+002 -2.609800e-001 1.366899e+002
504530011.32503 -2.753504e-001 -1.775695e+002 -5.916549e+001 1.736037e+002 -5.975167e+001 1.636251e+002 -2.588581e-001 1.366403e+002
504907512.26878 -2.740813e-001 -1.777784e+002 -5.968748e+001 1.699072e+002 -5.933399e+001 1.631507e+002 -2.602793e-001 1.365609e+002
505285013.21253 -2.752652e-001 -1.779787e+002 -5.967521e+001 1.688221e+002 -5.986269e+001 1.681184e+002 -2.596515e-001 1.364512e+002
505662514.15629 -2.805585e-001 -1.781729e+002 -5.909949e+001 1.691213e+002 -6.022280e+001 1.644426e+002 -2.616983e-001 1.364052e+002
506040015.10004 -2.789709e-001 -1.784491e+002 -5.879416e+001 1.644079e+002 -6.005707e+001 1.647238e+002 -2.593586e-001 1.363185e+002
506417516.04379 -2.840655e-001 -1.786323e+002 -5.915129e+001 1.670323e+002 -5.968862e+001 1.622280e+002 -2.632477e-001 1.362264e+002
506795016.98754 -2.877656e-001 -1.787950e+002 -5.954564e+001 1.655926e+002 -6.021689e+001 1.636108e+002 -2.611227e-001 1.361411e+002
507172517.93129 -2.862655e-001 -1.790091e+002 -5.897050e+001 1.641441e+002 -5.917318e+001 1.589630e+002 -2.636717e-001 1.360905e+002
507550018.87505 -2.928648e-001 -1.792162e+002 -5.882067e+001 1.647310e+002 -5.939059e+001 1.639532e+002 -2.622161e-001 1.359995e+002
507927519.8188 -2.961286e-001 -1.794021e+002 -5.980121e+001 1.682073e+002 -5.913488e+001 1.611195e+002 -2.574895e-001 1.359063e+002
508305020.76255 -2.972222e-001 -1.796244e+002 -5.895313e+001 1.682701e+002 -6.037078e+001 1.595673e+002 -2.569458e-001 1.358468e+002
508682521.7063 -2.983125e-001 -1.797582e+002 -5.933803e+001 1.663907e+002 -5.955265e+001 1.566454e+002 -2.558116e-001 1.358125e+002
509060022.65006 -3.019579e-001 1.799780e+002 -5.975171e+001 1.612211e+002 -6.010746e+001 1.613730e+002 -2.600149e-001 1.357134e+002
509437523.59381 -3.018146e-001 1.797242e+002 -5.931961e+001 1.634077e+002 -5.971165e+001 1.571864e+002 -2.603901e-001 1.356323e+002
509815024.53756 -3.053841e-001 1.795688e+002 -5.904122e+001 1.642687e+002 -5.928555e+001 1.545098e+002 -2.572616e-001 1.355777e+002
510192525.48131 -3.074438e-001 1.793422e+002 -5.950504e+001 1.591244e+002 -5.941645e+001 1.552189e+002 -2.540013e-001 1.354856e+002
510570026.42507 -3.093559e-001 1.791348e+002 -5.894019e+001 1.609296e+002 -5.964609e+001 1.544884e+002 -2.553833e-001 1.354333e+002
510947527.36882 -3.067334e-001 1.789086e+002 -5.930924e+001 1.618434e+002 -5.922691e+001 1.534299e+002 -2.555540e-001 1.353569e+002
511325028.31257 -3.123215e-001 1.787138e+002 -5.859334e+001 1.589606e+002 -5.926449e+001 1.523998e+002 -2.528339e-001 1.353130e+002
511702529.25632 -3.158447e-001 1.785265e+002 -5.899107e+001 1.634313e+002 -5.944662e+001 1.534415e+002 -2.532075e-001 1.352379e+002
512080030.20008 -3.165734e-001 1.783138e+002 -5.970675e+001 1.585404e+002 -5.950062e+001 1.484052e+002 -2.520031e-001 1.352150e+002
512457531.14383 -3.219654e-001 1.781036e+002 -5.901267e+001 1.565764e+002 -5.905956e+001 1.502649e+002 -2.541029e-001 1.351707e+002
512835032.08758 -3.202463e-001 1.778871e+002 -5.922957e+001 1.615420e+002 -5.934670e+001 1.499658e+002 -2.546374e-001 1.350975e+002
513212533.03133 -3.261010e-001 1.776562e+002 -5.852072e+001 1.561547e+002 -5.837601e+001 1.543413e+002 -2.519593e-001 1.350621e+002
513590033.97508 -3.292572e-001 1.775343e+002 -5.880053e+001 1.615602e+002 -5.846783e+001 1.509042e+002 -2.542571e-001 1.350296e+002
513967534.91884 -3.300062e-001 1.772601e+002 -5.848882e+001 1.610234e+002 -5.883643e+001 1.487818e+002 -2.518979e-001 1.349903e+002
514345035.86259 -3.340938e-001 1.770411e+002 -5.825259e+001 1.609536e+002 -5.877394e+001 1.483867e+002 -2.491858e-001 1.349657e+002
514722536.80634 -3.362786e-001 1.768447e+002 -5.837265e+001 1.593711e+002 -5.900166e+001 1.472191e+002 -2.561677e-001 1.349322e+002
515100037.75009 -3.397955e-001 1.766479e+002 -5.772671e+001 1.609633e+002 -5.840805e+001 1.481261e+002 -2.539190e-001 1.349030e+002
515477538.69385 -3.422189e-001 1.764411e+002 -5.783510e+001 1.609997e+002 -5.863104e+001 1.435075e+002 -2.536975e-001 1.348798e+002
515855039.6376 -3.465676e-001 1.762305e+002 -5.742540e+001 1.541526e+002 -5.852878e+001 1.496668e+002 -2.519998e-001 1.348452e+002
516232540.58135 -3.484326e-001 1.759581e+002 -5.752723e+001 1.565121e+002 -5.848542e+001 1.426937e+002 -2.552037e-001 1.348345e+002
516610041.5251 -3.552231e-001 1.758042e+002 -5.730202e+001 1.519323e+002 -5.786079e+001 1.447007e+002 -2.528723e-001 1.348297e+002
516987542.46886 -3.595113e-001 1.755616e+002 -5.696212e+001 1.552937e+002 -5.826898e+001 1.392013e+002 -2.520148e-001 1.347939e+002
517365043.41261 -3.645657e-001 1.753678e+002 -5.681197e+001 1.493031e+002 -5.848275e+001 1.421539e+002 -2.532772e-001 1.347886e+002
517742544.35636 -3.623382e-001 1.750704e+002 -5.800537e+001 1.507895e+002 -5.795035e+001 1.404572e+002 -2.516111e-001 1.347810e+002
518120045.30011 -3.710717e-001 1.748899e+002 -5.686349e+001 1.499058e+002 -5.776128e+001 1.390148e+002 -2.524464e-001 1.347649e+002
518497546.24387 -3.718376e-001 1.746243e+002 -5.722135e+001 1.473467e+002 -5.766916e+001 1.390084e+002 -2.531902e-001 1.347622e+002
518875047.18762 -3.759021e-001 1.744507e+002 -5.760865e+001 1.484083e+002 -5.810630e+001 1.370270e+002 -2.552896e-001 1.347336e+002
519252548.13137 -3.781318e-001 1.741932e+002 -5.739376e+001 1.454183e+002 -5.792094e+001 1.387817e+002 -2.532844e-001 1.347035e+002
519630049.07512 -3.829252e-001 1.740530e+002 -5.768536e+001 1.444339e+002 -5.775549e+001 1.362256e+002 -2.589889e-001 1.346762e+002
520007550.01888 -3.897473e-001 1.738165e+002 -5.705055e+001 1.414996e+002 -5.789644e+001 1.357807e+002 -2.579432e-001 1.346413e+002
520385050.96263 -3.920315e-001 1.736012e+002 -5.668529e+001 1.430984e+002 -5.801389e+001 1.350724e+002 -2.606611e-001 1.346245e+002
520762551.90638 -3.953623e-001 1.733651e+002 -5.679198e+001 1.411800e+002 -5.752817e+001 1.344806e+002 -2.578457e-001 1.346165e+002
521140052.85013 -3.969071e-001 1.730943e+002 -5.663670e+001 1.399763e+002 -5.758356e+001 1.343900e+002 -2.584376e-001 1.345787e+002
521517553.79388 -4.010942e-001 1.729074e+002 -5.713821e+001 1.417656e+002 -5.726675e+001 1.313940e+002 -2.599176e-001 1.345534e+002
521895054.73764 -4.069943e-001 1.726784e+002 -5.716148e+001 1.382485e+002 -5.771910e+001 1.298689e+002 -2.609470e-001 1.345270e+002
522272555.68139 -4.104907e-001 1.725164e+002 -5.711790e+001 1.356546e+002 -5.758665e+001 1.326886e+002 -2.602856e-001 1.344588e+002
522650056.62514 -4.097186e-001 1.722586e+002 -5.734377e+001 1.367989e+002 -5.773096e+001 1.306890e+002 -2.632195e-001 1.344484e+002
523027557.56889 -4.128206e-001 1.720025e+002 -5.665446e+001 1.337980e+002 -5.734272e+001 1.310256e+002 -2.646547e-001 1.343851e+002
523405058.51265 -4.147500e-001 1.718242e+002 -5.685707e+001 1.353070e+002 -5.740912e+001 1.276822e+002 -2.648450e-001 1.343741e+002
523782559.4564 -4.176098e-001 1.715852e+002 -5.677996e+001 1.333345e+002 -5.740347e+001 1.273229e+002 -2.640994e-001 1.343108e+002
524160060.40015 -4.179196e-001 1.713161e+002 -5.746328e+001 1.352068e+002 -5.689044e+001 1.233032e+002 -2.667895e-001 1.342573e+002
524537561.3439 -4.236301e-001 1.711486e+002 -5.707393e+001 1.338245e+002 -5.740828e+001 1.237644e+002 -2.648952e-001 1.341883e+002
524915062.28766 -4.228730e-001 1.709093e+002 -5.729222e+001 1.340665e+002 -5.697905e+001 1.243615e+002 -2.682011e-001 1.341152e+002
525292563.23141 -4.261736e-001 1.707303e+002 -5.743146e+001 1.295326e+002 -5.737354e+001 1.204723e+002 -2.705813e-001 1.340640e+002
525670064.17516 -4.309092e-001 1.704786e+002 -5.729460e+001 1.318461e+002 -5.697708e+001 1.236588e+002 -2.655781e-001 1.339953e+002
526047565.11891 -4.326087e-001 1.702469e+002 -5.712949e+001 1.325544e+002 -5.690186e+001 1.218046e+002 -2.650345e-001 1.339434e+002
526425066.06267 -4.364338e-001 1.700006e+002 -5.640748e+001 1.290380e+002 -5.705072e+001 1.221280e+002 -2.674357e-001 1.338460e+002
526802567.00642 -4.424062e-001 1.697668e+002 -5.720742e+001 1.268034e+002 -5.679528e+001 1.187972e+002 -2.656476e-001 1.337994e+002
527180067.95017 -4.422038e-001 1.695165e+002 -5.672570e+001 1.337814e+002 -5.679218e+001 1.181925e+002 -2.662722e-001 1.337011e+002
527557568.89392 -4.463906e-001 1.692945e+002 -5.654062e+001 1.276310e+002 -5.704363e+001 1.170815e+002 -2.677188e-001 1.335771e+002
527935069.83767 -4.503714e-001 1.690686e+002 -5.645724e+001 1.272273e+002 -5.646597e+001 1.172797e+002 -2.629691e-001 1.335415e+002
528312570.78143 -4.508465e-001 1.688427e+002 -5.721536e+001 1.284644e+002 -5.671720e+001 1.182885e+002 -2.657065e-001 1.334777e+002
528690071.72518 -4.561749e-001 1.686504e+002 -5.668829e+001 1.274174e+002 -5.660603e+001 1.160972e+002 -2.659497e-001 1.333917e+002
529067572.66893 -4.602906e-001 1.683577e+002 -5.671985e+001 1.259469e+002 -5.690715e+001 1.117373e+002 -2.607330e-001 1.333165e+002
529445073.61268 -4.684104e-001 1.681226e+002 -5.642994e+001 1.233179e+002 -5.658829e+001 1.142967e+002 -2.578995e-001 1.332246e+002
529822574.55644 -4.715523e-001 1.678555e+002 -5.634470e+001 1.224830e+002 -5.642950e+001 1.127562e+002 -2.579576e-001 1.331490e+002
530200075.50019 -4.767016e-001 1.677315e+002 -5.622359e+001 1.266900e+002 -5.611126e+001 1.141908e+002 -2.525341e-001 1.330899e+002
530577576.44394 -4.794153e-001 1.673931e+002 -5.658414e+001 1.249843e+002 -5.690784e+001 1.127961e+002 -2.525677e-001 1.330201e+002
530955077.38769 -4.882610e-001 1.672535e+002 -5.608715e+001 1.227561e+002 -5.632919e+001 1.095244e+002 -2.534116e-001 1.329346e+002
531332578.33145 -4.952603e-001 1.670318e+002 -5.639698e+001 1.260835e+002 -5.634905e+001 1.117577e+002 -2.519140e-001 1.328838e+002
531710079.2752 -5.007486e-001 1.667694e+002 -5.580074e+001 1.199727e+002 -5.679053e+001 1.117641e+002 -2.440897e-001 1.328019e+002
532087580.21895 -5.016531e-001 1.665253e+002 -5.615666e+001 1.228310e+002 -5.598067e+001 1.091575e+002 -2.448801e-001 1.327746e+002
532465081.1627 -5.083265e-001 1.663029e+002 -5.611552e+001 1.229161e+002 -5.627735e+001 1.078027e+002 -2.425772e-001 1.327180e+002
532842582.10646 -5.114188e-001 1.660993e+002 -5.595307e+001 1.194515e+002 -5.631795e+001 1.070044e+002 -2.363166e-001 1.326489e+002
533220083.05021 -5.160063e-001 1.658119e+002 -5.600106e+001 1.178930e+002 -5.648322e+001 1.088019e+002 -2.373807e-001 1.326150e+002
533597583.99396 -5.193787e-001 1.655516e+002 -5.591329e+001 1.176452e+002 -5.641989e+001 1.078619e+002 -2.360891e-001 1.325792e+002
533975084.93771 -5.291907e-001 1.653940e+002 -5.623026e+001 1.158638e+002 -5.643645e+001 1.023873e+002 -2.356095e-001 1.325268e+002
534352585.88146 -5.287658e-001 1.650878e+002 -5.544818e+001 1.196664e+002 -5.604840e+001 1.042014e+002 -2.280483e-001 1.325121e+002
534730086.82522 -5.332484e-001 1.648421e+002 -5.546689e+001 1.182836e+002 -5.611214e+001 1.049603e+002 -2.210651e-001 1.324809e+002
535107587.76897 -5.347015e-001 1.646584e+002 -5.529563e+001 1.160941e+002 -5.602591e+001 1.033590e+002 -2.240355e-001 1.324703e+002
535485088.71272 -5.442144e-001 1.644109e+002 -5.552667e+001 1.132933e+002 -5.656427e+001 1.043353e+002 -2.190712e-001 1.324291e+002
535862589.65647 -5.505131e-001 1.642133e+002 -5.562041e+001 1.134816e+002 -5.654404e+001 1.015887e+002 -2.181429e-001 1.324113e+002
536240090.60023 -5.503017e-001 1.638728e+002 -5.550423e+001 1.115939e+002 -5.626525e+001 1.019211e+002 -2.175357e-001 1.323961e+002
536617591.54398 -5.529960e-001 1.636723e+002 -5.541721e+001 1.117630e+002 -5.673314e+001 9.862827e+001 -2.139048e-001 1.323909e+002
536995092.48773 -5.604252e-001 1.634179e+002 -5.541236e+001 1.133257e+002 -5.631367e+001 1.000369e+002 -2.151532e-001 1.323833e+002
537372593.43148 -5.681140e-001 1.631900e+002 -5.501234e+001 1.103824e+002 -5.608688e+001 9.972186e+001 -2.073878e-001 1.323790e+002
537750094.37524 -5.732691e-001 1.629130e+002 -5.498827e+001 1.096645e+002 -5.616198e+001 9.829429e+001 -2.027548e-001 1.323810e+002
538127595.31899 -5.814137e-001 1.627034e+002 -5.515932e+001 1.104713e+002 -5.627774e+001 9.640483e+001 -2.092540e-001 1.323638e+002
538505096.26274 -5.894892e-001 1.624155e+002 -5.531006e+001 1.087276e+002 -5.662468e+001 9.659310e+001 -2.058284e-001 1.323731e+002
538882597.20649 -5.987109e-001 1.622261e+002 -5.484378e+001 1.086535e+002 -5.637475e+001 9.656068e+001 -2.009327e-001 1.323784e+002
539260098.15025 -6.045439e-001 1.620129e+002 -5.458519e+001 1.075918e+002 -5.643388e+001 9.642516e+001 -1.988922e-001 1.323764e+002
539637599.094 -6.093192e-001 1.617937e+002 -5.489182e+001 1.078334e+002 -5.650573e+001 9.747940e+001 -1.973980e-001 1.323814e+002
540015100.03775 -6.123244e-001 1.615822e+002 -5.457711e+001 1.066827e+002 -5.635508e+001 9.447846e+001 -1.985779e-001 1.324190e+002
540392600.9815 -6.228547e-001 1.612523e+002 -5.424420e+001 1.049550e+002 -5.583565e+001 9.472248e+001 -1.980477e-001 1.323743e+002
540770101.92525 -6.260133e-001 1.610321e+002 -5.459819e+001 1.054636e+002 -5.560639e+001 9.520412e+001 -1.948646e-001 1.323811e+002
541147602.86901 -6.314112e-001 1.608819e+002 -5.435706e+001 1.027943e+002 -5.581201e+001 9.288596e+001 -1.969781e-001 1.323732e+002
541525103.81276 -6.371459e-001 1.606188e+002 -5.430936e+001 1.016066e+002 -5.585429e+001 9.587669e+001 -1.955802e-001 1.323582e+002
541902604.75651 -6.466229e-001 1.603605e+002 -5.427049e+001 1.021880e+002 -5.538384e+001 9.206911e+001 -1.948213e-001 1.323646e+002
542280105.70026 -6.506850e-001 1.601165e+002 -5.435391e+001 9.938154e+001 -5.575774e+001 9.039434e+001 -1.929231e-001 1.323484e+002
542657606.64402 -6.618159e-001 1.599552e+002 -5.427599e+001 9.638019e+001 -5.592379e+001 8.925616e+001 -1.957102e-001 1.323241e+002
543035107.58777 -6.679977e-001 1.596979e+002 -5.409768e+001 9.785753e+001 -5.563256e+001 9.149577e+001 -1.951398e-001 1.323107e+002
543412608.53152 -6.754531e-001 1.595145e+002 -5.394574e+001 9.644093e+001 -5.564066e+001 8.866158e+001 -1.986378e-001 1.322894e+002
543790109.47527 -6.810860e-001 1.592669e+002 -5.391029e+001 9.612585e+001 -5.566974e+001 8.891044e+001 -1.975662e-001 1.322779e+002
544167610.41903 -6.836424e-001 1.589967e+002 -5.402118e+001 9.416129e+001 -5.536795e+001 8.805810e+001 -1.993531e-001 1.322620e+002
544545111.36278 -6.908900e-001 1.588162e+002 -5.417149e+001 9.043233e+001 -5.570715e+001 8.909854e+001 -1.987032e-001 1.322038e+002
544922612.30653 -6.949657e-001 1.585511e+002 -5.356527e+001 8.995979e+001 -5.562686e+001 8.735324e+001 -1.988649e-001 1.321876e+002
545300113.25028 -6.953180e-001 1.584120e+002 -5.409690e+001 9.175007e+001 -5.524059e+001 8.692649e+001 -2.000995e-001 1.321741e+002
545677614.19404 -7.030839e-001 1.581613e+002 -5.394205e+001 8.864345e+001 -5.513396e+001 8.521231e+001 -2.039119e-001 1.321217e+002
546055115.13779 -7.049291e-001 1.578993e+002 -5.399181e+001 9.038841e+001 -5.502331e+001 8.643420e+001 -2.058730e-001 1.320768e+002
546432616.08154 -7.059523e-001 1.576237e+002 -5.398602e+001 8.912338e+001 -5.513737e+001 8.658625e+001 -2.084847e-001 1.320247e+002
546810117.02529 -7.098377e-001 1.574587e+002 -5.413440e+001 8.580154e+001 -5.512574e+001 8.496408e+001 -2.086945e-001 1.319749e+002
547187617.96904 -7.135991e-001 1.571211e+002 -5.404844e+001 8.743093e+001 -5.527560e+001 8.286013e+001 -2.082248e-001 1.319507e+002
547565118.9128 -7.196034e-001 1.568613e+002 -5.373137e+001 8.751328e+001 -5.527794e+001 8.579718e+001 -2.137182e-001 1.319020e+002
547942619.85655 -7.216265e-001 1.566877e+002 -5.414484e+001 8.603947e+001 -5.487230e+001 8.295608e+001 -2.127610e-001 1.318488e+002
548320120.8003 -7.273701e-001 1.564308e+002 -5.350247e+001 8.451848e+001 -5.486384e+001 8.293877e+001 -2.160554e-001 1.317925e+002
548697621.74405 -7.328432e-001 1.561165e+002 -5.366581e+001 8.562103e+001 -5.504461e+001 8.053225e+001 -2.163899e-001 1.317374e+002
549075122.68781 -7.397408e-001 1.559137e+002 -5.411069e+001 8.655490e+001 -5.464396e+001 8.030085e+001 -2.185900e-001 1.317451e+002
549452623.63156 -7.440710e-001 1.556083e+002 -5.402679e+001 8.649340e+001 -5.498917e+001 8.373561e+001 -2.216850e-001 1.316531e+002
549830124.57531 -7.542200e-001 1.553469e+002 -5.405234e+001 8.415584e+001 -5.462796e+001 8.132295e+001 -2.208316e-001 1.316143e+002
550207625.51906 -7.565948e-001 1.551069e+002 -5.377546e+001 8.300299e+001 -5.451955e+001 8.003883e+001 -2.206340e-001 1.315482e+002
550585126.46282 -7.616677e-001 1.549153e+002 -5.397229e+001 7.944106e+001 -5.464409e+001 7.806649e+001 -2.261399e-001 1.315170e+002
550962627.40657 -7.652914e-001 1.545967e+002 -5.363107e+001 8.215160e+001 -5.444610e+001 7.633202e+001 -2.239199e-001 1.314621e+002
551340128.35032 -7.685744e-001 1.543781e+002 -5.376609e+001 7.951831e+001 -5.424325e+001 7.713467e+001 -2.207555e-001 1.313699e+002
551717629.29407 -7.779925e-001 1.540940e+002 -5.362107e+001 8.231177e+001 -5.413057e+001 7.566594e+001 -2.272638e-001 1.313837e+002
552095130.23783 -7.832983e-001 1.537623e+002 -5.380421e+001 7.654063e+001 -5.435722e+001 7.638200e+001 -2.274330e-001 1.313195e+002
552472631.18158 -7.863582e-001 1.535614e+002 -5.398936e+001 7.820506e+001 -5.433580e+001 7.323138e+001 -2.262598e-001 1.312947e+002
552850132.12533 -7.985291e-001 1.532635e+002 -5.341645e+001 7.579433e+001 -5.426232e+001 7.286745e+001 -2.249122e-001 1.312527e+002
553227633.06908 -8.080714e-001 1.529595e+002 -5.369334e+001 7.598766e+001 -5.406375e+001 7.375379e+001 -2.241849e-001 1.312277e+002
553605134.01284 -8.097748e-001 1.526937e+002 -5.355061e+001 7.587485e+001 -5.390495e+001 7.100185e+001 -2.322916e-001 1.311892e+002
553982634.95659 -8.180736e-001 1.524256e+002 -5.372472e+001 7.385025e+001 -5.411980e+001 6.920698e+001 -2.283580e-001 1.311697e+002
554360135.90034 -8.257174e-001 1.521062e+002 -5.362155e+001 7.448397e+001 -5.410501e+001 7.078863e+001 -2.294539e-001 1.311379e+002
554737636.84409 -8.410500e-001 1.518688e+002 -5.379871e+001 7.598035e+001 -5.371040e+001 6.873954e+001 -2.262385e-001 1.311445e+002
555115137.78784 -8.530971e-001 1.516006e+002 -5.347441e+001 7.513451e+001 -5.374790e+001 6.788194e+001 -2.261226e-001 1.311201e+002
555492638.7316 -8.622860e-001 1.513002e+002 -5.360423e+001 7.437270e+001 -5.399723e+001 6.755671e+001 -2.264908e-001 1.311056e+002
555870139.67535 -8.727924e-001 1.511170e+002 -5.335859e+001 7.290576e+001 -5.369351e+001 6.775796e+001 -2.264541e-001 1.310966e+002
