!Agilent Technologies,E8364B,US42250235,A.06.04.32
!Agilent E8364B: A.06.04.32
!Date: Thursday, October 01, 2020 14:43:12
!Correction: S11(Full 2 Port(1,2)) S21(Full 2 Port(1,2)) S12(Full 2 Port(1,2)) S22(Full 2 Port(1,2)) 
!S2P File: Measurements: S11, S21, S12, S22:
# Hz S  dB   R 50
500000000 -2.229112e-001 -1.752839e+002 -6.216523e+001 9.968291e+001 -6.116277e+001 9.605034e+001 -2.210809e-001 1.377986e+002
500377500.94375 -2.291929e-001 -1.753827e+002 -6.157199e+001 9.784708e+001 -6.120824e+001 8.914120e+001 -2.234944e-001 1.377322e+002
500755001.8875 -2.287069e-001 -1.756314e+002 -6.203245e+001 9.581234e+001 -6.119343e+001 8.897273e+001 -2.227308e-001 1.376738e+002
501132502.83126 -2.300741e-001 -1.758242e+002 -6.212704e+001 1.006703e+002 -6.126690e+001 8.497108e+001 -2.250218e-001 1.375917e+002
501510003.77501 -2.362487e-001 -1.759751e+002 -6.197888e+001 9.539762e+001 -6.153020e+001 8.923136e+001 -2.293384e-001 1.374912e+002
501887504.71876 -2.323526e-001 -1.762872e+002 -6.141202e+001 9.176611e+001 -6.199412e+001 9.357889e+001 -2.257467e-001 1.374526e+002
502265005.66251 -2.406208e-001 -1.763983e+002 -6.073217e+001 9.391422e+001 -6.136992e+001 8.681112e+001 -2.279146e-001 1.373842e+002
502642506.60627 -2.391320e-001 -1.766719e+002 -6.170125e+001 8.952293e+001 -6.140284e+001 8.135484e+001 -2.349071e-001 1.373377e+002
503020007.55002 -2.471856e-001 -1.768205e+002 -6.111224e+001 9.084660e+001 -6.116009e+001 8.841351e+001 -2.318165e-001 1.372197e+002
503397508.49377 -2.500133e-001 -1.770210e+002 -6.177364e+001 8.532409e+001 -6.175835e+001 8.864108e+001 -2.339965e-001 1.371598e+002
503775009.43752 -2.494621e-001 -1.772669e+002 -6.123863e+001 8.752956e+001 -6.117945e+001 8.053387e+001 -2.340361e-001 1.370695e+002
504152510.38128 -2.529025e-001 -1.774671e+002 -6.134991e+001 8.928864e+001 -6.176279e+001 8.653853e+001 -2.366713e-001 1.369639e+002
504530011.32503 -2.573147e-001 -1.776720e+002 -6.154041e+001 8.568220e+001 -6.050227e+001 8.706703e+001 -2.351415e-001 1.368889e+002
504907512.26878 -2.576089e-001 -1.778552e+002 -6.046255e+001 8.595556e+001 -6.158029e+001 8.156125e+001 -2.340459e-001 1.368168e+002
505285013.21253 -2.569797e-001 -1.781362e+002 -6.069344e+001 8.616537e+001 -6.024387e+001 7.958866e+001 -2.357086e-001 1.367113e+002
505662514.15629 -2.598545e-001 -1.783129e+002 -6.054357e+001 8.593940e+001 -6.105018e+001 8.167408e+001 -2.353736e-001 1.366506e+002
506040015.10004 -2.637069e-001 -1.785291e+002 -5.990933e+001 8.014866e+001 -6.043090e+001 8.168719e+001 -2.346624e-001 1.365643e+002
506417516.04379 -2.654739e-001 -1.787687e+002 -6.057290e+001 8.224613e+001 -6.027660e+001 7.915916e+001 -2.384214e-001 1.364792e+002
506795016.98754 -2.730136e-001 -1.788837e+002 -6.035456e+001 8.113318e+001 -6.063528e+001 8.098743e+001 -2.375385e-001 1.364090e+002
507172517.93129 -2.718265e-001 -1.791704e+002 -6.036910e+001 7.939789e+001 -6.014551e+001 8.011182e+001 -2.362729e-001 1.363355e+002
507550018.87505 -2.777258e-001 -1.793337e+002 -6.053575e+001 8.023906e+001 -6.090374e+001 8.070849e+001 -2.395132e-001 1.362467e+002
507927519.8188 -2.812503e-001 -1.796053e+002 -5.954716e+001 7.157714e+001 -6.009409e+001 7.348569e+001 -2.349719e-001 1.361594e+002
508305020.76255 -2.829570e-001 -1.797713e+002 -6.013121e+001 7.568932e+001 -5.969720e+001 7.767995e+001 -2.342058e-001 1.361068e+002
508682521.7063 -2.832808e-001 -1.799655e+002 -5.992197e+001 7.355518e+001 -6.004354e+001 7.288636e+001 -2.334885e-001 1.360577e+002
509060022.65006 -2.860273e-001 1.797690e+002 -5.962680e+001 7.386335e+001 -5.986264e+001 7.135097e+001 -2.364032e-001 1.359623e+002
509437523.59381 -2.904858e-001 1.795582e+002 -5.921717e+001 7.613987e+001 -5.981790e+001 7.393276e+001 -2.343623e-001 1.358966e+002
509815024.53756 -2.927847e-001 1.793589e+002 -5.975290e+001 7.434058e+001 -5.962518e+001 7.124940e+001 -2.324797e-001 1.358519e+002
510192525.48131 -2.971368e-001 1.791308e+002 -5.972466e+001 6.926390e+001 -5.910202e+001 7.026995e+001 -2.308238e-001 1.357670e+002
510570026.42507 -3.008612e-001 1.790096e+002 -5.934729e+001 7.037649e+001 -5.934029e+001 6.899873e+001 -2.280633e-001 1.357266e+002
510947527.36882 -2.970972e-001 1.787131e+002 -5.977921e+001 7.199138e+001 -5.964727e+001 6.888807e+001 -2.330729e-001 1.356390e+002
511325028.31257 -3.071434e-001 1.785829e+002 -6.016800e+001 6.334352e+001 -5.898103e+001 6.445426e+001 -2.301303e-001 1.355938e+002
511702529.25632 -3.059192e-001 1.782899e+002 -5.900201e+001 6.485925e+001 -5.952566e+001 6.498692e+001 -2.303293e-001 1.355293e+002
512080030.20008 -3.126724e-001 1.781397e+002 -5.925187e+001 6.514906e+001 -5.965876e+001 6.325959e+001 -2.277715e-001 1.355076e+002
512457531.14383 -3.145845e-001 1.779155e+002 -5.966732e+001 6.233503e+001 -5.976534e+001 6.617887e+001 -2.321157e-001 1.354706e+002
512835032.08758 -3.169470e-001 1.776481e+002 -5.978094e+001 6.365850e+001 -5.923149e+001 5.801648e+001 -2.327890e-001 1.353905e+002
513212533.03133 -3.226462e-001 1.774707e+002 -5.895809e+001 6.306351e+001 -5.916139e+001 5.886724e+001 -2.292184e-001 1.353769e+002
513590033.97508 -3.285254e-001 1.772846e+002 -5.922720e+001 5.936069e+001 -5.851022e+001 5.900717e+001 -2.318700e-001 1.353515e+002
513967534.91884 -3.296754e-001 1.770682e+002 -5.934156e+001 5.802061e+001 -5.923769e+001 5.603041e+001 -2.289411e-001 1.353094e+002
514345035.86259 -3.294906e-001 1.768001e+002 -5.945392e+001 6.247995e+001 -5.919513e+001 5.335135e+001 -2.298258e-001 1.352881e+002
514722536.80634 -3.360749e-001 1.765785e+002 -5.929619e+001 6.173906e+001 -5.907732e+001 5.871848e+001 -2.309793e-001 1.352894e+002
515100037.75009 -3.410185e-001 1.764812e+002 -5.929647e+001 5.964774e+001 -5.953328e+001 5.538018e+001 -2.314696e-001 1.352358e+002
515477538.69385 -3.419337e-001 1.761895e+002 -5.874648e+001 5.505326e+001 -5.890691e+001 5.343638e+001 -2.312271e-001 1.352247e+002
515855039.6376 -3.455293e-001 1.760138e+002 -5.917519e+001 5.773496e+001 -5.897967e+001 5.131448e+001 -2.307242e-001 1.351946e+002
516232540.58135 -3.531792e-001 1.757752e+002 -5.898934e+001 6.123030e+001 -5.892760e+001 5.322152e+001 -2.303246e-001 1.351763e+002
516610041.5251 -3.564196e-001 1.755303e+002 -5.900816e+001 6.029824e+001 -5.886831e+001 5.216042e+001 -2.301266e-001 1.351751e+002
516987542.46886 -3.633837e-001 1.753432e+002 -5.923726e+001 5.720166e+001 -5.921190e+001 4.996913e+001 -2.291013e-001 1.351437e+002
517365043.41261 -3.669449e-001 1.751377e+002 -5.891939e+001 5.261610e+001 -5.861379e+001 4.904827e+001 -2.290938e-001 1.351520e+002
517742544.35636 -3.694191e-001 1.748242e+002 -5.845617e+001 5.544196e+001 -5.883151e+001 4.794019e+001 -2.316113e-001 1.351279e+002
518120045.30011 -3.775642e-001 1.746954e+002 -5.853064e+001 4.898180e+001 -5.890912e+001 4.823449e+001 -2.282034e-001 1.351048e+002
518497546.24387 -3.757073e-001 1.743861e+002 -5.845570e+001 4.676071e+001 -5.863414e+001 4.678369e+001 -2.312974e-001 1.350960e+002
518875047.18762 -3.830445e-001 1.741956e+002 -5.822882e+001 5.210115e+001 -5.898211e+001 4.996848e+001 -2.312212e-001 1.350845e+002
519252548.13137 -3.911151e-001 1.739700e+002 -5.845197e+001 5.173750e+001 -5.899552e+001 4.672436e+001 -2.287142e-001 1.350492e+002
519630049.07512 -3.981750e-001 1.737895e+002 -5.827255e+001 4.993778e+001 -5.826283e+001 4.435679e+001 -2.340765e-001 1.350441e+002
520007550.01888 -4.039185e-001 1.735175e+002 -5.859017e+001 4.733194e+001 -5.863173e+001 4.607417e+001 -2.317840e-001 1.349903e+002
520385050.96263 -4.064853e-001 1.733171e+002 -5.795208e+001 4.204224e+001 -5.835858e+001 4.368221e+001 -2.327272e-001 1.349843e+002
520762551.90638 -4.130938e-001 1.731473e+002 -5.857450e+001 4.784821e+001 -5.878947e+001 4.411319e+001 -2.347095e-001 1.349533e+002
521140052.85013 -4.150654e-001 1.728333e+002 -5.853678e+001 4.581191e+001 -5.883643e+001 4.141722e+001 -2.330386e-001 1.349129e+002
521517553.79388 -4.239809e-001 1.726558e+002 -5.847774e+001 3.991404e+001 -5.847837e+001 4.297429e+001 -2.314667e-001 1.348806e+002
521895054.73764 -4.270773e-001 1.724768e+002 -5.839248e+001 3.976555e+001 -5.876206e+001 4.021720e+001 -2.352775e-001 1.348584e+002
522272555.68139 -4.329405e-001 1.722639e+002 -5.810793e+001 4.240532e+001 -5.822603e+001 3.949241e+001 -2.350884e-001 1.347871e+002
522650056.62514 -4.353337e-001 1.720430e+002 -5.798906e+001 4.109678e+001 -5.844767e+001 3.880778e+001 -2.362659e-001 1.347604e+002
523027557.56889 -4.373303e-001 1.717995e+002 -5.848355e+001 3.839264e+001 -5.782505e+001 3.881953e+001 -2.388813e-001 1.347004e+002
523405058.51265 -4.414235e-001 1.716024e+002 -5.725050e+001 3.865090e+001 -5.777525e+001 3.548121e+001 -2.374298e-001 1.346791e+002
523782559.4564 -4.469171e-001 1.713481e+002 -5.826944e+001 3.813433e+001 -5.806595e+001 3.640020e+001 -2.402757e-001 1.346077e+002
524160060.40015 -4.473805e-001 1.710861e+002 -5.787025e+001 3.850185e+001 -5.816811e+001 3.766856e+001 -2.402307e-001 1.345626e+002
524537561.3439 -4.541314e-001 1.709484e+002 -5.766707e+001 3.969452e+001 -5.780195e+001 3.397079e+001 -2.369594e-001 1.344923e+002
524915062.28766 -4.559147e-001 1.706497e+002 -5.803307e+001 3.498249e+001 -5.756095e+001 3.591712e+001 -2.405385e-001 1.344021e+002
525292563.23141 -4.592930e-001 1.704499e+002 -5.836142e+001 3.642368e+001 -5.822438e+001 3.282621e+001 -2.436876e-001 1.343540e+002
525670064.17516 -4.626074e-001 1.702152e+002 -5.806295e+001 3.580380e+001 -5.775522e+001 3.559255e+001 -2.405235e-001 1.342892e+002
526047565.11891 -4.668077e-001 1.699695e+002 -5.814567e+001 3.576775e+001 -5.766366e+001 3.347119e+001 -2.398859e-001 1.342109e+002
526425066.06267 -4.708975e-001 1.697368e+002 -5.805957e+001 3.184360e+001 -5.755569e+001 3.268399e+001 -2.393191e-001 1.341295e+002
526802567.00642 -4.810244e-001 1.695558e+002 -5.756920e+001 3.316999e+001 -5.746874e+001 2.748373e+001 -2.389041e-001 1.340630e+002
527180067.95017 -4.852606e-001 1.693357e+002 -5.837359e+001 3.226174e+001 -5.737424e+001 2.807308e+001 -2.367900e-001 1.339729e+002
527557568.89392 -4.899528e-001 1.690466e+002 -5.805451e+001 3.293346e+001 -5.766003e+001 2.845424e+001 -2.405318e-001 1.338469e+002
527935069.83767 -4.959455e-001 1.689203e+002 -5.769066e+001 3.067894e+001 -5.723148e+001 2.789719e+001 -2.333460e-001 1.338195e+002
528312570.78143 -4.991201e-001 1.686721e+002 -5.723520e+001 2.952886e+001 -5.800550e+001 3.014741e+001 -2.344079e-001 1.337401e+002
528690071.72518 -5.037051e-001 1.684718e+002 -5.800422e+001 2.943386e+001 -5.693868e+001 2.606147e+001 -2.345488e-001 1.336691e+002
529067572.66893 -5.072024e-001 1.682209e+002 -5.759468e+001 2.619458e+001 -5.695494e+001 2.597901e+001 -2.315385e-001 1.335929e+002
529445073.61268 -5.123757e-001 1.679273e+002 -5.651372e+001 2.469756e+001 -5.709187e+001 2.163969e+001 -2.291505e-001 1.335064e+002
529822574.55644 -5.190862e-001 1.677313e+002 -5.705362e+001 2.498619e+001 -5.702562e+001 2.214359e+001 -2.312118e-001 1.334374e+002
530200075.50019 -5.237716e-001 1.675320e+002 -5.730384e+001 2.497645e+001 -5.694785e+001 1.997160e+001 -2.262056e-001 1.333556e+002
530577576.44394 -5.309540e-001 1.672373e+002 -5.720376e+001 2.650252e+001 -5.717139e+001 2.184656e+001 -2.250233e-001 1.333014e+002
530955077.38769 -5.377527e-001 1.670582e+002 -5.739662e+001 2.397849e+001 -5.691381e+001 2.130648e+001 -2.248439e-001 1.332287e+002
531332578.33145 -5.472190e-001 1.668451e+002 -5.696761e+001 2.422988e+001 -5.690835e+001 2.163074e+001 -2.246664e-001 1.331834e+002
531710079.2752 -5.517367e-001 1.665920e+002 -5.684894e+001 2.251992e+001 -5.674858e+001 2.115454e+001 -2.176560e-001 1.331111e+002
532087580.21895 -5.584728e-001 1.663986e+002 -5.661474e+001 1.996964e+001 -5.674847e+001 1.982029e+001 -2.158426e-001 1.330652e+002
532465081.1627 -5.622107e-001 1.661381e+002 -5.691315e+001 2.100903e+001 -5.670551e+001 1.498005e+001 -2.168357e-001 1.330038e+002
532842582.10646 -5.681884e-001 1.659045e+002 -5.654676e+001 1.909259e+001 -5.690263e+001 2.013251e+001 -2.118202e-001 1.329467e+002
533220083.05021 -5.784159e-001 1.656559e+002 -5.688551e+001 2.093786e+001 -5.661459e+001 1.812515e+001 -2.113331e-001 1.329105e+002
533597583.99396 -5.833647e-001 1.654491e+002 -5.683354e+001 1.651138e+001 -5.661208e+001 1.726226e+001 -2.090108e-001 1.328951e+002
533975084.93771 -5.963020e-001 1.652072e+002 -5.695075e+001 1.822156e+001 -5.649431e+001 1.503450e+001 -2.072196e-001 1.328331e+002
534352585.88146 -5.963048e-001 1.649556e+002 -5.661747e+001 2.070618e+001 -5.699149e+001 1.154700e+001 -2.009605e-001 1.328164e+002
534730086.82522 -6.018900e-001 1.647067e+002 -5.647098e+001 1.564822e+001 -5.666334e+001 1.501299e+001 -1.954350e-001 1.328085e+002
535107587.76897 -6.110401e-001 1.645686e+002 -5.629847e+001 1.848295e+001 -5.627420e+001 1.064504e+001 -1.977936e-001 1.327960e+002
535485088.71272 -6.173370e-001 1.643180e+002 -5.611087e+001 1.440251e+001 -5.623830e+001 1.210421e+001 -1.913330e-001 1.327562e+002
535862589.65647 -6.274018e-001 1.640899e+002 -5.634875e+001 1.269255e+001 -5.635565e+001 1.035417e+001 -1.944092e-001 1.327322e+002
536240090.60023 -6.308867e-001 1.638065e+002 -5.613665e+001 1.168811e+001 -5.588988e+001 9.375729e+000 -1.909646e-001 1.327322e+002
536617591.54398 -6.365162e-001 1.636311e+002 -5.607767e+001 1.247137e+001 -5.539876e+001 8.294107e+000 -1.866990e-001 1.327317e+002
536995092.48773 -6.422852e-001 1.634477e+002 -5.602790e+001 1.021666e+001 -5.562506e+001 7.654780e+000 -1.891999e-001 1.327209e+002
537372593.43148 -6.512587e-001 1.631880e+002 -5.579803e+001 1.206140e+001 -5.619098e+001 5.730127e+000 -1.837392e-001 1.327197e+002
537750094.37524 -6.583313e-001 1.629616e+002 -5.533715e+001 8.160458e+000 -5.548047e+001 6.032251e+000 -1.791723e-001 1.327121e+002
538127595.31899 -6.685586e-001 1.627324e+002 -5.554293e+001 9.117266e+000 -5.522260e+001 4.897398e+000 -1.816094e-001 1.327029e+002
538505096.26274 -6.723311e-001 1.625088e+002 -5.513461e+001 8.738425e+000 -5.553273e+001 4.162962e+000 -1.806781e-001 1.327121e+002
538882597.20649 -6.831544e-001 1.623160e+002 -5.553927e+001 7.370922e+000 -5.574916e+001 1.747816e+000 -1.815909e-001 1.327183e+002
539260098.15025 -6.898140e-001 1.620807e+002 -5.509229e+001 6.238443e+000 -5.531688e+001 -1.101104e+000 -1.763960e-001 1.327103e+002
539637599.094 -6.971954e-001 1.618510e+002 -5.545901e+001 3.908009e+000 -5.500277e+001 -1.407469e+000 -1.764690e-001 1.327118e+002
540015100.03775 -7.024130e-001 1.616427e+002 -5.533505e+001 4.951977e+000 -5.544419e+001 -1.368166e+000 -1.783784e-001 1.327492e+002
540392600.9815 -7.141842e-001 1.614346e+002 -5.541653e+001 1.505869e+000 -5.508558e+001 -4.237366e+000 -1.794775e-001 1.326964e+002
540770101.92525 -7.222778e-001 1.612573e+002 -5.514497e+001 1.231379e+000 -5.528220e+001 -2.028114e+000 -1.771646e-001 1.327012e+002
541147602.86901 -7.263722e-001 1.610692e+002 -5.513624e+001 -6.326003e-001 -5.484829e+001 -3.852175e+000 -1.762024e-001 1.326947e+002
541525103.81276 -7.291568e-001 1.607674e+002 -5.461680e+001 1.502547e-001 -5.519068e+001 -3.284414e+000 -1.780003e-001 1.326785e+002
541902604.75651 -7.419728e-001 1.606159e+002 -5.513579e+001 -1.399916e+000 -5.500831e+001 -5.253191e+000 -1.762972e-001 1.326642e+002
542280105.70026 -7.457966e-001 1.604101e+002 -5.456473e+001 -6.590092e-001 -5.489491e+001 -8.525286e+000 -1.745101e-001 1.326505e+002
542657606.64402 -7.499383e-001 1.601987e+002 -5.469661e+001 -4.113678e+000 -5.502180e+001 -1.057383e+001 -1.784337e-001 1.326309e+002
543035107.58777 -7.579042e-001 1.600146e+002 -5.481185e+001 -6.302176e+000 -5.459865e+001 -1.079761e+001 -1.782695e-001 1.326108e+002
543412608.53152 -7.635684e-001 1.597931e+002 -5.455984e+001 -5.734205e+000 -5.473019e+001 -1.277929e+001 -1.826105e-001 1.325727e+002
543790109.47527 -7.645259e-001 1.595812e+002 -5.467939e+001 -7.991442e+000 -5.450164e+001 -1.347749e+001 -1.834545e-001 1.325617e+002
544167610.41903 -7.710027e-001 1.594077e+002 -5.480283e+001 -8.979420e+000 -5.470226e+001 -1.304970e+001 -1.845058e-001 1.325373e+002
544545111.36278 -7.716904e-001 1.591904e+002 -5.458518e+001 -9.522563e+000 -5.476087e+001 -1.419973e+001 -1.808667e-001 1.324781e+002
544922612.30653 -7.724721e-001 1.589622e+002 -5.456053e+001 -1.215661e+001 -5.475544e+001 -1.630729e+001 -1.835597e-001 1.324481e+002
545300113.25028 -7.740746e-001 1.588051e+002 -5.435406e+001 -1.426794e+001 -5.449530e+001 -1.625176e+001 -1.861043e-001 1.324370e+002
545677614.19404 -7.793912e-001 1.585719e+002 -5.442033e+001 -1.378700e+001 -5.493832e+001 -1.793753e+001 -1.891547e-001 1.323853e+002
546055115.13779 -7.792308e-001 1.583826e+002 -5.444002e+001 -1.488938e+001 -5.450673e+001 -1.712065e+001 -1.913410e-001 1.323184e+002
546432616.08154 -7.785361e-001 1.580718e+002 -5.425377e+001 -1.535237e+001 -5.452856e+001 -2.040009e+001 -1.930610e-001 1.322707e+002
546810117.02529 -7.773899e-001 1.578631e+002 -5.432453e+001 -1.721622e+001 -5.448415e+001 -2.098116e+001 -1.956678e-001 1.322163e+002
547187617.96904 -7.794026e-001 1.575779e+002 -5.428326e+001 -1.882997e+001 -5.472190e+001 -2.112539e+001 -1.918956e-001 1.321762e+002
547565118.9128 -7.882802e-001 1.573659e+002 -5.442473e+001 -2.198189e+001 -5.468277e+001 -2.356390e+001 -1.994549e-001 1.321126e+002
547942619.85655 -7.884558e-001 1.571314e+002 -5.436620e+001 -1.807277e+001 -5.485096e+001 -2.480609e+001 -1.992651e-001 1.320674e+002
548320120.8003 -7.914608e-001 1.568656e+002 -5.427256e+001 -2.299075e+001 -5.496600e+001 -2.536170e+001 -2.021342e-001 1.319990e+002
548697621.74405 -7.989129e-001 1.566296e+002 -5.429396e+001 -2.279620e+001 -5.445319e+001 -2.685438e+001 -2.018966e-001 1.319577e+002
549075122.68781 -8.063972e-001 1.564035e+002 -5.468651e+001 -2.247307e+001 -5.474344e+001 -2.561118e+001 -2.052674e-001 1.319407e+002
549452623.63156 -8.102901e-001 1.561399e+002 -5.444622e+001 -2.342096e+001 -5.473386e+001 -2.720950e+001 -2.095221e-001 1.318554e+002
549830124.57531 -8.175598e-001 1.558911e+002 -5.464540e+001 -2.486120e+001 -5.486792e+001 -2.723162e+001 -2.098210e-001 1.318120e+002
550207625.51906 -8.185866e-001 1.556644e+002 -5.437713e+001 -2.414987e+001 -5.449870e+001 -2.879165e+001 -2.075941e-001 1.317585e+002
550585126.46282 -8.242931e-001 1.554089e+002 -5.452890e+001 -2.732944e+001 -5.479581e+001 -2.656535e+001 -2.091758e-001 1.317160e+002
550962627.40657 -8.273247e-001 1.551082e+002 -5.426343e+001 -2.764633e+001 -5.428929e+001 -2.845537e+001 -2.076780e-001 1.316592e+002
551340128.35032 -8.321073e-001 1.549362e+002 -5.384171e+001 -2.694142e+001 -5.435929e+001 -2.940143e+001 -2.080114e-001 1.316164e+002
551717629.29407 -8.375502e-001 1.546276e+002 -5.413621e+001 -2.782501e+001 -5.437822e+001 -3.105255e+001 -2.058975e-001 1.315525e+002
552095130.23783 -8.444352e-001 1.543625e+002 -5.390465e+001 -2.838077e+001 -5.431616e+001 -3.246315e+001 -2.081737e-001 1.315478e+002
552472631.18158 -8.443713e-001 1.541198e+002 -5.396204e+001 -3.021996e+001 -5.425035e+001 -3.238904e+001 -2.117590e-001 1.315110e+002
552850132.12533 -8.571044e-001 1.538667e+002 -5.415166e+001 -3.176399e+001 -5.443498e+001 -3.403714e+001 -2.074726e-001 1.314901e+002
553227633.06908 -8.599883e-001 1.535883e+002 -5.415782e+001 -3.380439e+001 -5.406250e+001 -3.314090e+001 -2.080606e-001 1.314476e+002
553605134.01284 -8.692196e-001 1.533044e+002 -5.413415e+001 -3.077091e+001 -5.425922e+001 -3.442019e+001 -2.127285e-001 1.314264e+002
553982634.95659 -8.768592e-001 1.530993e+002 -5.380242e+001 -3.370318e+001 -5.389672e+001 -3.467413e+001 -2.075007e-001 1.314056e+002
554360135.90034 -8.837047e-001 1.527982e+002 -5.395551e+001 -3.470467e+001 -5.403690e+001 -3.630645e+001 -2.091000e-001 1.313850e+002
554737636.84409 -8.999792e-001 1.525268e+002 -5.428533e+001 -3.556302e+001 -5.394521e+001 -3.685727e+001 -2.068204e-001 1.313778e+002
555115137.78784 -9.102266e-001 1.522925e+002 -5.383209e+001 -3.679683e+001 -5.392020e+001 -3.969949e+001 -2.078166e-001 1.313649e+002
555492638.7316 -9.181576e-001 1.519742e+002 -5.395854e+001 -3.583563e+001 -5.362784e+001 -3.981701e+001 -2.074514e-001 1.313643e+002
