!Agilent Technologies,E8364B,US42250235,A.06.04.32
!Agilent E8364B: A.06.04.32
!Date: Thursday, October 01, 2020 14:57:04
!Correction: S11(Full 2 Port(1,2)) S21(Full 2 Port(1,2)) S12(Full 2 Port(1,2)) S22(Full 2 Port(1,2)) 
!S2P File: Measurements: S11, S21, S12, S22:
# Hz S  dB   R 50
500000000 -2.403830e-001 -1.750979e+002 -6.203268e+001 6.940623e+000 -6.143505e+001 5.336540e-001 -1.339527e-001 1.384873e+002
500377500.94375 -2.415661e-001 -1.752766e+002 -6.202753e+001 1.061624e+001 -6.300045e+001 -3.651163e+000 -1.338456e-001 1.384153e+002
500755001.8875 -2.407373e-001 -1.754647e+002 -6.137015e+001 1.313551e+000 -6.190773e+001 2.651138e+000 -1.292331e-001 1.384485e+002
501132502.83126 -2.462855e-001 -1.756778e+002 -6.160409e+001 7.482001e+000 -6.197976e+001 -2.493041e+000 -1.319141e-001 1.384443e+002
501510003.77501 -2.481346e-001 -1.758521e+002 -6.101421e+001 1.991070e+000 -6.099060e+001 -1.975573e+000 -1.301634e-001 1.384411e+002
501887504.71876 -2.489856e-001 -1.761306e+002 -6.232559e+001 -9.536930e-001 -6.151111e+001 -9.422377e+000 -1.295585e-001 1.383926e+002
502265005.66251 -2.556173e-001 -1.762663e+002 -6.140471e+001 5.914505e+000 -6.239742e+001 -1.008570e+001 -1.284267e-001 1.383795e+002
502642506.60627 -2.530062e-001 -1.765156e+002 -6.127039e+001 -1.646227e+000 -6.236029e+001 -9.723244e+000 -1.269994e-001 1.384076e+002
503020007.55002 -2.611278e-001 -1.766781e+002 -6.149621e+001 -6.363260e+000 -6.206226e+001 -1.013842e+001 -1.299873e-001 1.383457e+002
503397508.49377 -2.584317e-001 -1.768537e+002 -6.160059e+001 -1.449268e+000 -6.198786e+001 -1.291023e+001 -1.289213e-001 1.383212e+002
503775009.43752 -2.590386e-001 -1.771613e+002 -6.141235e+001 -9.611788e+000 -6.212626e+001 -8.416271e+000 -1.262516e-001 1.383035e+002
504152510.38128 -2.668973e-001 -1.772647e+002 -6.232515e+001 -7.284054e+000 -6.217634e+001 -7.979107e+000 -1.313398e-001 1.382463e+002
504530011.32503 -2.653690e-001 -1.775631e+002 -6.149626e+001 -6.731266e+000 -6.180990e+001 -1.187118e+001 -1.257337e-001 1.382341e+002
504907512.26878 -2.691619e-001 -1.776723e+002 -6.267520e+001 -7.158767e+000 -6.179846e+001 -1.056975e+001 -1.300257e-001 1.382053e+002
505285013.21253 -2.749418e-001 -1.778962e+002 -6.124249e+001 -3.869414e+000 -6.194402e+001 -8.988881e+000 -1.301535e-001 1.381802e+002
505662514.15629 -2.714534e-001 -1.781072e+002 -6.153942e+001 -8.707397e+000 -6.187051e+001 -1.089162e+001 -1.330162e-001 1.381301e+002
506040015.10004 -2.752684e-001 -1.782743e+002 -6.119106e+001 -1.009109e+001 -6.175759e+001 -7.460732e+000 -1.301628e-001 1.380953e+002
506417516.04379 -2.760716e-001 -1.785390e+002 -6.146618e+001 -4.409115e+000 -6.198003e+001 -1.053994e+001 -1.298048e-001 1.380463e+002
506795016.98754 -2.842177e-001 -1.786705e+002 -6.114942e+001 -4.688680e+000 -6.147045e+001 -1.053972e+001 -1.271358e-001 1.379949e+002
507172517.93129 -2.839535e-001 -1.789098e+002 -6.051956e+001 -5.345866e+000 -6.047362e+001 -1.312212e+001 -1.294273e-001 1.379588e+002
507550018.87505 -2.875478e-001 -1.790626e+002 -6.077679e+001 -9.938478e+000 -6.152646e+001 -1.282142e+001 -1.316409e-001 1.378956e+002
507927519.8188 -2.907993e-001 -1.793112e+002 -6.083585e+001 -1.267529e+001 -6.090971e+001 -1.588468e+001 -1.309233e-001 1.378792e+002
508305020.76255 -2.898943e-001 -1.795452e+002 -6.052985e+001 -1.289393e+001 -6.114252e+001 -1.804917e+001 -1.321032e-001 1.378284e+002
508682521.7063 -2.929427e-001 -1.797413e+002 -5.996857e+001 -1.292914e+001 -6.051783e+001 -1.600097e+001 -1.378966e-001 1.378084e+002
509060022.65006 -2.971200e-001 -1.799360e+002 -5.994291e+001 -1.925428e+001 -6.025722e+001 -1.773657e+001 -1.336634e-001 1.377074e+002
509437523.59381 -2.965215e-001 1.798141e+002 -6.011352e+001 -1.555863e+001 -6.077834e+001 -2.152132e+001 -1.294664e-001 1.377055e+002
509815024.53756 -3.003168e-001 1.796410e+002 -5.973402e+001 -1.672504e+001 -5.968002e+001 -2.103081e+001 -1.302328e-001 1.376363e+002
510192525.48131 -3.063948e-001 1.794854e+002 -6.014160e+001 -1.859018e+001 -6.051397e+001 -2.473094e+001 -1.304891e-001 1.376001e+002
510570026.42507 -3.111615e-001 1.792645e+002 -6.028891e+001 -1.837633e+001 -6.015817e+001 -2.610500e+001 -1.293676e-001 1.375549e+002
510947527.36882 -3.103524e-001 1.790234e+002 -5.977876e+001 -2.402913e+001 -5.976638e+001 -2.366158e+001 -1.290641e-001 1.375051e+002
511325028.31257 -3.158217e-001 1.788600e+002 -5.953965e+001 -2.258918e+001 -5.921349e+001 -2.799660e+001 -1.281647e-001 1.374639e+002
511702529.25632 -3.114903e-001 1.785467e+002 -5.962022e+001 -2.808736e+001 -5.989437e+001 -2.851667e+001 -1.293735e-001 1.374321e+002
512080030.20008 -3.213127e-001 1.783534e+002 -5.953269e+001 -2.602896e+001 -5.974568e+001 -2.507118e+001 -1.282533e-001 1.373825e+002
512457531.14383 -3.256185e-001 1.781778e+002 -5.969765e+001 -2.537515e+001 -5.980484e+001 -2.739180e+001 -1.271926e-001 1.373448e+002
512835032.08758 -3.269374e-001 1.779294e+002 -5.936534e+001 -2.569846e+001 -5.934068e+001 -2.672842e+001 -1.291601e-001 1.373113e+002
513212533.03133 -3.301062e-001 1.776998e+002 -5.989276e+001 -2.903197e+001 -6.010134e+001 -3.379596e+001 -1.283609e-001 1.372559e+002
513590033.97508 -3.339378e-001 1.774728e+002 -5.920230e+001 -2.981477e+001 -5.924734e+001 -3.180201e+001 -1.266864e-001 1.372427e+002
513967534.91884 -3.361387e-001 1.773485e+002 -5.870956e+001 -2.877645e+001 -5.955479e+001 -3.119543e+001 -1.222807e-001 1.371778e+002
514345035.86259 -3.379591e-001 1.770681e+002 -5.930954e+001 -3.149208e+001 -5.974642e+001 -3.881131e+001 -1.270823e-001 1.371871e+002
514722536.80634 -3.405373e-001 1.768693e+002 -5.899675e+001 -2.855620e+001 -5.949601e+001 -3.778830e+001 -1.264082e-001 1.371651e+002
515100037.75009 -3.408211e-001 1.767129e+002 -5.950840e+001 -2.815713e+001 -5.939005e+001 -3.606509e+001 -1.240181e-001 1.371477e+002
515477538.69385 -3.431625e-001 1.763940e+002 -5.876638e+001 -3.183736e+001 -5.858991e+001 -4.018584e+001 -1.239539e-001 1.371176e+002
515855039.6376 -3.453402e-001 1.762515e+002 -5.920379e+001 -3.413484e+001 -5.907427e+001 -3.815594e+001 -1.210118e-001 1.370992e+002
516232540.58135 -3.489432e-001 1.760446e+002 -5.915513e+001 -3.094051e+001 -5.863533e+001 -4.052260e+001 -1.221106e-001 1.370815e+002
516610041.5251 -3.532840e-001 1.757897e+002 -5.857113e+001 -3.482419e+001 -5.855351e+001 -4.220463e+001 -1.260275e-001 1.370807e+002
516987542.46886 -3.561443e-001 1.755511e+002 -5.825398e+001 -3.708472e+001 -5.917177e+001 -4.437945e+001 -1.237494e-001 1.370568e+002
517365043.41261 -3.599841e-001 1.753875e+002 -5.810109e+001 -3.434319e+001 -5.841569e+001 -4.448175e+001 -1.222465e-001 1.370233e+002
517742544.35636 -3.616238e-001 1.750689e+002 -5.879682e+001 -3.924581e+001 -5.884436e+001 -4.326591e+001 -1.244905e-001 1.370278e+002
518120045.30011 -3.678668e-001 1.749637e+002 -5.905106e+001 -3.993823e+001 -5.908552e+001 -4.579160e+001 -1.227045e-001 1.370023e+002
518497546.24387 -3.717807e-001 1.747072e+002 -5.852303e+001 -4.109903e+001 -5.890382e+001 -4.282235e+001 -1.243657e-001 1.369961e+002
518875047.18762 -3.754446e-001 1.745016e+002 -5.851282e+001 -3.890008e+001 -5.917318e+001 -4.874273e+001 -1.234577e-001 1.369888e+002
519252548.13137 -3.850658e-001 1.743141e+002 -5.822702e+001 -4.090522e+001 -5.851580e+001 -4.604762e+001 -1.249310e-001 1.369669e+002
519630049.07512 -3.910899e-001 1.740882e+002 -5.792780e+001 -4.794754e+001 -5.882438e+001 -4.922767e+001 -1.268831e-001 1.369710e+002
520007550.01888 -3.893607e-001 1.738025e+002 -5.785738e+001 -4.090437e+001 -5.876214e+001 -5.025858e+001 -1.275064e-001 1.368949e+002
520385050.96263 -3.933745e-001 1.736666e+002 -5.755145e+001 -4.417752e+001 -5.831190e+001 -5.073828e+001 -1.301661e-001 1.369045e+002
520762551.90638 -3.966800e-001 1.734713e+002 -5.796920e+001 -4.833313e+001 -5.885340e+001 -5.255987e+001 -1.313939e-001 1.368976e+002
521140052.85013 -4.018043e-001 1.731953e+002 -5.755743e+001 -5.082596e+001 -5.873351e+001 -5.193164e+001 -1.279003e-001 1.368589e+002
521517553.79388 -4.064943e-001 1.730084e+002 -5.837032e+001 -5.141948e+001 -5.814268e+001 -5.880169e+001 -1.326768e-001 1.368539e+002
521895054.73764 -4.078361e-001 1.728285e+002 -5.795119e+001 -5.475715e+001 -5.829045e+001 -5.318110e+001 -1.348059e-001 1.368228e+002
522272555.68139 -4.099483e-001 1.725853e+002 -5.777987e+001 -5.496922e+001 -5.844505e+001 -5.873871e+001 -1.346496e-001 1.368171e+002
522650056.62514 -4.152259e-001 1.724011e+002 -5.746072e+001 -5.518457e+001 -5.802925e+001 -5.767330e+001 -1.375860e-001 1.366981e+002
523027557.56889 -4.196093e-001 1.721899e+002 -5.822086e+001 -5.726511e+001 -5.805556e+001 -5.765158e+001 -1.418657e-001 1.367395e+002
523405058.51265 -4.176070e-001 1.719552e+002 -5.795246e+001 -5.729644e+001 -5.839593e+001 -5.719812e+001 -1.368249e-001 1.367573e+002
523782559.4564 -4.233766e-001 1.717474e+002 -5.839707e+001 -5.852239e+001 -5.836243e+001 -6.003128e+001 -1.469875e-001 1.366572e+002
524160060.40015 -4.263954e-001 1.714721e+002 -5.725703e+001 -6.043273e+001 -5.801775e+001 -6.133711e+001 -1.445433e-001 1.366105e+002
524537561.3439 -4.255691e-001 1.713109e+002 -5.768176e+001 -5.830479e+001 -5.795705e+001 -6.322343e+001 -1.483388e-001 1.365623e+002
524915062.28766 -4.293747e-001 1.710309e+002 -5.800191e+001 -6.029606e+001 -5.831811e+001 -6.395923e+001 -1.482177e-001 1.365373e+002
525292563.23141 -4.318336e-001 1.707216e+002 -5.810956e+001 -5.929355e+001 -5.755022e+001 -6.246410e+001 -1.508092e-001 1.364699e+002
525670064.17516 -4.307710e-001 1.705447e+002 -5.763946e+001 -6.122976e+001 -5.761656e+001 -6.459193e+001 -1.521150e-001 1.364131e+002
526047565.11891 -4.362114e-001 1.702854e+002 -5.787683e+001 -6.264369e+001 -5.767923e+001 -6.338190e+001 -1.573839e-001 1.363486e+002
526425066.06267 -4.421008e-001 1.700335e+002 -5.845173e+001 -5.968053e+001 -5.797292e+001 -6.768013e+001 -1.581239e-001 1.362902e+002
526802567.00642 -4.442561e-001 1.698044e+002 -5.763352e+001 -6.321036e+001 -5.766648e+001 -7.292308e+001 -1.574626e-001 1.362317e+002
527180067.95017 -4.479864e-001 1.696148e+002 -5.802288e+001 -6.323238e+001 -5.746323e+001 -6.685497e+001 -1.609265e-001 1.361634e+002
527557568.89392 -4.537654e-001 1.693615e+002 -5.759203e+001 -6.406934e+001 -5.753851e+001 -7.057401e+001 -1.543214e-001 1.360546e+002
527935069.83767 -4.613160e-001 1.691740e+002 -5.777459e+001 -6.861337e+001 -5.812281e+001 -7.400339e+001 -1.582259e-001 1.360369e+002
528312570.78143 -4.644899e-001 1.689150e+002 -5.781894e+001 -6.809160e+001 -5.782376e+001 -7.457086e+001 -1.582625e-001 1.359731e+002
528690071.72518 -4.615071e-001 1.687242e+002 -5.780240e+001 -6.963393e+001 -5.732229e+001 -7.290317e+001 -1.584648e-001 1.359006e+002
529067572.66893 -4.685580e-001 1.684375e+002 -5.792553e+001 -6.931261e+001 -5.808418e+001 -7.535532e+001 -1.621263e-001 1.358339e+002
529445073.61268 -4.702676e-001 1.682140e+002 -5.705642e+001 -6.878136e+001 -5.772484e+001 -7.550469e+001 -1.584039e-001 1.358062e+002
529822574.55644 -4.745583e-001 1.679879e+002 -5.701561e+001 -7.521600e+001 -5.734660e+001 -7.717219e+001 -1.597523e-001 1.357057e+002
530200075.50019 -4.782444e-001 1.676608e+002 -5.792551e+001 -7.137445e+001 -5.731822e+001 -7.887436e+001 -1.545935e-001 1.356240e+002
530577576.44394 -4.863429e-001 1.674274e+002 -5.728492e+001 -6.904550e+001 -5.771229e+001 -7.630769e+001 -1.602964e-001 1.355663e+002
530955077.38769 -4.901957e-001 1.671822e+002 -5.776824e+001 -7.990758e+001 -5.768034e+001 -7.879520e+001 -1.577662e-001 1.355125e+002
531332578.33145 -4.951636e-001 1.669886e+002 -5.777591e+001 -7.472884e+001 -5.748321e+001 -8.145387e+001 -1.560063e-001 1.354388e+002
531710079.2752 -4.992981e-001 1.667174e+002 -5.774613e+001 -7.673013e+001 -5.775364e+001 -8.067530e+001 -1.587260e-001 1.353603e+002
532087580.21895 -5.060630e-001 1.665646e+002 -5.747262e+001 -7.807792e+001 -5.773899e+001 -8.148185e+001 -1.529933e-001 1.353147e+002
532465081.1627 -5.094773e-001 1.662641e+002 -5.746672e+001 -7.788693e+001 -5.743668e+001 -7.901749e+001 -1.517704e-001 1.352472e+002
532842582.10646 -5.159506e-001 1.660626e+002 -5.723008e+001 -7.839215e+001 -5.726503e+001 -8.186720e+001 -1.497570e-001 1.351549e+002
533220083.05021 -5.230924e-001 1.658365e+002 -5.767722e+001 -8.088028e+001 -5.727090e+001 -8.526519e+001 -1.489721e-001 1.351562e+002
533597583.99396 -5.305904e-001 1.656106e+002 -5.766352e+001 -8.123624e+001 -5.722057e+001 -8.425745e+001 -1.459778e-001 1.351437e+002
533975084.93771 -5.366688e-001 1.653136e+002 -5.767883e+001 -8.381063e+001 -5.749743e+001 -8.579256e+001 -1.476344e-001 1.350504e+002
534352585.88146 -5.428504e-001 1.651200e+002 -5.754558e+001 -8.105461e+001 -5.759042e+001 -8.741826e+001 -1.438608e-001 1.350126e+002
534730086.82522 -5.496188e-001 1.649050e+002 -5.770578e+001 -8.182286e+001 -5.769363e+001 -8.744596e+001 -1.393091e-001 1.349824e+002
535107587.76897 -5.558984e-001 1.647133e+002 -5.778924e+001 -8.409920e+001 -5.763776e+001 -8.748122e+001 -1.433039e-001 1.349564e+002
535485088.71272 -5.600910e-001 1.644081e+002 -5.785886e+001 -8.303722e+001 -5.716251e+001 -8.735547e+001 -1.376469e-001 1.349041e+002
535862589.65647 -5.676309e-001 1.641599e+002 -5.739153e+001 -8.518827e+001 -5.738707e+001 -8.883016e+001 -1.398579e-001 1.348580e+002
536240090.60023 -5.703422e-001 1.639634e+002 -5.725149e+001 -8.697559e+001 -5.743750e+001 -8.827813e+001 -1.381590e-001 1.348341e+002
536617591.54398 -5.775483e-001 1.636804e+002 -5.693056e+001 -8.485976e+001 -5.773758e+001 -9.031998e+001 -1.353249e-001 1.347881e+002
536995092.48773 -5.891625e-001 1.635379e+002 -5.721156e+001 -8.600579e+001 -5.717527e+001 -9.045774e+001 -1.354320e-001 1.347824e+002
537372593.43148 -5.918057e-001 1.632151e+002 -5.677076e+001 -8.591212e+001 -5.701010e+001 -9.075048e+001 -1.298669e-001 1.347702e+002
537750094.37524 -5.997887e-001 1.630267e+002 -5.687618e+001 -8.284272e+001 -5.705366e+001 -9.275507e+001 -1.337991e-001 1.347400e+002
538127595.31899 -6.081252e-001 1.628001e+002 -5.680793e+001 -8.867462e+001 -5.701452e+001 -9.474616e+001 -1.311860e-001 1.347358e+002
538505096.26274 -6.135929e-001 1.625997e+002 -5.680902e+001 -8.922855e+001 -5.672032e+001 -9.634629e+001 -1.289449e-001 1.347397e+002
538882597.20649 -6.203163e-001 1.623635e+002 -5.674850e+001 -9.033971e+001 -5.648085e+001 -9.457129e+001 -1.285809e-001 1.346789e+002
539260098.15025 -6.267223e-001 1.620464e+002 -5.668287e+001 -9.029263e+001 -5.688811e+001 -9.441120e+001 -1.263998e-001 1.346746e+002
539637599.094 -6.346328e-001 1.618211e+002 -5.634926e+001 -8.991172e+001 -5.632528e+001 -9.620475e+001 -1.253586e-001 1.346456e+002
540015100.03775 -6.430441e-001 1.616022e+002 -5.655221e+001 -9.107034e+001 -5.680803e+001 -9.728905e+001 -1.235132e-001 1.347085e+002
540392600.9815 -6.530571e-001 1.614371e+002 -5.634871e+001 -9.310349e+001 -5.631676e+001 -9.974388e+001 -1.282507e-001 1.346357e+002
540770101.92525 -6.640724e-001 1.611715e+002 -5.628786e+001 -9.383957e+001 -5.613295e+001 -9.942675e+001 -1.234849e-001 1.346285e+002
541147602.86901 -6.645517e-001 1.609762e+002 -5.622955e+001 -9.652641e+001 -5.617459e+001 -1.011288e+002 -1.238999e-001 1.346106e+002
541525103.81276 -6.704884e-001 1.606459e+002 -5.606713e+001 -9.321305e+001 -5.584831e+001 -1.017144e+002 -1.267273e-001 1.345984e+002
541902604.75651 -6.801037e-001 1.604681e+002 -5.534995e+001 -9.613942e+001 -5.613213e+001 -1.033103e+002 -1.283464e-001 1.345810e+002
542280105.70026 -6.907647e-001 1.602781e+002 -5.572143e+001 -9.828849e+001 -5.539993e+001 -1.019754e+002 -1.245218e-001 1.345773e+002
542657606.64402 -6.890478e-001 1.599909e+002 -5.603988e+001 -1.022842e+002 -5.597515e+001 -1.060865e+002 -1.291606e-001 1.345488e+002
543035107.58777 -6.980074e-001 1.598409e+002 -5.599047e+001 -1.013514e+002 -5.601625e+001 -1.054547e+002 -1.280767e-001 1.345308e+002
543412608.53152 -7.010285e-001 1.595430e+002 -5.560581e+001 -1.019031e+002 -5.578736e+001 -1.069478e+002 -1.313932e-001 1.345042e+002
543790109.47527 -7.066043e-001 1.593666e+002 -5.544292e+001 -1.028204e+002 -5.599840e+001 -1.107099e+002 -1.326662e-001 1.344774e+002
544167610.41903 -7.164010e-001 1.591943e+002 -5.549561e+001 -1.032601e+002 -5.606124e+001 -1.074685e+002 -1.297071e-001 1.344431e+002
544545111.36278 -7.114526e-001 1.589678e+002 -5.556324e+001 -1.056458e+002 -5.568599e+001 -1.096096e+002 -1.337766e-001 1.344241e+002
544922612.30653 -7.172096e-001 1.586586e+002 -5.546427e+001 -1.053708e+002 -5.588355e+001 -1.123479e+002 -1.294399e-001 1.344151e+002
545300113.25028 -7.206442e-001 1.584562e+002 -5.529670e+001 -1.050951e+002 -5.624566e+001 -1.125025e+002 -1.322231e-001 1.343624e+002
545677614.19404 -7.222351e-001 1.582340e+002 -5.546685e+001 -1.083764e+002 -5.603064e+001 -1.119618e+002 -1.340085e-001 1.343281e+002
546055115.13779 -7.264775e-001 1.580472e+002 -5.537213e+001 -1.091300e+002 -5.565320e+001 -1.138470e+002 -1.366680e-001 1.343023e+002
546432616.08154 -7.289338e-001 1.577383e+002 -5.521358e+001 -1.098271e+002 -5.566177e+001 -1.164432e+002 -1.366275e-001 1.342290e+002
546810117.02529 -7.296334e-001 1.574559e+002 -5.526540e+001 -1.096711e+002 -5.574113e+001 -1.148384e+002 -1.383094e-001 1.342228e+002
547187617.96904 -7.316145e-001 1.572663e+002 -5.540462e+001 -1.143960e+002 -5.556741e+001 -1.157456e+002 -1.338689e-001 1.341807e+002
547565118.9128 -7.396519e-001 1.570247e+002 -5.521837e+001 -1.147943e+002 -5.592078e+001 -1.161397e+002 -1.366532e-001 1.341208e+002
547942619.85655 -7.471663e-001 1.567337e+002 -5.505181e+001 -1.149675e+002 -5.525271e+001 -1.175813e+002 -1.320893e-001 1.340714e+002
548320120.8003 -7.511407e-001 1.564709e+002 -5.487628e+001 -1.156633e+002 -5.534549e+001 -1.177193e+002 -1.398650e-001 1.340405e+002
548697621.74405 -7.605888e-001 1.562621e+002 -5.528040e+001 -1.154291e+002 -5.552888e+001 -1.187175e+002 -1.379884e-001 1.339716e+002
549075122.68781 -7.686964e-001 1.559929e+002 -5.524216e+001 -1.180622e+002 -5.532638e+001 -1.224788e+002 -1.368432e-001 1.339760e+002
549452623.63156 -7.757909e-001 1.557607e+002 -5.516323e+001 -1.205967e+002 -5.575591e+001 -1.211052e+002 -1.380412e-001 1.338561e+002
549830124.57531 -7.808959e-001 1.554812e+002 -5.500977e+001 -1.187779e+002 -5.527276e+001 -1.230739e+002 -1.395120e-001 1.338139e+002
550207625.51906 -7.887260e-001 1.552120e+002 -5.530886e+001 -1.187036e+002 -5.561198e+001 -1.234102e+002 -1.440070e-001 1.337298e+002
550585126.46282 -7.983811e-001 1.549180e+002 -5.529622e+001 -1.193744e+002 -5.532164e+001 -1.230013e+002 -1.401958e-001 1.336851e+002
550962627.40657 -8.047932e-001 1.546609e+002 -5.516934e+001 -1.208464e+002 -5.542633e+001 -1.220079e+002 -1.405898e-001 1.336266e+002
551340128.35032 -8.125960e-001 1.544543e+002 -5.451308e+001 -1.215672e+002 -5.544409e+001 -1.230021e+002 -1.367558e-001 1.335363e+002
551717629.29407 -8.193745e-001 1.541210e+002 -5.487594e+001 -1.211236e+002 -5.520095e+001 -1.242480e+002 -1.389436e-001 1.335007e+002
552095130.23783 -8.273457e-001 1.538787e+002 -5.503029e+001 -1.218262e+002 -5.521068e+001 -1.262757e+002 -1.407506e-001 1.334333e+002
552472631.18158 -8.349997e-001 1.536082e+002 -5.485653e+001 -1.238078e+002 -5.532866e+001 -1.250321e+002 -1.403111e-001 1.333624e+002
552850132.12533 -8.417456e-001 1.533444e+002 -5.489269e+001 -1.253136e+002 -5.496477e+001 -1.251440e+002 -1.389886e-001 1.333025e+002
553227633.06908 -8.554528e-001 1.530571e+002 -5.471148e+001 -1.255519e+002 -5.477082e+001 -1.266853e+002 -1.400514e-001 1.332667e+002
553605134.01284 -8.636890e-001 1.527952e+002 -5.446581e+001 -1.258078e+002 -5.502655e+001 -1.268950e+002 -1.380835e-001 1.331794e+002
553982634.95659 -8.787261e-001 1.525202e+002 -5.429947e+001 -1.272244e+002 -5.446934e+001 -1.296765e+002 -1.415853e-001 1.331284e+002
554360135.90034 -8.952671e-001 1.523021e+002 -5.422489e+001 -1.263756e+002 -5.444990e+001 -1.288541e+002 -1.391333e-001 1.330790e+002
554737636.84409 -9.074894e-001 1.520091e+002 -5.452803e+001 -1.271609e+002 -5.432317e+001 -1.337799e+002 -1.359722e-001 1.330379e+002
555115137.78784 -9.178331e-001 1.517632e+002 -5.437463e+001 -1.278612e+002 -5.444169e+001 -1.328364e+002 -1.346977e-001 1.329780e+002
