!Agilent Technologies,E8364B,US42250235,A.06.04.32
!Agilent E8364B: A.06.04.32
!Date: Thursday, October 01, 2020 14:24:02
!Correction: S11(Full 2 Port(1,2)) S21(Full 2 Port(1,2)) S12(Full 2 Port(1,2)) S22(Full 2 Port(1,2)) 
!S2P File: Measurements: S11, S21, S12, S22:
# Hz S  dB   R 50
500000000 -2.282594e-001 -1.753997e+002 -5.930752e+001 8.205435e+001 -5.998367e+001 7.524543e+001 -1.200110e-001 1.383347e+002
500377500.94375 -2.330054e-001 -1.755756e+002 -5.854983e+001 8.100318e+001 -5.949293e+001 7.464007e+001 -1.174786e-001 1.382969e+002
500755001.8875 -2.328037e-001 -1.757612e+002 -5.870020e+001 7.786666e+001 -5.908755e+001 7.552183e+001 -1.199040e-001 1.382516e+002
501132502.83126 -2.362369e-001 -1.759246e+002 -5.875103e+001 7.572972e+001 -5.988874e+001 7.465559e+001 -1.169998e-001 1.382072e+002
501510003.77501 -2.425430e-001 -1.761179e+002 -5.827566e+001 8.110072e+001 -5.955605e+001 6.930656e+001 -1.216426e-001 1.381531e+002
501887504.71876 -2.394548e-001 -1.763693e+002 -5.857914e+001 7.231197e+001 -5.996504e+001 7.245410e+001 -1.204925e-001 1.380865e+002
502265005.66251 -2.487320e-001 -1.765380e+002 -5.834768e+001 7.504547e+001 -5.953628e+001 7.397110e+001 -1.227818e-001 1.380493e+002
502642506.60627 -2.449379e-001 -1.767868e+002 -5.836910e+001 7.147357e+001 -5.929578e+001 6.942452e+001 -1.237777e-001 1.380042e+002
503020007.55002 -2.520030e-001 -1.769698e+002 -5.825380e+001 7.404970e+001 -5.882469e+001 7.073593e+001 -1.255860e-001 1.379431e+002
503397508.49377 -2.587019e-001 -1.771671e+002 -5.830793e+001 7.277859e+001 -5.877488e+001 6.975553e+001 -1.257333e-001 1.379126e+002
503775009.43752 -2.566320e-001 -1.774231e+002 -5.778088e+001 7.234562e+001 -5.908030e+001 7.041281e+001 -1.250098e-001 1.378671e+002
504152510.38128 -2.588756e-001 -1.776666e+002 -5.847588e+001 7.390172e+001 -5.907900e+001 7.011047e+001 -1.277645e-001 1.377960e+002
504530011.32503 -2.631330e-001 -1.778474e+002 -5.758805e+001 7.256776e+001 -5.935598e+001 6.977922e+001 -1.250719e-001 1.377564e+002
504907512.26878 -2.658690e-001 -1.780498e+002 -5.808947e+001 7.348116e+001 -5.925076e+001 7.254987e+001 -1.251343e-001 1.376976e+002
505285013.21253 -2.645807e-001 -1.782622e+002 -5.809451e+001 7.095467e+001 -5.885678e+001 6.640395e+001 -1.247437e-001 1.376487e+002
505662514.15629 -2.681357e-001 -1.784691e+002 -5.745359e+001 7.466932e+001 -5.898140e+001 6.640291e+001 -1.228769e-001 1.376062e+002
506040015.10004 -2.680263e-001 -1.787445e+002 -5.783511e+001 7.128374e+001 -5.841066e+001 6.738522e+001 -1.256141e-001 1.375628e+002
506417516.04379 -2.740165e-001 -1.789212e+002 -5.818348e+001 7.214492e+001 -5.879638e+001 6.916583e+001 -1.244546e-001 1.375006e+002
506795016.98754 -2.786661e-001 -1.791040e+002 -5.793886e+001 7.083168e+001 -5.827781e+001 6.760143e+001 -1.292237e-001 1.374411e+002
507172517.93129 -2.804046e-001 -1.793082e+002 -5.753070e+001 7.118495e+001 -5.845158e+001 6.473682e+001 -1.277704e-001 1.373990e+002
507550018.87505 -2.872482e-001 -1.794991e+002 -5.775359e+001 7.113032e+001 -5.803090e+001 6.633335e+001 -1.266698e-001 1.373630e+002
507927519.8188 -2.880996e-001 -1.797696e+002 -5.734241e+001 6.777573e+001 -5.807261e+001 6.673465e+001 -1.220671e-001 1.372977e+002
508305020.76255 -2.900509e-001 -1.799518e+002 -5.716779e+001 7.033966e+001 -5.778761e+001 6.490707e+001 -1.205598e-001 1.372660e+002
508682521.7063 -2.935284e-001 1.798799e+002 -5.696833e+001 6.911322e+001 -5.787462e+001 6.465614e+001 -1.214035e-001 1.372558e+002
509060022.65006 -2.986432e-001 1.796427e+002 -5.726205e+001 6.507269e+001 -5.789937e+001 6.574940e+001 -1.226699e-001 1.371815e+002
509437523.59381 -2.993987e-001 1.793981e+002 -5.702514e+001 7.008626e+001 -5.797275e+001 6.314038e+001 -1.230701e-001 1.371359e+002
509815024.53756 -3.037773e-001 1.792280e+002 -5.703836e+001 6.814405e+001 -5.781832e+001 6.193317e+001 -1.203381e-001 1.370961e+002
510192525.48131 -3.074347e-001 1.790051e+002 -5.686690e+001 6.705869e+001 -5.737901e+001 6.180370e+001 -1.220387e-001 1.370341e+002
510570026.42507 -3.140771e-001 1.787902e+002 -5.665593e+001 6.509492e+001 -5.756834e+001 6.172998e+001 -1.194272e-001 1.370275e+002
510947527.36882 -3.105273e-001 1.785894e+002 -5.697967e+001 6.327187e+001 -5.728494e+001 6.088311e+001 -1.209004e-001 1.369650e+002
511325028.31257 -3.161874e-001 1.784161e+002 -5.694453e+001 6.247453e+001 -5.728079e+001 6.058521e+001 -1.197377e-001 1.369543e+002
511702529.25632 -3.188083e-001 1.781326e+002 -5.714579e+001 6.540048e+001 -5.735310e+001 6.005647e+001 -1.198313e-001 1.368992e+002
512080030.20008 -3.205642e-001 1.779494e+002 -5.713576e+001 6.605489e+001 -5.717540e+001 5.812682e+001 -1.206124e-001 1.368770e+002
512457531.14383 -3.259394e-001 1.776980e+002 -5.651578e+001 6.191470e+001 -5.744368e+001 5.729919e+001 -1.220302e-001 1.368542e+002
512835032.08758 -3.257814e-001 1.774520e+002 -5.669098e+001 6.313731e+001 -5.689880e+001 5.940936e+001 -1.210383e-001 1.367966e+002
513212533.03133 -3.351853e-001 1.772665e+002 -5.662168e+001 6.195303e+001 -5.676184e+001 5.873603e+001 -1.216268e-001 1.367677e+002
513590033.97508 -3.392822e-001 1.770725e+002 -5.607691e+001 6.372674e+001 -5.694503e+001 5.927934e+001 -1.246072e-001 1.367598e+002
513967534.91884 -3.434440e-001 1.768549e+002 -5.583430e+001 6.154650e+001 -5.637271e+001 5.662043e+001 -1.233370e-001 1.367316e+002
514345035.86259 -3.498570e-001 1.766005e+002 -5.578642e+001 6.137761e+001 -5.676016e+001 5.428296e+001 -1.243680e-001 1.367211e+002
514722536.80634 -3.518876e-001 1.764110e+002 -5.599078e+001 6.191599e+001 -5.654537e+001 5.564670e+001 -1.250860e-001 1.366987e+002
515100037.75009 -3.588396e-001 1.762666e+002 -5.590262e+001 6.197467e+001 -5.632862e+001 5.650593e+001 -1.252908e-001 1.366704e+002
515477538.69385 -3.627662e-001 1.759839e+002 -5.555854e+001 6.022477e+001 -5.646473e+001 5.032330e+001 -1.248342e-001 1.366564e+002
515855039.6376 -3.683171e-001 1.758088e+002 -5.546703e+001 5.544968e+001 -5.632168e+001 4.978827e+001 -1.252523e-001 1.366360e+002
516232540.58135 -3.770699e-001 1.755287e+002 -5.572773e+001 5.981279e+001 -5.605392e+001 4.992992e+001 -1.281072e-001 1.366087e+002
516610041.5251 -3.819332e-001 1.753336e+002 -5.544622e+001 5.578270e+001 -5.607350e+001 4.922372e+001 -1.272247e-001 1.366091e+002
516987542.46886 -3.906273e-001 1.751713e+002 -5.533702e+001 5.518177e+001 -5.597049e+001 4.734789e+001 -1.276178e-001 1.365734e+002
517365043.41261 -3.931077e-001 1.749019e+002 -5.535746e+001 5.547244e+001 -5.599464e+001 4.918394e+001 -1.280328e-001 1.365674e+002
517742544.35636 -3.965330e-001 1.746291e+002 -5.527527e+001 5.665805e+001 -5.572963e+001 4.763197e+001 -1.307315e-001 1.365484e+002
518120045.30011 -4.063447e-001 1.745145e+002 -5.508966e+001 5.407482e+001 -5.616715e+001 4.616271e+001 -1.293002e-001 1.365563e+002
518497546.24387 -4.062500e-001 1.742164e+002 -5.537384e+001 5.259613e+001 -5.593508e+001 4.922357e+001 -1.309154e-001 1.365278e+002
518875047.18762 -4.119709e-001 1.740375e+002 -5.474163e+001 5.222922e+001 -5.574593e+001 4.509161e+001 -1.340894e-001 1.365195e+002
519252548.13137 -4.170241e-001 1.737889e+002 -5.491140e+001 5.252296e+001 -5.531314e+001 4.367966e+001 -1.329766e-001 1.364834e+002
519630049.07512 -4.247411e-001 1.736333e+002 -5.484350e+001 5.102892e+001 -5.578495e+001 4.453965e+001 -1.389902e-001 1.364566e+002
520007550.01888 -4.304125e-001 1.733737e+002 -5.483337e+001 4.884833e+001 -5.611366e+001 4.433889e+001 -1.342308e-001 1.364340e+002
520385050.96263 -4.336148e-001 1.732021e+002 -5.491062e+001 5.069913e+001 -5.563436e+001 4.264377e+001 -1.385953e-001 1.364125e+002
520762551.90638 -4.400316e-001 1.729961e+002 -5.451084e+001 5.091391e+001 -5.555650e+001 4.426671e+001 -1.343866e-001 1.364057e+002
521140052.85013 -4.400759e-001 1.726713e+002 -5.447003e+001 5.078233e+001 -5.556200e+001 4.465965e+001 -1.349293e-001 1.363569e+002
521517553.79388 -4.500653e-001 1.725037e+002 -5.472483e+001 4.708830e+001 -5.563061e+001 4.179939e+001 -1.381531e-001 1.363325e+002
521895054.73764 -4.520084e-001 1.722788e+002 -5.443125e+001 4.560297e+001 -5.560374e+001 4.126971e+001 -1.409399e-001 1.363118e+002
522272555.68139 -4.588775e-001 1.720963e+002 -5.448863e+001 4.561672e+001 -5.541171e+001 3.924796e+001 -1.376568e-001 1.362592e+002
522650056.62514 -4.619361e-001 1.718788e+002 -5.436791e+001 4.587224e+001 -5.533803e+001 4.309200e+001 -1.436139e-001 1.362529e+002
523027557.56889 -4.657210e-001 1.715934e+002 -5.464327e+001 4.471150e+001 -5.505195e+001 4.195961e+001 -1.424656e-001 1.361965e+002
523405058.51265 -4.701253e-001 1.714493e+002 -5.401313e+001 4.625541e+001 -5.498952e+001 3.981599e+001 -1.457952e-001 1.361881e+002
523782559.4564 -4.762668e-001 1.711905e+002 -5.387877e+001 4.308279e+001 -5.530605e+001 4.250461e+001 -1.451621e-001 1.361387e+002
524160060.40015 -4.805211e-001 1.709559e+002 -5.413000e+001 4.266298e+001 -5.501469e+001 3.844824e+001 -1.470081e-001 1.361123e+002
524537561.3439 -4.857946e-001 1.707638e+002 -5.401126e+001 4.171627e+001 -5.489436e+001 3.770717e+001 -1.454754e-001 1.360536e+002
524915062.28766 -4.868203e-001 1.704938e+002 -5.409303e+001 4.148843e+001 -5.503456e+001 3.666047e+001 -1.471382e-001 1.359845e+002
525292563.23141 -4.904879e-001 1.703297e+002 -5.419185e+001 3.996733e+001 -5.453900e+001 3.577662e+001 -1.497915e-001 1.359382e+002
525670064.17516 -4.940586e-001 1.701133e+002 -5.363764e+001 4.130940e+001 -5.460233e+001 3.521658e+001 -1.493136e-001 1.358875e+002
526047565.11891 -4.983732e-001 1.698907e+002 -5.383758e+001 3.942184e+001 -5.453220e+001 3.607834e+001 -1.479710e-001 1.358429e+002
526425066.06267 -5.039873e-001 1.696151e+002 -5.395646e+001 3.987737e+001 -5.425926e+001 3.461926e+001 -1.482762e-001 1.357867e+002
526802567.00642 -5.114315e-001 1.694469e+002 -5.359945e+001 3.878411e+001 -5.402417e+001 3.367609e+001 -1.485343e-001 1.357502e+002
527180067.95017 -5.103408e-001 1.692059e+002 -5.389893e+001 3.684805e+001 -5.418307e+001 3.229799e+001 -1.477918e-001 1.356526e+002
527557568.89392 -5.174532e-001 1.689803e+002 -5.361428e+001 3.610483e+001 -5.445098e+001 3.001943e+001 -1.511364e-001 1.355700e+002
527935069.83767 -5.223476e-001 1.688144e+002 -5.337716e+001 3.731115e+001 -5.400355e+001 2.980995e+001 -1.487817e-001 1.355557e+002
528312570.78143 -5.213372e-001 1.685333e+002 -5.318593e+001 3.549767e+001 -5.354062e+001 2.944921e+001 -1.508937e-001 1.354789e+002
528690071.72518 -5.314624e-001 1.683588e+002 -5.336170e+001 3.433738e+001 -5.421785e+001 2.985179e+001 -1.489694e-001 1.354221e+002
529067572.66893 -5.320296e-001 1.680586e+002 -5.313605e+001 3.376388e+001 -5.393216e+001 2.852684e+001 -1.477833e-001 1.353512e+002
529445073.61268 -5.402023e-001 1.678449e+002 -5.360405e+001 3.216611e+001 -5.394349e+001 2.706039e+001 -1.475778e-001 1.352852e+002
529822574.55644 -5.470303e-001 1.675968e+002 -5.343356e+001 3.330762e+001 -5.401634e+001 2.715955e+001 -1.484399e-001 1.352161e+002
530200075.50019 -5.527247e-001 1.674447e+002 -5.337798e+001 3.181679e+001 -5.383223e+001 2.523922e+001 -1.473326e-001 1.351588e+002
530577576.44394 -5.580111e-001 1.671062e+002 -5.304972e+001 3.144727e+001 -5.376888e+001 2.698990e+001 -1.512249e-001 1.351040e+002
530955077.38769 -5.677584e-001 1.669248e+002 -5.306467e+001 3.102350e+001 -5.387523e+001 2.490170e+001 -1.506806e-001 1.350270e+002
531332578.33145 -5.762686e-001 1.667475e+002 -5.302471e+001 2.998182e+001 -5.377405e+001 2.503690e+001 -1.518912e-001 1.349716e+002
531710079.2752 -5.802179e-001 1.664784e+002 -5.268612e+001 3.040025e+001 -5.350282e+001 2.272988e+001 -1.463628e-001 1.349122e+002
532087580.21895 -5.892147e-001 1.662441e+002 -5.301131e+001 3.019395e+001 -5.360302e+001 2.248256e+001 -1.494805e-001 1.348650e+002
532465081.1627 -5.969698e-001 1.660323e+002 -5.259530e+001 2.664440e+001 -5.333208e+001 2.144901e+001 -1.467710e-001 1.348217e+002
532842582.10646 -5.995238e-001 1.657884e+002 -5.294424e+001 2.730386e+001 -5.354222e+001 2.219043e+001 -1.448511e-001 1.347495e+002
533220083.05021 -6.099567e-001 1.655453e+002 -5.284004e+001 2.811346e+001 -5.316420e+001 2.156610e+001 -1.475324e-001 1.347086e+002
533597583.99396 -6.135604e-001 1.653260e+002 -5.286511e+001 2.825375e+001 -5.312848e+001 1.917463e+001 -1.450898e-001 1.346326e+002
533975084.93771 -6.273673e-001 1.650883e+002 -5.269653e+001 2.677346e+001 -5.311671e+001 1.862519e+001 -1.459513e-001 1.346107e+002
534352585.88146 -6.301359e-001 1.648218e+002 -5.262891e+001 2.617740e+001 -5.338425e+001 1.919848e+001 -1.412086e-001 1.345812e+002
534730086.82522 -6.374814e-001 1.645832e+002 -5.257320e+001 2.595945e+001 -5.311639e+001 1.733852e+001 -1.374944e-001 1.345381e+002
535107587.76897 -6.420503e-001 1.644053e+002 -5.226234e+001 2.457680e+001 -5.295468e+001 1.783060e+001 -1.418495e-001 1.345099e+002
535485088.71272 -6.547624e-001 1.641664e+002 -5.211802e+001 2.270582e+001 -5.294839e+001 1.683806e+001 -1.361305e-001 1.344344e+002
535862589.65647 -6.625903e-001 1.639523e+002 -5.226260e+001 2.220124e+001 -5.301125e+001 1.728155e+001 -1.365679e-001 1.343990e+002
536240090.60023 -6.659794e-001 1.636682e+002 -5.223417e+001 2.187572e+001 -5.274759e+001 1.514932e+001 -1.379995e-001 1.343395e+002
536617591.54398 -6.710141e-001 1.634637e+002 -5.210711e+001 2.214391e+001 -5.293042e+001 1.392273e+001 -1.368818e-001 1.343524e+002
536995092.48773 -6.800949e-001 1.632503e+002 -5.206372e+001 2.093945e+001 -5.273281e+001 1.562994e+001 -1.363001e-001 1.343022e+002
537372593.43148 -6.893197e-001 1.630075e+002 -5.230418e+001 1.990187e+001 -5.272643e+001 1.327637e+001 -1.333595e-001 1.342910e+002
537750094.37524 -6.977391e-001 1.627241e+002 -5.184130e+001 2.137563e+001 -5.247949e+001 1.390746e+001 -1.286319e-001 1.342502e+002
538127595.31899 -7.097059e-001 1.625551e+002 -5.171761e+001 1.855131e+001 -5.248363e+001 1.240567e+001 -1.314575e-001 1.342226e+002
538505096.26274 -7.153946e-001 1.623098e+002 -5.178965e+001 1.696156e+001 -5.240551e+001 1.120446e+001 -1.321547e-001 1.341956e+002
538882597.20649 -7.249463e-001 1.620707e+002 -5.161116e+001 1.903644e+001 -5.265263e+001 1.045575e+001 -1.310397e-001 1.341712e+002
539260098.15025 -7.345547e-001 1.618709e+002 -5.141375e+001 1.823363e+001 -5.192089e+001 8.493239e+000 -1.257687e-001 1.341389e+002
539637599.094 -7.468027e-001 1.616576e+002 -5.153437e+001 1.631557e+001 -5.221994e+001 1.046266e+001 -1.259544e-001 1.341170e+002
540015100.03775 -7.522481e-001 1.614785e+002 -5.142400e+001 1.595414e+001 -5.198010e+001 8.466230e+000 -1.271680e-001 1.341341e+002
540392600.9815 -7.641143e-001 1.612284e+002 -5.124128e+001 1.494786e+001 -5.215348e+001 6.637877e+000 -1.263812e-001 1.340260e+002
540770101.92525 -7.715257e-001 1.609986e+002 -5.112632e+001 1.302572e+001 -5.176669e+001 6.003651e+000 -1.289047e-001 1.340323e+002
541147602.86901 -7.795284e-001 1.608610e+002 -5.101353e+001 1.204721e+001 -5.160463e+001 4.441364e+000 -1.276925e-001 1.339876e+002
541525103.81276 -7.862036e-001 1.605622e+002 -5.114204e+001 1.301471e+001 -5.175098e+001 4.041408e+000 -1.239085e-001 1.339589e+002
541902604.75651 -7.979196e-001 1.604093e+002 -5.093129e+001 9.614000e+000 -5.165701e+001 3.318410e+000 -1.249703e-001 1.339144e+002
542280105.70026 -8.036144e-001 1.602109e+002 -5.093619e+001 9.809913e+000 -5.158538e+001 2.105972e+000 -1.238127e-001 1.338833e+002
542657606.64402 -8.097171e-001 1.600200e+002 -5.085830e+001 8.164543e+000 -5.167130e+001 -6.676893e-001 -1.257930e-001 1.338493e+002
543035107.58777 -8.190535e-001 1.598043e+002 -5.094617e+001 8.161880e+000 -5.169113e+001 -1.408489e+000 -1.240988e-001 1.338024e+002
543412608.53152 -8.247564e-001 1.595900e+002 -5.091130e+001 6.747709e+000 -5.192783e+001 -2.100464e+000 -1.285617e-001 1.337605e+002
543790109.47527 -8.321776e-001 1.594263e+002 -5.075718e+001 6.591941e+000 -5.187594e+001 -2.102103e+000 -1.268103e-001 1.337175e+002
544167610.41903 -8.386126e-001 1.592124e+002 -5.065145e+001 5.953319e+000 -5.190418e+001 -2.835305e+000 -1.292469e-001 1.336832e+002
544545111.36278 -8.425450e-001 1.590245e+002 -5.064384e+001 4.430223e+000 -5.188736e+001 -2.278879e+000 -1.289274e-001 1.336090e+002
544922612.30653 -8.475901e-001 1.587818e+002 -5.099137e+001 3.153963e+000 -5.203865e+001 -4.506425e+000 -1.269186e-001 1.335813e+002
545300113.25028 -8.528147e-001 1.586249e+002 -5.076377e+001 2.504589e+000 -5.182516e+001 -4.790667e+000 -1.296576e-001 1.335544e+002
545677614.19404 -8.591522e-001 1.584213e+002 -5.072232e+001 1.763214e+000 -5.179501e+001 -5.683095e+000 -1.301529e-001 1.334796e+002
546055115.13779 -8.636642e-001 1.581917e+002 -5.087429e+001 4.202701e+000 -5.204775e+001 -6.012051e+000 -1.338203e-001 1.334159e+002
546432616.08154 -8.667221e-001 1.579592e+002 -5.078378e+001 2.337045e+000 -5.189451e+001 -6.108696e+000 -1.344732e-001 1.333597e+002
546810117.02529 -8.665299e-001 1.577644e+002 -5.072723e+001 6.694435e-001 -5.195420e+001 -7.461878e+000 -1.378330e-001 1.333048e+002
547187617.96904 -8.748130e-001 1.575216e+002 -5.058039e+001 1.061555e-001 -5.165661e+001 -6.887739e+000 -1.354715e-001 1.332494e+002
547565118.9128 -8.801524e-001 1.573278e+002 -5.077030e+001 -2.000883e-001 -5.177549e+001 -6.989416e+000 -1.421943e-001 1.331841e+002
547942619.85655 -8.836243e-001 1.570969e+002 -5.077266e+001 -1.949983e+000 -5.172524e+001 -7.674666e+000 -1.443230e-001 1.331248e+002
548320120.8003 -8.878025e-001 1.569042e+002 -5.045293e+001 -9.184669e-001 -5.171688e+001 -8.181311e+000 -1.458671e-001 1.330528e+002
548697621.74405 -8.933446e-001 1.566082e+002 -5.058438e+001 -3.170504e+000 -5.154090e+001 -8.922400e+000 -1.459540e-001 1.330040e+002
549075122.68781 -9.016674e-001 1.564372e+002 -5.025277e+001 -3.479091e+000 -5.166349e+001 -9.474277e+000 -1.462143e-001 1.329877e+002
549452623.63156 -9.063749e-001 1.561556e+002 -5.031263e+001 -3.832303e+000 -5.169171e+001 -9.511623e+000 -1.510721e-001 1.328945e+002
549830124.57531 -9.145420e-001 1.559539e+002 -5.038543e+001 -4.239423e+000 -5.140141e+001 -9.446241e+000 -1.528627e-001 1.328225e+002
550207625.51906 -9.182369e-001 1.557188e+002 -5.031339e+001 -4.558368e+000 -5.173425e+001 -9.227828e+000 -1.521754e-001 1.327731e+002
550585126.46282 -9.230849e-001 1.555030e+002 -5.065137e+001 -6.066204e+000 -5.145733e+001 -1.196687e+001 -1.549332e-001 1.326997e+002
550962627.40657 -9.286162e-001 1.552539e+002 -5.037983e+001 -4.853564e+000 -5.122361e+001 -1.089011e+001 -1.552629e-001 1.326389e+002
551340128.35032 -9.321123e-001 1.550650e+002 -5.017614e+001 -7.452219e+000 -5.119844e+001 -1.189564e+001 -1.591926e-001 1.325636e+002
551717629.29407 -9.390924e-001 1.547653e+002 -4.994798e+001 -7.957915e+000 -5.129866e+001 -1.124685e+001 -1.531914e-001 1.325376e+002
552095130.23783 -9.452888e-001 1.545029e+002 -5.003598e+001 -7.105369e+000 -5.112748e+001 -1.445094e+001 -1.576256e-001 1.324503e+002
552472631.18158 -9.477924e-001 1.542875e+002 -4.996016e+001 -7.332281e+000 -5.088597e+001 -1.370474e+001 -1.586172e-001 1.323944e+002
552850132.12533 -9.563715e-001 1.540620e+002 -5.006297e+001 -8.813437e+000 -5.115369e+001 -1.524221e+001 -1.606171e-001 1.323255e+002
553227633.06908 -9.641919e-001 1.538061e+002 -4.986185e+001 -1.030913e+001 -5.090096e+001 -1.531347e+001 -1.592112e-001 1.322694e+002
553605134.01284 -9.674729e-001 1.535417e+002 -5.005982e+001 -1.170332e+001 -5.079932e+001 -1.607996e+001 -1.652048e-001 1.322108e+002
553982634.95659 -9.768389e-001 1.533379e+002 -4.989798e+001 -1.163511e+001 -5.069281e+001 -1.740320e+001 -1.651416e-001 1.321572e+002
554360135.90034 -9.816148e-001 1.530260e+002 -4.986196e+001 -1.289684e+001 -5.062659e+001 -1.778760e+001 -1.604523e-001 1.321060e+002
554737636.84409 -9.957998e-001 1.528028e+002 -4.957933e+001 -1.337912e+001 -5.072530e+001 -1.944239e+001 -1.629020e-001 1.320696e+002
555115137.78784 -1.006354e+000 1.525750e+002 -4.955997e+001 -1.288610e+001 -5.038540e+001 -1.965862e+001 -1.639491e-001 1.320027e+002
555492638.7316 -1.015578e+000 1.522921e+002 -4.974644e+001 -1.307852e+001 -5.066781e+001 -1.925573e+001 -1.660557e-001 1.319559e+002
