!Agilent Technologies,E8364B,US42250235,A.06.04.32
!Agilent E8364B: A.06.04.32
!Date: Thursday, October 01, 2020 14:31:28
!Correction: S11(Full 2 Port(1,2)) S21(Full 2 Port(1,2)) S12(Full 2 Port(1,2)) S22(Full 2 Port(1,2)) 
!S2P File: Measurements: S11, S21, S12, S22:
# Hz S  dB   R 50
500000000 -2.237982e-001 -1.750680e+002 -6.113651e+001 -5.149187e+001 -6.242098e+001 -5.799998e+001 -8.416191e-002 1.382391e+002
500377500.94375 -2.269018e-001 -1.752616e+002 -6.116909e+001 -5.274138e+001 -6.202286e+001 -6.015038e+001 -8.463678e-002 1.382061e+002
500755001.8875 -2.278780e-001 -1.754402e+002 -6.139654e+001 -5.306201e+001 -6.233229e+001 -5.899580e+001 -8.602342e-002 1.381538e+002
501132502.83126 -2.288925e-001 -1.756906e+002 -6.225135e+001 -5.640028e+001 -6.226326e+001 -5.905610e+001 -8.649549e-002 1.381037e+002
501510003.77501 -2.318296e-001 -1.758706e+002 -6.093554e+001 -5.467058e+001 -6.255680e+001 -6.549018e+001 -8.898865e-002 1.380492e+002
501887504.71876 -2.306745e-001 -1.761265e+002 -6.153618e+001 -5.826548e+001 -6.123648e+001 -6.210383e+001 -8.816060e-002 1.379837e+002
502265005.66251 -2.368082e-001 -1.762999e+002 -6.140787e+001 -5.739476e+001 -6.161601e+001 -6.278664e+001 -8.891885e-002 1.379513e+002
502642506.60627 -2.308025e-001 -1.765107e+002 -6.108371e+001 -6.180354e+001 -6.203657e+001 -6.193696e+001 -9.395019e-002 1.379178e+002
503020007.55002 -2.363264e-001 -1.767155e+002 -6.092364e+001 -5.630975e+001 -6.272834e+001 -6.342028e+001 -8.860686e-002 1.378357e+002
503397508.49377 -2.425341e-001 -1.769363e+002 -6.135925e+001 -6.115989e+001 -6.126487e+001 -6.427463e+001 -9.072201e-002 1.377964e+002
503775009.43752 -2.412890e-001 -1.770918e+002 -6.269376e+001 -6.268769e+001 -6.251200e+001 -6.035933e+001 -9.073918e-002 1.377470e+002
504152510.38128 -2.418806e-001 -1.773838e+002 -6.246629e+001 -6.449882e+001 -6.236617e+001 -6.702336e+001 -8.751314e-002 1.376592e+002
504530011.32503 -2.458137e-001 -1.775626e+002 -6.209357e+001 -5.836328e+001 -6.186924e+001 -6.889758e+001 -8.887216e-002 1.376311e+002
504907512.26878 -2.488835e-001 -1.777671e+002 -6.176923e+001 -6.142296e+001 -6.234100e+001 -6.533177e+001 -8.848037e-002 1.375772e+002
505285013.21253 -2.466093e-001 -1.780169e+002 -6.239018e+001 -6.530487e+001 -6.341581e+001 -7.037707e+001 -8.701694e-002 1.374941e+002
505662514.15629 -2.520248e-001 -1.781466e+002 -6.126564e+001 -6.478493e+001 -6.190884e+001 -6.953413e+001 -8.683744e-002 1.374661e+002
506040015.10004 -2.527085e-001 -1.784517e+002 -6.225474e+001 -5.989597e+001 -6.289198e+001 -6.820831e+001 -8.485035e-002 1.374381e+002
506417516.04379 -2.554700e-001 -1.786030e+002 -6.183018e+001 -6.452489e+001 -6.240267e+001 -6.704356e+001 -8.357216e-002 1.373709e+002
506795016.98754 -2.587481e-001 -1.788124e+002 -6.212787e+001 -6.517793e+001 -6.378096e+001 -6.834226e+001 -8.347150e-002 1.373226e+002
507172517.93129 -2.609600e-001 -1.790581e+002 -6.214284e+001 -5.869592e+001 -6.298260e+001 -6.686010e+001 -8.394317e-002 1.372960e+002
507550018.87505 -2.634379e-001 -1.792413e+002 -6.243369e+001 -6.146563e+001 -6.225393e+001 -6.506448e+001 -8.209256e-002 1.372672e+002
507927519.8188 -2.665486e-001 -1.794739e+002 -6.212816e+001 -6.632162e+001 -6.333525e+001 -6.724571e+001 -7.782783e-002 1.372021e+002
508305020.76255 -2.698461e-001 -1.796233e+002 -6.194999e+001 -6.324133e+001 -6.296292e+001 -6.567150e+001 -7.628610e-002 1.371728e+002
508682521.7063 -2.692870e-001 -1.798059e+002 -6.169048e+001 -5.733583e+001 -6.215854e+001 -6.661388e+001 -7.592422e-002 1.371664e+002
509060022.65006 -2.757445e-001 1.799133e+002 -6.167078e+001 -6.323505e+001 -6.348312e+001 -6.570864e+001 -7.599718e-002 1.370997e+002
509437523.59381 -2.734413e-001 1.797223e+002 -6.176898e+001 -5.738736e+001 -6.106420e+001 -6.374287e+001 -7.846090e-002 1.370725e+002
509815024.53756 -2.782226e-001 1.794839e+002 -6.185415e+001 -6.299542e+001 -6.250702e+001 -7.019401e+001 -7.520983e-002 1.370395e+002
510192525.48131 -2.778491e-001 1.792664e+002 -6.049948e+001 -6.163985e+001 -6.296299e+001 -6.786165e+001 -7.131426e-002 1.369995e+002
510570026.42507 -2.826360e-001 1.790956e+002 -6.163276e+001 -6.277813e+001 -6.196845e+001 -7.136080e+001 -7.204412e-002 1.370058e+002
510947527.36882 -2.840483e-001 1.788321e+002 -6.232536e+001 -6.801051e+001 -6.195855e+001 -6.811623e+001 -7.425061e-002 1.369498e+002
511325028.31257 -2.867896e-001 1.786384e+002 -6.151371e+001 -6.457591e+001 -6.224575e+001 -7.039816e+001 -7.043832e-002 1.369565e+002
511702529.25632 -2.888879e-001 1.784455e+002 -6.031174e+001 -6.474408e+001 -6.172548e+001 -7.039643e+001 -6.826152e-002 1.369097e+002
512080030.20008 -2.926944e-001 1.782193e+002 -6.210366e+001 -6.175983e+001 -6.141929e+001 -7.196724e+001 -7.034028e-002 1.369284e+002
512457531.14383 -2.981414e-001 1.780158e+002 -6.092898e+001 -6.600228e+001 -6.195579e+001 -7.409747e+001 -6.854650e-002 1.369065e+002
512835032.08758 -3.033533e-001 1.777516e+002 -6.118438e+001 -6.612257e+001 -6.150679e+001 -6.886465e+001 -6.957916e-002 1.368582e+002
513212533.03133 -3.074648e-001 1.776024e+002 -6.004289e+001 -6.826073e+001 -6.139114e+001 -7.826378e+001 -7.005958e-002 1.368506e+002
513590033.97508 -3.125006e-001 1.774277e+002 -6.123449e+001 -6.656045e+001 -6.109713e+001 -7.204401e+001 -6.875267e-002 1.368621e+002
513967534.91884 -3.192452e-001 1.771358e+002 -6.046496e+001 -6.020947e+001 -6.090516e+001 -6.829903e+001 -6.833719e-002 1.368284e+002
514345035.86259 -3.184876e-001 1.769449e+002 -6.029767e+001 -6.529028e+001 -6.090310e+001 -7.443661e+001 -6.968528e-002 1.368533e+002
514722536.80634 -3.245107e-001 1.767034e+002 -6.063097e+001 -6.557153e+001 -6.084948e+001 -7.035842e+001 -7.114428e-002 1.368430e+002
515100037.75009 -3.278593e-001 1.765461e+002 -6.066593e+001 -6.313905e+001 -6.075269e+001 -7.354008e+001 -6.993500e-002 1.368274e+002
515477538.69385 -3.323348e-001 1.763560e+002 -5.981943e+001 -6.832298e+001 -6.049834e+001 -7.272120e+001 -7.394744e-002 1.368109e+002
515855039.6376 -3.313578e-001 1.761193e+002 -5.965226e+001 -7.063424e+001 -6.122176e+001 -7.435490e+001 -7.129291e-002 1.368089e+002
516232540.58135 -3.377062e-001 1.758780e+002 -5.940733e+001 -7.032510e+001 -6.053600e+001 -7.790061e+001 -7.279693e-002 1.368080e+002
516610041.5251 -3.402430e-001 1.756926e+002 -5.987523e+001 -7.098381e+001 -5.999121e+001 -7.429333e+001 -7.434356e-002 1.368164e+002
516987542.46886 -3.482136e-001 1.754783e+002 -5.964778e+001 -7.424763e+001 -6.067105e+001 -7.832492e+001 -7.319351e-002 1.368070e+002
517365043.41261 -3.523186e-001 1.752544e+002 -6.003574e+001 -7.301434e+001 -6.063167e+001 -7.865203e+001 -7.333525e-002 1.368159e+002
517742544.35636 -3.524284e-001 1.749825e+002 -5.964859e+001 -7.307252e+001 -6.045399e+001 -7.938242e+001 -7.668298e-002 1.368153e+002
518120045.30011 -3.566886e-001 1.748004e+002 -6.036029e+001 -7.542247e+001 -6.056094e+001 -7.991166e+001 -7.541405e-002 1.368071e+002
518497546.24387 -3.585948e-001 1.745457e+002 -5.959760e+001 -7.636556e+001 -6.028737e+001 -8.254069e+001 -7.766069e-002 1.368070e+002
518875047.18762 -3.624690e-001 1.744060e+002 -5.968681e+001 -7.489972e+001 -6.003221e+001 -8.563943e+001 -7.798914e-002 1.368061e+002
519252548.13137 -3.664058e-001 1.741078e+002 -5.990466e+001 -7.643451e+001 -6.023144e+001 -8.499341e+001 -7.809526e-002 1.367769e+002
519630049.07512 -3.681610e-001 1.739125e+002 -5.966208e+001 -7.752981e+001 -5.989931e+001 -8.445276e+001 -8.211162e-002 1.367512e+002
520007550.01888 -3.743133e-001 1.737359e+002 -5.926932e+001 -7.614902e+001 -6.093056e+001 -8.458127e+001 -7.868209e-002 1.367417e+002
520385050.96263 -3.755612e-001 1.734837e+002 -5.961888e+001 -8.100521e+001 -6.003804e+001 -8.361716e+001 -8.082970e-002 1.367261e+002
520762551.90638 -3.795701e-001 1.732879e+002 -5.932999e+001 -7.684948e+001 -6.049077e+001 -8.598969e+001 -7.969220e-002 1.367232e+002
521140052.85013 -3.801790e-001 1.730027e+002 -5.932918e+001 -8.179076e+001 -6.064573e+001 -8.953662e+001 -8.225444e-002 1.366970e+002
521517553.79388 -3.851408e-001 1.728242e+002 -5.975560e+001 -8.753476e+001 -6.001521e+001 -8.607964e+001 -8.483840e-002 1.366607e+002
521895054.73764 -3.874338e-001 1.725819e+002 -5.906864e+001 -8.258062e+001 -5.996286e+001 -8.826888e+001 -8.466502e-002 1.366409e+002
522272555.68139 -3.932920e-001 1.723724e+002 -5.992825e+001 -8.140449e+001 -6.067750e+001 -8.823038e+001 -8.333456e-002 1.365846e+002
522650056.62514 -3.940376e-001 1.721520e+002 -5.941703e+001 -8.466948e+001 -6.047415e+001 -8.853322e+001 -8.749946e-002 1.365799e+002
523027557.56889 -3.968073e-001 1.718913e+002 -5.952003e+001 -8.318996e+001 -5.981641e+001 -8.556579e+001 -8.860993e-002 1.365278e+002
523405058.51265 -3.974821e-001 1.717183e+002 -5.927577e+001 -8.381860e+001 -5.971380e+001 -8.981309e+001 -8.996376e-002 1.365181e+002
523782559.4564 -4.026863e-001 1.714698e+002 -5.902355e+001 -8.242912e+001 -6.019284e+001 -8.837202e+001 -8.892549e-002 1.364497e+002
524160060.40015 -4.007595e-001 1.712069e+002 -5.938836e+001 -8.502688e+001 -6.032048e+001 -8.521848e+001 -9.232742e-002 1.364296e+002
524537561.3439 -4.059315e-001 1.710230e+002 -5.966829e+001 -8.376586e+001 -5.962091e+001 -8.808227e+001 -9.009526e-002 1.363489e+002
524915062.28766 -4.067327e-001 1.707552e+002 -5.932952e+001 -8.775034e+001 -5.989011e+001 -9.175243e+001 -9.244558e-002 1.362852e+002
525292563.23141 -4.129070e-001 1.706219e+002 -5.961014e+001 -8.471903e+001 -5.985311e+001 -8.587943e+001 -9.643445e-002 1.362350e+002
525670064.17516 -4.118921e-001 1.703213e+002 -5.953016e+001 -8.401024e+001 -5.960114e+001 -8.704137e+001 -9.200168e-002 1.361717e+002
526047565.11891 -4.168027e-001 1.701352e+002 -5.958338e+001 -8.699168e+001 -5.934116e+001 -8.867574e+001 -9.435339e-002 1.361283e+002
526425066.06267 -4.172862e-001 1.698703e+002 -5.881968e+001 -8.794080e+001 -5.920318e+001 -9.222578e+001 -9.619059e-002 1.360481e+002
526802567.00642 -4.251912e-001 1.696786e+002 -5.898926e+001 -8.760360e+001 -5.967560e+001 -9.607021e+001 -9.761009e-002 1.360019e+002
527180067.95017 -4.219082e-001 1.693936e+002 -5.865187e+001 -8.872738e+001 -5.929660e+001 -8.978873e+001 -9.529950e-002 1.359022e+002
527557568.89392 -4.232796e-001 1.691092e+002 -5.907557e+001 -8.619450e+001 -5.925008e+001 -9.145708e+001 -9.832763e-002 1.358483e+002
527935069.83767 -4.304990e-001 1.689166e+002 -5.875489e+001 -9.188213e+001 -5.910914e+001 -9.255166e+001 -9.356660e-002 1.357687e+002
528312570.78143 -4.336200e-001 1.687048e+002 -5.858461e+001 -9.232939e+001 -5.901628e+001 -9.448939e+001 -9.620917e-002 1.356855e+002
528690071.72518 -4.377240e-001 1.684353e+002 -5.876988e+001 -8.837286e+001 -5.926320e+001 -9.764383e+001 -9.688042e-002 1.356217e+002
529067572.66893 -4.425194e-001 1.681877e+002 -5.881880e+001 -9.443974e+001 -5.924680e+001 -9.855974e+001 -9.374037e-002 1.355679e+002
529445073.61268 -4.483492e-001 1.678908e+002 -5.856579e+001 -9.225484e+001 -5.953212e+001 -9.437746e+001 -9.670298e-002 1.354812e+002
529822574.55644 -4.531780e-001 1.676696e+002 -5.847167e+001 -9.437845e+001 -5.865088e+001 -9.830379e+001 -9.811357e-002 1.354173e+002
530200075.50019 -4.608950e-001 1.675263e+002 -5.866299e+001 -9.412597e+001 -5.921738e+001 -9.748714e+001 -9.758518e-002 1.353467e+002
530577576.44394 -4.631032e-001 1.672357e+002 -5.868323e+001 -9.034055e+001 -5.912677e+001 -9.973556e+001 -9.655623e-002 1.352843e+002
530955077.38769 -4.734446e-001 1.670249e+002 -5.828141e+001 -9.391309e+001 -5.892698e+001 -9.841112e+001 -9.818719e-002 1.351546e+002
531332578.33145 -4.801506e-001 1.667823e+002 -5.801139e+001 -9.329417e+001 -5.902668e+001 -1.017367e+002 -9.845006e-002 1.351481e+002
531710079.2752 -4.907054e-001 1.665620e+002 -5.859571e+001 -9.642749e+001 -5.860068e+001 -1.002235e+002 -9.463540e-002 1.350792e+002
532087580.21895 -4.898363e-001 1.662882e+002 -5.847098e+001 -9.390401e+001 -5.907280e+001 -9.951582e+001 -9.635799e-002 1.350389e+002
532465081.1627 -4.967071e-001 1.660351e+002 -5.840794e+001 -9.535188e+001 -5.857924e+001 -1.027572e+002 -9.646726e-002 1.349440e+002
532842582.10646 -5.016628e-001 1.658479e+002 -5.854020e+001 -9.478606e+001 -5.874826e+001 -9.891278e+001 -9.283338e-002 1.349099e+002
533220083.05021 -5.096211e-001 1.655546e+002 -5.825185e+001 -9.288379e+001 -5.884979e+001 -9.982890e+001 -9.636793e-002 1.348731e+002
533597583.99396 -5.106378e-001 1.652938e+002 -5.898101e+001 -9.389861e+001 -5.871626e+001 -1.017987e+002 -9.522576e-002 1.348308e+002
533975084.93771 -5.213619e-001 1.651261e+002 -5.843214e+001 -9.722448e+001 -5.887713e+001 -1.024599e+002 -9.131689e-002 1.347776e+002
534352585.88146 -5.243447e-001 1.648188e+002 -5.789946e+001 -9.616490e+001 -5.864667e+001 -1.037449e+002 -9.025199e-002 1.347407e+002
534730086.82522 -5.313139e-001 1.645942e+002 -5.825766e+001 -9.585755e+001 -5.826762e+001 -1.023102e+002 -8.691791e-002 1.347092e+002
535107587.76897 -5.360023e-001 1.643491e+002 -5.758418e+001 -9.839011e+001 -5.849777e+001 -1.013449e+002 -8.790636e-002 1.346919e+002
535485088.71272 -5.451751e-001 1.641677e+002 -5.755439e+001 -9.860024e+001 -5.807529e+001 -1.027300e+002 -8.551750e-002 1.346151e+002
535862589.65647 -5.504141e-001 1.639220e+002 -5.746096e+001 -1.017188e+002 -5.797869e+001 -1.060775e+002 -8.682376e-002 1.345959e+002
536240090.60023 -5.503814e-001 1.635826e+002 -5.779643e+001 -1.003847e+002 -5.754745e+001 -1.050015e+002 -8.823462e-002 1.345797e+002
536617591.54398 -5.583581e-001 1.634151e+002 -5.763147e+001 -1.019054e+002 -5.742485e+001 -1.023487e+002 -8.557781e-002 1.345577e+002
536995092.48773 -5.620541e-001 1.631373e+002 -5.688877e+001 -1.019038e+002 -5.796964e+001 -1.076912e+002 -8.718245e-002 1.345295e+002
537372593.43148 -5.765899e-001 1.628785e+002 -5.735750e+001 -1.034797e+002 -5.785158e+001 -1.063255e+002 -8.141336e-002 1.344926e+002
537750094.37524 -5.787359e-001 1.625985e+002 -5.677528e+001 -1.047288e+002 -5.801286e+001 -1.076485e+002 -8.031574e-002 1.344870e+002
538127595.31899 -5.894755e-001 1.623868e+002 -5.721600e+001 -1.027394e+002 -5.739630e+001 -1.102602e+002 -8.352295e-002 1.344497e+002
538505096.26274 -5.928141e-001 1.620845e+002 -5.679345e+001 -1.032293e+002 -5.706049e+001 -1.112259e+002 -8.167251e-002 1.344248e+002
538882597.20649 -6.048212e-001 1.618763e+002 -5.713467e+001 -1.053014e+002 -5.700063e+001 -1.131589e+002 -8.113002e-002 1.344168e+002
539260098.15025 -6.105633e-001 1.617071e+002 -5.664175e+001 -1.054999e+002 -5.738973e+001 -1.132144e+002 -7.707935e-002 1.343772e+002
539637599.094 -6.181400e-001 1.614399e+002 -5.677495e+001 -1.047201e+002 -5.718291e+001 -1.107926e+002 -7.708980e-002 1.343600e+002
540015100.03775 -6.250071e-001 1.611809e+002 -5.661900e+001 -1.059270e+002 -5.704169e+001 -1.133963e+002 -8.088187e-002 1.343814e+002
540392600.9815 -6.371748e-001 1.608787e+002 -5.643473e+001 -1.076200e+002 -5.714015e+001 -1.132667e+002 -8.076169e-002 1.343040e+002
540770101.92525 -6.440037e-001 1.606876e+002 -5.640862e+001 -1.073421e+002 -5.719442e+001 -1.121746e+002 -7.872209e-002 1.342816e+002
541147602.86901 -6.542743e-001 1.604538e+002 -5.638382e+001 -1.081669e+002 -5.699102e+001 -1.191941e+002 -7.914322e-002 1.342577e+002
541525103.81276 -6.620416e-001 1.602171e+002 -5.648361e+001 -1.097441e+002 -5.704827e+001 -1.182392e+002 -7.824363e-002 1.342171e+002
541902604.75651 -6.720483e-001 1.599891e+002 -5.589840e+001 -1.130395e+002 -5.666811e+001 -1.173726e+002 -7.771598e-002 1.342020e+002
542280105.70026 -6.785386e-001 1.597223e+002 -5.604024e+001 -1.099800e+002 -5.653283e+001 -1.192617e+002 -7.625853e-002 1.341630e+002
542657606.64402 -6.925222e-001 1.595610e+002 -5.654945e+001 -1.119901e+002 -5.655780e+001 -1.193054e+002 -7.845390e-002 1.341409e+002
543035107.58777 -6.999012e-001 1.592699e+002 -5.611417e+001 -1.148288e+002 -5.708973e+001 -1.204154e+002 -7.923321e-002 1.340943e+002
543412608.53152 -7.118800e-001 1.591190e+002 -5.655617e+001 -1.171430e+002 -5.662995e+001 -1.216031e+002 -7.993747e-002 1.340524e+002
543790109.47527 -7.203634e-001 1.588459e+002 -5.621413e+001 -1.159748e+002 -5.682336e+001 -1.242728e+002 -8.143673e-002 1.340138e+002
544167610.41903 -7.258886e-001 1.586069e+002 -5.631809e+001 -1.156012e+002 -5.689020e+001 -1.233474e+002 -8.268926e-002 1.339511e+002
544545111.36278 -7.360612e-001 1.583892e+002 -5.635946e+001 -1.184909e+002 -5.671531e+001 -1.259446e+002 -7.974532e-002 1.339118e+002
544922612.30653 -7.441977e-001 1.582264e+002 -5.645444e+001 -1.187832e+002 -5.700557e+001 -1.238711e+002 -8.212691e-002 1.338657e+002
545300113.25028 -7.480328e-001 1.580592e+002 -5.622227e+001 -1.192305e+002 -5.686518e+001 -1.287038e+002 -8.438182e-002 1.338423e+002
545677614.19404 -7.566469e-001 1.578210e+002 -5.628909e+001 -1.204603e+002 -5.713209e+001 -1.263419e+002 -8.640290e-002 1.337685e+002
546055115.13779 -7.603973e-001 1.575868e+002 -5.623793e+001 -1.207538e+002 -5.675067e+001 -1.283105e+002 -8.853006e-002 1.337027e+002
546432616.08154 -7.625613e-001 1.573274e+002 -5.616552e+001 -1.199306e+002 -5.670652e+001 -1.285122e+002 -8.980293e-002 1.336607e+002
546810117.02529 -7.687698e-001 1.571668e+002 -5.579960e+001 -1.184355e+002 -5.681824e+001 -1.271479e+002 -9.149582e-002 1.335965e+002
547187617.96904 -7.722083e-001 1.568661e+002 -5.598996e+001 -1.208002e+002 -5.728353e+001 -1.284219e+002 -8.997726e-002 1.335501e+002
547565118.9128 -7.803654e-001 1.565977e+002 -5.590800e+001 -1.234361e+002 -5.663870e+001 -1.280378e+002 -9.452756e-002 1.334746e+002
547942619.85655 -7.834753e-001 1.563927e+002 -5.583207e+001 -1.239953e+002 -5.681968e+001 -1.278771e+002 -9.699865e-002 1.334164e+002
548320120.8003 -7.886799e-001 1.561355e+002 -5.621218e+001 -1.248906e+002 -5.672329e+001 -1.296421e+002 -9.387727e-002 1.333600e+002
548697621.74405 -7.939932e-001 1.558609e+002 -5.563056e+001 -1.204716e+002 -5.678008e+001 -1.298143e+002 -9.797417e-002 1.332981e+002
549075122.68781 -8.075238e-001 1.556250e+002 -5.547885e+001 -1.221582e+002 -5.701100e+001 -1.314975e+002 -9.643330e-002 1.332820e+002
549452623.63156 -8.115844e-001 1.553519e+002 -5.567587e+001 -1.267388e+002 -5.640039e+001 -1.298823e+002 -9.770518e-002 1.331893e+002
549830124.57531 -8.253525e-001 1.551027e+002 -5.589487e+001 -1.236333e+002 -5.691607e+001 -1.306943e+002 -1.022519e-001 1.331263e+002
550207625.51906 -8.290485e-001 1.548837e+002 -5.587789e+001 -1.243631e+002 -5.708244e+001 -1.334595e+002 -9.867440e-002 1.330717e+002
550585126.46282 -8.397822e-001 1.547021e+002 -5.582811e+001 -1.280049e+002 -5.651828e+001 -1.318805e+002 -9.902120e-002 1.330141e+002
550962627.40657 -8.442339e-001 1.543802e+002 -5.579769e+001 -1.259431e+002 -5.669245e+001 -1.351692e+002 -1.015264e-001 1.329387e+002
551340128.35032 -8.527686e-001 1.541641e+002 -5.560474e+001 -1.296396e+002 -5.638468e+001 -1.346387e+002 -1.016345e-001 1.328715e+002
551717629.29407 -8.632529e-001 1.539165e+002 -5.574293e+001 -1.294483e+002 -5.573417e+001 -1.349781e+002 -9.809469e-002 1.328221e+002
552095130.23783 -8.704624e-001 1.536456e+002 -5.548373e+001 -1.286686e+002 -5.614472e+001 -1.357701e+002 -9.649770e-002 1.327885e+002
552472631.18158 -8.752910e-001 1.534208e+002 -5.597557e+001 -1.284149e+002 -5.586143e+001 -1.353348e+002 -1.004104e-001 1.327355e+002
552850132.12533 -8.881606e-001 1.531024e+002 -5.591492e+001 -1.294488e+002 -5.638421e+001 -1.350021e+002 -9.802005e-002 1.326779e+002
553227633.06908 -8.969740e-001 1.529016e+002 -5.495306e+001 -1.335316e+002 -5.578299e+001 -1.364245e+002 -9.625129e-002 1.326096e+002
553605134.01284 -9.086243e-001 1.526072e+002 -5.546852e+001 -1.325867e+002 -5.609236e+001 -1.377356e+002 -1.016902e-001 1.325774e+002
553982634.95659 -9.162103e-001 1.523488e+002 -5.532170e+001 -1.338563e+002 -5.601978e+001 -1.383793e+002 -9.901199e-002 1.325146e+002
554360135.90034 -9.236394e-001 1.520757e+002 -5.571349e+001 -1.327807e+002 -5.604570e+001 -1.401564e+002 -9.661330e-002 1.324770e+002
554737636.84409 -9.415756e-001 1.518274e+002 -5.578284e+001 -1.341039e+002 -5.600969e+001 -1.389924e+002 -9.598950e-002 1.324538e+002
555115137.78784 -9.566466e-001 1.516548e+002 -5.555481e+001 -1.337931e+002 -5.592967e+001 -1.399324e+002 -9.810214e-002 1.323888e+002
