!Agilent Technologies,E8364B,US42250235,A.06.04.32
!Agilent E8364B: A.06.04.32
!Date: Thursday, October 01, 2020 14:35:53
!Correction: S11(Full 2 Port(1,2)) S21(Full 2 Port(1,2)) S12(Full 2 Port(1,2)) S22(Full 2 Port(1,2)) 
!S2P File: Measurements: S11, S21, S12, S22:
# Hz S  dB   R 50
500000000 -2.358053e-001 -1.753347e+002 -6.060590e+001 -1.042827e+002 -6.251393e+001 -1.089198e+002 -1.448407e-001 1.382737e+002
500377500.94375 -2.414435e-001 -1.754416e+002 -6.188769e+001 -1.107111e+002 -6.167974e+001 -1.130016e+002 -1.455728e-001 1.382160e+002
500755001.8875 -2.375265e-001 -1.756772e+002 -6.141451e+001 -1.093824e+002 -6.136819e+001 -1.140939e+002 -1.459389e-001 1.381542e+002
501132502.83126 -2.421892e-001 -1.758642e+002 -6.103905e+001 -1.099453e+002 -6.084591e+001 -1.106389e+002 -1.459032e-001 1.380890e+002
501510003.77501 -2.472731e-001 -1.760228e+002 -6.141863e+001 -1.045140e+002 -6.143955e+001 -1.130262e+002 -1.498022e-001 1.380088e+002
501887504.71876 -2.434003e-001 -1.763287e+002 -6.133864e+001 -1.056819e+002 -6.112799e+001 -1.143013e+002 -1.478095e-001 1.379448e+002
502265005.66251 -2.543921e-001 -1.764457e+002 -6.157000e+001 -1.136426e+002 -6.077594e+001 -1.124579e+002 -1.507000e-001 1.378786e+002
502642506.60627 -2.511155e-001 -1.767343e+002 -6.183794e+001 -1.153724e+002 -6.091952e+001 -1.129930e+002 -1.516907e-001 1.378501e+002
503020007.55002 -2.566812e-001 -1.768669e+002 -6.088083e+001 -1.128005e+002 -6.146452e+001 -1.154399e+002 -1.476846e-001 1.377229e+002
503397508.49377 -2.638318e-001 -1.770674e+002 -6.196400e+001 -1.136895e+002 -6.106228e+001 -1.140240e+002 -1.482455e-001 1.376726e+002
503775009.43752 -2.602764e-001 -1.773315e+002 -6.131871e+001 -1.169185e+002 -6.012596e+001 -1.230646e+002 -1.511880e-001 1.376001e+002
504152510.38128 -2.631551e-001 -1.775210e+002 -6.152000e+001 -1.193521e+002 -6.153809e+001 -1.154567e+002 -1.501617e-001 1.375200e+002
504530011.32503 -2.665407e-001 -1.777372e+002 -6.086875e+001 -1.218243e+002 -6.130381e+001 -1.136168e+002 -1.496237e-001 1.374706e+002
504907512.26878 -2.694858e-001 -1.779182e+002 -6.087327e+001 -1.236952e+002 -6.086431e+001 -1.154624e+002 -1.476999e-001 1.373964e+002
505285013.21253 -2.662337e-001 -1.781902e+002 -6.043797e+001 -1.176199e+002 -6.053300e+001 -1.175390e+002 -1.461291e-001 1.373214e+002
505662514.15629 -2.714423e-001 -1.783580e+002 -6.131330e+001 -1.197504e+002 -6.135389e+001 -1.163869e+002 -1.513137e-001 1.372355e+002
506040015.10004 -2.732372e-001 -1.786270e+002 -6.033762e+001 -1.216723e+002 -5.981423e+001 -1.194718e+002 -1.513781e-001 1.371885e+002
506417516.04379 -2.772868e-001 -1.788293e+002 -6.084706e+001 -1.205678e+002 -6.068774e+001 -1.187987e+002 -1.477846e-001 1.371291e+002
506795016.98754 -2.830314e-001 -1.789631e+002 -6.088922e+001 -1.227258e+002 -6.145375e+001 -1.190718e+002 -1.491267e-001 1.370430e+002
507172517.93129 -2.815657e-001 -1.792499e+002 -6.140615e+001 -1.228699e+002 -6.088659e+001 -1.211072e+002 -1.457413e-001 1.369893e+002
507550018.87505 -2.893995e-001 -1.793877e+002 -6.080740e+001 -1.221882e+002 -6.049673e+001 -1.188813e+002 -1.480139e-001 1.369284e+002
507927519.8188 -2.935723e-001 -1.796696e+002 -5.957935e+001 -1.233366e+002 -6.092156e+001 -1.230502e+002 -1.428221e-001 1.368451e+002
508305020.76255 -2.947187e-001 -1.798415e+002 -6.019482e+001 -1.263767e+002 -6.043700e+001 -1.217623e+002 -1.447681e-001 1.368010e+002
508682521.7063 -2.960559e-001 1.799744e+002 -5.982214e+001 -1.187292e+002 -5.958767e+001 -1.218016e+002 -1.445893e-001 1.367747e+002
509060022.65006 -3.004107e-001 1.797438e+002 -5.999989e+001 -1.291160e+002 -6.020510e+001 -1.233182e+002 -1.418603e-001 1.366789e+002
509437523.59381 -3.026856e-001 1.794900e+002 -6.009433e+001 -1.285277e+002 -6.009092e+001 -1.224637e+002 -1.431584e-001 1.366200e+002
509815024.53756 -3.058989e-001 1.792905e+002 -5.944529e+001 -1.256885e+002 -5.962852e+001 -1.238332e+002 -1.439489e-001 1.365672e+002
510192525.48131 -3.118005e-001 1.791054e+002 -6.016486e+001 -1.251000e+002 -5.963871e+001 -1.251043e+002 -1.402130e-001 1.365048e+002
510570026.42507 -3.183889e-001 1.789435e+002 -6.017984e+001 -1.293760e+002 -5.987904e+001 -1.287451e+002 -1.418931e-001 1.364708e+002
510947527.36882 -3.147860e-001 1.786482e+002 -6.011694e+001 -1.310488e+002 -5.899070e+001 -1.253772e+002 -1.402775e-001 1.364077e+002
511325028.31257 -3.233220e-001 1.785193e+002 -6.026098e+001 -1.301404e+002 -5.992754e+001 -1.286333e+002 -1.358521e-001 1.363663e+002
511702529.25632 -3.232700e-001 1.782299e+002 -5.987740e+001 -1.293390e+002 -5.935296e+001 -1.279402e+002 -1.339198e-001 1.362892e+002
512080030.20008 -3.291218e-001 1.780504e+002 -6.046900e+001 -1.304124e+002 -5.988976e+001 -1.291818e+002 -1.382210e-001 1.362690e+002
512457531.14383 -3.336659e-001 1.778049e+002 -6.012263e+001 -1.315555e+002 -5.943290e+001 -1.278323e+002 -1.398460e-001 1.362316e+002
512835032.08758 -3.376811e-001 1.775557e+002 -5.906355e+001 -1.329469e+002 -5.949130e+001 -1.296432e+002 -1.391918e-001 1.361622e+002
513212533.03133 -3.438433e-001 1.773822e+002 -5.936177e+001 -1.349690e+002 -5.939590e+001 -1.328805e+002 -1.367521e-001 1.361330e+002
513590033.97508 -3.497113e-001 1.772099e+002 -5.911037e+001 -1.355144e+002 -5.869506e+001 -1.293920e+002 -1.378221e-001 1.361088e+002
513967534.91884 -3.556026e-001 1.769896e+002 -5.889222e+001 -1.366091e+002 -5.864129e+001 -1.296320e+002 -1.373323e-001 1.360638e+002
514345035.86259 -3.565621e-001 1.767431e+002 -5.868137e+001 -1.316646e+002 -5.867657e+001 -1.325186e+002 -1.364596e-001 1.360410e+002
514722536.80634 -3.633713e-001 1.765239e+002 -5.927456e+001 -1.343032e+002 -5.823960e+001 -1.357455e+002 -1.396238e-001 1.360102e+002
515100037.75009 -3.683048e-001 1.764072e+002 -5.905395e+001 -1.381895e+002 -5.796608e+001 -1.370949e+002 -1.410291e-001 1.359689e+002
515477538.69385 -3.730932e-001 1.761403e+002 -5.841743e+001 -1.369597e+002 -5.868906e+001 -1.359389e+002 -1.411342e-001 1.359413e+002
515855039.6376 -3.784087e-001 1.759671e+002 -5.848196e+001 -1.383571e+002 -5.885771e+001 -1.359427e+002 -1.390243e-001 1.359107e+002
516232540.58135 -3.855543e-001 1.757463e+002 -5.840884e+001 -1.396982e+002 -5.865706e+001 -1.407043e+002 -1.430073e-001 1.358838e+002
516610041.5251 -3.895172e-001 1.755128e+002 -5.834071e+001 -1.388195e+002 -5.816969e+001 -1.373082e+002 -1.425503e-001 1.358624e+002
516987542.46886 -3.972339e-001 1.753426e+002 -5.791727e+001 -1.402003e+002 -5.811514e+001 -1.388683e+002 -1.401747e-001 1.358330e+002
517365043.41261 -4.030714e-001 1.750976e+002 -5.763891e+001 -1.412501e+002 -5.796251e+001 -1.413633e+002 -1.423078e-001 1.358055e+002
517742544.35636 -4.031374e-001 1.748414e+002 -5.790559e+001 -1.414958e+002 -5.771042e+001 -1.441732e+002 -1.445872e-001 1.357957e+002
518120045.30011 -4.117953e-001 1.747057e+002 -5.775034e+001 -1.465825e+002 -5.797686e+001 -1.434790e+002 -1.443150e-001 1.357802e+002
518497546.24387 -4.117047e-001 1.744270e+002 -5.825475e+001 -1.455194e+002 -5.725763e+001 -1.468533e+002 -1.452507e-001 1.357611e+002
518875047.18762 -4.177053e-001 1.742495e+002 -5.818381e+001 -1.484437e+002 -5.797059e+001 -1.488111e+002 -1.450746e-001 1.357294e+002
519252548.13137 -4.222094e-001 1.740296e+002 -5.757338e+001 -1.487333e+002 -5.799038e+001 -1.439963e+002 -1.436101e-001 1.356761e+002
519630049.07512 -4.278837e-001 1.738588e+002 -5.711702e+001 -1.504941e+002 -5.799295e+001 -1.470103e+002 -1.480834e-001 1.356360e+002
520007550.01888 -4.293426e-001 1.736013e+002 -5.780406e+001 -1.532680e+002 -5.812683e+001 -1.499646e+002 -1.461264e-001 1.356221e+002
520385050.96263 -4.357312e-001 1.734020e+002 -5.828536e+001 -1.545130e+002 -5.791617e+001 -1.496189e+002 -1.489056e-001 1.355779e+002
520762551.90638 -4.399371e-001 1.732514e+002 -5.756942e+001 -1.546653e+002 -5.780427e+001 -1.515506e+002 -1.467819e-001 1.355755e+002
521140052.85013 -4.422132e-001 1.729292e+002 -5.837445e+001 -1.534557e+002 -5.825685e+001 -1.521187e+002 -1.470308e-001 1.355303e+002
521517553.79388 -4.470231e-001 1.727708e+002 -5.792068e+001 -1.579245e+002 -5.817878e+001 -1.525877e+002 -1.463385e-001 1.354770e+002
521895054.73764 -4.492875e-001 1.725391e+002 -5.807784e+001 -1.595710e+002 -5.852341e+001 -1.543958e+002 -1.495468e-001 1.354561e+002
522272555.68139 -4.554649e-001 1.723743e+002 -5.806871e+001 -1.562256e+002 -5.812145e+001 -1.546893e+002 -1.492028e-001 1.353961e+002
522650056.62514 -4.581257e-001 1.721630e+002 -5.830196e+001 -1.568721e+002 -5.836287e+001 -1.550031e+002 -1.526596e-001 1.353696e+002
523027557.56889 -4.582291e-001 1.718842e+002 -5.780665e+001 -1.566059e+002 -5.811919e+001 -1.537611e+002 -1.530685e-001 1.353120e+002
523405058.51265 -4.611339e-001 1.717153e+002 -5.787973e+001 -1.578018e+002 -5.862614e+001 -1.557678e+002 -1.538898e-001 1.353038e+002
523782559.4564 -4.633432e-001 1.714612e+002 -5.824845e+001 -1.549349e+002 -5.774752e+001 -1.557408e+002 -1.509732e-001 1.352350e+002
524160060.40015 -4.649449e-001 1.712063e+002 -5.837032e+001 -1.588829e+002 -5.821132e+001 -1.534693e+002 -1.546585e-001 1.351798e+002
524537561.3439 -4.686322e-001 1.710713e+002 -5.870228e+001 -1.621403e+002 -5.784315e+001 -1.540069e+002 -1.509547e-001 1.351196e+002
524915062.28766 -4.703717e-001 1.707513e+002 -5.821783e+001 -1.570557e+002 -5.844321e+001 -1.515922e+002 -1.557768e-001 1.350476e+002
525292563.23141 -4.720635e-001 1.705685e+002 -5.860263e+001 -1.596740e+002 -5.809209e+001 -1.524518e+002 -1.574157e-001 1.349914e+002
525670064.17516 -4.775760e-001 1.703021e+002 -5.804508e+001 -1.625417e+002 -5.760858e+001 -1.533531e+002 -1.542871e-001 1.349342e+002
526047565.11891 -4.835725e-001 1.701303e+002 -5.824998e+001 -1.626084e+002 -5.741258e+001 -1.587601e+002 -1.540809e-001 1.348791e+002
526425066.06267 -4.850639e-001 1.698417e+002 -5.724307e+001 -1.591623e+002 -5.715884e+001 -1.555241e+002 -1.541331e-001 1.347913e+002
526802567.00642 -4.922520e-001 1.696539e+002 -5.738977e+001 -1.571172e+002 -5.721979e+001 -1.561213e+002 -1.529982e-001 1.347251e+002
527180067.95017 -4.926298e-001 1.693851e+002 -5.795621e+001 -1.604453e+002 -5.729508e+001 -1.545117e+002 -1.518554e-001 1.346558e+002
527557568.89392 -4.959715e-001 1.691261e+002 -5.749310e+001 -1.605070e+002 -5.721524e+001 -1.579602e+002 -1.555198e-001 1.345338e+002
527935069.83767 -5.034947e-001 1.689947e+002 -5.773698e+001 -1.616313e+002 -5.687802e+001 -1.575139e+002 -1.509700e-001 1.345106e+002
528312570.78143 -5.043194e-001 1.687004e+002 -5.700120e+001 -1.604070e+002 -5.689179e+001 -1.576149e+002 -1.544468e-001 1.344301e+002
528690071.72518 -5.130301e-001 1.685222e+002 -5.729466e+001 -1.601494e+002 -5.673287e+001 -1.600879e+002 -1.507007e-001 1.343678e+002
529067572.66893 -5.157580e-001 1.682651e+002 -5.675439e+001 -1.604660e+002 -5.665685e+001 -1.597069e+002 -1.510183e-001 1.343073e+002
529445073.61268 -5.255281e-001 1.680080e+002 -5.722097e+001 -1.619701e+002 -5.629628e+001 -1.603235e+002 -1.489518e-001 1.342267e+002
529822574.55644 -5.296148e-001 1.677739e+002 -5.659080e+001 -1.635353e+002 -5.646516e+001 -1.597485e+002 -1.499189e-001 1.341471e+002
530200075.50019 -5.362653e-001 1.675698e+002 -5.663950e+001 -1.623518e+002 -5.651234e+001 -1.636273e+002 -1.482369e-001 1.340754e+002
530577576.44394 -5.433040e-001 1.672742e+002 -5.623266e+001 -1.664917e+002 -5.643866e+001 -1.649676e+002 -1.477890e-001 1.340136e+002
530955077.38769 -5.523949e-001 1.670958e+002 -5.650115e+001 -1.675087e+002 -5.634020e+001 -1.651514e+002 -1.466225e-001 1.339480e+002
531332578.33145 -5.622038e-001 1.668787e+002 -5.615156e+001 -1.677225e+002 -5.601344e+001 -1.658820e+002 -1.472673e-001 1.338905e+002
531710079.2752 -5.669185e-001 1.666614e+002 -5.662494e+001 -1.662682e+002 -5.617501e+001 -1.672760e+002 -1.435336e-001 1.338071e+002
532087580.21895 -5.757279e-001 1.664377e+002 -5.649679e+001 -1.680600e+002 -5.571961e+001 -1.697316e+002 -1.421824e-001 1.337794e+002
532465081.1627 -5.833123e-001 1.662258e+002 -5.657993e+001 -1.686612e+002 -5.576713e+001 -1.690231e+002 -1.440408e-001 1.337179e+002
532842582.10646 -5.850949e-001 1.659911e+002 -5.625909e+001 -1.708324e+002 -5.597001e+001 -1.716571e+002 -1.372876e-001 1.336594e+002
533220083.05021 -5.952126e-001 1.657724e+002 -5.597070e+001 -1.733710e+002 -5.584591e+001 -1.711936e+002 -1.391965e-001 1.336183e+002
533597583.99396 -6.001176e-001 1.655533e+002 -5.567490e+001 -1.743264e+002 -5.534192e+001 -1.715852e+002 -1.370717e-001 1.335619e+002
533975084.93771 -6.128195e-001 1.653302e+002 -5.590392e+001 -1.711665e+002 -5.582500e+001 -1.737770e+002 -1.378043e-001 1.335051e+002
534352585.88146 -6.115623e-001 1.650763e+002 -5.581293e+001 -1.756480e+002 -5.551598e+001 -1.734335e+002 -1.326706e-001 1.334768e+002
534730086.82522 -6.199164e-001 1.648418e+002 -5.590014e+001 -1.773760e+002 -5.517815e+001 -1.759277e+002 -1.267581e-001 1.334532e+002
535107587.76897 -6.247758e-001 1.646853e+002 -5.566424e+001 -1.795029e+002 -5.549674e+001 -1.766036e+002 -1.299398e-001 1.334372e+002
535485088.71272 -6.349896e-001 1.644562e+002 -5.575028e+001 -1.794493e+002 -5.565472e+001 -1.747565e+002 -1.233745e-001 1.333705e+002
535862589.65647 -6.399102e-001 1.642406e+002 -5.586569e+001 1.780965e+002 -5.534583e+001 -1.746484e+002 -1.257525e-001 1.333489e+002
536240090.60023 -6.423832e-001 1.639635e+002 -5.548117e+001 -1.797310e+002 -5.551750e+001 -1.773302e+002 -1.232903e-001 1.333317e+002
536617591.54398 -6.481590e-001 1.637773e+002 -5.586922e+001 1.790313e+002 -5.538829e+001 -1.777699e+002 -1.216264e-001 1.333110e+002
536995092.48773 -6.523081e-001 1.635560e+002 -5.557792e+001 1.785993e+002 -5.517587e+001 -1.789318e+002 -1.199504e-001 1.332839e+002
537372593.43148 -6.597688e-001 1.633280e+002 -5.510003e+001 1.785721e+002 -5.503746e+001 -1.796530e+002 -1.161503e-001 1.332836e+002
537750094.37524 -6.683189e-001 1.630566e+002 -5.535077e+001 1.786890e+002 -5.511448e+001 1.780534e+002 -1.096224e-001 1.332681e+002
538127595.31899 -6.755846e-001 1.628804e+002 -5.513358e+001 1.781473e+002 -5.480456e+001 1.774833e+002 -1.125842e-001 1.332484e+002
538505096.26274 -6.806175e-001 1.626457e+002 -5.533847e+001 1.759722e+002 -5.506183e+001 1.773897e+002 -1.140680e-001 1.332378e+002
538882597.20649 -6.896289e-001 1.624230e+002 -5.532125e+001 1.775408e+002 -5.462413e+001 1.749606e+002 -1.104740e-001 1.332443e+002
539260098.15025 -6.995118e-001 1.622281e+002 -5.487684e+001 1.725808e+002 -5.472047e+001 1.773349e+002 -1.068161e-001 1.332179e+002
539637599.094 -7.044345e-001 1.619940e+002 -5.469586e+001 1.736320e+002 -5.451487e+001 1.736318e+002 -1.056254e-001 1.332163e+002
540015100.03775 -7.068117e-001 1.618277e+002 -5.463832e+001 1.718618e+002 -5.452230e+001 1.726922e+002 -1.054170e-001 1.332555e+002
540392600.9815 -7.170630e-001 1.615789e+002 -5.457602e+001 1.700417e+002 -5.441051e+001 1.705244e+002 -1.049561e-001 1.331847e+002
540770101.92525 -7.246599e-001 1.613343e+002 -5.461692e+001 1.673672e+002 -5.452333e+001 1.712643e+002 -1.002263e-001 1.331897e+002
541147602.86901 -7.272425e-001 1.612077e+002 -5.444693e+001 1.685475e+002 -5.433751e+001 1.695479e+002 -1.022933e-001 1.331639e+002
541525103.81276 -7.295896e-001 1.608973e+002 -5.406663e+001 1.657888e+002 -5.419932e+001 1.689457e+002 -1.020198e-001 1.331643e+002
541902604.75651 -7.378703e-001 1.607135e+002 -5.463897e+001 1.661476e+002 -5.409413e+001 1.647863e+002 -1.013547e-001 1.331540e+002
542280105.70026 -7.425056e-001 1.605077e+002 -5.423755e+001 1.636332e+002 -5.396663e+001 1.654109e+002 -9.876912e-002 1.331393e+002
542657606.64402 -7.428010e-001 1.602839e+002 -5.448120e+001 1.620245e+002 -5.452200e+001 1.631897e+002 -9.995050e-002 1.331161e+002
543035107.58777 -7.511768e-001 1.600663e+002 -5.427726e+001 1.599083e+002 -5.400880e+001 1.623532e+002 -9.990134e-002 1.331133e+002
543412608.53152 -7.573785e-001 1.598414e+002 -5.429860e+001 1.613687e+002 -5.435557e+001 1.606910e+002 -1.013410e-001 1.330753e+002
543790109.47527 -7.631996e-001 1.596498e+002 -5.447166e+001 1.598380e+002 -5.420415e+001 1.607438e+002 -9.939835e-002 1.330587e+002
544167610.41903 -7.679225e-001 1.594423e+002 -5.474049e+001 1.613322e+002 -5.424070e+001 1.598559e+002 -1.000812e-001 1.330571e+002
544545111.36278 -7.718034e-001 1.592268e+002 -5.461088e+001 1.561130e+002 -5.443852e+001 1.590434e+002 -9.883416e-002 1.329972e+002
544922612.30653 -7.727448e-001 1.589668e+002 -5.440576e+001 1.573845e+002 -5.441828e+001 1.606355e+002 -9.865025e-002 1.329856e+002
545300113.25028 -7.773299e-001 1.587980e+002 -5.433237e+001 1.574222e+002 -5.473596e+001 1.574100e+002 -9.719102e-002 1.329800e+002
545677614.19404 -7.828816e-001 1.585964e+002 -5.462438e+001 1.556854e+002 -5.464142e+001 1.571949e+002 -1.016225e-001 1.329386e+002
546055115.13779 -7.838722e-001 1.583400e+002 -5.445145e+001 1.560172e+002 -5.458395e+001 1.582553e+002 -1.033913e-001 1.328853e+002
546432616.08154 -7.872037e-001 1.580880e+002 -5.457246e+001 1.538478e+002 -5.449351e+001 1.577002e+002 -1.062548e-001 1.328532e+002
546810117.02529 -7.880203e-001 1.578886e+002 -5.463467e+001 1.536367e+002 -5.454850e+001 1.575195e+002 -1.072447e-001 1.328135e+002
547187617.96904 -7.905586e-001 1.576171e+002 -5.456818e+001 1.526382e+002 -5.431850e+001 1.556902e+002 -1.043758e-001 1.327794e+002
547565118.9128 -7.997770e-001 1.574123e+002 -5.437073e+001 1.530028e+002 -5.454753e+001 1.569439e+002 -1.102042e-001 1.327487e+002
547942619.85655 -8.013896e-001 1.572046e+002 -5.461221e+001 1.511836e+002 -5.433127e+001 1.553353e+002 -1.109798e-001 1.327042e+002
548320120.8003 -8.063523e-001 1.569587e+002 -5.459673e+001 1.525359e+002 -5.424391e+001 1.564747e+002 -1.109000e-001 1.326609e+002
548697621.74405 -8.113601e-001 1.566455e+002 -5.420301e+001 1.498306e+002 -5.467461e+001 1.548484e+002 -1.126355e-001 1.326195e+002
549075122.68781 -8.186686e-001 1.564645e+002 -5.416369e+001 1.488225e+002 -5.399989e+001 1.539454e+002 -1.139916e-001 1.326124e+002
549452623.63156 -8.245191e-001 1.562090e+002 -5.430922e+001 1.487466e+002 -5.438597e+001 1.557497e+002 -1.198069e-001 1.325465e+002
549830124.57531 -8.324494e-001 1.559664e+002 -5.393465e+001 1.503248e+002 -5.419275e+001 1.517339e+002 -1.188197e-001 1.325152e+002
550207625.51906 -8.361860e-001 1.557237e+002 -5.437822e+001 1.493761e+002 -5.404007e+001 1.523393e+002 -1.173768e-001 1.324594e+002
550585126.46282 -8.426688e-001 1.554923e+002 -5.436417e+001 1.490575e+002 -5.410583e+001 1.513110e+002 -1.208942e-001 1.324359e+002
550962627.40657 -8.451382e-001 1.551958e+002 -5.389978e+001 1.461927e+002 -5.381989e+001 1.527433e+002 -1.206874e-001 1.323849e+002
551340128.35032 -8.529940e-001 1.550390e+002 -5.412785e+001 1.441284e+002 -5.385886e+001 1.513241e+002 -1.178527e-001 1.322785e+002
551717629.29407 -8.591102e-001 1.547678e+002 -5.395128e+001 1.469526e+002 -5.390320e+001 1.490869e+002 -1.185465e-001 1.323083e+002
552095130.23783 -8.653008e-001 1.544616e+002 -5.354688e+001 1.474398e+002 -5.391063e+001 1.516550e+002 -1.195954e-001 1.322582e+002
552472631.18158 -8.694436e-001 1.542503e+002 -5.367480e+001 1.448841e+002 -5.350167e+001 1.492293e+002 -1.206954e-001 1.322252e+002
552850132.12533 -8.784243e-001 1.540268e+002 -5.372665e+001 1.450160e+002 -5.361601e+001 1.476254e+002 -1.177670e-001 1.321869e+002
553227633.06908 -8.867272e-001 1.537468e+002 -5.391651e+001 1.434914e+002 -5.366476e+001 1.470428e+002 -1.204499e-001 1.321458e+002
553605134.01284 -8.940420e-001 1.535239e+002 -5.360944e+001 1.438824e+002 -5.356450e+001 1.478891e+002 -1.256754e-001 1.321159e+002
553982634.95659 -9.042823e-001 1.533004e+002 -5.349153e+001 1.415650e+002 -5.357537e+001 1.444478e+002 -1.242705e-001 1.320926e+002
554360135.90034 -9.103252e-001 1.529850e+002 -5.337894e+001 1.405146e+002 -5.328225e+001 1.452798e+002 -1.226215e-001 1.320547e+002
554737636.84409 -9.239648e-001 1.527720e+002 -5.348374e+001 1.402976e+002 -5.331057e+001 1.451336e+002 -1.212203e-001 1.320586e+002
555115137.78784 -9.332069e-001 1.525687e+002 -5.352238e+001 1.390435e+002 -5.309423e+001 1.419761e+002 -1.223316e-001 1.320171e+002
