!Agilent Technologies,E8364B,US42250235,A.06.04.32
!Agilent E8364B: A.06.04.32
!Date: Thursday, October 01, 2020 14:40:48
!Correction: S11(Full 2 Port(1,2)) S21(Full 2 Port(1,2)) S12(Full 2 Port(1,2)) S22(Full 2 Port(1,2)) 
!S2P File: Measurements: S11, S21, S12, S22:
# Hz S  dB   R 50
500000000 -2.405619e-001 -1.751474e+002 -5.960387e+001 -1.766439e+002 -6.096645e+001 1.598446e+002 -1.553119e-001 1.360392e+002
500377500.94375 -2.440009e-001 -1.753461e+002 -5.921402e+001 -1.745967e+002 -6.073465e+001 1.500291e+002 -1.487089e-001 1.361517e+002
500755001.8875 -2.447296e-001 -1.754980e+002 -5.934889e+001 -1.772492e+002 -6.062727e+001 1.519174e+002 -1.470976e-001 1.362881e+002
501132502.83126 -2.451674e-001 -1.757404e+002 -5.917188e+001 1.769935e+002 -5.997240e+001 1.553938e+002 -1.422869e-001 1.364087e+002
501510003.77501 -2.501266e-001 -1.759260e+002 -5.921543e+001 1.778671e+002 -6.081760e+001 1.553001e+002 -1.441116e-001 1.364913e+002
501887504.71876 -2.475547e-001 -1.761303e+002 -6.010551e+001 1.795898e+002 -6.072996e+001 1.535676e+002 -1.379922e-001 1.367063e+002
502265005.66251 -2.536268e-001 -1.763371e+002 -5.905961e+001 1.756318e+002 -6.040950e+001 1.499626e+002 -1.423259e-001 1.368385e+002
502642506.60627 -2.515292e-001 -1.765452e+002 -5.952466e+001 1.796411e+002 -6.067089e+001 1.501121e+002 -1.436706e-001 1.370297e+002
503020007.55002 -2.567600e-001 -1.767556e+002 -5.943159e+001 1.791086e+002 -6.099706e+001 1.520804e+002 -1.400750e-001 1.371161e+002
503397508.49377 -2.646740e-001 -1.769484e+002 -5.920650e+001 1.735048e+002 -6.042959e+001 1.518195e+002 -1.474686e-001 1.372961e+002
503775009.43752 -2.590577e-001 -1.771347e+002 -5.911548e+001 1.738224e+002 -6.120645e+001 1.479324e+002 -1.480177e-001 1.373990e+002
504152510.38128 -2.621503e-001 -1.773928e+002 -5.861672e+001 1.765522e+002 -6.065225e+001 1.481856e+002 -1.540434e-001 1.375124e+002
504530011.32503 -2.654545e-001 -1.775653e+002 -5.954223e+001 1.738445e+002 -6.036063e+001 1.480388e+002 -1.570868e-001 1.376264e+002
504907512.26878 -2.648619e-001 -1.777796e+002 -5.963155e+001 1.734656e+002 -6.062994e+001 1.474967e+002 -1.630480e-001 1.377391e+002
505285013.21253 -2.655868e-001 -1.779868e+002 -5.932353e+001 1.728093e+002 -6.039122e+001 1.467163e+002 -1.704721e-001 1.377972e+002
505662514.15629 -2.690164e-001 -1.781806e+002 -5.882397e+001 1.725680e+002 -5.973262e+001 1.492705e+002 -1.769285e-001 1.378837e+002
506040015.10004 -2.694844e-001 -1.784507e+002 -5.883596e+001 1.712885e+002 -5.995408e+001 1.429555e+002 -1.851533e-001 1.379090e+002
506417516.04379 -2.731758e-001 -1.786441e+002 -5.896599e+001 1.718692e+002 -5.997564e+001 1.502947e+002 -1.948654e-001 1.379159e+002
506795016.98754 -2.768505e-001 -1.788132e+002 -5.882303e+001 1.691781e+002 -6.039902e+001 1.466605e+002 -2.049736e-001 1.378986e+002
507172517.93129 -2.763179e-001 -1.790261e+002 -5.854925e+001 1.672460e+002 -5.978889e+001 1.443620e+002 -2.132223e-001 1.378705e+002
507550018.87505 -2.813555e-001 -1.792329e+002 -5.922504e+001 1.682278e+002 -6.005248e+001 1.397691e+002 -2.252823e-001 1.378070e+002
507927519.8188 -2.848922e-001 -1.794360e+002 -5.852613e+001 1.652168e+002 -5.993593e+001 1.451341e+002 -2.295895e-001 1.377133e+002
508305020.76255 -2.859640e-001 -1.796609e+002 -5.828147e+001 1.643231e+002 -5.974567e+001 1.406368e+002 -2.374545e-001 1.376305e+002
508682521.7063 -2.861242e-001 -1.798062e+002 -5.904634e+001 1.628629e+002 -5.911938e+001 1.397074e+002 -2.493162e-001 1.375258e+002
509060022.65006 -2.918263e-001 1.799355e+002 -5.865786e+001 1.657715e+002 -5.956479e+001 1.444394e+002 -2.604057e-001 1.373348e+002
509437523.59381 -2.916487e-001 1.796786e+002 -5.880974e+001 1.621148e+002 -5.954757e+001 1.383358e+002 -2.662519e-001 1.371637e+002
509815024.53756 -2.988821e-001 1.795210e+002 -5.859036e+001 1.604929e+002 -5.909839e+001 1.418535e+002 -2.718376e-001 1.369737e+002
510192525.48131 -3.011781e-001 1.792932e+002 -5.850547e+001 1.633412e+002 -5.905792e+001 1.368383e+002 -2.786129e-001 1.367493e+002
510570026.42507 -3.045141e-001 1.790835e+002 -5.806788e+001 1.592370e+002 -5.901024e+001 1.360297e+002 -2.849636e-001 1.365313e+002
510947527.36882 -3.043514e-001 1.788869e+002 -5.807149e+001 1.633855e+002 -5.960704e+001 1.358420e+002 -2.915131e-001 1.362648e+002
511325028.31257 -3.091991e-001 1.786622e+002 -5.803158e+001 1.561436e+002 -5.981231e+001 1.353752e+002 -2.914843e-001 1.360170e+002
511702529.25632 -3.100291e-001 1.784552e+002 -5.816335e+001 1.575945e+002 -5.902110e+001 1.340861e+002 -2.992178e-001 1.357450e+002
512080030.20008 -3.135068e-001 1.782449e+002 -5.786515e+001 1.579974e+002 -5.867591e+001 1.343100e+002 -2.988332e-001 1.354818e+002
512457531.14383 -3.166415e-001 1.780468e+002 -5.777658e+001 1.567422e+002 -5.917905e+001 1.326609e+002 -3.043132e-001 1.352074e+002
512835032.08758 -3.184722e-001 1.778342e+002 -5.754034e+001 1.593185e+002 -5.886909e+001 1.328792e+002 -3.046365e-001 1.348885e+002
513212533.03133 -3.259675e-001 1.775993e+002 -5.750645e+001 1.564035e+002 -5.913324e+001 1.325384e+002 -3.024012e-001 1.346402e+002
513590033.97508 -3.301686e-001 1.774657e+002 -5.799202e+001 1.571810e+002 -5.846538e+001 1.302409e+002 -3.004144e-001 1.343976e+002
513967534.91884 -3.304422e-001 1.772249e+002 -5.805945e+001 1.568251e+002 -5.821416e+001 1.281275e+002 -2.949157e-001 1.341377e+002
514345035.86259 -3.362850e-001 1.769873e+002 -5.762672e+001 1.519683e+002 -5.825349e+001 1.321526e+002 -2.904446e-001 1.339195e+002
514722536.80634 -3.379763e-001 1.767845e+002 -5.784408e+001 1.539447e+002 -5.907945e+001 1.267205e+002 -2.868135e-001 1.337266e+002
515100037.75009 -3.448635e-001 1.765864e+002 -5.719328e+001 1.543522e+002 -5.854187e+001 1.270053e+002 -2.786177e-001 1.335032e+002
515477538.69385 -3.447479e-001 1.764024e+002 -5.666150e+001 1.488548e+002 -5.849174e+001 1.297344e+002 -2.741584e-001 1.333374e+002
515855039.6376 -3.466125e-001 1.762044e+002 -5.762756e+001 1.517282e+002 -5.857000e+001 1.233656e+002 -2.645323e-001 1.331752e+002
516232540.58135 -3.520622e-001 1.759197e+002 -5.670324e+001 1.512091e+002 -5.860485e+001 1.230225e+002 -2.585052e-001 1.330354e+002
516610041.5251 -3.552145e-001 1.757589e+002 -5.644041e+001 1.486606e+002 -5.843901e+001 1.254880e+002 -2.471265e-001 1.329442e+002
516987542.46886 -3.621083e-001 1.755107e+002 -5.698680e+001 1.467550e+002 -5.803532e+001 1.250588e+002 -2.395045e-001 1.328590e+002
517365043.41261 -3.636195e-001 1.753023e+002 -5.662242e+001 1.483491e+002 -5.806146e+001 1.231630e+002 -2.304890e-001 1.328200e+002
517742544.35636 -3.632300e-001 1.750335e+002 -5.669399e+001 1.459141e+002 -5.759802e+001 1.210634e+002 -2.213713e-001 1.328074e+002
518120045.30011 -3.698881e-001 1.748524e+002 -5.709576e+001 1.466087e+002 -5.846969e+001 1.228867e+002 -2.127034e-001 1.328018e+002
518497546.24387 -3.722259e-001 1.746004e+002 -5.689206e+001 1.475161e+002 -5.815642e+001 1.212407e+002 -2.024787e-001 1.328436e+002
518875047.18762 -3.779842e-001 1.744345e+002 -5.669467e+001 1.431070e+002 -5.808393e+001 1.195207e+002 -1.948216e-001 1.328995e+002
519252548.13137 -3.805729e-001 1.741593e+002 -5.616635e+001 1.416631e+002 -5.759552e+001 1.177365e+002 -1.866035e-001 1.329613e+002
519630049.07512 -3.822758e-001 1.740219e+002 -5.615035e+001 1.449161e+002 -5.789106e+001 1.170175e+002 -1.798724e-001 1.330618e+002
520007550.01888 -3.875723e-001 1.738035e+002 -5.638192e+001 1.373482e+002 -5.773103e+001 1.156476e+002 -1.714420e-001 1.331768e+002
520385050.96263 -3.919681e-001 1.735769e+002 -5.599465e+001 1.382153e+002 -5.804216e+001 1.120276e+002 -1.674909e-001 1.333018e+002
520762551.90638 -3.946796e-001 1.733478e+002 -5.641871e+001 1.379613e+002 -5.821387e+001 1.152009e+002 -1.602754e-001 1.334804e+002
521140052.85013 -3.954901e-001 1.730624e+002 -5.609276e+001 1.358137e+002 -5.766277e+001 1.114778e+002 -1.549367e-001 1.336185e+002
521517553.79388 -4.008553e-001 1.728890e+002 -5.621218e+001 1.355300e+002 -5.820584e+001 1.148714e+002 -1.521966e-001 1.337909e+002
521895054.73764 -4.036901e-001 1.726647e+002 -5.663059e+001 1.362417e+002 -5.833830e+001 1.131629e+002 -1.505152e-001 1.339823e+002
522272555.68139 -4.080866e-001 1.724898e+002 -5.646632e+001 1.301649e+002 -5.783090e+001 1.102575e+002 -1.479998e-001 1.341317e+002
522650056.62514 -4.068038e-001 1.722362e+002 -5.606403e+001 1.316048e+002 -5.770126e+001 1.129588e+002 -1.482018e-001 1.343666e+002
523027557.56889 -4.074462e-001 1.719594e+002 -5.645513e+001 1.315503e+002 -5.819242e+001 1.148406e+002 -1.524565e-001 1.345205e+002
523405058.51265 -4.062162e-001 1.717868e+002 -5.641852e+001 1.287395e+002 -5.777768e+001 1.110684e+002 -1.524250e-001 1.347304e+002
523782559.4564 -4.146401e-001 1.715437e+002 -5.617233e+001 1.288186e+002 -5.775806e+001 1.101183e+002 -1.527933e-001 1.349044e+002
524160060.40015 -4.120519e-001 1.712786e+002 -5.627856e+001 1.280396e+002 -5.827189e+001 1.101518e+002 -1.558454e-001 1.350696e+002
524537561.3439 -4.183719e-001 1.711015e+002 -5.657153e+001 1.285876e+002 -5.792158e+001 1.064406e+002 -1.615800e-001 1.351900e+002
524915062.28766 -4.179883e-001 1.708218e+002 -5.652472e+001 1.281673e+002 -5.789989e+001 1.114308e+002 -1.656951e-001 1.353186e+002
525292563.23141 -4.218038e-001 1.706848e+002 -5.671241e+001 1.295359e+002 -5.742025e+001 1.085297e+002 -1.785058e-001 1.354368e+002
525670064.17516 -4.255451e-001 1.704257e+002 -5.658093e+001 1.276343e+002 -5.775762e+001 1.061530e+002 -1.811837e-001 1.355282e+002
526047565.11891 -4.269549e-001 1.701914e+002 -5.610229e+001 1.295687e+002 -5.753200e+001 1.093945e+002 -1.853002e-001 1.356023e+002
526425066.06267 -4.292580e-001 1.699248e+002 -5.620443e+001 1.262742e+002 -5.728288e+001 1.069101e+002 -1.971374e-001 1.356265e+002
526802567.00642 -4.381598e-001 1.697031e+002 -5.623346e+001 1.270020e+002 -5.752448e+001 1.075251e+002 -2.054690e-001 1.356685e+002
527180067.95017 -4.368847e-001 1.694497e+002 -5.660786e+001 1.230155e+002 -5.746206e+001 1.034895e+002 -2.129068e-001 1.356413e+002
527557568.89392 -4.441502e-001 1.692093e+002 -5.577110e+001 1.239988e+002 -5.767127e+001 1.066198e+002 -2.272911e-001 1.355636e+002
527935069.83767 -4.445606e-001 1.689821e+002 -5.554277e+001 1.256475e+002 -5.713588e+001 1.044628e+002 -2.335047e-001 1.355495e+002
528312570.78143 -4.471560e-001 1.687412e+002 -5.569037e+001 1.249942e+002 -5.715056e+001 1.055051e+002 -2.439405e-001 1.354655e+002
528690071.72518 -4.553514e-001 1.685476e+002 -5.559886e+001 1.229776e+002 -5.693106e+001 1.006196e+002 -2.534289e-001 1.353313e+002
529067572.66893 -4.575334e-001 1.682526e+002 -5.639986e+001 1.205725e+002 -5.665009e+001 1.023798e+002 -2.596149e-001 1.351926e+002
529445073.61268 -4.660655e-001 1.680154e+002 -5.538982e+001 1.173086e+002 -5.714455e+001 1.029825e+002 -2.672154e-001 1.350268e+002
529822574.55644 -4.693896e-001 1.677387e+002 -5.611774e+001 1.224440e+002 -5.662996e+001 1.015009e+002 -2.743669e-001 1.348424e+002
530200075.50019 -4.749508e-001 1.676135e+002 -5.608716e+001 1.194256e+002 -5.658748e+001 1.004886e+002 -2.812015e-001 1.346327e+002
530577576.44394 -4.806691e-001 1.672750e+002 -5.575412e+001 1.216388e+002 -5.633780e+001 1.009964e+002 -2.900771e-001 1.344044e+002
530955077.38769 -4.926302e-001 1.671216e+002 -5.583498e+001 1.161776e+002 -5.684639e+001 1.005548e+002 -2.941018e-001 1.341469e+002
531332578.33145 -5.002035e-001 1.669176e+002 -5.544189e+001 1.159044e+002 -5.633537e+001 9.907999e+001 -3.009057e-001 1.338768e+002
531710079.2752 -5.030732e-001 1.666514e+002 -5.583866e+001 1.191173e+002 -5.644893e+001 9.854558e+001 -3.001601e-001 1.335931e+002
532087580.21895 -5.064615e-001 1.664079e+002 -5.575187e+001 1.161257e+002 -5.638823e+001 9.638734e+001 -3.018031e-001 1.333270e+002
532465081.1627 -5.157580e-001 1.661769e+002 -5.535950e+001 1.136163e+002 -5.651143e+001 9.539612e+001 -3.038471e-001 1.330538e+002
532842582.10646 -5.194572e-001 1.659711e+002 -5.536771e+001 1.139364e+002 -5.636060e+001 9.533911e+001 -2.993360e-001 1.327513e+002
533220083.05021 -5.254741e-001 1.656783e+002 -5.498264e+001 1.145422e+002 -5.586319e+001 9.337943e+001 -3.006637e-001 1.324827e+002
533597583.99396 -5.282706e-001 1.654688e+002 -5.538722e+001 1.108601e+002 -5.625074e+001 9.447929e+001 -2.960399e-001 1.321609e+002
533975084.93771 -5.407391e-001 1.652771e+002 -5.491482e+001 1.127468e+002 -5.616322e+001 9.277145e+001 -2.919688e-001 1.319301e+002
534352585.88146 -5.417293e-001 1.649639e+002 -5.509623e+001 1.111952e+002 -5.670541e+001 9.056295e+001 -2.832074e-001 1.316744e+002
534730086.82522 -5.454978e-001 1.647125e+002 -5.501184e+001 1.099770e+002 -5.584644e+001 9.114745e+001 -2.732856e-001 1.314399e+002
535107587.76897 -5.512379e-001 1.645333e+002 -5.499703e+001 1.123680e+002 -5.570643e+001 8.890626e+001 -2.688848e-001 1.312456e+002
535485088.71272 -5.580268e-001 1.642921e+002 -5.477866e+001 1.077142e+002 -5.560507e+001 8.797529e+001 -2.548321e-001 1.310069e+002
535862589.65647 -5.636588e-001 1.640557e+002 -5.501891e+001 1.072142e+002 -5.592666e+001 8.703731e+001 -2.493241e-001 1.308528e+002
536240090.60023 -5.663402e-001 1.637515e+002 -5.467411e+001 1.081532e+002 -5.596154e+001 8.773916e+001 -2.373732e-001 1.307063e+002
536617591.54398 -5.695557e-001 1.635566e+002 -5.495556e+001 1.066827e+002 -5.606414e+001 8.572090e+001 -2.261463e-001 1.305821e+002
536995092.48773 -5.778900e-001 1.633145e+002 -5.509285e+001 1.042472e+002 -5.559742e+001 8.358470e+001 -2.192729e-001 1.304789e+002
537372593.43148 -5.860482e-001 1.630658e+002 -5.501966e+001 1.037752e+002 -5.583153e+001 8.618133e+001 -2.023720e-001 1.304205e+002
537750094.37524 -5.911632e-001 1.627955e+002 -5.452378e+001 1.042654e+002 -5.571629e+001 8.494570e+001 -1.879520e-001 1.303938e+002
538127595.31899 -6.010464e-001 1.625985e+002 -5.508604e+001 1.033373e+002 -5.576993e+001 8.342015e+001 -1.807309e-001 1.303800e+002
538505096.26274 -6.059453e-001 1.623335e+002 -5.487563e+001 1.029326e+002 -5.563517e+001 8.260304e+001 -1.705123e-001 1.303880e+002
538882597.20649 -6.156620e-001 1.621252e+002 -5.431260e+001 1.034496e+002 -5.552309e+001 8.082354e+001 -1.570864e-001 1.304576e+002
539260098.15025 -6.247735e-001 1.619236e+002 -5.482916e+001 1.035635e+002 -5.538436e+001 8.402966e+001 -1.451112e-001 1.305322e+002
539637599.094 -6.312166e-001 1.616935e+002 -5.425444e+001 1.010750e+002 -5.540705e+001 8.232809e+001 -1.361835e-001 1.306083e+002
540015100.03775 -6.345766e-001 1.614839e+002 -5.427403e+001 1.029803e+002 -5.555387e+001 8.213273e+001 -1.279067e-001 1.307714e+002
540392600.9815 -6.443830e-001 1.611710e+002 -5.413033e+001 1.021039e+002 -5.547465e+001 7.934707e+001 -1.194084e-001 1.308537e+002
540770101.92525 -6.474588e-001 1.609713e+002 -5.395296e+001 1.008462e+002 -5.548890e+001 7.884803e+001 -1.134293e-001 1.310084e+002
541147602.86901 -6.569899e-001 1.607944e+002 -5.378735e+001 9.819991e+001 -5.502484e+001 7.722161e+001 -1.069393e-001 1.311848e+002
541525103.81276 -6.604288e-001 1.604912e+002 -5.381765e+001 9.857208e+001 -5.501163e+001 7.870982e+001 -9.963938e-002 1.313585e+002
541902604.75651 -6.706967e-001 1.603042e+002 -5.346621e+001 9.704971e+001 -5.515022e+001 7.726868e+001 -9.695800e-002 1.315538e+002
542280105.70026 -6.758031e-001 1.600226e+002 -5.368401e+001 9.744121e+001 -5.492405e+001 7.544059e+001 -9.169769e-002 1.317524e+002
542657606.64402 -6.848494e-001 1.598767e+002 -5.383463e+001 9.416223e+001 -5.500177e+001 7.577926e+001 -9.099279e-002 1.319567e+002
543035107.58777 -6.909405e-001 1.596208e+002 -5.379089e+001 9.440279e+001 -5.474928e+001 7.379281e+001 -8.999763e-002 1.321666e+002
543412608.53152 -6.985160e-001 1.594247e+002 -5.381326e+001 9.204710e+001 -5.498152e+001 7.248162e+001 -9.423868e-002 1.323631e+002
543790109.47527 -7.073525e-001 1.591759e+002 -5.342009e+001 9.071019e+001 -5.456950e+001 7.160478e+001 -9.515220e-002 1.325621e+002
544167610.41903 -7.109008e-001 1.588998e+002 -5.348179e+001 8.900732e+001 -5.472095e+001 7.078741e+001 -9.667476e-002 1.327671e+002
544545111.36278 -7.197251e-001 1.587343e+002 -5.335424e+001 9.003610e+001 -5.480938e+001 6.979446e+001 -9.983541e-002 1.329199e+002
544922612.30653 -7.248721e-001 1.584704e+002 -5.350978e+001 8.880421e+001 -5.476531e+001 6.965454e+001 -1.063626e-001 1.330924e+002
545300113.25028 -7.294795e-001 1.583391e+002 -5.326883e+001 8.763604e+001 -5.482447e+001 6.868555e+001 -1.132633e-001 1.332758e+002
545677614.19404 -7.354872e-001 1.580902e+002 -5.342418e+001 8.367955e+001 -5.502829e+001 7.067824e+001 -1.206399e-001 1.333736e+002
546055115.13779 -7.403089e-001 1.578494e+002 -5.326184e+001 8.479153e+001 -5.444648e+001 6.633424e+001 -1.275382e-001 1.334757e+002
546432616.08154 -7.404761e-001 1.575718e+002 -5.317955e+001 8.514130e+001 -5.463354e+001 6.898987e+001 -1.389281e-001 1.335590e+002
546810117.02529 -7.430960e-001 1.573757e+002 -5.353169e+001 8.345583e+001 -5.479754e+001 6.630300e+001 -1.524739e-001 1.336187e+002
547187617.96904 -7.466142e-001 1.570921e+002 -5.329150e+001 8.353844e+001 -5.468857e+001 6.527943e+001 -1.584913e-001 1.336496e+002
547565118.9128 -7.562319e-001 1.568445e+002 -5.346682e+001 8.351534e+001 -5.470518e+001 6.578835e+001 -1.735358e-001 1.336537e+002
547942619.85655 -7.593821e-001 1.566767e+002 -5.306491e+001 8.222920e+001 -5.434866e+001 6.474356e+001 -1.854222e-001 1.336354e+002
548320120.8003 -7.634594e-001 1.564168e+002 -5.311071e+001 7.980661e+001 -5.460808e+001 6.439336e+001 -1.949564e-001 1.335737e+002
548697621.74405 -7.704762e-001 1.560907e+002 -5.343799e+001 7.944596e+001 -5.439701e+001 6.473090e+001 -2.065210e-001 1.334964e+002
549075122.68781 -7.772093e-001 1.559121e+002 -5.327215e+001 7.724844e+001 -5.413831e+001 6.238849e+001 -2.202854e-001 1.334285e+002
549452623.63156 -7.819996e-001 1.555815e+002 -5.332610e+001 7.794855e+001 -5.441189e+001 6.101583e+001 -2.318287e-001 1.332654e+002
549830124.57531 -7.923594e-001 1.553886e+002 -5.310579e+001 7.584477e+001 -5.389632e+001 6.268968e+001 -2.411958e-001 1.331116e+002
550207625.51906 -7.937998e-001 1.551089e+002 -5.319918e+001 7.633035e+001 -5.403120e+001 6.164162e+001 -2.495766e-001 1.329249e+002
550585126.46282 -8.015130e-001 1.549183e+002 -5.321970e+001 7.444849e+001 -5.401519e+001 6.089944e+001 -2.591819e-001 1.327301e+002
550962627.40657 -8.060296e-001 1.546085e+002 -5.289339e+001 7.279134e+001 -5.433868e+001 6.007831e+001 -2.668644e-001 1.324820e+002
551340128.35032 -8.122991e-001 1.543896e+002 -5.295778e+001 7.240726e+001 -5.372977e+001 6.049585e+001 -2.723892e-001 1.321870e+002
551717629.29407 -8.206431e-001 1.541080e+002 -5.287714e+001 7.281138e+001 -5.404484e+001 5.587696e+001 -2.763999e-001 1.319989e+002
552095130.23783 -8.275450e-001 1.537825e+002 -5.266673e+001 6.899151e+001 -5.399783e+001 5.522248e+001 -2.861754e-001 1.317182e+002
552472631.18158 -8.319475e-001 1.535761e+002 -5.316460e+001 7.175206e+001 -5.353843e+001 5.501001e+001 -2.893834e-001 1.314566e+002
552850132.12533 -8.424669e-001 1.533086e+002 -5.302990e+001 6.929646e+001 -5.354988e+001 5.610211e+001 -2.851524e-001 1.311689e+002
553227633.06908 -8.558664e-001 1.530045e+002 -5.271252e+001 6.770008e+001 -5.388284e+001 5.465084e+001 -2.888412e-001 1.308760e+002
553605134.01284 -8.634455e-001 1.527856e+002 -5.285742e+001 6.927447e+001 -5.366909e+001 5.390255e+001 -2.926135e-001 1.306255e+002
553982634.95659 -8.714088e-001 1.524893e+002 -5.311804e+001 6.739898e+001 -5.360446e+001 5.182881e+001 -2.858248e-001 1.303347e+002
554360135.90034 -8.791723e-001 1.521928e+002 -5.288180e+001 6.661842e+001 -5.386070e+001 5.029236e+001 -2.824236e-001 1.300881e+002
554737636.84409 -8.988164e-001 1.519825e+002 -5.312030e+001 6.611501e+001 -5.374903e+001 5.159824e+001 -2.727034e-001 1.298689e+002
555115137.78784 -9.105695e-001 1.517464e+002 -5.315466e+001 6.539557e+001 -5.362962e+001 4.986505e+001 -2.722660e-001 1.296212e+002
555492638.7316 -9.192593e-001 1.514563e+002 -5.290728e+001 6.605725e+001 -5.358271e+001 4.924672e+001 -2.620894e-001 1.294223e+002
555870139.67535 -9.279265e-001 1.513113e+002 -5.285661e+001 6.496078e+001 -5.372338e+001 5.035343e+001 -2.570132e-001 1.292418e+002
