!Agilent Technologies,E8364B,US42250235,A.06.04.32
!Agilent E8364B: A.06.04.32
!Date: Thursday, October 01, 2020 14:54:55
!Correction: S11(Full 2 Port(1,2)) S21(Full 2 Port(1,2)) S12(Full 2 Port(1,2)) S22(Full 2 Port(1,2)) 
!S2P File: Measurements: S11, S21, S12, S22:
# Hz S  dB   R 50
500000000 -2.338772e-001 -1.751263e+002 -6.480952e+001 5.278320e+001 -6.505265e+001 5.150038e+001 -7.440121e-002 1.391942e+002
500377500.94375 -2.344425e-001 -1.753144e+002 -6.373176e+001 4.568670e+001 -6.488994e+001 4.321284e+001 -7.219816e-002 1.391854e+002
500755001.8875 -2.379157e-001 -1.755323e+002 -6.467236e+001 4.305077e+001 -6.456698e+001 4.591093e+001 -6.881522e-002 1.391656e+002
501132502.83126 -2.390014e-001 -1.757394e+002 -6.560577e+001 5.412775e+001 -6.441565e+001 3.736593e+001 -7.154363e-002 1.391534e+002
501510003.77501 -2.388355e-001 -1.759314e+002 -6.440612e+001 4.047913e+001 -6.496904e+001 4.431879e+001 -6.849870e-002 1.391480e+002
501887504.71876 -2.408088e-001 -1.761836e+002 -6.409212e+001 3.994517e+001 -6.486475e+001 4.982436e+001 -6.739302e-002 1.391084e+002
502265005.66251 -2.472642e-001 -1.763642e+002 -6.491270e+001 4.382037e+001 -6.471134e+001 4.020881e+001 -6.672513e-002 1.391093e+002
502642506.60627 -2.465387e-001 -1.765807e+002 -6.378960e+001 4.587608e+001 -6.400256e+001 4.556511e+001 -6.679347e-002 1.391420e+002
503020007.55002 -2.520456e-001 -1.767718e+002 -6.480546e+001 4.711169e+001 -6.518867e+001 4.412873e+001 -6.675155e-002 1.390465e+002
503397508.49377 -2.525958e-001 -1.769791e+002 -6.409145e+001 4.706683e+001 -6.480219e+001 4.202390e+001 -6.133550e-002 1.390220e+002
503775009.43752 -2.567120e-001 -1.771671e+002 -6.331918e+001 4.537915e+001 -6.394363e+001 3.887844e+001 -6.659254e-002 1.390114e+002
504152510.38128 -2.569098e-001 -1.773860e+002 -6.384560e+001 4.182605e+001 -6.341967e+001 3.731827e+001 -6.754938e-002 1.389703e+002
504530011.32503 -2.590452e-001 -1.775818e+002 -6.291261e+001 4.146080e+001 -6.403139e+001 4.120652e+001 -6.723414e-002 1.389539e+002
504907512.26878 -2.642082e-001 -1.777742e+002 -6.325629e+001 4.328653e+001 -6.423368e+001 3.737625e+001 -6.490280e-002 1.389132e+002
505285013.21253 -2.653428e-001 -1.779829e+002 -6.353102e+001 3.757076e+001 -6.383444e+001 3.252720e+001 -6.728283e-002 1.389030e+002
505662514.15629 -2.680108e-001 -1.781659e+002 -6.297369e+001 3.538874e+001 -6.413840e+001 4.290220e+001 -6.621326e-002 1.388536e+002
506040015.10004 -2.745540e-001 -1.784095e+002 -6.312329e+001 4.140976e+001 -6.340870e+001 4.134236e+001 -6.856804e-002 1.388226e+002
506417516.04379 -2.763050e-001 -1.786063e+002 -6.289860e+001 3.238419e+001 -6.299585e+001 3.428300e+001 -6.505872e-002 1.387811e+002
506795016.98754 -2.814083e-001 -1.788041e+002 -6.294722e+001 4.414032e+001 -6.362458e+001 3.526420e+001 -6.622256e-002 1.387293e+002
507172517.93129 -2.836862e-001 -1.789994e+002 -6.392780e+001 4.304794e+001 -6.305602e+001 3.445717e+001 -6.388754e-002 1.386990e+002
507550018.87505 -2.867855e-001 -1.792144e+002 -6.313028e+001 3.145325e+001 -6.316102e+001 3.580128e+001 -6.525186e-002 1.386213e+002
507927519.8188 -2.926328e-001 -1.794221e+002 -6.292089e+001 3.424584e+001 -6.289355e+001 3.307515e+001 -6.586432e-002 1.386116e+002
508305020.76255 -2.935192e-001 -1.796200e+002 -6.295572e+001 4.032433e+001 -6.313285e+001 3.344476e+001 -6.633598e-002 1.385675e+002
508682521.7063 -2.957157e-001 -1.798612e+002 -6.206769e+001 2.707814e+001 -6.360030e+001 3.144606e+001 -6.871614e-002 1.385418e+002
509060022.65006 -3.035542e-001 1.799620e+002 -6.157029e+001 2.649522e+001 -6.298964e+001 2.896724e+001 -6.377109e-002 1.384598e+002
509437523.59381 -3.026957e-001 1.797671e+002 -6.292036e+001 3.015991e+001 -6.242383e+001 2.594268e+001 -6.420852e-002 1.384616e+002
509815024.53756 -3.030255e-001 1.795451e+002 -6.261309e+001 2.993266e+001 -6.228513e+001 2.310572e+001 -6.533844e-002 1.383879e+002
510192525.48131 -3.067069e-001 1.793475e+002 -6.219411e+001 3.068931e+001 -6.173821e+001 2.799420e+001 -6.238928e-002 1.383552e+002
510570026.42507 -3.135793e-001 1.791129e+002 -6.342545e+001 2.747290e+001 -6.215200e+001 2.798167e+001 -6.007640e-002 1.383067e+002
510947527.36882 -3.178524e-001 1.789142e+002 -6.151555e+001 2.657500e+001 -6.236431e+001 2.073426e+001 -5.949097e-002 1.382818e+002
511325028.31257 -3.177752e-001 1.786963e+002 -6.235740e+001 3.119522e+001 -6.226552e+001 2.606191e+001 -5.995231e-002 1.382350e+002
511702529.25632 -3.217016e-001 1.784312e+002 -6.155746e+001 2.471857e+001 -6.170676e+001 2.381380e+001 -6.002590e-002 1.381982e+002
512080030.20008 -3.303513e-001 1.782571e+002 -6.159946e+001 2.500082e+001 -6.114167e+001 1.970277e+001 -5.786906e-002 1.381594e+002
512457531.14383 -3.357875e-001 1.780475e+002 -6.198584e+001 1.761846e+001 -6.180011e+001 2.109690e+001 -5.615824e-002 1.381375e+002
512835032.08758 -3.427701e-001 1.778222e+002 -6.156306e+001 2.298006e+001 -6.078160e+001 1.562211e+001 -5.629854e-002 1.380965e+002
513212533.03133 -3.429260e-001 1.776011e+002 -6.173882e+001 1.776257e+001 -6.112867e+001 1.917332e+001 -5.725027e-002 1.380521e+002
513590033.97508 -3.469106e-001 1.773703e+002 -6.106874e+001 1.447717e+001 -6.113956e+001 1.585126e+001 -5.401753e-002 1.380359e+002
513967534.91884 -3.543559e-001 1.771994e+002 -6.051519e+001 1.780903e+001 -6.157943e+001 1.280422e+001 -5.120317e-002 1.379921e+002
514345035.86259 -3.554810e-001 1.769888e+002 -6.150900e+001 1.750078e+001 -6.127157e+001 1.452240e+001 -5.572619e-002 1.380119e+002
514722536.80634 -3.619775e-001 1.768055e+002 -6.102637e+001 1.463045e+001 -6.064075e+001 8.911547e+000 -5.512566e-002 1.379825e+002
515100037.75009 -3.587173e-001 1.765995e+002 -6.078381e+001 1.451811e+001 -6.108130e+001 3.757358e+000 -5.179230e-002 1.379689e+002
515477538.69385 -3.636619e-001 1.763519e+002 -6.063977e+001 1.031487e+001 -6.148269e+001 6.062852e+000 -5.645767e-002 1.379418e+002
515855039.6376 -3.662272e-001 1.761667e+002 -6.179584e+001 9.146415e+000 -6.107395e+001 1.247360e+001 -5.036208e-002 1.379144e+002
516232540.58135 -3.724983e-001 1.759537e+002 -5.986083e+001 9.534424e+000 -6.115216e+001 6.590780e+000 -5.079808e-002 1.379138e+002
516610041.5251 -3.764079e-001 1.757463e+002 -6.102687e+001 8.364302e+000 -6.120499e+001 2.268974e+000 -5.327415e-002 1.378997e+002
516987542.46886 -3.766535e-001 1.755250e+002 -6.071071e+001 5.748742e+000 -6.127182e+001 5.454033e+000 -5.426370e-002 1.378844e+002
517365043.41261 -3.829944e-001 1.753196e+002 -6.174801e+001 4.671633e+000 -6.074712e+001 4.022589e+000 -5.281649e-002 1.378535e+002
517742544.35636 -3.866816e-001 1.751106e+002 -6.078144e+001 9.901489e-002 -6.101231e+001 -1.008534e+000 -5.265279e-002 1.378602e+002
518120045.30011 -3.888975e-001 1.749043e+002 -6.119320e+001 -2.872540e+000 -6.136881e+001 -4.032372e-001 -5.085801e-002 1.378498e+002
518497546.24387 -3.928673e-001 1.747076e+002 -6.113811e+001 -2.783876e+000 -6.056904e+001 -6.211912e+000 -4.916408e-002 1.378419e+002
518875047.18762 -3.992398e-001 1.745456e+002 -6.052160e+001 1.829543e+000 -6.095683e+001 -2.351530e+000 -5.116596e-002 1.378387e+002
519252548.13137 -4.005956e-001 1.742768e+002 -6.072424e+001 -1.852864e+000 -6.145491e+001 -6.245553e+000 -5.297324e-002 1.378014e+002
519630049.07512 -4.066082e-001 1.740637e+002 -5.998022e+001 -5.948559e+000 -6.136217e+001 -6.775024e+000 -5.640054e-002 1.378049e+002
520007550.01888 -4.098041e-001 1.738532e+002 -6.042370e+001 -2.959505e+000 -6.167392e+001 -5.924919e+000 -5.675581e-002 1.378007e+002
520385050.96263 -4.104449e-001 1.736767e+002 -6.067791e+001 -1.070595e+001 -6.100147e+001 -8.780096e+000 -5.754870e-002 1.377588e+002
520762551.90638 -4.141072e-001 1.734463e+002 -6.120520e+001 -7.170040e+000 -6.220505e+001 -4.633868e+000 -5.821306e-002 1.377615e+002
521140052.85013 -4.174268e-001 1.732654e+002 -6.027105e+001 -3.807993e+000 -6.142920e+001 -5.416773e+000 -5.910207e-002 1.377172e+002
521517553.79388 -4.220357e-001 1.730699e+002 -6.206035e+001 -8.868026e+000 -6.135308e+001 -8.894320e+000 -6.126304e-002 1.376967e+002
521895054.73764 -4.216194e-001 1.728044e+002 -6.177415e+001 -9.762926e+000 -6.119894e+001 -7.658553e+000 -6.530260e-002 1.376727e+002
522272555.68139 -4.254196e-001 1.725852e+002 -6.067564e+001 -7.485648e+000 -6.178131e+001 -1.013078e+001 -6.863480e-002 1.376530e+002
522650056.62514 -4.301305e-001 1.723679e+002 -6.135644e+001 -1.234641e+001 -6.177444e+001 -1.362150e+001 -6.750215e-002 1.375782e+002
523027557.56889 -4.328212e-001 1.721613e+002 -6.076939e+001 -1.143881e+001 -6.130230e+001 -8.604179e+000 -7.215212e-002 1.375955e+002
523405058.51265 -4.331180e-001 1.719299e+002 -6.179675e+001 -1.158153e+001 -6.141428e+001 -1.311134e+001 -7.172371e-002 1.376048e+002
523782559.4564 -4.388953e-001 1.717053e+002 -6.068341e+001 -6.829605e+000 -6.112536e+001 -9.415000e+000 -7.532351e-002 1.375099e+002
524160060.40015 -4.440446e-001 1.715141e+002 -6.158771e+001 -1.069307e+001 -6.111957e+001 -1.261815e+001 -7.653694e-002 1.374669e+002
524537561.3439 -4.448799e-001 1.712493e+002 -6.154246e+001 -1.245451e+001 -6.216323e+001 -1.499871e+001 -7.829582e-002 1.374210e+002
524915062.28766 -4.488018e-001 1.710607e+002 -6.099418e+001 -1.264901e+001 -6.106660e+001 -1.131656e+001 -7.831286e-002 1.373969e+002
525292563.23141 -4.578352e-001 1.707728e+002 -6.041828e+001 -1.266740e+001 -6.096428e+001 -1.621863e+001 -8.118436e-002 1.373196e+002
525670064.17516 -4.564371e-001 1.705446e+002 -6.029452e+001 -1.045111e+001 -6.078959e+001 -9.197327e+000 -8.273996e-002 1.372572e+002
526047565.11891 -4.623886e-001 1.703250e+002 -6.011011e+001 -1.530881e+001 -6.035510e+001 -1.072214e+001 -8.570595e-002 1.372176e+002
526425066.06267 -4.634270e-001 1.700510e+002 -6.035018e+001 -1.227072e+001 -6.105387e+001 -1.416931e+001 -9.030709e-002 1.371543e+002
526802567.00642 -4.702457e-001 1.698547e+002 -5.997783e+001 -8.312838e+000 -6.057514e+001 -1.385731e+001 -9.141278e-002 1.370964e+002
527180067.95017 -4.734575e-001 1.696136e+002 -6.002498e+001 -1.360082e+001 -6.024995e+001 -1.236658e+001 -9.016795e-002 1.370174e+002
527557568.89392 -4.792348e-001 1.693957e+002 -6.053301e+001 -1.802489e+001 -6.074887e+001 -1.873648e+001 -8.646676e-002 1.369080e+002
527935069.83767 -4.845923e-001 1.691752e+002 -5.949734e+001 -1.750175e+001 -5.984676e+001 -1.622368e+001 -9.263773e-002 1.369141e+002
528312570.78143 -4.889944e-001 1.689372e+002 -5.973591e+001 -1.850938e+001 -6.032355e+001 -1.448730e+001 -8.949035e-002 1.368451e+002
528690071.72518 -4.875076e-001 1.686987e+002 -5.990208e+001 -2.112349e+001 -5.976155e+001 -1.964937e+001 -8.980603e-002 1.367143e+002
529067572.66893 -4.951172e-001 1.684583e+002 -5.916584e+001 -2.330719e+001 -5.973899e+001 -2.281059e+001 -9.249869e-002 1.367113e+002
529445073.61268 -4.998050e-001 1.682570e+002 -5.971065e+001 -2.645299e+001 -6.010891e+001 -2.282775e+001 -9.018338e-002 1.366553e+002
529822574.55644 -5.028226e-001 1.680006e+002 -5.940781e+001 -2.410210e+001 -5.921039e+001 -2.428783e+001 -9.508085e-002 1.365596e+002
530200075.50019 -5.105330e-001 1.677397e+002 -5.960713e+001 -2.511358e+001 -5.957302e+001 -2.473834e+001 -9.148058e-002 1.365039e+002
530577576.44394 -5.198980e-001 1.675794e+002 -5.948257e+001 -2.830671e+001 -5.919839e+001 -2.357444e+001 -9.305227e-002 1.364237e+002
530955077.38769 -5.258701e-001 1.673435e+002 -5.874192e+001 -2.673899e+001 -5.906853e+001 -2.809893e+001 -8.986913e-002 1.363796e+002
531332578.33145 -5.294226e-001 1.671298e+002 -5.939721e+001 -2.946564e+001 -5.965149e+001 -2.366372e+001 -8.850912e-002 1.363144e+002
531710079.2752 -5.346497e-001 1.669139e+002 -5.976426e+001 -2.718585e+001 -5.925109e+001 -2.927642e+001 -9.025997e-002 1.362375e+002
532087580.21895 -5.376320e-001 1.666996e+002 -5.899110e+001 -2.595803e+001 -5.901007e+001 -3.757957e+001 -8.683755e-002 1.361698e+002
532465081.1627 -5.410255e-001 1.664657e+002 -5.922522e+001 -2.978536e+001 -5.972361e+001 -2.920674e+001 -9.096040e-002 1.361057e+002
532842582.10646 -5.467822e-001 1.662656e+002 -5.883469e+001 -3.060443e+001 -5.884400e+001 -3.145571e+001 -8.565186e-002 1.360663e+002
533220083.05021 -5.503790e-001 1.660399e+002 -5.922997e+001 -3.046581e+001 -5.903957e+001 -3.172605e+001 -8.663814e-002 1.359854e+002
533597583.99396 -5.520961e-001 1.658019e+002 -5.903289e+001 -3.271254e+001 -5.893829e+001 -3.757454e+001 -8.250507e-002 1.359936e+002
533975084.93771 -5.581207e-001 1.655855e+002 -5.869585e+001 -3.263708e+001 -5.901061e+001 -3.737984e+001 -8.359431e-002 1.358964e+002
534352585.88146 -5.632628e-001 1.654106e+002 -5.884133e+001 -3.696527e+001 -5.884435e+001 -3.927703e+001 -8.054491e-002 1.358568e+002
534730086.82522 -5.646842e-001 1.651469e+002 -5.833406e+001 -4.092214e+001 -5.885606e+001 -3.927976e+001 -7.906566e-002 1.358169e+002
535107587.76897 -5.707619e-001 1.649113e+002 -5.888793e+001 -3.569261e+001 -5.871380e+001 -3.862868e+001 -7.745222e-002 1.357717e+002
535485088.71272 -5.710264e-001 1.646809e+002 -5.919845e+001 -4.011515e+001 -5.791155e+001 -4.339820e+001 -7.637091e-002 1.357295e+002
535862589.65647 -5.772840e-001 1.644496e+002 -5.882691e+001 -4.199342e+001 -5.860802e+001 -4.241273e+001 -7.575149e-002 1.356987e+002
536240090.60023 -5.777845e-001 1.642568e+002 -5.871627e+001 -4.284417e+001 -5.849760e+001 -4.527694e+001 -7.432362e-002 1.356729e+002
536617591.54398 -5.864338e-001 1.639688e+002 -5.873013e+001 -4.290380e+001 -5.829646e+001 -4.398671e+001 -7.253218e-002 1.356180e+002
536995092.48773 -5.924113e-001 1.637466e+002 -5.933846e+001 -4.097718e+001 -5.895298e+001 -4.897673e+001 -6.988378e-002 1.356149e+002
537372593.43148 -5.965983e-001 1.634993e+002 -5.898949e+001 -4.483276e+001 -5.826885e+001 -5.078863e+001 -6.930922e-002 1.355767e+002
537750094.37524 -5.991444e-001 1.632436e+002 -5.859889e+001 -4.853543e+001 -5.872942e+001 -4.915393e+001 -6.851450e-002 1.355606e+002
538127595.31899 -6.051406e-001 1.630069e+002 -5.808313e+001 -4.717713e+001 -5.878435e+001 -4.844868e+001 -6.850413e-002 1.355569e+002
538505096.26274 -6.116461e-001 1.627799e+002 -5.949289e+001 -4.580509e+001 -5.867743e+001 -4.824021e+001 -6.613763e-002 1.355590e+002
538882597.20649 -6.143440e-001 1.625540e+002 -5.842073e+001 -4.659171e+001 -5.849154e+001 -4.742234e+001 -6.291088e-002 1.354920e+002
539260098.15025 -6.229671e-001 1.622928e+002 -5.837762e+001 -4.958921e+001 -5.836583e+001 -5.188088e+001 -6.563371e-002 1.354930e+002
539637599.094 -6.318882e-001 1.620656e+002 -5.843630e+001 -4.980135e+001 -5.918993e+001 -5.055959e+001 -6.601010e-002 1.354685e+002
540015100.03775 -6.381972e-001 1.618148e+002 -5.876406e+001 -5.028059e+001 -5.867568e+001 -5.456692e+001 -6.427830e-002 1.355252e+002
540392600.9815 -6.412742e-001 1.615843e+002 -5.815067e+001 -5.260651e+001 -5.852958e+001 -5.599638e+001 -6.105142e-002 1.354044e+002
540770101.92525 -6.502306e-001 1.613267e+002 -5.833184e+001 -5.227768e+001 -5.893670e+001 -5.908740e+001 -6.409460e-002 1.354265e+002
541147602.86901 -6.530997e-001 1.610829e+002 -5.800523e+001 -5.124587e+001 -5.834050e+001 -5.529706e+001 -6.362019e-002 1.354201e+002
541525103.81276 -6.621540e-001 1.608512e+002 -5.847906e+001 -5.344210e+001 -5.887539e+001 -5.579836e+001 -6.365523e-002 1.353993e+002
541902604.75651 -6.668873e-001 1.606195e+002 -5.817408e+001 -5.783266e+001 -5.826111e+001 -5.777144e+001 -6.816479e-002 1.353908e+002
542280105.70026 -6.793625e-001 1.603776e+002 -5.813960e+001 -5.465382e+001 -5.801872e+001 -5.646159e+001 -6.417097e-002 1.353629e+002
542657606.64402 -6.852751e-001 1.600766e+002 -5.843326e+001 -5.689854e+001 -5.846666e+001 -6.148872e+001 -6.957011e-002 1.353432e+002
543035107.58777 -6.918082e-001 1.599162e+002 -5.805955e+001 -5.737440e+001 -5.799874e+001 -6.358360e+001 -6.815396e-002 1.353277e+002
543412608.53152 -7.012688e-001 1.596959e+002 -5.847258e+001 -5.933810e+001 -5.814746e+001 -6.078066e+001 -6.983301e-002 1.353124e+002
543790109.47527 -7.090811e-001 1.594781e+002 -5.787261e+001 -5.860878e+001 -5.835946e+001 -6.240124e+001 -6.907383e-002 1.352740e+002
544167610.41903 -7.159042e-001 1.592766e+002 -5.768016e+001 -6.266331e+001 -5.892664e+001 -6.411379e+001 -6.677873e-002 1.352525e+002
544545111.36278 -7.156757e-001 1.590418e+002 -5.811928e+001 -6.240840e+001 -5.868766e+001 -6.607047e+001 -6.953844e-002 1.352222e+002
544922612.30653 -7.226576e-001 1.588236e+002 -5.818783e+001 -6.320182e+001 -5.870882e+001 -6.660423e+001 -7.115383e-002 1.352093e+002
545300113.25028 -7.284244e-001 1.585630e+002 -5.810892e+001 -6.623180e+001 -5.921334e+001 -6.568591e+001 -7.096317e-002 1.351572e+002
545677614.19404 -7.295123e-001 1.584089e+002 -5.863712e+001 -6.440102e+001 -5.853913e+001 -6.682309e+001 -7.292775e-002 1.351149e+002
546055115.13779 -7.328495e-001 1.581401e+002 -5.813430e+001 -6.621780e+001 -5.858849e+001 -6.737904e+001 -7.356555e-002 1.351026e+002
546432616.08154 -7.378560e-001 1.579550e+002 -5.823900e+001 -6.312354e+001 -5.818493e+001 -6.812824e+001 -7.504337e-002 1.350536e+002
546810117.02529 -7.376889e-001 1.576711e+002 -5.822464e+001 -6.845692e+001 -5.846066e+001 -7.062425e+001 -7.585166e-002 1.350200e+002
547187617.96904 -7.431053e-001 1.574351e+002 -5.798877e+001 -6.877535e+001 -5.824889e+001 -6.856468e+001 -7.478613e-002 1.349670e+002
547565118.9128 -7.464653e-001 1.571831e+002 -5.829675e+001 -6.491254e+001 -5.843182e+001 -7.156031e+001 -7.479793e-002 1.349182e+002
547942619.85655 -7.579682e-001 1.569251e+002 -5.793182e+001 -6.748639e+001 -5.843773e+001 -6.844894e+001 -7.292367e-002 1.348629e+002
548320120.8003 -7.610269e-001 1.566660e+002 -5.781559e+001 -7.225606e+001 -5.818241e+001 -7.356750e+001 -7.642723e-002 1.348256e+002
548697621.74405 -7.682291e-001 1.564382e+002 -5.807864e+001 -6.861292e+001 -5.799260e+001 -7.335013e+001 -7.440450e-002 1.347503e+002
549075122.68781 -7.780223e-001 1.561918e+002 -5.764552e+001 -7.441371e+001 -5.833186e+001 -6.959113e+001 -7.484508e-002 1.347671e+002
549452623.63156 -7.853780e-001 1.559764e+002 -5.737757e+001 -7.249473e+001 -5.828183e+001 -7.322386e+001 -7.611044e-002 1.346461e+002
549830124.57531 -7.904576e-001 1.557175e+002 -5.759135e+001 -7.388301e+001 -5.761149e+001 -7.273907e+001 -7.604829e-002 1.345914e+002
550207625.51906 -7.983120e-001 1.554768e+002 -5.761041e+001 -7.500529e+001 -5.782963e+001 -7.707991e+001 -7.897069e-002 1.345168e+002
550585126.46282 -8.060279e-001 1.552159e+002 -5.754237e+001 -7.793153e+001 -5.744600e+001 -7.685439e+001 -7.840877e-002 1.344814e+002
550962627.40657 -8.128347e-001 1.549939e+002 -5.719716e+001 -7.707703e+001 -5.801826e+001 -7.668462e+001 -7.734522e-002 1.344040e+002
551340128.35032 -8.158308e-001 1.547492e+002 -5.665808e+001 -8.003686e+001 -5.769586e+001 -7.479414e+001 -7.932151e-002 1.343028e+002
551717629.29407 -8.285137e-001 1.544773e+002 -5.788470e+001 -8.113753e+001 -5.760506e+001 -7.882487e+001 -7.364164e-002 1.342681e+002
552095130.23783 -8.334305e-001 1.542724e+002 -5.751521e+001 -7.917628e+001 -5.763479e+001 -7.797955e+001 -7.361824e-002 1.341921e+002
552472631.18158 -8.375362e-001 1.539844e+002 -5.742492e+001 -7.974170e+001 -5.722175e+001 -8.167501e+001 -7.488093e-002 1.341386e+002
552850132.12533 -8.444188e-001 1.537330e+002 -5.731477e+001 -7.920262e+001 -5.734713e+001 -8.122950e+001 -7.236490e-002 1.340623e+002
553227633.06908 -8.560619e-001 1.534896e+002 -5.697636e+001 -8.349792e+001 -5.760098e+001 -8.173552e+001 -7.444539e-002 1.340161e+002
553605134.01284 -8.624130e-001 1.532289e+002 -5.671935e+001 -8.464821e+001 -5.724550e+001 -8.396761e+001 -7.505790e-002 1.339592e+002
553982634.95659 -8.737901e-001 1.529907e+002 -5.757850e+001 -8.402755e+001 -5.723763e+001 -8.697823e+001 -7.395443e-002 1.339157e+002
554360135.90034 -8.840821e-001 1.527476e+002 -5.757082e+001 -8.947113e+001 -5.764066e+001 -8.726212e+001 -7.364055e-002 1.338535e+002
554737636.84409 -8.907645e-001 1.525051e+002 -5.688541e+001 -8.714201e+001 -5.733023e+001 -8.529865e+001 -7.205884e-002 1.337921e+002
555115137.78784 -8.963537e-001 1.522726e+002 -5.684617e+001 -8.486553e+001 -5.732515e+001 -8.931385e+001 -6.867394e-002 1.337402e+002
