!Agilent Technologies,E8364B,US42250235,A.06.04.32
!Agilent E8364B: A.06.04.32
!Date: Thursday, October 01, 2020 14:57:19
!Correction: S11(Full 2 Port(1,2)) S21(Full 2 Port(1,2)) S12(Full 2 Port(1,2)) S22(Full 2 Port(1,2)) 
!S2P File: Measurements: S11, S21, S12, S22:
# Hz S  dB   R 50
500000000 -2.300480e-001 -1.750570e+002 -6.456667e+001 -2.053846e+001 -6.379234e+001 -1.577374e+001 -1.336199e-001 1.383004e+002
500377500.94375 -2.295664e-001 -1.752868e+002 -6.311370e+001 -1.584522e+001 -6.343678e+001 -1.734392e+001 -1.334245e-001 1.383012e+002
500755001.8875 -2.352527e-001 -1.754518e+002 -6.391113e+001 -1.941787e+001 -6.410388e+001 -1.583968e+001 -1.265797e-001 1.382724e+002
501132502.83126 -2.378337e-001 -1.756715e+002 -6.347098e+001 -2.272038e+001 -6.379869e+001 -2.055147e+001 -1.306308e-001 1.382632e+002
501510003.77501 -2.388670e-001 -1.758589e+002 -6.314888e+001 -2.567757e+001 -6.357218e+001 -1.242985e+001 -1.303969e-001 1.382664e+002
501887504.71876 -2.420856e-001 -1.760970e+002 -6.303132e+001 -2.405016e+001 -6.423486e+001 -2.387443e+001 -1.308499e-001 1.382489e+002
502265005.66251 -2.461166e-001 -1.762909e+002 -6.339082e+001 -2.553171e+001 -6.380994e+001 -2.190067e+001 -1.278799e-001 1.382394e+002
502642506.60627 -2.460708e-001 -1.765084e+002 -6.399511e+001 -2.873269e+001 -6.321864e+001 -2.178524e+001 -1.290005e-001 1.382576e+002
503020007.55002 -2.503428e-001 -1.766999e+002 -6.289783e+001 -2.569275e+001 -6.356129e+001 -2.560775e+001 -1.315674e-001 1.381918e+002
503397508.49377 -2.525356e-001 -1.769063e+002 -6.337000e+001 -3.181272e+001 -6.376061e+001 -2.674034e+001 -1.297852e-001 1.381723e+002
503775009.43752 -2.520681e-001 -1.770885e+002 -6.312082e+001 -2.079320e+001 -6.456927e+001 -2.028429e+001 -1.301954e-001 1.381819e+002
504152510.38128 -2.539534e-001 -1.772932e+002 -6.358508e+001 -3.554596e+001 -6.327151e+001 -2.735528e+001 -1.321018e-001 1.381075e+002
504530011.32503 -2.562237e-001 -1.774986e+002 -6.340591e+001 -3.457273e+001 -6.255531e+001 -2.502236e+001 -1.297300e-001 1.380954e+002
504907512.26878 -2.577348e-001 -1.776877e+002 -6.273455e+001 -2.806316e+001 -6.293040e+001 -2.504684e+001 -1.315617e-001 1.380780e+002
505285013.21253 -2.639268e-001 -1.778891e+002 -6.259501e+001 -2.937106e+001 -6.268679e+001 -2.398169e+001 -1.316173e-001 1.380430e+002
505662514.15629 -2.650148e-001 -1.780524e+002 -6.326145e+001 -3.618021e+001 -6.292668e+001 -2.573646e+001 -1.334686e-001 1.380184e+002
506040015.10004 -2.673961e-001 -1.783168e+002 -6.268413e+001 -3.722432e+001 -6.278614e+001 -2.884475e+001 -1.363846e-001 1.379664e+002
506417516.04379 -2.698805e-001 -1.785068e+002 -6.272900e+001 -2.963935e+001 -6.283606e+001 -3.734994e+001 -1.346321e-001 1.379252e+002
506795016.98754 -2.724635e-001 -1.787093e+002 -6.267437e+001 -2.827644e+001 -6.275001e+001 -2.163340e+001 -1.334787e-001 1.378671e+002
507172517.93129 -2.781447e-001 -1.789149e+002 -6.285558e+001 -3.505958e+001 -6.324631e+001 -2.088688e+001 -1.336154e-001 1.378247e+002
507550018.87505 -2.795968e-001 -1.791136e+002 -6.227988e+001 -3.783362e+001 -6.262511e+001 -2.908751e+001 -1.345176e-001 1.377794e+002
507927519.8188 -2.836624e-001 -1.793260e+002 -6.199716e+001 -3.632049e+001 -6.242296e+001 -2.898715e+001 -1.361373e-001 1.377577e+002
508305020.76255 -2.819963e-001 -1.795148e+002 -6.174497e+001 -4.377932e+001 -6.140264e+001 -3.550954e+001 -1.372833e-001 1.377056e+002
508682521.7063 -2.861795e-001 -1.797321e+002 -6.197713e+001 -3.914133e+001 -6.178820e+001 -3.137921e+001 -1.444430e-001 1.376691e+002
509060022.65006 -2.909100e-001 -1.799309e+002 -6.129037e+001 -3.556730e+001 -6.266322e+001 -3.621959e+001 -1.394316e-001 1.375761e+002
509437523.59381 -2.904635e-001 1.798443e+002 -6.189527e+001 -3.782440e+001 -6.110631e+001 -3.530624e+001 -1.396655e-001 1.375528e+002
509815024.53756 -2.912388e-001 1.796414e+002 -6.106353e+001 -3.946952e+001 -6.129869e+001 -3.518474e+001 -1.412406e-001 1.375148e+002
510192525.48131 -2.919621e-001 1.794272e+002 -6.203792e+001 -4.647742e+001 -6.075956e+001 -3.580171e+001 -1.389857e-001 1.374523e+002
510570026.42507 -2.970693e-001 1.791814e+002 -6.103429e+001 -4.317377e+001 -6.084332e+001 -3.911984e+001 -1.399729e-001 1.374058e+002
510947527.36882 -3.021727e-001 1.789989e+002 -6.159307e+001 -4.103075e+001 -6.168198e+001 -3.744280e+001 -1.405320e-001 1.373701e+002
511325028.31257 -3.028371e-001 1.787786e+002 -6.177838e+001 -4.866365e+001 -6.181106e+001 -4.398276e+001 -1.411082e-001 1.373019e+002
511702529.25632 -3.043623e-001 1.785479e+002 -6.104256e+001 -4.829317e+001 -6.125788e+001 -4.078153e+001 -1.417972e-001 1.372767e+002
512080030.20008 -3.092607e-001 1.782986e+002 -6.106510e+001 -4.597398e+001 -6.077047e+001 -4.355262e+001 -1.412659e-001 1.372203e+002
512457531.14383 -3.177369e-001 1.781576e+002 -6.128722e+001 -4.538204e+001 -6.066080e+001 -4.489916e+001 -1.386187e-001 1.371975e+002
512835032.08758 -3.204998e-001 1.779066e+002 -6.035685e+001 -4.999710e+001 -6.085115e+001 -4.478130e+001 -1.394462e-001 1.371522e+002
513212533.03133 -3.239881e-001 1.776864e+002 -6.126168e+001 -5.479451e+001 -6.095220e+001 -4.600784e+001 -1.385448e-001 1.371051e+002
513590033.97508 -3.250310e-001 1.774742e+002 -6.045732e+001 -4.676289e+001 -6.073486e+001 -5.016645e+001 -1.377235e-001 1.370766e+002
513967534.91884 -3.328845e-001 1.772607e+002 -6.062153e+001 -5.391497e+001 -6.031539e+001 -5.189327e+001 -1.339171e-001 1.370363e+002
514345035.86259 -3.333136e-001 1.770467e+002 -6.035405e+001 -4.900380e+001 -6.082991e+001 -5.040167e+001 -1.404156e-001 1.370112e+002
514722536.80634 -3.351877e-001 1.768415e+002 -6.004689e+001 -5.095929e+001 -6.009596e+001 -4.729181e+001 -1.401376e-001 1.369901e+002
515100037.75009 -3.348257e-001 1.766317e+002 -6.101643e+001 -5.428332e+001 -6.055287e+001 -5.358434e+001 -1.381130e-001 1.369705e+002
515477538.69385 -3.376097e-001 1.764144e+002 -6.083518e+001 -5.083699e+001 -6.042224e+001 -5.157608e+001 -1.372166e-001 1.369420e+002
515855039.6376 -3.405898e-001 1.762142e+002 -6.058778e+001 -5.298706e+001 -6.022359e+001 -4.697929e+001 -1.340784e-001 1.369102e+002
516232540.58135 -3.445359e-001 1.759800e+002 -6.046555e+001 -5.322013e+001 -6.038609e+001 -5.436937e+001 -1.358519e-001 1.368931e+002
516610041.5251 -3.487690e-001 1.757623e+002 -5.988794e+001 -5.997358e+001 -6.032713e+001 -5.852368e+001 -1.398876e-001 1.368846e+002
516987542.46886 -3.484208e-001 1.755413e+002 -5.980218e+001 -6.209578e+001 -5.963585e+001 -5.596429e+001 -1.399564e-001 1.368616e+002
517365043.41261 -3.539016e-001 1.753276e+002 -5.937122e+001 -6.236908e+001 -6.035678e+001 -5.697939e+001 -1.382259e-001 1.368255e+002
517742544.35636 -3.533649e-001 1.750700e+002 -5.933553e+001 -6.207746e+001 -6.027766e+001 -6.060179e+001 -1.412447e-001 1.368247e+002
518120045.30011 -3.628490e-001 1.748881e+002 -5.992650e+001 -6.498634e+001 -5.977242e+001 -6.418233e+001 -1.362411e-001 1.368275e+002
518497546.24387 -3.632782e-001 1.746821e+002 -5.979781e+001 -6.454111e+001 -5.992701e+001 -6.257433e+001 -1.374767e-001 1.368016e+002
518875047.18762 -3.691635e-001 1.745088e+002 -5.927558e+001 -6.594051e+001 -5.936996e+001 -6.200948e+001 -1.365554e-001 1.367872e+002
519252548.13137 -3.734346e-001 1.742493e+002 -5.946473e+001 -6.765173e+001 -5.980408e+001 -6.674548e+001 -1.393357e-001 1.367658e+002
519630049.07512 -3.788100e-001 1.740155e+002 -5.969187e+001 -7.063203e+001 -5.915091e+001 -6.316924e+001 -1.428476e-001 1.367682e+002
520007550.01888 -3.824916e-001 1.738057e+002 -5.999353e+001 -7.132459e+001 -6.035874e+001 -6.390401e+001 -1.412673e-001 1.367628e+002
520385050.96263 -3.840010e-001 1.736438e+002 -5.949057e+001 -7.267835e+001 -5.934665e+001 -7.015919e+001 -1.457035e-001 1.367115e+002
520762551.90638 -3.859501e-001 1.733797e+002 -5.954430e+001 -6.899090e+001 -5.965390e+001 -6.782207e+001 -1.472833e-001 1.367040e+002
521140052.85013 -3.905093e-001 1.731548e+002 -6.039717e+001 -7.669514e+001 -5.953025e+001 -7.269878e+001 -1.451557e-001 1.366726e+002
521517553.79388 -3.940886e-001 1.729539e+002 -5.894717e+001 -7.954980e+001 -5.970478e+001 -6.870461e+001 -1.458317e-001 1.366448e+002
521895054.73764 -3.971659e-001 1.727272e+002 -5.938614e+001 -7.392935e+001 -5.940341e+001 -7.183552e+001 -1.488906e-001 1.366226e+002
522272555.68139 -3.994218e-001 1.725088e+002 -5.921714e+001 -7.645387e+001 -6.013285e+001 -7.306685e+001 -1.505039e-001 1.366041e+002
522650056.62514 -4.040216e-001 1.722835e+002 -5.897415e+001 -8.019533e+001 -5.968849e+001 -7.421040e+001 -1.546221e-001 1.365294e+002
523027557.56889 -4.089105e-001 1.720671e+002 -6.012495e+001 -8.247792e+001 -5.931344e+001 -7.221162e+001 -1.556060e-001 1.365356e+002
523405058.51265 -4.084689e-001 1.718403e+002 -6.001462e+001 -7.916013e+001 -5.948391e+001 -7.416752e+001 -1.560972e-001 1.365588e+002
523782559.4564 -4.141201e-001 1.716160e+002 -5.970042e+001 -8.278522e+001 -6.007038e+001 -7.697930e+001 -1.604517e-001 1.364530e+002
524160060.40015 -4.143709e-001 1.713895e+002 -6.021693e+001 -8.662090e+001 -5.935448e+001 -7.683968e+001 -1.636218e-001 1.364282e+002
524537561.3439 -4.177957e-001 1.711686e+002 -5.910653e+001 -8.678107e+001 -5.994699e+001 -7.854894e+001 -1.648736e-001 1.363771e+002
524915062.28766 -4.222443e-001 1.709208e+002 -5.944159e+001 -8.228169e+001 -5.969833e+001 -7.604288e+001 -1.641914e-001 1.363430e+002
525292563.23141 -4.265150e-001 1.706722e+002 -5.953017e+001 -8.419922e+001 -5.984685e+001 -7.455666e+001 -1.707299e-001 1.362867e+002
525670064.17516 -4.263635e-001 1.704510e+002 -5.938063e+001 -8.249926e+001 -5.924910e+001 -7.549185e+001 -1.703604e-001 1.362190e+002
526047565.11891 -4.305923e-001 1.702152e+002 -5.996920e+001 -8.586564e+001 -5.944099e+001 -7.725710e+001 -1.715199e-001 1.361663e+002
526425066.06267 -4.374749e-001 1.699624e+002 -5.868695e+001 -8.217713e+001 -5.874277e+001 -7.699534e+001 -1.773566e-001 1.361142e+002
526802567.00642 -4.401501e-001 1.697408e+002 -5.945250e+001 -8.764081e+001 -5.830151e+001 -7.782761e+001 -1.758802e-001 1.360406e+002
527180067.95017 -4.437410e-001 1.694845e+002 -5.892904e+001 -8.622170e+001 -5.926907e+001 -8.169939e+001 -1.749207e-001 1.359710e+002
527557568.89392 -4.450858e-001 1.692433e+002 -5.870065e+001 -8.632911e+001 -5.910186e+001 -8.151228e+001 -1.749651e-001 1.359161e+002
527935069.83767 -4.520786e-001 1.690048e+002 -5.833287e+001 -8.803805e+001 -5.959901e+001 -8.144497e+001 -1.740587e-001 1.358615e+002
528312570.78143 -4.566258e-001 1.687676e+002 -5.822658e+001 -8.988034e+001 -5.859622e+001 -8.541011e+001 -1.757101e-001 1.357944e+002
528690071.72518 -4.575822e-001 1.685211e+002 -5.816748e+001 -8.811140e+001 -5.873787e+001 -8.536971e+001 -1.737163e-001 1.357318e+002
529067572.66893 -4.662815e-001 1.682747e+002 -5.851182e+001 -8.878369e+001 -5.816042e+001 -8.664124e+001 -1.774584e-001 1.356698e+002
529445073.61268 -4.711542e-001 1.680637e+002 -5.871259e+001 -9.415236e+001 -5.866904e+001 -8.697786e+001 -1.750508e-001 1.356317e+002
529822574.55644 -4.750220e-001 1.678029e+002 -5.809114e+001 -9.659851e+001 -5.863735e+001 -8.708584e+001 -1.779888e-001 1.355391e+002
530200075.50019 -4.820433e-001 1.675649e+002 -5.868256e+001 -9.553332e+001 -5.832768e+001 -9.142334e+001 -1.731459e-001 1.354717e+002
530577576.44394 -4.908158e-001 1.673532e+002 -5.794958e+001 -9.746634e+001 -5.810681e+001 -9.135746e+001 -1.733568e-001 1.353935e+002
530955077.38769 -4.973553e-001 1.671043e+002 -5.884581e+001 -9.948652e+001 -5.782288e+001 -9.208214e+001 -1.722210e-001 1.353630e+002
531332578.33145 -4.993689e-001 1.668607e+002 -5.809546e+001 -1.004749e+002 -5.761323e+001 -9.220885e+001 -1.689032e-001 1.352903e+002
531710079.2752 -5.076788e-001 1.666540e+002 -5.769153e+001 -9.805330e+001 -5.792957e+001 -9.376186e+001 -1.709397e-001 1.352062e+002
532087580.21895 -5.115466e-001 1.664150e+002 -5.814326e+001 -9.973682e+001 -5.819814e+001 -9.126813e+001 -1.624570e-001 1.351518e+002
532465081.1627 -5.167128e-001 1.661760e+002 -5.825171e+001 -1.018660e+002 -5.781736e+001 -9.556951e+001 -1.648273e-001 1.351044e+002
532842582.10646 -5.210105e-001 1.659949e+002 -5.791061e+001 -1.013044e+002 -5.794321e+001 -9.491518e+001 -1.618024e-001 1.350461e+002
533220083.05021 -5.261596e-001 1.657206e+002 -5.812488e+001 -1.019732e+002 -5.775521e+001 -1.001790e+002 -1.627548e-001 1.350242e+002
533597583.99396 -5.334994e-001 1.654826e+002 -5.784563e+001 -1.030955e+002 -5.836947e+001 -9.847364e+001 -1.596724e-001 1.349893e+002
533975084.93771 -5.390315e-001 1.652631e+002 -5.786844e+001 -1.003167e+002 -5.826405e+001 -9.725011e+001 -1.579222e-001 1.349071e+002
534352585.88146 -5.452964e-001 1.650176e+002 -5.783732e+001 -1.035509e+002 -5.770673e+001 -9.799762e+001 -1.560240e-001 1.348669e+002
534730086.82522 -5.540949e-001 1.648516e+002 -5.697047e+001 -1.044088e+002 -5.759171e+001 -1.023029e+002 -1.566991e-001 1.348428e+002
535107587.76897 -5.586877e-001 1.645641e+002 -5.753455e+001 -1.076371e+002 -5.761592e+001 -1.060396e+002 -1.574770e-001 1.348036e+002
535485088.71272 -5.609081e-001 1.643348e+002 -5.768872e+001 -1.073808e+002 -5.778133e+001 -1.029611e+002 -1.522612e-001 1.347536e+002
535862589.65647 -5.696219e-001 1.640925e+002 -5.755047e+001 -1.090278e+002 -5.719598e+001 -1.055668e+002 -1.510594e-001 1.347124e+002
536240090.60023 -5.703447e-001 1.638378e+002 -5.770889e+001 -1.081901e+002 -5.681052e+001 -1.062199e+002 -1.504784e-001 1.347005e+002
536617591.54398 -5.802871e-001 1.635948e+002 -5.699442e+001 -1.111908e+002 -5.755986e+001 -1.067378e+002 -1.461464e-001 1.346577e+002
536995092.48773 -5.903128e-001 1.633704e+002 -5.757684e+001 -1.132990e+002 -5.687415e+001 -1.067049e+002 -1.464666e-001 1.346365e+002
537372593.43148 -5.966772e-001 1.630789e+002 -5.763105e+001 -1.114271e+002 -5.709738e+001 -1.099895e+002 -1.403597e-001 1.346096e+002
537750094.37524 -5.996869e-001 1.628731e+002 -5.690400e+001 -1.147917e+002 -5.729667e+001 -1.111099e+002 -1.415087e-001 1.346150e+002
538127595.31899 -6.122475e-001 1.626284e+002 -5.738905e+001 -1.179047e+002 -5.683341e+001 -1.098571e+002 -1.420938e-001 1.345752e+002
538505096.26274 -6.164395e-001 1.624190e+002 -5.711251e+001 -1.158398e+002 -5.676042e+001 -1.103127e+002 -1.397121e-001 1.345870e+002
538882597.20649 -6.224810e-001 1.621650e+002 -5.713638e+001 -1.150124e+002 -5.694531e+001 -1.119878e+002 -1.366872e-001 1.345470e+002
539260098.15025 -6.343129e-001 1.619251e+002 -5.707128e+001 -1.186901e+002 -5.699935e+001 -1.132707e+002 -1.385820e-001 1.345430e+002
539637599.094 -6.438283e-001 1.616900e+002 -5.658730e+001 -1.182201e+002 -5.658680e+001 -1.138535e+002 -1.386818e-001 1.345047e+002
540015100.03775 -6.510237e-001 1.614444e+002 -5.642268e+001 -1.187342e+002 -5.655734e+001 -1.163606e+002 -1.367747e-001 1.345483e+002
540392600.9815 -6.572281e-001 1.612197e+002 -5.660728e+001 -1.229467e+002 -5.669521e+001 -1.206512e+002 -1.385943e-001 1.344833e+002
540770101.92525 -6.645140e-001 1.609632e+002 -5.638307e+001 -1.205327e+002 -5.684048e+001 -1.192417e+002 -1.358837e-001 1.344693e+002
541147602.86901 -6.741285e-001 1.607324e+002 -5.668349e+001 -1.214592e+002 -5.643601e+001 -1.166907e+002 -1.378244e-001 1.344630e+002
541525103.81276 -6.780351e-001 1.605024e+002 -5.645770e+001 -1.243770e+002 -5.638147e+001 -1.203427e+002 -1.383783e-001 1.344496e+002
541902604.75651 -6.868908e-001 1.602652e+002 -5.611325e+001 -1.254748e+002 -5.677763e+001 -1.212153e+002 -1.391697e-001 1.344332e+002
542280105.70026 -7.006365e-001 1.600368e+002 -5.617480e+001 -1.276447e+002 -5.672711e+001 -1.226595e+002 -1.357282e-001 1.344151e+002
542657606.64402 -7.112808e-001 1.598083e+002 -5.628567e+001 -1.273617e+002 -5.605747e+001 -1.202196e+002 -1.404011e-001 1.344064e+002
543035107.58777 -7.153490e-001 1.595816e+002 -5.589912e+001 -1.309806e+002 -5.606737e+001 -1.271570e+002 -1.404422e-001 1.343790e+002
543412608.53152 -7.262740e-001 1.593675e+002 -5.630227e+001 -1.290591e+002 -5.665711e+001 -1.259354e+002 -1.420627e-001 1.343620e+002
543790109.47527 -7.316703e-001 1.591680e+002 -5.626222e+001 -1.320034e+002 -5.642523e+001 -1.294445e+002 -1.415956e-001 1.343287e+002
544167610.41903 -7.398137e-001 1.589494e+002 -5.596143e+001 -1.342325e+002 -5.623768e+001 -1.316911e+002 -1.392835e-001 1.343072e+002
544545111.36278 -7.440694e-001 1.587446e+002 -5.622804e+001 -1.356117e+002 -5.641171e+001 -1.303591e+002 -1.428809e-001 1.342854e+002
544922612.30653 -7.490199e-001 1.585182e+002 -5.637855e+001 -1.375056e+002 -5.642482e+001 -1.297632e+002 -1.412045e-001 1.342484e+002
545300113.25028 -7.548574e-001 1.583060e+002 -5.619857e+001 -1.378717e+002 -5.669975e+001 -1.317092e+002 -1.424764e-001 1.342129e+002
545677614.19404 -7.582081e-001 1.580549e+002 -5.639788e+001 -1.350868e+002 -5.658309e+001 -1.299198e+002 -1.438748e-001 1.341757e+002
546055115.13779 -7.605750e-001 1.578477e+002 -5.623977e+001 -1.375233e+002 -5.654403e+001 -1.344627e+002 -1.460098e-001 1.341625e+002
546432616.08154 -7.654926e-001 1.575834e+002 -5.637391e+001 -1.358589e+002 -5.656876e+001 -1.311288e+002 -1.433839e-001 1.341134e+002
546810117.02529 -7.695174e-001 1.573656e+002 -5.636380e+001 -1.413272e+002 -5.635041e+001 -1.334440e+002 -1.474238e-001 1.340787e+002
547187617.96904 -7.748462e-001 1.571112e+002 -5.603210e+001 -1.419314e+002 -5.602432e+001 -1.329904e+002 -1.461569e-001 1.340396e+002
547565118.9128 -7.814271e-001 1.568570e+002 -5.552023e+001 -1.402973e+002 -5.650423e+001 -1.352622e+002 -1.477888e-001 1.339755e+002
547942619.85655 -7.942246e-001 1.566533e+002 -5.599675e+001 -1.414741e+002 -5.630753e+001 -1.345040e+002 -1.460232e-001 1.339285e+002
548320120.8003 -8.002496e-001 1.563559e+002 -5.582050e+001 -1.445806e+002 -5.585110e+001 -1.362491e+002 -1.491371e-001 1.338934e+002
548697621.74405 -8.081378e-001 1.561080e+002 -5.625380e+001 -1.435882e+002 -5.610943e+001 -1.361868e+002 -1.468666e-001 1.338361e+002
549075122.68781 -8.172078e-001 1.558741e+002 -5.567772e+001 -1.425325e+002 -5.559317e+001 -1.393655e+002 -1.481195e-001 1.338437e+002
549452623.63156 -8.272367e-001 1.556418e+002 -5.583413e+001 -1.450959e+002 -5.564960e+001 -1.402418e+002 -1.510999e-001 1.337279e+002
549830124.57531 -8.361958e-001 1.554091e+002 -5.544781e+001 -1.460966e+002 -5.543433e+001 -1.420434e+002 -1.505143e-001 1.336763e+002
550207625.51906 -8.431129e-001 1.551692e+002 -5.529393e+001 -1.489986e+002 -5.571633e+001 -1.405500e+002 -1.532490e-001 1.336161e+002
550585126.46282 -8.562636e-001 1.549457e+002 -5.554625e+001 -1.493500e+002 -5.550527e+001 -1.441981e+002 -1.517672e-001 1.335584e+002
550962627.40657 -8.601767e-001 1.546993e+002 -5.516863e+001 -1.498266e+002 -5.546994e+001 -1.429081e+002 -1.518228e-001 1.335062e+002
551340128.35032 -8.669691e-001 1.544572e+002 -5.523278e+001 -1.542654e+002 -5.543012e+001 -1.454011e+002 -1.506379e-001 1.334414e+002
551717629.29407 -8.784218e-001 1.542095e+002 -5.512959e+001 -1.511207e+002 -5.586449e+001 -1.463052e+002 -1.537899e-001 1.333675e+002
552095130.23783 -8.868467e-001 1.539650e+002 -5.525992e+001 -1.558854e+002 -5.541844e+001 -1.475415e+002 -1.542516e-001 1.333226e+002
552472631.18158 -8.943522e-001 1.537182e+002 -5.524031e+001 -1.549427e+002 -5.539640e+001 -1.490591e+002 -1.532205e-001 1.332601e+002
552850132.12533 -9.032685e-001 1.534433e+002 -5.567070e+001 -1.591471e+002 -5.538450e+001 -1.483789e+002 -1.534363e-001 1.332108e+002
553227633.06908 -9.143903e-001 1.531876e+002 -5.544211e+001 -1.595518e+002 -5.552526e+001 -1.514934e+002 -1.536113e-001 1.331511e+002
553605134.01284 -9.241734e-001 1.529345e+002 -5.525555e+001 -1.584543e+002 -5.515153e+001 -1.518600e+002 -1.536172e-001 1.331049e+002
553982634.95659 -9.373049e-001 1.526960e+002 -5.543322e+001 -1.579080e+002 -5.514683e+001 -1.510988e+002 -1.533038e-001 1.330497e+002
554360135.90034 -9.504597e-001 1.524535e+002 -5.537020e+001 -1.593326e+002 -5.530980e+001 -1.544548e+002 -1.548771e-001 1.329923e+002
554737636.84409 -9.627596e-001 1.522244e+002 -5.506082e+001 -1.604130e+002 -5.543642e+001 -1.517699e+002 -1.548313e-001 1.329508e+002
555115137.78784 -9.732596e-001 1.520437e+002 -5.479425e+001 -1.608518e+002 -5.507863e+001 -1.539875e+002 -1.489705e-001 1.328880e+002
