!Agilent Technologies,E8364B,US42250235,A.06.04.32
!Agilent E8364B: A.06.04.32
!Date: Friday, January 15, 2021 16:09:05
!Correction: S11(Full 2 Port(1,2)) S21(Full 2 Port(1,2)) S12(Full 2 Port(1,2)) S22(Full 2 Port(1,2)) 
!S2P File: Measurements: S11, S21, S12, S22:
# Hz S  dB   R 50
500000000 -6.073852e-002 -1.293473e+002 -5.480545e+001 1.374557e+002 -5.519110e+001 1.385905e+002 -1.616461e-001 1.363615e+002
500625000 -6.016281e-002 -1.295616e+002 -5.542566e+001 1.377090e+002 -5.622585e+001 1.371898e+002 -1.736583e-001 1.363483e+002
501250000 -6.071969e-002 -1.298306e+002 -5.440868e+001 1.397675e+002 -5.513214e+001 1.408382e+002 -1.672280e-001 1.363132e+002
501875000 -6.156472e-002 -1.301297e+002 -5.378325e+001 1.387128e+002 -5.398610e+001 1.362098e+002 -1.644078e-001 1.362159e+002
502500000 -5.878298e-002 -1.304035e+002 -5.444548e+001 1.296596e+002 -5.414067e+001 1.342195e+002 -1.603226e-001 1.361761e+002
503125000 -6.534874e-002 -1.306918e+002 -5.459697e+001 1.423936e+002 -5.457472e+001 1.314537e+002 -1.641713e-001 1.360264e+002
503750000 -6.575961e-002 -1.309456e+002 -5.550035e+001 1.333864e+002 -5.460786e+001 1.330350e+002 -1.643437e-001 1.359291e+002
504375000 -7.505162e-002 -1.312319e+002 -5.492690e+001 1.339595e+002 -5.439618e+001 1.339062e+002 -1.754922e-001 1.358320e+002
505000000 -7.495987e-002 -1.315281e+002 -5.498577e+001 1.334740e+002 -5.361846e+001 1.333189e+002 -1.793180e-001 1.358237e+002
505625000 -7.279497e-002 -1.317461e+002 -5.394699e+001 1.344642e+002 -5.439017e+001 1.321260e+002 -1.783951e-001 1.356469e+002
506250000 -7.682773e-002 -1.320346e+002 -5.442496e+001 1.325339e+002 -5.590559e+001 1.353577e+002 -1.827928e-001 1.355313e+002
506875000 -7.398784e-002 -1.323146e+002 -5.451028e+001 1.342001e+002 -5.399039e+001 1.327866e+002 -1.850047e-001 1.353037e+002
507500000 -8.221179e-002 -1.325679e+002 -5.487854e+001 1.354600e+002 -5.425685e+001 1.273238e+002 -1.945244e-001 1.351525e+002
508125000 -8.161677e-002 -1.328796e+002 -5.404614e+001 1.305411e+002 -5.451427e+001 1.331894e+002 -1.928017e-001 1.350089e+002
508750000 -7.850644e-002 -1.330539e+002 -5.455019e+001 1.247468e+002 -5.382219e+001 1.326662e+002 -1.940954e-001 1.348156e+002
509375000 -8.672654e-002 -1.333927e+002 -5.462704e+001 1.305261e+002 -5.330771e+001 1.288903e+002 -1.946493e-001 1.346358e+002
510000000 -8.590703e-002 -1.336834e+002 -5.296612e+001 1.309256e+002 -5.476921e+001 1.258621e+002 -1.959261e-001 1.343917e+002
510625000 -9.574656e-002 -1.338576e+002 -5.260966e+001 1.277157e+002 -5.408125e+001 1.293650e+002 -1.885279e-001 1.342477e+002
511250000 -9.891292e-002 -1.341377e+002 -5.405889e+001 1.264759e+002 -5.334952e+001 1.283834e+002 -2.002486e-001 1.339442e+002
511875000 -8.806775e-002 -1.344298e+002 -5.271928e+001 1.308425e+002 -5.342963e+001 1.286597e+002 -1.908985e-001 1.337373e+002
512500000 -9.623633e-002 -1.347463e+002 -5.326102e+001 1.283803e+002 -5.360794e+001 1.245404e+002 -1.992065e-001 1.335349e+002
513125000 -1.055717e-001 -1.350501e+002 -5.181751e+001 1.285754e+002 -5.300348e+001 1.297404e+002 -1.956943e-001 1.334318e+002
513750000 -1.105052e-001 -1.352947e+002 -5.330915e+001 1.213480e+002 -5.332582e+001 1.258763e+002 -1.998689e-001 1.332443e+002
514375000 -1.177607e-001 -1.356643e+002 -5.249770e+001 1.232283e+002 -5.314266e+001 1.235370e+002 -1.882131e-001 1.330342e+002
515000000 -1.155599e-001 -1.359282e+002 -5.250431e+001 1.227618e+002 -5.255787e+001 1.221177e+002 -1.780412e-001 1.329011e+002
515625000 -1.220992e-001 -1.363281e+002 -5.258772e+001 1.281068e+002 -5.331503e+001 1.201965e+002 -1.782632e-001 1.327923e+002
516250000 -1.224364e-001 -1.366403e+002 -5.333172e+001 1.198760e+002 -5.290206e+001 1.226541e+002 -1.841327e-001 1.327065e+002
516875000 -1.346740e-001 -1.369661e+002 -5.368331e+001 1.252566e+002 -5.256545e+001 1.224902e+002 -1.694270e-001 1.327126e+002
517500000 -1.320377e-001 -1.373085e+002 -5.364156e+001 1.211382e+002 -5.333440e+001 1.213804e+002 -1.779690e-001 1.325643e+002
518125000 -1.417869e-001 -1.376967e+002 -5.215755e+001 1.208068e+002 -5.270387e+001 1.179972e+002 -1.665519e-001 1.324850e+002
518750000 -1.430940e-001 -1.380399e+002 -5.225178e+001 1.262993e+002 -5.290752e+001 1.240813e+002 -1.643484e-001 1.325359e+002
519375000 -1.519607e-001 -1.383664e+002 -5.211011e+001 1.188336e+002 -5.190714e+001 1.195759e+002 -1.440104e-001 1.325397e+002
520000000 -1.512656e-001 -1.387313e+002 -5.328844e+001 1.179246e+002 -5.223797e+001 1.195368e+002 -1.477897e-001 1.324830e+002
520625000 -1.558540e-001 -1.391137e+002 -5.200789e+001 1.194171e+002 -5.161073e+001 1.211321e+002 -1.511850e-001 1.324340e+002
521250000 -1.620835e-001 -1.394348e+002 -5.231073e+001 1.210409e+002 -5.193711e+001 1.201712e+002 -1.478072e-001 1.324520e+002
521875000 -1.584988e-001 -1.398317e+002 -5.219327e+001 1.223819e+002 -5.184444e+001 1.229611e+002 -1.386320e-001 1.325414e+002
522500000 -1.672715e-001 -1.402234e+002 -5.179821e+001 1.153020e+002 -5.123293e+001 1.185347e+002 -1.410837e-001 1.324964e+002
523125000 -1.778095e-001 -1.405512e+002 -5.063343e+001 1.219105e+002 -5.180363e+001 1.181968e+002 -1.465614e-001 1.325661e+002
523750000 -1.750257e-001 -1.408987e+002 -5.160118e+001 1.189815e+002 -5.041208e+001 1.142972e+002 -1.469997e-001 1.325519e+002
524375000 -1.911111e-001 -1.412420e+002 -5.177808e+001 1.171021e+002 -5.141544e+001 1.176292e+002 -1.458424e-001 1.325461e+002
525000000 -1.905452e-001 -1.416200e+002 -5.226350e+001 1.193661e+002 -5.079637e+001 1.189682e+002 -1.510995e-001 1.326295e+002
525625000 -1.991302e-001 -1.419317e+002 -5.152820e+001 1.155221e+002 -5.098760e+001 1.147613e+002 -1.569490e-001 1.325405e+002
526250000 -1.935316e-001 -1.422722e+002 -5.116208e+001 1.136895e+002 -5.096716e+001 1.144418e+002 -1.565060e-001 1.326165e+002
526875000 -2.057311e-001 -1.426357e+002 -5.051956e+001 1.119540e+002 -5.115833e+001 1.112092e+002 -1.514433e-001 1.326268e+002
527500000 -2.148749e-001 -1.429595e+002 -5.115012e+001 1.110356e+002 -5.048526e+001 1.148414e+002 -1.529563e-001 1.325763e+002
528125000 -2.271816e-001 -1.433257e+002 -5.079485e+001 1.150633e+002 -5.127573e+001 1.151823e+002 -1.506303e-001 1.326684e+002
528750000 -2.230781e-001 -1.436405e+002 -5.091869e+001 1.159626e+002 -5.107769e+001 1.109725e+002 -1.492310e-001 1.327520e+002
529375000 -2.290110e-001 -1.439636e+002 -5.042380e+001 1.107282e+002 -5.039380e+001 1.138294e+002 -1.580265e-001 1.326697e+002
530000000 -2.436446e-001 -1.443748e+002 -5.002888e+001 1.154295e+002 -5.035503e+001 1.090316e+002 -1.603191e-001 1.327094e+002
530625000 -2.500444e-001 -1.447220e+002 -5.034780e+001 1.123426e+002 -4.996920e+001 1.098708e+002 -1.548132e-001 1.326966e+002
531250000 -2.536600e-001 -1.451047e+002 -5.081637e+001 1.144525e+002 -4.975108e+001 1.136059e+002 -1.477206e-001 1.326850e+002
531875000 -2.660880e-001 -1.454554e+002 -4.971943e+001 1.111203e+002 -5.036533e+001 1.136220e+002 -1.676314e-001 1.326931e+002
532500000 -2.755415e-001 -1.457977e+002 -5.003781e+001 1.138523e+002 -5.017637e+001 1.084551e+002 -1.564937e-001 1.327133e+002
533125000 -2.735035e-001 -1.462039e+002 -4.986313e+001 1.125702e+002 -5.002439e+001 1.122696e+002 -1.648104e-001 1.327698e+002
533750000 -2.907991e-001 -1.466040e+002 -5.025898e+001 1.088646e+002 -4.957334e+001 1.108846e+002 -1.759314e-001 1.327192e+002
534375000 -2.934963e-001 -1.470043e+002 -4.933577e+001 1.098118e+002 -4.940854e+001 1.072653e+002 -1.565093e-001 1.326593e+002
535000000 -3.084418e-001 -1.473467e+002 -4.868605e+001 1.074859e+002 -4.946418e+001 1.053811e+002 -1.613024e-001 1.326641e+002
535625000 -3.133185e-001 -1.477332e+002 -4.879662e+001 1.106289e+002 -4.914430e+001 1.083148e+002 -1.658510e-001 1.326214e+002
536250000 -3.203810e-001 -1.481519e+002 -4.884188e+001 1.042578e+002 -4.898732e+001 1.104318e+002 -1.608270e-001 1.324956e+002
536875000 -3.373647e-001 -1.485694e+002 -4.892725e+001 1.084194e+002 -4.895748e+001 1.057338e+002 -1.745808e-001 1.325013e+002
537500000 -3.514089e-001 -1.488941e+002 -4.913686e+001 1.025437e+002 -4.876350e+001 1.052491e+002 -1.752179e-001 1.324469e+002
538125000 -3.548015e-001 -1.493142e+002 -4.864739e+001 1.024915e+002 -4.870016e+001 1.013851e+002 -1.794628e-001 1.323339e+002
538750000 -3.764941e-001 -1.497248e+002 -4.856620e+001 1.010747e+002 -4.840680e+001 1.028769e+002 -1.824814e-001 1.322761e+002
539375000 -3.853842e-001 -1.500775e+002 -4.847104e+001 1.008193e+002 -4.827919e+001 1.002581e+002 -1.794378e-001 1.321986e+002
540000000 -3.938058e-001 -1.504617e+002 -4.847678e+001 1.011024e+002 -4.878601e+001 1.014202e+002 -1.819573e-001 1.320497e+002
540625000 -4.025654e-001 -1.508616e+002 -4.786496e+001 1.013379e+002 -4.759203e+001 1.025407e+002 -1.820911e-001 1.319533e+002
541250000 -4.154869e-001 -1.512070e+002 -4.840127e+001 1.015991e+002 -4.766456e+001 1.014688e+002 -1.768546e-001 1.318916e+002
541875000 -4.309855e-001 -1.515628e+002 -4.750175e+001 1.008989e+002 -4.780848e+001 1.002803e+002 -1.904141e-001 1.317805e+002
542500000 -4.385805e-001 -1.519603e+002 -4.786512e+001 9.833035e+001 -4.747828e+001 9.706637e+001 -1.731627e-001 1.317364e+002
543125000 -4.467375e-001 -1.523800e+002 -4.750401e+001 1.007508e+002 -4.736980e+001 9.763295e+001 -1.780750e-001 1.315941e+002
543750000 -4.579314e-001 -1.527321e+002 -4.692516e+001 9.520362e+001 -4.730991e+001 9.488882e+001 -1.796292e-001 1.315844e+002
544375000 -4.811268e-001 -1.531287e+002 -4.718243e+001 9.867606e+001 -4.739445e+001 9.691954e+001 -1.776824e-001 1.314848e+002
545000000 -4.843293e-001 -1.534874e+002 -4.686601e+001 9.674921e+001 -4.670798e+001 9.568559e+001 -1.707172e-001 1.314969e+002
545625000 -5.021469e-001 -1.538589e+002 -4.684096e+001 9.393831e+001 -4.668589e+001 9.331646e+001 -1.688464e-001 1.314068e+002
546250000 -5.240019e-001 -1.543007e+002 -4.659438e+001 9.169453e+001 -4.636294e+001 9.407877e+001 -1.792901e-001 1.313400e+002
546875000 -5.365605e-001 -1.546809e+002 -4.621191e+001 9.297478e+001 -4.686652e+001 9.226244e+001 -1.884737e-001 1.313359e+002
547500000 -5.609542e-001 -1.551037e+002 -4.640981e+001 8.889879e+001 -4.634708e+001 9.339853e+001 -1.835034e-001 1.312529e+002
548125000 -5.898228e-001 -1.554283e+002 -4.646197e+001 9.286286e+001 -4.608498e+001 8.970161e+001 -1.750666e-001 1.311555e+002
548750000 -5.985553e-001 -1.558928e+002 -4.605098e+001 8.756041e+001 -4.627144e+001 9.052386e+001 -1.851434e-001 1.310884e+002
549375000 -6.248692e-001 -1.563194e+002 -4.594944e+001 8.932748e+001 -4.589294e+001 8.953534e+001 -1.886151e-001 1.308900e+002
550000000 -6.405210e-001 -1.566845e+002 -4.607304e+001 8.783393e+001 -4.599572e+001 8.788084e+001 -1.936392e-001 1.308350e+002
550625000 -6.659768e-001 -1.571057e+002 -4.567799e+001 9.008717e+001 -4.581086e+001 8.689870e+001 -1.862284e-001 1.306993e+002
551250000 -6.788601e-001 -1.574736e+002 -4.557870e+001 8.706266e+001 -4.581564e+001 8.820364e+001 -1.911702e-001 1.305691e+002
551875000 -7.056920e-001 -1.578925e+002 -4.553775e+001 8.461125e+001 -4.575489e+001 8.304530e+001 -1.847096e-001 1.304140e+002
552500000 -7.244564e-001 -1.583150e+002 -4.583252e+001 8.370125e+001 -4.567447e+001 8.233557e+001 -1.979427e-001 1.302528e+002
553125000 -7.344602e-001 -1.586716e+002 -4.534189e+001 8.208829e+001 -4.502110e+001 8.341673e+001 -1.951014e-001 1.301423e+002
553750000 -7.675425e-001 -1.590606e+002 -4.482977e+001 8.271889e+001 -4.508538e+001 8.199303e+001 -2.021545e-001 1.299088e+002
554375000 -7.838973e-001 -1.594497e+002 -4.505477e+001 8.059721e+001 -4.556358e+001 8.078034e+001 -2.017552e-001 1.297781e+002
555000000 -8.065492e-001 -1.598846e+002 -4.509336e+001 7.679694e+001 -4.509899e+001 8.102054e+001 -1.949282e-001 1.296689e+002
555625000 -8.333403e-001 -1.602252e+002 -4.502095e+001 7.956675e+001 -4.487653e+001 7.976656e+001 -1.856411e-001 1.295950e+002
556250000 -8.595274e-001 -1.606521e+002 -4.436168e+001 8.078835e+001 -4.451299e+001 7.888435e+001 -1.930341e-001 1.294076e+002
556875000 -8.752140e-001 -1.610517e+002 -4.457527e+001 7.848929e+001 -4.489879e+001 7.694344e+001 -1.929428e-001 1.293629e+002
557500000 -9.129148e-001 -1.613885e+002 -4.445955e+001 7.786135e+001 -4.426596e+001 7.714043e+001 -1.768363e-001 1.292754e+002
558125000 -9.428061e-001 -1.618029e+002 -4.410700e+001 7.444085e+001 -4.421854e+001 7.347169e+001 -1.805434e-001 1.292766e+002
558750000 -9.620259e-001 -1.621421e+002 -4.443051e+001 7.713697e+001 -4.419203e+001 7.320776e+001 -1.682710e-001 1.292296e+002
559375000 -1.000998e+000 -1.625037e+002 -4.437543e+001 7.335326e+001 -4.408654e+001 7.244859e+001 -1.637994e-001 1.292525e+002
560000000 -1.036487e+000 -1.628342e+002 -4.422842e+001 7.281106e+001 -4.397099e+001 7.325178e+001 -1.494256e-001 1.292367e+002
560625000 -1.062343e+000 -1.631442e+002 -4.380490e+001 7.140240e+001 -4.385044e+001 7.183747e+001 -1.531219e-001 1.293219e+002
561250000 -1.104114e+000 -1.634680e+002 -4.383518e+001 7.001505e+001 -4.376022e+001 7.263351e+001 -1.456855e-001 1.293576e+002
561875000 -1.135844e+000 -1.638635e+002 -4.366254e+001 6.987866e+001 -4.369548e+001 7.196790e+001 -1.523171e-001 1.294254e+002
562500000 -1.173078e+000 -1.641704e+002 -4.348314e+001 6.929402e+001 -4.385947e+001 7.036605e+001 -1.484439e-001 1.295058e+002
563125000 -1.199801e+000 -1.645029e+002 -4.356332e+001 6.693809e+001 -4.354317e+001 6.800208e+001 -1.439968e-001 1.295673e+002
563750000 -1.242913e+000 -1.648644e+002 -4.283815e+001 6.791426e+001 -4.340738e+001 6.815716e+001 -1.509473e-001 1.296215e+002
564375000 -1.272528e+000 -1.651470e+002 -4.319248e+001 6.624917e+001 -4.338408e+001 6.595570e+001 -1.522344e-001 1.296755e+002
565000000 -1.309576e+000 -1.655997e+002 -4.289399e+001 6.481113e+001 -4.315620e+001 6.464632e+001 -1.639397e-001 1.296662e+002
565625000 -1.342101e+000 -1.659142e+002 -4.295573e+001 6.399188e+001 -4.286637e+001 6.418750e+001 -1.576829e-001 1.297106e+002
566250000 -1.375183e+000 -1.663938e+002 -4.246967e+001 6.352943e+001 -4.254191e+001 6.268728e+001 -1.675431e-001 1.297413e+002
566875000 -1.426119e+000 -1.667327e+002 -4.250269e+001 6.076240e+001 -4.250145e+001 6.158285e+001 -1.742584e-001 1.296142e+002
567500000 -1.464606e+000 -1.671946e+002 -4.264882e+001 5.972443e+001 -4.239838e+001 5.877405e+001 -1.679351e-001 1.296311e+002
568125000 -1.501044e+000 -1.675831e+002 -4.220024e+001 5.801293e+001 -4.246034e+001 5.822214e+001 -1.880312e-001 1.295753e+002
568750000 -1.546849e+000 -1.679752e+002 -4.225333e+001 5.805131e+001 -4.246075e+001 5.755166e+001 -1.823636e-001 1.295059e+002
569375000 -1.595372e+000 -1.683783e+002 -4.216716e+001 5.593857e+001 -4.196235e+001 5.533724e+001 -1.864357e-001 1.294354e+002
570000000 -1.641804e+000 -1.687417e+002 -4.165295e+001 5.512778e+001 -4.220169e+001 5.453163e+001 -1.875754e-001 1.293483e+002
570625000 -1.687155e+000 -1.691422e+002 -4.188448e+001 5.482843e+001 -4.193490e+001 5.432573e+001 -1.856072e-001 1.293345e+002
571250000 -1.736405e+000 -1.694422e+002 -4.161989e+001 5.048618e+001 -4.180775e+001 5.190451e+001 -1.934816e-001 1.292413e+002
571875000 -1.792503e+000 -1.698056e+002 -4.173577e+001 5.061065e+001 -4.163431e+001 5.019963e+001 -1.814759e-001 1.291983e+002
572500000 -1.828864e+000 -1.701006e+002 -4.164246e+001 4.892579e+001 -4.167287e+001 4.888822e+001 -1.941211e-001 1.290751e+002
573125000 -1.880340e+000 -1.703388e+002 -4.161856e+001 4.697132e+001 -4.165493e+001 4.843593e+001 -1.841001e-001 1.290184e+002
573750000 -1.915449e+000 -1.706274e+002 -4.157285e+001 4.668172e+001 -4.166458e+001 4.638663e+001 -1.927348e-001 1.289160e+002
574375000 -1.953725e+000 -1.708328e+002 -4.167318e+001 4.347439e+001 -4.153399e+001 4.482732e+001 -1.801716e-001 1.289286e+002
575000000 -1.985144e+000 -1.711657e+002 -4.144057e+001 4.419056e+001 -4.139559e+001 4.342786e+001 -1.918754e-001 1.288527e+002
575625000 -2.031159e+000 -1.713450e+002 -4.115743e+001 4.158850e+001 -4.146258e+001 4.200327e+001 -1.872068e-001 1.287341e+002
576250000 -2.061491e+000 -1.715466e+002 -4.133868e+001 4.020774e+001 -4.143671e+001 4.249325e+001 -1.941413e-001 1.286536e+002
576875000 -2.094677e+000 -1.718236e+002 -4.110527e+001 3.976324e+001 -4.122215e+001 4.009266e+001 -1.937840e-001 1.286313e+002
577500000 -2.137885e+000 -1.720809e+002 -4.115723e+001 3.875311e+001 -4.117816e+001 3.890852e+001 -1.903909e-001 1.284768e+002
578125000 -2.172292e+000 -1.723356e+002 -4.110633e+001 3.792347e+001 -4.103025e+001 3.804630e+001 -1.914497e-001 1.284138e+002
578750000 -2.204951e+000 -1.726120e+002 -4.097834e+001 3.723030e+001 -4.081977e+001 3.748959e+001 -1.996295e-001 1.282734e+002
579375000 -2.239586e+000 -1.728643e+002 -4.083656e+001 3.477359e+001 -4.071132e+001 3.673494e+001 -2.046586e-001 1.280677e+002
580000000 -2.281868e+000 -1.730622e+002 -4.077801e+001 3.376684e+001 -4.068182e+001 3.601584e+001 -2.088417e-001 1.279001e+002
580625000 -2.323544e+000 -1.733395e+002 -4.068575e+001 3.183996e+001 -4.056941e+001 3.324108e+001 -2.117199e-001 1.277554e+002
581250000 -2.356442e+000 -1.735465e+002 -4.064438e+001 3.201805e+001 -4.067188e+001 3.330038e+001 -2.152192e-001 1.275594e+002
581875000 -2.400116e+000 -1.738240e+002 -4.051757e+001 3.132997e+001 -4.052408e+001 3.045819e+001 -2.209697e-001 1.273092e+002
582500000 -2.441536e+000 -1.739771e+002 -4.047253e+001 2.916839e+001 -4.036560e+001 3.043917e+001 -2.157930e-001 1.271412e+002
583125000 -2.473369e+000 -1.742785e+002 -4.038331e+001 2.710339e+001 -4.041806e+001 2.818923e+001 -2.282830e-001 1.268254e+002
583750000 -2.507155e+000 -1.745072e+002 -4.044597e+001 2.752873e+001 -4.021745e+001 2.781094e+001 -2.346586e-001 1.266345e+002
584375000 -2.542333e+000 -1.747405e+002 -4.021122e+001 2.650404e+001 -4.024818e+001 2.511065e+001 -2.267277e-001 1.264116e+002
585000000 -2.558595e+000 -1.749559e+002 -4.020823e+001 2.460719e+001 -4.021324e+001 2.435217e+001 -2.306071e-001 1.261970e+002
585625000 -2.586339e+000 -1.751976e+002 -4.044346e+001 2.234952e+001 -4.020266e+001 2.245842e+001 -2.109199e-001 1.259905e+002
586250000 -2.605879e+000 -1.754596e+002 -4.041052e+001 2.186316e+001 -4.015184e+001 2.229200e+001 -2.062757e-001 1.258993e+002
586875000 -2.620181e+000 -1.757387e+002 -4.028152e+001 2.101310e+001 -4.020868e+001 2.005277e+001 -2.122736e-001 1.257170e+002
587500000 -2.650627e+000 -1.760151e+002 -4.025036e+001 1.917513e+001 -4.021672e+001 1.993224e+001 -2.020075e-001 1.255547e+002
588125000 -2.661900e+000 -1.762766e+002 -4.013658e+001 1.770556e+001 -4.029147e+001 1.782863e+001 -1.994050e-001 1.255149e+002
588750000 -2.677059e+000 -1.765122e+002 -4.007959e+001 1.716146e+001 -4.034444e+001 1.773347e+001 -1.972775e-001 1.254252e+002
589375000 -2.695210e+000 -1.767796e+002 -4.005181e+001 1.614618e+001 -4.032481e+001 1.737172e+001 -1.831524e-001 1.253530e+002
590000000 -2.718208e+000 -1.770504e+002 -4.020308e+001 1.424426e+001 -4.010255e+001 1.596773e+001 -1.728445e-001 1.253256e+002
590625000 -2.732750e+000 -1.772758e+002 -4.023073e+001 1.473912e+001 -4.020065e+001 1.418310e+001 -1.713654e-001 1.253182e+002
591250000 -2.766442e+000 -1.775188e+002 -4.030050e+001 1.472054e+001 -4.012031e+001 1.314546e+001 -1.661390e-001 1.253684e+002
591875000 -2.786750e+000 -1.776717e+002 -4.018822e+001 1.261160e+001 -4.002836e+001 1.264263e+001 -1.617383e-001 1.253816e+002
592500000 -2.805971e+000 -1.778881e+002 -3.992227e+001 1.088022e+001 -4.017474e+001 1.162429e+001 -1.653758e-001 1.255104e+002
593125000 -2.835341e+000 -1.780356e+002 -4.002561e+001 1.123196e+001 -4.001946e+001 1.099786e+001 -1.609947e-001 1.255484e+002
593750000 -2.853421e+000 -1.782233e+002 -3.990683e+001 1.015837e+001 -3.984380e+001 9.712481e+000 -1.518714e-001 1.256690e+002
594375000 -2.865625e+000 -1.782882e+002 -3.988006e+001 9.592587e+000 -3.984396e+001 7.339576e+000 -1.504554e-001 1.256820e+002
595000000 -2.877601e+000 -1.784123e+002 -3.984383e+001 8.442388e+000 -3.970975e+001 7.836520e+000 -1.695738e-001 1.257715e+002
595625000 -2.887605e+000 -1.785808e+002 -3.995814e+001 7.854370e+000 -3.970763e+001 7.350453e+000 -1.661265e-001 1.257886e+002
596250000 -2.901571e+000 -1.787282e+002 -3.972796e+001 6.493857e+000 -3.981810e+001 6.349224e+000 -1.685342e-001 1.258943e+002
