!Agilent Technologies,E8364B,US42250235,A.06.04.32
!Agilent E8364B: A.06.04.32
!Date: Friday, January 15, 2021 16:22:33
!Correction: S11(Full 2 Port(1,2)) S21(Full 2 Port(1,2)) S12(Full 2 Port(1,2)) S22(Full 2 Port(1,2)) 
!S2P File: Measurements: S11, S21, S12, S22:
# Hz S  dB   R 50
500000000 -1.066334e-001 -1.297984e+002 -5.446103e+001 9.814952e+001 -5.444561e+001 9.652638e+001 -1.540925e-001 1.356370e+002
500625000 -1.104481e-001 -1.300692e+002 -5.364724e+001 9.614798e+001 -5.475568e+001 9.242094e+001 -1.660429e-001 1.356252e+002
501250000 -1.206494e-001 -1.303085e+002 -5.482412e+001 9.203113e+001 -5.459467e+001 9.880377e+001 -1.554348e-001 1.355178e+002
501875000 -1.158239e-001 -1.305980e+002 -5.430817e+001 9.347540e+001 -5.432555e+001 8.983537e+001 -1.449079e-001 1.354288e+002
502500000 -1.191377e-001 -1.308849e+002 -5.355704e+001 9.178602e+001 -5.489911e+001 9.317075e+001 -1.515192e-001 1.354494e+002
503125000 -1.294386e-001 -1.311346e+002 -5.392315e+001 9.254813e+001 -5.390064e+001 9.721475e+001 -1.569436e-001 1.352848e+002
503750000 -1.353740e-001 -1.314098e+002 -5.305018e+001 9.133125e+001 -5.401255e+001 7.816171e+001 -1.606790e-001 1.352163e+002
504375000 -1.409668e-001 -1.316842e+002 -5.319564e+001 9.493623e+001 -5.464562e+001 9.313814e+001 -1.697867e-001 1.351394e+002
505000000 -1.452590e-001 -1.319515e+002 -5.346905e+001 9.586768e+001 -5.383198e+001 8.802370e+001 -1.697041e-001 1.351155e+002
505625000 -1.457428e-001 -1.321741e+002 -5.316816e+001 8.865245e+001 -5.347696e+001 8.829846e+001 -1.728998e-001 1.349284e+002
506250000 -1.542152e-001 -1.324673e+002 -5.267404e+001 9.355838e+001 -5.321019e+001 8.889627e+001 -1.785329e-001 1.347875e+002
506875000 -1.565361e-001 -1.327059e+002 -5.269544e+001 9.154021e+001 -5.282145e+001 8.590733e+001 -1.662025e-001 1.345795e+002
507500000 -1.605928e-001 -1.329959e+002 -5.260511e+001 8.192586e+001 -5.243337e+001 8.641162e+001 -1.822938e-001 1.343593e+002
508125000 -1.676202e-001 -1.331960e+002 -5.297450e+001 9.041828e+001 -5.290178e+001 8.361225e+001 -1.834404e-001 1.342444e+002
508750000 -1.736433e-001 -1.334664e+002 -5.289729e+001 8.810967e+001 -5.281271e+001 8.595696e+001 -1.872898e-001 1.339872e+002
509375000 -1.816024e-001 -1.337708e+002 -5.178878e+001 8.498866e+001 -5.226094e+001 8.050978e+001 -1.797821e-001 1.338368e+002
510000000 -1.825634e-001 -1.340712e+002 -5.325674e+001 8.451778e+001 -5.242735e+001 8.860885e+001 -1.916819e-001 1.336027e+002
510625000 -1.940121e-001 -1.342224e+002 -5.205947e+001 8.137910e+001 -5.186702e+001 7.918130e+001 -1.809478e-001 1.334008e+002
511250000 -2.024192e-001 -1.345114e+002 -5.197530e+001 8.334254e+001 -5.191909e+001 7.705987e+001 -1.872291e-001 1.331615e+002
511875000 -2.068524e-001 -1.348697e+002 -5.170386e+001 7.865558e+001 -5.145501e+001 8.108689e+001 -1.797250e-001 1.329136e+002
512500000 -2.106998e-001 -1.351314e+002 -5.125587e+001 8.315173e+001 -5.178048e+001 8.173901e+001 -1.824661e-001 1.327311e+002
513125000 -2.273688e-001 -1.354536e+002 -5.189954e+001 7.154195e+001 -5.268913e+001 7.390913e+001 -1.938677e-001 1.326276e+002
513750000 -2.346946e-001 -1.357060e+002 -5.109625e+001 7.436199e+001 -5.202573e+001 7.027301e+001 -1.854422e-001 1.323449e+002
514375000 -2.509986e-001 -1.360476e+002 -5.162966e+001 7.155910e+001 -5.127575e+001 7.336678e+001 -1.803660e-001 1.322090e+002
515000000 -2.505155e-001 -1.363022e+002 -5.144002e+001 7.611613e+001 -5.133036e+001 7.401776e+001 -1.703781e-001 1.320841e+002
515625000 -2.626252e-001 -1.366925e+002 -5.041711e+001 7.479019e+001 -5.137741e+001 7.241679e+001 -1.676006e-001 1.319639e+002
516250000 -2.698008e-001 -1.369789e+002 -5.123471e+001 7.474991e+001 -5.108261e+001 6.986827e+001 -1.759854e-001 1.318004e+002
516875000 -2.881867e-001 -1.373034e+002 -5.070975e+001 7.320757e+001 -5.099609e+001 7.273215e+001 -1.613973e-001 1.318659e+002
517500000 -2.894974e-001 -1.376078e+002 -5.026511e+001 7.007985e+001 -5.081981e+001 6.973956e+001 -1.571890e-001 1.317261e+002
518125000 -3.019101e-001 -1.380289e+002 -5.064906e+001 6.997774e+001 -5.020118e+001 6.910419e+001 -1.548964e-001 1.316811e+002
518750000 -3.231327e-001 -1.383353e+002 -5.043657e+001 7.035699e+001 -5.084878e+001 6.768796e+001 -1.583142e-001 1.317254e+002
519375000 -3.365587e-001 -1.386249e+002 -5.070100e+001 6.512543e+001 -5.102018e+001 6.714143e+001 -1.405075e-001 1.316418e+002
520000000 -3.412971e-001 -1.389854e+002 -5.038931e+001 6.501694e+001 -5.014504e+001 6.601386e+001 -1.439038e-001 1.316608e+002
520625000 -3.539405e-001 -1.393731e+002 -5.030516e+001 6.564333e+001 -5.008324e+001 6.567057e+001 -1.376059e-001 1.316350e+002
521250000 -3.629331e-001 -1.396864e+002 -4.998018e+001 6.320574e+001 -4.945866e+001 6.423079e+001 -1.393995e-001 1.316658e+002
521875000 -3.696418e-001 -1.400504e+002 -5.019352e+001 6.449361e+001 -4.955161e+001 6.519009e+001 -1.354542e-001 1.317309e+002
522500000 -3.800834e-001 -1.403393e+002 -4.943364e+001 6.239066e+001 -4.980916e+001 6.386383e+001 -1.422217e-001 1.317222e+002
523125000 -3.995462e-001 -1.406642e+002 -4.936363e+001 5.691824e+001 -4.955433e+001 5.993407e+001 -1.401782e-001 1.317637e+002
523750000 -4.058043e-001 -1.410027e+002 -4.891181e+001 5.958076e+001 -4.914338e+001 6.098480e+001 -1.399179e-001 1.317677e+002
524375000 -4.187378e-001 -1.413025e+002 -4.985718e+001 5.744894e+001 -4.976459e+001 5.332722e+001 -1.386910e-001 1.317518e+002
525000000 -4.225209e-001 -1.416165e+002 -4.975097e+001 5.512283e+001 -5.010730e+001 5.729863e+001 -1.395806e-001 1.317845e+002
525625000 -4.472728e-001 -1.418966e+002 -4.945180e+001 5.440546e+001 -4.891945e+001 5.714302e+001 -1.482511e-001 1.317486e+002
526250000 -4.480751e-001 -1.421899e+002 -4.852612e+001 5.424953e+001 -4.853631e+001 5.233950e+001 -1.467611e-001 1.318166e+002
526875000 -4.627875e-001 -1.425224e+002 -4.912583e+001 5.078988e+001 -4.871449e+001 5.404066e+001 -1.346249e-001 1.317815e+002
527500000 -4.785394e-001 -1.428328e+002 -4.840984e+001 5.070364e+001 -4.910342e+001 5.092250e+001 -1.410816e-001 1.317787e+002
528125000 -4.972150e-001 -1.431150e+002 -4.826435e+001 4.839523e+001 -4.856308e+001 4.961106e+001 -1.546241e-001 1.318276e+002
528750000 -5.012235e-001 -1.433953e+002 -4.838329e+001 4.549636e+001 -4.862750e+001 4.934665e+001 -1.432343e-001 1.319612e+002
529375000 -5.151892e-001 -1.436855e+002 -4.865766e+001 4.343240e+001 -4.812407e+001 4.745803e+001 -1.551606e-001 1.318795e+002
530000000 -5.300572e-001 -1.440102e+002 -4.852452e+001 4.628812e+001 -4.842894e+001 4.767740e+001 -1.598933e-001 1.319169e+002
530625000 -5.450826e-001 -1.442951e+002 -4.810458e+001 4.517240e+001 -4.844194e+001 4.520269e+001 -1.537776e-001 1.318920e+002
531250000 -5.505468e-001 -1.446310e+002 -4.817172e+001 4.219577e+001 -4.845864e+001 4.212388e+001 -1.456560e-001 1.319020e+002
531875000 -5.721589e-001 -1.448781e+002 -4.764636e+001 4.623558e+001 -4.813902e+001 4.310762e+001 -1.508453e-001 1.318995e+002
532500000 -5.778798e-001 -1.451781e+002 -4.802961e+001 4.125636e+001 -4.822514e+001 4.133122e+001 -1.536280e-001 1.319559e+002
533125000 -5.828435e-001 -1.455027e+002 -4.771259e+001 4.321291e+001 -4.763627e+001 4.164516e+001 -1.567398e-001 1.319229e+002
533750000 -5.914473e-001 -1.458116e+002 -4.753839e+001 3.771469e+001 -4.794767e+001 4.223916e+001 -1.714024e-001 1.318595e+002
534375000 -6.118211e-001 -1.461803e+002 -4.743891e+001 4.008744e+001 -4.755719e+001 3.737135e+001 -1.489829e-001 1.318153e+002
535000000 -6.193620e-001 -1.464225e+002 -4.799645e+001 3.805890e+001 -4.796877e+001 3.682889e+001 -1.647149e-001 1.317959e+002
535625000 -6.352625e-001 -1.467767e+002 -4.748834e+001 3.613638e+001 -4.732203e+001 3.603879e+001 -1.648078e-001 1.317312e+002
536250000 -6.475433e-001 -1.470901e+002 -4.704546e+001 3.439100e+001 -4.760775e+001 3.256025e+001 -1.552919e-001 1.316481e+002
536875000 -6.621671e-001 -1.474018e+002 -4.702683e+001 3.095928e+001 -4.749886e+001 3.209936e+001 -1.659414e-001 1.315732e+002
537500000 -6.744707e-001 -1.476692e+002 -4.724996e+001 2.965314e+001 -4.737609e+001 3.325977e+001 -1.640790e-001 1.315426e+002
538125000 -6.784553e-001 -1.480251e+002 -4.742270e+001 3.085041e+001 -4.699424e+001 3.080485e+001 -1.735631e-001 1.314337e+002
538750000 -7.003018e-001 -1.482905e+002 -4.723386e+001 2.937622e+001 -4.683736e+001 2.629814e+001 -1.717001e-001 1.313522e+002
539375000 -7.159083e-001 -1.485903e+002 -4.682163e+001 2.766952e+001 -4.690322e+001 2.521702e+001 -1.700086e-001 1.312862e+002
540000000 -7.190038e-001 -1.488642e+002 -4.702193e+001 2.522490e+001 -4.702168e+001 2.761062e+001 -1.737130e-001 1.311945e+002
540625000 -7.360486e-001 -1.491413e+002 -4.666900e+001 2.265800e+001 -4.673618e+001 2.652577e+001 -1.743594e-001 1.311147e+002
541250000 -7.405142e-001 -1.494187e+002 -4.679546e+001 2.419636e+001 -4.664678e+001 2.085712e+001 -1.696731e-001 1.310225e+002
541875000 -7.485223e-001 -1.496937e+002 -4.669750e+001 2.295658e+001 -4.687408e+001 2.132552e+001 -1.767256e-001 1.309256e+002
542500000 -7.581195e-001 -1.499207e+002 -4.687379e+001 2.079562e+001 -4.677438e+001 2.013797e+001 -1.652558e-001 1.308542e+002
543125000 -7.574539e-001 -1.502567e+002 -4.666014e+001 1.788778e+001 -4.652376e+001 2.079317e+001 -1.665097e-001 1.307377e+002
543750000 -7.691779e-001 -1.504704e+002 -4.689299e+001 1.911830e+001 -4.674987e+001 1.798397e+001 -1.762058e-001 1.307161e+002
544375000 -7.810156e-001 -1.507777e+002 -4.627508e+001 1.733522e+001 -4.642545e+001 1.811544e+001 -1.636311e-001 1.306402e+002
545000000 -7.835890e-001 -1.510357e+002 -4.686536e+001 1.653571e+001 -4.623613e+001 1.537717e+001 -1.640976e-001 1.306327e+002
545625000 -8.020563e-001 -1.513268e+002 -4.628917e+001 1.573842e+001 -4.629815e+001 1.806756e+001 -1.702347e-001 1.306229e+002
546250000 -8.083892e-001 -1.515971e+002 -4.600550e+001 1.483375e+001 -4.652852e+001 1.523288e+001 -1.790251e-001 1.305306e+002
546875000 -8.193494e-001 -1.519224e+002 -4.673951e+001 1.207323e+001 -4.648401e+001 1.099024e+001 -1.667321e-001 1.305037e+002
547500000 -8.312081e-001 -1.521600e+002 -4.588294e+001 1.105450e+001 -4.639454e+001 1.117757e+001 -1.714017e-001 1.304382e+002
548125000 -8.474939e-001 -1.524134e+002 -4.626948e+001 1.169959e+001 -4.623050e+001 8.832868e+000 -1.716475e-001 1.303296e+002
548750000 -8.535254e-001 -1.527539e+002 -4.599779e+001 1.007939e+001 -4.611565e+001 7.845317e+000 -1.799099e-001 1.302821e+002
549375000 -8.651487e-001 -1.530217e+002 -4.616290e+001 7.372018e+000 -4.571131e+001 6.174524e+000 -1.851417e-001 1.300553e+002
550000000 -8.668004e-001 -1.532597e+002 -4.562195e+001 6.867866e+000 -4.578295e+001 6.527508e+000 -1.887542e-001 1.300581e+002
550625000 -8.801354e-001 -1.535506e+002 -4.587002e+001 5.044124e+000 -4.573120e+001 3.927138e+000 -1.849484e-001 1.299084e+002
551250000 -8.801282e-001 -1.538505e+002 -4.625954e+001 2.984468e+000 -4.578498e+001 2.420763e+000 -1.849999e-001 1.297966e+002
551875000 -8.963716e-001 -1.541512e+002 -4.557357e+001 6.768789e-001 -4.563707e+001 7.093350e-001 -1.897494e-001 1.295793e+002
552500000 -8.952394e-001 -1.544356e+002 -4.567063e+001 -1.173724e+000 -4.580750e+001 -6.832067e-001 -1.910041e-001 1.294086e+002
553125000 -8.936643e-001 -1.547091e+002 -4.565217e+001 3.110612e-001 -4.591668e+001 -8.957406e-001 -1.877006e-001 1.293301e+002
553750000 -9.082950e-001 -1.549993e+002 -4.565725e+001 -1.483488e+000 -4.576723e+001 -1.759297e+000 -1.953887e-001 1.291287e+002
554375000 -9.005862e-001 -1.552715e+002 -4.569963e+001 -1.894129e+000 -4.604428e+001 -1.905880e+000 -1.894834e-001 1.289885e+002
555000000 -9.064505e-001 -1.556034e+002 -4.579659e+001 -2.498042e+000 -4.596964e+001 -4.257963e+000 -1.891351e-001 1.288438e+002
555625000 -9.193931e-001 -1.558752e+002 -4.541506e+001 -5.934751e+000 -4.600351e+001 -4.713426e+000 -1.772010e-001 1.287776e+002
556250000 -9.207308e-001 -1.561878e+002 -4.568926e+001 -6.633578e+000 -4.578207e+001 -6.139168e+000 -1.841139e-001 1.285957e+002
556875000 -9.183684e-001 -1.565337e+002 -4.573360e+001 -7.930823e+000 -4.538594e+001 -5.674595e+000 -1.877175e-001 1.285792e+002
557500000 -9.345853e-001 -1.567897e+002 -4.575533e+001 -6.423784e+000 -4.549796e+001 -8.181721e+000 -1.755335e-001 1.284786e+002
558125000 -9.377892e-001 -1.570309e+002 -4.541566e+001 -8.465645e+000 -4.595625e+001 -8.523391e+000 -1.736130e-001 1.284296e+002
558750000 -9.390576e-001 -1.573406e+002 -4.593126e+001 -5.897289e+000 -4.552439e+001 -1.115702e+001 -1.602523e-001 1.283862e+002
559375000 -9.538720e-001 -1.576165e+002 -4.492073e+001 -1.023129e+001 -4.551094e+001 -1.209441e+001 -1.595780e-001 1.283901e+002
560000000 -9.634904e-001 -1.578774e+002 -4.554356e+001 -1.370606e+001 -4.565605e+001 -1.195000e+001 -1.464075e-001 1.283219e+002
560625000 -9.715943e-001 -1.581192e+002 -4.569168e+001 -1.497304e+001 -4.551177e+001 -1.399675e+001 -1.504214e-001 1.284338e+002
561250000 -9.829671e-001 -1.583882e+002 -4.520245e+001 -1.429471e+001 -4.551645e+001 -1.453446e+001 -1.437793e-001 1.284186e+002
561875000 -9.812183e-001 -1.586699e+002 -4.523814e+001 -1.624437e+001 -4.545677e+001 -1.507187e+001 -1.485234e-001 1.284491e+002
562500000 -9.886668e-001 -1.589845e+002 -4.543621e+001 -1.609301e+001 -4.510928e+001 -1.549949e+001 -1.510694e-001 1.285493e+002
563125000 -9.786479e-001 -1.592184e+002 -4.532215e+001 -1.461793e+001 -4.521272e+001 -1.706525e+001 -1.426412e-001 1.285883e+002
563750000 -9.917290e-001 -1.595788e+002 -4.509951e+001 -1.538918e+001 -4.523831e+001 -1.613154e+001 -1.551063e-001 1.285906e+002
564375000 -9.951693e-001 -1.598960e+002 -4.500165e+001 -1.931598e+001 -4.529568e+001 -1.852515e+001 -1.483470e-001 1.286942e+002
565000000 -9.983150e-001 -1.603188e+002 -4.533760e+001 -2.130181e+001 -4.538521e+001 -1.730983e+001 -1.546245e-001 1.286649e+002
565625000 -1.017533e+000 -1.606696e+002 -4.508700e+001 -1.995622e+001 -4.507856e+001 -1.936076e+001 -1.597724e-001 1.287046e+002
566250000 -1.014629e+000 -1.611154e+002 -4.488680e+001 -2.326227e+001 -4.504071e+001 -2.042049e+001 -1.632396e-001 1.286870e+002
566875000 -1.037331e+000 -1.614208e+002 -4.502030e+001 -2.197331e+001 -4.549047e+001 -2.335191e+001 -1.622008e-001 1.286245e+002
567500000 -1.045384e+000 -1.618627e+002 -4.535477e+001 -2.558436e+001 -4.502246e+001 -2.132000e+001 -1.667970e-001 1.285612e+002
568125000 -1.067655e+000 -1.621942e+002 -4.500722e+001 -2.313402e+001 -4.488256e+001 -2.163023e+001 -1.794485e-001 1.285793e+002
568750000 -1.076550e+000 -1.625855e+002 -4.466195e+001 -2.191605e+001 -4.497526e+001 -2.533873e+001 -1.740478e-001 1.284968e+002
569375000 -1.086444e+000 -1.630123e+002 -4.449118e+001 -2.608842e+001 -4.482720e+001 -2.567073e+001 -1.790071e-001 1.284579e+002
570000000 -1.093147e+000 -1.633834e+002 -4.494567e+001 -2.607630e+001 -4.483344e+001 -2.679042e+001 -1.810819e-001 1.283248e+002
570625000 -1.093993e+000 -1.637973e+002 -4.460827e+001 -2.425692e+001 -4.470048e+001 -2.569943e+001 -1.642882e-001 1.283210e+002
571250000 -1.107980e+000 -1.641724e+002 -4.474534e+001 -2.941012e+001 -4.480512e+001 -2.939925e+001 -1.778889e-001 1.282906e+002
571875000 -1.126937e+000 -1.645638e+002 -4.449782e+001 -3.178696e+001 -4.438282e+001 -2.946824e+001 -1.688074e-001 1.281734e+002
572500000 -1.132119e+000 -1.650138e+002 -4.416859e+001 -3.021106e+001 -4.453409e+001 -3.168865e+001 -1.726153e-001 1.280914e+002
573125000 -1.142383e+000 -1.653496e+002 -4.508791e+001 -3.078764e+001 -4.471441e+001 -3.284082e+001 -1.669529e-001 1.280857e+002
573750000 -1.149548e+000 -1.657829e+002 -4.460520e+001 -3.109855e+001 -4.443887e+001 -3.223837e+001 -1.819084e-001 1.279982e+002
574375000 -1.154488e+000 -1.661883e+002 -4.431868e+001 -3.294559e+001 -4.412717e+001 -3.155580e+001 -1.762149e-001 1.279781e+002
575000000 -1.163890e+000 -1.665690e+002 -4.451644e+001 -3.433362e+001 -4.458465e+001 -3.338587e+001 -1.739019e-001 1.278799e+002
575625000 -1.172445e+000 -1.669862e+002 -4.472897e+001 -3.429247e+001 -4.473059e+001 -3.461088e+001 -1.695324e-001 1.278482e+002
576250000 -1.183347e+000 -1.673445e+002 -4.452959e+001 -3.643412e+001 -4.468208e+001 -3.715143e+001 -1.837109e-001 1.277454e+002
576875000 -1.180365e+000 -1.677620e+002 -4.408289e+001 -3.652320e+001 -4.442559e+001 -3.734454e+001 -1.818861e-001 1.276913e+002
577500000 -1.199238e+000 -1.681715e+002 -4.426680e+001 -3.592302e+001 -4.423615e+001 -3.669921e+001 -1.889466e-001 1.275383e+002
578125000 -1.205818e+000 -1.685776e+002 -4.398789e+001 -3.963628e+001 -4.412291e+001 -3.934702e+001 -1.899295e-001 1.274940e+002
578750000 -1.211508e+000 -1.690508e+002 -4.449159e+001 -3.676440e+001 -4.407891e+001 -3.889665e+001 -1.892034e-001 1.273312e+002
579375000 -1.209956e+000 -1.694353e+002 -4.389938e+001 -4.043444e+001 -4.399038e+001 -3.960557e+001 -1.970298e-001 1.271954e+002
580000000 -1.222293e+000 -1.698484e+002 -4.410703e+001 -4.058302e+001 -4.412056e+001 -4.131437e+001 -2.050857e-001 1.270060e+002
580625000 -1.230270e+000 -1.703425e+002 -4.400394e+001 -4.262053e+001 -4.419054e+001 -4.169455e+001 -2.007333e-001 1.268406e+002
581250000 -1.242076e+000 -1.707691e+002 -4.405794e+001 -4.394359e+001 -4.410539e+001 -4.291341e+001 -2.102662e-001 1.266516e+002
581875000 -1.255058e+000 -1.712376e+002 -4.396430e+001 -4.521334e+001 -4.359117e+001 -4.559967e+001 -2.190127e-001 1.264236e+002
582500000 -1.260257e+000 -1.716593e+002 -4.391123e+001 -4.541624e+001 -4.399004e+001 -4.551397e+001 -2.061387e-001 1.262046e+002
583125000 -1.264357e+000 -1.722365e+002 -4.397510e+001 -4.724398e+001 -4.381460e+001 -4.610132e+001 -2.218758e-001 1.259530e+002
583750000 -1.277001e+000 -1.727245e+002 -4.401853e+001 -4.730870e+001 -4.387257e+001 -4.709369e+001 -2.228279e-001 1.256701e+002
584375000 -1.290407e+000 -1.732504e+002 -4.418444e+001 -4.876195e+001 -4.387804e+001 -4.866966e+001 -2.065272e-001 1.255049e+002
585000000 -1.301786e+000 -1.737982e+002 -4.404303e+001 -4.874045e+001 -4.404128e+001 -5.033267e+001 -2.213427e-001 1.252817e+002
585625000 -1.316035e+000 -1.742653e+002 -4.379163e+001 -5.048633e+001 -4.391389e+001 -5.011567e+001 -2.121038e-001 1.250509e+002
586250000 -1.321232e+000 -1.748592e+002 -4.378247e+001 -4.886989e+001 -4.375032e+001 -4.930091e+001 -2.037318e-001 1.250124e+002
586875000 -1.332582e+000 -1.754072e+002 -4.361750e+001 -5.027182e+001 -4.396833e+001 -5.131213e+001 -1.998761e-001 1.247986e+002
587500000 -1.360186e+000 -1.759264e+002 -4.348738e+001 -5.148105e+001 -4.376344e+001 -5.137467e+001 -1.930199e-001 1.246443e+002
588125000 -1.365518e+000 -1.764332e+002 -4.357345e+001 -5.062030e+001 -4.368435e+001 -5.220125e+001 -1.846388e-001 1.245880e+002
588750000 -1.377061e+000 -1.768979e+002 -4.343574e+001 -5.337717e+001 -4.373965e+001 -5.348200e+001 -1.885984e-001 1.245146e+002
589375000 -1.385159e+000 -1.773873e+002 -4.368973e+001 -5.356578e+001 -4.354442e+001 -5.454191e+001 -1.717699e-001 1.244406e+002
590000000 -1.402026e+000 -1.779232e+002 -4.348785e+001 -5.440418e+001 -4.358039e+001 -5.484596e+001 -1.761851e-001 1.244813e+002
590625000 -1.409458e+000 -1.783990e+002 -4.339330e+001 -5.428866e+001 -4.341699e+001 -5.719057e+001 -1.690160e-001 1.244192e+002
591250000 -1.427980e+000 -1.788733e+002 -4.331205e+001 -5.581889e+001 -4.333775e+001 -5.797299e+001 -1.637148e-001 1.243904e+002
591875000 -1.446326e+000 -1.793006e+002 -4.365509e+001 -5.720019e+001 -4.344415e+001 -5.688908e+001 -1.646459e-001 1.244138e+002
592500000 -1.455272e+000 -1.797871e+002 -4.363738e+001 -5.711724e+001 -4.335677e+001 -5.911981e+001 -1.566393e-001 1.245630e+002
593125000 -1.480754e+000 1.798493e+002 -4.334206e+001 -5.860276e+001 -4.352241e+001 -5.821984e+001 -1.540296e-001 1.246217e+002
593750000 -1.497261e+000 1.793721e+002 -4.349742e+001 -5.845190e+001 -4.325154e+001 -5.997054e+001 -1.556119e-001 1.247400e+002
594375000 -1.507197e+000 1.789252e+002 -4.316098e+001 -5.923234e+001 -4.320604e+001 -5.949306e+001 -1.398597e-001 1.247917e+002
595000000 -1.536860e+000 1.785090e+002 -4.343110e+001 -6.080135e+001 -4.332200e+001 -6.033707e+001 -1.598554e-001 1.248385e+002
595625000 -1.541659e+000 1.780263e+002 -4.319221e+001 -6.110424e+001 -4.305557e+001 -6.162456e+001 -1.539339e-001 1.249164e+002
