!Agilent Technologies,E8364B,US42250235,A.06.04.32
!Agilent E8364B: A.06.04.32
!Date: Friday, January 15, 2021 16:18:04
!Correction: S11(Full 2 Port(1,2)) S21(Full 2 Port(1,2)) S12(Full 2 Port(1,2)) S22(Full 2 Port(1,2)) 
!S2P File: Measurements: S11, S21, S12, S22:
# Hz S  dB   R 50
500000000 -1.173396e-001 -1.295474e+002 -5.987154e+001 1.009090e+002 -6.011468e+001 1.106018e+002 -1.591065e-001 1.352917e+002
500625000 -1.165458e-001 -1.298265e+002 -5.956437e+001 1.163751e+002 -6.050927e+001 1.167180e+002 -1.678261e-001 1.352390e+002
501250000 -1.201178e-001 -1.300560e+002 -6.059522e+001 1.120232e+002 -6.047107e+001 9.959512e+001 -1.676408e-001 1.351957e+002
501875000 -1.256733e-001 -1.302930e+002 -5.970385e+001 9.924340e+001 -6.058176e+001 9.609298e+001 -1.593142e-001 1.351443e+002
502500000 -1.211268e-001 -1.305997e+002 -5.758649e+001 9.307806e+001 -6.041975e+001 9.418632e+001 -1.574045e-001 1.350758e+002
503125000 -1.356689e-001 -1.308554e+002 -5.991718e+001 1.023871e+002 -5.974545e+001 9.826820e+001 -1.600260e-001 1.349523e+002
503750000 -1.319220e-001 -1.311223e+002 -6.244672e+001 9.463207e+001 -6.205977e+001 1.143755e+002 -1.726342e-001 1.348726e+002
504375000 -1.414823e-001 -1.313900e+002 -5.959261e+001 9.968595e+001 -5.834164e+001 9.853883e+001 -1.776728e-001 1.347805e+002
505000000 -1.457644e-001 -1.316459e+002 -5.975692e+001 9.278311e+001 -6.106732e+001 1.046410e+002 -1.817657e-001 1.346987e+002
505625000 -1.459357e-001 -1.318726e+002 -5.999080e+001 8.709804e+001 -6.072608e+001 9.387643e+001 -1.758816e-001 1.345283e+002
506250000 -1.508715e-001 -1.321506e+002 -5.973394e+001 9.046381e+001 -6.055956e+001 1.006839e+002 -1.803422e-001 1.343707e+002
506875000 -1.534119e-001 -1.324285e+002 -5.845370e+001 9.230033e+001 -5.888277e+001 9.228627e+001 -1.784426e-001 1.342219e+002
507500000 -1.571764e-001 -1.326414e+002 -6.193869e+001 9.135243e+001 -5.754345e+001 8.957427e+001 -1.810395e-001 1.339818e+002
508125000 -1.593487e-001 -1.329050e+002 -5.861039e+001 8.437683e+001 -6.082235e+001 9.998037e+001 -1.874222e-001 1.338600e+002
508750000 -1.648126e-001 -1.331224e+002 -5.925142e+001 8.607007e+001 -5.892245e+001 8.873505e+001 -1.914300e-001 1.336566e+002
509375000 -1.775418e-001 -1.334411e+002 -5.980042e+001 8.525584e+001 -5.978651e+001 7.615388e+001 -1.837268e-001 1.334575e+002
510000000 -1.776404e-001 -1.337203e+002 -5.735042e+001 8.137673e+001 -5.831348e+001 8.544138e+001 -1.960521e-001 1.332065e+002
510625000 -1.846729e-001 -1.339279e+002 -5.787363e+001 8.591669e+001 -5.753157e+001 7.646559e+001 -1.843391e-001 1.330379e+002
511250000 -1.834750e-001 -1.341538e+002 -5.780511e+001 8.279922e+001 -5.824447e+001 7.367477e+001 -1.943599e-001 1.328133e+002
511875000 -1.913688e-001 -1.344833e+002 -5.945987e+001 7.142453e+001 -5.869257e+001 7.807821e+001 -1.940690e-001 1.325790e+002
512500000 -1.893683e-001 -1.347569e+002 -5.870129e+001 7.837270e+001 -5.903966e+001 8.042419e+001 -1.961723e-001 1.323509e+002
513125000 -2.079772e-001 -1.350293e+002 -5.810011e+001 7.050911e+001 -6.005085e+001 6.591036e+001 -1.972943e-001 1.322526e+002
513750000 -2.104421e-001 -1.353343e+002 -5.910086e+001 7.603468e+001 -5.660132e+001 6.950385e+001 -1.867532e-001 1.320224e+002
514375000 -2.184679e-001 -1.356139e+002 -5.769600e+001 7.450069e+001 -5.829998e+001 6.335578e+001 -1.859232e-001 1.318961e+002
515000000 -2.236841e-001 -1.359108e+002 -5.795600e+001 8.139881e+001 -6.092965e+001 6.535497e+001 -1.784971e-001 1.317813e+002
515625000 -2.392610e-001 -1.362950e+002 -5.710840e+001 6.469481e+001 -5.805297e+001 7.050490e+001 -1.794579e-001 1.316126e+002
516250000 -2.395661e-001 -1.366185e+002 -5.806540e+001 6.726844e+001 -5.754265e+001 6.034604e+001 -1.689439e-001 1.314513e+002
516875000 -2.599256e-001 -1.369116e+002 -5.768687e+001 7.516605e+001 -5.777523e+001 7.150289e+001 -1.730590e-001 1.314761e+002
517500000 -2.595342e-001 -1.372307e+002 -5.836854e+001 7.870290e+001 -5.764158e+001 7.251509e+001 -1.742405e-001 1.314375e+002
518125000 -2.701451e-001 -1.376034e+002 -5.556973e+001 7.195398e+001 -5.802328e+001 6.513692e+001 -1.603042e-001 1.313988e+002
518750000 -2.806558e-001 -1.379310e+002 -5.637669e+001 6.888942e+001 -5.687917e+001 5.559652e+001 -1.628016e-001 1.313532e+002
519375000 -2.900072e-001 -1.381626e+002 -5.722098e+001 5.728899e+001 -5.708455e+001 6.465296e+001 -1.538052e-001 1.313261e+002
520000000 -2.987631e-001 -1.385449e+002 -5.584767e+001 5.911441e+001 -5.771965e+001 5.437095e+001 -1.503811e-001 1.313186e+002
520625000 -3.090378e-001 -1.388451e+002 -5.643920e+001 5.829056e+001 -5.779512e+001 6.310748e+001 -1.465061e-001 1.312543e+002
521250000 -3.156473e-001 -1.391951e+002 -5.732638e+001 5.868227e+001 -5.803885e+001 6.066436e+001 -1.425337e-001 1.313171e+002
521875000 -3.150131e-001 -1.395528e+002 -5.609930e+001 5.625865e+001 -5.729313e+001 5.702576e+001 -1.446192e-001 1.313964e+002
522500000 -3.187236e-001 -1.398296e+002 -5.690253e+001 5.057410e+001 -5.690326e+001 4.957585e+001 -1.463676e-001 1.313572e+002
523125000 -3.301986e-001 -1.402124e+002 -5.720566e+001 5.639423e+001 -5.735747e+001 4.813763e+001 -1.491767e-001 1.313908e+002
523750000 -3.295357e-001 -1.405222e+002 -5.579473e+001 4.970599e+001 -5.728527e+001 5.715747e+001 -1.519082e-001 1.314277e+002
524375000 -3.427204e-001 -1.409030e+002 -5.639026e+001 5.126079e+001 -5.610052e+001 5.294258e+001 -1.354473e-001 1.314393e+002
525000000 -3.422639e-001 -1.412003e+002 -5.492006e+001 5.763575e+001 -5.731228e+001 3.989052e+001 -1.502476e-001 1.314778e+002
525625000 -3.691787e-001 -1.414563e+002 -5.584962e+001 4.756718e+001 -5.642595e+001 4.193070e+001 -1.528420e-001 1.314575e+002
526250000 -3.620719e-001 -1.417664e+002 -5.618457e+001 3.869199e+001 -5.673593e+001 4.446056e+001 -1.526374e-001 1.315045e+002
526875000 -3.762413e-001 -1.421324e+002 -5.773069e+001 4.308201e+001 -5.530124e+001 3.779092e+001 -1.457785e-001 1.315062e+002
527500000 -3.862007e-001 -1.424460e+002 -5.642700e+001 4.413175e+001 -5.550022e+001 4.113900e+001 -1.555391e-001 1.315213e+002
528125000 -4.022693e-001 -1.427155e+002 -5.627626e+001 3.402561e+001 -5.596902e+001 3.606559e+001 -1.516580e-001 1.315586e+002
528750000 -3.985664e-001 -1.430656e+002 -5.547099e+001 4.257605e+001 -5.517965e+001 4.315562e+001 -1.527074e-001 1.316612e+002
529375000 -4.105860e-001 -1.433721e+002 -5.574075e+001 3.973037e+001 -5.597297e+001 3.132771e+001 -1.607843e-001 1.315796e+002
530000000 -4.157102e-001 -1.437305e+002 -5.481754e+001 3.774564e+001 -5.601982e+001 2.796096e+001 -1.588894e-001 1.316312e+002
530625000 -4.244963e-001 -1.440236e+002 -5.468168e+001 3.571231e+001 -5.555687e+001 2.455802e+001 -1.551877e-001 1.315600e+002
531250000 -4.274645e-001 -1.443604e+002 -5.471968e+001 3.463200e+001 -5.655531e+001 3.286811e+001 -1.470609e-001 1.316131e+002
531875000 -4.469858e-001 -1.446400e+002 -5.542191e+001 2.892355e+001 -5.445799e+001 2.898924e+001 -1.576510e-001 1.315495e+002
532500000 -4.497212e-001 -1.449855e+002 -5.627502e+001 3.149309e+001 -5.531562e+001 2.182582e+001 -1.576052e-001 1.315741e+002
533125000 -4.600990e-001 -1.453699e+002 -5.492318e+001 3.040274e+001 -5.546673e+001 2.931040e+001 -1.672390e-001 1.315459e+002
533750000 -4.672325e-001 -1.457380e+002 -5.476284e+001 3.045549e+001 -5.477411e+001 2.577715e+001 -1.812806e-001 1.315445e+002
534375000 -4.737788e-001 -1.460641e+002 -5.600116e+001 2.026996e+001 -5.591370e+001 1.660748e+001 -1.665202e-001 1.315030e+002
535000000 -4.852346e-001 -1.464119e+002 -5.502440e+001 2.920545e+001 -5.410884e+001 2.612387e+001 -1.677636e-001 1.314694e+002
535625000 -4.955108e-001 -1.467452e+002 -5.475772e+001 2.237795e+001 -5.535460e+001 1.755099e+001 -1.670663e-001 1.314143e+002
536250000 -5.098292e-001 -1.470593e+002 -5.460488e+001 2.201799e+001 -5.440447e+001 2.631990e+001 -1.683864e-001 1.312287e+002
536875000 -5.196749e-001 -1.474436e+002 -5.418657e+001 2.369094e+001 -5.409078e+001 2.440011e+001 -1.708718e-001 1.312012e+002
537500000 -5.350001e-001 -1.477332e+002 -5.565925e+001 2.047505e+001 -5.451833e+001 2.014493e+001 -1.642751e-001 1.311835e+002
538125000 -5.394902e-001 -1.480728e+002 -5.538017e+001 1.805442e+001 -5.367094e+001 1.973633e+001 -1.807884e-001 1.310836e+002
538750000 -5.584809e-001 -1.484126e+002 -5.393385e+001 1.675381e+001 -5.462577e+001 1.735443e+001 -1.737277e-001 1.310452e+002
539375000 -5.714033e-001 -1.486765e+002 -5.391574e+001 1.332213e+001 -5.505181e+001 8.880506e+000 -1.732071e-001 1.309125e+002
540000000 -5.786153e-001 -1.489777e+002 -5.370859e+001 1.112155e+001 -5.405266e+001 1.570284e+001 -1.752362e-001 1.308441e+002
540625000 -5.808454e-001 -1.493171e+002 -5.411977e+001 1.701024e+001 -5.446908e+001 1.246682e+001 -1.750886e-001 1.307325e+002
541250000 -5.899204e-001 -1.495582e+002 -5.520721e+001 7.699663e+000 -5.342084e+001 1.029685e+001 -1.747296e-001 1.306624e+002
541875000 -5.985345e-001 -1.498963e+002 -5.400010e+001 7.376679e+000 -5.454672e+001 8.395229e+000 -1.800919e-001 1.305712e+002
542500000 -6.015021e-001 -1.501670e+002 -5.429125e+001 7.165287e+000 -5.367698e+001 2.244803e+000 -1.718615e-001 1.305247e+002
543125000 -5.923685e-001 -1.505649e+002 -5.337955e+001 1.693449e+000 -5.353511e+001 3.475929e+000 -1.701646e-001 1.304440e+002
543750000 -6.001435e-001 -1.508734e+002 -5.407734e+001 -1.812445e-001 -5.439281e+001 3.438906e+000 -1.778304e-001 1.304541e+002
544375000 -6.131096e-001 -1.511614e+002 -5.254899e+001 -4.149842e+000 -5.357257e+001 -5.683852e-001 -1.731283e-001 1.303409e+002
545000000 -6.222157e-001 -1.515021e+002 -5.412762e+001 3.196004e+000 -5.403278e+001 1.340553e+000 -1.680116e-001 1.303358e+002
545625000 -6.253091e-001 -1.518532e+002 -5.384782e+001 1.256633e+000 -5.411258e+001 -1.244037e+000 -1.728032e-001 1.303237e+002
546250000 -6.431074e-001 -1.521534e+002 -5.359887e+001 8.384265e-002 -5.359696e+001 -3.130739e+000 -1.750609e-001 1.301958e+002
546875000 -6.512901e-001 -1.525790e+002 -5.344813e+001 -7.816692e+000 -5.287870e+001 -5.866831e+000 -1.771478e-001 1.302099e+002
547500000 -6.737565e-001 -1.528584e+002 -5.257611e+001 -6.148796e+000 -5.360278e+001 -7.384193e+000 -1.758707e-001 1.301274e+002
548125000 -6.889914e-001 -1.531433e+002 -5.376306e+001 -6.215061e+000 -5.334179e+001 -1.161766e+001 -1.738340e-001 1.299936e+002
548750000 -6.985660e-001 -1.535515e+002 -5.291889e+001 -8.809305e+000 -5.399005e+001 -8.979265e+000 -1.839944e-001 1.299414e+002
549375000 -7.148650e-001 -1.538443e+002 -5.312502e+001 -9.286368e+000 -5.287605e+001 -1.221293e+001 -1.918293e-001 1.297172e+002
550000000 -7.242241e-001 -1.541688e+002 -5.286506e+001 -1.653508e+001 -5.340359e+001 -1.524700e+001 -1.927087e-001 1.297078e+002
550625000 -7.342224e-001 -1.544507e+002 -5.240814e+001 -1.540670e+001 -5.333047e+001 -1.092982e+001 -1.952000e-001 1.295279e+002
551250000 -7.392473e-001 -1.547740e+002 -5.233876e+001 -1.597684e+001 -5.322677e+001 -1.914649e+001 -1.926728e-001 1.294025e+002
551875000 -7.527617e-001 -1.550757e+002 -5.310346e+001 -1.157086e+001 -5.266423e+001 -1.821673e+001 -2.000399e-001 1.292599e+002
552500000 -7.573628e-001 -1.554242e+002 -5.210251e+001 -1.901481e+001 -5.299265e+001 -2.328881e+001 -1.910331e-001 1.290965e+002
553125000 -7.580407e-001 -1.556870e+002 -5.226874e+001 -2.653587e+001 -5.265391e+001 -1.820553e+001 -1.966634e-001 1.289640e+002
553750000 -7.702540e-001 -1.561053e+002 -5.339859e+001 -2.146853e+001 -5.344233e+001 -2.634000e+001 -1.954107e-001 1.287187e+002
554375000 -7.758259e-001 -1.564157e+002 -5.272776e+001 -2.032530e+001 -5.301587e+001 -2.064729e+001 -1.936928e-001 1.285999e+002
555000000 -7.753731e-001 -1.567479e+002 -5.261605e+001 -2.399672e+001 -5.308797e+001 -2.775516e+001 -1.995862e-001 1.284988e+002
555625000 -7.902963e-001 -1.570190e+002 -5.272004e+001 -2.773454e+001 -5.337043e+001 -2.617163e+001 -1.874965e-001 1.284468e+002
556250000 -8.034281e-001 -1.574123e+002 -5.264894e+001 -2.310819e+001 -5.328347e+001 -2.442115e+001 -1.881874e-001 1.282507e+002
556875000 -8.054689e-001 -1.577840e+002 -5.296772e+001 -3.116282e+001 -5.362872e+001 -3.537303e+001 -1.931924e-001 1.282448e+002
557500000 -8.268285e-001 -1.581094e+002 -5.279844e+001 -2.885267e+001 -5.274993e+001 -2.931826e+001 -1.760274e-001 1.280571e+002
558125000 -8.349918e-001 -1.583631e+002 -5.262726e+001 -3.470084e+001 -5.202936e+001 -3.400649e+001 -1.823164e-001 1.280612e+002
558750000 -8.405506e-001 -1.587223e+002 -5.213305e+001 -3.094570e+001 -5.362586e+001 -3.570037e+001 -1.600967e-001 1.280697e+002
559375000 -8.627901e-001 -1.590318e+002 -5.219698e+001 -3.440027e+001 -5.175230e+001 -3.462434e+001 -1.619109e-001 1.280702e+002
560000000 -8.765965e-001 -1.593243e+002 -5.274856e+001 -4.202267e+001 -5.303556e+001 -3.390562e+001 -1.558274e-001 1.280216e+002
560625000 -8.844067e-001 -1.595901e+002 -5.230695e+001 -3.544895e+001 -5.245974e+001 -3.656856e+001 -1.537609e-001 1.280837e+002
561250000 -8.926547e-001 -1.599467e+002 -5.263411e+001 -3.709849e+001 -5.222401e+001 -4.046716e+001 -1.504553e-001 1.280464e+002
561875000 -9.002338e-001 -1.602492e+002 -5.165427e+001 -4.098100e+001 -5.180462e+001 -3.566773e+001 -1.575359e-001 1.280880e+002
562500000 -9.161808e-001 -1.605673e+002 -5.145658e+001 -4.510075e+001 -5.266227e+001 -3.843619e+001 -1.506009e-001 1.282202e+002
563125000 -9.162830e-001 -1.608738e+002 -5.140520e+001 -4.359790e+001 -5.278357e+001 -4.411077e+001 -1.464554e-001 1.282063e+002
563750000 -9.372860e-001 -1.612568e+002 -5.157342e+001 -4.131726e+001 -5.173633e+001 -4.432999e+001 -1.562897e-001 1.282475e+002
564375000 -9.552777e-001 -1.616287e+002 -5.165532e+001 -4.300984e+001 -5.189487e+001 -4.540860e+001 -1.635748e-001 1.283244e+002
565000000 -9.616776e-001 -1.620820e+002 -5.174935e+001 -5.025471e+001 -5.147393e+001 -4.655337e+001 -1.655246e-001 1.282917e+002
565625000 -9.829238e-001 -1.624506e+002 -5.141008e+001 -5.074444e+001 -5.179076e+001 -4.898586e+001 -1.671422e-001 1.282781e+002
566250000 -1.000346e+000 -1.628952e+002 -5.203887e+001 -4.938987e+001 -5.185901e+001 -4.948205e+001 -1.651029e-001 1.282632e+002
566875000 -1.023003e+000 -1.633094e+002 -5.118185e+001 -4.954913e+001 -5.165568e+001 -4.965343e+001 -1.647774e-001 1.282346e+002
567500000 -1.056992e+000 -1.637828e+002 -5.129836e+001 -5.449994e+001 -5.171592e+001 -5.199559e+001 -1.738777e-001 1.282099e+002
568125000 -1.074827e+000 -1.641437e+002 -5.079513e+001 -4.994821e+001 -5.072716e+001 -5.365965e+001 -1.786308e-001 1.281667e+002
568750000 -1.099174e+000 -1.645300e+002 -5.129218e+001 -5.596692e+001 -5.107281e+001 -5.624369e+001 -1.817006e-001 1.280662e+002
569375000 -1.125050e+000 -1.649527e+002 -5.069220e+001 -5.495475e+001 -5.125834e+001 -5.444641e+001 -1.847736e-001 1.280667e+002
570000000 -1.137856e+000 -1.653484e+002 -5.101614e+001 -5.489909e+001 -5.077432e+001 -5.347482e+001 -1.768621e-001 1.279410e+002
570625000 -1.156784e+000 -1.657621e+002 -5.084725e+001 -6.261612e+001 -5.075561e+001 -6.146548e+001 -1.765186e-001 1.279331e+002
571250000 -1.177933e+000 -1.661118e+002 -5.084596e+001 -6.193027e+001 -5.091343e+001 -6.319454e+001 -1.803956e-001 1.279015e+002
571875000 -1.202201e+000 -1.665096e+002 -5.039115e+001 -6.579003e+001 -5.031960e+001 -6.990300e+001 -1.769191e-001 1.277966e+002
572500000 -1.220817e+000 -1.668708e+002 -5.079135e+001 -6.832073e+001 -5.086076e+001 -6.207947e+001 -1.829012e-001 1.277095e+002
573125000 -1.239094e+000 -1.672869e+002 -5.086992e+001 -6.952847e+001 -5.074393e+001 -6.882269e+001 -1.739382e-001 1.276919e+002
573750000 -1.244675e+000 -1.676738e+002 -5.046159e+001 -7.239839e+001 -5.050096e+001 -7.281868e+001 -1.916924e-001 1.276287e+002
574375000 -1.258927e+000 -1.680300e+002 -5.100890e+001 -6.504070e+001 -5.117001e+001 -6.925864e+001 -1.762811e-001 1.275959e+002
575000000 -1.273599e+000 -1.684452e+002 -5.041947e+001 -6.970818e+001 -5.128314e+001 -7.212727e+001 -1.861234e-001 1.274949e+002
575625000 -1.284390e+000 -1.688034e+002 -5.141829e+001 -7.299766e+001 -5.043723e+001 -7.204924e+001 -1.871127e-001 1.274905e+002
576250000 -1.296407e+000 -1.692391e+002 -5.046131e+001 -7.338331e+001 -5.086448e+001 -7.336012e+001 -1.903839e-001 1.274144e+002
576875000 -1.306909e+000 -1.695960e+002 -5.076395e+001 -7.400181e+001 -5.014422e+001 -7.570037e+001 -1.873087e-001 1.273645e+002
577500000 -1.332524e+000 -1.700238e+002 -5.187158e+001 -7.642325e+001 -5.115712e+001 -7.376862e+001 -1.869646e-001 1.271702e+002
578125000 -1.341656e+000 -1.704279e+002 -5.062575e+001 -7.394091e+001 -5.015615e+001 -7.503900e+001 -1.934648e-001 1.271433e+002
578750000 -1.347464e+000 -1.708372e+002 -5.017081e+001 -7.536305e+001 -5.072645e+001 -7.463574e+001 -1.942738e-001 1.269484e+002
579375000 -1.357856e+000 -1.712587e+002 -5.019958e+001 -7.791965e+001 -5.066810e+001 -8.279386e+001 -2.068586e-001 1.268122e+002
580000000 -1.369876e+000 -1.716797e+002 -5.016573e+001 -8.014693e+001 -5.072367e+001 -8.060999e+001 -2.066270e-001 1.266143e+002
580625000 -1.381900e+000 -1.722041e+002 -5.031843e+001 -8.095811e+001 -5.019175e+001 -8.128889e+001 -2.009854e-001 1.265044e+002
581250000 -1.399173e+000 -1.726734e+002 -5.007126e+001 -8.297663e+001 -5.072055e+001 -8.363132e+001 -2.145907e-001 1.262530e+002
581875000 -1.409550e+000 -1.731925e+002 -5.088094e+001 -8.491872e+001 -4.982068e+001 -8.465573e+001 -2.140820e-001 1.260845e+002
582500000 -1.425197e+000 -1.736577e+002 -4.994591e+001 -8.527222e+001 -5.028195e+001 -8.555233e+001 -2.172072e-001 1.258622e+002
583125000 -1.442394e+000 -1.742797e+002 -4.967729e+001 -8.733488e+001 -5.016045e+001 -8.862478e+001 -2.228844e-001 1.255732e+002
583750000 -1.473428e+000 -1.747832e+002 -5.115793e+001 -9.474876e+001 -5.007233e+001 -8.973724e+001 -2.312423e-001 1.253478e+002
584375000 -1.498765e+000 -1.753671e+002 -5.074970e+001 -9.519776e+001 -5.048605e+001 -9.011547e+001 -2.185342e-001 1.251351e+002
585000000 -1.519074e+000 -1.759190e+002 -5.026943e+001 -8.918168e+001 -5.002971e+001 -8.692794e+001 -2.222930e-001 1.249079e+002
585625000 -1.557412e+000 -1.763892e+002 -5.031747e+001 -9.217552e+001 -5.008472e+001 -9.093114e+001 -2.132298e-001 1.247713e+002
586250000 -1.574609e+000 -1.769241e+002 -4.975525e+001 -9.527695e+001 -4.980760e+001 -9.379018e+001 -2.017765e-001 1.246743e+002
586875000 -1.603426e+000 -1.774418e+002 -4.947121e+001 -9.835400e+001 -5.005921e+001 -9.138712e+001 -1.968140e-001 1.244757e+002
587500000 -1.629641e+000 -1.779228e+002 -4.918494e+001 -9.866185e+001 -4.963754e+001 -9.983541e+001 -1.902317e-001 1.243316e+002
588125000 -1.650974e+000 -1.783639e+002 -4.967630e+001 -9.345876e+001 -4.963264e+001 -9.850490e+001 -1.926261e-001 1.242260e+002
588750000 -1.673257e+000 -1.788756e+002 -4.983149e+001 -9.709546e+001 -4.952596e+001 -1.007602e+002 -1.966474e-001 1.241920e+002
589375000 -1.697009e+000 -1.794260e+002 -4.911702e+001 -1.017443e+002 -4.974086e+001 -1.004177e+002 -1.771221e-001 1.240676e+002
590000000 -1.730758e+000 -1.799316e+002 -4.973135e+001 -1.004763e+002 -4.914997e+001 -1.020537e+002 -1.815313e-001 1.240881e+002
590625000 -1.754012e+000 1.795509e+002 -4.970434e+001 -1.043344e+002 -4.935445e+001 -1.019031e+002 -1.680697e-001 1.240346e+002
591250000 -1.787495e+000 1.791161e+002 -4.876067e+001 -1.058407e+002 -4.926374e+001 -1.049502e+002 -1.671862e-001 1.240511e+002
591875000 -1.831143e+000 1.787264e+002 -4.872643e+001 -1.079720e+002 -4.956588e+001 -1.041277e+002 -1.579130e-001 1.240693e+002
592500000 -1.874689e+000 1.782537e+002 -4.947620e+001 -1.088756e+002 -4.874295e+001 -1.057898e+002 -1.638309e-001 1.241781e+002
593125000 -1.910579e+000 1.779443e+002 -4.903076e+001 -1.045990e+002 -4.908281e+001 -1.111813e+002 -1.668037e-001 1.242402e+002
593750000 -1.949204e+000 1.775461e+002 -4.915947e+001 -1.080352e+002 -4.874512e+001 -1.102271e+002 -1.524514e-001 1.243472e+002
594375000 -1.975973e+000 1.772780e+002 -4.911512e+001 -1.139239e+002 -4.870058e+001 -1.118491e+002 -1.518577e-001 1.243524e+002
595000000 -2.013001e+000 1.768895e+002 -4.890842e+001 -1.121192e+002 -4.862550e+001 -1.165414e+002 -1.678696e-001 1.244279e+002
595625000 -2.047757e+000 1.765417e+002 -4.898252e+001 -1.146896e+002 -4.871312e+001 -1.145846e+002 -1.576841e-001 1.245051e+002
