!Agilent Technologies,E8364B,US42250235,A.06.04.32
!Agilent E8364B: A.06.04.32
!Date: Friday, January 15, 2021 16:01:58
!Correction: S11(Full 2 Port(1,2)) S21(Full 2 Port(1,2)) S12(Full 2 Port(1,2)) S22(Full 2 Port(1,2)) 
!S2P File: Measurements: S11, S21, S12, S22:
# Hz S  dB   R 50
500000000 -1.076518e-001 -1.293344e+002 -6.240820e+001 1.004895e+002 -5.964581e+001 1.162217e+002 -1.884977e-001 1.365410e+002
500625000 -1.148045e-001 -1.296184e+002 -6.381854e+001 9.586217e+001 -6.164516e+001 1.130497e+002 -1.920760e-001 1.365657e+002
501250000 -1.201708e-001 -1.298763e+002 -6.241951e+001 1.270428e+002 -6.206126e+001 1.035185e+002 -1.829637e-001 1.364373e+002
501875000 -1.223595e-001 -1.301720e+002 -6.113898e+001 1.094464e+002 -5.889175e+001 1.058667e+002 -1.769527e-001 1.363754e+002
502500000 -1.197158e-001 -1.304646e+002 -6.011913e+001 1.118716e+002 -6.069409e+001 1.105252e+002 -1.798668e-001 1.363624e+002
503125000 -1.330983e-001 -1.307717e+002 -5.864220e+001 1.119490e+002 -5.845843e+001 1.276221e+002 -1.722237e-001 1.362546e+002
503750000 -1.364568e-001 -1.310707e+002 -6.164771e+001 1.116450e+002 -6.232265e+001 1.216962e+002 -1.701545e-001 1.362228e+002
504375000 -1.391554e-001 -1.313248e+002 -6.035775e+001 1.230377e+002 -5.996629e+001 1.054700e+002 -1.873925e-001 1.361965e+002
505000000 -1.408084e-001 -1.316125e+002 -6.000832e+001 1.231862e+002 -6.007590e+001 1.176800e+002 -1.856967e-001 1.361692e+002
505625000 -1.374086e-001 -1.318878e+002 -6.142242e+001 9.615667e+001 -6.147000e+001 1.030072e+002 -1.790642e-001 1.361014e+002
506250000 -1.432308e-001 -1.322301e+002 -5.802068e+001 1.057218e+002 -6.065655e+001 1.121543e+002 -1.866435e-001 1.359993e+002
506875000 -1.476993e-001 -1.324521e+002 -6.133877e+001 1.183650e+002 -5.736932e+001 1.139994e+002 -1.875541e-001 1.359321e+002
507500000 -1.537410e-001 -1.327218e+002 -5.900568e+001 1.055154e+002 -6.012539e+001 1.134583e+002 -1.802032e-001 1.358244e+002
508125000 -1.464631e-001 -1.330381e+002 -5.644112e+001 1.122193e+002 -5.968104e+001 1.067055e+002 -1.886366e-001 1.357418e+002
508750000 -1.536930e-001 -1.332921e+002 -5.984785e+001 1.076080e+002 -6.043954e+001 1.074343e+002 -1.836781e-001 1.355882e+002
509375000 -1.559288e-001 -1.335994e+002 -5.876431e+001 9.975891e+001 -5.926891e+001 1.067374e+002 -1.877146e-001 1.355570e+002
510000000 -1.560975e-001 -1.339287e+002 -6.006544e+001 1.047587e+002 -5.929911e+001 1.026901e+002 -1.954505e-001 1.353692e+002
510625000 -1.689971e-001 -1.341432e+002 -6.138100e+001 1.013048e+002 -5.894968e+001 1.125880e+002 -1.881442e-001 1.353303e+002
511250000 -1.665264e-001 -1.344465e+002 -5.940171e+001 9.536297e+001 -5.929285e+001 9.744112e+001 -1.979323e-001 1.350790e+002
511875000 -1.633832e-001 -1.347557e+002 -5.945639e+001 1.114232e+002 -5.758337e+001 1.004940e+002 -1.903976e-001 1.349958e+002
512500000 -1.758651e-001 -1.350379e+002 -5.936800e+001 1.062222e+002 -5.844756e+001 1.060886e+002 -1.959040e-001 1.348629e+002
513125000 -1.843029e-001 -1.353688e+002 -6.128753e+001 9.312160e+001 -5.752035e+001 1.099476e+002 -1.942713e-001 1.347952e+002
513750000 -1.884214e-001 -1.356755e+002 -6.034367e+001 1.002768e+002 -5.989938e+001 9.844626e+001 -2.032115e-001 1.346349e+002
514375000 -1.913617e-001 -1.360372e+002 -5.764804e+001 1.003226e+002 -5.817667e+001 9.956805e+001 -1.904873e-001 1.345007e+002
515000000 -1.982874e-001 -1.363444e+002 -5.938988e+001 1.001752e+002 -5.890105e+001 1.180362e+002 -1.788681e-001 1.344534e+002
515625000 -2.086820e-001 -1.367169e+002 -5.825548e+001 9.934434e+001 -5.892557e+001 9.277963e+001 -1.842985e-001 1.343252e+002
516250000 -2.098685e-001 -1.370288e+002 -5.750237e+001 9.523550e+001 -5.922922e+001 1.051373e+002 -1.866763e-001 1.342803e+002
516875000 -2.269035e-001 -1.373588e+002 -5.870545e+001 1.055470e+002 -5.948159e+001 1.004745e+002 -1.779727e-001 1.342858e+002
517500000 -2.307995e-001 -1.377163e+002 -5.969120e+001 1.076890e+002 -5.906756e+001 9.718243e+001 -1.813621e-001 1.341782e+002
518125000 -2.378602e-001 -1.380802e+002 -5.740276e+001 1.003075e+002 -5.863459e+001 1.040439e+002 -1.843815e-001 1.341552e+002
518750000 -2.503085e-001 -1.384139e+002 -5.746597e+001 8.965779e+001 -5.758105e+001 1.113288e+002 -1.786765e-001 1.341649e+002
519375000 -2.702342e-001 -1.386750e+002 -5.784833e+001 1.010998e+002 -5.722555e+001 8.500819e+001 -1.690648e-001 1.341252e+002
520000000 -2.667701e-001 -1.390546e+002 -5.713931e+001 8.976675e+001 -5.816554e+001 9.711098e+001 -1.744865e-001 1.340792e+002
520625000 -2.739348e-001 -1.394104e+002 -5.729424e+001 8.763029e+001 -5.728072e+001 9.345572e+001 -1.672505e-001 1.340682e+002
521250000 -2.825032e-001 -1.397352e+002 -5.835047e+001 9.704098e+001 -5.720456e+001 8.412613e+001 -1.701626e-001 1.340478e+002
521875000 -2.857779e-001 -1.400692e+002 -5.726745e+001 9.462753e+001 -5.714430e+001 8.546547e+001 -1.678205e-001 1.340504e+002
522500000 -2.917282e-001 -1.403725e+002 -5.664412e+001 8.460986e+001 -5.800638e+001 9.645482e+001 -1.690746e-001 1.339341e+002
523125000 -3.020874e-001 -1.406988e+002 -5.712827e+001 8.537029e+001 -5.681771e+001 8.872946e+001 -1.800098e-001 1.339342e+002
523750000 -3.000713e-001 -1.409997e+002 -5.718647e+001 8.705761e+001 -5.689891e+001 8.395019e+001 -1.826888e-001 1.339106e+002
524375000 -3.273157e-001 -1.413592e+002 -5.739310e+001 9.260603e+001 -5.699078e+001 8.817169e+001 -1.785432e-001 1.338247e+002
525000000 -3.219650e-001 -1.416567e+002 -5.745198e+001 8.320272e+001 -5.601722e+001 8.685188e+001 -1.855202e-001 1.337941e+002
525625000 -3.423748e-001 -1.418915e+002 -5.617363e+001 8.575470e+001 -5.634317e+001 7.776445e+001 -1.976589e-001 1.336631e+002
526250000 -3.324905e-001 -1.421849e+002 -5.547098e+001 7.362379e+001 -5.564500e+001 8.283064e+001 -1.888493e-001 1.336262e+002
526875000 -3.495363e-001 -1.425593e+002 -5.652406e+001 8.912357e+001 -5.635747e+001 8.667941e+001 -1.862768e-001 1.335390e+002
527500000 -3.585735e-001 -1.427947e+002 -5.558479e+001 8.461083e+001 -5.566094e+001 7.511349e+001 -1.916897e-001 1.334686e+002
528125000 -3.724685e-001 -1.431182e+002 -5.739984e+001 7.719650e+001 -5.675733e+001 7.941850e+001 -1.927081e-001 1.334531e+002
528750000 -3.712371e-001 -1.434247e+002 -5.538041e+001 7.682167e+001 -5.661402e+001 7.737372e+001 -1.910385e-001 1.334642e+002
529375000 -3.832726e-001 -1.437456e+002 -5.567472e+001 7.715660e+001 -5.492961e+001 7.529422e+001 -1.969128e-001 1.333183e+002
530000000 -3.996617e-001 -1.440779e+002 -5.609613e+001 7.933052e+001 -5.654803e+001 8.012743e+001 -1.967459e-001 1.332535e+002
530625000 -4.041629e-001 -1.443610e+002 -5.515992e+001 7.247233e+001 -5.599792e+001 7.550238e+001 -1.906375e-001 1.331755e+002
531250000 -4.146576e-001 -1.446656e+002 -5.587408e+001 6.845895e+001 -5.631285e+001 7.505727e+001 -1.860417e-001 1.331275e+002
531875000 -4.334665e-001 -1.449409e+002 -5.473505e+001 7.472556e+001 -5.571865e+001 7.472464e+001 -1.885273e-001 1.330351e+002
532500000 -4.342653e-001 -1.452250e+002 -5.502342e+001 7.002892e+001 -5.612345e+001 7.855295e+001 -1.842020e-001 1.330426e+002
533125000 -4.377502e-001 -1.455693e+002 -5.544949e+001 7.006202e+001 -5.556666e+001 7.261944e+001 -1.882480e-001 1.330473e+002
533750000 -4.571301e-001 -1.459318e+002 -5.543746e+001 7.148788e+001 -5.623400e+001 7.489639e+001 -1.965393e-001 1.329617e+002
534375000 -4.600000e-001 -1.462562e+002 -5.565692e+001 6.525984e+001 -5.621249e+001 6.808007e+001 -1.817290e-001 1.329155e+002
535000000 -4.712912e-001 -1.465750e+002 -5.560984e+001 7.103977e+001 -5.599332e+001 6.376558e+001 -1.861042e-001 1.328436e+002
535625000 -4.784497e-001 -1.469056e+002 -5.538820e+001 6.701386e+001 -5.464898e+001 6.326435e+001 -1.811549e-001 1.328147e+002
536250000 -4.887150e-001 -1.472788e+002 -5.475660e+001 6.495480e+001 -5.449580e+001 7.171967e+001 -1.816017e-001 1.327124e+002
536875000 -5.006072e-001 -1.475878e+002 -5.530517e+001 6.474770e+001 -5.426427e+001 7.060992e+001 -1.882194e-001 1.326681e+002
537500000 -5.065007e-001 -1.479037e+002 -5.478742e+001 6.834003e+001 -5.503075e+001 7.075484e+001 -1.777488e-001 1.326972e+002
538125000 -5.116908e-001 -1.482719e+002 -5.479700e+001 6.147514e+001 -5.423620e+001 6.609221e+001 -1.886627e-001 1.326429e+002
538750000 -5.325432e-001 -1.486166e+002 -5.425714e+001 6.209566e+001 -5.407052e+001 6.349582e+001 -1.860577e-001 1.325971e+002
539375000 -5.479590e-001 -1.489811e+002 -5.416589e+001 5.550399e+001 -5.355991e+001 6.235548e+001 -1.808861e-001 1.325454e+002
540000000 -5.590503e-001 -1.492911e+002 -5.349476e+001 5.926972e+001 -5.414928e+001 6.162103e+001 -1.835406e-001 1.324974e+002
540625000 -5.667315e-001 -1.496490e+002 -5.411164e+001 6.587092e+001 -5.436865e+001 6.104346e+001 -1.866210e-001 1.324347e+002
541250000 -5.781344e-001 -1.499429e+002 -5.370881e+001 6.390051e+001 -5.441087e+001 5.841853e+001 -1.767394e-001 1.324569e+002
541875000 -5.906688e-001 -1.502998e+002 -5.360353e+001 5.756874e+001 -5.328542e+001 5.870611e+001 -1.835015e-001 1.323943e+002
542500000 -6.060445e-001 -1.506193e+002 -5.356463e+001 6.391336e+001 -5.326159e+001 5.883681e+001 -1.804706e-001 1.324289e+002
543125000 -6.170465e-001 -1.510035e+002 -5.380526e+001 5.576522e+001 -5.406388e+001 5.716807e+001 -1.781783e-001 1.323405e+002
543750000 -6.310375e-001 -1.513323e+002 -5.316133e+001 5.588562e+001 -5.358778e+001 5.256541e+001 -1.786683e-001 1.323695e+002
544375000 -6.544145e-001 -1.516849e+002 -5.311805e+001 5.632585e+001 -5.342609e+001 5.742103e+001 -1.728258e-001 1.324622e+002
545000000 -6.618364e-001 -1.519829e+002 -5.317367e+001 5.446120e+001 -5.339841e+001 5.247631e+001 -1.683485e-001 1.324566e+002
545625000 -6.717026e-001 -1.523088e+002 -5.322490e+001 5.417961e+001 -5.354132e+001 5.464137e+001 -1.717676e-001 1.324613e+002
546250000 -6.922035e-001 -1.526598e+002 -5.291426e+001 5.214799e+001 -5.339541e+001 4.873524e+001 -1.798450e-001 1.324067e+002
546875000 -7.109122e-001 -1.530772e+002 -5.297683e+001 4.734319e+001 -5.296238e+001 5.303357e+001 -1.785070e-001 1.324926e+002
547500000 -7.375022e-001 -1.533925e+002 -5.319588e+001 4.521911e+001 -5.310364e+001 4.955267e+001 -1.826545e-001 1.324540e+002
548125000 -7.664787e-001 -1.537322e+002 -5.211908e+001 5.161682e+001 -5.231552e+001 4.691342e+001 -1.876557e-001 1.324296e+002
548750000 -7.773627e-001 -1.541012e+002 -5.231792e+001 5.031325e+001 -5.242579e+001 5.076690e+001 -1.907350e-001 1.324175e+002
549375000 -7.995818e-001 -1.544143e+002 -5.203787e+001 4.597542e+001 -5.223239e+001 4.790009e+001 -1.933676e-001 1.322669e+002
550000000 -8.101498e-001 -1.546972e+002 -5.174153e+001 4.438017e+001 -5.177702e+001 3.971876e+001 -2.022269e-001 1.322766e+002
550625000 -8.320830e-001 -1.549684e+002 -5.222017e+001 4.227808e+001 -5.221255e+001 3.883931e+001 -2.036236e-001 1.321429e+002
551250000 -8.426719e-001 -1.553310e+002 -5.188492e+001 4.021891e+001 -5.145170e+001 4.276974e+001 -2.050530e-001 1.320152e+002
551875000 -8.488052e-001 -1.556580e+002 -5.213223e+001 3.831016e+001 -5.263458e+001 4.004602e+001 -1.989282e-001 1.318282e+002
552500000 -8.617097e-001 -1.559923e+002 -5.127149e+001 3.832632e+001 -5.146250e+001 3.608592e+001 -2.050472e-001 1.317216e+002
553125000 -8.676319e-001 -1.563299e+002 -5.175994e+001 3.362119e+001 -5.257279e+001 3.546107e+001 -2.210943e-001 1.316189e+002
553750000 -8.888947e-001 -1.566946e+002 -5.175270e+001 3.856898e+001 -5.153957e+001 3.826514e+001 -2.190058e-001 1.314350e+002
554375000 -8.949767e-001 -1.570073e+002 -5.189531e+001 3.442679e+001 -5.221031e+001 3.529320e+001 -2.155550e-001 1.313269e+002
555000000 -9.069890e-001 -1.573623e+002 -5.120728e+001 3.692823e+001 -5.133450e+001 3.421898e+001 -2.175215e-001 1.312153e+002
555625000 -9.286603e-001 -1.576544e+002 -5.162252e+001 2.970702e+001 -5.167184e+001 3.239103e+001 -2.033307e-001 1.311347e+002
556250000 -9.400173e-001 -1.580132e+002 -5.133953e+001 2.937597e+001 -5.069077e+001 2.908136e+001 -2.106208e-001 1.309628e+002
556875000 -9.442559e-001 -1.583760e+002 -5.211566e+001 2.989795e+001 -5.152755e+001 2.969205e+001 -2.155134e-001 1.308633e+002
557500000 -9.623030e-001 -1.586128e+002 -5.193634e+001 2.626073e+001 -5.160280e+001 3.118138e+001 -1.991560e-001 1.307739e+002
558125000 -9.756042e-001 -1.589178e+002 -5.194036e+001 2.918425e+001 -5.157114e+001 2.942015e+001 -2.099819e-001 1.307648e+002
558750000 -9.673459e-001 -1.592201e+002 -5.097039e+001 2.990675e+001 -5.146741e+001 2.747121e+001 -1.935910e-001 1.306847e+002
559375000 -9.867346e-001 -1.595905e+002 -5.142456e+001 2.651124e+001 -5.095393e+001 2.501855e+001 -1.907603e-001 1.306610e+002
560000000 -1.005521e+000 -1.599088e+002 -5.071151e+001 2.426405e+001 -5.106094e+001 2.332850e+001 -1.883584e-001 1.306460e+002
560625000 -1.011648e+000 -1.602272e+002 -5.166346e+001 2.291692e+001 -5.133160e+001 2.366512e+001 -1.809245e-001 1.306947e+002
561250000 -1.029350e+000 -1.606283e+002 -5.082417e+001 2.069304e+001 -5.136304e+001 2.302828e+001 -1.804617e-001 1.306320e+002
561875000 -1.035799e+000 -1.609479e+002 -5.071788e+001 2.234656e+001 -5.116656e+001 2.184561e+001 -1.842100e-001 1.306661e+002
562500000 -1.053131e+000 -1.612608e+002 -5.071292e+001 2.100528e+001 -5.174517e+001 2.618815e+001 -1.856121e-001 1.307044e+002
563125000 -1.069898e+000 -1.616096e+002 -5.020508e+001 2.204877e+001 -5.106369e+001 1.908514e+001 -1.755904e-001 1.307301e+002
563750000 -1.096846e+000 -1.619701e+002 -5.071441e+001 1.777771e+001 -5.086999e+001 1.849702e+001 -1.875142e-001 1.306705e+002
564375000 -1.117127e+000 -1.623367e+002 -5.027756e+001 1.892220e+001 -5.063230e+001 1.785419e+001 -1.912567e-001 1.306889e+002
565000000 -1.136242e+000 -1.627715e+002 -5.021877e+001 1.575319e+001 -5.047208e+001 1.571977e+001 -1.926866e-001 1.306508e+002
565625000 -1.161804e+000 -1.631521e+002 -5.033323e+001 1.481779e+001 -5.053000e+001 1.496055e+001 -1.909551e-001 1.306036e+002
566250000 -1.181504e+000 -1.635490e+002 -5.023418e+001 9.081795e+000 -5.020969e+001 1.243706e+001 -2.063251e-001 1.305163e+002
566875000 -1.213108e+000 -1.639103e+002 -4.981767e+001 9.012810e+000 -5.041437e+001 1.176694e+001 -2.098894e-001 1.303511e+002
567500000 -1.246754e+000 -1.642955e+002 -5.034571e+001 1.300993e+001 -5.030523e+001 1.569669e+001 -2.061771e-001 1.302818e+002
568125000 -1.277098e+000 -1.646541e+002 -4.982123e+001 1.397072e+001 -5.028641e+001 1.052373e+001 -2.125925e-001 1.302019e+002
568750000 -1.304758e+000 -1.649897e+002 -4.956109e+001 1.108208e+001 -4.939902e+001 1.062008e+001 -2.180632e-001 1.300269e+002
569375000 -1.328646e+000 -1.653551e+002 -4.975633e+001 1.004838e+001 -5.003660e+001 9.702275e+000 -2.246360e-001 1.299228e+002
570000000 -1.352242e+000 -1.656895e+002 -4.965318e+001 8.292375e+000 -5.001713e+001 1.043671e+001 -2.177013e-001 1.297762e+002
570625000 -1.372427e+000 -1.659591e+002 -5.001173e+001 1.535575e+000 -4.943898e+001 6.613634e+000 -2.112384e-001 1.296653e+002
571250000 -1.395073e+000 -1.663278e+002 -4.900525e+001 -4.485618e-001 -4.978490e+001 2.542039e+000 -2.222059e-001 1.295496e+002
571875000 -1.417150e+000 -1.666252e+002 -4.917494e+001 1.789819e-001 -4.976093e+001 4.822734e+000 -2.126629e-001 1.294314e+002
572500000 -1.434619e+000 -1.668930e+002 -4.904584e+001 1.536425e+000 -4.948038e+001 -4.826124e-001 -2.135168e-001 1.293027e+002
573125000 -1.450430e+000 -1.671331e+002 -4.936061e+001 -1.161666e+000 -4.922533e+001 1.058311e+000 -2.042173e-001 1.291806e+002
573750000 -1.458921e+000 -1.674399e+002 -4.974385e+001 -2.192806e+000 -4.912928e+001 -3.172720e+000 -2.129353e-001 1.291113e+002
574375000 -1.471984e+000 -1.677518e+002 -4.927459e+001 -3.676303e+000 -4.887123e+001 -3.311073e+000 -2.010562e-001 1.291264e+002
575000000 -1.480346e+000 -1.681276e+002 -4.948984e+001 -5.623103e+000 -4.936725e+001 -5.145369e+000 -2.055199e-001 1.289681e+002
575625000 -1.489661e+000 -1.684433e+002 -4.919725e+001 -4.186091e+000 -4.960158e+001 -3.299416e+000 -2.062810e-001 1.290038e+002
576250000 -1.501022e+000 -1.687850e+002 -4.899504e+001 -3.681990e+000 -4.923030e+001 -7.092815e+000 -2.033741e-001 1.289098e+002
576875000 -1.517653e+000 -1.691444e+002 -4.861604e+001 -5.048612e+000 -4.878301e+001 -8.367758e+000 -2.041071e-001 1.289001e+002
577500000 -1.544862e+000 -1.694454e+002 -4.850129e+001 -1.191213e+001 -4.906841e+001 -8.845793e+000 -1.989802e-001 1.287811e+002
578125000 -1.564510e+000 -1.697785e+002 -4.917040e+001 -1.103125e+001 -4.812729e+001 -9.595983e+000 -2.042217e-001 1.288155e+002
578750000 -1.574738e+000 -1.700431e+002 -4.871579e+001 -1.390797e+001 -4.865726e+001 -1.406565e+001 -2.023460e-001 1.286884e+002
579375000 -1.588905e+000 -1.703046e+002 -4.863875e+001 -1.167442e+001 -4.854335e+001 -1.557995e+001 -2.039298e-001 1.285888e+002
580000000 -1.598148e+000 -1.705747e+002 -4.839817e+001 -1.561694e+001 -4.823632e+001 -1.543469e+001 -2.017779e-001 1.285324e+002
580625000 -1.610659e+000 -1.709994e+002 -4.883844e+001 -1.847515e+001 -4.910742e+001 -1.737702e+001 -2.018729e-001 1.284126e+002
581250000 -1.623223e+000 -1.713322e+002 -4.874030e+001 -2.198768e+001 -4.866567e+001 -1.585588e+001 -2.133822e-001 1.283401e+002
581875000 -1.638731e+000 -1.717845e+002 -4.878923e+001 -1.754226e+001 -4.863751e+001 -1.831569e+001 -2.103688e-001 1.282138e+002
582500000 -1.659421e+000 -1.721565e+002 -4.879234e+001 -1.723726e+001 -4.899038e+001 -1.943517e+001 -2.224987e-001 1.281032e+002
583125000 -1.679466e+000 -1.726531e+002 -4.921074e+001 -2.082108e+001 -4.902982e+001 -1.811676e+001 -2.255850e-001 1.279479e+002
583750000 -1.703239e+000 -1.730491e+002 -4.952818e+001 -2.545464e+001 -4.841097e+001 -2.435776e+001 -2.339909e-001 1.277795e+002
584375000 -1.723200e+000 -1.734800e+002 -4.913960e+001 -2.286092e+001 -4.867804e+001 -2.102006e+001 -2.113812e-001 1.277627e+002
585000000 -1.747434e+000 -1.738719e+002 -4.868808e+001 -2.573940e+001 -4.898166e+001 -2.251255e+001 -2.210438e-001 1.275719e+002
585625000 -1.771671e+000 -1.742448e+002 -4.874967e+001 -2.428950e+001 -4.886051e+001 -2.544793e+001 -2.078373e-001 1.275080e+002
586250000 -1.780114e+000 -1.746496e+002 -4.916991e+001 -2.487164e+001 -4.867793e+001 -2.139456e+001 -2.076348e-001 1.274959e+002
586875000 -1.792459e+000 -1.751088e+002 -4.875714e+001 -2.421532e+001 -4.854636e+001 -2.633278e+001 -2.035538e-001 1.273965e+002
587500000 -1.817915e+000 -1.755738e+002 -4.851422e+001 -2.502605e+001 -4.892306e+001 -2.854120e+001 -1.995395e-001 1.273354e+002
588125000 -1.831818e+000 -1.759646e+002 -4.847188e+001 -2.629632e+001 -4.872968e+001 -3.044590e+001 -1.928506e-001 1.273048e+002
588750000 -1.843751e+000 -1.764309e+002 -4.831098e+001 -2.851070e+001 -4.819737e+001 -2.869167e+001 -1.959379e-001 1.273462e+002
589375000 -1.854107e+000 -1.768824e+002 -4.833154e+001 -2.845954e+001 -4.852694e+001 -2.871983e+001 -1.879005e-001 1.272907e+002
590000000 -1.878830e+000 -1.773623e+002 -4.824572e+001 -2.828223e+001 -4.827694e+001 -2.851849e+001 -1.881244e-001 1.273165e+002
590625000 -1.911687e+000 -1.777753e+002 -4.799480e+001 -2.966748e+001 -4.879244e+001 -2.888211e+001 -1.858950e-001 1.273066e+002
591250000 -1.939631e+000 -1.781441e+002 -4.810475e+001 -3.089248e+001 -4.799931e+001 -2.912161e+001 -1.887260e-001 1.273585e+002
591875000 -1.976282e+000 -1.784674e+002 -4.766006e+001 -3.409910e+001 -4.771239e+001 -3.157536e+001 -1.903592e-001 1.273688e+002
592500000 -2.011631e+000 -1.787382e+002 -4.801654e+001 -3.244566e+001 -4.772819e+001 -3.326298e+001 -1.846142e-001 1.274814e+002
593125000 -2.041474e+000 -1.790480e+002 -4.744448e+001 -3.288404e+001 -4.768010e+001 -3.335991e+001 -1.948572e-001 1.275065e+002
593750000 -2.063237e+000 -1.792750e+002 -4.778582e+001 -3.639010e+001 -4.770600e+001 -3.796836e+001 -1.796091e-001 1.275332e+002
594375000 -2.070290e+000 -1.794603e+002 -4.707246e+001 -3.495949e+001 -4.754049e+001 -4.002043e+001 -1.834973e-001 1.275346e+002
595000000 -2.080851e+000 -1.796918e+002 -4.776923e+001 -3.710797e+001 -4.756588e+001 -3.932177e+001 -1.942805e-001 1.275441e+002
595625000 -2.083690e+000 1.799700e+002 -4.770284e+001 -3.990952e+001 -4.781065e+001 -3.816552e+001 -1.983787e-001 1.274985e+002
