!Agilent Technologies,E8364B,US42250235,A.06.04.32
!Agilent E8364B: A.06.04.32
!Date: Friday, January 15, 2021 16:12:59
!Correction: S11(Full 2 Port(1,2)) S21(Full 2 Port(1,2)) S12(Full 2 Port(1,2)) S22(Full 2 Port(1,2)) 
!S2P File: Measurements: S11, S21, S12, S22:
# Hz S  dB   R 50
500000000 -1.142326e-001 -1.296199e+002 -6.293234e+001 -8.011703e+001 -6.641371e+001 -7.240019e+001 -1.723156e-001 1.362173e+002
500625000 -1.153048e-001 -1.298267e+002 -6.114820e+001 -6.020721e+001 -6.186206e+001 -7.632782e+001 -1.733279e-001 1.362594e+002
501250000 -1.265825e-001 -1.300526e+002 -6.165654e+001 -7.080991e+001 -6.132392e+001 -7.869748e+001 -1.715538e-001 1.361217e+002
501875000 -1.229710e-001 -1.303334e+002 -6.275003e+001 -7.282912e+001 -6.660366e+001 -7.143039e+001 -1.709113e-001 1.361003e+002
502500000 -1.289817e-001 -1.306200e+002 -6.231511e+001 -7.808932e+001 -6.260880e+001 -7.635279e+001 -1.695076e-001 1.360784e+002
503125000 -1.329372e-001 -1.308682e+002 -6.282668e+001 -6.834878e+001 -6.394180e+001 -8.531779e+001 -1.774518e-001 1.359488e+002
503750000 -1.376889e-001 -1.311285e+002 -6.294146e+001 -8.237762e+001 -6.424612e+001 -7.048489e+001 -1.747127e-001 1.358562e+002
504375000 -1.473118e-001 -1.313428e+002 -6.321915e+001 -5.747478e+001 -5.994217e+001 -7.692053e+001 -1.828167e-001 1.358198e+002
505000000 -1.468952e-001 -1.316244e+002 -6.235271e+001 -7.789776e+001 -6.000608e+001 -7.322123e+001 -1.810353e-001 1.357542e+002
505625000 -1.412018e-001 -1.318596e+002 -6.348538e+001 -7.992947e+001 -6.166537e+001 -7.613306e+001 -1.852235e-001 1.356058e+002
506250000 -1.478946e-001 -1.321553e+002 -6.190014e+001 -6.483150e+001 -6.150544e+001 -7.706284e+001 -1.917351e-001 1.354700e+002
506875000 -1.515096e-001 -1.324084e+002 -6.118774e+001 -9.166629e+001 -6.042002e+001 -8.212317e+001 -1.919274e-001 1.352633e+002
507500000 -1.531578e-001 -1.326753e+002 -5.961010e+001 -8.395385e+001 -6.047498e+001 -7.717439e+001 -1.921159e-001 1.350929e+002
508125000 -1.563947e-001 -1.329199e+002 -6.046239e+001 -1.031454e+002 -6.196200e+001 -8.086224e+001 -1.977057e-001 1.349107e+002
508750000 -1.595150e-001 -1.331580e+002 -6.076253e+001 -8.522083e+001 -6.118796e+001 -8.573076e+001 -1.952533e-001 1.346793e+002
509375000 -1.649165e-001 -1.334966e+002 -6.102795e+001 -1.125479e+002 -6.015326e+001 -9.226167e+001 -2.011548e-001 1.345449e+002
510000000 -1.629379e-001 -1.337361e+002 -6.147275e+001 -9.444984e+001 -6.018403e+001 -9.254117e+001 -2.032322e-001 1.342878e+002
510625000 -1.772966e-001 -1.339755e+002 -6.145497e+001 -8.883530e+001 -6.099560e+001 -8.924990e+001 -2.006996e-001 1.341609e+002
511250000 -1.850266e-001 -1.342295e+002 -5.937442e+001 -9.362441e+001 -5.928268e+001 -8.838219e+001 -2.122681e-001 1.338560e+002
511875000 -1.762239e-001 -1.345245e+002 -6.044586e+001 -9.948999e+001 -6.055780e+001 -1.019679e+002 -2.052815e-001 1.336431e+002
512500000 -1.821891e-001 -1.348668e+002 -6.081046e+001 -9.562192e+001 -6.109232e+001 -8.613256e+001 -2.075270e-001 1.334664e+002
513125000 -1.959302e-001 -1.351791e+002 -5.967737e+001 -8.249358e+001 -5.914322e+001 -8.772761e+001 -2.060260e-001 1.333041e+002
513750000 -2.113357e-001 -1.354545e+002 -6.114229e+001 -9.405426e+001 -6.281183e+001 -8.942890e+001 -2.091970e-001 1.330671e+002
514375000 -2.205734e-001 -1.357745e+002 -6.106791e+001 -9.377349e+001 -5.982032e+001 -8.235638e+001 -1.951942e-001 1.328797e+002
515000000 -2.286232e-001 -1.360562e+002 -6.107547e+001 -1.056417e+002 -5.880697e+001 -1.080234e+002 -1.859166e-001 1.327814e+002
515625000 -2.404229e-001 -1.364337e+002 -5.781359e+001 -9.823566e+001 -6.124039e+001 -9.755873e+001 -1.806440e-001 1.326649e+002
516250000 -2.438940e-001 -1.367393e+002 -5.836361e+001 -1.015528e+002 -6.197250e+001 -8.789561e+001 -1.870685e-001 1.325232e+002
516875000 -2.602498e-001 -1.370437e+002 -5.868976e+001 -9.945090e+001 -5.901061e+001 -9.623661e+001 -1.870625e-001 1.325522e+002
517500000 -2.644978e-001 -1.373431e+002 -5.846551e+001 -9.612514e+001 -5.850857e+001 -9.445316e+001 -1.819418e-001 1.324537e+002
518125000 -2.733814e-001 -1.377202e+002 -5.948139e+001 -1.124694e+002 -5.989116e+001 -9.272495e+001 -1.764251e-001 1.323977e+002
518750000 -2.809785e-001 -1.380467e+002 -5.886778e+001 -1.134534e+002 -5.763015e+001 -1.038698e+002 -1.693240e-001 1.324414e+002
519375000 -2.976857e-001 -1.383091e+002 -5.983925e+001 -1.140722e+002 -5.865356e+001 -9.941344e+001 -1.599120e-001 1.324171e+002
520000000 -3.092658e-001 -1.386514e+002 -5.998270e+001 -9.932526e+001 -5.783351e+001 -1.052298e+002 -1.606142e-001 1.324208e+002
520625000 -3.147271e-001 -1.390060e+002 -5.826925e+001 -9.850032e+001 -5.985600e+001 -1.026286e+002 -1.559727e-001 1.323369e+002
521250000 -3.218172e-001 -1.393413e+002 -5.767159e+001 -1.168797e+002 -5.923299e+001 -1.133445e+002 -1.570486e-001 1.323889e+002
521875000 -3.221569e-001 -1.396812e+002 -5.640087e+001 -1.137792e+002 -5.746520e+001 -1.034064e+002 -1.517082e-001 1.324196e+002
522500000 -3.324093e-001 -1.399836e+002 -5.839191e+001 -1.074574e+002 -5.934411e+001 -1.041141e+002 -1.548512e-001 1.324811e+002
523125000 -3.463535e-001 -1.403123e+002 -5.728416e+001 -1.060079e+002 -5.771464e+001 -1.028684e+002 -1.582461e-001 1.324484e+002
523750000 -3.436435e-001 -1.406601e+002 -5.863071e+001 -1.117689e+002 -5.710129e+001 -1.126532e+002 -1.551233e-001 1.325088e+002
524375000 -3.627254e-001 -1.410167e+002 -5.775235e+001 -1.085012e+002 -5.825048e+001 -1.130220e+002 -1.589903e-001 1.324338e+002
525000000 -3.614662e-001 -1.413340e+002 -5.946518e+001 -1.108715e+002 -5.655821e+001 -1.115956e+002 -1.548483e-001 1.325216e+002
525625000 -3.764525e-001 -1.415524e+002 -5.923183e+001 -1.174795e+002 -5.864084e+001 -1.152109e+002 -1.700882e-001 1.324684e+002
526250000 -3.822060e-001 -1.418811e+002 -5.816787e+001 -1.199459e+002 -5.770947e+001 -1.155468e+002 -1.685300e-001 1.325230e+002
526875000 -3.910924e-001 -1.422511e+002 -5.702354e+001 -1.186698e+002 -5.875653e+001 -1.197184e+002 -1.623328e-001 1.325232e+002
527500000 -4.034146e-001 -1.425405e+002 -5.668879e+001 -1.268455e+002 -5.817452e+001 -1.172495e+002 -1.665239e-001 1.324770e+002
528125000 -4.196770e-001 -1.428761e+002 -5.657484e+001 -1.172524e+002 -5.726676e+001 -1.187789e+002 -1.627505e-001 1.325474e+002
528750000 -4.271123e-001 -1.431534e+002 -5.648922e+001 -1.234335e+002 -5.699956e+001 -1.170570e+002 -1.680841e-001 1.326159e+002
529375000 -4.312431e-001 -1.434446e+002 -5.682230e+001 -1.199636e+002 -5.901341e+001 -1.266835e+002 -1.695821e-001 1.325719e+002
530000000 -4.435434e-001 -1.438349e+002 -5.828050e+001 -1.191935e+002 -5.682751e+001 -1.172532e+002 -1.739529e-001 1.325510e+002
530625000 -4.548912e-001 -1.441009e+002 -5.638401e+001 -1.297839e+002 -5.788820e+001 -1.195659e+002 -1.707793e-001 1.325592e+002
531250000 -4.693656e-001 -1.444025e+002 -5.673789e+001 -1.219441e+002 -5.705294e+001 -1.357321e+002 -1.661677e-001 1.325996e+002
531875000 -4.845179e-001 -1.447385e+002 -5.714550e+001 -1.244246e+002 -5.718068e+001 -1.262134e+002 -1.733841e-001 1.326013e+002
532500000 -4.863765e-001 -1.450162e+002 -5.757345e+001 -1.341198e+002 -5.630069e+001 -1.328264e+002 -1.727780e-001 1.325608e+002
533125000 -4.877816e-001 -1.454175e+002 -5.574715e+001 -1.339103e+002 -5.697605e+001 -1.257736e+002 -1.805698e-001 1.325703e+002
533750000 -5.006470e-001 -1.457195e+002 -5.679260e+001 -1.294624e+002 -5.723724e+001 -1.332732e+002 -1.882517e-001 1.325474e+002
534375000 -5.097306e-001 -1.460566e+002 -5.733993e+001 -1.482933e+002 -5.605033e+001 -1.301228e+002 -1.601022e-001 1.325069e+002
535000000 -5.167165e-001 -1.463470e+002 -5.537444e+001 -1.378867e+002 -5.632294e+001 -1.312084e+002 -1.805740e-001 1.324547e+002
535625000 -5.227932e-001 -1.467328e+002 -5.549283e+001 -1.392903e+002 -5.654842e+001 -1.377249e+002 -1.729981e-001 1.324729e+002
536250000 -5.320899e-001 -1.470720e+002 -5.564610e+001 -1.399191e+002 -5.529235e+001 -1.335313e+002 -1.736098e-001 1.323909e+002
536875000 -5.438683e-001 -1.474586e+002 -5.590997e+001 -1.397806e+002 -5.589192e+001 -1.367123e+002 -1.811157e-001 1.322718e+002
537500000 -5.551696e-001 -1.477275e+002 -5.547768e+001 -1.419977e+002 -5.531526e+001 -1.355504e+002 -1.851806e-001 1.322369e+002
538125000 -5.633789e-001 -1.481154e+002 -5.506699e+001 -1.447987e+002 -5.570448e+001 -1.429037e+002 -1.911329e-001 1.321637e+002
538750000 -5.808634e-001 -1.484462e+002 -5.423057e+001 -1.408686e+002 -5.601858e+001 -1.402217e+002 -1.859627e-001 1.320683e+002
539375000 -5.993482e-001 -1.487119e+002 -5.519801e+001 -1.462963e+002 -5.598134e+001 -1.384967e+002 -1.889117e-001 1.319540e+002
540000000 -6.093788e-001 -1.490630e+002 -5.508519e+001 -1.564438e+002 -5.458276e+001 -1.375023e+002 -1.981432e-001 1.318508e+002
540625000 -6.101464e-001 -1.494035e+002 -5.519331e+001 -1.448490e+002 -5.481947e+001 -1.402994e+002 -1.955481e-001 1.317547e+002
541250000 -6.219096e-001 -1.496590e+002 -5.456323e+001 -1.487171e+002 -5.494769e+001 -1.495756e+002 -1.873056e-001 1.317371e+002
541875000 -6.323444e-001 -1.499642e+002 -5.504529e+001 -1.511154e+002 -5.481186e+001 -1.446191e+002 -2.033865e-001 1.316173e+002
542500000 -6.421500e-001 -1.502867e+002 -5.461897e+001 -1.520193e+002 -5.498622e+001 -1.445149e+002 -1.886702e-001 1.315526e+002
543125000 -6.467883e-001 -1.506111e+002 -5.380280e+001 -1.516893e+002 -5.430894e+001 -1.500280e+002 -1.827753e-001 1.314118e+002
543750000 -6.541222e-001 -1.509205e+002 -5.440903e+001 -1.587616e+002 -5.374184e+001 -1.535866e+002 -1.999460e-001 1.314312e+002
544375000 -6.774504e-001 -1.512332e+002 -5.374999e+001 -1.571415e+002 -5.412489e+001 -1.575271e+002 -1.874114e-001 1.313781e+002
545000000 -6.812482e-001 -1.515079e+002 -5.399947e+001 -1.567724e+002 -5.443147e+001 -1.562869e+002 -1.868801e-001 1.313477e+002
545625000 -6.879414e-001 -1.518448e+002 -5.358064e+001 -1.592985e+002 -5.419402e+001 -1.572323e+002 -1.836915e-001 1.313203e+002
546250000 -7.134581e-001 -1.521168e+002 -5.329977e+001 -1.663820e+002 -5.420246e+001 -1.603247e+002 -1.908849e-001 1.312106e+002
546875000 -7.198967e-001 -1.524613e+002 -5.414425e+001 -1.588718e+002 -5.387918e+001 -1.654025e+002 -1.912715e-001 1.312110e+002
547500000 -7.415754e-001 -1.527140e+002 -5.359980e+001 -1.679308e+002 -5.421194e+001 -1.620237e+002 -1.903224e-001 1.311418e+002
548125000 -7.534843e-001 -1.529646e+002 -5.443745e+001 -1.629017e+002 -5.334851e+001 -1.602694e+002 -1.822959e-001 1.310377e+002
548750000 -7.663090e-001 -1.533112e+002 -5.375608e+001 -1.695820e+002 -5.265498e+001 -1.629343e+002 -1.954163e-001 1.309846e+002
549375000 -7.818479e-001 -1.535825e+002 -5.281691e+001 -1.703670e+002 -5.386693e+001 -1.690116e+002 -1.955962e-001 1.308012e+002
550000000 -7.815468e-001 -1.538650e+002 -5.319648e+001 -1.754510e+002 -5.345536e+001 -1.653118e+002 -1.956674e-001 1.308141e+002
550625000 -7.851081e-001 -1.541201e+002 -5.410406e+001 -1.724172e+002 -5.358455e+001 -1.736650e+002 -2.005127e-001 1.306442e+002
551250000 -7.897864e-001 -1.544182e+002 -5.298490e+001 -1.764019e+002 -5.287793e+001 -1.779174e+002 -1.999605e-001 1.305287e+002
551875000 -8.005096e-001 -1.547242e+002 -5.345087e+001 -1.795969e+002 -5.323395e+001 -1.766965e+002 -2.071244e-001 1.303660e+002
552500000 -8.030749e-001 -1.550781e+002 -5.323515e+001 1.772366e+002 -5.378308e+001 -1.761655e+002 -2.049892e-001 1.302144e+002
553125000 -7.984800e-001 -1.553369e+002 -5.250840e+001 -1.775287e+002 -5.274018e+001 1.762275e+002 -2.111226e-001 1.300661e+002
553750000 -8.109121e-001 -1.557208e+002 -5.299913e+001 1.776293e+002 -5.326159e+001 -1.784308e+002 -2.147579e-001 1.298754e+002
554375000 -8.120293e-001 -1.560077e+002 -5.332108e+001 1.780383e+002 -5.382870e+001 1.793935e+002 -2.077904e-001 1.297607e+002
555000000 -8.152639e-001 -1.562873e+002 -5.276893e+001 1.766564e+002 -5.310931e+001 1.792989e+002 -2.130136e-001 1.295925e+002
555625000 -8.347024e-001 -1.566371e+002 -5.236132e+001 1.774703e+002 -5.286895e+001 1.777367e+002 -2.041739e-001 1.295472e+002
556250000 -8.264935e-001 -1.569230e+002 -5.313011e+001 1.739298e+002 -5.370435e+001 1.785324e+002 -2.059350e-001 1.293354e+002
556875000 -8.309176e-001 -1.573078e+002 -5.331734e+001 1.670944e+002 -5.257220e+001 1.723160e+002 -2.039591e-001 1.293388e+002
557500000 -8.442764e-001 -1.575664e+002 -5.279517e+001 1.722083e+002 -5.367889e+001 1.717803e+002 -1.921895e-001 1.292302e+002
558125000 -8.548955e-001 -1.579047e+002 -5.349579e+001 1.664521e+002 -5.275413e+001 1.704138e+002 -2.002133e-001 1.291962e+002
558750000 -8.471110e-001 -1.582006e+002 -5.230765e+001 1.639661e+002 -5.285627e+001 1.745529e+002 -1.735367e-001 1.291756e+002
559375000 -8.635960e-001 -1.585479e+002 -5.326526e+001 1.656530e+002 -5.331747e+001 1.703095e+002 -1.821330e-001 1.291506e+002
560000000 -8.762152e-001 -1.588780e+002 -5.348510e+001 1.663838e+002 -5.293074e+001 1.688775e+002 -1.696850e-001 1.290977e+002
560625000 -8.753895e-001 -1.591375e+002 -5.249891e+001 1.712736e+002 -5.299697e+001 1.657382e+002 -1.660416e-001 1.292047e+002
561250000 -8.912290e-001 -1.595422e+002 -5.250603e+001 1.655704e+002 -5.289834e+001 1.655336e+002 -1.581829e-001 1.292290e+002
561875000 -9.000179e-001 -1.598445e+002 -5.258201e+001 1.636348e+002 -5.275145e+001 1.661261e+002 -1.731961e-001 1.292908e+002
562500000 -9.118680e-001 -1.601545e+002 -5.298442e+001 1.599037e+002 -5.250783e+001 1.661696e+002 -1.636816e-001 1.294012e+002
563125000 -9.224648e-001 -1.605060e+002 -5.184212e+001 1.596453e+002 -5.275391e+001 1.617178e+002 -1.526970e-001 1.294111e+002
563750000 -9.404836e-001 -1.608694e+002 -5.279741e+001 1.609747e+002 -5.210095e+001 1.607003e+002 -1.696368e-001 1.294362e+002
564375000 -9.529552e-001 -1.612286e+002 -5.187080e+001 1.617628e+002 -5.135910e+001 1.650484e+002 -1.725326e-001 1.295183e+002
565000000 -9.684361e-001 -1.616048e+002 -5.214386e+001 1.581172e+002 -5.213911e+001 1.603165e+002 -1.756495e-001 1.295101e+002
565625000 -9.867619e-001 -1.619880e+002 -5.195371e+001 1.535213e+002 -5.210607e+001 1.587478e+002 -1.769428e-001 1.295372e+002
566250000 -1.005523e+000 -1.624078e+002 -5.252444e+001 1.526712e+002 -5.216626e+001 1.564539e+002 -1.885772e-001 1.295392e+002
566875000 -1.026884e+000 -1.627691e+002 -5.246210e+001 1.535579e+002 -5.178945e+001 1.580434e+002 -1.916735e-001 1.294523e+002
567500000 -1.045508e+000 -1.632634e+002 -5.219476e+001 1.520700e+002 -5.156064e+001 1.543901e+002 -1.858110e-001 1.294393e+002
568125000 -1.064523e+000 -1.636035e+002 -5.141801e+001 1.504774e+002 -5.211819e+001 1.519177e+002 -1.983567e-001 1.293926e+002
568750000 -1.084856e+000 -1.639478e+002 -5.157440e+001 1.470151e+002 -5.090173e+001 1.472339e+002 -1.982246e-001 1.293349e+002
569375000 -1.111051e+000 -1.643476e+002 -5.115139e+001 1.462411e+002 -5.155833e+001 1.482578e+002 -1.918262e-001 1.292831e+002
570000000 -1.123550e+000 -1.647769e+002 -5.134419e+001 1.433175e+002 -5.185696e+001 1.518439e+002 -2.001693e-001 1.291723e+002
570625000 -1.132408e+000 -1.651430e+002 -5.150205e+001 1.448093e+002 -5.147814e+001 1.485010e+002 -2.036247e-001 1.291061e+002
571250000 -1.141404e+000 -1.655357e+002 -5.186156e+001 1.404398e+002 -5.142610e+001 1.467514e+002 -2.009929e-001 1.290742e+002
571875000 -1.165168e+000 -1.658569e+002 -5.131586e+001 1.428618e+002 -5.120355e+001 1.407854e+002 -1.933197e-001 1.290161e+002
572500000 -1.180731e+000 -1.663262e+002 -5.076315e+001 1.388270e+002 -5.152613e+001 1.441117e+002 -1.982757e-001 1.289147e+002
573125000 -1.188571e+000 -1.666958e+002 -5.183942e+001 1.366555e+002 -5.166321e+001 1.408939e+002 -1.939814e-001 1.289140e+002
573750000 -1.191811e+000 -1.670392e+002 -5.142324e+001 1.399014e+002 -5.151268e+001 1.418692e+002 -1.989879e-001 1.288300e+002
574375000 -1.198981e+000 -1.674424e+002 -5.085941e+001 1.348183e+002 -5.076491e+001 1.417780e+002 -1.949452e-001 1.288357e+002
575000000 -1.199924e+000 -1.679114e+002 -5.108695e+001 1.352647e+002 -5.105357e+001 1.401984e+002 -1.970836e-001 1.287321e+002
575625000 -1.210651e+000 -1.683348e+002 -5.154407e+001 1.330266e+002 -5.090285e+001 1.345040e+002 -2.040219e-001 1.286452e+002
576250000 -1.219396e+000 -1.687985e+002 -5.077512e+001 1.312912e+002 -5.084414e+001 1.375370e+002 -2.031694e-001 1.285673e+002
576875000 -1.232372e+000 -1.692395e+002 -5.165891e+001 1.318859e+002 -5.115374e+001 1.357142e+002 -1.990638e-001 1.285450e+002
577500000 -1.249935e+000 -1.696101e+002 -5.018085e+001 1.313544e+002 -5.102111e+001 1.353126e+002 -2.067564e-001 1.283845e+002
578125000 -1.262036e+000 -1.700083e+002 -5.086322e+001 1.279411e+002 -5.020203e+001 1.286884e+002 -2.026869e-001 1.283239e+002
578750000 -1.269802e+000 -1.704920e+002 -5.072148e+001 1.293389e+002 -4.996466e+001 1.326785e+002 -2.065517e-001 1.281825e+002
579375000 -1.274895e+000 -1.709089e+002 -5.073251e+001 1.286122e+002 -5.082982e+001 1.274598e+002 -2.176412e-001 1.280008e+002
580000000 -1.288690e+000 -1.713562e+002 -5.082178e+001 1.297439e+002 -5.021385e+001 1.271811e+002 -2.242652e-001 1.278312e+002
580625000 -1.302635e+000 -1.718819e+002 -5.035406e+001 1.203567e+002 -5.014757e+001 1.241784e+002 -2.279346e-001 1.276906e+002
581250000 -1.322631e+000 -1.723205e+002 -5.088838e+001 1.243542e+002 -4.999752e+001 1.275509e+002 -2.277510e-001 1.274992e+002
581875000 -1.336834e+000 -1.728616e+002 -5.037850e+001 1.215035e+002 -4.987925e+001 1.238860e+002 -2.379905e-001 1.272531e+002
582500000 -1.360597e+000 -1.733388e+002 -5.058791e+001 1.223658e+002 -5.069879e+001 1.213978e+002 -2.351488e-001 1.270288e+002
583125000 -1.374689e+000 -1.739267e+002 -5.036423e+001 1.178017e+002 -5.026928e+001 1.197025e+002 -2.421052e-001 1.267358e+002
583750000 -1.397503e+000 -1.744287e+002 -5.002832e+001 1.170121e+002 -5.074901e+001 1.214889e+002 -2.474257e-001 1.265360e+002
584375000 -1.417666e+000 -1.749265e+002 -5.049659e+001 1.157728e+002 -5.065498e+001 1.222669e+002 -2.408320e-001 1.262780e+002
585000000 -1.431299e+000 -1.754818e+002 -4.997090e+001 1.116129e+002 -5.062496e+001 1.162747e+002 -2.500579e-001 1.260923e+002
585625000 -1.460879e+000 -1.760216e+002 -4.981770e+001 1.176773e+002 -4.946471e+001 1.167555e+002 -2.300499e-001 1.259057e+002
586250000 -1.481145e+000 -1.765235e+002 -4.942455e+001 1.139632e+002 -5.011920e+001 1.152918e+002 -2.335167e-001 1.257836e+002
586875000 -1.492195e+000 -1.771070e+002 -5.046645e+001 1.106901e+002 -4.979216e+001 1.133424e+002 -2.275871e-001 1.255869e+002
587500000 -1.522933e+000 -1.776376e+002 -5.036539e+001 1.137163e+002 -4.968494e+001 1.113610e+002 -2.092773e-001 1.254182e+002
588125000 -1.546872e+000 -1.781410e+002 -4.985926e+001 1.081406e+002 -4.980104e+001 1.121735e+002 -2.115399e-001 1.253685e+002
588750000 -1.565531e+000 -1.786922e+002 -4.950754e+001 1.083733e+002 -4.970813e+001 1.100764e+002 -2.067100e-001 1.253284e+002
589375000 -1.590127e+000 -1.792252e+002 -4.943087e+001 1.118746e+002 -4.997638e+001 1.075332e+002 -1.874269e-001 1.252161e+002
590000000 -1.629637e+000 -1.797103e+002 -4.881141e+001 1.073662e+002 -4.914914e+001 1.043122e+002 -1.909321e-001 1.252205e+002
590625000 -1.656023e+000 1.798678e+002 -4.908406e+001 1.026344e+002 -4.907457e+001 1.023106e+002 -1.873949e-001 1.251993e+002
591250000 -1.684285e+000 1.794612e+002 -4.880792e+001 1.052577e+002 -4.908716e+001 9.977530e+001 -1.889029e-001 1.252094e+002
591875000 -1.722096e+000 1.790560e+002 -4.888247e+001 1.029840e+002 -4.845995e+001 1.007429e+002 -1.823383e-001 1.252861e+002
592500000 -1.750814e+000 1.786935e+002 -4.891086e+001 9.878429e+001 -4.928381e+001 9.841071e+001 -1.788262e-001 1.253152e+002
593125000 -1.788623e+000 1.783447e+002 -4.878559e+001 9.211582e+001 -4.875769e+001 9.982191e+001 -1.749811e-001 1.253992e+002
593750000 -1.809218e+000 1.779806e+002 -4.898549e+001 9.256004e+001 -4.868655e+001 9.657666e+001 -1.704491e-001 1.255160e+002
594375000 -1.823968e+000 1.776994e+002 -4.907240e+001 9.444218e+001 -4.815082e+001 9.512515e+001 -1.687994e-001 1.255457e+002
595000000 -1.848858e+000 1.773435e+002 -4.887440e+001 9.166047e+001 -4.921163e+001 9.489473e+001 -1.784822e-001 1.256308e+002
