!Agilent Technologies,E8364B,US42250235,A.06.04.32
!Agilent E8364B: A.06.04.32
!Date: Friday, January 15, 2021 16:15:18
!Correction: S11(Full 2 Port(1,2)) S21(Full 2 Port(1,2)) S12(Full 2 Port(1,2)) S22(Full 2 Port(1,2)) 
!S2P File: Measurements: S11, S21, S12, S22:
# Hz S  dB   R 50
500000000 -1.178273e-001 -1.294563e+002 -6.068830e+001 1.744701e+002 -6.102766e+001 1.483524e+002 -1.586734e-001 1.359890e+002
500625000 -1.212527e-001 -1.297093e+002 -6.214385e+001 1.601154e+002 -6.306396e+001 1.517007e+002 -1.699679e-001 1.359189e+002
501250000 -1.306499e-001 -1.299395e+002 -6.166058e+001 1.487727e+002 -6.106627e+001 1.571179e+002 -1.547922e-001 1.358284e+002
501875000 -1.302452e-001 -1.302368e+002 -6.163054e+001 1.459218e+002 -6.403159e+001 1.501547e+002 -1.537072e-001 1.358220e+002
502500000 -1.278204e-001 -1.304852e+002 -6.480654e+001 1.488510e+002 -6.433101e+001 1.590096e+002 -1.590188e-001 1.358130e+002
503125000 -1.383485e-001 -1.307310e+002 -6.244518e+001 1.421042e+002 -6.216085e+001 1.737369e+002 -1.603603e-001 1.356681e+002
503750000 -1.342425e-001 -1.310065e+002 -6.190265e+001 1.433196e+002 -6.030097e+001 1.540870e+002 -1.649088e-001 1.355411e+002
504375000 -1.374567e-001 -1.312338e+002 -6.080351e+001 1.510209e+002 -6.073757e+001 1.403771e+002 -1.725086e-001 1.355048e+002
505000000 -1.432947e-001 -1.315318e+002 -6.054835e+001 1.481784e+002 -6.177874e+001 1.689799e+002 -1.792075e-001 1.354225e+002
505625000 -1.401921e-001 -1.317196e+002 -6.148964e+001 1.423770e+002 -6.281566e+001 1.373232e+002 -1.781166e-001 1.352751e+002
506250000 -1.430473e-001 -1.320103e+002 -6.318813e+001 1.340334e+002 -5.990839e+001 1.549069e+002 -1.761053e-001 1.351080e+002
506875000 -1.367985e-001 -1.322193e+002 -5.961161e+001 1.419776e+002 -6.092171e+001 1.386573e+002 -1.780574e-001 1.349340e+002
507500000 -1.440499e-001 -1.325353e+002 -5.985819e+001 1.415473e+002 -6.249081e+001 1.582738e+002 -1.788940e-001 1.347071e+002
508125000 -1.453649e-001 -1.327676e+002 -5.988899e+001 1.424540e+002 -5.961482e+001 1.376183e+002 -1.799902e-001 1.345638e+002
508750000 -1.429065e-001 -1.329882e+002 -6.132838e+001 1.371006e+002 -6.117480e+001 1.417444e+002 -1.808770e-001 1.343889e+002
509375000 -1.482531e-001 -1.333199e+002 -6.064915e+001 1.258955e+002 -5.974067e+001 1.359034e+002 -1.878517e-001 1.341849e+002
510000000 -1.467492e-001 -1.336526e+002 -6.604199e+001 1.393479e+002 -5.981487e+001 1.382589e+002 -1.919299e-001 1.339253e+002
510625000 -1.600011e-001 -1.338186e+002 -5.949274e+001 1.222603e+002 -5.956797e+001 1.413379e+002 -1.840586e-001 1.338046e+002
511250000 -1.635152e-001 -1.341284e+002 -6.093729e+001 1.313920e+002 -5.963356e+001 1.233535e+002 -1.988685e-001 1.334939e+002
511875000 -1.605165e-001 -1.344265e+002 -6.037140e+001 1.418920e+002 -6.010336e+001 1.267766e+002 -1.876577e-001 1.333037e+002
512500000 -1.662818e-001 -1.346825e+002 -5.889859e+001 1.445005e+002 -6.231895e+001 1.255547e+002 -1.921848e-001 1.330935e+002
513125000 -1.705654e-001 -1.349948e+002 -6.098684e+001 1.250927e+002 -5.859990e+001 1.251438e+002 -1.893405e-001 1.330164e+002
513750000 -1.844084e-001 -1.353204e+002 -6.016431e+001 1.328167e+002 -5.990638e+001 1.281152e+002 -1.961536e-001 1.328299e+002
514375000 -1.940869e-001 -1.355978e+002 -6.116244e+001 1.335598e+002 -5.976902e+001 1.242314e+002 -1.832913e-001 1.326165e+002
515000000 -1.959254e-001 -1.358488e+002 -5.929700e+001 1.203952e+002 -6.106060e+001 1.252770e+002 -1.685449e-001 1.325029e+002
515625000 -2.129032e-001 -1.362764e+002 -6.069106e+001 1.404043e+002 -6.080331e+001 1.352978e+002 -1.700616e-001 1.323696e+002
516250000 -2.121969e-001 -1.365841e+002 -6.019267e+001 1.231071e+002 -6.012081e+001 1.104152e+002 -1.763868e-001 1.322856e+002
516875000 -2.280916e-001 -1.368902e+002 -5.884180e+001 1.132658e+002 -6.152801e+001 1.287797e+002 -1.626540e-001 1.322261e+002
517500000 -2.323277e-001 -1.372290e+002 -5.824526e+001 1.193447e+002 -5.906365e+001 1.215260e+002 -1.617887e-001 1.321529e+002
518125000 -2.331622e-001 -1.375896e+002 -5.818745e+001 1.115811e+002 -5.833934e+001 1.207677e+002 -1.597840e-001 1.321204e+002
518750000 -2.443739e-001 -1.378754e+002 -5.787510e+001 1.135074e+002 -6.037141e+001 1.238621e+002 -1.594987e-001 1.321025e+002
519375000 -2.632017e-001 -1.381833e+002 -5.900574e+001 1.263179e+002 -5.821892e+001 1.242248e+002 -1.392853e-001 1.320750e+002
520000000 -2.654471e-001 -1.385497e+002 -5.986596e+001 1.227923e+002 -5.874883e+001 1.211590e+002 -1.492315e-001 1.320995e+002
520625000 -2.698715e-001 -1.389091e+002 -5.900321e+001 1.169374e+002 -5.823021e+001 1.196580e+002 -1.436243e-001 1.320642e+002
521250000 -2.768123e-001 -1.392253e+002 -5.847924e+001 1.163058e+002 -5.876014e+001 1.156526e+002 -1.422851e-001 1.321128e+002
521875000 -2.740445e-001 -1.396172e+002 -5.909227e+001 1.124867e+002 -5.814626e+001 1.083494e+002 -1.385022e-001 1.321635e+002
522500000 -2.755040e-001 -1.398933e+002 -5.646458e+001 1.111221e+002 -5.742026e+001 1.127383e+002 -1.451186e-001 1.321268e+002
523125000 -2.926470e-001 -1.402801e+002 -5.910292e+001 1.123400e+002 -5.808345e+001 1.107507e+002 -1.463386e-001 1.321663e+002
523750000 -2.835539e-001 -1.406080e+002 -5.757224e+001 1.088753e+002 -5.876421e+001 1.269137e+002 -1.455860e-001 1.321930e+002
524375000 -3.025282e-001 -1.409824e+002 -5.826569e+001 1.126412e+002 -5.849458e+001 1.177209e+002 -1.413397e-001 1.321586e+002
525000000 -3.042973e-001 -1.413058e+002 -5.716051e+001 9.993915e+001 -5.944195e+001 1.136787e+002 -1.435614e-001 1.322293e+002
525625000 -3.178428e-001 -1.416005e+002 -5.700072e+001 1.064836e+002 -5.671743e+001 1.120762e+002 -1.521376e-001 1.321928e+002
526250000 -3.175371e-001 -1.419184e+002 -5.922786e+001 9.278310e+001 -5.769243e+001 1.044909e+002 -1.528540e-001 1.322073e+002
526875000 -3.322985e-001 -1.422718e+002 -5.644858e+001 1.057546e+002 -5.668958e+001 1.086709e+002 -1.388247e-001 1.322619e+002
527500000 -3.409852e-001 -1.426318e+002 -5.829813e+001 1.072898e+002 -5.723726e+001 9.678781e+001 -1.509986e-001 1.322284e+002
528125000 -3.563332e-001 -1.429385e+002 -5.715576e+001 9.434983e+001 -5.661032e+001 9.682377e+001 -1.488219e-001 1.323193e+002
528750000 -3.593558e-001 -1.432563e+002 -5.699865e+001 9.342029e+001 -5.684642e+001 9.283120e+001 -1.466246e-001 1.323558e+002
529375000 -3.648956e-001 -1.435755e+002 -5.683685e+001 1.006880e+002 -5.748283e+001 8.874884e+001 -1.459907e-001 1.323287e+002
530000000 -3.787137e-001 -1.439633e+002 -5.829242e+001 9.647260e+001 -5.649192e+001 9.934470e+001 -1.477049e-001 1.324045e+002
530625000 -3.973502e-001 -1.442543e+002 -5.783525e+001 9.819180e+001 -5.691114e+001 8.729516e+001 -1.454878e-001 1.323696e+002
531250000 -3.947518e-001 -1.445572e+002 -5.625469e+001 9.790541e+001 -5.665645e+001 9.247819e+001 -1.443834e-001 1.323251e+002
531875000 -4.118301e-001 -1.449065e+002 -5.771024e+001 8.331118e+001 -5.688988e+001 9.437633e+001 -1.532226e-001 1.323314e+002
532500000 -4.154627e-001 -1.452376e+002 -5.757167e+001 8.494134e+001 -5.758596e+001 8.933262e+001 -1.567757e-001 1.323925e+002
533125000 -4.164258e-001 -1.456478e+002 -5.661891e+001 8.900521e+001 -5.683209e+001 8.346287e+001 -1.599409e-001 1.323620e+002
533750000 -4.332673e-001 -1.460089e+002 -5.600270e+001 8.763847e+001 -5.776835e+001 9.027414e+001 -1.737446e-001 1.323204e+002
534375000 -4.376913e-001 -1.463352e+002 -5.605569e+001 7.987800e+001 -5.636052e+001 8.397020e+001 -1.597976e-001 1.322507e+002
535000000 -4.516690e-001 -1.466824e+002 -5.615047e+001 8.691036e+001 -5.698391e+001 8.230986e+001 -1.669763e-001 1.322259e+002
535625000 -4.604235e-001 -1.470590e+002 -5.581405e+001 9.157738e+001 -5.585130e+001 9.063536e+001 -1.637160e-001 1.321767e+002
536250000 -4.703856e-001 -1.474313e+002 -5.577999e+001 8.529653e+001 -5.646662e+001 8.112702e+001 -1.632265e-001 1.320579e+002
536875000 -4.758089e-001 -1.478401e+002 -5.618538e+001 9.167458e+001 -5.626266e+001 7.105606e+001 -1.674558e-001 1.319966e+002
537500000 -4.862897e-001 -1.481420e+002 -5.675013e+001 7.837890e+001 -5.562970e+001 7.580656e+001 -1.622266e-001 1.319555e+002
538125000 -4.969076e-001 -1.485269e+002 -5.585109e+001 7.588796e+001 -5.583398e+001 7.887337e+001 -1.690807e-001 1.318976e+002
538750000 -5.178087e-001 -1.488993e+002 -5.606673e+001 7.721014e+001 -5.674442e+001 8.292423e+001 -1.701281e-001 1.318240e+002
539375000 -5.289928e-001 -1.492151e+002 -5.448067e+001 8.148279e+001 -5.673055e+001 7.182295e+001 -1.634803e-001 1.317487e+002
540000000 -5.387647e-001 -1.495328e+002 -5.537930e+001 6.534169e+001 -5.559387e+001 7.212592e+001 -1.754583e-001 1.316067e+002
540625000 -5.532030e-001 -1.499275e+002 -5.465173e+001 7.187373e+001 -5.578709e+001 7.552996e+001 -1.722506e-001 1.315289e+002
541250000 -5.629184e-001 -1.502320e+002 -5.415916e+001 7.608520e+001 -5.486351e+001 6.960216e+001 -1.720153e-001 1.314808e+002
541875000 -5.801583e-001 -1.505665e+002 -5.607645e+001 6.754972e+001 -5.590318e+001 7.184120e+001 -1.759364e-001 1.314014e+002
542500000 -6.001316e-001 -1.509028e+002 -5.607608e+001 7.293681e+001 -5.506650e+001 6.565787e+001 -1.686710e-001 1.313101e+002
543125000 -6.012825e-001 -1.512679e+002 -5.516879e+001 7.155462e+001 -5.509169e+001 7.102509e+001 -1.713868e-001 1.312091e+002
543750000 -6.106445e-001 -1.515813e+002 -5.491219e+001 7.637331e+001 -5.512958e+001 6.378107e+001 -1.717408e-001 1.312080e+002
544375000 -6.300893e-001 -1.518922e+002 -5.616544e+001 6.462508e+001 -5.547280e+001 7.641640e+001 -1.614820e-001 1.312008e+002
545000000 -6.319308e-001 -1.522087e+002 -5.473077e+001 6.806618e+001 -5.512732e+001 6.627619e+001 -1.628621e-001 1.310746e+002
545625000 -6.498452e-001 -1.525512e+002 -5.526218e+001 6.502674e+001 -5.472725e+001 5.989438e+001 -1.650466e-001 1.310496e+002
546250000 -6.781440e-001 -1.528766e+002 -5.464243e+001 6.480696e+001 -5.470134e+001 5.850384e+001 -1.738576e-001 1.309505e+002
546875000 -6.897567e-001 -1.532370e+002 -5.366368e+001 5.764713e+001 -5.513980e+001 6.467783e+001 -1.682120e-001 1.309184e+002
547500000 -7.143521e-001 -1.535882e+002 -5.467357e+001 5.578262e+001 -5.481713e+001 5.952298e+001 -1.766959e-001 1.308798e+002
548125000 -7.385348e-001 -1.538360e+002 -5.369196e+001 5.603680e+001 -5.451670e+001 5.123921e+001 -1.735959e-001 1.307939e+002
548750000 -7.559557e-001 -1.541923e+002 -5.365719e+001 5.914471e+001 -5.438179e+001 5.348789e+001 -1.777768e-001 1.307045e+002
549375000 -7.799835e-001 -1.544653e+002 -5.384357e+001 5.406482e+001 -5.360036e+001 4.559826e+001 -1.803887e-001 1.304705e+002
550000000 -7.917441e-001 -1.547382e+002 -5.375143e+001 4.030995e+001 -5.369341e+001 5.115968e+001 -1.882973e-001 1.304814e+002
550625000 -8.172268e-001 -1.550124e+002 -5.373296e+001 4.969807e+001 -5.403937e+001 5.032202e+001 -1.906568e-001 1.303414e+002
551250000 -8.103796e-001 -1.552818e+002 -5.465344e+001 4.559351e+001 -5.371161e+001 5.062038e+001 -1.898817e-001 1.301464e+002
551875000 -8.271295e-001 -1.556149e+002 -5.407007e+001 4.119140e+001 -5.452999e+001 4.147646e+001 -1.896012e-001 1.300206e+002
552500000 -8.323308e-001 -1.559435e+002 -5.290051e+001 4.446660e+001 -5.359029e+001 5.137507e+001 -1.883387e-001 1.298465e+002
553125000 -8.368545e-001 -1.561910e+002 -5.422373e+001 3.693404e+001 -5.360701e+001 4.013696e+001 -1.888779e-001 1.297858e+002
553750000 -8.559592e-001 -1.565066e+002 -5.373098e+001 3.916906e+001 -5.340618e+001 3.929306e+001 -1.958430e-001 1.295316e+002
554375000 -8.567008e-001 -1.568044e+002 -5.252631e+001 3.616618e+001 -5.356392e+001 3.481328e+001 -1.860874e-001 1.294165e+002
555000000 -8.677282e-001 -1.571787e+002 -5.398566e+001 3.287903e+001 -5.389877e+001 3.564521e+001 -1.904843e-001 1.292780e+002
555625000 -8.877165e-001 -1.574458e+002 -5.346514e+001 3.374621e+001 -5.433145e+001 3.368623e+001 -1.789276e-001 1.292092e+002
556250000 -8.892540e-001 -1.577902e+002 -5.274483e+001 4.108279e+001 -5.466555e+001 3.697016e+001 -1.871226e-001 1.290379e+002
556875000 -8.999137e-001 -1.581380e+002 -5.388927e+001 2.875905e+001 -5.278627e+001 3.696207e+001 -1.813887e-001 1.289724e+002
557500000 -9.226706e-001 -1.584144e+002 -5.349813e+001 3.175760e+001 -5.274007e+001 3.473695e+001 -1.617171e-001 1.289186e+002
558125000 -9.271794e-001 -1.587245e+002 -5.398475e+001 3.444507e+001 -5.399224e+001 2.973507e+001 -1.725820e-001 1.289030e+002
558750000 -9.338004e-001 -1.590210e+002 -5.308005e+001 3.319362e+001 -5.321695e+001 3.424171e+001 -1.584671e-001 1.288743e+002
559375000 -9.547963e-001 -1.593529e+002 -5.327570e+001 2.816097e+001 -5.383910e+001 2.434908e+001 -1.595937e-001 1.288750e+002
560000000 -9.744332e-001 -1.596740e+002 -5.250356e+001 2.683882e+001 -5.426945e+001 2.714002e+001 -1.493075e-001 1.288327e+002
560625000 -9.840271e-001 -1.599071e+002 -5.306849e+001 3.048042e+001 -5.277266e+001 3.206404e+001 -1.526227e-001 1.288797e+002
561250000 -9.949697e-001 -1.602490e+002 -5.254899e+001 2.695011e+001 -5.308982e+001 2.690318e+001 -1.484893e-001 1.288628e+002
561875000 -1.014180e+000 -1.605598e+002 -5.282628e+001 2.136828e+001 -5.323526e+001 2.376528e+001 -1.499144e-001 1.290043e+002
562500000 -1.031631e+000 -1.608804e+002 -5.270219e+001 2.458168e+001 -5.298313e+001 2.137093e+001 -1.516922e-001 1.290152e+002
563125000 -1.039341e+000 -1.611700e+002 -5.301925e+001 1.757738e+001 -5.249564e+001 1.914601e+001 -1.415305e-001 1.290496e+002
563750000 -1.063694e+000 -1.615425e+002 -5.200953e+001 1.937113e+001 -5.325707e+001 2.158741e+001 -1.459591e-001 1.291140e+002
564375000 -1.086300e+000 -1.618737e+002 -5.278813e+001 1.403736e+001 -5.272427e+001 2.238899e+001 -1.508727e-001 1.291819e+002
565000000 -1.107507e+000 -1.622387e+002 -5.221365e+001 1.897872e+001 -5.200403e+001 2.354719e+001 -1.561327e-001 1.291395e+002
565625000 -1.134444e+000 -1.625882e+002 -5.223946e+001 1.418455e+001 -5.190651e+001 1.605731e+001 -1.612468e-001 1.292107e+002
566250000 -1.151035e+000 -1.630202e+002 -5.225227e+001 1.428986e+001 -5.279786e+001 1.410038e+001 -1.670354e-001 1.291207e+002
566875000 -1.193666e+000 -1.633882e+002 -5.157511e+001 9.177502e+000 -5.224916e+001 1.379669e+001 -1.692218e-001 1.290679e+002
567500000 -1.216127e+000 -1.637314e+002 -5.177710e+001 1.101666e+001 -5.201673e+001 7.680347e+000 -1.666057e-001 1.290567e+002
568125000 -1.247018e+000 -1.640523e+002 -5.171736e+001 1.220057e+001 -5.217829e+001 1.104608e+001 -1.698685e-001 1.290599e+002
568750000 -1.271208e+000 -1.643710e+002 -5.161433e+001 8.591355e+000 -5.208086e+001 8.241356e+000 -1.789767e-001 1.289276e+002
569375000 -1.295875e+000 -1.646848e+002 -5.158363e+001 8.381871e+000 -5.106298e+001 6.443466e+000 -1.776288e-001 1.289512e+002
570000000 -1.318630e+000 -1.650434e+002 -5.134985e+001 -2.697676e+000 -5.209021e+001 5.582496e+000 -1.727958e-001 1.287993e+002
570625000 -1.327075e+000 -1.653153e+002 -5.161393e+001 5.899806e+000 -5.160672e+001 -1.288674e-001 -1.727975e-001 1.288010e+002
571250000 -1.357414e+000 -1.656960e+002 -5.190855e+001 2.305729e+000 -5.163851e+001 4.008460e+000 -1.793657e-001 1.287495e+002
571875000 -1.363161e+000 -1.659550e+002 -5.093304e+001 -3.380109e+000 -5.126828e+001 -1.152680e+000 -1.782051e-001 1.287090e+002
572500000 -1.381080e+000 -1.662647e+002 -5.136731e+001 -7.916767e+000 -5.115563e+001 4.051473e-001 -1.790645e-001 1.286630e+002
573125000 -1.385611e+000 -1.665828e+002 -5.176974e+001 -4.686592e+000 -5.182204e+001 7.943891e-001 -1.670293e-001 1.285957e+002
573750000 -1.382286e+000 -1.668696e+002 -5.174427e+001 -4.166093e+000 -5.158286e+001 -4.182609e+000 -1.837755e-001 1.285009e+002
574375000 -1.392733e+000 -1.672736e+002 -5.111172e+001 -7.587407e+000 -5.189635e+001 -4.818655e+000 -1.848740e-001 1.285150e+002
575000000 -1.400613e+000 -1.676671e+002 -5.152384e+001 -9.390553e+000 -5.149152e+001 -4.730816e+000 -1.731266e-001 1.284330e+002
575625000 -1.401604e+000 -1.680246e+002 -5.124046e+001 -1.373739e+001 -5.164666e+001 -9.510181e+000 -1.840676e-001 1.283591e+002
576250000 -1.411623e+000 -1.684049e+002 -5.114049e+001 -9.830011e+000 -5.094347e+001 -1.131845e+001 -1.881493e-001 1.282625e+002
576875000 -1.420329e+000 -1.688155e+002 -5.129855e+001 -1.340893e+001 -5.162434e+001 -9.602214e+000 -1.810215e-001 1.282201e+002
577500000 -1.442889e+000 -1.691638e+002 -5.162664e+001 -1.650938e+001 -5.101544e+001 -1.445513e+001 -1.878506e-001 1.280842e+002
578125000 -1.444321e+000 -1.695328e+002 -5.095472e+001 -2.056252e+001 -5.133361e+001 -1.598656e+001 -1.882470e-001 1.280686e+002
578750000 -1.454412e+000 -1.699430e+002 -5.078716e+001 -1.891391e+001 -5.119133e+001 -1.455332e+001 -2.000623e-001 1.278189e+002
579375000 -1.463647e+000 -1.703071e+002 -5.144177e+001 -2.291457e+001 -5.103115e+001 -2.053213e+001 -1.955613e-001 1.276612e+002
580000000 -1.464030e+000 -1.707217e+002 -5.185564e+001 -2.106682e+001 -5.126057e+001 -1.866127e+001 -1.978357e-001 1.275094e+002
580625000 -1.478019e+000 -1.712254e+002 -5.058983e+001 -2.784826e+001 -5.156225e+001 -2.185645e+001 -2.024866e-001 1.273399e+002
581250000 -1.491467e+000 -1.716324e+002 -5.084952e+001 -2.700469e+001 -5.103060e+001 -2.310131e+001 -2.015903e-001 1.271827e+002
581875000 -1.506434e+000 -1.721071e+002 -5.217282e+001 -2.597540e+001 -5.098148e+001 -2.289790e+001 -2.152013e-001 1.269333e+002
582500000 -1.528793e+000 -1.725501e+002 -5.111561e+001 -1.921754e+001 -5.145035e+001 -2.468856e+001 -2.088491e-001 1.266759e+002
583125000 -1.538525e+000 -1.730751e+002 -5.108308e+001 -2.016934e+001 -5.092227e+001 -2.922638e+001 -2.238143e-001 1.264583e+002
583750000 -1.561900e+000 -1.735390e+002 -5.075569e+001 -2.254312e+001 -5.135121e+001 -2.464354e+001 -2.245970e-001 1.262287e+002
584375000 -1.565239e+000 -1.740170e+002 -5.121233e+001 -2.392756e+001 -5.111242e+001 -2.610924e+001 -2.171154e-001 1.260435e+002
585000000 -1.582967e+000 -1.745009e+002 -5.147512e+001 -3.240512e+001 -5.103007e+001 -2.695476e+001 -2.138641e-001 1.258036e+002
585625000 -1.616798e+000 -1.750000e+002 -5.084755e+001 -2.701381e+001 -5.070562e+001 -3.144725e+001 -2.023336e-001 1.256500e+002
586250000 -1.625182e+000 -1.754960e+002 -5.073858e+001 -3.033115e+001 -5.067530e+001 -3.066467e+001 -2.017642e-001 1.255139e+002
586875000 -1.637727e+000 -1.759683e+002 -5.075754e+001 -3.290647e+001 -5.078219e+001 -3.289094e+001 -1.963410e-001 1.253378e+002
587500000 -1.671660e+000 -1.765010e+002 -5.047968e+001 -3.822201e+001 -5.082615e+001 -3.232142e+001 -1.918357e-001 1.252150e+002
588125000 -1.692483e+000 -1.769078e+002 -5.076104e+001 -3.387897e+001 -4.983216e+001 -3.693200e+001 -1.881512e-001 1.251197e+002
588750000 -1.716261e+000 -1.773721e+002 -5.032537e+001 -3.397098e+001 -5.018435e+001 -3.185113e+001 -1.929489e-001 1.250764e+002
589375000 -1.733336e+000 -1.778058e+002 -5.002947e+001 -3.229607e+001 -5.033975e+001 -3.937143e+001 -1.778578e-001 1.249725e+002
590000000 -1.758328e+000 -1.782206e+002 -5.003266e+001 -4.039868e+001 -5.004678e+001 -3.726410e+001 -1.778086e-001 1.249808e+002
590625000 -1.783592e+000 -1.785934e+002 -5.028272e+001 -4.303770e+001 -4.954865e+001 -4.006088e+001 -1.598737e-001 1.249113e+002
591250000 -1.801161e+000 -1.789116e+002 -4.989586e+001 -4.413788e+001 -4.975836e+001 -4.354715e+001 -1.718522e-001 1.249303e+002
591875000 -1.825027e+000 -1.791856e+002 -4.941590e+001 -4.579993e+001 -4.949390e+001 -4.522410e+001 -1.598934e-001 1.249600e+002
592500000 -1.841501e+000 -1.795078e+002 -4.911493e+001 -4.367437e+001 -4.980200e+001 -4.549945e+001 -1.594625e-001 1.250280e+002
593125000 -1.853688e+000 -1.797756e+002 -5.011102e+001 -4.444006e+001 -4.902331e+001 -4.888116e+001 -1.536164e-001 1.251394e+002
593750000 -1.860320e+000 1.799350e+002 -4.910873e+001 -4.615133e+001 -4.986780e+001 -5.122205e+001 -1.453350e-001 1.252191e+002
594375000 -1.854773e+000 1.795927e+002 -4.981036e+001 -5.248233e+001 -4.950879e+001 -5.088894e+001 -1.533186e-001 1.252785e+002
595000000 -1.859147e+000 1.792592e+002 -4.968091e+001 -5.347329e+001 -4.941584e+001 -5.523234e+001 -1.661580e-001 1.253405e+002
595625000 -1.843560e+000 1.788345e+002 -4.998081e+001 -5.610418e+001 -4.966730e+001 -5.544173e+001 -1.543692e-001 1.253856e+002
