!Agilent Technologies,E8364B,US42250235,A.06.04.32
!Agilent E8364B: A.06.04.32
!Date: Friday, January 15, 2021 16:02:37
!Correction: S11(Full 2 Port(1,2)) S21(Full 2 Port(1,2)) S12(Full 2 Port(1,2)) S22(Full 2 Port(1,2)) 
!S2P File: Measurements: S11, S21, S12, S22:
# Hz S  dB   R 50
500000000 -8.125436e-002 -1.292314e+002 -5.271209e+001 1.229713e+002 -5.374523e+001 1.172032e+002 -1.872790e-001 1.365658e+002
500625000 -8.325304e-002 -1.294863e+002 -5.355093e+001 1.244143e+002 -5.252674e+001 1.230578e+002 -1.903422e-001 1.365157e+002
501250000 -9.121534e-002 -1.297717e+002 -5.268858e+001 1.301116e+002 -5.361936e+001 1.229776e+002 -1.852611e-001 1.364409e+002
501875000 -8.457036e-002 -1.301319e+002 -5.250007e+001 1.158193e+002 -5.349885e+001 1.161631e+002 -1.740193e-001 1.364126e+002
502500000 -8.823851e-002 -1.304236e+002 -5.313755e+001 1.276096e+002 -5.255898e+001 1.199762e+002 -1.754114e-001 1.364054e+002
503125000 -9.564481e-002 -1.307240e+002 -5.242739e+001 1.216328e+002 -5.289062e+001 1.213247e+002 -1.752928e-001 1.363001e+002
503750000 -9.076146e-002 -1.309840e+002 -5.296601e+001 1.184021e+002 -5.289469e+001 1.208968e+002 -1.830954e-001 1.362195e+002
504375000 -1.005637e-001 -1.313175e+002 -5.279439e+001 1.214528e+002 -5.267706e+001 1.197654e+002 -1.880325e-001 1.362169e+002
505000000 -1.115645e-001 -1.315728e+002 -5.290659e+001 1.181274e+002 -5.252302e+001 1.225700e+002 -1.783451e-001 1.362421e+002
505625000 -1.046071e-001 -1.318219e+002 -5.215157e+001 1.195445e+002 -5.255539e+001 1.190738e+002 -1.782273e-001 1.361096e+002
506250000 -1.065160e-001 -1.321872e+002 -5.124970e+001 1.171329e+002 -5.195653e+001 1.145631e+002 -1.839234e-001 1.360386e+002
506875000 -1.053196e-001 -1.324467e+002 -5.210820e+001 1.173389e+002 -5.270543e+001 1.172973e+002 -1.815141e-001 1.359471e+002
507500000 -1.089246e-001 -1.327093e+002 -5.194282e+001 1.175531e+002 -5.219877e+001 1.203812e+002 -1.798732e-001 1.358424e+002
508125000 -1.150812e-001 -1.329932e+002 -5.194572e+001 1.160349e+002 -5.200505e+001 1.100214e+002 -1.855176e-001 1.357622e+002
508750000 -1.141400e-001 -1.332846e+002 -5.270234e+001 1.177700e+002 -5.214110e+001 1.113947e+002 -1.920798e-001 1.356376e+002
509375000 -1.184453e-001 -1.336063e+002 -5.146677e+001 1.151220e+002 -5.161121e+001 1.168984e+002 -1.839820e-001 1.355825e+002
510000000 -1.160383e-001 -1.338884e+002 -5.144402e+001 1.087553e+002 -5.147923e+001 1.118664e+002 -1.933899e-001 1.354444e+002
510625000 -1.297033e-001 -1.341495e+002 -5.118842e+001 1.078445e+002 -5.162036e+001 1.125549e+002 -1.830364e-001 1.353459e+002
511250000 -1.309767e-001 -1.343923e+002 -5.051768e+001 1.105557e+002 -5.204562e+001 1.066056e+002 -1.961379e-001 1.351386e+002
511875000 -1.291204e-001 -1.347420e+002 -5.167292e+001 1.140212e+002 -5.131461e+001 1.084943e+002 -1.865138e-001 1.350258e+002
512500000 -1.262460e-001 -1.350246e+002 -5.160793e+001 1.093043e+002 -5.154125e+001 1.080646e+002 -1.951009e-001 1.348548e+002
513125000 -1.401678e-001 -1.353845e+002 -5.104471e+001 1.107603e+002 -5.112818e+001 1.085068e+002 -1.999249e-001 1.347883e+002
513750000 -1.410474e-001 -1.356597e+002 -5.049044e+001 1.069683e+002 -5.109953e+001 1.065460e+002 -2.040708e-001 1.346835e+002
514375000 -1.503887e-001 -1.359988e+002 -5.086991e+001 1.048337e+002 -5.081205e+001 1.014794e+002 -1.886292e-001 1.345183e+002
515000000 -1.499071e-001 -1.363014e+002 -5.030304e+001 1.051685e+002 -5.107499e+001 1.082985e+002 -1.824778e-001 1.344917e+002
515625000 -1.566588e-001 -1.367095e+002 -5.089148e+001 1.081953e+002 -5.065220e+001 1.106907e+002 -1.869595e-001 1.343700e+002
516250000 -1.577902e-001 -1.370220e+002 -5.160248e+001 1.066669e+002 -5.023358e+001 1.081830e+002 -1.838219e-001 1.342702e+002
516875000 -1.752468e-001 -1.373687e+002 -5.015378e+001 1.006396e+002 -5.024259e+001 1.064043e+002 -1.802453e-001 1.343027e+002
517500000 -1.748049e-001 -1.377611e+002 -5.026338e+001 1.052461e+002 -4.989434e+001 1.005110e+002 -1.773204e-001 1.342904e+002
518125000 -1.774344e-001 -1.381338e+002 -5.069442e+001 1.053771e+002 -5.071997e+001 1.046869e+002 -1.823659e-001 1.342046e+002
518750000 -1.886926e-001 -1.384655e+002 -5.033207e+001 1.034752e+002 -5.010038e+001 9.981547e+001 -1.780159e-001 1.341882e+002
519375000 -2.062091e-001 -1.387519e+002 -5.026403e+001 1.004393e+002 -5.027451e+001 1.044089e+002 -1.646592e-001 1.341616e+002
520000000 -2.028914e-001 -1.391398e+002 -4.946696e+001 1.006737e+002 -4.965141e+001 1.035261e+002 -1.780780e-001 1.341181e+002
520625000 -2.072028e-001 -1.395246e+002 -4.913236e+001 9.825367e+001 -4.950171e+001 1.000066e+002 -1.726601e-001 1.340213e+002
521250000 -2.149202e-001 -1.398483e+002 -4.975274e+001 1.008669e+002 -4.961311e+001 1.014799e+002 -1.754207e-001 1.340563e+002
521875000 -2.194491e-001 -1.401959e+002 -4.915977e+001 1.009491e+002 -4.935149e+001 9.675413e+001 -1.666050e-001 1.340543e+002
522500000 -2.198536e-001 -1.405283e+002 -4.946496e+001 9.753944e+001 -4.920073e+001 9.863856e+001 -1.699708e-001 1.339991e+002
523125000 -2.353739e-001 -1.409051e+002 -4.860975e+001 9.657320e+001 -4.952247e+001 9.869157e+001 -1.737821e-001 1.339816e+002
523750000 -2.387239e-001 -1.412004e+002 -4.833587e+001 9.657973e+001 -4.889936e+001 9.599139e+001 -1.737854e-001 1.338857e+002
524375000 -2.477658e-001 -1.415298e+002 -4.889567e+001 9.802675e+001 -4.847300e+001 9.470668e+001 -1.725044e-001 1.338611e+002
525000000 -2.527740e-001 -1.418721e+002 -4.807759e+001 9.544323e+001 -4.857354e+001 9.119434e+001 -1.841259e-001 1.338309e+002
525625000 -2.662371e-001 -1.421185e+002 -4.847794e+001 9.544508e+001 -4.851493e+001 9.365179e+001 -1.902182e-001 1.336825e+002
526250000 -2.639975e-001 -1.424907e+002 -4.867923e+001 9.073364e+001 -4.817036e+001 9.096695e+001 -1.891951e-001 1.336494e+002
526875000 -2.708249e-001 -1.427856e+002 -4.802160e+001 9.529691e+001 -4.828761e+001 9.119990e+001 -1.906386e-001 1.335748e+002
527500000 -2.793855e-001 -1.431171e+002 -4.861561e+001 8.887843e+001 -4.816515e+001 9.058373e+001 -1.926951e-001 1.334832e+002
528125000 -3.051536e-001 -1.434159e+002 -4.812755e+001 9.161809e+001 -4.849831e+001 9.099544e+001 -1.803929e-001 1.334689e+002
528750000 -2.934518e-001 -1.437539e+002 -4.777649e+001 9.010589e+001 -4.813107e+001 8.897031e+001 -1.851308e-001 1.334914e+002
529375000 -3.045026e-001 -1.440579e+002 -4.805329e+001 8.938434e+001 -4.788552e+001 8.571184e+001 -1.847236e-001 1.333035e+002
530000000 -3.156488e-001 -1.444292e+002 -4.760790e+001 8.687452e+001 -4.767425e+001 8.808056e+001 -1.842763e-001 1.333056e+002
530625000 -3.235027e-001 -1.447527e+002 -4.785566e+001 9.069728e+001 -4.796821e+001 8.871285e+001 -1.892112e-001 1.332672e+002
531250000 -3.256384e-001 -1.451172e+002 -4.792150e+001 8.650285e+001 -4.752900e+001 8.541255e+001 -1.739737e-001 1.331039e+002
531875000 -3.480694e-001 -1.454244e+002 -4.733007e+001 9.079200e+001 -4.725044e+001 8.520735e+001 -1.882469e-001 1.331426e+002
532500000 -3.608819e-001 -1.457520e+002 -4.719048e+001 8.296087e+001 -4.725911e+001 8.758812e+001 -1.841542e-001 1.331017e+002
533125000 -3.575499e-001 -1.460898e+002 -4.715480e+001 8.355295e+001 -4.708452e+001 8.593420e+001 -1.940381e-001 1.331054e+002
533750000 -3.694787e-001 -1.464754e+002 -4.695134e+001 8.459108e+001 -4.724662e+001 8.556043e+001 -1.941327e-001 1.329998e+002
534375000 -3.842072e-001 -1.468493e+002 -4.668442e+001 8.407582e+001 -4.666142e+001 8.143364e+001 -1.773494e-001 1.329462e+002
535000000 -3.985506e-001 -1.471572e+002 -4.635318e+001 8.395052e+001 -4.673124e+001 8.353146e+001 -1.807576e-001 1.329062e+002
535625000 -4.056986e-001 -1.475501e+002 -4.620850e+001 8.099586e+001 -4.677195e+001 8.344754e+001 -1.740062e-001 1.328656e+002
536250000 -4.218288e-001 -1.479624e+002 -4.630458e+001 7.927927e+001 -4.611296e+001 8.227440e+001 -1.705917e-001 1.327518e+002
536875000 -4.329830e-001 -1.483030e+002 -4.596337e+001 7.700592e+001 -4.631810e+001 8.150010e+001 -1.849472e-001 1.327201e+002
537500000 -4.404210e-001 -1.486381e+002 -4.610581e+001 7.936646e+001 -4.591538e+001 7.784978e+001 -1.747010e-001 1.327089e+002
538125000 -4.532882e-001 -1.490120e+002 -4.573782e+001 7.872040e+001 -4.578475e+001 7.794397e+001 -1.822502e-001 1.327028e+002
538750000 -4.752779e-001 -1.493913e+002 -4.565864e+001 7.670680e+001 -4.581514e+001 7.752631e+001 -1.805099e-001 1.326146e+002
539375000 -4.856517e-001 -1.497441e+002 -4.541877e+001 7.648676e+001 -4.591275e+001 7.588592e+001 -1.824491e-001 1.325915e+002
540000000 -4.987290e-001 -1.501177e+002 -4.574773e+001 7.594855e+001 -4.523260e+001 7.435491e+001 -1.836207e-001 1.325600e+002
540625000 -5.154701e-001 -1.505024e+002 -4.533522e+001 7.330559e+001 -4.513768e+001 7.344217e+001 -1.762194e-001 1.325123e+002
541250000 -5.239544e-001 -1.508548e+002 -4.520835e+001 7.259856e+001 -4.540040e+001 7.284274e+001 -1.751386e-001 1.324643e+002
541875000 -5.435610e-001 -1.512148e+002 -4.495628e+001 7.265102e+001 -4.501765e+001 7.062595e+001 -1.856512e-001 1.324254e+002
542500000 -5.544856e-001 -1.516099e+002 -4.463252e+001 7.430003e+001 -4.496547e+001 7.171529e+001 -1.741884e-001 1.324329e+002
543125000 -5.681456e-001 -1.519932e+002 -4.497476e+001 7.092570e+001 -4.493529e+001 6.950072e+001 -1.770937e-001 1.323601e+002
543750000 -5.900465e-001 -1.523231e+002 -4.463163e+001 7.153122e+001 -4.441932e+001 7.076108e+001 -1.760682e-001 1.324157e+002
544375000 -6.165642e-001 -1.527172e+002 -4.445096e+001 6.735664e+001 -4.435180e+001 6.844724e+001 -1.723291e-001 1.324756e+002
545000000 -6.252374e-001 -1.530582e+002 -4.424940e+001 6.766808e+001 -4.433900e+001 6.643005e+001 -1.726615e-001 1.324944e+002
545625000 -6.507745e-001 -1.534395e+002 -4.423280e+001 6.703130e+001 -4.450347e+001 6.530454e+001 -1.726811e-001 1.325165e+002
546250000 -6.724606e-001 -1.538076e+002 -4.391419e+001 6.769302e+001 -4.405231e+001 6.445671e+001 -1.738070e-001 1.324922e+002
546875000 -6.935798e-001 -1.542357e+002 -4.385580e+001 6.620652e+001 -4.384079e+001 6.445926e+001 -1.751499e-001 1.325351e+002
547500000 -7.180749e-001 -1.545446e+002 -4.385368e+001 6.572511e+001 -4.378479e+001 6.294083e+001 -1.759794e-001 1.325065e+002
548125000 -7.439703e-001 -1.549368e+002 -4.368687e+001 6.326056e+001 -4.358063e+001 6.263432e+001 -1.777520e-001 1.324688e+002
548750000 -7.659775e-001 -1.553340e+002 -4.288583e+001 6.120817e+001 -4.341965e+001 6.186242e+001 -1.880668e-001 1.324452e+002
549375000 -7.941169e-001 -1.557398e+002 -4.342182e+001 6.044371e+001 -4.324509e+001 5.918883e+001 -1.915260e-001 1.322734e+002
550000000 -8.093165e-001 -1.560821e+002 -4.308460e+001 5.893153e+001 -4.307742e+001 5.967278e+001 -1.949667e-001 1.323317e+002
550625000 -8.335924e-001 -1.564349e+002 -4.295547e+001 5.747226e+001 -4.287799e+001 5.709200e+001 -1.948732e-001 1.321979e+002
551250000 -8.511770e-001 -1.568078e+002 -4.290934e+001 5.632513e+001 -4.278587e+001 5.631895e+001 -2.006910e-001 1.320626e+002
551875000 -8.789305e-001 -1.571637e+002 -4.272242e+001 5.416235e+001 -4.264408e+001 5.437812e+001 -1.986693e-001 1.319924e+002
552500000 -8.925055e-001 -1.576056e+002 -4.253319e+001 5.447266e+001 -4.251560e+001 5.326556e+001 -2.088136e-001 1.317875e+002
553125000 -9.082783e-001 -1.578964e+002 -4.219752e+001 5.213172e+001 -4.232669e+001 5.038445e+001 -2.121693e-001 1.317094e+002
553750000 -9.273655e-001 -1.583264e+002 -4.227406e+001 5.037134e+001 -4.239452e+001 4.927790e+001 -2.123340e-001 1.315159e+002
554375000 -9.610150e-001 -1.587005e+002 -4.239235e+001 4.959781e+001 -4.221627e+001 4.959870e+001 -2.155870e-001 1.313800e+002
555000000 -9.807099e-001 -1.591156e+002 -4.194619e+001 4.827698e+001 -4.226973e+001 4.899417e+001 -2.138883e-001 1.312822e+002
555625000 -1.017232e+000 -1.593919e+002 -4.197564e+001 4.828252e+001 -4.189643e+001 4.554911e+001 -2.025918e-001 1.312177e+002
556250000 -1.046202e+000 -1.597785e+002 -4.188090e+001 4.681201e+001 -4.189755e+001 4.618967e+001 -2.124679e-001 1.310241e+002
556875000 -1.056862e+000 -1.601469e+002 -4.174243e+001 4.601638e+001 -4.162403e+001 4.501554e+001 -2.093398e-001 1.309370e+002
557500000 -1.089918e+000 -1.603675e+002 -4.168491e+001 4.529489e+001 -4.173915e+001 4.276365e+001 -2.008657e-001 1.308446e+002
558125000 -1.112588e+000 -1.607024e+002 -4.141342e+001 4.574023e+001 -4.155053e+001 4.271629e+001 -2.067352e-001 1.308316e+002
558750000 -1.137881e+000 -1.610105e+002 -4.147607e+001 4.200056e+001 -4.158004e+001 4.049655e+001 -2.044173e-001 1.307461e+002
559375000 -1.167749e+000 -1.613398e+002 -4.108562e+001 4.151031e+001 -4.116372e+001 3.913460e+001 -1.942273e-001 1.307070e+002
560000000 -1.193383e+000 -1.616442e+002 -4.129275e+001 4.010745e+001 -4.133130e+001 3.868603e+001 -1.849961e-001 1.306770e+002
560625000 -1.219319e+000 -1.619236e+002 -4.115310e+001 3.869380e+001 -4.122789e+001 3.784293e+001 -1.798849e-001 1.306724e+002
561250000 -1.242513e+000 -1.622832e+002 -4.066039e+001 3.558497e+001 -4.099680e+001 3.670992e+001 -1.772195e-001 1.307329e+002
561875000 -1.269998e+000 -1.625845e+002 -4.071553e+001 3.530858e+001 -4.073004e+001 3.560688e+001 -1.847909e-001 1.307005e+002
562500000 -1.298852e+000 -1.628704e+002 -4.056310e+001 3.546299e+001 -4.095110e+001 3.413121e+001 -1.794211e-001 1.307738e+002
563125000 -1.324333e+000 -1.631819e+002 -4.053141e+001 3.291041e+001 -4.067929e+001 3.276363e+001 -1.721921e-001 1.307796e+002
563750000 -1.364721e+000 -1.634858e+002 -4.038358e+001 3.328461e+001 -4.051650e+001 3.194986e+001 -1.840926e-001 1.307196e+002
564375000 -1.401001e+000 -1.637789e+002 -4.038365e+001 3.134758e+001 -4.027430e+001 3.055434e+001 -1.914932e-001 1.307498e+002
565000000 -1.426287e+000 -1.641832e+002 -4.023925e+001 2.927518e+001 -4.028112e+001 2.788252e+001 -1.958076e-001 1.306695e+002
565625000 -1.469550e+000 -1.644611e+002 -3.995165e+001 2.890633e+001 -4.009636e+001 2.585161e+001 -1.980503e-001 1.306422e+002
566250000 -1.501044e+000 -1.647949e+002 -3.999844e+001 2.869254e+001 -3.993211e+001 2.795179e+001 -2.040476e-001 1.306017e+002
566875000 -1.544400e+000 -1.651142e+002 -3.983548e+001 2.585836e+001 -3.976639e+001 2.414264e+001 -2.125281e-001 1.304314e+002
567500000 -1.586658e+000 -1.654897e+002 -3.971352e+001 2.569598e+001 -3.982724e+001 2.363905e+001 -2.059193e-001 1.303104e+002
568125000 -1.617673e+000 -1.657753e+002 -3.950681e+001 2.332473e+001 -3.966091e+001 2.108892e+001 -2.149481e-001 1.302407e+002
568750000 -1.659114e+000 -1.660872e+002 -3.949247e+001 2.148845e+001 -3.946986e+001 2.155597e+001 -2.235340e-001 1.301396e+002
569375000 -1.701900e+000 -1.663752e+002 -3.925570e+001 1.981369e+001 -3.947572e+001 1.958454e+001 -2.198675e-001 1.300084e+002
570000000 -1.733180e+000 -1.666995e+002 -3.946988e+001 1.845594e+001 -3.929179e+001 1.785398e+001 -2.146242e-001 1.298009e+002
570625000 -1.767762e+000 -1.669299e+002 -3.914915e+001 1.682064e+001 -3.919698e+001 1.581085e+001 -2.164495e-001 1.296633e+002
571250000 -1.804714e+000 -1.671209e+002 -3.904977e+001 1.414866e+001 -3.902188e+001 1.384281e+001 -2.298109e-001 1.296242e+002
571875000 -1.846684e+000 -1.672959e+002 -3.893156e+001 1.390037e+001 -3.909410e+001 1.161035e+001 -2.117288e-001 1.294877e+002
572500000 -1.871666e+000 -1.675213e+002 -3.892133e+001 1.258713e+001 -3.906867e+001 1.057356e+001 -2.144331e-001 1.293715e+002
573125000 -1.895483e+000 -1.676742e+002 -3.882121e+001 9.154693e+000 -3.892822e+001 8.968668e+000 -2.060600e-001 1.292695e+002
573750000 -1.913533e+000 -1.678253e+002 -3.891722e+001 8.758151e+000 -3.891955e+001 7.836863e+000 -2.118304e-001 1.291953e+002
574375000 -1.932066e+000 -1.680198e+002 -3.874103e+001 8.039729e+000 -3.870648e+001 6.404433e+000 -2.005879e-001 1.292233e+002
575000000 -1.943347e+000 -1.682362e+002 -3.878498e+001 6.074497e+000 -3.890357e+001 3.897762e+000 -2.013299e-001 1.291261e+002
575625000 -1.960051e+000 -1.684792e+002 -3.864899e+001 4.442843e+000 -3.892278e+001 4.119711e+000 -2.051822e-001 1.290578e+002
576250000 -1.967270e+000 -1.687121e+002 -3.854899e+001 4.085192e+000 -3.875507e+001 2.153679e+000 -2.083300e-001 1.290258e+002
576875000 -2.001537e+000 -1.689986e+002 -3.855345e+001 3.321117e+000 -3.876742e+001 1.355236e+000 -2.026766e-001 1.289610e+002
577500000 -2.027698e+000 -1.691574e+002 -3.851231e+001 1.247143e+000 -3.857519e+001 -1.148362e+000 -2.060317e-001 1.288582e+002
578125000 -2.054506e+000 -1.694038e+002 -3.831826e+001 3.435123e-001 -3.849483e+001 -2.115541e+000 -2.064148e-001 1.288492e+002
578750000 -2.076993e+000 -1.695875e+002 -3.837439e+001 -2.408761e+000 -3.843359e+001 -2.002661e+000 -2.071323e-001 1.287892e+002
579375000 -2.101482e+000 -1.697647e+002 -3.830634e+001 -2.838590e+000 -3.847633e+001 -5.057343e+000 -2.024492e-001 1.286700e+002
580000000 -2.114585e+000 -1.699252e+002 -3.832052e+001 -5.379427e+000 -3.835137e+001 -6.619941e+000 -2.083482e-001 1.286701e+002
580625000 -2.131627e+000 -1.701064e+002 -3.822404e+001 -5.667445e+000 -3.828704e+001 -7.434507e+000 -2.029554e-001 1.285717e+002
581250000 -2.148960e+000 -1.702752e+002 -3.811548e+001 -7.745397e+000 -3.823291e+001 -8.368348e+000 -2.154210e-001 1.284452e+002
581875000 -2.163101e+000 -1.705709e+002 -3.828416e+001 -9.467488e+000 -3.826539e+001 -9.656305e+000 -2.224962e-001 1.283453e+002
582500000 -2.178899e+000 -1.707782e+002 -3.824405e+001 -8.827867e+000 -3.828148e+001 -1.112405e+001 -2.195441e-001 1.282642e+002
583125000 -2.188767e+000 -1.711043e+002 -3.809485e+001 -1.197071e+001 -3.812131e+001 -1.394968e+001 -2.279951e-001 1.280916e+002
583750000 -2.206003e+000 -1.713537e+002 -3.816545e+001 -1.276069e+001 -3.801450e+001 -1.463237e+001 -2.285965e-001 1.279487e+002
584375000 -2.220941e+000 -1.716482e+002 -3.792344e+001 -1.457813e+001 -3.796223e+001 -1.519289e+001 -2.224570e-001 1.278427e+002
585000000 -2.235966e+000 -1.718953e+002 -3.791875e+001 -1.585319e+001 -3.804112e+001 -1.535454e+001 -2.294936e-001 1.277695e+002
585625000 -2.257545e+000 -1.721491e+002 -3.773902e+001 -1.528152e+001 -3.789399e+001 -1.780862e+001 -2.067012e-001 1.276180e+002
586250000 -2.259755e+000 -1.724559e+002 -3.801984e+001 -1.723376e+001 -3.801086e+001 -1.891701e+001 -2.158152e-001 1.276398e+002
586875000 -2.261998e+000 -1.727821e+002 -3.788196e+001 -1.775850e+001 -3.784172e+001 -1.906958e+001 -2.085449e-001 1.275454e+002
587500000 -2.267025e+000 -1.731324e+002 -3.770471e+001 -1.901544e+001 -3.792810e+001 -2.071975e+001 -2.118264e-001 1.274343e+002
588125000 -2.273786e+000 -1.733767e+002 -3.779542e+001 -2.124149e+001 -3.783333e+001 -2.216133e+001 -1.939083e-001 1.273958e+002
588750000 -2.274204e+000 -1.737502e+002 -3.771102e+001 -2.138407e+001 -3.773487e+001 -2.274055e+001 -2.048959e-001 1.274737e+002
589375000 -2.282008e+000 -1.740365e+002 -3.768580e+001 -2.291570e+001 -3.792348e+001 -2.432951e+001 -1.870405e-001 1.273848e+002
590000000 -2.299473e+000 -1.743748e+002 -3.767525e+001 -2.392167e+001 -3.772850e+001 -2.479187e+001 -1.926300e-001 1.274562e+002
590625000 -2.303680e+000 -1.746870e+002 -3.760796e+001 -2.426971e+001 -3.786103e+001 -2.792563e+001 -1.861662e-001 1.274592e+002
591250000 -2.319613e+000 -1.749917e+002 -3.753031e+001 -2.680660e+001 -3.753407e+001 -2.793715e+001 -1.882161e-001 1.274921e+002
591875000 -2.333075e+000 -1.752558e+002 -3.747413e+001 -2.751143e+001 -3.759024e+001 -2.956788e+001 -1.893570e-001 1.274601e+002
592500000 -2.343309e+000 -1.754601e+002 -3.750462e+001 -2.923137e+001 -3.758695e+001 -3.114096e+001 -1.861735e-001 1.275424e+002
593125000 -2.359026e+000 -1.756846e+002 -3.743245e+001 -2.970363e+001 -3.743345e+001 -3.230354e+001 -1.940460e-001 1.276607e+002
593750000 -2.363615e+000 -1.759546e+002 -3.737304e+001 -3.152064e+001 -3.738217e+001 -3.189322e+001 -1.839981e-001 1.276662e+002
594375000 -2.367694e+000 -1.760567e+002 -3.734225e+001 -3.227531e+001 -3.730978e+001 -3.432813e+001 -1.913129e-001 1.276755e+002
595000000 -2.357304e+000 -1.762625e+002 -3.721141e+001 -3.302879e+001 -3.739138e+001 -3.505819e+001 -2.044898e-001 1.277059e+002
595625000 -2.360904e+000 -1.765146e+002 -3.724743e+001 -3.488650e+001 -3.733574e+001 -3.692830e+001 -1.944628e-001 1.277006e+002
