!Agilent Technologies,E8364B,US42250235,A.06.04.32
!Agilent E8364B: A.06.04.32
!Date: Friday, January 15, 2021 16:13:20
!Correction: S11(Full 2 Port(1,2)) S21(Full 2 Port(1,2)) S12(Full 2 Port(1,2)) S22(Full 2 Port(1,2)) 
!S2P File: Measurements: S11, S21, S12, S22:
# Hz S  dB   R 50
500000000 -1.113553e-001 -1.295993e+002 -6.088691e+001 -7.217957e+001 -5.952380e+001 -7.037833e+001 -1.810074e-001 1.362350e+002
500625000 -1.158960e-001 -1.298687e+002 -5.886705e+001 -6.982207e+001 -5.875640e+001 -7.511443e+001 -1.907004e-001 1.362134e+002
501250000 -1.250138e-001 -1.301281e+002 -5.891367e+001 -6.071104e+001 -6.160860e+001 -6.221335e+001 -1.771751e-001 1.361188e+002
501875000 -1.157794e-001 -1.303818e+002 -5.922392e+001 -7.111876e+001 -5.981449e+001 -7.366947e+001 -1.736115e-001 1.360557e+002
502500000 -1.182379e-001 -1.305858e+002 -6.001408e+001 -6.994058e+001 -5.885822e+001 -6.940272e+001 -1.797071e-001 1.360657e+002
503125000 -1.315943e-001 -1.308938e+002 -5.841564e+001 -6.650465e+001 -5.873692e+001 -6.814050e+001 -1.727246e-001 1.359016e+002
503750000 -1.259443e-001 -1.311297e+002 -5.868200e+001 -7.047406e+001 -5.898676e+001 -7.464435e+001 -1.771647e-001 1.358447e+002
504375000 -1.349252e-001 -1.313861e+002 -6.015801e+001 -7.825238e+001 -5.896075e+001 -7.071243e+001 -1.926570e-001 1.357652e+002
505000000 -1.324359e-001 -1.316897e+002 -5.941184e+001 -8.143966e+001 -5.693695e+001 -6.778027e+001 -1.897989e-001 1.357035e+002
505625000 -1.377477e-001 -1.318890e+002 -5.938673e+001 -7.626970e+001 -5.729093e+001 -8.301499e+001 -1.896154e-001 1.355234e+002
506250000 -1.415973e-001 -1.321830e+002 -5.740973e+001 -7.452287e+001 -5.719550e+001 -7.743893e+001 -1.952249e-001 1.353971e+002
506875000 -1.415716e-001 -1.324433e+002 -5.758358e+001 -7.922067e+001 -5.740709e+001 -7.216467e+001 -1.965466e-001 1.352619e+002
507500000 -1.417651e-001 -1.326866e+002 -5.696794e+001 -8.282193e+001 -5.755909e+001 -6.829416e+001 -2.000082e-001 1.350604e+002
508125000 -1.463755e-001 -1.329607e+002 -5.855602e+001 -7.476344e+001 -5.815122e+001 -8.450356e+001 -2.009120e-001 1.348715e+002
508750000 -1.472854e-001 -1.332038e+002 -5.944757e+001 -7.641885e+001 -5.716431e+001 -7.296753e+001 -2.069180e-001 1.346498e+002
509375000 -1.523583e-001 -1.335221e+002 -5.682158e+001 -7.739206e+001 -5.759913e+001 -9.025942e+001 -1.981741e-001 1.345183e+002
510000000 -1.531496e-001 -1.337996e+002 -5.712741e+001 -8.169050e+001 -5.763700e+001 -8.125274e+001 -2.073129e-001 1.342603e+002
510625000 -1.584050e-001 -1.340063e+002 -5.719446e+001 -9.518703e+001 -5.708078e+001 -8.461007e+001 -2.048563e-001 1.341003e+002
511250000 -1.698281e-001 -1.342732e+002 -5.749730e+001 -8.867707e+001 -5.765779e+001 -7.897517e+001 -2.134574e-001 1.337846e+002
511875000 -1.714594e-001 -1.346167e+002 -5.804383e+001 -9.000866e+001 -5.607999e+001 -8.280394e+001 -2.085524e-001 1.335973e+002
512500000 -1.729679e-001 -1.348647e+002 -5.812280e+001 -8.378899e+001 -5.688877e+001 -8.596777e+001 -2.111078e-001 1.333593e+002
513125000 -1.861787e-001 -1.351837e+002 -5.802457e+001 -8.265310e+001 -5.680132e+001 -8.963504e+001 -2.107231e-001 1.332603e+002
513750000 -1.951522e-001 -1.355170e+002 -5.810843e+001 -9.181605e+001 -5.750067e+001 -8.016322e+001 -2.098179e-001 1.330355e+002
514375000 -2.080447e-001 -1.358471e+002 -5.683669e+001 -9.681069e+001 -5.607843e+001 -9.884850e+001 -2.010921e-001 1.328535e+002
515000000 -2.124934e-001 -1.360976e+002 -5.773933e+001 -8.028726e+001 -5.595441e+001 -9.284568e+001 -1.947910e-001 1.327252e+002
515625000 -2.276521e-001 -1.364855e+002 -5.588043e+001 -8.894815e+001 -5.628939e+001 -9.039849e+001 -1.858069e-001 1.326434e+002
516250000 -2.330706e-001 -1.368100e+002 -5.587197e+001 -9.973138e+001 -5.676323e+001 -8.253893e+001 -1.878572e-001 1.325156e+002
516875000 -2.510803e-001 -1.371228e+002 -5.660802e+001 -9.457255e+001 -5.689916e+001 -8.963891e+001 -1.848512e-001 1.324689e+002
517500000 -2.516295e-001 -1.374446e+002 -5.596867e+001 -9.349476e+001 -5.598579e+001 -9.254218e+001 -1.897328e-001 1.323983e+002
518125000 -2.615689e-001 -1.378413e+002 -5.585469e+001 -9.837182e+001 -5.603349e+001 -9.331690e+001 -1.714104e-001 1.323808e+002
518750000 -2.705468e-001 -1.381664e+002 -5.533305e+001 -9.785191e+001 -5.550911e+001 -9.750104e+001 -1.798114e-001 1.323660e+002
519375000 -2.856750e-001 -1.384226e+002 -5.494967e+001 -9.736832e+001 -5.450561e+001 -9.078590e+001 -1.608575e-001 1.323108e+002
520000000 -2.907169e-001 -1.388150e+002 -5.568505e+001 -9.870264e+001 -5.575071e+001 -1.009486e+002 -1.648457e-001 1.323608e+002
520625000 -3.036228e-001 -1.391451e+002 -5.501289e+001 -9.504667e+001 -5.542223e+001 -9.191262e+001 -1.630151e-001 1.322800e+002
521250000 -3.137819e-001 -1.394661e+002 -5.550003e+001 -1.007116e+002 -5.438243e+001 -9.926385e+001 -1.584767e-001 1.323992e+002
521875000 -3.189209e-001 -1.398362e+002 -5.453633e+001 -9.669141e+001 -5.424291e+001 -1.031454e+002 -1.553478e-001 1.324300e+002
522500000 -3.219772e-001 -1.401060e+002 -5.398771e+001 -9.768711e+001 -5.467634e+001 -1.058637e+002 -1.595989e-001 1.323880e+002
523125000 -3.362581e-001 -1.404569e+002 -5.456144e+001 -1.057216e+002 -5.470930e+001 -1.076905e+002 -1.643875e-001 1.324590e+002
523750000 -3.367123e-001 -1.408323e+002 -5.429240e+001 -1.042107e+002 -5.558482e+001 -1.112040e+002 -1.603084e-001 1.324057e+002
524375000 -3.572015e-001 -1.411160e+002 -5.459900e+001 -1.072995e+002 -5.424514e+001 -1.080729e+002 -1.548180e-001 1.324825e+002
525000000 -3.539783e-001 -1.414429e+002 -5.333416e+001 -1.089040e+002 -5.348155e+001 -1.089918e+002 -1.645094e-001 1.324644e+002
525625000 -3.734309e-001 -1.417125e+002 -5.422461e+001 -1.189646e+002 -5.468823e+001 -1.145688e+002 -1.681091e-001 1.324732e+002
526250000 -3.654347e-001 -1.420537e+002 -5.483334e+001 -1.162662e+002 -5.367783e+001 -1.122369e+002 -1.696476e-001 1.324521e+002
526875000 -3.857846e-001 -1.423663e+002 -5.461465e+001 -1.080151e+002 -5.398841e+001 -1.145811e+002 -1.617284e-001 1.324838e+002
527500000 -3.931046e-001 -1.426835e+002 -5.477913e+001 -1.161206e+002 -5.433193e+001 -1.184084e+002 -1.696597e-001 1.324938e+002
528125000 -4.120424e-001 -1.429937e+002 -5.434000e+001 -1.195328e+002 -5.414509e+001 -1.200125e+002 -1.723701e-001 1.325699e+002
528750000 -4.123078e-001 -1.433241e+002 -5.352274e+001 -1.204011e+002 -5.434507e+001 -1.122063e+002 -1.649714e-001 1.326315e+002
529375000 -4.226751e-001 -1.436188e+002 -5.315755e+001 -1.208609e+002 -5.368549e+001 -1.188516e+002 -1.679401e-001 1.325443e+002
530000000 -4.366861e-001 -1.440074e+002 -5.387503e+001 -1.154968e+002 -5.414714e+001 -1.176545e+002 -1.733150e-001 1.325614e+002
530625000 -4.427592e-001 -1.443115e+002 -5.279789e+001 -1.268227e+002 -5.346703e+001 -1.203469e+002 -1.772677e-001 1.325404e+002
531250000 -4.505547e-001 -1.446883e+002 -5.264447e+001 -1.159603e+002 -5.425622e+001 -1.161513e+002 -1.640625e-001 1.325776e+002
531875000 -4.661327e-001 -1.449591e+002 -5.311025e+001 -1.192304e+002 -5.380700e+001 -1.234881e+002 -1.714668e-001 1.326139e+002
532500000 -4.753124e-001 -1.452533e+002 -5.274270e+001 -1.240419e+002 -5.399322e+001 -1.229785e+002 -1.689147e-001 1.325568e+002
533125000 -4.871391e-001 -1.456367e+002 -5.402928e+001 -1.252967e+002 -5.339084e+001 -1.248938e+002 -1.772222e-001 1.325471e+002
533750000 -4.915678e-001 -1.460373e+002 -5.328888e+001 -1.288313e+002 -5.302227e+001 -1.268847e+002 -1.867917e-001 1.325125e+002
534375000 -5.021365e-001 -1.463509e+002 -5.302089e+001 -1.261107e+002 -5.303955e+001 -1.300222e+002 -1.772443e-001 1.325246e+002
535000000 -5.176906e-001 -1.466479e+002 -5.366647e+001 -1.352294e+002 -5.315252e+001 -1.284281e+002 -1.893165e-001 1.325018e+002
535625000 -5.301290e-001 -1.470168e+002 -5.278475e+001 -1.235958e+002 -5.166745e+001 -1.293580e+002 -1.786334e-001 1.324168e+002
536250000 -5.367031e-001 -1.473882e+002 -5.247750e+001 -1.308054e+002 -5.252721e+001 -1.291819e+002 -1.742459e-001 1.323018e+002
536875000 -5.561990e-001 -1.477363e+002 -5.288202e+001 -1.324993e+002 -5.212704e+001 -1.347279e+002 -1.856972e-001 1.322226e+002
537500000 -5.682784e-001 -1.480312e+002 -5.304578e+001 -1.354106e+002 -5.223733e+001 -1.349731e+002 -1.845299e-001 1.322101e+002
538125000 -5.784702e-001 -1.483867e+002 -5.237239e+001 -1.348952e+002 -5.259819e+001 -1.376692e+002 -1.952432e-001 1.321771e+002
538750000 -6.017792e-001 -1.487407e+002 -5.194909e+001 -1.382738e+002 -5.216952e+001 -1.401470e+002 -1.935494e-001 1.320287e+002
539375000 -6.154670e-001 -1.490346e+002 -5.242089e+001 -1.418276e+002 -5.243275e+001 -1.362527e+002 -1.973243e-001 1.320142e+002
540000000 -6.235830e-001 -1.493591e+002 -5.149484e+001 -1.364356e+002 -5.186995e+001 -1.363041e+002 -1.975672e-001 1.318302e+002
540625000 -6.358211e-001 -1.496911e+002 -5.161248e+001 -1.424171e+002 -5.149895e+001 -1.398395e+002 -1.973005e-001 1.317970e+002
541250000 -6.488218e-001 -1.499367e+002 -5.177273e+001 -1.391680e+002 -5.100590e+001 -1.426636e+002 -1.965106e-001 1.316839e+002
541875000 -6.579027e-001 -1.502332e+002 -5.114520e+001 -1.440828e+002 -5.144273e+001 -1.445300e+002 -1.957151e-001 1.315938e+002
542500000 -6.756083e-001 -1.505290e+002 -5.125464e+001 -1.466084e+002 -5.232201e+001 -1.468684e+002 -1.972117e-001 1.315308e+002
543125000 -6.803711e-001 -1.508726e+002 -5.134818e+001 -1.477578e+002 -5.117902e+001 -1.494443e+002 -1.872596e-001 1.314374e+002
543750000 -6.954908e-001 -1.511378e+002 -5.107190e+001 -1.489699e+002 -5.117302e+001 -1.497705e+002 -1.990682e-001 1.314032e+002
544375000 -7.041602e-001 -1.514551e+002 -5.137249e+001 -1.534010e+002 -5.094974e+001 -1.469353e+002 -1.866199e-001 1.313321e+002
545000000 -7.109085e-001 -1.517075e+002 -5.127579e+001 -1.478004e+002 -5.147503e+001 -1.537690e+002 -1.892098e-001 1.313435e+002
545625000 -7.244394e-001 -1.520368e+002 -5.021690e+001 -1.560865e+002 -5.089464e+001 -1.574750e+002 -1.946306e-001 1.312601e+002
546250000 -7.497895e-001 -1.523037e+002 -5.063722e+001 -1.550728e+002 -5.073791e+001 -1.570244e+002 -1.874651e-001 1.312426e+002
546875000 -7.558928e-001 -1.526978e+002 -5.096740e+001 -1.616018e+002 -5.042213e+001 -1.615532e+002 -1.932021e-001 1.312052e+002
547500000 -7.735581e-001 -1.529609e+002 -5.053117e+001 -1.572074e+002 -5.054261e+001 -1.588115e+002 -1.895239e-001 1.311356e+002
548125000 -7.995442e-001 -1.531955e+002 -5.110484e+001 -1.630541e+002 -5.007304e+001 -1.602825e+002 -1.986162e-001 1.310074e+002
548750000 -8.129847e-001 -1.535526e+002 -5.014790e+001 -1.655090e+002 -5.048630e+001 -1.586474e+002 -2.047642e-001 1.309943e+002
549375000 -8.300411e-001 -1.537736e+002 -5.026789e+001 -1.635522e+002 -5.017662e+001 -1.645876e+002 -2.040431e-001 1.307796e+002
550000000 -8.341790e-001 -1.540358e+002 -5.035909e+001 -1.681569e+002 -5.014568e+001 -1.625378e+002 -2.058302e-001 1.307662e+002
550625000 -8.454544e-001 -1.543017e+002 -5.083773e+001 -1.653712e+002 -5.087252e+001 -1.700333e+002 -2.032296e-001 1.306550e+002
551250000 -8.466912e-001 -1.545378e+002 -5.026161e+001 -1.711104e+002 -5.030811e+001 -1.693394e+002 -2.106373e-001 1.304749e+002
551875000 -8.629763e-001 -1.548525e+002 -4.968854e+001 -1.715203e+002 -4.970896e+001 -1.703224e+002 -2.103958e-001 1.302974e+002
552500000 -8.594574e-001 -1.551461e+002 -5.056679e+001 -1.708277e+002 -5.031716e+001 -1.711328e+002 -2.076829e-001 1.301711e+002
553125000 -8.573194e-001 -1.554530e+002 -5.037584e+001 -1.758871e+002 -5.018574e+001 -1.770121e+002 -2.166717e-001 1.300378e+002
553750000 -8.694115e-001 -1.557972e+002 -5.059655e+001 -1.759846e+002 -5.024532e+001 -1.789013e+002 -2.216704e-001 1.298300e+002
554375000 -8.708768e-001 -1.560356e+002 -4.984705e+001 -1.754912e+002 -5.026327e+001 -1.795325e+002 -2.154620e-001 1.296921e+002
555000000 -8.806562e-001 -1.563791e+002 -5.038780e+001 -1.745135e+002 -5.084410e+001 1.796335e+002 -2.178178e-001 1.295644e+002
555625000 -8.944935e-001 -1.566455e+002 -4.993757e+001 -1.799740e+002 -5.011914e+001 1.790427e+002 -2.065468e-001 1.294704e+002
556250000 -8.984210e-001 -1.570010e+002 -4.989844e+001 -1.795744e+002 -5.015412e+001 1.776386e+002 -2.109377e-001 1.293483e+002
556875000 -8.946770e-001 -1.573086e+002 -5.064018e+001 -1.782725e+002 -5.007647e+001 1.792505e+002 -2.035666e-001 1.292886e+002
557500000 -9.164767e-001 -1.575723e+002 -5.013030e+001 1.781780e+002 -4.985284e+001 1.745764e+002 -1.908639e-001 1.292074e+002
558125000 -9.214090e-001 -1.578688e+002 -4.996770e+001 1.755324e+002 -4.968686e+001 1.779585e+002 -2.034235e-001 1.291249e+002
558750000 -9.255611e-001 -1.581451e+002 -5.002345e+001 1.726451e+002 -4.978741e+001 1.762134e+002 -1.827933e-001 1.291227e+002
559375000 -9.354203e-001 -1.584677e+002 -4.999225e+001 1.737256e+002 -5.019976e+001 1.762383e+002 -1.806043e-001 1.291019e+002
560000000 -9.450099e-001 -1.587702e+002 -4.935281e+001 1.713132e+002 -5.002929e+001 1.697013e+002 -1.763782e-001 1.291072e+002
560625000 -9.563379e-001 -1.589883e+002 -4.930278e+001 1.710825e+002 -5.012909e+001 1.740338e+002 -1.727032e-001 1.291626e+002
561250000 -9.582696e-001 -1.593210e+002 -4.962740e+001 1.707192e+002 -5.010450e+001 1.674540e+002 -1.689551e-001 1.291777e+002
561875000 -9.727116e-001 -1.596450e+002 -4.970374e+001 1.714759e+002 -4.989085e+001 1.719957e+002 -1.678108e-001 1.292395e+002
562500000 -9.839534e-001 -1.599458e+002 -4.948227e+001 1.697669e+002 -4.945527e+001 1.717100e+002 -1.697320e-001 1.293409e+002
563125000 -9.889014e-001 -1.602532e+002 -4.929680e+001 1.669358e+002 -4.939721e+001 1.672223e+002 -1.627766e-001 1.293075e+002
563750000 -1.003105e+000 -1.606007e+002 -4.951353e+001 1.697320e+002 -4.951936e+001 1.661559e+002 -1.649556e-001 1.293544e+002
564375000 -1.016999e+000 -1.609520e+002 -4.963078e+001 1.666453e+002 -4.921533e+001 1.654125e+002 -1.791001e-001 1.294717e+002
565000000 -1.035239e+000 -1.613154e+002 -4.898478e+001 1.633295e+002 -4.906299e+001 1.648465e+002 -1.819655e-001 1.295060e+002
565625000 -1.048564e+000 -1.616592e+002 -4.920318e+001 1.625171e+002 -4.895392e+001 1.626424e+002 -1.793954e-001 1.295005e+002
566250000 -1.054516e+000 -1.620599e+002 -4.961357e+001 1.621171e+002 -4.908734e+001 1.647366e+002 -1.866490e-001 1.294943e+002
566875000 -1.072780e+000 -1.624643e+002 -4.920999e+001 1.620670e+002 -4.899374e+001 1.649218e+002 -1.820655e-001 1.294128e+002
567500000 -1.093535e+000 -1.628996e+002 -4.898083e+001 1.597245e+002 -4.897425e+001 1.600265e+002 -1.875546e-001 1.294203e+002
568125000 -1.118305e+000 -1.632511e+002 -4.880002e+001 1.602672e+002 -4.927812e+001 1.601308e+002 -1.884625e-001 1.293347e+002
568750000 -1.128370e+000 -1.635868e+002 -4.956019e+001 1.562004e+002 -4.944286e+001 1.624807e+002 -2.089055e-001 1.293008e+002
569375000 -1.161464e+000 -1.640321e+002 -4.899750e+001 1.585273e+002 -4.820179e+001 1.567717e+002 -2.073672e-001 1.292431e+002
570000000 -1.164866e+000 -1.643846e+002 -4.863718e+001 1.577556e+002 -4.895537e+001 1.541568e+002 -2.029947e-001 1.291143e+002
570625000 -1.182438e+000 -1.647925e+002 -4.848736e+001 1.519478e+002 -4.828237e+001 1.544882e+002 -2.001715e-001 1.290970e+002
571250000 -1.196580e+000 -1.651805e+002 -4.807060e+001 1.555832e+002 -4.853904e+001 1.521997e+002 -2.078874e-001 1.290267e+002
571875000 -1.219955e+000 -1.654937e+002 -4.820182e+001 1.534459e+002 -4.847026e+001 1.503545e+002 -2.006525e-001 1.289833e+002
572500000 -1.233309e+000 -1.658684e+002 -4.842155e+001 1.518248e+002 -4.836414e+001 1.509937e+002 -2.050676e-001 1.288863e+002
573125000 -1.237386e+000 -1.662260e+002 -4.846260e+001 1.503242e+002 -4.808371e+001 1.511026e+002 -1.857173e-001 1.288661e+002
573750000 -1.240703e+000 -1.665985e+002 -4.837201e+001 1.482946e+002 -4.779045e+001 1.479000e+002 -2.069378e-001 1.288251e+002
574375000 -1.248549e+000 -1.669099e+002 -4.828622e+001 1.473664e+002 -4.798377e+001 1.452308e+002 -1.984984e-001 1.287672e+002
575000000 -1.252028e+000 -1.673690e+002 -4.800360e+001 1.460459e+002 -4.792417e+001 1.432012e+002 -2.018563e-001 1.287198e+002
575625000 -1.262279e+000 -1.677248e+002 -4.755489e+001 1.461113e+002 -4.800122e+001 1.425929e+002 -2.022200e-001 1.286349e+002
576250000 -1.264764e+000 -1.681607e+002 -4.809262e+001 1.440150e+002 -4.792921e+001 1.422468e+002 -2.066410e-001 1.286035e+002
576875000 -1.264559e+000 -1.685788e+002 -4.748550e+001 1.421583e+002 -4.769131e+001 1.412109e+002 -2.069832e-001 1.284778e+002
577500000 -1.287866e+000 -1.689827e+002 -4.751936e+001 1.371976e+002 -4.750820e+001 1.384308e+002 -2.014084e-001 1.283024e+002
578125000 -1.293769e+000 -1.693478e+002 -4.772287e+001 1.400464e+002 -4.743619e+001 1.355212e+002 -2.147330e-001 1.283285e+002
578750000 -1.296023e+000 -1.697504e+002 -4.752817e+001 1.336235e+002 -4.731664e+001 1.363487e+002 -2.051082e-001 1.281238e+002
579375000 -1.301616e+000 -1.701849e+002 -4.719234e+001 1.357845e+002 -4.774125e+001 1.340375e+002 -2.110744e-001 1.279789e+002
580000000 -1.304503e+000 -1.705888e+002 -4.713988e+001 1.316061e+002 -4.736622e+001 1.340818e+002 -2.227277e-001 1.278479e+002
580625000 -1.314977e+000 -1.710862e+002 -4.728248e+001 1.325476e+002 -4.765553e+001 1.326207e+002 -2.213846e-001 1.276723e+002
581250000 -1.323634e+000 -1.715374e+002 -4.748127e+001 1.298127e+002 -4.734568e+001 1.310374e+002 -2.344675e-001 1.274683e+002
581875000 -1.322431e+000 -1.720812e+002 -4.749763e+001 1.310366e+002 -4.705694e+001 1.296120e+002 -2.415852e-001 1.272069e+002
582500000 -1.341835e+000 -1.725792e+002 -4.740318e+001 1.294497e+002 -4.746885e+001 1.265892e+002 -2.432916e-001 1.269634e+002
583125000 -1.357389e+000 -1.731687e+002 -4.725424e+001 1.288596e+002 -4.715224e+001 1.260778e+002 -2.438653e-001 1.267335e+002
583750000 -1.375663e+000 -1.736689e+002 -4.747821e+001 1.263970e+002 -4.694069e+001 1.219787e+002 -2.419357e-001 1.265073e+002
584375000 -1.388024e+000 -1.741942e+002 -4.722651e+001 1.250690e+002 -4.685000e+001 1.229468e+002 -2.393568e-001 1.262943e+002
585000000 -1.406627e+000 -1.747227e+002 -4.717080e+001 1.208815e+002 -4.709996e+001 1.255258e+002 -2.361941e-001 1.260535e+002
585625000 -1.434159e+000 -1.752607e+002 -4.728658e+001 1.255800e+002 -4.722219e+001 1.221419e+002 -2.356814e-001 1.259112e+002
586250000 -1.446681e+000 -1.757763e+002 -4.672428e+001 1.218010e+002 -4.679945e+001 1.205054e+002 -2.303279e-001 1.257369e+002
586875000 -1.463441e+000 -1.763059e+002 -4.683263e+001 1.210425e+002 -4.680269e+001 1.191127e+002 -2.288062e-001 1.255734e+002
587500000 -1.486405e+000 -1.768119e+002 -4.710532e+001 1.190261e+002 -4.725308e+001 1.173184e+002 -2.180547e-001 1.254332e+002
588125000 -1.491967e+000 -1.773009e+002 -4.678285e+001 1.219048e+002 -4.670783e+001 1.189161e+002 -2.152770e-001 1.253505e+002
588750000 -1.509624e+000 -1.777635e+002 -4.674565e+001 1.157991e+002 -4.684932e+001 1.154064e+002 -2.141687e-001 1.253254e+002
589375000 -1.526809e+000 -1.783369e+002 -4.656438e+001 1.149613e+002 -4.666622e+001 1.102802e+002 -1.953410e-001 1.251872e+002
590000000 -1.552073e+000 -1.788662e+002 -4.680589e+001 1.148944e+002 -4.667484e+001 1.093616e+002 -1.976507e-001 1.252621e+002
590625000 -1.566884e+000 -1.793621e+002 -4.654317e+001 1.091620e+002 -4.657542e+001 1.106499e+002 -1.838039e-001 1.251836e+002
591250000 -1.592520e+000 -1.798197e+002 -4.699329e+001 1.098916e+002 -4.655269e+001 1.104237e+002 -1.830711e-001 1.252178e+002
591875000 -1.624759e+000 1.797935e+002 -4.715112e+001 1.115961e+002 -4.661123e+001 1.078057e+002 -1.824077e-001 1.252243e+002
592500000 -1.642340e+000 1.793216e+002 -4.666610e+001 1.077072e+002 -4.667812e+001 1.085028e+002 -1.773385e-001 1.253276e+002
593125000 -1.675571e+000 1.789622e+002 -4.672893e+001 1.056625e+002 -4.672157e+001 1.077900e+002 -1.749003e-001 1.254084e+002
593750000 -1.700574e+000 1.785661e+002 -4.719076e+001 1.044430e+002 -4.660036e+001 1.060099e+002 -1.708747e-001 1.255047e+002
594375000 -1.711032e+000 1.782278e+002 -4.640405e+001 1.039911e+002 -4.651765e+001 1.062509e+002 -1.724141e-001 1.255709e+002
595000000 -1.727582e+000 1.778142e+002 -4.710626e+001 1.017431e+002 -4.658941e+001 1.037617e+002 -1.861933e-001 1.256179e+002
