!Agilent Technologies,E8364B,US42250235,A.06.04.32
!Agilent E8364B: A.06.04.32
!Date: Friday, January 15, 2021 16:17:53
!Correction: S11(Full 2 Port(1,2)) S21(Full 2 Port(1,2)) S12(Full 2 Port(1,2)) S22(Full 2 Port(1,2)) 
!S2P File: Measurements: S11, S21, S12, S22:
# Hz S  dB   R 50
500000000 -1.230622e-001 -1.295806e+002 -6.112153e+001 8.904858e+001 -6.241118e+001 1.081429e+002 -1.635987e-001 1.352484e+002
500625000 -1.216861e-001 -1.298075e+002 -5.861631e+001 8.472842e+001 -6.330610e+001 1.024565e+002 -1.648357e-001 1.352242e+002
501250000 -1.325189e-001 -1.300726e+002 -6.065867e+001 1.041128e+002 -6.165644e+001 7.443050e+001 -1.638217e-001 1.351281e+002
501875000 -1.273592e-001 -1.303613e+002 -6.010053e+001 7.805006e+001 -6.058773e+001 8.537100e+001 -1.622745e-001 1.350367e+002
502500000 -1.263295e-001 -1.305965e+002 -6.114553e+001 8.437566e+001 -6.079470e+001 7.962890e+001 -1.632347e-001 1.350550e+002
503125000 -1.392166e-001 -1.309004e+002 -5.767938e+001 8.731705e+001 -5.978117e+001 8.239584e+001 -1.688500e-001 1.349031e+002
503750000 -1.410981e-001 -1.310935e+002 -6.006190e+001 9.285629e+001 -5.849398e+001 7.655365e+001 -1.752259e-001 1.347879e+002
504375000 -1.451471e-001 -1.313506e+002 -6.123545e+001 8.572202e+001 -5.959615e+001 7.277300e+001 -1.823997e-001 1.347240e+002
505000000 -1.519878e-001 -1.316287e+002 -5.968017e+001 8.944110e+001 -5.890898e+001 8.032172e+001 -1.756202e-001 1.346162e+002
505625000 -1.499888e-001 -1.318642e+002 -6.013227e+001 7.981456e+001 -6.018729e+001 7.040645e+001 -1.808297e-001 1.344993e+002
506250000 -1.520637e-001 -1.321411e+002 -6.046612e+001 7.037788e+001 -5.910523e+001 7.654135e+001 -1.835749e-001 1.342945e+002
506875000 -1.560488e-001 -1.323673e+002 -5.989309e+001 7.275134e+001 -5.997139e+001 7.633263e+001 -1.822920e-001 1.341321e+002
507500000 -1.589990e-001 -1.325992e+002 -6.125364e+001 8.916786e+001 -5.849873e+001 6.926804e+001 -1.944522e-001 1.339414e+002
508125000 -1.635024e-001 -1.329347e+002 -5.898550e+001 9.050689e+001 -5.987825e+001 7.782408e+001 -1.881965e-001 1.337449e+002
508750000 -1.691862e-001 -1.331214e+002 -5.899919e+001 8.080900e+001 -6.011660e+001 7.265681e+001 -1.978436e-001 1.335427e+002
509375000 -1.716623e-001 -1.334815e+002 -5.974888e+001 6.628150e+001 -5.943777e+001 7.652647e+001 -1.908361e-001 1.333637e+002
510000000 -1.712686e-001 -1.337229e+002 -5.971910e+001 7.054868e+001 -5.941789e+001 6.954190e+001 -1.923000e-001 1.331270e+002
510625000 -1.792251e-001 -1.339639e+002 -5.959390e+001 8.253152e+001 -6.036591e+001 7.081422e+001 -1.854962e-001 1.330053e+002
511250000 -1.906337e-001 -1.342164e+002 -5.794681e+001 6.540476e+001 -5.803173e+001 7.218131e+001 -1.918263e-001 1.327443e+002
511875000 -1.946860e-001 -1.345428e+002 -5.884683e+001 7.483813e+001 -5.927160e+001 6.285468e+001 -1.847260e-001 1.325028e+002
512500000 -1.910478e-001 -1.347790e+002 -5.922856e+001 6.570348e+001 -5.856773e+001 6.039480e+001 -1.929691e-001 1.323359e+002
513125000 -2.087722e-001 -1.350441e+002 -5.778558e+001 6.068848e+001 -5.871681e+001 5.850543e+001 -1.876775e-001 1.321787e+002
513750000 -2.167438e-001 -1.353280e+002 -5.964305e+001 5.794680e+001 -5.819339e+001 5.872921e+001 -1.944942e-001 1.319623e+002
514375000 -2.296385e-001 -1.356953e+002 -5.705441e+001 6.468822e+001 -5.814352e+001 6.105560e+001 -1.789285e-001 1.318010e+002
515000000 -2.358950e-001 -1.359776e+002 -5.812041e+001 6.027118e+001 -5.693813e+001 6.288921e+001 -1.805795e-001 1.316679e+002
515625000 -2.413657e-001 -1.363328e+002 -5.783102e+001 5.354977e+001 -5.837321e+001 5.689916e+001 -1.721956e-001 1.315164e+002
516250000 -2.489911e-001 -1.366195e+002 -5.795355e+001 6.166673e+001 -5.714074e+001 6.326111e+001 -1.822093e-001 1.314789e+002
516875000 -2.627816e-001 -1.369505e+002 -5.746938e+001 4.990556e+001 -5.766396e+001 5.488907e+001 -1.775980e-001 1.314483e+002
517500000 -2.781564e-001 -1.372461e+002 -5.727566e+001 5.949817e+001 -5.817005e+001 5.331930e+001 -1.811298e-001 1.313638e+002
518125000 -2.792406e-001 -1.375912e+002 -5.657265e+001 5.488277e+001 -5.627688e+001 5.292277e+001 -1.648588e-001 1.312899e+002
518750000 -2.932347e-001 -1.378973e+002 -5.716286e+001 5.601687e+001 -5.759306e+001 5.283233e+001 -1.587236e-001 1.313300e+002
519375000 -3.039556e-001 -1.381659e+002 -5.772337e+001 4.713476e+001 -5.773614e+001 5.075748e+001 -1.568937e-001 1.312704e+002
520000000 -3.034151e-001 -1.385149e+002 -5.833789e+001 3.706113e+001 -5.823637e+001 4.399784e+001 -1.549709e-001 1.312724e+002
520625000 -3.101214e-001 -1.388521e+002 -5.798030e+001 4.812405e+001 -5.840625e+001 4.394068e+001 -1.490243e-001 1.312197e+002
521250000 -3.210290e-001 -1.391387e+002 -5.665717e+001 4.313957e+001 -5.699950e+001 4.370188e+001 -1.513191e-001 1.312944e+002
521875000 -3.172951e-001 -1.394981e+002 -5.760332e+001 4.223437e+001 -5.721954e+001 4.517929e+001 -1.369084e-001 1.313447e+002
522500000 -3.260093e-001 -1.398305e+002 -5.732456e+001 3.805521e+001 -5.701976e+001 4.066264e+001 -1.470985e-001 1.313367e+002
523125000 -3.389181e-001 -1.401817e+002 -5.766585e+001 4.669544e+001 -5.568565e+001 3.326021e+001 -1.500591e-001 1.312937e+002
523750000 -3.400210e-001 -1.404911e+002 -5.748212e+001 3.274504e+001 -5.833497e+001 3.242712e+001 -1.460810e-001 1.313763e+002
524375000 -3.497933e-001 -1.408370e+002 -5.703239e+001 5.352409e+001 -5.705441e+001 3.574766e+001 -1.437762e-001 1.313620e+002
525000000 -3.554083e-001 -1.411712e+002 -5.692033e+001 3.789849e+001 -5.624903e+001 3.813321e+001 -1.519842e-001 1.314222e+002
525625000 -3.625654e-001 -1.414061e+002 -5.612425e+001 3.341215e+001 -5.585485e+001 4.071334e+001 -1.569630e-001 1.313989e+002
526250000 -3.666294e-001 -1.417470e+002 -5.595698e+001 3.487266e+001 -5.597972e+001 3.717501e+001 -1.580453e-001 1.314094e+002
526875000 -3.811839e-001 -1.421124e+002 -5.605153e+001 2.972041e+001 -5.665053e+001 3.332604e+001 -1.440007e-001 1.314206e+002
527500000 -3.878929e-001 -1.423906e+002 -5.652610e+001 2.690336e+001 -5.601508e+001 2.623828e+001 -1.509251e-001 1.314496e+002
528125000 -4.008625e-001 -1.427092e+002 -5.497218e+001 2.360472e+001 -5.678853e+001 3.373697e+001 -1.581956e-001 1.314929e+002
528750000 -4.005299e-001 -1.429706e+002 -5.605170e+001 2.613386e+001 -5.546941e+001 2.936415e+001 -1.513617e-001 1.315484e+002
529375000 -4.083936e-001 -1.433125e+002 -5.523850e+001 2.767644e+001 -5.623260e+001 2.510156e+001 -1.582195e-001 1.314954e+002
530000000 -4.216817e-001 -1.436909e+002 -5.441724e+001 2.056096e+001 -5.558966e+001 2.124109e+001 -1.576065e-001 1.315643e+002
530625000 -4.230150e-001 -1.439442e+002 -5.519361e+001 2.096628e+001 -5.701367e+001 1.747886e+001 -1.620766e-001 1.315324e+002
531250000 -4.354041e-001 -1.443216e+002 -5.626377e+001 2.209409e+001 -5.501169e+001 2.235939e+001 -1.417907e-001 1.314923e+002
531875000 -4.569581e-001 -1.446408e+002 -5.530156e+001 1.410200e+001 -5.571996e+001 1.593653e+001 -1.573109e-001 1.314695e+002
532500000 -4.583256e-001 -1.448843e+002 -5.607510e+001 2.586796e+001 -5.552595e+001 2.540798e+001 -1.610038e-001 1.315110e+002
533125000 -4.628444e-001 -1.452699e+002 -5.427436e+001 2.281844e+001 -5.442852e+001 2.093427e+001 -1.663876e-001 1.314405e+002
533750000 -4.668807e-001 -1.455898e+002 -5.472165e+001 1.260620e+001 -5.587473e+001 1.482034e+001 -1.737799e-001 1.314748e+002
534375000 -4.751129e-001 -1.459794e+002 -5.469671e+001 1.623498e+001 -5.523753e+001 1.325525e+001 -1.611372e-001 1.314231e+002
535000000 -4.844677e-001 -1.462586e+002 -5.591129e+001 1.180204e+001 -5.504551e+001 1.084647e+001 -1.607872e-001 1.313955e+002
535625000 -4.901900e-001 -1.466185e+002 -5.506536e+001 8.879839e+000 -5.517643e+001 1.705864e+001 -1.658283e-001 1.313728e+002
536250000 -5.021280e-001 -1.469603e+002 -5.669584e+001 3.689123e+000 -5.517158e+001 7.119128e+000 -1.677421e-001 1.312057e+002
536875000 -5.144212e-001 -1.473591e+002 -5.518823e+001 6.787680e+000 -5.546598e+001 1.107814e+001 -1.727462e-001 1.311224e+002
537500000 -5.186234e-001 -1.476268e+002 -5.506808e+001 5.961164e+000 -5.452961e+001 7.019887e+000 -1.667949e-001 1.311059e+002
538125000 -5.305598e-001 -1.479781e+002 -5.422127e+001 9.378600e+000 -5.451382e+001 1.075540e+000 -1.757786e-001 1.309991e+002
538750000 -5.453639e-001 -1.483142e+002 -5.405974e+001 9.200179e+000 -5.545218e+001 4.508851e+000 -1.771675e-001 1.309782e+002
539375000 -5.529810e-001 -1.486437e+002 -5.405583e+001 1.624786e+000 -5.392965e+001 8.256762e-001 -1.832599e-001 1.309030e+002
540000000 -5.549362e-001 -1.489750e+002 -5.450888e+001 2.964410e+000 -5.365898e+001 5.719064e-001 -1.814123e-001 1.307633e+002
540625000 -5.649283e-001 -1.493248e+002 -5.389540e+001 -2.589183e-001 -5.385573e+001 -7.079090e+000 -1.704283e-001 1.306644e+002
541250000 -5.719281e-001 -1.495666e+002 -5.315018e+001 -3.475176e+000 -5.445209e+001 -3.738972e+000 -1.692285e-001 1.306395e+002
541875000 -5.801145e-001 -1.499286e+002 -5.346427e+001 -1.206383e+001 -5.442846e+001 -4.222104e+000 -1.770797e-001 1.305143e+002
542500000 -5.913222e-001 -1.502068e+002 -5.392623e+001 -1.051681e+001 -5.368678e+001 -6.956431e+000 -1.714712e-001 1.305048e+002
543125000 -5.896438e-001 -1.505846e+002 -5.391050e+001 -1.000527e+001 -5.446820e+001 -5.243586e+000 -1.689395e-001 1.303710e+002
543750000 -5.978321e-001 -1.508884e+002 -5.312497e+001 -1.317765e+001 -5.288436e+001 -1.727746e+001 -1.776712e-001 1.303909e+002
544375000 -6.085576e-001 -1.512228e+002 -5.355973e+001 -6.842234e+000 -5.368259e+001 -3.410707e+000 -1.701786e-001 1.302607e+002
545000000 -6.129763e-001 -1.515075e+002 -5.290440e+001 -1.719346e+001 -5.426131e+001 -9.240477e+000 -1.685309e-001 1.302362e+002
545625000 -6.255385e-001 -1.518585e+002 -5.266247e+001 -1.325111e+001 -5.346692e+001 -1.706155e+001 -1.655332e-001 1.302379e+002
546250000 -6.454642e-001 -1.521870e+002 -5.278172e+001 -1.809577e+001 -5.342435e+001 -2.045565e+001 -1.807954e-001 1.301279e+002
546875000 -6.493995e-001 -1.525377e+002 -5.352488e+001 -1.993723e+001 -5.385576e+001 -1.535102e+001 -1.728295e-001 1.301096e+002
547500000 -6.719926e-001 -1.528928e+002 -5.322711e+001 -2.439433e+001 -5.377632e+001 -1.462282e+001 -1.784419e-001 1.300799e+002
548125000 -6.890988e-001 -1.531701e+002 -5.304789e+001 -2.154865e+001 -5.348178e+001 -2.420102e+001 -1.801692e-001 1.299693e+002
548750000 -7.045805e-001 -1.535086e+002 -5.321136e+001 -2.870063e+001 -5.318828e+001 -2.389367e+001 -1.803654e-001 1.298787e+002
549375000 -7.164633e-001 -1.537676e+002 -5.324231e+001 -2.736885e+001 -5.302259e+001 -2.473033e+001 -1.856731e-001 1.296283e+002
550000000 -7.272173e-001 -1.540385e+002 -5.283297e+001 -3.194712e+001 -5.324299e+001 -2.801864e+001 -1.904209e-001 1.296747e+002
550625000 -7.343998e-001 -1.543251e+002 -5.293997e+001 -3.164244e+001 -5.349929e+001 -2.912187e+001 -1.860215e-001 1.295332e+002
551250000 -7.320851e-001 -1.546244e+002 -5.303296e+001 -3.159984e+001 -5.371639e+001 -3.388450e+001 -1.861165e-001 1.293444e+002
551875000 -7.416967e-001 -1.549697e+002 -5.304197e+001 -3.431772e+001 -5.301624e+001 -3.559222e+001 -1.932834e-001 1.291738e+002
552500000 -7.402384e-001 -1.553114e+002 -5.282082e+001 -3.557106e+001 -5.271322e+001 -3.754429e+001 -1.928775e-001 1.290177e+002
553125000 -7.354929e-001 -1.556462e+002 -5.276735e+001 -3.727494e+001 -5.303064e+001 -3.804399e+001 -1.973457e-001 1.289154e+002
553750000 -7.465996e-001 -1.559789e+002 -5.359923e+001 -3.573460e+001 -5.328018e+001 -3.774487e+001 -1.964599e-001 1.286571e+002
554375000 -7.480774e-001 -1.563156e+002 -5.255150e+001 -3.959688e+001 -5.312482e+001 -4.207430e+001 -1.983220e-001 1.285681e+002
555000000 -7.526460e-001 -1.566393e+002 -5.310516e+001 -4.038535e+001 -5.307551e+001 -4.023320e+001 -1.922958e-001 1.284317e+002
555625000 -7.697253e-001 -1.569616e+002 -5.299751e+001 -3.864817e+001 -5.270861e+001 -4.336810e+001 -1.815772e-001 1.283815e+002
556250000 -7.751291e-001 -1.573668e+002 -5.324424e+001 -4.585282e+001 -5.246102e+001 -4.487056e+001 -1.842354e-001 1.281967e+002
556875000 -7.725671e-001 -1.577331e+002 -5.287020e+001 -4.906743e+001 -5.373134e+001 -4.870767e+001 -1.888633e-001 1.281282e+002
557500000 -7.929127e-001 -1.580498e+002 -5.245021e+001 -5.094891e+001 -5.312351e+001 -4.788707e+001 -1.807330e-001 1.280781e+002
558125000 -8.038464e-001 -1.584107e+002 -5.306437e+001 -4.888723e+001 -5.299274e+001 -4.838633e+001 -1.869519e-001 1.279949e+002
558750000 -8.041039e-001 -1.587194e+002 -5.308437e+001 -4.908614e+001 -5.335281e+001 -4.947384e+001 -1.734807e-001 1.279587e+002
559375000 -8.174660e-001 -1.590607e+002 -5.293130e+001 -4.691084e+001 -5.290025e+001 -4.834570e+001 -1.629107e-001 1.279582e+002
560000000 -8.374528e-001 -1.594087e+002 -5.312393e+001 -4.489646e+001 -5.276631e+001 -4.888141e+001 -1.571120e-001 1.279337e+002
560625000 -8.425004e-001 -1.596776e+002 -5.300134e+001 -5.376025e+001 -5.268679e+001 -4.700496e+001 -1.621207e-001 1.279755e+002
561250000 -8.527141e-001 -1.600838e+002 -5.309795e+001 -4.843441e+001 -5.297440e+001 -5.162889e+001 -1.515676e-001 1.279502e+002
561875000 -8.596203e-001 -1.603893e+002 -5.279697e+001 -5.260542e+001 -5.236623e+001 -5.481984e+001 -1.543515e-001 1.280203e+002
562500000 -8.751627e-001 -1.607383e+002 -5.185927e+001 -5.131915e+001 -5.200879e+001 -5.602582e+001 -1.550737e-001 1.280903e+002
563125000 -8.795133e-001 -1.610935e+002 -5.167891e+001 -5.918610e+001 -5.265645e+001 -5.221867e+001 -1.428174e-001 1.281332e+002
563750000 -9.036056e-001 -1.614852e+002 -5.146166e+001 -6.098341e+001 -5.292062e+001 -5.623830e+001 -1.577399e-001 1.281250e+002
564375000 -9.187167e-001 -1.618636e+002 -5.118941e+001 -6.140701e+001 -5.145452e+001 -5.978775e+001 -1.580733e-001 1.282184e+002
565000000 -9.344316e-001 -1.623107e+002 -5.190242e+001 -6.101544e+001 -5.199524e+001 -6.046241e+001 -1.621688e-001 1.281709e+002
565625000 -9.533424e-001 -1.627424e+002 -5.120982e+001 -6.456288e+001 -5.263605e+001 -6.235929e+001 -1.685569e-001 1.282356e+002
566250000 -9.745554e-001 -1.632236e+002 -5.127412e+001 -6.455624e+001 -5.105865e+001 -6.568985e+001 -1.681449e-001 1.282212e+002
566875000 -1.011049e+000 -1.635843e+002 -5.129662e+001 -6.714768e+001 -5.114806e+001 -6.792298e+001 -1.726048e-001 1.281643e+002
567500000 -1.040400e+000 -1.640386e+002 -5.158964e+001 -6.763820e+001 -5.146288e+001 -6.857770e+001 -1.718120e-001 1.281165e+002
568125000 -1.063946e+000 -1.644212e+002 -5.106092e+001 -6.585246e+001 -5.174623e+001 -6.716014e+001 -1.794033e-001 1.281053e+002
568750000 -1.090284e+000 -1.648176e+002 -5.182533e+001 -6.786584e+001 -5.121556e+001 -6.607523e+001 -1.854151e-001 1.280130e+002
569375000 -1.117757e+000 -1.651889e+002 -5.030503e+001 -7.148017e+001 -5.125184e+001 -7.409641e+001 -1.794612e-001 1.279426e+002
570000000 -1.135924e+000 -1.656131e+002 -5.017872e+001 -7.186681e+001 -5.053266e+001 -7.460471e+001 -1.811584e-001 1.278713e+002
570625000 -1.153306e+000 -1.659956e+002 -5.055807e+001 -7.793714e+001 -5.137933e+001 -7.547596e+001 -1.854009e-001 1.278508e+002
571250000 -1.173183e+000 -1.663385e+002 -5.061855e+001 -7.994124e+001 -5.091615e+001 -8.230828e+001 -1.822258e-001 1.278057e+002
571875000 -1.199007e+000 -1.667225e+002 -5.088166e+001 -7.899854e+001 -5.116462e+001 -8.020253e+001 -1.768025e-001 1.277301e+002
572500000 -1.215062e+000 -1.671256e+002 -5.107391e+001 -7.856612e+001 -5.059890e+001 -8.279734e+001 -1.789406e-001 1.276565e+002
573125000 -1.225878e+000 -1.674879e+002 -5.052928e+001 -8.194045e+001 -5.075420e+001 -8.163013e+001 -1.753195e-001 1.276215e+002
573750000 -1.242404e+000 -1.678755e+002 -5.112627e+001 -8.084723e+001 -5.047121e+001 -8.343195e+001 -1.903234e-001 1.275720e+002
574375000 -1.250131e+000 -1.682997e+002 -5.096038e+001 -8.645010e+001 -5.072228e+001 -8.540916e+001 -1.713899e-001 1.275695e+002
575000000 -1.263353e+000 -1.687170e+002 -5.124076e+001 -8.252283e+001 -5.037411e+001 -8.901925e+001 -1.798367e-001 1.274486e+002
575625000 -1.273675e+000 -1.691286e+002 -4.999972e+001 -8.934489e+001 -5.003573e+001 -8.877079e+001 -1.865761e-001 1.274050e+002
576250000 -1.291525e+000 -1.695551e+002 -5.064046e+001 -9.010081e+001 -5.027646e+001 -8.638146e+001 -1.987638e-001 1.272807e+002
576875000 -1.303077e+000 -1.699717e+002 -5.062096e+001 -8.929877e+001 -5.073498e+001 -9.033890e+001 -1.887342e-001 1.272466e+002
577500000 -1.336715e+000 -1.703445e+002 -5.008382e+001 -9.276849e+001 -5.040264e+001 -8.932223e+001 -1.943845e-001 1.270856e+002
578125000 -1.349032e+000 -1.707777e+002 -5.059055e+001 -8.700242e+001 -4.992295e+001 -9.276894e+001 -1.922592e-001 1.270406e+002
578750000 -1.357524e+000 -1.711732e+002 -5.006796e+001 -9.647014e+001 -5.071610e+001 -9.824010e+001 -1.887738e-001 1.268556e+002
579375000 -1.369271e+000 -1.715978e+002 -5.038801e+001 -9.678481e+001 -4.967683e+001 -9.614143e+001 -1.984301e-001 1.266944e+002
580000000 -1.381226e+000 -1.719874e+002 -5.058204e+001 -9.511915e+001 -5.052183e+001 -1.011284e+002 -2.047238e-001 1.265604e+002
580625000 -1.398913e+000 -1.725413e+002 -5.038074e+001 -1.008667e+002 -5.027964e+001 -1.003201e+002 -2.014436e-001 1.263473e+002
581250000 -1.415742e+000 -1.729935e+002 -4.970354e+001 -1.026432e+002 -4.984553e+001 -1.041451e+002 -2.129909e-001 1.262082e+002
581875000 -1.431157e+000 -1.735097e+002 -4.977400e+001 -1.058325e+002 -5.001933e+001 -1.077931e+002 -2.184990e-001 1.260175e+002
582500000 -1.450519e+000 -1.740164e+002 -4.969601e+001 -1.052700e+002 -5.003056e+001 -1.089606e+002 -2.102845e-001 1.257108e+002
583125000 -1.476385e+000 -1.746279e+002 -4.980358e+001 -1.086301e+002 -5.001499e+001 -1.057024e+002 -2.286197e-001 1.255413e+002
583750000 -1.500489e+000 -1.751532e+002 -5.062790e+001 -1.085229e+002 -5.034970e+001 -1.096333e+002 -2.228979e-001 1.252775e+002
584375000 -1.530054e+000 -1.756601e+002 -5.016421e+001 -1.101424e+002 -4.969764e+001 -1.098515e+002 -2.112725e-001 1.251073e+002
585000000 -1.553373e+000 -1.762629e+002 -4.952693e+001 -1.113514e+002 -5.000859e+001 -1.115059e+002 -2.250051e-001 1.248145e+002
585625000 -1.586687e+000 -1.766933e+002 -5.014821e+001 -1.107512e+002 -4.992833e+001 -1.107793e+002 -2.018334e-001 1.246918e+002
586250000 -1.606115e+000 -1.773143e+002 -4.949186e+001 -1.086872e+002 -4.971017e+001 -1.161960e+002 -1.992478e-001 1.246331e+002
586875000 -1.634974e+000 -1.778262e+002 -4.988336e+001 -1.126620e+002 -4.951857e+001 -1.125790e+002 -2.064061e-001 1.243961e+002
587500000 -1.671442e+000 -1.783939e+002 -4.959476e+001 -1.149054e+002 -4.917387e+001 -1.134603e+002 -1.911360e-001 1.242437e+002
588125000 -1.702178e+000 -1.788278e+002 -4.987636e+001 -1.156550e+002 -4.950368e+001 -1.188515e+002 -1.918265e-001 1.241618e+002
588750000 -1.731416e+000 -1.793647e+002 -4.934392e+001 -1.159076e+002 -4.975682e+001 -1.181721e+002 -1.922101e-001 1.240880e+002
589375000 -1.763073e+000 -1.798700e+002 -4.935589e+001 -1.182997e+002 -4.961142e+001 -1.181045e+002 -1.743657e-001 1.239867e+002
590000000 -1.811701e+000 1.796803e+002 -4.924363e+001 -1.202540e+002 -4.937233e+001 -1.213699e+002 -1.733603e-001 1.240008e+002
590625000 -1.856071e+000 1.791986e+002 -4.945520e+001 -1.204979e+002 -4.910515e+001 -1.223588e+002 -1.752688e-001 1.239352e+002
591250000 -1.895517e+000 1.788260e+002 -4.890746e+001 -1.242936e+002 -4.919603e+001 -1.241773e+002 -1.708974e-001 1.239721e+002
591875000 -1.947591e+000 1.785126e+002 -4.881114e+001 -1.243181e+002 -4.837368e+001 -1.250181e+002 -1.612716e-001 1.240490e+002
592500000 -1.987157e+000 1.781794e+002 -4.895161e+001 -1.239135e+002 -4.882174e+001 -1.263519e+002 -1.616794e-001 1.241040e+002
593125000 -2.027772e+000 1.779894e+002 -4.898107e+001 -1.260653e+002 -4.898585e+001 -1.290348e+002 -1.607334e-001 1.241969e+002
593750000 -2.074715e+000 1.776520e+002 -4.846947e+001 -1.300076e+002 -4.913170e+001 -1.296519e+002 -1.473416e-001 1.242596e+002
594375000 -2.085449e+000 1.774204e+002 -4.878947e+001 -1.348012e+002 -4.878598e+001 -1.317349e+002 -1.533327e-001 1.243467e+002
595000000 -2.114968e+000 1.771977e+002 -4.878698e+001 -1.331750e+002 -4.840653e+001 -1.380080e+002 -1.657670e-001 1.243956e+002
