!Agilent Technologies,E8364B,US42250235,A.06.04.32
!Agilent E8364B: A.06.04.32
!Date: Friday, January 15, 2021 16:29:18
!Correction: S11(Full 2 Port(1,2)) S21(Full 2 Port(1,2)) S12(Full 2 Port(1,2)) S22(Full 2 Port(1,2)) 
!S2P File: Measurements: S11, S21, S12, S22:
# Hz S  dB   R 50
500000000 -1.109733e-001 -1.295803e+002 -6.347026e+001 -2.734161e+001 -6.353254e+001 -2.322465e+001 -1.488449e-001 1.354875e+002
500625000 -1.111744e-001 -1.298074e+002 -6.512029e+001 -2.646385e+001 -6.469296e+001 -2.395819e+001 -1.557008e-001 1.354279e+002
501250000 -1.212522e-001 -1.300001e+002 -6.067606e+001 -3.220521e+001 -6.098322e+001 -5.836245e+000 -1.507189e-001 1.353815e+002
501875000 -1.213885e-001 -1.302656e+002 -6.317597e+001 -3.671965e+001 -6.338773e+001 -3.544840e+001 -1.492660e-001 1.353037e+002
502500000 -1.154991e-001 -1.305387e+002 -6.246080e+001 -3.052791e+001 -6.261840e+001 -3.807907e+001 -1.515838e-001 1.353081e+002
503125000 -1.225753e-001 -1.308254e+002 -6.188731e+001 -4.639260e+001 -6.557728e+001 -4.345713e+001 -1.577738e-001 1.351822e+002
503750000 -1.257908e-001 -1.310503e+002 -6.185862e+001 -2.740337e+001 -6.268438e+001 -4.532024e+001 -1.568072e-001 1.350800e+002
504375000 -1.349833e-001 -1.313019e+002 -6.338220e+001 -4.287904e+001 -6.444144e+001 -4.443499e+001 -1.671397e-001 1.349863e+002
505000000 -1.409516e-001 -1.315987e+002 -6.349908e+001 -2.842822e+001 -6.413784e+001 -2.337375e+001 -1.624030e-001 1.348603e+002
505625000 -1.369654e-001 -1.318021e+002 -6.126879e+001 -4.612660e+001 -6.096667e+001 -3.085076e+001 -1.670118e-001 1.347599e+002
506250000 -1.422503e-001 -1.320817e+002 -6.065969e+001 -4.549246e+001 -6.152187e+001 -4.178390e+001 -1.741104e-001 1.345671e+002
506875000 -1.334181e-001 -1.323505e+002 -6.078823e+001 -3.993699e+001 -6.233025e+001 -5.433662e+001 -1.751443e-001 1.343749e+002
507500000 -1.453380e-001 -1.325957e+002 -6.109396e+001 -4.289803e+001 -6.235827e+001 -6.326440e+001 -1.810141e-001 1.341988e+002
508125000 -1.382262e-001 -1.328468e+002 -6.165839e+001 -4.564949e+001 -6.174712e+001 -3.921355e+001 -1.781416e-001 1.340383e+002
508750000 -1.472708e-001 -1.331391e+002 -6.337223e+001 -4.513637e+001 -6.078145e+001 -5.255385e+001 -1.777864e-001 1.338107e+002
509375000 -1.472370e-001 -1.334257e+002 -6.264458e+001 -5.140945e+001 -6.178156e+001 -6.159973e+001 -1.772140e-001 1.336017e+002
510000000 -1.473776e-001 -1.337103e+002 -6.190605e+001 -4.265645e+001 -6.043883e+001 -4.270289e+001 -1.957377e-001 1.333981e+002
510625000 -1.634847e-001 -1.339174e+002 -6.301976e+001 -5.542136e+001 -6.076196e+001 -4.264341e+001 -1.782189e-001 1.332158e+002
511250000 -1.658127e-001 -1.341595e+002 -6.083266e+001 -4.961746e+001 -6.079984e+001 -5.915498e+001 -1.878824e-001 1.329467e+002
511875000 -1.653468e-001 -1.345141e+002 -6.091491e+001 -4.084970e+001 -6.199621e+001 -5.539468e+001 -1.757646e-001 1.327357e+002
512500000 -1.720387e-001 -1.347424e+002 -6.209054e+001 -5.479702e+001 -6.023001e+001 -8.335518e+001 -1.845297e-001 1.325366e+002
513125000 -1.842752e-001 -1.350846e+002 -6.130799e+001 -4.281565e+001 -6.241399e+001 -7.274478e+001 -1.858813e-001 1.324181e+002
513750000 -1.910224e-001 -1.353667e+002 -6.232495e+001 -6.345538e+001 -6.120279e+001 -7.034754e+001 -1.856162e-001 1.322472e+002
514375000 -1.959809e-001 -1.356609e+002 -6.353906e+001 -6.504832e+001 -6.098156e+001 -5.829222e+001 -1.769482e-001 1.320222e+002
515000000 -2.023217e-001 -1.359683e+002 -6.334753e+001 -6.487781e+001 -6.255283e+001 -6.364884e+001 -1.714853e-001 1.319053e+002
515625000 -2.148921e-001 -1.363438e+002 -6.114186e+001 -6.047407e+001 -6.049067e+001 -6.601531e+001 -1.705375e-001 1.317558e+002
516250000 -2.182194e-001 -1.366674e+002 -6.032360e+001 -6.343939e+001 -6.153212e+001 -6.465981e+001 -1.611673e-001 1.316648e+002
516875000 -2.317346e-001 -1.369472e+002 -6.151843e+001 -6.903830e+001 -6.317918e+001 -5.318808e+001 -1.524321e-001 1.316838e+002
517500000 -2.324601e-001 -1.372668e+002 -6.177680e+001 -7.261630e+001 -6.053988e+001 -5.008001e+001 -1.587224e-001 1.315608e+002
518125000 -2.431161e-001 -1.376511e+002 -6.026193e+001 -5.973392e+001 -6.022663e+001 -7.413969e+001 -1.518585e-001 1.314875e+002
518750000 -2.505079e-001 -1.379739e+002 -5.918777e+001 -6.858440e+001 -6.128493e+001 -7.083775e+001 -1.485884e-001 1.316022e+002
519375000 -2.634135e-001 -1.382499e+002 -6.087869e+001 -7.625962e+001 -6.140957e+001 -6.849234e+001 -1.423727e-001 1.315468e+002
520000000 -2.655901e-001 -1.386642e+002 -6.048341e+001 -6.676996e+001 -6.032453e+001 -7.684625e+001 -1.447851e-001 1.314854e+002
520625000 -2.703480e-001 -1.389754e+002 -6.025199e+001 -6.778250e+001 -5.853209e+001 -7.200269e+001 -1.333246e-001 1.314710e+002
521250000 -2.795868e-001 -1.393393e+002 -6.046330e+001 -6.672913e+001 -5.770180e+001 -8.290063e+001 -1.417235e-001 1.314690e+002
521875000 -2.782795e-001 -1.397227e+002 -6.037436e+001 -8.121047e+001 -5.913889e+001 -9.233809e+001 -1.313836e-001 1.315797e+002
522500000 -2.821057e-001 -1.400263e+002 -5.868049e+001 -8.090889e+001 -6.038430e+001 -7.460791e+001 -1.386777e-001 1.315346e+002
523125000 -2.967031e-001 -1.403574e+002 -5.814973e+001 -8.163542e+001 -5.783224e+001 -7.879917e+001 -1.400072e-001 1.315855e+002
523750000 -2.959562e-001 -1.406857e+002 -5.816768e+001 -8.595596e+001 -5.976627e+001 -8.935682e+001 -1.354489e-001 1.316142e+002
524375000 -3.076428e-001 -1.410684e+002 -5.942527e+001 -8.855673e+001 -5.946405e+001 -8.339195e+001 -1.308724e-001 1.316409e+002
525000000 -3.129200e-001 -1.413912e+002 -6.010846e+001 -8.822147e+001 -5.952925e+001 -8.293127e+001 -1.420951e-001 1.316428e+002
525625000 -3.290759e-001 -1.416701e+002 -5.823182e+001 -9.769905e+001 -5.899933e+001 -8.896295e+001 -1.489943e-001 1.316191e+002
526250000 -3.248280e-001 -1.420349e+002 -5.826458e+001 -8.996196e+001 -5.757689e+001 -8.220618e+001 -1.413498e-001 1.316573e+002
526875000 -3.397851e-001 -1.423842e+002 -5.937036e+001 -9.850391e+001 -5.832489e+001 -9.431370e+001 -1.400132e-001 1.316320e+002
527500000 -3.492106e-001 -1.426762e+002 -5.802710e+001 -9.117508e+001 -5.965635e+001 -8.276828e+001 -1.398944e-001 1.316517e+002
528125000 -3.719463e-001 -1.430303e+002 -5.716387e+001 -9.005129e+001 -5.736280e+001 -9.465269e+001 -1.501931e-001 1.317155e+002
528750000 -3.745246e-001 -1.433210e+002 -5.694658e+001 -8.910866e+001 -5.808868e+001 -9.353627e+001 -1.330969e-001 1.317902e+002
529375000 -3.840464e-001 -1.436618e+002 -5.774930e+001 -1.002900e+002 -5.887214e+001 -9.456503e+001 -1.488644e-001 1.317187e+002
530000000 -3.965267e-001 -1.440298e+002 -5.810542e+001 -1.036961e+002 -5.730827e+001 -9.909145e+001 -1.471945e-001 1.317301e+002
530625000 -4.055411e-001 -1.443051e+002 -5.865511e+001 -1.038399e+002 -5.725720e+001 -1.035109e+002 -1.480496e-001 1.317269e+002
531250000 -4.131274e-001 -1.446515e+002 -5.766173e+001 -1.018172e+002 -5.796307e+001 -9.672610e+001 -1.408078e-001 1.317292e+002
531875000 -4.305634e-001 -1.449801e+002 -5.966241e+001 -1.004675e+002 -5.659684e+001 -1.106026e+002 -1.566848e-001 1.317426e+002
532500000 -4.330078e-001 -1.452817e+002 -5.701007e+001 -1.062598e+002 -5.714676e+001 -1.072348e+002 -1.460996e-001 1.317869e+002
533125000 -4.365413e-001 -1.456931e+002 -5.531887e+001 -1.174627e+002 -5.818245e+001 -9.799996e+001 -1.619938e-001 1.317894e+002
533750000 -4.582542e-001 -1.460414e+002 -5.691697e+001 -1.077539e+002 -5.794816e+001 -1.108641e+002 -1.648472e-001 1.316829e+002
534375000 -4.573278e-001 -1.463956e+002 -5.753352e+001 -1.134481e+002 -5.740276e+001 -1.057884e+002 -1.478255e-001 1.316101e+002
535000000 -4.713851e-001 -1.467039e+002 -5.790917e+001 -1.120029e+002 -5.660011e+001 -1.070354e+002 -1.601250e-001 1.316122e+002
535625000 -4.841682e-001 -1.471133e+002 -5.721502e+001 -1.139113e+002 -5.782951e+001 -1.065478e+002 -1.543255e-001 1.315792e+002
536250000 -4.831295e-001 -1.474684e+002 -5.724719e+001 -1.141965e+002 -5.641617e+001 -1.148732e+002 -1.556382e-001 1.314966e+002
536875000 -5.045465e-001 -1.478031e+002 -5.735539e+001 -1.144302e+002 -5.731881e+001 -1.144031e+002 -1.612669e-001 1.313934e+002
537500000 -5.155957e-001 -1.481411e+002 -5.686124e+001 -1.080274e+002 -5.621914e+001 -1.211624e+002 -1.573582e-001 1.313771e+002
538125000 -5.284936e-001 -1.485443e+002 -5.618476e+001 -1.228772e+002 -5.589408e+001 -1.174555e+002 -1.629286e-001 1.312850e+002
538750000 -5.465707e-001 -1.488087e+002 -5.687635e+001 -1.276043e+002 -5.573620e+001 -1.268126e+002 -1.675688e-001 1.311958e+002
539375000 -5.623448e-001 -1.491763e+002 -5.762486e+001 -1.163669e+002 -5.584465e+001 -1.253414e+002 -1.688815e-001 1.311203e+002
540000000 -5.643925e-001 -1.494170e+002 -5.602959e+001 -1.227433e+002 -5.657841e+001 -1.256836e+002 -1.745666e-001 1.309956e+002
540625000 -5.793553e-001 -1.497808e+002 -5.624182e+001 -1.355872e+002 -5.650281e+001 -1.268013e+002 -1.693101e-001 1.309198e+002
541250000 -5.877444e-001 -1.500953e+002 -5.477157e+001 -1.279039e+002 -5.612178e+001 -1.321781e+002 -1.621816e-001 1.308535e+002
541875000 -5.991680e-001 -1.504058e+002 -5.573284e+001 -1.269044e+002 -5.663908e+001 -1.366812e+002 -1.776158e-001 1.308064e+002
542500000 -6.153859e-001 -1.507259e+002 -5.612038e+001 -1.415685e+002 -5.565997e+001 -1.396387e+002 -1.677006e-001 1.306851e+002
543125000 -6.181000e-001 -1.510776e+002 -5.509851e+001 -1.452351e+002 -5.749728e+001 -1.377552e+002 -1.600530e-001 1.305930e+002
543750000 -6.290497e-001 -1.513612e+002 -5.609440e+001 -1.363976e+002 -5.522658e+001 -1.400161e+002 -1.692099e-001 1.305496e+002
544375000 -6.444963e-001 -1.516768e+002 -5.662040e+001 -1.422430e+002 -5.598954e+001 -1.428884e+002 -1.637383e-001 1.305323e+002
545000000 -6.518427e-001 -1.520060e+002 -5.622288e+001 -1.417591e+002 -5.584299e+001 -1.461867e+002 -1.573554e-001 1.305248e+002
545625000 -6.654149e-001 -1.523161e+002 -5.617978e+001 -1.446480e+002 -5.646370e+001 -1.415146e+002 -1.646540e-001 1.304793e+002
546250000 -6.895326e-001 -1.526116e+002 -5.536919e+001 -1.424855e+002 -5.552531e+001 -1.433697e+002 -1.669041e-001 1.303253e+002
546875000 -7.104676e-001 -1.529807e+002 -5.560961e+001 -1.481762e+002 -5.572538e+001 -1.496010e+002 -1.778098e-001 1.303629e+002
547500000 -7.272716e-001 -1.532608e+002 -5.482083e+001 -1.460838e+002 -5.516744e+001 -1.465824e+002 -1.693317e-001 1.303182e+002
548125000 -7.501781e-001 -1.535633e+002 -5.420074e+001 -1.518187e+002 -5.459536e+001 -1.549053e+002 -1.617159e-001 1.301820e+002
548750000 -7.692900e-001 -1.538494e+002 -5.469456e+001 -1.514383e+002 -5.503134e+001 -1.538868e+002 -1.784070e-001 1.301329e+002
549375000 -7.820556e-001 -1.540878e+002 -5.502624e+001 -1.545654e+002 -5.430383e+001 -1.585455e+002 -1.801909e-001 1.298989e+002
550000000 -7.880295e-001 -1.543606e+002 -5.599257e+001 -1.610991e+002 -5.566552e+001 -1.560430e+002 -1.827366e-001 1.298900e+002
550625000 -8.057643e-001 -1.546644e+002 -5.575592e+001 -1.558372e+002 -5.576683e+001 -1.519182e+002 -1.836978e-001 1.297219e+002
551250000 -8.095027e-001 -1.549301e+002 -5.435078e+001 -1.614066e+002 -5.548611e+001 -1.667163e+002 -1.848043e-001 1.295653e+002
551875000 -8.096701e-001 -1.552242e+002 -5.470250e+001 -1.619490e+002 -5.560932e+001 -1.610724e+002 -1.800038e-001 1.293927e+002
552500000 -8.121974e-001 -1.555477e+002 -5.510852e+001 -1.675800e+002 -5.508796e+001 -1.682265e+002 -1.819743e-001 1.292618e+002
553125000 -8.130273e-001 -1.558116e+002 -5.403796e+001 -1.594260e+002 -5.445499e+001 -1.734345e+002 -1.935604e-001 1.291501e+002
553750000 -8.237871e-001 -1.561559e+002 -5.480137e+001 -1.672471e+002 -5.462346e+001 -1.693359e+002 -1.918597e-001 1.289452e+002
554375000 -8.230242e-001 -1.564732e+002 -5.339916e+001 -1.686377e+002 -5.545193e+001 -1.635237e+002 -1.841945e-001 1.288118e+002
555000000 -8.298444e-001 -1.567857e+002 -5.483397e+001 -1.694373e+002 -5.430283e+001 -1.706523e+002 -1.900348e-001 1.286939e+002
555625000 -8.476200e-001 -1.570911e+002 -5.409689e+001 -1.668122e+002 -5.444492e+001 -1.718176e+002 -1.768004e-001 1.286242e+002
556250000 -8.525112e-001 -1.574734e+002 -5.444918e+001 -1.736584e+002 -5.443846e+001 -1.756265e+002 -1.821950e-001 1.284519e+002
556875000 -8.554401e-001 -1.578260e+002 -5.391752e+001 -1.751831e+002 -5.411767e+001 -1.749130e+002 -1.750800e-001 1.283640e+002
557500000 -8.739869e-001 -1.580812e+002 -5.382872e+001 1.773939e+002 -5.346436e+001 -1.778152e+002 -1.699513e-001 1.283444e+002
558125000 -8.795963e-001 -1.584271e+002 -5.416973e+001 -1.722580e+002 -5.447860e+001 1.744351e+002 -1.719555e-001 1.282629e+002
558750000 -8.852784e-001 -1.587282e+002 -5.383090e+001 -1.787189e+002 -5.457542e+001 -1.781574e+002 -1.647710e-001 1.282804e+002
559375000 -9.058342e-001 -1.590546e+002 -5.557994e+001 1.769528e+002 -5.433716e+001 1.752807e+002 -1.569191e-001 1.282469e+002
560000000 -9.178371e-001 -1.593378e+002 -5.412020e+001 1.776483e+002 -5.469589e+001 1.705844e+002 -1.433123e-001 1.282100e+002
560625000 -9.245038e-001 -1.596469e+002 -5.467269e+001 1.778432e+002 -5.387931e+001 1.725627e+002 -1.373368e-001 1.282450e+002
561250000 -9.429101e-001 -1.599659e+002 -5.394273e+001 1.762254e+002 -5.461354e+001 1.692872e+002 -1.447970e-001 1.282768e+002
561875000 -9.443372e-001 -1.602881e+002 -5.372391e+001 1.719218e+002 -5.416555e+001 1.720238e+002 -1.477376e-001 1.283270e+002
562500000 -9.574236e-001 -1.606272e+002 -5.379151e+001 1.702019e+002 -5.365026e+001 1.677764e+002 -1.482561e-001 1.283760e+002
563125000 -9.694713e-001 -1.609573e+002 -5.457180e+001 1.632482e+002 -5.405170e+001 1.620943e+002 -1.390165e-001 1.284404e+002
563750000 -9.911493e-001 -1.613000e+002 -5.411713e+001 1.721013e+002 -5.381174e+001 1.674881e+002 -1.451484e-001 1.284475e+002
564375000 -1.006244e+000 -1.616894e+002 -5.323432e+001 1.643609e+002 -5.402022e+001 1.691441e+002 -1.460896e-001 1.285272e+002
565000000 -1.022552e+000 -1.621140e+002 -5.361624e+001 1.628774e+002 -5.325665e+001 1.593753e+002 -1.462225e-001 1.285287e+002
565625000 -1.042300e+000 -1.624413e+002 -5.303123e+001 1.640230e+002 -5.368523e+001 1.643489e+002 -1.633060e-001 1.285320e+002
566250000 -1.063243e+000 -1.628826e+002 -5.311052e+001 1.652328e+002 -5.391157e+001 1.616206e+002 -1.630788e-001 1.285217e+002
566875000 -1.098063e+000 -1.632863e+002 -5.320963e+001 1.593069e+002 -5.386761e+001 1.600026e+002 -1.602710e-001 1.284071e+002
567500000 -1.121683e+000 -1.637133e+002 -5.459972e+001 1.513656e+002 -5.336836e+001 1.585270e+002 -1.628493e-001 1.284187e+002
568125000 -1.147446e+000 -1.639682e+002 -5.198317e+001 1.578817e+002 -5.374229e+001 1.577005e+002 -1.664533e-001 1.283929e+002
568750000 -1.169230e+000 -1.643359e+002 -5.334544e+001 1.528117e+002 -5.290466e+001 1.554299e+002 -1.759656e-001 1.283166e+002
569375000 -1.195808e+000 -1.646897e+002 -5.298593e+001 1.589280e+002 -5.338686e+001 1.547158e+002 -1.743443e-001 1.282981e+002
570000000 -1.210116e+000 -1.650456e+002 -5.247056e+001 1.535107e+002 -5.250880e+001 1.493434e+002 -1.755720e-001 1.281405e+002
570625000 -1.217996e+000 -1.653281e+002 -5.446321e+001 1.511889e+002 -5.322613e+001 1.485014e+002 -1.737691e-001 1.281757e+002
571250000 -1.237360e+000 -1.656961e+002 -5.245893e+001 1.500932e+002 -5.329136e+001 1.461080e+002 -1.764472e-001 1.281012e+002
571875000 -1.252696e+000 -1.659817e+002 -5.259154e+001 1.430230e+002 -5.251662e+001 1.437462e+002 -1.747420e-001 1.279994e+002
572500000 -1.258713e+000 -1.663681e+002 -5.266618e+001 1.476052e+002 -5.250167e+001 1.450643e+002 -1.726903e-001 1.279573e+002
573125000 -1.270501e+000 -1.667422e+002 -5.237298e+001 1.452635e+002 -5.215970e+001 1.404700e+002 -1.660356e-001 1.278892e+002
573750000 -1.272230e+000 -1.670815e+002 -5.246212e+001 1.354522e+002 -5.329604e+001 1.388927e+002 -1.754175e-001 1.278251e+002
574375000 -1.273407e+000 -1.674446e+002 -5.237114e+001 1.396648e+002 -5.336172e+001 1.376006e+002 -1.740966e-001 1.278385e+002
575000000 -1.281960e+000 -1.678724e+002 -5.291054e+001 1.413169e+002 -5.246503e+001 1.341855e+002 -1.769975e-001 1.277382e+002
575625000 -1.290170e+000 -1.682868e+002 -5.195469e+001 1.293498e+002 -5.283820e+001 1.351358e+002 -1.680959e-001 1.276710e+002
576250000 -1.297580e+000 -1.686460e+002 -5.214686e+001 1.332571e+002 -5.249727e+001 1.358005e+002 -1.794544e-001 1.276014e+002
576875000 -1.305667e+000 -1.691104e+002 -5.146612e+001 1.287992e+002 -5.177327e+001 1.283694e+002 -1.815960e-001 1.275529e+002
577500000 -1.316294e+000 -1.694778e+002 -5.227050e+001 1.292647e+002 -5.216055e+001 1.307544e+002 -1.760324e-001 1.273478e+002
578125000 -1.325147e+000 -1.699033e+002 -5.303526e+001 1.317903e+002 -5.232311e+001 1.267528e+002 -1.849411e-001 1.273612e+002
578750000 -1.322185e+000 -1.703428e+002 -5.203107e+001 1.225786e+002 -5.213399e+001 1.250222e+002 -1.916558e-001 1.271715e+002
579375000 -1.335993e+000 -1.708059e+002 -5.282338e+001 1.258895e+002 -5.256676e+001 1.248912e+002 -1.980576e-001 1.269780e+002
580000000 -1.339870e+000 -1.712605e+002 -5.315367e+001 1.239827e+002 -5.275704e+001 1.221204e+002 -1.954259e-001 1.268068e+002
580625000 -1.351149e+000 -1.717868e+002 -5.251467e+001 1.249814e+002 -5.222342e+001 1.219882e+002 -1.943078e-001 1.267078e+002
581250000 -1.365660e+000 -1.722884e+002 -5.211281e+001 1.097800e+002 -5.251878e+001 1.176321e+002 -2.015623e-001 1.264644e+002
581875000 -1.383627e+000 -1.728235e+002 -5.256335e+001 1.167043e+002 -5.231577e+001 1.201778e+002 -2.094072e-001 1.263097e+002
582500000 -1.400800e+000 -1.732941e+002 -5.275526e+001 1.200771e+002 -5.281897e+001 1.196096e+002 -2.049765e-001 1.260333e+002
583125000 -1.412352e+000 -1.739197e+002 -5.204367e+001 1.172498e+002 -5.230361e+001 1.175621e+002 -2.193045e-001 1.257586e+002
583750000 -1.438511e+000 -1.744401e+002 -5.313553e+001 1.136449e+002 -5.232499e+001 1.128930e+002 -2.264601e-001 1.255132e+002
584375000 -1.459318e+000 -1.749641e+002 -5.129030e+001 1.148857e+002 -5.160442e+001 1.103509e+002 -2.063529e-001 1.253573e+002
585000000 -1.478068e+000 -1.755587e+002 -5.197731e+001 1.159562e+002 -5.195339e+001 1.109465e+002 -2.095818e-001 1.251351e+002
585625000 -1.517290e+000 -1.760254e+002 -5.147421e+001 1.140104e+002 -5.138776e+001 1.112399e+002 -1.988182e-001 1.249245e+002
586250000 -1.525539e+000 -1.766129e+002 -5.195103e+001 1.095191e+002 -5.186463e+001 1.075114e+002 -1.949500e-001 1.248683e+002
586875000 -1.549266e+000 -1.771732e+002 -5.141268e+001 1.107125e+002 -5.144751e+001 1.117075e+002 -1.939198e-001 1.247070e+002
587500000 -1.576612e+000 -1.777499e+002 -5.182923e+001 1.055716e+002 -5.110420e+001 1.086283e+002 -1.813700e-001 1.245026e+002
588125000 -1.603938e+000 -1.782194e+002 -5.077134e+001 1.081315e+002 -5.203590e+001 1.020705e+002 -1.830288e-001 1.244142e+002
588750000 -1.631569e+000 -1.787249e+002 -5.078247e+001 1.048912e+002 -5.139724e+001 1.013724e+002 -1.814699e-001 1.244068e+002
589375000 -1.654821e+000 -1.792616e+002 -5.172034e+001 9.900474e+001 -5.131130e+001 9.885352e+001 -1.596053e-001 1.242889e+002
590000000 -1.689040e+000 -1.797938e+002 -5.090718e+001 9.908874e+001 -5.107838e+001 9.702833e+001 -1.727977e-001 1.242901e+002
590625000 -1.723095e+000 1.797692e+002 -5.160124e+001 9.708253e+001 -5.130606e+001 9.743773e+001 -1.641077e-001 1.242551e+002
591250000 -1.767037e+000 1.793701e+002 -5.142145e+001 9.615042e+001 -5.197520e+001 9.641882e+001 -1.599764e-001 1.242802e+002
591875000 -1.809554e+000 1.790184e+002 -5.163475e+001 9.463235e+001 -5.144043e+001 9.437775e+001 -1.605432e-001 1.243109e+002
592500000 -1.844685e+000 1.786205e+002 -5.185052e+001 9.277033e+001 -5.092560e+001 9.359333e+001 -1.481079e-001 1.243552e+002
593125000 -1.880205e+000 1.783429e+002 -5.125182e+001 9.199958e+001 -5.112409e+001 9.124240e+001 -1.541556e-001 1.244685e+002
593750000 -1.898529e+000 1.780774e+002 -5.095156e+001 8.787486e+001 -5.080461e+001 8.796841e+001 -1.386926e-001 1.245705e+002
594375000 -1.916114e+000 1.777871e+002 -5.152483e+001 8.880885e+001 -5.152761e+001 9.070238e+001 -1.403214e-001 1.245581e+002
595000000 -1.937895e+000 1.774410e+002 -5.073430e+001 9.098280e+001 -5.061065e+001 8.557957e+001 -1.533356e-001 1.246814e+002
