!Agilent Technologies,E8364B,US42250235,A.06.04.32
!Agilent E8364B: A.06.04.32
!Date: Friday, January 15, 2021 16:19:19
!Correction: S11(Full 2 Port(1,2)) S21(Full 2 Port(1,2)) S12(Full 2 Port(1,2)) S22(Full 2 Port(1,2)) 
!S2P File: Measurements: S11, S21, S12, S22:
# Hz S  dB   R 50
500000000 -1.157026e-001 -1.295665e+002 -6.022482e+001 -7.144700e+000 -6.416004e+001 -2.510760e+000 -1.594087e-001 1.352107e+002
500625000 -1.233958e-001 -1.297540e+002 -6.087115e+001 -7.860672e+000 -6.415686e+001 7.530883e+000 -1.734163e-001 1.351812e+002
501250000 -1.296272e-001 -1.300237e+002 -6.486736e+001 -1.243932e+001 -6.307057e+001 5.411408e+000 -1.579630e-001 1.351154e+002
501875000 -1.260766e-001 -1.302644e+002 -6.154742e+001 -1.229901e+000 -6.078523e+001 -5.123761e-001 -1.529952e-001 1.350134e+002
502500000 -1.312329e-001 -1.305443e+002 -5.938913e+001 -1.089053e+000 -6.239413e+001 -1.187345e+001 -1.568655e-001 1.350423e+002
503125000 -1.398398e-001 -1.308158e+002 -5.957020e+001 -6.707936e+000 -6.265052e+001 -2.222419e+001 -1.608862e-001 1.348277e+002
503750000 -1.362558e-001 -1.310067e+002 -6.030406e+001 1.072450e+001 -6.441065e+001 -1.888039e+001 -1.669869e-001 1.347999e+002
504375000 -1.486861e-001 -1.312991e+002 -6.273571e+001 -9.863457e+000 -6.052140e+001 -7.718290e+000 -1.734208e-001 1.347003e+002
505000000 -1.543780e-001 -1.315527e+002 -6.441945e+001 4.908057e+000 -6.313766e+001 -2.664895e+001 -1.807774e-001 1.346394e+002
505625000 -1.458941e-001 -1.317594e+002 -6.226636e+001 -3.324387e+001 -6.159109e+001 -7.913026e+000 -1.739844e-001 1.344475e+002
506250000 -1.581636e-001 -1.320494e+002 -6.207406e+001 -1.165499e+001 -5.999936e+001 -1.452880e+001 -1.782282e-001 1.342802e+002
506875000 -1.544729e-001 -1.323023e+002 -5.875365e+001 -2.206405e+001 -6.169537e+001 -2.009402e+001 -1.766324e-001 1.341311e+002
507500000 -1.605257e-001 -1.325509e+002 -6.164808e+001 -1.156642e+001 -6.123816e+001 -1.663191e+001 -1.837984e-001 1.339168e+002
508125000 -1.570940e-001 -1.327596e+002 -6.007325e+001 -1.219788e+001 -6.049496e+001 -6.912964e+000 -1.841062e-001 1.337388e+002
508750000 -1.627966e-001 -1.329866e+002 -6.066957e+001 -4.560817e+000 -6.118108e+001 -3.384633e+001 -1.881881e-001 1.335084e+002
509375000 -1.721763e-001 -1.333588e+002 -6.101796e+001 -2.068975e+001 -5.873619e+001 -3.466829e+001 -1.885391e-001 1.334161e+002
510000000 -1.671534e-001 -1.335751e+002 -6.121172e+001 -1.305981e+001 -5.951253e+001 -3.052486e+001 -1.907474e-001 1.331396e+002
510625000 -1.768355e-001 -1.338036e+002 -5.875633e+001 -2.081283e+001 -5.989603e+001 -3.416946e+001 -1.807322e-001 1.329987e+002
511250000 -1.743139e-001 -1.340476e+002 -5.980134e+001 -1.265825e+001 -6.138939e+001 -2.799535e+001 -1.959857e-001 1.326311e+002
511875000 -1.739845e-001 -1.343394e+002 -5.893256e+001 -3.126964e+001 -6.063873e+001 -3.285903e+001 -1.818838e-001 1.324814e+002
512500000 -1.770995e-001 -1.345742e+002 -5.941101e+001 -3.620261e+001 -6.002587e+001 -1.692717e+001 -1.851668e-001 1.322382e+002
513125000 -1.914393e-001 -1.349074e+002 -5.959222e+001 -1.551464e+001 -6.283451e+001 -3.336252e+001 -1.974569e-001 1.321446e+002
513750000 -1.953851e-001 -1.351986e+002 -5.973463e+001 -2.384029e+001 -5.940820e+001 -2.981986e+001 -1.963970e-001 1.319986e+002
514375000 -2.084294e-001 -1.355120e+002 -6.109539e+001 -2.295100e+001 -5.821774e+001 -2.862683e+001 -1.769013e-001 1.317991e+002
515000000 -2.103410e-001 -1.358101e+002 -5.831758e+001 -3.239193e+001 -5.858644e+001 -2.089328e+001 -1.640240e-001 1.316757e+002
515625000 -2.185347e-001 -1.361969e+002 -6.157217e+001 -2.528915e+001 -6.139136e+001 -4.091160e+001 -1.675310e-001 1.315186e+002
516250000 -2.208632e-001 -1.365013e+002 -6.029138e+001 -3.978745e+001 -5.884458e+001 -4.628417e+001 -1.757878e-001 1.313862e+002
516875000 -2.368958e-001 -1.368079e+002 -5.826765e+001 -4.067443e+001 -5.975978e+001 -5.588021e+001 -1.636646e-001 1.314160e+002
517500000 -2.408667e-001 -1.371428e+002 -5.908285e+001 -3.673280e+001 -5.907567e+001 -3.250365e+001 -1.657702e-001 1.313070e+002
518125000 -2.396028e-001 -1.374916e+002 -5.895187e+001 -3.802291e+001 -5.796144e+001 -3.711803e+001 -1.555944e-001 1.312586e+002
518750000 -2.474322e-001 -1.378107e+002 -5.834618e+001 -4.618957e+001 -5.906240e+001 -3.942007e+001 -1.511548e-001 1.312711e+002
519375000 -2.635440e-001 -1.380960e+002 -5.975358e+001 -4.347050e+001 -5.797605e+001 -3.793276e+001 -1.453277e-001 1.312234e+002
520000000 -2.599977e-001 -1.384850e+002 -5.947681e+001 -4.035102e+001 -5.935723e+001 -4.303955e+001 -1.430162e-001 1.311577e+002
520625000 -2.672872e-001 -1.388018e+002 -5.718770e+001 -5.162476e+001 -5.777410e+001 -4.622924e+001 -1.421204e-001 1.311928e+002
521250000 -2.683240e-001 -1.391667e+002 -5.821083e+001 -5.294720e+001 -5.872450e+001 -5.103919e+001 -1.430864e-001 1.312381e+002
521875000 -2.774017e-001 -1.395219e+002 -5.859144e+001 -3.814308e+001 -5.816681e+001 -5.046790e+001 -1.341387e-001 1.312378e+002
522500000 -2.765694e-001 -1.398620e+002 -5.811372e+001 -4.511717e+001 -5.714860e+001 -6.140997e+001 -1.340355e-001 1.312514e+002
523125000 -2.913364e-001 -1.402057e+002 -5.719312e+001 -5.843555e+001 -5.743393e+001 -5.570607e+001 -1.396409e-001 1.313266e+002
523750000 -2.856135e-001 -1.405510e+002 -5.880698e+001 -6.711967e+001 -5.708043e+001 -6.109016e+001 -1.414533e-001 1.313256e+002
524375000 -3.069068e-001 -1.409044e+002 -5.849393e+001 -6.728658e+001 -5.745645e+001 -5.999362e+001 -1.407986e-001 1.313130e+002
525000000 -3.046827e-001 -1.412283e+002 -5.877095e+001 -6.305191e+001 -5.940785e+001 -7.123901e+001 -1.457281e-001 1.313436e+002
525625000 -3.209173e-001 -1.415374e+002 -5.786952e+001 -5.953713e+001 -5.746274e+001 -6.702915e+001 -1.544863e-001 1.313273e+002
526250000 -3.107202e-001 -1.418728e+002 -5.678371e+001 -5.413558e+001 -5.656004e+001 -6.920242e+001 -1.455747e-001 1.314004e+002
526875000 -3.231775e-001 -1.422179e+002 -5.706836e+001 -7.335900e+001 -5.692516e+001 -6.414305e+001 -1.395419e-001 1.314206e+002
527500000 -3.327607e-001 -1.425383e+002 -5.777084e+001 -6.227431e+001 -5.701601e+001 -6.325293e+001 -1.510530e-001 1.313978e+002
528125000 -3.504855e-001 -1.428265e+002 -5.768941e+001 -8.219396e+001 -5.684212e+001 -7.186974e+001 -1.494685e-001 1.314548e+002
528750000 -3.554249e-001 -1.431585e+002 -5.542143e+001 -8.698823e+001 -5.676621e+001 -7.436449e+001 -1.465291e-001 1.315732e+002
529375000 -3.628603e-001 -1.435140e+002 -5.966653e+001 -7.225854e+001 -5.657144e+001 -7.613886e+001 -1.469035e-001 1.314751e+002
530000000 -3.680896e-001 -1.438760e+002 -5.639310e+001 -8.198499e+001 -5.738489e+001 -6.860159e+001 -1.557885e-001 1.314731e+002
530625000 -3.849870e-001 -1.441781e+002 -5.655051e+001 -8.225332e+001 -5.773616e+001 -7.693290e+001 -1.487273e-001 1.314654e+002
531250000 -3.852488e-001 -1.445338e+002 -5.698504e+001 -7.978314e+001 -5.751255e+001 -7.634321e+001 -1.423394e-001 1.314889e+002
531875000 -3.999923e-001 -1.448723e+002 -5.738378e+001 -8.074955e+001 -5.696287e+001 -8.413166e+001 -1.540331e-001 1.314328e+002
532500000 -4.063186e-001 -1.451409e+002 -5.677340e+001 -8.747511e+001 -5.681864e+001 -7.965558e+001 -1.455697e-001 1.314786e+002
533125000 -4.100882e-001 -1.455230e+002 -5.505268e+001 -8.202909e+001 -5.757499e+001 -8.124515e+001 -1.663335e-001 1.315001e+002
533750000 -4.249102e-001 -1.458895e+002 -5.651605e+001 -8.444624e+001 -5.662354e+001 -9.220148e+001 -1.743862e-001 1.313866e+002
534375000 -4.369425e-001 -1.462490e+002 -5.708744e+001 -8.757455e+001 -5.619212e+001 -8.564131e+001 -1.612857e-001 1.313721e+002
535000000 -4.436662e-001 -1.465648e+002 -5.590155e+001 -8.893311e+001 -5.620080e+001 -8.617548e+001 -1.683033e-001 1.313367e+002
535625000 -4.555324e-001 -1.469656e+002 -5.725053e+001 -8.458286e+001 -5.710764e+001 -9.015223e+001 -1.649741e-001 1.312841e+002
536250000 -4.649805e-001 -1.472983e+002 -5.628572e+001 -8.961329e+001 -5.634278e+001 -9.233717e+001 -1.556367e-001 1.311773e+002
536875000 -4.784883e-001 -1.476850e+002 -5.635828e+001 -8.776309e+001 -5.572523e+001 -9.343682e+001 -1.735073e-001 1.311069e+002
537500000 -4.814777e-001 -1.479931e+002 -5.526736e+001 -9.309052e+001 -5.537387e+001 -9.458420e+001 -1.633001e-001 1.311049e+002
538125000 -4.837248e-001 -1.483276e+002 -5.600628e+001 -9.922758e+001 -5.610374e+001 -9.691055e+001 -1.713721e-001 1.310125e+002
538750000 -5.057272e-001 -1.486699e+002 -5.526545e+001 -9.704397e+001 -5.618234e+001 -9.687687e+001 -1.760032e-001 1.308953e+002
539375000 -5.273080e-001 -1.489923e+002 -5.596477e+001 -9.428991e+001 -5.539399e+001 -1.002544e+002 -1.709739e-001 1.308578e+002
540000000 -5.294729e-001 -1.493201e+002 -5.607684e+001 -9.951155e+001 -5.507556e+001 -1.071666e+002 -1.766735e-001 1.307071e+002
540625000 -5.382812e-001 -1.496953e+002 -5.409533e+001 -1.037373e+002 -5.552734e+001 -1.057035e+002 -1.668542e-001 1.306673e+002
541250000 -5.418989e-001 -1.499652e+002 -5.535649e+001 -1.020013e+002 -5.678542e+001 -1.090843e+002 -1.743111e-001 1.305507e+002
541875000 -5.522957e-001 -1.503131e+002 -5.585704e+001 -1.055224e+002 -5.655632e+001 -1.027660e+002 -1.773333e-001 1.304611e+002
542500000 -5.609248e-001 -1.506391e+002 -5.517051e+001 -1.091564e+002 -5.579325e+001 -1.142578e+002 -1.730090e-001 1.304250e+002
543125000 -5.643976e-001 -1.509591e+002 -5.562971e+001 -1.141359e+002 -5.585133e+001 -1.136487e+002 -1.689154e-001 1.303467e+002
543750000 -5.634652e-001 -1.513185e+002 -5.566714e+001 -1.115597e+002 -5.485496e+001 -1.069767e+002 -1.674974e-001 1.303335e+002
544375000 -5.768467e-001 -1.516780e+002 -5.572943e+001 -1.170264e+002 -5.433159e+001 -1.140525e+002 -1.628293e-001 1.302739e+002
545000000 -5.833791e-001 -1.520655e+002 -5.552581e+001 -1.206742e+002 -5.422162e+001 -1.107692e+002 -1.602909e-001 1.302093e+002
545625000 -5.927368e-001 -1.524440e+002 -5.446957e+001 -1.078937e+002 -5.524728e+001 -1.185922e+002 -1.703463e-001 1.301654e+002
546250000 -6.134066e-001 -1.527928e+002 -5.513258e+001 -1.159827e+002 -5.491618e+001 -1.159555e+002 -1.732670e-001 1.300820e+002
546875000 -6.226432e-001 -1.531816e+002 -5.393536e+001 -1.155481e+002 -5.556316e+001 -1.155669e+002 -1.738723e-001 1.300916e+002
547500000 -6.458512e-001 -1.535512e+002 -5.427667e+001 -1.232689e+002 -5.495811e+001 -1.186546e+002 -1.754445e-001 1.299795e+002
548125000 -6.722509e-001 -1.538896e+002 -5.391792e+001 -1.129868e+002 -5.438221e+001 -1.159262e+002 -1.707761e-001 1.299223e+002
548750000 -6.931922e-001 -1.542448e+002 -5.421778e+001 -1.171638e+002 -5.388587e+001 -1.214402e+002 -1.807597e-001 1.298072e+002
549375000 -7.156768e-001 -1.546026e+002 -5.352566e+001 -1.252967e+002 -5.435345e+001 -1.208319e+002 -1.822655e-001 1.296136e+002
550000000 -7.276756e-001 -1.548704e+002 -5.413819e+001 -1.261558e+002 -5.341971e+001 -1.198235e+002 -1.856898e-001 1.295914e+002
550625000 -7.547504e-001 -1.552628e+002 -5.381412e+001 -1.300173e+002 -5.389886e+001 -1.270372e+002 -1.862212e-001 1.294244e+002
551250000 -7.631660e-001 -1.555031e+002 -5.346033e+001 -1.306349e+002 -5.372367e+001 -1.285456e+002 -1.884335e-001 1.292699e+002
551875000 -7.800820e-001 -1.558135e+002 -5.354523e+001 -1.268361e+002 -5.374314e+001 -1.307416e+002 -1.900064e-001 1.291254e+002
552500000 -7.944054e-001 -1.561417e+002 -5.280340e+001 -1.307106e+002 -5.239861e+001 -1.335415e+002 -1.870261e-001 1.289428e+002
553125000 -8.072274e-001 -1.564146e+002 -5.341606e+001 -1.288065e+002 -5.357670e+001 -1.352847e+002 -1.929578e-001 1.288817e+002
553750000 -8.277301e-001 -1.567608e+002 -5.369307e+001 -1.398212e+002 -5.358344e+001 -1.391555e+002 -1.954553e-001 1.285814e+002
554375000 -8.352167e-001 -1.570718e+002 -5.267598e+001 -1.387914e+002 -5.328019e+001 -1.392914e+002 -1.907604e-001 1.285209e+002
555000000 -8.385824e-001 -1.573874e+002 -5.329283e+001 -1.421932e+002 -5.279545e+001 -1.409390e+002 -1.946549e-001 1.284159e+002
555625000 -8.578851e-001 -1.576542e+002 -5.263907e+001 -1.450839e+002 -5.272891e+001 -1.416960e+002 -1.751805e-001 1.283255e+002
556250000 -8.801864e-001 -1.580013e+002 -5.344881e+001 -1.449303e+002 -5.356908e+001 -1.440546e+002 -1.815179e-001 1.281075e+002
556875000 -8.827984e-001 -1.583379e+002 -5.300611e+001 -1.481439e+002 -5.306995e+001 -1.464499e+002 -1.838733e-001 1.280809e+002
557500000 -9.058721e-001 -1.586454e+002 -5.222417e+001 -1.485131e+002 -5.224870e+001 -1.473047e+002 -1.779836e-001 1.280090e+002
558125000 -9.151536e-001 -1.588829e+002 -5.322958e+001 -1.466893e+002 -5.290709e+001 -1.511986e+002 -1.819494e-001 1.279397e+002
558750000 -9.242654e-001 -1.591949e+002 -5.408281e+001 -1.508801e+002 -5.286937e+001 -1.533017e+002 -1.633711e-001 1.279118e+002
559375000 -9.391504e-001 -1.595016e+002 -5.238829e+001 -1.535350e+002 -5.287910e+001 -1.577029e+002 -1.624575e-001 1.279096e+002
560000000 -9.618498e-001 -1.597638e+002 -5.407428e+001 -1.523094e+002 -5.178378e+001 -1.615142e+002 -1.577646e-001 1.278671e+002
560625000 -9.617378e-001 -1.600133e+002 -5.341978e+001 -1.525948e+002 -5.299783e+001 -1.527559e+002 -1.535372e-001 1.279319e+002
561250000 -9.772378e-001 -1.603508e+002 -5.220130e+001 -1.536824e+002 -5.365218e+001 -1.578812e+002 -1.494510e-001 1.279129e+002
561875000 -9.910005e-001 -1.606290e+002 -5.272142e+001 -1.564266e+002 -5.240878e+001 -1.574612e+002 -1.477021e-001 1.279872e+002
562500000 -1.004348e+000 -1.609571e+002 -5.261951e+001 -1.558506e+002 -5.263858e+001 -1.572083e+002 -1.572300e-001 1.280613e+002
563125000 -1.006799e+000 -1.612517e+002 -5.212074e+001 -1.629827e+002 -5.184154e+001 -1.623149e+002 -1.319574e-001 1.280939e+002
563750000 -1.029433e+000 -1.616572e+002 -5.218976e+001 -1.657372e+002 -5.211089e+001 -1.642797e+002 -1.487423e-001 1.281402e+002
564375000 -1.050415e+000 -1.619718e+002 -5.251432e+001 -1.673616e+002 -5.204471e+001 -1.663935e+002 -1.570378e-001 1.281795e+002
565000000 -1.066661e+000 -1.624072e+002 -5.175311e+001 -1.700180e+002 -5.223246e+001 -1.684548e+002 -1.701709e-001 1.281694e+002
565625000 -1.090179e+000 -1.627274e+002 -5.154823e+001 -1.682034e+002 -5.162605e+001 -1.691977e+002 -1.591169e-001 1.281722e+002
566250000 -1.113171e+000 -1.631983e+002 -5.175873e+001 -1.625936e+002 -5.229947e+001 -1.715040e+002 -1.662455e-001 1.281775e+002
566875000 -1.148444e+000 -1.635350e+002 -5.174070e+001 -1.729416e+002 -5.220160e+001 -1.730202e+002 -1.681311e-001 1.280951e+002
567500000 -1.166104e+000 -1.639765e+002 -5.109077e+001 -1.741518e+002 -5.253431e+001 -1.767636e+002 -1.701958e-001 1.280744e+002
568125000 -1.203535e+000 -1.643068e+002 -5.170905e+001 -1.752713e+002 -5.200902e+001 1.782971e+002 -1.761009e-001 1.280717e+002
568750000 -1.227230e+000 -1.646445e+002 -5.217682e+001 1.734144e+002 -5.125023e+001 -1.798957e+002 -1.728055e-001 1.280201e+002
569375000 -1.248214e+000 -1.650425e+002 -5.125348e+001 -1.773808e+002 -5.131180e+001 1.769426e+002 -1.745194e-001 1.279569e+002
570000000 -1.275223e+000 -1.653748e+002 -5.148386e+001 1.769776e+002 -5.218649e+001 1.757107e+002 -1.749241e-001 1.278237e+002
570625000 -1.295008e+000 -1.657147e+002 -5.204789e+001 1.778472e+002 -5.185069e+001 1.762780e+002 -1.830509e-001 1.278166e+002
571250000 -1.320427e+000 -1.660429e+002 -5.136555e+001 1.731996e+002 -5.135342e+001 1.712727e+002 -1.815300e-001 1.278027e+002
571875000 -1.331619e+000 -1.663516e+002 -5.094708e+001 1.749459e+002 -5.143990e+001 1.718819e+002 -1.741875e-001 1.276904e+002
572500000 -1.354592e+000 -1.667059e+002 -5.096124e+001 1.689043e+002 -5.126359e+001 1.715192e+002 -1.780120e-001 1.276003e+002
573125000 -1.375645e+000 -1.670188e+002 -5.144567e+001 1.637625e+002 -5.131906e+001 1.701195e+002 -1.702181e-001 1.275959e+002
573750000 -1.378624e+000 -1.673521e+002 -5.073161e+001 1.720549e+002 -5.112414e+001 1.660679e+002 -1.855575e-001 1.274840e+002
574375000 -1.389292e+000 -1.677042e+002 -5.185156e+001 1.696064e+002 -5.121878e+001 1.639886e+002 -1.744803e-001 1.275273e+002
575000000 -1.399492e+000 -1.681144e+002 -5.116424e+001 1.634065e+002 -5.083824e+001 1.595913e+002 -1.908110e-001 1.274192e+002
575625000 -1.409963e+000 -1.684676e+002 -5.081380e+001 1.631637e+002 -5.189933e+001 1.599065e+002 -1.884013e-001 1.274000e+002
576250000 -1.423728e+000 -1.687648e+002 -5.128717e+001 1.642796e+002 -5.118294e+001 1.648445e+002 -1.835919e-001 1.272928e+002
576875000 -1.432771e+000 -1.691263e+002 -5.074626e+001 1.584102e+002 -5.073846e+001 1.613174e+002 -1.872462e-001 1.271982e+002
577500000 -1.465286e+000 -1.694937e+002 -5.023743e+001 1.569153e+002 -5.030254e+001 1.575714e+002 -1.839339e-001 1.270405e+002
578125000 -1.473390e+000 -1.698428e+002 -5.085852e+001 1.605211e+002 -5.143113e+001 1.551255e+002 -1.922929e-001 1.270098e+002
578750000 -1.475240e+000 -1.702354e+002 -5.084984e+001 1.522091e+002 -5.062619e+001 1.538749e+002 -1.890523e-001 1.268149e+002
579375000 -1.484758e+000 -1.706269e+002 -5.033728e+001 1.500836e+002 -5.111592e+001 1.547253e+002 -1.983628e-001 1.266741e+002
580000000 -1.487879e+000 -1.709779e+002 -5.060929e+001 1.534544e+002 -5.078687e+001 1.470171e+002 -2.030210e-001 1.265468e+002
580625000 -1.503500e+000 -1.714100e+002 -5.059920e+001 1.504442e+002 -5.059908e+001 1.503403e+002 -2.035426e-001 1.263617e+002
581250000 -1.514536e+000 -1.717871e+002 -5.065629e+001 1.504036e+002 -5.033913e+001 1.419955e+002 -2.021599e-001 1.261667e+002
581875000 -1.528061e+000 -1.722778e+002 -5.024499e+001 1.481797e+002 -4.990189e+001 1.475789e+002 -2.039544e-001 1.259894e+002
582500000 -1.540297e+000 -1.726872e+002 -5.052144e+001 1.449931e+002 -5.117298e+001 1.472818e+002 -2.094182e-001 1.256965e+002
583125000 -1.544185e+000 -1.732526e+002 -5.009349e+001 1.459875e+002 -5.023399e+001 1.372051e+002 -2.205585e-001 1.254755e+002
583750000 -1.564597e+000 -1.737762e+002 -5.067881e+001 1.379499e+002 -5.040411e+001 1.401105e+002 -2.242246e-001 1.252105e+002
584375000 -1.579869e+000 -1.742131e+002 -5.053902e+001 1.379098e+002 -5.009556e+001 1.397376e+002 -2.089040e-001 1.250025e+002
585000000 -1.589848e+000 -1.747635e+002 -5.057933e+001 1.445782e+002 -4.992130e+001 1.311278e+002 -2.094873e-001 1.249028e+002
585625000 -1.619921e+000 -1.752288e+002 -5.096024e+001 1.333336e+002 -5.079514e+001 1.344167e+002 -1.988837e-001 1.246707e+002
586250000 -1.625196e+000 -1.756910e+002 -5.020906e+001 1.351880e+002 -5.018402e+001 1.342370e+002 -1.987790e-001 1.245298e+002
586875000 -1.636417e+000 -1.762286e+002 -5.041415e+001 1.267418e+002 -5.035075e+001 1.303754e+002 -1.993722e-001 1.243671e+002
587500000 -1.659037e+000 -1.767848e+002 -5.006241e+001 1.299852e+002 -5.040520e+001 1.304535e+002 -1.899364e-001 1.242797e+002
588125000 -1.672827e+000 -1.772343e+002 -5.057269e+001 1.291781e+002 -5.017468e+001 1.278614e+002 -1.885432e-001 1.240847e+002
588750000 -1.683661e+000 -1.777463e+002 -5.078004e+001 1.302487e+002 -5.030002e+001 1.274175e+002 -1.876305e-001 1.240718e+002
589375000 -1.702017e+000 -1.782688e+002 -4.962883e+001 1.212890e+002 -4.996824e+001 1.260518e+002 -1.692843e-001 1.239260e+002
590000000 -1.725562e+000 -1.787762e+002 -5.046051e+001 1.234350e+002 -4.983580e+001 1.238055e+002 -1.716813e-001 1.240046e+002
590625000 -1.751063e+000 -1.792384e+002 -4.941803e+001 1.178314e+002 -4.957783e+001 1.172887e+002 -1.689320e-001 1.238984e+002
591250000 -1.784314e+000 -1.797143e+002 -5.038442e+001 1.234541e+002 -4.995149e+001 1.226939e+002 -1.684034e-001 1.239346e+002
591875000 -1.822812e+000 1.799153e+002 -5.059861e+001 1.207302e+002 -5.003135e+001 1.198761e+002 -1.647386e-001 1.239782e+002
592500000 -1.856768e+000 1.795573e+002 -5.063331e+001 1.203317e+002 -5.020947e+001 1.172997e+002 -1.570066e-001 1.240777e+002
593125000 -1.889958e+000 1.792873e+002 -4.985644e+001 1.162167e+002 -4.969808e+001 1.163273e+002 -1.525912e-001 1.241091e+002
593750000 -1.914089e+000 1.789660e+002 -4.950355e+001 1.164076e+002 -4.987576e+001 1.139791e+002 -1.473257e-001 1.242202e+002
594375000 -1.930030e+000 1.787466e+002 -4.943709e+001 1.139796e+002 -4.951430e+001 1.166597e+002 -1.463680e-001 1.243030e+002
595000000 -1.949494e+000 1.784583e+002 -4.956638e+001 1.133224e+002 -4.981213e+001 1.092712e+002 -1.612738e-001 1.243381e+002
