!Agilent Technologies,E8364B,US42250235,A.06.04.32
!Agilent E8364B: A.06.04.32
!Date: Friday, January 15, 2021 16:11:57
!Correction: S11(Full 2 Port(1,2)) S21(Full 2 Port(1,2)) S12(Full 2 Port(1,2)) S22(Full 2 Port(1,2)) 
!S2P File: Measurements: S11, S21, S12, S22:
# Hz S  dB   R 50
500000000 -1.614266e-001 -1.294331e+002 -5.903219e+001 3.843953e+001 -5.845013e+001 3.693161e+001 -1.602386e-001 1.362035e+002
500625000 -1.531276e-001 -1.297225e+002 -5.933012e+001 4.721642e+001 -5.985086e+001 4.304416e+001 -1.670606e-001 1.361536e+002
501250000 -1.624497e-001 -1.299851e+002 -5.916122e+001 3.609008e+001 -5.831745e+001 2.869753e+001 -1.666259e-001 1.360882e+002
501875000 -1.617500e-001 -1.301924e+002 -5.805577e+001 2.804164e+001 -5.776276e+001 3.224282e+001 -1.561546e-001 1.360981e+002
502500000 -1.582268e-001 -1.304886e+002 -5.834442e+001 3.212767e+001 -5.882518e+001 2.454770e+001 -1.588440e-001 1.360222e+002
503125000 -1.674284e-001 -1.307430e+002 -5.636443e+001 3.003555e+001 -5.822902e+001 3.215314e+001 -1.605570e-001 1.359035e+002
503750000 -1.701242e-001 -1.309509e+002 -5.693520e+001 3.761077e+001 -5.827048e+001 3.812375e+001 -1.671923e-001 1.357901e+002
504375000 -1.783169e-001 -1.311896e+002 -5.841667e+001 3.701778e+001 -5.784368e+001 3.552811e+001 -1.730700e-001 1.357165e+002
505000000 -1.894471e-001 -1.314904e+002 -5.650693e+001 3.766739e+001 -5.738612e+001 3.050750e+001 -1.693788e-001 1.356634e+002
505625000 -1.835419e-001 -1.317156e+002 -5.750938e+001 1.940590e+001 -5.823363e+001 2.707457e+001 -1.712119e-001 1.355845e+002
506250000 -1.844786e-001 -1.319947e+002 -5.876694e+001 2.725057e+001 -5.911218e+001 1.741412e+001 -1.773448e-001 1.353957e+002
506875000 -1.945187e-001 -1.322009e+002 -5.691448e+001 2.629538e+001 -5.734103e+001 2.264164e+001 -1.766736e-001 1.352255e+002
507500000 -1.933856e-001 -1.324469e+002 -5.751435e+001 2.377269e+001 -5.856211e+001 2.292440e+001 -1.750474e-001 1.350047e+002
508125000 -1.995568e-001 -1.327361e+002 -5.721497e+001 2.730301e+001 -5.842494e+001 1.952402e+001 -1.844119e-001 1.348538e+002
508750000 -2.034342e-001 -1.329259e+002 -5.707854e+001 1.586383e+001 -5.781005e+001 1.793596e+001 -1.880554e-001 1.346652e+002
509375000 -2.058691e-001 -1.332379e+002 -5.574966e+001 2.140590e+001 -5.607130e+001 1.679930e+001 -1.862947e-001 1.344606e+002
510000000 -2.100161e-001 -1.334574e+002 -5.639168e+001 2.628218e+001 -5.665468e+001 2.224334e+001 -1.937149e-001 1.342277e+002
510625000 -2.194289e-001 -1.336515e+002 -5.566955e+001 1.396657e+001 -5.719369e+001 1.560058e+001 -1.836641e-001 1.340285e+002
511250000 -2.282596e-001 -1.338826e+002 -5.652155e+001 1.736950e+001 -5.682063e+001 1.747451e+001 -1.945329e-001 1.337818e+002
511875000 -2.162126e-001 -1.342246e+002 -5.713012e+001 2.110871e+001 -5.485240e+001 2.027122e+001 -1.926596e-001 1.335724e+002
512500000 -2.306869e-001 -1.344290e+002 -5.647440e+001 1.915148e+001 -5.732431e+001 1.235805e+001 -1.959912e-001 1.333920e+002
513125000 -2.403269e-001 -1.347249e+002 -5.721013e+001 1.917838e+001 -5.601900e+001 1.016419e+001 -1.930761e-001 1.332618e+002
513750000 -2.520692e-001 -1.349841e+002 -5.642403e+001 1.039948e+001 -5.678147e+001 1.076169e+001 -1.985273e-001 1.330890e+002
514375000 -2.548782e-001 -1.352761e+002 -5.651669e+001 7.053555e+000 -5.653554e+001 1.190907e+001 -1.807974e-001 1.328842e+002
515000000 -2.579352e-001 -1.354908e+002 -5.664153e+001 1.040507e+001 -5.613850e+001 1.538747e+001 -1.735250e-001 1.327323e+002
515625000 -2.661521e-001 -1.358293e+002 -5.691083e+001 1.165282e+001 -5.584931e+001 1.383098e+001 -1.680385e-001 1.326258e+002
516250000 -2.679479e-001 -1.361527e+002 -5.643512e+001 6.200897e+000 -5.643662e+001 5.324070e+000 -1.699840e-001 1.324376e+002
516875000 -2.782832e-001 -1.364285e+002 -5.622009e+001 9.878529e+000 -5.826020e+001 1.007395e+001 -1.704426e-001 1.325244e+002
517500000 -2.808019e-001 -1.367514e+002 -5.629279e+001 5.280947e+000 -5.633389e+001 1.089592e+001 -1.581337e-001 1.324001e+002
518125000 -2.837026e-001 -1.370927e+002 -5.654198e+001 1.109717e+001 -5.868428e+001 1.440835e+001 -1.682648e-001 1.323203e+002
518750000 -2.882518e-001 -1.373874e+002 -5.590328e+001 3.977547e+000 -5.609384e+001 1.280929e+001 -1.535858e-001 1.323644e+002
519375000 -2.975320e-001 -1.376839e+002 -5.534100e+001 1.084037e+001 -5.559305e+001 3.461759e+000 -1.472351e-001 1.323636e+002
520000000 -2.929180e-001 -1.380017e+002 -5.619853e+001 3.044466e+000 -5.620680e+001 6.185426e+000 -1.502198e-001 1.323280e+002
520625000 -2.997992e-001 -1.384035e+002 -5.546684e+001 2.476973e+000 -5.590092e+001 -5.127289e+000 -1.404465e-001 1.323316e+002
521250000 -3.039948e-001 -1.386951e+002 -5.548150e+001 -3.335828e+000 -5.606330e+001 -2.536883e+000 -1.470964e-001 1.323495e+002
521875000 -2.997169e-001 -1.390712e+002 -5.508525e+001 -2.884906e-001 -5.570976e+001 -1.046736e+000 -1.433732e-001 1.324037e+002
522500000 -3.002691e-001 -1.393640e+002 -5.430670e+001 -3.093619e+000 -5.506932e+001 -3.620438e+000 -1.485781e-001 1.323713e+002
523125000 -3.106240e-001 -1.397272e+002 -5.448396e+001 -1.159997e+000 -5.648267e+001 -7.652994e+000 -1.438571e-001 1.324400e+002
523750000 -3.118714e-001 -1.400516e+002 -5.491151e+001 -7.185008e-001 -5.521622e+001 -6.302911e+000 -1.392733e-001 1.324089e+002
524375000 -3.288194e-001 -1.404352e+002 -5.478990e+001 -5.134992e+000 -5.575373e+001 -2.657993e+000 -1.453925e-001 1.324531e+002
525000000 -3.273624e-001 -1.407411e+002 -5.443164e+001 -2.348100e+000 -5.551949e+001 -5.464762e+000 -1.448201e-001 1.324902e+002
525625000 -3.340138e-001 -1.409645e+002 -5.551038e+001 -4.861832e+000 -5.530935e+001 -3.203012e+000 -1.564111e-001 1.324215e+002
526250000 -3.341853e-001 -1.413127e+002 -5.443551e+001 -8.551899e+000 -5.510254e+001 -9.888149e+000 -1.529888e-001 1.324268e+002
526875000 -3.427018e-001 -1.416299e+002 -5.416725e+001 -9.557001e+000 -5.445776e+001 -2.185406e+000 -1.491350e-001 1.324824e+002
527500000 -3.464149e-001 -1.419567e+002 -5.451611e+001 -1.222045e+001 -5.520750e+001 -6.997536e+000 -1.529950e-001 1.325115e+002
528125000 -3.623541e-001 -1.423172e+002 -5.406352e+001 -1.590155e+001 -5.448871e+001 -7.889081e+000 -1.534968e-001 1.325294e+002
528750000 -3.616060e-001 -1.425533e+002 -5.526349e+001 -4.022590e+000 -5.485973e+001 -9.851987e+000 -1.504510e-001 1.326191e+002
529375000 -3.672442e-001 -1.429139e+002 -5.437320e+001 -7.409655e+000 -5.407018e+001 -1.310803e+001 -1.578334e-001 1.325352e+002
530000000 -3.742399e-001 -1.432539e+002 -5.391865e+001 -1.687593e+001 -5.488154e+001 -1.901184e+001 -1.601117e-001 1.325422e+002
530625000 -3.868151e-001 -1.435298e+002 -5.323506e+001 -1.624973e+001 -5.360837e+001 -1.112574e+001 -1.576256e-001 1.325588e+002
531250000 -3.862027e-001 -1.439002e+002 -5.367583e+001 -2.197753e+001 -5.473900e+001 -1.981800e+001 -1.463726e-001 1.325715e+002
531875000 -4.009846e-001 -1.442528e+002 -5.435039e+001 -1.508854e+001 -5.468789e+001 -1.740551e+001 -1.571388e-001 1.325378e+002
532500000 -4.073652e-001 -1.444956e+002 -5.302239e+001 -1.087912e+001 -5.373347e+001 -1.945323e+001 -1.522937e-001 1.325557e+002
533125000 -4.023922e-001 -1.449041e+002 -5.447609e+001 -1.794055e+001 -5.504414e+001 -1.697075e+001 -1.647311e-001 1.325414e+002
533750000 -4.105498e-001 -1.452446e+002 -5.404577e+001 -2.350070e+001 -5.383221e+001 -1.286065e+001 -1.727075e-001 1.325284e+002
534375000 -4.184737e-001 -1.456161e+002 -5.443938e+001 -1.862415e+001 -5.380521e+001 -1.945157e+001 -1.516162e-001 1.324782e+002
535000000 -4.262726e-001 -1.458903e+002 -5.290006e+001 -2.473746e+001 -5.424522e+001 -1.881562e+001 -1.596734e-001 1.324823e+002
535625000 -4.359190e-001 -1.462936e+002 -5.363626e+001 -2.384179e+001 -5.440433e+001 -2.026077e+001 -1.639227e-001 1.324130e+002
536250000 -4.400279e-001 -1.466123e+002 -5.302456e+001 -2.595002e+001 -5.368567e+001 -2.744398e+001 -1.575402e-001 1.322847e+002
536875000 -4.451636e-001 -1.469679e+002 -5.338767e+001 -2.563012e+001 -5.322941e+001 -2.606068e+001 -1.663224e-001 1.322321e+002
537500000 -4.482624e-001 -1.472633e+002 -5.342238e+001 -2.079793e+001 -5.307060e+001 -2.648148e+001 -1.667224e-001 1.321860e+002
538125000 -4.504080e-001 -1.476220e+002 -5.324152e+001 -2.145510e+001 -5.369779e+001 -2.839348e+001 -1.707803e-001 1.321212e+002
538750000 -4.637440e-001 -1.479638e+002 -5.295750e+001 -2.540300e+001 -5.319949e+001 -2.909210e+001 -1.791033e-001 1.319934e+002
539375000 -4.722884e-001 -1.483130e+002 -5.295408e+001 -3.095498e+001 -5.305452e+001 -3.032093e+001 -1.715021e-001 1.319239e+002
540000000 -4.767316e-001 -1.486412e+002 -5.291696e+001 -3.132147e+001 -5.314050e+001 -3.092999e+001 -1.672106e-001 1.318380e+002
540625000 -4.812651e-001 -1.490231e+002 -5.302419e+001 -3.050504e+001 -5.330464e+001 -3.447308e+001 -1.786457e-001 1.317654e+002
541250000 -4.875455e-001 -1.493109e+002 -5.352387e+001 -3.084698e+001 -5.242447e+001 -3.177460e+001 -1.707034e-001 1.316865e+002
541875000 -4.882675e-001 -1.495986e+002 -5.292437e+001 -3.280685e+001 -5.277178e+001 -3.465513e+001 -1.779403e-001 1.315719e+002
542500000 -4.933403e-001 -1.499214e+002 -5.311532e+001 -3.774147e+001 -5.365374e+001 -3.728606e+001 -1.698789e-001 1.315375e+002
543125000 -4.972937e-001 -1.503073e+002 -5.281710e+001 -3.940343e+001 -5.282527e+001 -3.672719e+001 -1.673199e-001 1.313977e+002
543750000 -4.942522e-001 -1.506358e+002 -5.275817e+001 -3.345260e+001 -5.339170e+001 -3.518272e+001 -1.798600e-001 1.313749e+002
544375000 -5.119308e-001 -1.509405e+002 -5.325607e+001 -4.089511e+001 -5.263226e+001 -4.062508e+001 -1.658181e-001 1.313112e+002
545000000 -5.085612e-001 -1.513313e+002 -5.259150e+001 -3.199747e+001 -5.268461e+001 -3.805145e+001 -1.689824e-001 1.313082e+002
545625000 -5.100853e-001 -1.516402e+002 -5.252229e+001 -3.426294e+001 -5.311428e+001 -3.878160e+001 -1.620188e-001 1.312768e+002
546250000 -5.184058e-001 -1.519967e+002 -5.229322e+001 -3.684547e+001 -5.368023e+001 -4.157919e+001 -1.759786e-001 1.311750e+002
546875000 -5.252684e-001 -1.523950e+002 -5.331952e+001 -3.831059e+001 -5.259640e+001 -3.850663e+001 -1.704136e-001 1.312005e+002
547500000 -5.335997e-001 -1.527584e+002 -5.293051e+001 -3.783617e+001 -5.245402e+001 -3.852018e+001 -1.702085e-001 1.311179e+002
548125000 -5.460519e-001 -1.530306e+002 -5.257543e+001 -4.459675e+001 -5.321432e+001 -4.123252e+001 -1.713470e-001 1.310304e+002
548750000 -5.569689e-001 -1.534711e+002 -5.330310e+001 -4.081181e+001 -5.258010e+001 -3.938042e+001 -1.711434e-001 1.309459e+002
549375000 -5.646482e-001 -1.538602e+002 -5.235387e+001 -4.440014e+001 -5.273709e+001 -4.367003e+001 -1.755627e-001 1.307695e+002
550000000 -5.689719e-001 -1.541851e+002 -5.204150e+001 -4.037399e+001 -5.256646e+001 -4.589096e+001 -1.937060e-001 1.307326e+002
550625000 -5.810975e-001 -1.545757e+002 -5.277597e+001 -3.702431e+001 -5.293703e+001 -4.093483e+001 -1.922787e-001 1.306087e+002
551250000 -5.862445e-001 -1.549234e+002 -5.336267e+001 -3.921650e+001 -5.235087e+001 -4.433445e+001 -1.860394e-001 1.304979e+002
551875000 -6.013606e-001 -1.553222e+002 -5.182248e+001 -4.386811e+001 -5.205996e+001 -4.724977e+001 -1.902071e-001 1.302794e+002
552500000 -6.013676e-001 -1.557061e+002 -5.188364e+001 -4.706464e+001 -5.166975e+001 -4.532492e+001 -1.915973e-001 1.301382e+002
553125000 -6.104568e-001 -1.559941e+002 -5.230194e+001 -4.417936e+001 -5.195203e+001 -4.811143e+001 -1.948121e-001 1.300195e+002
553750000 -6.257161e-001 -1.563923e+002 -5.173350e+001 -4.872815e+001 -5.185760e+001 -4.497313e+001 -1.937298e-001 1.298620e+002
554375000 -6.302881e-001 -1.567285e+002 -5.177026e+001 -5.216237e+001 -5.160590e+001 -5.201044e+001 -1.911051e-001 1.296726e+002
555000000 -6.415806e-001 -1.571573e+002 -5.166912e+001 -5.138997e+001 -5.167446e+001 -5.279845e+001 -1.929887e-001 1.295425e+002
555625000 -6.545698e-001 -1.574747e+002 -5.192872e+001 -4.727971e+001 -5.171492e+001 -4.677081e+001 -1.817129e-001 1.294639e+002
556250000 -6.671883e-001 -1.579018e+002 -5.173842e+001 -5.337373e+001 -5.215364e+001 -5.574954e+001 -1.874080e-001 1.292884e+002
556875000 -6.687702e-001 -1.582733e+002 -5.173340e+001 -5.335458e+001 -5.163380e+001 -5.789084e+001 -1.807618e-001 1.292296e+002
557500000 -6.926459e-001 -1.585927e+002 -5.161144e+001 -5.319513e+001 -5.146220e+001 -5.347631e+001 -1.773858e-001 1.291609e+002
558125000 -7.111434e-001 -1.589194e+002 -5.194840e+001 -4.977454e+001 -5.152549e+001 -5.316339e+001 -1.776954e-001 1.291711e+002
558750000 -7.106144e-001 -1.592947e+002 -5.120929e+001 -5.218604e+001 -5.168415e+001 -5.114382e+001 -1.603846e-001 1.290574e+002
559375000 -7.398415e-001 -1.596182e+002 -5.107082e+001 -5.704821e+001 -5.187755e+001 -5.941713e+001 -1.641576e-001 1.291566e+002
560000000 -7.571337e-001 -1.599300e+002 -5.109596e+001 -5.699337e+001 -5.084055e+001 -5.751162e+001 -1.485219e-001 1.290643e+002
560625000 -7.602368e-001 -1.602217e+002 -5.069392e+001 -5.667465e+001 -5.094204e+001 -5.971925e+001 -1.545790e-001 1.291416e+002
561250000 -7.767577e-001 -1.605576e+002 -5.081855e+001 -5.795406e+001 -5.073558e+001 -5.964719e+001 -1.422078e-001 1.291592e+002
561875000 -7.860826e-001 -1.608906e+002 -5.053388e+001 -5.987611e+001 -5.088660e+001 -5.841269e+001 -1.437312e-001 1.292413e+002
562500000 -8.103575e-001 -1.612561e+002 -5.039563e+001 -6.272359e+001 -5.050364e+001 -6.115685e+001 -1.428380e-001 1.293142e+002
563125000 -8.100857e-001 -1.615519e+002 -5.045811e+001 -6.406641e+001 -5.073529e+001 -6.475842e+001 -1.346047e-001 1.293546e+002
563750000 -8.291002e-001 -1.619814e+002 -5.099717e+001 -6.469325e+001 -4.983239e+001 -6.346178e+001 -1.507703e-001 1.294045e+002
564375000 -8.455965e-001 -1.623736e+002 -5.026257e+001 -6.596986e+001 -5.032338e+001 -6.212729e+001 -1.520245e-001 1.294517e+002
565000000 -8.509876e-001 -1.628118e+002 -5.025440e+001 -6.746960e+001 -5.056605e+001 -6.707899e+001 -1.554661e-001 1.294341e+002
565625000 -8.777767e-001 -1.631855e+002 -5.014574e+001 -7.035089e+001 -5.125959e+001 -6.525128e+001 -1.596889e-001 1.295277e+002
566250000 -8.936676e-001 -1.636693e+002 -5.018751e+001 -6.523857e+001 -5.069614e+001 -6.844728e+001 -1.610675e-001 1.294982e+002
566875000 -9.147233e-001 -1.641200e+002 -4.996207e+001 -7.358404e+001 -5.044387e+001 -6.759793e+001 -1.743108e-001 1.293701e+002
567500000 -9.361444e-001 -1.645655e+002 -5.044307e+001 -7.187997e+001 -5.026278e+001 -7.154166e+001 -1.757872e-001 1.293802e+002
568125000 -9.629153e-001 -1.649530e+002 -5.001384e+001 -6.762322e+001 -4.995298e+001 -7.736974e+001 -1.718965e-001 1.293252e+002
568750000 -9.816812e-001 -1.653806e+002 -5.045581e+001 -7.199991e+001 -4.990360e+001 -7.252448e+001 -1.749000e-001 1.292680e+002
569375000 -1.001969e+000 -1.658519e+002 -5.009426e+001 -7.459068e+001 -4.978380e+001 -7.318761e+001 -1.844830e-001 1.292101e+002
570000000 -1.020187e+000 -1.662874e+002 -4.988738e+001 -7.393674e+001 -5.007518e+001 -7.248331e+001 -1.793248e-001 1.290585e+002
570625000 -1.031430e+000 -1.667853e+002 -5.056834e+001 -7.514399e+001 -5.062850e+001 -7.685626e+001 -1.809266e-001 1.290735e+002
571250000 -1.052862e+000 -1.672255e+002 -4.976138e+001 -7.385119e+001 -5.000459e+001 -7.488332e+001 -1.808791e-001 1.289966e+002
571875000 -1.077359e+000 -1.676386e+002 -4.942188e+001 -7.725951e+001 -4.923029e+001 -7.529042e+001 -1.677283e-001 1.289606e+002
572500000 -1.097095e+000 -1.682004e+002 -4.931843e+001 -7.400487e+001 -4.968507e+001 -7.646974e+001 -1.808731e-001 1.288885e+002
573125000 -1.126488e+000 -1.686541e+002 -4.879673e+001 -7.866705e+001 -4.951271e+001 -7.891092e+001 -1.757286e-001 1.288766e+002
573750000 -1.132577e+000 -1.690816e+002 -4.953086e+001 -7.980799e+001 -4.989962e+001 -7.969277e+001 -1.775592e-001 1.287684e+002
574375000 -1.165478e+000 -1.694927e+002 -4.943130e+001 -8.012371e+001 -4.935965e+001 -8.379720e+001 -1.726212e-001 1.287397e+002
575000000 -1.189069e+000 -1.700021e+002 -4.960841e+001 -8.295043e+001 -4.918219e+001 -8.509103e+001 -1.750576e-001 1.286148e+002
575625000 -1.208417e+000 -1.703936e+002 -4.931408e+001 -8.033001e+001 -4.929901e+001 -8.136388e+001 -1.781129e-001 1.286325e+002
576250000 -1.230254e+000 -1.708680e+002 -4.911161e+001 -8.634879e+001 -4.961134e+001 -8.612312e+001 -1.904447e-001 1.285733e+002
576875000 -1.252081e+000 -1.712964e+002 -4.877114e+001 -8.314861e+001 -4.902348e+001 -8.517587e+001 -1.846084e-001 1.284742e+002
577500000 -1.284081e+000 -1.717384e+002 -4.894751e+001 -8.286468e+001 -4.841103e+001 -8.274417e+001 -1.965033e-001 1.283265e+002
578125000 -1.309922e+000 -1.721447e+002 -4.856831e+001 -8.891945e+001 -4.886578e+001 -8.470233e+001 -1.865252e-001 1.283006e+002
578750000 -1.324576e+000 -1.726193e+002 -4.885044e+001 -8.410308e+001 -4.840040e+001 -8.668673e+001 -1.916007e-001 1.280731e+002
579375000 -1.353470e+000 -1.730415e+002 -4.896162e+001 -8.991392e+001 -4.870744e+001 -9.172993e+001 -2.027830e-001 1.279204e+002
580000000 -1.375483e+000 -1.735080e+002 -4.846462e+001 -9.198074e+001 -4.851987e+001 -8.859267e+001 -2.044132e-001 1.278006e+002
580625000 -1.416200e+000 -1.739733e+002 -4.832288e+001 -8.956556e+001 -4.858907e+001 -8.770864e+001 -2.012192e-001 1.276396e+002
581250000 -1.444272e+000 -1.744400e+002 -4.837203e+001 -9.087013e+001 -4.870766e+001 -9.086906e+001 -2.080769e-001 1.274315e+002
581875000 -1.474684e+000 -1.748804e+002 -4.807979e+001 -9.187653e+001 -4.786707e+001 -9.613443e+001 -2.184962e-001 1.272095e+002
582500000 -1.502079e+000 -1.753384e+002 -4.855609e+001 -9.334138e+001 -4.784925e+001 -9.548656e+001 -2.133437e-001 1.270125e+002
583125000 -1.520742e+000 -1.758300e+002 -4.889039e+001 -9.256396e+001 -4.810916e+001 -1.000472e+002 -2.313512e-001 1.267484e+002
583750000 -1.552393e+000 -1.762808e+002 -4.818927e+001 -9.460789e+001 -4.808925e+001 -9.486182e+001 -2.315825e-001 1.264763e+002
584375000 -1.575094e+000 -1.767314e+002 -4.856669e+001 -9.721727e+001 -4.832318e+001 -9.675387e+001 -2.215531e-001 1.262866e+002
585000000 -1.587899e+000 -1.773116e+002 -4.874874e+001 -9.920207e+001 -4.849652e+001 -9.954320e+001 -2.218076e-001 1.260370e+002
585625000 -1.628675e+000 -1.777588e+002 -4.756975e+001 -1.006623e+002 -4.840034e+001 -9.907744e+001 -2.151441e-001 1.258509e+002
586250000 -1.647456e+000 -1.783030e+002 -4.882875e+001 -1.002890e+002 -4.849357e+001 -1.003816e+002 -2.045506e-001 1.257337e+002
586875000 -1.659583e+000 -1.788491e+002 -4.854260e+001 -1.012323e+002 -4.810596e+001 -1.003054e+002 -2.071580e-001 1.255472e+002
587500000 -1.698372e+000 -1.793704e+002 -4.773795e+001 -1.005411e+002 -4.863459e+001 -9.839880e+001 -1.907207e-001 1.254021e+002
588125000 -1.723635e+000 -1.798653e+002 -4.767151e+001 -1.021478e+002 -4.822725e+001 -1.033029e+002 -1.892039e-001 1.252884e+002
588750000 -1.749251e+000 1.795909e+002 -4.782304e+001 -1.066587e+002 -4.782741e+001 -1.056117e+002 -1.853892e-001 1.253141e+002
589375000 -1.778765e+000 1.790599e+002 -4.825664e+001 -1.003307e+002 -4.786690e+001 -1.054216e+002 -1.740657e-001 1.252019e+002
590000000 -1.808582e+000 1.785114e+002 -4.763998e+001 -1.050638e+002 -4.787167e+001 -1.063030e+002 -1.737472e-001 1.251873e+002
590625000 -1.847386e+000 1.779928e+002 -4.769479e+001 -1.050834e+002 -4.755175e+001 -1.034911e+002 -1.686465e-001 1.251634e+002
591250000 -1.885719e+000 1.774969e+002 -4.748846e+001 -1.084411e+002 -4.790496e+001 -1.052045e+002 -1.595043e-001 1.251951e+002
591875000 -1.934259e+000 1.770536e+002 -4.746324e+001 -1.056429e+002 -4.795555e+001 -1.071477e+002 -1.567196e-001 1.252435e+002
592500000 -1.979639e+000 1.766366e+002 -4.692656e+001 -1.059189e+002 -4.752078e+001 -1.086756e+002 -1.556836e-001 1.253091e+002
593125000 -2.029129e+000 1.762280e+002 -4.689289e+001 -1.086280e+002 -4.737920e+001 -1.110423e+002 -1.588518e-001 1.253909e+002
593750000 -2.073404e+000 1.758093e+002 -4.687376e+001 -1.088351e+002 -4.722229e+001 -1.118286e+002 -1.475807e-001 1.254495e+002
594375000 -2.115093e+000 1.754585e+002 -4.726680e+001 -1.109943e+002 -4.680987e+001 -1.124325e+002 -1.427331e-001 1.255094e+002
595000000 -2.158671e+000 1.750760e+002 -4.705830e+001 -1.118935e+002 -4.743417e+001 -1.112028e+002 -1.612923e-001 1.256124e+002
