!Agilent Technologies,E8364B,US42250235,A.06.04.32
!Agilent E8364B: A.06.04.32
!Date: Friday, January 15, 2021 16:28:08
!Correction: S11(Full 2 Port(1,2)) S21(Full 2 Port(1,2)) S12(Full 2 Port(1,2)) S22(Full 2 Port(1,2)) 
!S2P File: Measurements: S11, S21, S12, S22:
# Hz S  dB   R 50
500000000 -1.145189e-001 -1.294541e+002 -6.063285e+001 1.756620e+002 -6.029752e+001 -1.602399e+002 -1.666190e-001 1.350626e+002
500625000 -1.190829e-001 -1.297109e+002 -5.847274e+001 -1.723643e+002 -5.974857e+001 -1.785461e+002 -1.644643e-001 1.350464e+002
501250000 -1.282165e-001 -1.299450e+002 -5.886251e+001 1.734585e+002 -5.937654e+001 -1.715275e+002 -1.636243e-001 1.349812e+002
501875000 -1.217596e-001 -1.302330e+002 -6.092464e+001 1.742078e+002 -5.943411e+001 -1.787516e+002 -1.637232e-001 1.349225e+002
502500000 -1.202097e-001 -1.304821e+002 -5.800327e+001 1.777864e+002 -5.903223e+001 -1.628638e+002 -1.561924e-001 1.349324e+002
503125000 -1.295177e-001 -1.307517e+002 -5.937436e+001 1.771343e+002 -5.803738e+001 -1.765712e+002 -1.629196e-001 1.347085e+002
503750000 -1.256128e-001 -1.310233e+002 -5.918613e+001 1.735835e+002 -5.907523e+001 -1.796263e+002 -1.622900e-001 1.346433e+002
504375000 -1.384272e-001 -1.313065e+002 -5.848274e+001 1.777560e+002 -5.828765e+001 1.735812e+002 -1.796867e-001 1.345858e+002
505000000 -1.385303e-001 -1.315467e+002 -5.636424e+001 -1.750770e+002 -5.885010e+001 1.789243e+002 -1.768348e-001 1.345317e+002
505625000 -1.427410e-001 -1.317598e+002 -5.882711e+001 1.742315e+002 -5.899846e+001 1.768792e+002 -1.801920e-001 1.343981e+002
506250000 -1.461730e-001 -1.320813e+002 -5.855465e+001 1.554610e+002 -5.832504e+001 1.732149e+002 -1.855311e-001 1.341951e+002
506875000 -1.403243e-001 -1.322834e+002 -6.017030e+001 1.644214e+002 -6.025702e+001 1.730739e+002 -1.793403e-001 1.339686e+002
507500000 -1.495842e-001 -1.325250e+002 -5.936562e+001 1.663269e+002 -5.712652e+001 1.754987e+002 -1.845077e-001 1.337706e+002
508125000 -1.603579e-001 -1.328000e+002 -5.797917e+001 1.650925e+002 -5.836217e+001 1.638496e+002 -1.863061e-001 1.336708e+002
508750000 -1.561645e-001 -1.330235e+002 -5.734299e+001 1.672164e+002 -5.806211e+001 1.647770e+002 -1.899792e-001 1.333821e+002
509375000 -1.647315e-001 -1.333181e+002 -5.713250e+001 1.610671e+002 -5.740977e+001 1.670944e+002 -1.842638e-001 1.332524e+002
510000000 -1.670006e-001 -1.335519e+002 -5.781360e+001 1.687847e+002 -5.796810e+001 1.715491e+002 -1.969699e-001 1.329943e+002
510625000 -1.689333e-001 -1.337733e+002 -5.653527e+001 1.672453e+002 -5.750230e+001 1.699051e+002 -1.852043e-001 1.327999e+002
511250000 -1.757228e-001 -1.339973e+002 -5.776654e+001 1.533354e+002 -5.738351e+001 1.641253e+002 -2.038144e-001 1.325411e+002
511875000 -1.813854e-001 -1.343376e+002 -5.576392e+001 1.650923e+002 -5.818295e+001 1.583972e+002 -1.910594e-001 1.323489e+002
512500000 -1.779548e-001 -1.345904e+002 -5.937891e+001 1.493568e+002 -5.628342e+001 1.509773e+002 -1.965813e-001 1.321367e+002
513125000 -1.910127e-001 -1.348880e+002 -6.132340e+001 1.382105e+002 -5.854573e+001 1.518850e+002 -1.944257e-001 1.320470e+002
513750000 -1.962886e-001 -1.351216e+002 -5.690193e+001 1.548134e+002 -5.689322e+001 1.474499e+002 -1.916737e-001 1.318191e+002
514375000 -2.014259e-001 -1.354871e+002 -5.750853e+001 1.503914e+002 -5.663594e+001 1.479395e+002 -1.780084e-001 1.315847e+002
515000000 -2.044719e-001 -1.357530e+002 -5.716259e+001 1.456841e+002 -5.687773e+001 1.522728e+002 -1.718433e-001 1.315744e+002
515625000 -2.131867e-001 -1.361082e+002 -5.904665e+001 1.564464e+002 -5.840334e+001 1.514460e+002 -1.667764e-001 1.313696e+002
516250000 -2.131800e-001 -1.364281e+002 -5.886971e+001 1.524664e+002 -5.760783e+001 1.468159e+002 -1.763040e-001 1.313229e+002
516875000 -2.293419e-001 -1.367291e+002 -5.822310e+001 1.459981e+002 -5.729422e+001 1.560905e+002 -1.625391e-001 1.312719e+002
517500000 -2.326529e-001 -1.370569e+002 -5.640212e+001 1.498418e+002 -5.695807e+001 1.567887e+002 -1.661912e-001 1.312068e+002
518125000 -2.338721e-001 -1.374475e+002 -5.703525e+001 1.377111e+002 -5.830853e+001 1.457565e+002 -1.562703e-001 1.311481e+002
518750000 -2.367198e-001 -1.377890e+002 -5.705563e+001 1.438569e+002 -5.701874e+001 1.492944e+002 -1.553657e-001 1.311620e+002
519375000 -2.505766e-001 -1.380287e+002 -5.791077e+001 1.434277e+002 -5.665225e+001 1.436324e+002 -1.493245e-001 1.311320e+002
520000000 -2.573590e-001 -1.384369e+002 -5.586794e+001 1.403574e+002 -5.722969e+001 1.499044e+002 -1.473193e-001 1.310860e+002
520625000 -2.532004e-001 -1.387961e+002 -5.631587e+001 1.363073e+002 -5.687069e+001 1.431350e+002 -1.486849e-001 1.311116e+002
521250000 -2.598952e-001 -1.391599e+002 -5.576035e+001 1.389990e+002 -5.715146e+001 1.413142e+002 -1.455302e-001 1.311299e+002
521875000 -2.672312e-001 -1.395429e+002 -5.682352e+001 1.429954e+002 -5.695705e+001 1.447479e+002 -1.407459e-001 1.311755e+002
522500000 -2.679746e-001 -1.398604e+002 -5.459549e+001 1.361557e+002 -5.692328e+001 1.455214e+002 -1.447009e-001 1.311972e+002
523125000 -2.774224e-001 -1.402424e+002 -5.773275e+001 1.324834e+002 -5.661686e+001 1.346728e+002 -1.461989e-001 1.312003e+002
523750000 -2.794472e-001 -1.405723e+002 -5.728980e+001 1.379199e+002 -5.691648e+001 1.414534e+002 -1.429872e-001 1.312153e+002
524375000 -3.004866e-001 -1.409491e+002 -5.591311e+001 1.372886e+002 -5.701930e+001 1.418786e+002 -1.372348e-001 1.312179e+002
525000000 -3.007217e-001 -1.412780e+002 -5.506207e+001 1.284008e+002 -5.647678e+001 1.327190e+002 -1.448037e-001 1.312993e+002
525625000 -3.103150e-001 -1.415311e+002 -5.775150e+001 1.224154e+002 -5.639302e+001 1.337225e+002 -1.581718e-001 1.312397e+002
526250000 -3.124000e-001 -1.418869e+002 -5.574954e+001 1.354656e+002 -5.655902e+001 1.370052e+002 -1.522329e-001 1.312122e+002
526875000 -3.287679e-001 -1.422203e+002 -5.471950e+001 1.282025e+002 -5.527363e+001 1.350848e+002 -1.466012e-001 1.313114e+002
527500000 -3.402421e-001 -1.425121e+002 -5.608565e+001 1.214825e+002 -5.541887e+001 1.375136e+002 -1.550429e-001 1.312376e+002
528125000 -3.551585e-001 -1.428708e+002 -5.530585e+001 1.284228e+002 -5.546844e+001 1.319519e+002 -1.573469e-001 1.313370e+002
528750000 -3.536636e-001 -1.431935e+002 -5.721804e+001 1.311062e+002 -5.566219e+001 1.329919e+002 -1.452132e-001 1.313855e+002
529375000 -3.703850e-001 -1.434284e+002 -5.508531e+001 1.259657e+002 -5.489723e+001 1.315368e+002 -1.505141e-001 1.313313e+002
530000000 -3.785650e-001 -1.438364e+002 -5.515693e+001 1.184329e+002 -5.526370e+001 1.282070e+002 -1.564204e-001 1.313280e+002
530625000 -3.894837e-001 -1.441365e+002 -5.567790e+001 1.228461e+002 -5.535065e+001 1.189962e+002 -1.510699e-001 1.313550e+002
531250000 -3.904464e-001 -1.444739e+002 -5.536578e+001 1.133680e+002 -5.454446e+001 1.199088e+002 -1.433076e-001 1.313512e+002
531875000 -4.105678e-001 -1.447684e+002 -5.464800e+001 1.149281e+002 -5.447268e+001 1.210863e+002 -1.597193e-001 1.313415e+002
532500000 -4.111629e-001 -1.450820e+002 -5.447913e+001 1.126814e+002 -5.501140e+001 1.240175e+002 -1.533270e-001 1.313757e+002
533125000 -4.168000e-001 -1.454609e+002 -5.536315e+001 1.107535e+002 -5.508956e+001 1.227467e+002 -1.664766e-001 1.313685e+002
533750000 -4.286647e-001 -1.457933e+002 -5.502448e+001 1.187060e+002 -5.359007e+001 1.117836e+002 -1.775396e-001 1.313243e+002
534375000 -4.244470e-001 -1.461720e+002 -5.434193e+001 1.105411e+002 -5.447458e+001 1.208250e+002 -1.598294e-001 1.312575e+002
535000000 -4.375436e-001 -1.464752e+002 -5.298809e+001 1.045341e+002 -5.548417e+001 1.169128e+002 -1.761775e-001 1.312297e+002
535625000 -4.426857e-001 -1.468621e+002 -5.443239e+001 1.164728e+002 -5.517053e+001 1.132057e+002 -1.624301e-001 1.311345e+002
536250000 -4.522814e-001 -1.472285e+002 -5.425364e+001 1.120354e+002 -5.527709e+001 1.110926e+002 -1.597827e-001 1.310259e+002
536875000 -4.584201e-001 -1.476023e+002 -5.452539e+001 1.094505e+002 -5.335624e+001 1.190683e+002 -1.687641e-001 1.309939e+002
537500000 -4.697491e-001 -1.478870e+002 -5.371929e+001 1.054263e+002 -5.400314e+001 1.121713e+002 -1.564677e-001 1.309902e+002
538125000 -4.758918e-001 -1.482918e+002 -5.410679e+001 1.073585e+002 -5.296893e+001 1.111669e+002 -1.680661e-001 1.308588e+002
538750000 -4.949462e-001 -1.486581e+002 -5.354057e+001 1.017908e+002 -5.388282e+001 1.089924e+002 -1.746634e-001 1.307929e+002
539375000 -5.067546e-001 -1.489430e+002 -5.367670e+001 9.956899e+001 -5.364008e+001 1.082021e+002 -1.757128e-001 1.306755e+002
540000000 -5.165428e-001 -1.492813e+002 -5.346331e+001 9.368305e+001 -5.342619e+001 9.957560e+001 -1.739106e-001 1.305791e+002
540625000 -5.215265e-001 -1.496543e+002 -5.361734e+001 1.000900e+002 -5.342015e+001 1.015067e+002 -1.762650e-001 1.304780e+002
541250000 -5.309470e-001 -1.499404e+002 -5.245027e+001 9.458439e+001 -5.417962e+001 9.916175e+001 -1.721603e-001 1.304365e+002
541875000 -5.393663e-001 -1.502486e+002 -5.334763e+001 9.580472e+001 -5.317812e+001 9.583573e+001 -1.751014e-001 1.302987e+002
542500000 -5.498509e-001 -1.505953e+002 -5.313630e+001 9.895194e+001 -5.309974e+001 1.013450e+002 -1.676158e-001 1.302865e+002
543125000 -5.492367e-001 -1.509224e+002 -5.295396e+001 9.672157e+001 -5.313571e+001 9.569913e+001 -1.674279e-001 1.301998e+002
543750000 -5.540628e-001 -1.512755e+002 -5.346811e+001 9.673920e+001 -5.349567e+001 9.225446e+001 -1.672598e-001 1.301633e+002
544375000 -5.696022e-001 -1.516393e+002 -5.278506e+001 9.267806e+001 -5.335487e+001 9.230200e+001 -1.697573e-001 1.300518e+002
545000000 -5.641362e-001 -1.519602e+002 -5.277047e+001 8.946489e+001 -5.284031e+001 9.410002e+001 -1.685258e-001 1.300573e+002
545625000 -5.758164e-001 -1.523626e+002 -5.344265e+001 8.343265e+001 -5.294682e+001 9.306623e+001 -1.708319e-001 1.300382e+002
546250000 -5.966101e-001 -1.527190e+002 -5.346118e+001 8.133440e+001 -5.317968e+001 9.198377e+001 -1.732806e-001 1.299238e+002
546875000 -6.161446e-001 -1.531405e+002 -5.277342e+001 8.293197e+001 -5.311685e+001 9.364349e+001 -1.793102e-001 1.299801e+002
547500000 -6.281650e-001 -1.534914e+002 -5.303232e+001 8.278966e+001 -5.340359e+001 9.025569e+001 -1.810064e-001 1.298873e+002
548125000 -6.491279e-001 -1.538160e+002 -5.265509e+001 8.150325e+001 -5.203830e+001 9.209266e+001 -1.736823e-001 1.297101e+002
548750000 -6.633017e-001 -1.542154e+002 -5.234587e+001 8.482089e+001 -5.232403e+001 8.968599e+001 -1.853210e-001 1.296583e+002
549375000 -6.875165e-001 -1.545477e+002 -5.167410e+001 7.868626e+001 -5.190050e+001 8.600569e+001 -1.823226e-001 1.294530e+002
550000000 -6.949832e-001 -1.548810e+002 -5.212453e+001 7.781450e+001 -5.268755e+001 8.193006e+001 -1.927554e-001 1.293913e+002
550625000 -7.184573e-001 -1.552849e+002 -5.191983e+001 7.837060e+001 -5.193310e+001 8.818991e+001 -1.828464e-001 1.292831e+002
551250000 -7.316659e-001 -1.556048e+002 -5.240026e+001 7.992000e+001 -5.216320e+001 7.987934e+001 -1.854665e-001 1.291672e+002
551875000 -7.479290e-001 -1.559108e+002 -5.156980e+001 7.726501e+001 -5.151417e+001 8.520915e+001 -1.915515e-001 1.289945e+002
552500000 -7.631473e-001 -1.562651e+002 -5.168818e+001 6.923734e+001 -5.168896e+001 7.331302e+001 -1.839536e-001 1.288350e+002
553125000 -7.735915e-001 -1.565927e+002 -5.166212e+001 7.239225e+001 -5.165091e+001 7.409628e+001 -1.931471e-001 1.287142e+002
553750000 -7.976087e-001 -1.569417e+002 -5.163480e+001 7.088271e+001 -5.110832e+001 6.951948e+001 -1.935559e-001 1.284746e+002
554375000 -8.091668e-001 -1.572532e+002 -5.149247e+001 7.106675e+001 -5.179359e+001 7.721218e+001 -1.920269e-001 1.283643e+002
555000000 -8.241985e-001 -1.575657e+002 -5.186692e+001 6.741895e+001 -5.119766e+001 7.258954e+001 -1.945848e-001 1.282537e+002
555625000 -8.464860e-001 -1.578834e+002 -5.155786e+001 6.602990e+001 -5.129773e+001 6.714280e+001 -1.786018e-001 1.281725e+002
556250000 -8.619833e-001 -1.582439e+002 -5.164975e+001 6.345076e+001 -5.122532e+001 7.092696e+001 -1.897760e-001 1.280325e+002
556875000 -8.779881e-001 -1.585560e+002 -5.119970e+001 6.323077e+001 -5.139613e+001 6.528306e+001 -1.822754e-001 1.279253e+002
557500000 -9.026195e-001 -1.587941e+002 -5.092516e+001 6.013136e+001 -5.117762e+001 6.524365e+001 -1.734917e-001 1.279102e+002
558125000 -9.183661e-001 -1.590708e+002 -5.108897e+001 5.931715e+001 -5.140698e+001 6.383366e+001 -1.793611e-001 1.278316e+002
558750000 -9.269827e-001 -1.593214e+002 -5.139359e+001 5.911025e+001 -5.132473e+001 6.326804e+001 -1.694849e-001 1.277717e+002
559375000 -9.510107e-001 -1.595929e+002 -5.141072e+001 5.537912e+001 -5.134644e+001 5.954853e+001 -1.703737e-001 1.278077e+002
560000000 -9.605017e-001 -1.598652e+002 -5.090999e+001 5.399314e+001 -5.102200e+001 6.138111e+001 -1.521785e-001 1.277920e+002
560625000 -9.683598e-001 -1.600993e+002 -5.081431e+001 5.065047e+001 -5.162391e+001 6.178689e+001 -1.475882e-001 1.278350e+002
561250000 -9.812371e-001 -1.604110e+002 -5.086792e+001 5.175353e+001 -5.109309e+001 5.813647e+001 -1.453029e-001 1.278663e+002
561875000 -9.935611e-001 -1.607586e+002 -5.121840e+001 5.046914e+001 -5.096666e+001 5.620095e+001 -1.560899e-001 1.279255e+002
562500000 -1.002358e+000 -1.610443e+002 -5.027603e+001 4.867155e+001 -5.099294e+001 5.571657e+001 -1.507123e-001 1.279585e+002
563125000 -1.008959e+000 -1.613861e+002 -5.082106e+001 4.938474e+001 -5.074544e+001 5.883225e+001 -1.486338e-001 1.279977e+002
563750000 -1.032756e+000 -1.617697e+002 -5.051903e+001 4.713626e+001 -5.130711e+001 5.570504e+001 -1.580986e-001 1.280244e+002
564375000 -1.050526e+000 -1.620618e+002 -5.107732e+001 4.472300e+001 -5.063856e+001 5.333733e+001 -1.640332e-001 1.280787e+002
565000000 -1.070945e+000 -1.625381e+002 -5.008568e+001 5.028670e+001 -5.111312e+001 5.225210e+001 -1.593142e-001 1.280706e+002
565625000 -1.085125e+000 -1.628687e+002 -4.983337e+001 4.155712e+001 -5.047207e+001 5.413150e+001 -1.583026e-001 1.280457e+002
566250000 -1.114616e+000 -1.632593e+002 -5.041776e+001 4.241148e+001 -5.049159e+001 5.194149e+001 -1.681191e-001 1.280742e+002
566875000 -1.139039e+000 -1.636464e+002 -4.954730e+001 4.251447e+001 -4.969080e+001 4.899220e+001 -1.654772e-001 1.280328e+002
567500000 -1.161399e+000 -1.640726e+002 -4.980339e+001 4.168976e+001 -5.040132e+001 4.718906e+001 -1.734133e-001 1.279458e+002
568125000 -1.189723e+000 -1.644025e+002 -4.954197e+001 3.756139e+001 -4.987910e+001 4.794176e+001 -1.784084e-001 1.279416e+002
568750000 -1.209238e+000 -1.647952e+002 -5.014406e+001 3.485356e+001 -5.016154e+001 4.300999e+001 -1.799704e-001 1.278581e+002
569375000 -1.232342e+000 -1.651780e+002 -5.020511e+001 3.636666e+001 -4.970835e+001 4.196761e+001 -1.754284e-001 1.278706e+002
570000000 -1.252224e+000 -1.655973e+002 -4.966561e+001 2.930183e+001 -4.930332e+001 3.938755e+001 -1.784454e-001 1.276847e+002
570625000 -1.266566e+000 -1.659199e+002 -4.940243e+001 3.314597e+001 -4.969622e+001 3.685393e+001 -1.791629e-001 1.277315e+002
571250000 -1.287317e+000 -1.663054e+002 -4.941347e+001 2.975822e+001 -4.987046e+001 3.774836e+001 -1.894161e-001 1.276687e+002
571875000 -1.317099e+000 -1.667799e+002 -4.998954e+001 3.027326e+001 -4.955175e+001 3.475739e+001 -1.707199e-001 1.275741e+002
572500000 -1.342939e+000 -1.671645e+002 -4.931231e+001 2.947305e+001 -4.963625e+001 3.493733e+001 -1.776736e-001 1.275029e+002
573125000 -1.363924e+000 -1.674980e+002 -4.888884e+001 2.835115e+001 -4.930799e+001 3.651180e+001 -1.733620e-001 1.274341e+002
573750000 -1.387013e+000 -1.678766e+002 -4.890890e+001 2.417752e+001 -4.930405e+001 3.221162e+001 -1.827680e-001 1.274122e+002
574375000 -1.411507e+000 -1.682361e+002 -4.915669e+001 2.129935e+001 -4.932090e+001 3.167312e+001 -1.879786e-001 1.273716e+002
575000000 -1.427944e+000 -1.686244e+002 -4.953429e+001 1.881325e+001 -4.908575e+001 2.367133e+001 -1.848212e-001 1.272622e+002
575625000 -1.448025e+000 -1.689248e+002 -4.889721e+001 1.896017e+001 -4.908556e+001 2.949734e+001 -1.857760e-001 1.272420e+002
576250000 -1.469118e+000 -1.692850e+002 -4.880808e+001 1.733058e+001 -4.876224e+001 2.844066e+001 -1.913050e-001 1.271497e+002
576875000 -1.487636e+000 -1.696138e+002 -4.828910e+001 1.518800e+001 -4.865376e+001 2.734452e+001 -1.806249e-001 1.270837e+002
577500000 -1.512563e+000 -1.699599e+002 -4.870134e+001 1.932518e+001 -4.899170e+001 2.277334e+001 -1.813021e-001 1.269179e+002
578125000 -1.535074e+000 -1.703069e+002 -4.865567e+001 1.666513e+001 -4.913006e+001 2.529681e+001 -1.883925e-001 1.268934e+002
578750000 -1.546175e+000 -1.706768e+002 -4.872146e+001 1.328330e+001 -4.874345e+001 2.142513e+001 -1.923817e-001 1.267205e+002
579375000 -1.565784e+000 -1.710432e+002 -4.838472e+001 7.567666e+000 -4.875795e+001 1.854523e+001 -1.967002e-001 1.265712e+002
580000000 -1.584576e+000 -1.713685e+002 -4.836937e+001 1.106558e+001 -4.848692e+001 1.645708e+001 -2.029026e-001 1.263668e+002
580625000 -1.606702e+000 -1.717569e+002 -4.865401e+001 1.120166e+001 -4.829577e+001 1.467742e+001 -1.963167e-001 1.262047e+002
581250000 -1.629756e+000 -1.720936e+002 -4.839287e+001 5.459283e+000 -4.773336e+001 1.327812e+001 -2.044041e-001 1.260313e+002
581875000 -1.634420e+000 -1.725197e+002 -4.825315e+001 2.300818e+000 -4.852017e+001 1.279755e+001 -2.160378e-001 1.258187e+002
582500000 -1.657854e+000 -1.728540e+002 -4.846296e+001 8.262902e+000 -4.785399e+001 1.105873e+001 -2.055468e-001 1.255843e+002
583125000 -1.661440e+000 -1.733076e+002 -4.782721e+001 4.658052e+000 -4.763201e+001 1.050889e+001 -2.228483e-001 1.252567e+002
583750000 -1.682446e+000 -1.737626e+002 -4.887121e+001 -2.274445e+000 -4.828056e+001 8.100224e+000 -2.221639e-001 1.250995e+002
584375000 -1.693531e+000 -1.742030e+002 -4.801443e+001 -2.716263e+000 -4.853466e+001 6.434663e+000 -2.148139e-001 1.248849e+002
585000000 -1.699361e+000 -1.746424e+002 -4.832535e+001 2.536821e+000 -4.837737e+001 7.797755e+000 -2.124287e-001 1.246741e+002
585625000 -1.733332e+000 -1.751147e+002 -4.849950e+001 1.170358e-003 -4.827654e+001 3.792677e+000 -2.042619e-001 1.244535e+002
586250000 -1.741850e+000 -1.756176e+002 -4.761278e+001 -1.466879e+000 -4.798587e+001 2.795659e+000 -2.033532e-001 1.243615e+002
586875000 -1.754439e+000 -1.760571e+002 -4.805436e+001 -6.030250e+000 -4.749320e+001 -4.982490e-001 -2.003122e-001 1.242144e+002
587500000 -1.777943e+000 -1.765196e+002 -4.830947e+001 -5.017268e+000 -4.790151e+001 2.446338e+000 -1.918516e-001 1.240247e+002
588125000 -1.788242e+000 -1.769489e+002 -4.830735e+001 -6.678246e+000 -4.806906e+001 1.342008e+000 -1.897765e-001 1.239670e+002
588750000 -1.798827e+000 -1.774335e+002 -4.766689e+001 -8.978899e+000 -4.751146e+001 -1.070893e+000 -1.937891e-001 1.239184e+002
589375000 -1.812299e+000 -1.778408e+002 -4.741130e+001 -8.515622e+000 -4.783184e+001 -3.031994e+000 -1.633624e-001 1.237851e+002
590000000 -1.839927e+000 -1.783224e+002 -4.792529e+001 -1.191999e+001 -4.782995e+001 -1.746855e+000 -1.765200e-001 1.238148e+002
590625000 -1.857980e+000 -1.787480e+002 -4.739487e+001 -9.321930e+000 -4.739193e+001 -5.341027e+000 -1.647457e-001 1.237624e+002
591250000 -1.881419e+000 -1.791270e+002 -4.778825e+001 -1.490978e+001 -4.729095e+001 -5.378132e+000 -1.662656e-001 1.237773e+002
591875000 -1.908953e+000 -1.794291e+002 -4.760683e+001 -1.260537e+001 -4.746408e+001 -8.586330e+000 -1.659650e-001 1.238615e+002
592500000 -1.935766e+000 -1.797745e+002 -4.784219e+001 -1.762868e+001 -4.794917e+001 -8.524523e+000 -1.617025e-001 1.239130e+002
593125000 -1.959104e+000 1.799471e+002 -4.738513e+001 -1.954589e+001 -4.728540e+001 -1.116855e+001 -1.628466e-001 1.240027e+002
593750000 -1.976406e+000 1.796071e+002 -4.714795e+001 -2.102958e+001 -4.729643e+001 -1.369475e+001 -1.503453e-001 1.241071e+002
594375000 -1.985119e+000 1.792789e+002 -4.730235e+001 -1.967445e+001 -4.699072e+001 -1.565073e+001 -1.562338e-001 1.241321e+002
595000000 -1.999835e+000 1.790191e+002 -4.742220e+001 -2.251943e+001 -4.693044e+001 -1.243997e+001 -1.663202e-001 1.241567e+002
595625000 -2.014261e+000 1.786616e+002 -4.718861e+001 -2.213814e+001 -4.715877e+001 -1.724067e+001 -1.546478e-001 1.242375e+002
