!Agilent Technologies,E8364B,US42250235,A.06.04.32
!Agilent E8364B: A.06.04.32
!Date: Friday, January 15, 2021 16:28:46
!Correction: S11(Full 2 Port(1,2)) S21(Full 2 Port(1,2)) S12(Full 2 Port(1,2)) S22(Full 2 Port(1,2)) 
!S2P File: Measurements: S11, S21, S12, S22:
# Hz S  dB   R 50
500000000 -1.268012e-001 -1.296231e+002 -5.989701e+001 6.979292e+001 -6.079202e+001 6.220451e+001 -1.555695e-001 1.354836e+002
500625000 -1.307728e-001 -1.298206e+002 -6.187830e+001 6.832722e+001 -6.185106e+001 6.028469e+001 -1.562621e-001 1.354637e+002
501250000 -1.390842e-001 -1.300721e+002 -6.059398e+001 5.611465e+001 -6.103144e+001 6.942332e+001 -1.568107e-001 1.353891e+002
501875000 -1.354942e-001 -1.303253e+002 -5.903291e+001 6.487572e+001 -6.148741e+001 5.599705e+001 -1.506474e-001 1.353312e+002
502500000 -1.419720e-001 -1.306065e+002 -6.032476e+001 6.843324e+001 -6.047686e+001 7.545664e+001 -1.620533e-001 1.352884e+002
503125000 -1.495251e-001 -1.308577e+002 -5.933362e+001 5.016017e+001 -5.908961e+001 6.773887e+001 -1.607386e-001 1.351720e+002
503750000 -1.452334e-001 -1.310890e+002 -6.137832e+001 6.427964e+001 -6.092836e+001 5.470992e+001 -1.553288e-001 1.350631e+002
504375000 -1.571931e-001 -1.313446e+002 -5.876779e+001 3.878093e+001 -6.124294e+001 6.022553e+001 -1.725492e-001 1.350070e+002
505000000 -1.578362e-001 -1.316727e+002 -6.194506e+001 6.346047e+001 -6.035002e+001 4.888791e+001 -1.700364e-001 1.349307e+002
505625000 -1.616196e-001 -1.318221e+002 -6.126178e+001 7.111868e+001 -5.872570e+001 6.199013e+001 -1.757718e-001 1.347526e+002
506250000 -1.689729e-001 -1.321365e+002 -5.903158e+001 4.680405e+001 -6.289930e+001 6.518867e+001 -1.798050e-001 1.345949e+002
506875000 -1.720454e-001 -1.323536e+002 -5.928397e+001 5.054099e+001 -5.978479e+001 5.424651e+001 -1.751970e-001 1.344382e+002
507500000 -1.719843e-001 -1.325741e+002 -5.932869e+001 3.490387e+001 -5.987864e+001 5.548782e+001 -1.785955e-001 1.341776e+002
508125000 -1.785607e-001 -1.328462e+002 -5.841880e+001 3.827098e+001 -5.914622e+001 4.306451e+001 -1.802722e-001 1.340661e+002
508750000 -1.850289e-001 -1.330326e+002 -5.896595e+001 4.390372e+001 -5.993886e+001 5.848604e+001 -1.802341e-001 1.338324e+002
509375000 -1.864424e-001 -1.333471e+002 -5.939351e+001 4.519741e+001 -5.940325e+001 3.376722e+001 -1.807944e-001 1.336812e+002
510000000 -1.860225e-001 -1.336047e+002 -6.023589e+001 2.887830e+001 -5.781425e+001 4.478986e+001 -1.919840e-001 1.334055e+002
510625000 -1.991097e-001 -1.337838e+002 -5.903305e+001 3.625931e+001 -5.919633e+001 4.240553e+001 -1.803493e-001 1.332756e+002
511250000 -2.025069e-001 -1.340035e+002 -6.050764e+001 3.518200e+001 -5.942335e+001 3.139945e+001 -1.889542e-001 1.329438e+002
511875000 -2.023749e-001 -1.343449e+002 -5.934396e+001 2.583238e+001 -6.153584e+001 4.026938e+001 -1.906360e-001 1.327799e+002
512500000 -2.011317e-001 -1.346155e+002 -5.811687e+001 4.054906e+001 -5.933796e+001 3.333152e+001 -1.825351e-001 1.325554e+002
513125000 -2.144156e-001 -1.349174e+002 -5.973360e+001 2.825833e+001 -5.812423e+001 3.062198e+001 -1.916763e-001 1.324385e+002
513750000 -2.203323e-001 -1.352031e+002 -6.053667e+001 2.788710e+001 -6.117501e+001 2.488832e+001 -1.919276e-001 1.321967e+002
514375000 -2.252961e-001 -1.355091e+002 -5.992488e+001 3.185060e+001 -5.829567e+001 2.876162e+001 -1.781770e-001 1.320922e+002
515000000 -2.262200e-001 -1.357830e+002 -5.914735e+001 2.376699e+001 -5.992017e+001 2.252331e+001 -1.733681e-001 1.318985e+002
515625000 -2.365645e-001 -1.361172e+002 -5.769226e+001 2.459278e+001 -5.904247e+001 2.741509e+001 -1.636381e-001 1.318291e+002
516250000 -2.408362e-001 -1.364482e+002 -5.850143e+001 2.275121e+001 -5.787410e+001 2.333741e+001 -1.748672e-001 1.317119e+002
516875000 -2.593020e-001 -1.367444e+002 -5.883838e+001 2.107241e+001 -5.773777e+001 2.047815e+001 -1.538813e-001 1.317208e+002
517500000 -2.621620e-001 -1.370609e+002 -5.971547e+001 2.446843e+001 -5.995274e+001 2.837036e+001 -1.590239e-001 1.316488e+002
518125000 -2.676189e-001 -1.374577e+002 -5.902065e+001 2.168434e+001 -5.699838e+001 1.962445e+001 -1.483976e-001 1.315552e+002
518750000 -2.822627e-001 -1.376988e+002 -5.850596e+001 2.118867e+001 -5.747729e+001 2.291612e+001 -1.488350e-001 1.315710e+002
519375000 -2.856538e-001 -1.380433e+002 -5.688445e+001 1.926698e+001 -5.748921e+001 1.475286e+001 -1.455326e-001 1.315798e+002
520000000 -2.954277e-001 -1.383700e+002 -5.729884e+001 1.127479e+001 -5.685274e+001 1.770050e+001 -1.391754e-001 1.315480e+002
520625000 -2.940806e-001 -1.386963e+002 -5.651786e+001 1.629993e+001 -5.712928e+001 1.048988e+001 -1.405543e-001 1.314948e+002
521250000 -3.022203e-001 -1.390392e+002 -5.843921e+001 8.367846e+000 -5.824920e+001 1.100881e+001 -1.427275e-001 1.315671e+002
521875000 -3.018374e-001 -1.393810e+002 -5.785044e+001 1.006853e+001 -5.709284e+001 1.090247e+001 -1.340245e-001 1.316109e+002
522500000 -3.053125e-001 -1.397225e+002 -5.626042e+001 3.552237e+000 -5.689204e+001 7.233213e+000 -1.373902e-001 1.315914e+002
523125000 -3.214846e-001 -1.400606e+002 -5.764834e+001 8.474972e+000 -5.754142e+001 8.150534e+000 -1.417629e-001 1.316502e+002
523750000 -3.154325e-001 -1.404201e+002 -5.841980e+001 -4.546006e+000 -5.698278e+001 7.111519e+000 -1.419923e-001 1.316358e+002
524375000 -3.289525e-001 -1.407589e+002 -5.809875e+001 -1.166271e+001 -5.715042e+001 1.250134e+001 -1.390512e-001 1.316677e+002
525000000 -3.304514e-001 -1.410780e+002 -5.748771e+001 3.041488e+000 -5.921511e+001 2.294608e+000 -1.436908e-001 1.317191e+002
525625000 -3.514321e-001 -1.413358e+002 -5.653443e+001 -7.516948e-001 -5.791693e+001 5.307148e+000 -1.489058e-001 1.316393e+002
526250000 -3.439520e-001 -1.416752e+002 -5.671176e+001 7.606688e-001 -5.751295e+001 -2.122418e+000 -1.456929e-001 1.316823e+002
526875000 -3.614166e-001 -1.420040e+002 -5.776909e+001 -3.224207e+000 -5.662055e+001 1.838753e+000 -1.412033e-001 1.316911e+002
527500000 -3.680665e-001 -1.422938e+002 -5.749294e+001 -9.101789e+000 -5.754823e+001 -1.218294e+001 -1.474815e-001 1.317190e+002
528125000 -3.887194e-001 -1.425959e+002 -5.722348e+001 -9.488786e+000 -5.654100e+001 -1.141994e+001 -1.527988e-001 1.317670e+002
528750000 -3.796250e-001 -1.428759e+002 -5.748936e+001 -4.189689e+000 -5.661478e+001 -3.885561e+000 -1.375839e-001 1.318422e+002
529375000 -3.924122e-001 -1.431711e+002 -5.586465e+001 -2.619681e+000 -5.810679e+001 -1.520069e+001 -1.509888e-001 1.317598e+002
530000000 -3.946364e-001 -1.435652e+002 -5.687926e+001 -1.084971e+001 -5.751969e+001 -1.977796e+001 -1.490559e-001 1.317895e+002
530625000 -4.020310e-001 -1.438605e+002 -5.663206e+001 -1.699222e+001 -5.661355e+001 -1.396945e+001 -1.496357e-001 1.317906e+002
531250000 -4.079467e-001 -1.442153e+002 -5.570491e+001 -2.242380e+001 -5.774989e+001 -2.340359e+001 -1.421881e-001 1.317702e+002
531875000 -4.217225e-001 -1.444701e+002 -5.734439e+001 -3.017369e+001 -5.624500e+001 -1.629919e+001 -1.452873e-001 1.317801e+002
532500000 -4.207309e-001 -1.447646e+002 -5.696745e+001 -2.082399e+001 -5.692650e+001 -1.718939e+001 -1.538918e-001 1.317876e+002
533125000 -4.214767e-001 -1.451269e+002 -5.660881e+001 -2.025010e+001 -5.662822e+001 -1.454817e+001 -1.620382e-001 1.317918e+002
533750000 -4.268667e-001 -1.455331e+002 -5.724863e+001 -2.557080e+001 -5.725093e+001 -1.933398e+001 -1.732195e-001 1.317586e+002
534375000 -4.300129e-001 -1.458935e+002 -5.551970e+001 -2.139449e+001 -5.665323e+001 -1.757465e+001 -1.558283e-001 1.316877e+002
535000000 -4.445131e-001 -1.461890e+002 -5.686134e+001 -2.387005e+001 -5.709610e+001 -3.282557e+001 -1.598655e-001 1.316586e+002
535625000 -4.480525e-001 -1.466167e+002 -5.610506e+001 -2.539420e+001 -5.684601e+001 -2.103608e+001 -1.564511e-001 1.316129e+002
536250000 -4.539738e-001 -1.469732e+002 -5.653584e+001 -3.237999e+001 -5.708941e+001 -1.925875e+001 -1.531623e-001 1.315188e+002
536875000 -4.632420e-001 -1.473123e+002 -5.572643e+001 -2.628937e+001 -5.563022e+001 -2.990852e+001 -1.559380e-001 1.314415e+002
537500000 -4.689094e-001 -1.476158e+002 -5.598894e+001 -2.953155e+001 -5.684597e+001 -2.826857e+001 -1.601908e-001 1.313805e+002
538125000 -4.696640e-001 -1.479696e+002 -5.699491e+001 -2.797528e+001 -5.610772e+001 -2.907425e+001 -1.641927e-001 1.313285e+002
538750000 -4.896056e-001 -1.483258e+002 -5.589580e+001 -3.286911e+001 -5.672476e+001 -3.308297e+001 -1.679423e-001 1.312295e+002
539375000 -4.999814e-001 -1.486637e+002 -5.605377e+001 -3.562049e+001 -5.608114e+001 -2.664114e+001 -1.683168e-001 1.311750e+002
540000000 -5.064881e-001 -1.489735e+002 -5.530289e+001 -3.978581e+001 -5.676155e+001 -3.331880e+001 -1.722759e-001 1.310170e+002
540625000 -5.062904e-001 -1.493888e+002 -5.665246e+001 -3.315899e+001 -5.536562e+001 -4.070054e+001 -1.697936e-001 1.310178e+002
541250000 -5.149781e-001 -1.496569e+002 -5.616121e+001 -3.642592e+001 -5.569085e+001 -3.850301e+001 -1.728104e-001 1.308744e+002
541875000 -5.250118e-001 -1.499807e+002 -5.523737e+001 -4.311950e+001 -5.599500e+001 -4.329715e+001 -1.700745e-001 1.307954e+002
542500000 -5.296209e-001 -1.503173e+002 -5.630183e+001 -3.981710e+001 -5.612340e+001 -4.252962e+001 -1.651778e-001 1.307608e+002
543125000 -5.283152e-001 -1.506700e+002 -5.552075e+001 -4.376823e+001 -5.720093e+001 -3.549521e+001 -1.547242e-001 1.306458e+002
543750000 -5.292564e-001 -1.510067e+002 -5.647441e+001 -4.923071e+001 -5.503469e+001 -3.819607e+001 -1.686398e-001 1.305940e+002
544375000 -5.424544e-001 -1.513544e+002 -5.635204e+001 -4.310101e+001 -5.623064e+001 -4.370974e+001 -1.678490e-001 1.305792e+002
545000000 -5.379890e-001 -1.516723e+002 -5.664089e+001 -4.432655e+001 -5.571953e+001 -4.187746e+001 -1.648423e-001 1.305172e+002
545625000 -5.550860e-001 -1.520642e+002 -5.579534e+001 -4.093073e+001 -5.568258e+001 -4.514183e+001 -1.655103e-001 1.304278e+002
546250000 -5.707033e-001 -1.524628e+002 -5.629263e+001 -5.422562e+001 -5.675101e+001 -4.384607e+001 -1.693355e-001 1.303735e+002
546875000 -5.778052e-001 -1.528916e+002 -5.492975e+001 -5.013394e+001 -5.499844e+001 -5.198939e+001 -1.656605e-001 1.304186e+002
547500000 -5.995442e-001 -1.531894e+002 -5.499326e+001 -4.932644e+001 -5.538669e+001 -4.885955e+001 -1.656980e-001 1.303086e+002
548125000 -6.135980e-001 -1.535293e+002 -5.487136e+001 -5.324468e+001 -5.456809e+001 -4.853366e+001 -1.741400e-001 1.301773e+002
548750000 -6.256504e-001 -1.539488e+002 -5.402961e+001 -5.479589e+001 -5.484897e+001 -4.765359e+001 -1.763117e-001 1.301642e+002
549375000 -6.469393e-001 -1.543130e+002 -5.439854e+001 -5.209906e+001 -5.473353e+001 -5.402040e+001 -1.770364e-001 1.299157e+002
550000000 -6.534373e-001 -1.546435e+002 -5.431411e+001 -5.754926e+001 -5.525414e+001 -5.560220e+001 -1.783385e-001 1.299399e+002
550625000 -6.692591e-001 -1.550096e+002 -5.446780e+001 -5.634692e+001 -5.520715e+001 -5.267066e+001 -1.800148e-001 1.297972e+002
551250000 -6.819552e-001 -1.553404e+002 -5.405533e+001 -6.100133e+001 -5.444880e+001 -5.857051e+001 -1.811249e-001 1.296448e+002
551875000 -6.990673e-001 -1.556906e+002 -5.481276e+001 -5.963407e+001 -5.483574e+001 -6.147775e+001 -1.868164e-001 1.294391e+002
552500000 -7.138945e-001 -1.560024e+002 -5.422424e+001 -6.155330e+001 -5.375849e+001 -6.161920e+001 -1.903984e-001 1.293062e+002
553125000 -7.129340e-001 -1.563139e+002 -5.354433e+001 -6.635831e+001 -5.392226e+001 -6.410162e+001 -1.869224e-001 1.292257e+002
553750000 -7.388547e-001 -1.566808e+002 -5.395183e+001 -6.889378e+001 -5.374690e+001 -6.599886e+001 -1.902574e-001 1.289892e+002
554375000 -7.541001e-001 -1.569948e+002 -5.420936e+001 -7.003441e+001 -5.342866e+001 -6.699676e+001 -1.876553e-001 1.288573e+002
555000000 -7.603994e-001 -1.573464e+002 -5.415299e+001 -6.840138e+001 -5.397379e+001 -6.852657e+001 -1.889937e-001 1.287362e+002
555625000 -7.791118e-001 -1.576385e+002 -5.410800e+001 -7.524837e+001 -5.409949e+001 -7.421299e+001 -1.690084e-001 1.286169e+002
556250000 -7.845955e-001 -1.580498e+002 -5.385713e+001 -6.868888e+001 -5.469322e+001 -6.963355e+001 -1.803265e-001 1.285246e+002
556875000 -7.967226e-001 -1.583732e+002 -5.441992e+001 -7.458423e+001 -5.435335e+001 -7.510529e+001 -1.790882e-001 1.284294e+002
557500000 -8.093743e-001 -1.586950e+002 -5.335597e+001 -7.338928e+001 -5.410189e+001 -7.828217e+001 -1.684248e-001 1.283947e+002
558125000 -8.281279e-001 -1.589536e+002 -5.349378e+001 -8.010294e+001 -5.343748e+001 -7.831554e+001 -1.755299e-001 1.283088e+002
558750000 -8.356636e-001 -1.593034e+002 -5.411045e+001 -8.019683e+001 -5.509905e+001 -7.325462e+001 -1.666835e-001 1.282686e+002
559375000 -8.547952e-001 -1.596270e+002 -5.328099e+001 -9.039765e+001 -5.273020e+001 -8.287651e+001 -1.635184e-001 1.282712e+002
560000000 -8.670937e-001 -1.598890e+002 -5.294805e+001 -8.792543e+001 -5.339974e+001 -8.043615e+001 -1.490437e-001 1.282090e+002
560625000 -8.747775e-001 -1.602271e+002 -5.294815e+001 -8.329118e+001 -5.335069e+001 -8.033321e+001 -1.436487e-001 1.282505e+002
561250000 -8.927370e-001 -1.605924e+002 -5.362978e+001 -8.562430e+001 -5.295080e+001 -8.300038e+001 -1.351547e-001 1.282939e+002
561875000 -9.050060e-001 -1.608922e+002 -5.263273e+001 -9.176478e+001 -5.278514e+001 -8.660815e+001 -1.453470e-001 1.283536e+002
562500000 -9.189994e-001 -1.612936e+002 -5.422456e+001 -8.933137e+001 -5.342809e+001 -8.715266e+001 -1.435397e-001 1.284312e+002
563125000 -9.155821e-001 -1.615933e+002 -5.301908e+001 -9.640902e+001 -5.309983e+001 -9.109608e+001 -1.303729e-001 1.284988e+002
563750000 -9.509391e-001 -1.620091e+002 -5.265859e+001 -9.001395e+001 -5.335962e+001 -9.068228e+001 -1.480949e-001 1.285199e+002
564375000 -9.611691e-001 -1.623315e+002 -5.308677e+001 -9.658437e+001 -5.362106e+001 -9.442680e+001 -1.485596e-001 1.285442e+002
565000000 -9.827147e-001 -1.627887e+002 -5.263311e+001 -1.003294e+002 -5.317011e+001 -9.816833e+001 -1.476128e-001 1.285385e+002
565625000 -1.006939e+000 -1.631514e+002 -5.283785e+001 -9.413174e+001 -5.357735e+001 -9.732545e+001 -1.574483e-001 1.285750e+002
566250000 -1.024932e+000 -1.636238e+002 -5.306773e+001 -9.901626e+001 -5.318825e+001 -9.222437e+001 -1.669928e-001 1.285557e+002
566875000 -1.055091e+000 -1.640381e+002 -5.289086e+001 -1.019142e+002 -5.387030e+001 -1.024386e+002 -1.675363e-001 1.284930e+002
567500000 -1.083436e+000 -1.644982e+002 -5.335838e+001 -1.047432e+002 -5.313409e+001 -1.011249e+002 -1.624890e-001 1.284981e+002
568125000 -1.110576e+000 -1.648548e+002 -5.294837e+001 -9.567047e+001 -5.241475e+001 -1.019501e+002 -1.756080e-001 1.283990e+002
568750000 -1.142792e+000 -1.652373e+002 -5.292582e+001 -1.090982e+002 -5.311694e+001 -1.024351e+002 -1.733285e-001 1.283925e+002
569375000 -1.166850e+000 -1.657059e+002 -5.303146e+001 -1.076096e+002 -5.327782e+001 -1.022176e+002 -1.690663e-001 1.283177e+002
570000000 -1.191059e+000 -1.661306e+002 -5.341646e+001 -1.095826e+002 -5.285420e+001 -1.035151e+002 -1.749326e-001 1.281650e+002
570625000 -1.203198e+000 -1.665374e+002 -5.231751e+001 -1.116528e+002 -5.252374e+001 -1.030119e+002 -1.708928e-001 1.281796e+002
571250000 -1.237400e+000 -1.669627e+002 -5.257506e+001 -1.084952e+002 -5.282767e+001 -1.035510e+002 -1.737354e-001 1.281609e+002
571875000 -1.261294e+000 -1.673576e+002 -5.289784e+001 -1.109661e+002 -5.235463e+001 -1.147135e+002 -1.735627e-001 1.280728e+002
572500000 -1.286802e+000 -1.678339e+002 -5.155515e+001 -1.092881e+002 -5.196722e+001 -1.106198e+002 -1.782232e-001 1.279666e+002
573125000 -1.320404e+000 -1.681948e+002 -5.245070e+001 -1.099101e+002 -5.150755e+001 -1.163171e+002 -1.686422e-001 1.279636e+002
573750000 -1.340191e+000 -1.685654e+002 -5.215933e+001 -1.182625e+002 -5.209139e+001 -1.148840e+002 -1.782848e-001 1.279046e+002
574375000 -1.366721e+000 -1.689471e+002 -5.103463e+001 -1.247964e+002 -5.165088e+001 -1.178945e+002 -1.743660e-001 1.278714e+002
575000000 -1.398218e+000 -1.693216e+002 -5.299648e+001 -1.197077e+002 -5.234813e+001 -1.176350e+002 -1.805395e-001 1.277723e+002
575625000 -1.429258e+000 -1.696554e+002 -5.161602e+001 -1.191256e+002 -5.242889e+001 -1.212582e+002 -1.753492e-001 1.277340e+002
576250000 -1.448612e+000 -1.700597e+002 -5.240908e+001 -1.217919e+002 -5.155116e+001 -1.254412e+002 -1.773978e-001 1.276631e+002
576875000 -1.471674e+000 -1.704397e+002 -5.192540e+001 -1.208220e+002 -5.139002e+001 -1.261789e+002 -1.785592e-001 1.275962e+002
577500000 -1.509666e+000 -1.707494e+002 -5.098812e+001 -1.317248e+002 -5.215919e+001 -1.292056e+002 -1.750080e-001 1.274414e+002
578125000 -1.530368e+000 -1.711247e+002 -5.130343e+001 -1.305468e+002 -5.213560e+001 -1.264040e+002 -1.835377e-001 1.273931e+002
578750000 -1.552522e+000 -1.715000e+002 -5.128292e+001 -1.303734e+002 -5.201802e+001 -1.319085e+002 -1.863892e-001 1.272039e+002
579375000 -1.569375e+000 -1.717958e+002 -5.170742e+001 -1.304421e+002 -5.149332e+001 -1.307887e+002 -1.900654e-001 1.270173e+002
580000000 -1.590441e+000 -1.721245e+002 -5.202912e+001 -1.371989e+002 -5.101313e+001 -1.314650e+002 -1.960133e-001 1.268952e+002
580625000 -1.606995e+000 -1.725125e+002 -5.164016e+001 -1.342771e+002 -5.115923e+001 -1.347412e+002 -1.961850e-001 1.266877e+002
581250000 -1.636805e+000 -1.728146e+002 -5.116359e+001 -1.396193e+002 -5.118777e+001 -1.301001e+002 -2.035118e-001 1.265233e+002
581875000 -1.653411e+000 -1.732475e+002 -5.194553e+001 -1.426812e+002 -5.096295e+001 -1.354602e+002 -2.059754e-001 1.263482e+002
582500000 -1.668237e+000 -1.736106e+002 -5.111810e+001 -1.394622e+002 -5.133837e+001 -1.412369e+002 -2.077678e-001 1.260472e+002
583125000 -1.673856e+000 -1.741395e+002 -5.172980e+001 -1.396473e+002 -5.094137e+001 -1.370025e+002 -2.157328e-001 1.258049e+002
583750000 -1.704833e+000 -1.746088e+002 -5.109185e+001 -1.416942e+002 -5.132024e+001 -1.410302e+002 -2.161510e-001 1.256005e+002
584375000 -1.722850e+000 -1.750435e+002 -5.206813e+001 -1.427604e+002 -5.147642e+001 -1.382199e+002 -2.010343e-001 1.254393e+002
585000000 -1.744506e+000 -1.755881e+002 -5.117511e+001 -1.475294e+002 -5.098240e+001 -1.443532e+002 -2.161774e-001 1.251947e+002
585625000 -1.777129e+000 -1.759973e+002 -5.088465e+001 -1.457859e+002 -5.182976e+001 -1.459960e+002 -1.959903e-001 1.249811e+002
586250000 -1.801377e+000 -1.764345e+002 -5.178604e+001 -1.477247e+002 -5.108773e+001 -1.440994e+002 -2.015067e-001 1.249390e+002
586875000 -1.812607e+000 -1.768797e+002 -5.172823e+001 -1.471516e+002 -5.103159e+001 -1.460001e+002 -1.946204e-001 1.246668e+002
587500000 -1.840117e+000 -1.773549e+002 -5.074801e+001 -1.517232e+002 -5.198152e+001 -1.489977e+002 -1.808333e-001 1.245340e+002
588125000 -1.851630e+000 -1.777416e+002 -5.140368e+001 -1.504937e+002 -5.174032e+001 -1.496220e+002 -1.782527e-001 1.244796e+002
588750000 -1.866187e+000 -1.781955e+002 -5.051684e+001 -1.542192e+002 -5.158573e+001 -1.500090e+002 -1.758006e-001 1.244152e+002
589375000 -1.891317e+000 -1.786890e+002 -5.064108e+001 -1.540037e+002 -5.092145e+001 -1.516567e+002 -1.600093e-001 1.243085e+002
590000000 -1.923124e+000 -1.791340e+002 -5.125517e+001 -1.606904e+002 -5.121426e+001 -1.585481e+002 -1.683275e-001 1.243230e+002
590625000 -1.946615e+000 -1.796025e+002 -5.059118e+001 -1.572844e+002 -5.021458e+001 -1.555890e+002 -1.617410e-001 1.242556e+002
591250000 -1.984403e+000 -1.799994e+002 -5.032643e+001 -1.592970e+002 -5.112529e+001 -1.597288e+002 -1.637150e-001 1.242652e+002
591875000 -2.019422e+000 1.796851e+002 -5.060057e+001 -1.612650e+002 -5.060049e+001 -1.605585e+002 -1.563372e-001 1.243065e+002
592500000 -2.053604e+000 1.793730e+002 -5.113074e+001 -1.598603e+002 -5.078083e+001 -1.641267e+002 -1.534809e-001 1.244186e+002
593125000 -2.092662e+000 1.791370e+002 -5.075835e+001 -1.642111e+002 -5.093344e+001 -1.674913e+002 -1.551635e-001 1.244757e+002
593750000 -2.116919e+000 1.787935e+002 -5.083616e+001 -1.694119e+002 -5.056348e+001 -1.686096e+002 -1.344520e-001 1.246124e+002
594375000 -2.136307e+000 1.785964e+002 -5.093742e+001 -1.637585e+002 -5.081171e+001 -1.617904e+002 -1.442350e-001 1.246443e+002
595000000 -2.165188e+000 1.783438e+002 -5.075388e+001 -1.681580e+002 -5.043459e+001 -1.632434e+002 -1.624660e-001 1.247092e+002
