!Agilent Technologies,E8364B,US42250235,A.06.04.32
!Agilent E8364B: A.06.04.32
!Date: Friday, January 15, 2021 16:10:46
!Correction: S11(Full 2 Port(1,2)) S21(Full 2 Port(1,2)) S12(Full 2 Port(1,2)) S22(Full 2 Port(1,2)) 
!S2P File: Measurements: S11, S21, S12, S22:
# Hz S  dB   R 50
500000000 -1.051733e-001 -1.295772e+002 -6.632554e+001 1.215847e+002 -6.410921e+001 1.045215e+002 -1.652658e-001 1.363237e+002
500625000 -1.104385e-001 -1.298044e+002 -6.388148e+001 1.203645e+002 -6.323817e+001 1.208789e+002 -1.632394e-001 1.363183e+002
501250000 -1.204196e-001 -1.300453e+002 -6.436650e+001 1.261818e+002 -6.526803e+001 1.330475e+002 -1.599063e-001 1.362708e+002
501875000 -1.157164e-001 -1.303666e+002 -6.589629e+001 1.341158e+002 -6.445904e+001 1.339109e+002 -1.542683e-001 1.361578e+002
502500000 -1.166446e-001 -1.306369e+002 -6.448597e+001 1.320063e+002 -6.312744e+001 1.294097e+002 -1.547781e-001 1.361420e+002
503125000 -1.345497e-001 -1.309331e+002 -6.237097e+001 1.137669e+002 -6.519437e+001 1.205992e+002 -1.610965e-001 1.360205e+002
503750000 -1.276802e-001 -1.311393e+002 -6.555518e+001 9.998184e+001 -6.280754e+001 1.221599e+002 -1.628263e-001 1.359297e+002
504375000 -1.380613e-001 -1.314253e+002 -6.601418e+001 1.324368e+002 -6.324946e+001 1.093488e+002 -1.718561e-001 1.358730e+002
505000000 -1.422066e-001 -1.317003e+002 -6.173212e+001 1.104393e+002 -6.467776e+001 1.159623e+002 -1.798553e-001 1.357926e+002
505625000 -1.369550e-001 -1.319166e+002 -6.164272e+001 1.308782e+002 -6.494482e+001 1.103974e+002 -1.700417e-001 1.356332e+002
506250000 -1.505737e-001 -1.322275e+002 -6.513062e+001 1.262393e+002 -6.627795e+001 9.804447e+001 -1.865845e-001 1.354834e+002
506875000 -1.539621e-001 -1.324669e+002 -6.249108e+001 1.220324e+002 -6.785958e+001 1.391451e+002 -1.784029e-001 1.352995e+002
507500000 -1.512934e-001 -1.327283e+002 -6.586578e+001 1.105162e+002 -6.216589e+001 1.065334e+002 -1.802692e-001 1.351245e+002
508125000 -1.585379e-001 -1.329864e+002 -6.913683e+001 9.727044e+001 -6.315627e+001 1.165970e+002 -1.847693e-001 1.349662e+002
508750000 -1.607253e-001 -1.331815e+002 -6.340410e+001 1.355779e+002 -6.253190e+001 1.150095e+002 -1.850424e-001 1.347514e+002
509375000 -1.671532e-001 -1.334851e+002 -6.433154e+001 1.207681e+002 -6.329530e+001 9.514185e+001 -1.872477e-001 1.345785e+002
510000000 -1.773797e-001 -1.337656e+002 -6.223220e+001 1.115386e+002 -5.930027e+001 1.101838e+002 -1.955639e-001 1.343996e+002
510625000 -1.752005e-001 -1.339295e+002 -6.312335e+001 1.123852e+002 -6.212297e+001 1.274893e+002 -1.874444e-001 1.341364e+002
511250000 -1.890062e-001 -1.341550e+002 -6.152896e+001 1.133550e+002 -6.234381e+001 1.163389e+002 -1.974294e-001 1.338852e+002
511875000 -1.830348e-001 -1.344847e+002 -6.280012e+001 1.112804e+002 -6.553139e+001 1.166737e+002 -1.955063e-001 1.336925e+002
512500000 -1.894038e-001 -1.347839e+002 -6.270692e+001 9.728728e+001 -6.289193e+001 9.193861e+001 -1.904543e-001 1.335148e+002
513125000 -1.965527e-001 -1.350715e+002 -6.326573e+001 1.062584e+002 -6.258811e+001 1.010486e+002 -1.924964e-001 1.333725e+002
513750000 -2.107978e-001 -1.353307e+002 -6.209666e+001 1.059052e+002 -6.102756e+001 1.131205e+002 -1.999069e-001 1.331749e+002
514375000 -2.153832e-001 -1.356319e+002 -6.467574e+001 1.024842e+002 -6.116457e+001 1.111947e+002 -1.821297e-001 1.329496e+002
515000000 -2.189265e-001 -1.359113e+002 -6.218742e+001 1.155484e+002 -6.275618e+001 1.152294e+002 -1.763873e-001 1.328349e+002
515625000 -2.287005e-001 -1.362973e+002 -6.392860e+001 8.679310e+001 -6.308231e+001 1.062449e+002 -1.709732e-001 1.326750e+002
516250000 -2.316293e-001 -1.365793e+002 -6.092159e+001 1.145234e+002 -6.329160e+001 9.720187e+001 -1.736370e-001 1.326369e+002
516875000 -2.429449e-001 -1.368928e+002 -6.120956e+001 1.039754e+002 -6.327089e+001 1.088417e+002 -1.680413e-001 1.325975e+002
517500000 -2.452471e-001 -1.371839e+002 -6.092945e+001 1.020952e+002 -6.116250e+001 1.090487e+002 -1.746783e-001 1.324909e+002
518125000 -2.480560e-001 -1.375575e+002 -6.133788e+001 1.192641e+002 -6.264397e+001 1.136971e+002 -1.590215e-001 1.324390e+002
518750000 -2.592803e-001 -1.378828e+002 -6.336853e+001 8.660033e+001 -6.034418e+001 7.974557e+001 -1.506512e-001 1.325085e+002
519375000 -2.687822e-001 -1.381935e+002 -6.117164e+001 9.854415e+001 -6.222863e+001 9.339689e+001 -1.513229e-001 1.324784e+002
520000000 -2.685166e-001 -1.385960e+002 -6.192371e+001 9.739729e+001 -6.284409e+001 9.573084e+001 -1.490760e-001 1.324471e+002
520625000 -2.750093e-001 -1.389802e+002 -6.192974e+001 8.821677e+001 -6.306406e+001 1.247882e+002 -1.384087e-001 1.324199e+002
521250000 -2.843812e-001 -1.392781e+002 -6.072554e+001 1.066902e+002 -6.384367e+001 1.041590e+002 -1.374209e-001 1.324673e+002
521875000 -2.763741e-001 -1.396622e+002 -6.255267e+001 1.021888e+002 -5.997963e+001 1.036760e+002 -1.373330e-001 1.325234e+002
522500000 -2.824289e-001 -1.400338e+002 -6.038985e+001 9.576514e+001 -6.214513e+001 1.022384e+002 -1.440383e-001 1.325336e+002
523125000 -3.011851e-001 -1.403675e+002 -6.020783e+001 9.386678e+001 -6.331034e+001 7.750751e+001 -1.483483e-001 1.325002e+002
523750000 -2.968979e-001 -1.407063e+002 -6.189783e+001 9.198882e+001 -6.440081e+001 9.570068e+001 -1.402549e-001 1.325256e+002
524375000 -3.182146e-001 -1.410588e+002 -5.961176e+001 9.851590e+001 -6.103212e+001 9.495480e+001 -1.421820e-001 1.325311e+002
525000000 -3.180368e-001 -1.414383e+002 -5.995810e+001 8.791889e+001 -6.037937e+001 9.474254e+001 -1.468174e-001 1.325818e+002
525625000 -3.337531e-001 -1.417120e+002 -6.063990e+001 8.627406e+001 -6.223834e+001 8.651466e+001 -1.558504e-001 1.325594e+002
526250000 -3.332649e-001 -1.420490e+002 -6.286897e+001 9.165846e+001 -6.063351e+001 8.631761e+001 -1.592760e-001 1.326083e+002
526875000 -3.483582e-001 -1.424147e+002 -6.034401e+001 9.803756e+001 -6.024711e+001 8.425228e+001 -1.464432e-001 1.325577e+002
527500000 -3.603817e-001 -1.427194e+002 -6.073504e+001 8.733552e+001 -6.199506e+001 8.736382e+001 -1.511926e-001 1.326018e+002
528125000 -3.828351e-001 -1.430820e+002 -6.114161e+001 8.601136e+001 -6.303781e+001 8.754160e+001 -1.588842e-001 1.326576e+002
528750000 -3.809241e-001 -1.433632e+002 -6.302246e+001 9.562011e+001 -6.051276e+001 9.491853e+001 -1.496985e-001 1.327351e+002
529375000 -4.040067e-001 -1.437167e+002 -6.103281e+001 1.004906e+002 -6.168183e+001 9.123363e+001 -1.561964e-001 1.326531e+002
530000000 -4.108032e-001 -1.440863e+002 -5.707766e+001 8.563452e+001 -6.147614e+001 8.498696e+001 -1.585724e-001 1.326680e+002
530625000 -4.259126e-001 -1.443544e+002 -6.004461e+001 8.520784e+001 -6.062737e+001 8.859599e+001 -1.585984e-001 1.326501e+002
531250000 -4.343514e-001 -1.447182e+002 -6.301449e+001 8.520589e+001 -6.136794e+001 7.798186e+001 -1.495192e-001 1.326895e+002
531875000 -4.573777e-001 -1.449914e+002 -5.986848e+001 8.517525e+001 -6.096965e+001 8.102663e+001 -1.592636e-001 1.326311e+002
532500000 -4.615265e-001 -1.452943e+002 -6.079192e+001 7.155468e+001 -6.296847e+001 7.469248e+001 -1.552350e-001 1.327136e+002
533125000 -4.750983e-001 -1.456292e+002 -6.087697e+001 8.116029e+001 -6.115151e+001 7.770341e+001 -1.632699e-001 1.327381e+002
533750000 -4.791444e-001 -1.459536e+002 -6.201775e+001 8.631541e+001 -5.905703e+001 8.729123e+001 -1.760119e-001 1.326430e+002
534375000 -4.911706e-001 -1.463247e+002 -5.880168e+001 8.020950e+001 -6.159103e+001 7.584731e+001 -1.554156e-001 1.326104e+002
535000000 -5.011363e-001 -1.465851e+002 -6.162438e+001 7.903624e+001 -5.996047e+001 6.804440e+001 -1.611620e-001 1.325927e+002
535625000 -5.110725e-001 -1.469375e+002 -5.974980e+001 8.101146e+001 -6.120456e+001 8.621104e+001 -1.639223e-001 1.325520e+002
536250000 -5.129033e-001 -1.472901e+002 -6.081721e+001 7.965378e+001 -6.025739e+001 7.485098e+001 -1.629663e-001 1.324235e+002
536875000 -5.235558e-001 -1.476402e+002 -6.104947e+001 8.199769e+001 -6.038702e+001 7.937714e+001 -1.635366e-001 1.323610e+002
537500000 -5.240182e-001 -1.479159e+002 -6.061656e+001 6.810707e+001 -6.038125e+001 7.642738e+001 -1.629398e-001 1.323083e+002
538125000 -5.391071e-001 -1.482959e+002 -6.066885e+001 6.645807e+001 -5.991605e+001 7.479606e+001 -1.715893e-001 1.322654e+002
538750000 -5.481651e-001 -1.486106e+002 -5.943043e+001 8.213202e+001 -5.969967e+001 7.530450e+001 -1.683730e-001 1.321607e+002
539375000 -5.577472e-001 -1.489495e+002 -6.028946e+001 7.808789e+001 -5.957192e+001 7.341067e+001 -1.729506e-001 1.320878e+002
540000000 -5.663137e-001 -1.493004e+002 -5.935341e+001 7.542893e+001 -5.928313e+001 7.172420e+001 -1.720717e-001 1.319501e+002
540625000 -5.713664e-001 -1.496338e+002 -6.121060e+001 7.222970e+001 -5.885498e+001 7.032848e+001 -1.719130e-001 1.318397e+002
541250000 -5.806064e-001 -1.499376e+002 -5.878677e+001 7.280241e+001 -5.930542e+001 6.309792e+001 -1.695291e-001 1.317804e+002
541875000 -5.898545e-001 -1.502624e+002 -6.071433e+001 7.728348e+001 -5.724623e+001 7.083656e+001 -1.746347e-001 1.316948e+002
542500000 -5.979528e-001 -1.505913e+002 -6.006047e+001 7.543430e+001 -5.845562e+001 6.415769e+001 -1.726748e-001 1.316546e+002
543125000 -5.976374e-001 -1.509086e+002 -6.021445e+001 7.170695e+001 -5.973964e+001 7.814144e+001 -1.703730e-001 1.315427e+002
543750000 -6.131840e-001 -1.512726e+002 -5.903671e+001 5.910376e+001 -5.822203e+001 6.958020e+001 -1.779028e-001 1.315140e+002
544375000 -6.213502e-001 -1.515594e+002 -5.869218e+001 6.738432e+001 -6.035981e+001 5.668039e+001 -1.689183e-001 1.314435e+002
545000000 -6.290855e-001 -1.519410e+002 -5.840999e+001 6.169839e+001 -5.804677e+001 6.218679e+001 -1.687700e-001 1.313810e+002
545625000 -6.366968e-001 -1.522668e+002 -5.999733e+001 5.925383e+001 -5.850079e+001 6.510713e+001 -1.715967e-001 1.313491e+002
546250000 -6.621192e-001 -1.526229e+002 -5.840501e+001 6.235947e+001 -5.734368e+001 5.886745e+001 -1.698369e-001 1.312543e+002
546875000 -6.693261e-001 -1.529961e+002 -5.952433e+001 6.353807e+001 -5.805817e+001 6.582021e+001 -1.766016e-001 1.312832e+002
547500000 -6.914246e-001 -1.533630e+002 -5.738018e+001 6.454440e+001 -5.716326e+001 6.424094e+001 -1.692349e-001 1.312583e+002
548125000 -7.083714e-001 -1.536290e+002 -5.923232e+001 6.164667e+001 -5.853827e+001 5.458807e+001 -1.747648e-001 1.310981e+002
548750000 -7.154637e-001 -1.540632e+002 -6.021193e+001 6.996335e+001 -5.823462e+001 5.253170e+001 -1.794875e-001 1.310914e+002
549375000 -7.341104e-001 -1.544053e+002 -5.907740e+001 5.394345e+001 -5.747381e+001 5.924914e+001 -1.870343e-001 1.308948e+002
550000000 -7.526954e-001 -1.547318e+002 -5.838440e+001 5.708333e+001 -5.838255e+001 5.819292e+001 -1.847371e-001 1.308242e+002
550625000 -7.709839e-001 -1.550635e+002 -5.694575e+001 5.691755e+001 -5.782250e+001 6.353830e+001 -1.865256e-001 1.307228e+002
551250000 -7.811154e-001 -1.553678e+002 -5.767423e+001 5.074429e+001 -5.773383e+001 5.314129e+001 -1.915087e-001 1.305708e+002
551875000 -8.005965e-001 -1.557375e+002 -5.798264e+001 5.563271e+001 -5.774851e+001 5.352135e+001 -1.896543e-001 1.304204e+002
552500000 -8.134763e-001 -1.560474e+002 -5.683946e+001 6.044756e+001 -5.767866e+001 6.112312e+001 -1.906192e-001 1.302729e+002
553125000 -8.223743e-001 -1.563896e+002 -5.677008e+001 6.020890e+001 -5.702142e+001 6.093181e+001 -1.953159e-001 1.301132e+002
553750000 -8.447211e-001 -1.567066e+002 -5.774418e+001 5.433709e+001 -5.619210e+001 6.008096e+001 -2.012167e-001 1.299115e+002
554375000 -8.594314e-001 -1.569774e+002 -5.835891e+001 5.049577e+001 -5.567269e+001 5.123630e+001 -1.935606e-001 1.297677e+002
555000000 -8.804587e-001 -1.573631e+002 -5.770354e+001 5.047097e+001 -5.933089e+001 5.525330e+001 -1.919058e-001 1.296694e+002
555625000 -9.024242e-001 -1.575609e+002 -5.754336e+001 5.416041e+001 -5.626340e+001 4.733501e+001 -1.837657e-001 1.295661e+002
556250000 -9.195747e-001 -1.579587e+002 -5.804306e+001 5.203698e+001 -5.699881e+001 4.253647e+001 -1.885051e-001 1.294403e+002
556875000 -9.266695e-001 -1.582193e+002 -5.677776e+001 4.282306e+001 -5.685732e+001 5.058903e+001 -1.958148e-001 1.293410e+002
557500000 -9.487133e-001 -1.584270e+002 -5.632943e+001 4.967402e+001 -5.663235e+001 5.270688e+001 -1.777262e-001 1.292488e+002
558125000 -9.587148e-001 -1.587195e+002 -5.636228e+001 4.446039e+001 -5.676899e+001 4.472636e+001 -1.831351e-001 1.292903e+002
558750000 -9.724932e-001 -1.589429e+002 -5.694453e+001 4.672349e+001 -5.765965e+001 3.968955e+001 -1.709602e-001 1.292088e+002
559375000 -9.847276e-001 -1.592608e+002 -5.567724e+001 3.492736e+001 -5.858451e+001 4.500163e+001 -1.642825e-001 1.292119e+002
560000000 -9.984748e-001 -1.594275e+002 -5.649191e+001 3.815443e+001 -5.734143e+001 3.446637e+001 -1.500078e-001 1.291752e+002
560625000 -1.002327e+000 -1.597030e+002 -5.725122e+001 3.948236e+001 -5.648049e+001 3.916611e+001 -1.491024e-001 1.292863e+002
561250000 -1.006302e+000 -1.600706e+002 -5.756174e+001 4.485749e+001 -5.654182e+001 3.887835e+001 -1.488319e-001 1.292733e+002
561875000 -1.021619e+000 -1.603636e+002 -5.636242e+001 3.443214e+001 -5.714229e+001 4.289875e+001 -1.500730e-001 1.293730e+002
562500000 -1.031661e+000 -1.606623e+002 -5.559176e+001 4.307960e+001 -5.647376e+001 4.403904e+001 -1.466100e-001 1.294364e+002
563125000 -1.035178e+000 -1.609791e+002 -5.666418e+001 3.535481e+001 -5.750101e+001 3.508091e+001 -1.363808e-001 1.294592e+002
563750000 -1.059339e+000 -1.613132e+002 -5.769762e+001 4.387288e+001 -5.671825e+001 3.341900e+001 -1.508920e-001 1.295021e+002
564375000 -1.079782e+000 -1.616450e+002 -5.570654e+001 3.909322e+001 -5.764405e+001 3.153148e+001 -1.528909e-001 1.295552e+002
565000000 -1.086130e+000 -1.620899e+002 -5.687579e+001 3.637342e+001 -5.567712e+001 3.436069e+001 -1.532727e-001 1.295824e+002
565625000 -1.109312e+000 -1.624254e+002 -5.614524e+001 3.617512e+001 -5.653083e+001 2.343837e+001 -1.656247e-001 1.295948e+002
566250000 -1.121451e+000 -1.628745e+002 -5.705045e+001 3.034877e+001 -5.655637e+001 3.643826e+001 -1.688900e-001 1.295534e+002
566875000 -1.149723e+000 -1.632502e+002 -5.625494e+001 3.947047e+001 -5.611318e+001 3.871223e+001 -1.641646e-001 1.295231e+002
567500000 -1.178766e+000 -1.637032e+002 -5.743251e+001 3.063568e+001 -5.638431e+001 2.107185e+001 -1.732730e-001 1.294934e+002
568125000 -1.193832e+000 -1.640943e+002 -5.539298e+001 3.592493e+001 -5.644339e+001 2.346132e+001 -1.723620e-001 1.294798e+002
568750000 -1.221370e+000 -1.644377e+002 -5.690969e+001 3.849111e+001 -5.619200e+001 2.647969e+001 -1.762626e-001 1.293977e+002
569375000 -1.246252e+000 -1.648564e+002 -5.699678e+001 2.904190e+001 -5.531550e+001 3.131366e+001 -1.799482e-001 1.293615e+002
570000000 -1.262044e+000 -1.652843e+002 -5.625368e+001 1.870406e+001 -5.637735e+001 2.871084e+001 -1.841912e-001 1.292617e+002
570625000 -1.282261e+000 -1.656431e+002 -5.619275e+001 3.036464e+001 -5.567253e+001 2.874791e+001 -1.811617e-001 1.291718e+002
571250000 -1.298471e+000 -1.660597e+002 -5.565581e+001 2.084876e+001 -5.603314e+001 3.181687e+001 -1.911713e-001 1.291783e+002
571875000 -1.320360e+000 -1.664333e+002 -5.554086e+001 2.612538e+001 -5.543827e+001 2.568662e+001 -1.852470e-001 1.290524e+002
572500000 -1.350927e+000 -1.668638e+002 -5.493464e+001 1.686870e+001 -5.571944e+001 2.054715e+001 -1.794467e-001 1.290134e+002
573125000 -1.368468e+000 -1.672741e+002 -5.563312e+001 1.790113e+001 -5.621075e+001 2.378914e+001 -1.726484e-001 1.289141e+002
573750000 -1.387919e+000 -1.676423e+002 -5.497224e+001 2.415303e+001 -5.587305e+001 2.906577e+001 -1.839486e-001 1.288907e+002
574375000 -1.406780e+000 -1.680125e+002 -5.551547e+001 1.849018e+001 -5.512460e+001 2.590173e+001 -1.785019e-001 1.288613e+002
575000000 -1.434374e+000 -1.683898e+002 -5.506533e+001 2.166585e+001 -5.556488e+001 1.880164e+001 -1.721688e-001 1.287794e+002
575625000 -1.460153e+000 -1.687029e+002 -5.596064e+001 2.065321e+001 -5.678563e+001 1.660940e+001 -1.874562e-001 1.287495e+002
576250000 -1.478841e+000 -1.690151e+002 -5.542104e+001 1.593718e+001 -5.520411e+001 1.741220e+001 -1.894432e-001 1.286559e+002
576875000 -1.497494e+000 -1.693613e+002 -5.474104e+001 1.829878e+001 -5.538832e+001 1.878166e+001 -1.845648e-001 1.285947e+002
577500000 -1.532236e+000 -1.696823e+002 -5.477180e+001 1.900780e+001 -5.528296e+001 1.736369e+001 -1.838581e-001 1.284391e+002
578125000 -1.545939e+000 -1.699937e+002 -5.526500e+001 1.094652e+001 -5.553680e+001 8.623912e+000 -1.820370e-001 1.284273e+002
578750000 -1.554544e+000 -1.703023e+002 -5.601529e+001 1.691305e+001 -5.552712e+001 1.073772e+001 -1.954587e-001 1.282516e+002
579375000 -1.569201e+000 -1.706662e+002 -5.502839e+001 1.435678e+001 -5.527183e+001 1.047890e+001 -1.985245e-001 1.280334e+002
580000000 -1.583293e+000 -1.709611e+002 -5.595120e+001 1.343381e+001 -5.594980e+001 1.408950e+001 -1.981614e-001 1.279589e+002
580625000 -1.603391e+000 -1.713047e+002 -5.536860e+001 9.598203e+000 -5.516553e+001 7.993918e+000 -1.974717e-001 1.277334e+002
581250000 -1.618354e+000 -1.716590e+002 -5.515069e+001 8.868045e+000 -5.379258e+001 9.463965e+000 -2.075307e-001 1.275660e+002
581875000 -1.635286e+000 -1.720839e+002 -5.538172e+001 1.113683e+001 -5.622748e+001 1.264378e+001 -2.125880e-001 1.273197e+002
582500000 -1.635053e+000 -1.724386e+002 -5.609261e+001 7.433525e+000 -5.482653e+001 6.972814e+000 -2.067875e-001 1.271245e+002
583125000 -1.641223e+000 -1.729424e+002 -5.505036e+001 1.487879e+000 -5.476112e+001 5.901498e+000 -2.246560e-001 1.268313e+002
583750000 -1.660739e+000 -1.733484e+002 -5.603778e+001 1.280892e+001 -5.564846e+001 2.616873e+000 -2.247889e-001 1.266218e+002
584375000 -1.665293e+000 -1.738658e+002 -5.542149e+001 1.117839e+001 -5.489455e+001 1.074949e+001 -2.129718e-001 1.263600e+002
585000000 -1.672249e+000 -1.742849e+002 -5.521391e+001 8.673875e+000 -5.465627e+001 8.805599e+000 -2.251048e-001 1.261767e+002
585625000 -1.706081e+000 -1.747848e+002 -5.527557e+001 2.284930e+000 -5.565349e+001 5.796902e+000 -2.135085e-001 1.259623e+002
586250000 -1.713606e+000 -1.752837e+002 -5.534073e+001 1.077918e+001 -5.518502e+001 5.893550e+000 -2.049416e-001 1.258655e+002
586875000 -1.720389e+000 -1.758507e+002 -5.490442e+001 5.505158e+000 -5.393459e+001 5.809795e+000 -2.060985e-001 1.256525e+002
587500000 -1.745598e+000 -1.763285e+002 -5.377269e+001 2.378934e+000 -5.385134e+001 5.790230e+000 -1.959944e-001 1.255048e+002
588125000 -1.755654e+000 -1.767938e+002 -5.445537e+001 4.572617e+000 -5.403438e+001 1.263532e+001 -1.903697e-001 1.254422e+002
588750000 -1.775456e+000 -1.772833e+002 -5.408349e+001 3.380911e+000 -5.471926e+001 -5.283437e-001 -1.857254e-001 1.253856e+002
589375000 -1.795103e+000 -1.777961e+002 -5.390594e+001 4.562364e+000 -5.344223e+001 8.183585e+000 -1.648545e-001 1.252826e+002
590000000 -1.825725e+000 -1.782403e+002 -5.377954e+001 3.884408e+000 -5.382910e+001 5.411680e-001 -1.709039e-001 1.253268e+002
590625000 -1.850478e+000 -1.786667e+002 -5.351193e+001 2.969608e+000 -5.325020e+001 7.280584e+000 -1.657971e-001 1.252678e+002
591250000 -1.881771e+000 -1.790497e+002 -5.439419e+001 -8.517142e-001 -5.423470e+001 -1.077436e+000 -1.639088e-001 1.253020e+002
591875000 -1.916900e+000 -1.793434e+002 -5.380205e+001 -7.203951e+000 -5.398438e+001 9.289388e-001 -1.602032e-001 1.253123e+002
592500000 -1.949273e+000 -1.796535e+002 -5.400326e+001 -4.305567e+000 -5.430210e+001 -5.055079e+000 -1.518957e-001 1.253963e+002
593125000 -1.974049e+000 -1.799241e+002 -5.463897e+001 -2.360603e+000 -5.313559e+001 -7.731914e+000 -1.562518e-001 1.255137e+002
593750000 -1.988217e+000 1.797650e+002 -5.343124e+001 -3.894373e+000 -5.306194e+001 -1.218108e+001 -1.495631e-001 1.255790e+002
594375000 -2.008356e+000 1.794785e+002 -5.389980e+001 -4.745228e+000 -5.345812e+001 -8.164755e+000 -1.520905e-001 1.256407e+002
595000000 -2.024748e+000 1.792079e+002 -5.341424e+001 -6.353023e+000 -5.322387e+001 -2.869070e+000 -1.659382e-001 1.257136e+002
595625000 -2.035483e+000 1.788300e+002 -5.358105e+001 -9.678937e+000 -5.227216e+001 -1.237541e+001 -1.534354e-001 1.257934e+002
596250000 -2.062536e+000 1.784989e+002 -5.332947e+001 -9.892304e+000 -5.268563e+001 -1.055614e+001 -1.632542e-001 1.257895e+002
