!Agilent Technologies,E8364B,US42250235,A.06.04.32
!Agilent E8364B: A.06.04.32
!Date: Friday, January 15, 2021 16:12:19
!Correction: S11(Full 2 Port(1,2)) S21(Full 2 Port(1,2)) S12(Full 2 Port(1,2)) S22(Full 2 Port(1,2)) 
!S2P File: Measurements: S11, S21, S12, S22:
# Hz S  dB   R 50
500000000 -1.311764e-001 -1.294383e+002 -6.379731e+001 -4.630061e+000 -6.305450e+001 3.309884e+001 -1.626772e-001 1.361715e+002
500625000 -1.308565e-001 -1.296812e+002 -6.218986e+001 9.103813e+000 -6.305184e+001 1.058045e+000 -1.648659e-001 1.361874e+002
501250000 -1.401224e-001 -1.298895e+002 -6.457553e+001 1.763470e+001 -6.351318e+001 4.643224e+000 -1.642413e-001 1.360847e+002
501875000 -1.369445e-001 -1.302215e+002 -6.318672e+001 -7.970416e+000 -6.237325e+001 -7.762022e-001 -1.530971e-001 1.360390e+002
502500000 -1.376523e-001 -1.304530e+002 -6.661853e+001 1.194663e+001 -6.125106e+001 2.441509e+001 -1.524391e-001 1.360726e+002
503125000 -1.449138e-001 -1.307532e+002 -6.405836e+001 1.508925e+001 -6.271987e+001 1.172311e+001 -1.577293e-001 1.358474e+002
503750000 -1.349071e-001 -1.309757e+002 -6.528601e+001 1.177239e+001 -6.498777e+001 7.436398e+000 -1.697669e-001 1.358091e+002
504375000 -1.523625e-001 -1.312551e+002 -6.176533e+001 -4.196511e+000 -6.517888e+001 -9.248949e+000 -1.722506e-001 1.357356e+002
505000000 -1.567540e-001 -1.315457e+002 -6.290376e+001 2.214930e+000 -6.461935e+001 1.539315e+001 -1.752564e-001 1.356653e+002
505625000 -1.526602e-001 -1.317092e+002 -6.306402e+001 1.633232e+001 -6.469290e+001 1.449585e+001 -1.756466e-001 1.355247e+002
506250000 -1.591685e-001 -1.320347e+002 -6.332331e+001 5.472167e+000 -6.493307e+001 4.716591e+000 -1.798118e-001 1.353536e+002
506875000 -1.612921e-001 -1.322400e+002 -6.349909e+001 1.612043e+001 -6.497810e+001 1.308116e+000 -1.821223e-001 1.352000e+002
507500000 -1.710958e-001 -1.324770e+002 -6.270926e+001 1.346119e+001 -6.446443e+001 9.595260e+000 -1.795425e-001 1.349925e+002
508125000 -1.698883e-001 -1.327294e+002 -6.250406e+001 -7.591839e+000 -6.366046e+001 1.892708e+001 -1.743243e-001 1.348295e+002
508750000 -1.775557e-001 -1.329240e+002 -6.272347e+001 -1.558258e+001 -6.207818e+001 4.100690e+000 -1.868456e-001 1.346213e+002
509375000 -1.825529e-001 -1.332433e+002 -6.246714e+001 -9.392665e+000 -6.501984e+001 -1.239615e+001 -1.805820e-001 1.344866e+002
510000000 -1.825804e-001 -1.334787e+002 -6.262346e+001 -1.909167e+000 -6.468315e+001 2.999027e+000 -1.899794e-001 1.342453e+002
510625000 -1.915044e-001 -1.337019e+002 -6.168678e+001 1.012989e+001 -6.496864e+001 -1.378275e+001 -1.841210e-001 1.340473e+002
511250000 -1.993485e-001 -1.339340e+002 -6.333224e+001 -1.185412e+001 -6.288363e+001 -3.324770e+000 -1.964204e-001 1.338356e+002
511875000 -1.969038e-001 -1.342535e+002 -6.223605e+001 1.240951e+001 -5.960054e+001 -1.748971e+001 -1.868467e-001 1.335427e+002
512500000 -1.908554e-001 -1.344886e+002 -6.148673e+001 1.055390e+001 -6.189579e+001 -1.281907e+001 -1.972010e-001 1.333688e+002
513125000 -2.002428e-001 -1.347914e+002 -5.904911e+001 -7.537805e+000 -6.320872e+001 -9.050291e+000 -1.914987e-001 1.332314e+002
513750000 -2.130491e-001 -1.350446e+002 -6.098159e+001 -1.335408e+001 -6.337038e+001 -1.002868e+001 -1.924532e-001 1.330561e+002
514375000 -2.162884e-001 -1.353495e+002 -5.946506e+001 -3.425512e+000 -6.075081e+001 -1.775407e+001 -1.752067e-001 1.327969e+002
515000000 -2.220528e-001 -1.356416e+002 -6.636867e+001 4.670782e+000 -6.047007e+001 -1.278622e+001 -1.748706e-001 1.326945e+002
515625000 -2.325420e-001 -1.360370e+002 -6.142628e+001 -6.359991e+000 -6.302558e+001 6.150191e+000 -1.738379e-001 1.326476e+002
516250000 -2.324736e-001 -1.362852e+002 -6.240841e+001 4.641889e+000 -6.249097e+001 -2.423131e+000 -1.745192e-001 1.324481e+002
516875000 -2.451397e-001 -1.365794e+002 -6.302726e+001 -9.781801e+000 -6.151939e+001 -6.988250e-002 -1.613181e-001 1.324962e+002
517500000 -2.423543e-001 -1.369069e+002 -6.379030e+001 -1.431413e+001 -6.281180e+001 -5.372547e+000 -1.605563e-001 1.323746e+002
518125000 -2.387493e-001 -1.372584e+002 -6.023035e+001 -1.181390e+001 -6.407673e+001 -2.411599e+001 -1.562155e-001 1.323462e+002
518750000 -2.546284e-001 -1.375855e+002 -6.319149e+001 -2.026897e+001 -6.234993e+001 -1.138591e+001 -1.512677e-001 1.323422e+002
519375000 -2.633744e-001 -1.378855e+002 -6.140786e+001 -8.461082e+000 -6.278992e+001 -2.620066e+001 -1.439679e-001 1.323329e+002
520000000 -2.580389e-001 -1.382312e+002 -6.175999e+001 -2.180119e+001 -6.353003e+001 -3.937238e-001 -1.429093e-001 1.323351e+002
520625000 -2.622751e-001 -1.386363e+002 -6.109396e+001 -1.432612e+001 -6.104925e+001 -2.304519e+001 -1.452564e-001 1.322776e+002
521250000 -2.692740e-001 -1.389837e+002 -6.074832e+001 -1.441120e+001 -6.172972e+001 -1.635623e+001 -1.414003e-001 1.323040e+002
521875000 -2.656178e-001 -1.393917e+002 -6.151926e+001 -1.236030e+001 -6.051105e+001 -2.521101e+001 -1.410627e-001 1.323937e+002
522500000 -2.709650e-001 -1.397078e+002 -6.245596e+001 -1.925331e+001 -6.109985e+001 -2.989818e+001 -1.356329e-001 1.323770e+002
523125000 -2.879712e-001 -1.400425e+002 -6.060666e+001 -2.161132e+000 -6.246951e+001 -3.406335e+001 -1.330764e-001 1.324205e+002
523750000 -2.797704e-001 -1.404127e+002 -6.329729e+001 -2.466505e+001 -6.095098e+001 -2.086557e+001 -1.359758e-001 1.324288e+002
524375000 -3.018838e-001 -1.407749e+002 -6.055765e+001 -2.383406e+001 -6.010042e+001 -2.509391e+001 -1.326771e-001 1.324347e+002
525000000 -2.955253e-001 -1.411508e+002 -6.133564e+001 -2.654498e+001 -6.011139e+001 -3.394826e+001 -1.494227e-001 1.324697e+002
525625000 -3.160313e-001 -1.414119e+002 -6.122245e+001 -1.221520e+001 -6.033130e+001 -3.323287e+001 -1.568953e-001 1.324950e+002
526250000 -3.113840e-001 -1.417011e+002 -5.994547e+001 -1.221742e+001 -5.978143e+001 -2.428550e+001 -1.483946e-001 1.324374e+002
526875000 -3.302124e-001 -1.420815e+002 -6.038871e+001 -2.960793e+001 -5.966506e+001 -1.511751e+001 -1.435067e-001 1.324520e+002
527500000 -3.376527e-001 -1.423882e+002 -6.135916e+001 -2.178611e+001 -6.108189e+001 -3.773789e+001 -1.447466e-001 1.324954e+002
528125000 -3.629396e-001 -1.427508e+002 -5.967572e+001 -3.373620e+001 -6.057637e+001 -2.252198e+001 -1.471369e-001 1.325350e+002
528750000 -3.581123e-001 -1.430413e+002 -6.027301e+001 -2.572562e+001 -6.075189e+001 -1.570047e+001 -1.515767e-001 1.325860e+002
529375000 -3.755903e-001 -1.433397e+002 -6.011129e+001 -4.099018e+001 -6.116709e+001 -2.491919e+001 -1.448518e-001 1.325488e+002
530000000 -3.819520e-001 -1.436970e+002 -6.083619e+001 -3.847782e+001 -5.940196e+001 -3.662884e+001 -1.559057e-001 1.325337e+002
530625000 -3.958156e-001 -1.439941e+002 -5.889898e+001 -4.299790e+001 -6.068615e+001 -4.924207e+001 -1.520351e-001 1.325735e+002
531250000 -4.038977e-001 -1.443629e+002 -5.901040e+001 -2.010284e+001 -5.994681e+001 -3.638832e+001 -1.441844e-001 1.325451e+002
531875000 -4.223019e-001 -1.446272e+002 -5.844183e+001 -3.858189e+001 -5.989548e+001 -3.655006e+001 -1.451701e-001 1.325004e+002
532500000 -4.237588e-001 -1.449086e+002 -5.972455e+001 -4.558579e+001 -5.962713e+001 -4.477191e+001 -1.568266e-001 1.325850e+002
533125000 -4.303287e-001 -1.452733e+002 -6.083511e+001 -4.491970e+001 -6.137977e+001 -4.608414e+001 -1.644808e-001 1.325386e+002
533750000 -4.355151e-001 -1.456325e+002 -6.129283e+001 -3.591364e+001 -6.196054e+001 -4.106204e+001 -1.676352e-001 1.324857e+002
534375000 -4.410419e-001 -1.459111e+002 -5.830938e+001 -4.435381e+001 -5.996853e+001 -4.992853e+001 -1.441036e-001 1.324823e+002
535000000 -4.449649e-001 -1.462517e+002 -6.145542e+001 -5.251851e+001 -5.858401e+001 -4.390364e+001 -1.606777e-001 1.324809e+002
535625000 -4.527315e-001 -1.466084e+002 -6.046220e+001 -5.155416e+001 -6.095746e+001 -4.621821e+001 -1.559051e-001 1.324286e+002
536250000 -4.589215e-001 -1.469540e+002 -6.017881e+001 -5.152051e+001 -5.900069e+001 -4.258839e+001 -1.565976e-001 1.323077e+002
536875000 -4.675357e-001 -1.473163e+002 -5.853366e+001 -5.072957e+001 -6.087540e+001 -4.895891e+001 -1.682945e-001 1.322455e+002
537500000 -4.655914e-001 -1.476012e+002 -5.913543e+001 -5.632194e+001 -5.902211e+001 -4.907332e+001 -1.590016e-001 1.322306e+002
538125000 -4.702775e-001 -1.479797e+002 -6.054560e+001 -4.727472e+001 -6.005631e+001 -4.367848e+001 -1.736236e-001 1.321247e+002
538750000 -4.810270e-001 -1.483511e+002 -5.963250e+001 -5.246533e+001 -5.832212e+001 -6.630630e+001 -1.627348e-001 1.320483e+002
539375000 -4.933421e-001 -1.486746e+002 -6.042439e+001 -5.970850e+001 -6.132207e+001 -5.144993e+001 -1.718470e-001 1.319709e+002
540000000 -4.972701e-001 -1.490206e+002 -5.759223e+001 -5.934103e+001 -6.029722e+001 -7.550253e+001 -1.672669e-001 1.318450e+002
540625000 -5.033014e-001 -1.493964e+002 -5.988696e+001 -5.828608e+001 -5.839959e+001 -5.313898e+001 -1.735223e-001 1.317664e+002
541250000 -5.110278e-001 -1.497048e+002 -6.078486e+001 -5.236662e+001 -6.008453e+001 -5.710897e+001 -1.673003e-001 1.316776e+002
541875000 -5.198500e-001 -1.500265e+002 -5.901368e+001 -6.768926e+001 -6.084978e+001 -5.539666e+001 -1.803246e-001 1.315592e+002
542500000 -5.241209e-001 -1.503690e+002 -6.112959e+001 -6.778180e+001 -5.893848e+001 -4.222561e+001 -1.649316e-001 1.315377e+002
543125000 -5.308071e-001 -1.507167e+002 -5.793068e+001 -6.594763e+001 -5.846034e+001 -6.007267e+001 -1.656708e-001 1.313970e+002
543750000 -5.324489e-001 -1.510678e+002 -6.114978e+001 -6.652996e+001 -5.954362e+001 -6.803435e+001 -1.695487e-001 1.314129e+002
544375000 -5.424537e-001 -1.514031e+002 -6.007085e+001 -6.733198e+001 -5.887836e+001 -7.064029e+001 -1.642368e-001 1.312938e+002
545000000 -5.416508e-001 -1.517659e+002 -5.935693e+001 -7.231131e+001 -5.936339e+001 -5.177369e+001 -1.649730e-001 1.312878e+002
545625000 -5.519172e-001 -1.521266e+002 -6.069996e+001 -7.292723e+001 -5.923106e+001 -6.175283e+001 -1.713613e-001 1.312711e+002
546250000 -5.691281e-001 -1.524922e+002 -5.872819e+001 -6.082578e+001 -5.927932e+001 -6.598562e+001 -1.721370e-001 1.311803e+002
546875000 -5.863723e-001 -1.528918e+002 -5.969507e+001 -6.698852e+001 -5.874516e+001 -6.527438e+001 -1.737202e-001 1.311813e+002
547500000 -6.003123e-001 -1.532812e+002 -5.878239e+001 -5.878554e+001 -5.826304e+001 -6.252574e+001 -1.673071e-001 1.311520e+002
548125000 -6.161856e-001 -1.535592e+002 -5.846514e+001 -6.301151e+001 -5.817722e+001 -6.777001e+001 -1.632206e-001 1.310074e+002
548750000 -6.214373e-001 -1.539915e+002 -5.949433e+001 -5.161005e+001 -5.954910e+001 -7.066180e+001 -1.752415e-001 1.309656e+002
549375000 -6.448326e-001 -1.543176e+002 -5.945881e+001 -6.140423e+001 -5.806710e+001 -6.406709e+001 -1.769699e-001 1.307353e+002
550000000 -6.510082e-001 -1.546492e+002 -5.971935e+001 -7.334608e+001 -5.955349e+001 -6.865576e+001 -1.787075e-001 1.307519e+002
550625000 -6.780843e-001 -1.550636e+002 -5.835399e+001 -7.122443e+001 -5.809241e+001 -7.099981e+001 -1.811426e-001 1.305677e+002
551250000 -6.862960e-001 -1.553760e+002 -5.772075e+001 -7.494568e+001 -5.747405e+001 -7.670827e+001 -1.840162e-001 1.305001e+002
551875000 -7.033920e-001 -1.557410e+002 -6.019913e+001 -8.145129e+001 -5.871371e+001 -7.407413e+001 -1.854790e-001 1.303336e+002
552500000 -7.132994e-001 -1.561073e+002 -5.905658e+001 -7.117994e+001 -5.984772e+001 -6.881218e+001 -1.894171e-001 1.300939e+002
553125000 -7.252666e-001 -1.564102e+002 -5.852135e+001 -7.249229e+001 -5.756823e+001 -6.665520e+001 -1.918902e-001 1.300303e+002
553750000 -7.509074e-001 -1.567753e+002 -5.720684e+001 -7.684593e+001 -5.740627e+001 -7.356541e+001 -1.956667e-001 1.297715e+002
554375000 -7.530279e-001 -1.570251e+002 -5.887762e+001 -8.314308e+001 -5.673962e+001 -8.469160e+001 -1.928999e-001 1.296965e+002
555000000 -7.739487e-001 -1.574236e+002 -5.953735e+001 -8.999480e+001 -5.741429e+001 -7.109387e+001 -1.933195e-001 1.295660e+002
555625000 -7.895989e-001 -1.576591e+002 -5.863326e+001 -8.682073e+001 -5.707327e+001 -7.605570e+001 -1.779776e-001 1.294620e+002
556250000 -8.065603e-001 -1.580135e+002 -5.751855e+001 -7.918421e+001 -5.787772e+001 -8.388785e+001 -1.842155e-001 1.293014e+002
556875000 -8.118342e-001 -1.583846e+002 -5.705849e+001 -8.272630e+001 -5.893296e+001 -9.009282e+001 -1.873193e-001 1.292629e+002
557500000 -8.294239e-001 -1.586740e+002 -5.723708e+001 -8.625672e+001 -5.800095e+001 -7.979149e+001 -1.745233e-001 1.291692e+002
558125000 -8.391000e-001 -1.589417e+002 -5.707566e+001 -8.838038e+001 -5.704763e+001 -9.415759e+001 -1.759008e-001 1.291516e+002
558750000 -8.445708e-001 -1.592244e+002 -5.803704e+001 -9.199452e+001 -5.602256e+001 -9.122685e+001 -1.641244e-001 1.290704e+002
559375000 -8.567421e-001 -1.595628e+002 -5.716237e+001 -9.722988e+001 -5.739853e+001 -8.585547e+001 -1.617701e-001 1.291054e+002
560000000 -8.747924e-001 -1.598296e+002 -5.652766e+001 -7.408060e+001 -5.682627e+001 -8.809777e+001 -1.516189e-001 1.290793e+002
560625000 -8.810594e-001 -1.601292e+002 -5.742136e+001 -9.393967e+001 -5.773956e+001 -9.504404e+001 -1.444563e-001 1.291453e+002
561250000 -8.921176e-001 -1.605174e+002 -5.673235e+001 -9.035497e+001 -5.794894e+001 -8.330189e+001 -1.419751e-001 1.291689e+002
561875000 -9.039463e-001 -1.608078e+002 -5.742171e+001 -9.077336e+001 -5.799516e+001 -9.406988e+001 -1.476520e-001 1.292363e+002
562500000 -9.200510e-001 -1.611199e+002 -5.727362e+001 -1.000737e+002 -5.761685e+001 -8.889467e+001 -1.488044e-001 1.293362e+002
563125000 -9.265922e-001 -1.614770e+002 -5.728673e+001 -9.171616e+001 -5.725323e+001 -1.038105e+002 -1.428063e-001 1.293480e+002
563750000 -9.454463e-001 -1.618603e+002 -5.849650e+001 -9.042199e+001 -5.879461e+001 -1.003399e+002 -1.408892e-001 1.293291e+002
564375000 -9.614804e-001 -1.622331e+002 -5.668075e+001 -9.162515e+001 -5.733873e+001 -1.013941e+002 -1.515017e-001 1.294337e+002
565000000 -9.749462e-001 -1.626566e+002 -5.637730e+001 -1.079137e+002 -5.774852e+001 -1.021868e+002 -1.512765e-001 1.294107e+002
565625000 -9.948997e-001 -1.630625e+002 -5.791005e+001 -1.012710e+002 -5.759471e+001 -1.087874e+002 -1.549442e-001 1.294230e+002
566250000 -1.010900e+000 -1.634623e+002 -5.932597e+001 -1.029554e+002 -5.747680e+001 -9.863184e+001 -1.611008e-001 1.294526e+002
566875000 -1.040958e+000 -1.639045e+002 -5.841026e+001 -1.164314e+002 -5.694061e+001 -9.827337e+001 -1.643330e-001 1.293716e+002
567500000 -1.061129e+000 -1.643844e+002 -5.696677e+001 -9.892329e+001 -5.902766e+001 -1.118120e+002 -1.671451e-001 1.293851e+002
568125000 -1.093694e+000 -1.647500e+002 -5.760202e+001 -1.073371e+002 -5.806867e+001 -1.004519e+002 -1.720419e-001 1.293372e+002
568750000 -1.118018e+000 -1.651790e+002 -5.804940e+001 -1.037684e+002 -5.778616e+001 -9.721611e+001 -1.729931e-001 1.292143e+002
569375000 -1.142836e+000 -1.655837e+002 -5.812715e+001 -1.086323e+002 -5.659758e+001 -1.082321e+002 -1.787614e-001 1.292469e+002
570000000 -1.158936e+000 -1.660063e+002 -5.759856e+001 -1.057193e+002 -5.857317e+001 -1.120311e+002 -1.769553e-001 1.290447e+002
570625000 -1.176484e+000 -1.664254e+002 -5.776712e+001 -1.036348e+002 -5.750607e+001 -1.057648e+002 -1.833092e-001 1.290766e+002
571250000 -1.196769e+000 -1.668873e+002 -5.675900e+001 -1.081674e+002 -5.655175e+001 -1.058370e+002 -1.813238e-001 1.290128e+002
571875000 -1.225703e+000 -1.672975e+002 -5.733720e+001 -1.057302e+002 -5.761063e+001 -1.073806e+002 -1.715234e-001 1.289415e+002
572500000 -1.247567e+000 -1.677575e+002 -5.771583e+001 -1.130285e+002 -5.788720e+001 -1.070143e+002 -1.830457e-001 1.288463e+002
573125000 -1.275793e+000 -1.682146e+002 -5.693614e+001 -1.101673e+002 -5.797479e+001 -1.138795e+002 -1.745939e-001 1.288201e+002
573750000 -1.301334e+000 -1.686291e+002 -5.714711e+001 -1.031113e+002 -5.656902e+001 -1.069444e+002 -1.804380e-001 1.287435e+002
574375000 -1.329657e+000 -1.690567e+002 -5.719338e+001 -1.110297e+002 -5.749548e+001 -1.083762e+002 -1.738918e-001 1.287466e+002
575000000 -1.356639e+000 -1.694748e+002 -5.757000e+001 -1.166421e+002 -5.666643e+001 -1.159709e+002 -1.720663e-001 1.286335e+002
575625000 -1.385618e+000 -1.698574e+002 -5.785574e+001 -1.185123e+002 -5.724996e+001 -1.167054e+002 -1.697728e-001 1.286213e+002
576250000 -1.408946e+000 -1.701638e+002 -5.560136e+001 -1.096329e+002 -5.782203e+001 -1.151014e+002 -1.901304e-001 1.285583e+002
576875000 -1.433073e+000 -1.706153e+002 -5.709036e+001 -1.179116e+002 -5.735629e+001 -1.250943e+002 -1.829108e-001 1.284720e+002
577500000 -1.465439e+000 -1.708799e+002 -5.725947e+001 -1.178294e+002 -5.669481e+001 -1.188430e+002 -1.803019e-001 1.283134e+002
578125000 -1.488335e+000 -1.712396e+002 -5.723475e+001 -1.218818e+002 -5.588758e+001 -1.190229e+002 -1.775143e-001 1.282961e+002
578750000 -1.510302e+000 -1.715999e+002 -5.629315e+001 -1.278465e+002 -5.647792e+001 -1.155287e+002 -1.896222e-001 1.280943e+002
579375000 -1.528564e+000 -1.719743e+002 -5.803520e+001 -1.331213e+002 -5.515954e+001 -1.275206e+002 -1.834048e-001 1.279638e+002
580000000 -1.550619e+000 -1.723476e+002 -5.754949e+001 -1.211699e+002 -5.668576e+001 -1.203809e+002 -1.914778e-001 1.278194e+002
580625000 -1.571979e+000 -1.727127e+002 -5.695881e+001 -1.288003e+002 -5.777659e+001 -1.242838e+002 -2.003962e-001 1.276354e+002
581250000 -1.598261e+000 -1.730807e+002 -5.786972e+001 -1.356672e+002 -5.724140e+001 -1.155625e+002 -2.108535e-001 1.274260e+002
581875000 -1.619537e+000 -1.734389e+002 -5.747581e+001 -1.271058e+002 -5.693282e+001 -1.246855e+002 -2.085988e-001 1.272298e+002
582500000 -1.635794e+000 -1.738416e+002 -5.640188e+001 -1.244556e+002 -5.665638e+001 -1.190636e+002 -2.098775e-001 1.269701e+002
583125000 -1.638270e+000 -1.743080e+002 -5.703189e+001 -1.236279e+002 -5.608077e+001 -1.202700e+002 -2.206341e-001 1.267265e+002
583750000 -1.665048e+000 -1.747774e+002 -5.687423e+001 -1.240167e+002 -5.580219e+001 -1.330280e+002 -2.209686e-001 1.265058e+002
584375000 -1.677723e+000 -1.751989e+002 -5.658653e+001 -1.314841e+002 -5.650134e+001 -1.251180e+002 -2.175771e-001 1.262462e+002
585000000 -1.687219e+000 -1.757190e+002 -5.562862e+001 -1.256050e+002 -5.789087e+001 -1.279440e+002 -2.174017e-001 1.260342e+002
585625000 -1.719764e+000 -1.761727e+002 -5.535649e+001 -1.316110e+002 -5.769039e+001 -1.270341e+002 -1.974432e-001 1.258850e+002
586250000 -1.723871e+000 -1.766730e+002 -5.670758e+001 -1.255297e+002 -5.724607e+001 -1.309186e+002 -1.969036e-001 1.257926e+002
586875000 -1.742809e+000 -1.772173e+002 -5.621676e+001 -1.337888e+002 -5.692748e+001 -1.391052e+002 -2.020020e-001 1.255366e+002
587500000 -1.768782e+000 -1.777510e+002 -5.655651e+001 -1.302698e+002 -5.638498e+001 -1.380011e+002 -1.930516e-001 1.254114e+002
588125000 -1.783651e+000 -1.782553e+002 -5.668512e+001 -1.319763e+002 -5.765410e+001 -1.350533e+002 -1.844260e-001 1.253155e+002
588750000 -1.816005e+000 -1.787696e+002 -5.667646e+001 -1.274136e+002 -5.594288e+001 -1.275800e+002 -1.862661e-001 1.252725e+002
589375000 -1.839144e+000 -1.792967e+002 -5.651554e+001 -1.322308e+002 -5.637175e+001 -1.251797e+002 -1.710126e-001 1.251834e+002
590000000 -1.877467e+000 -1.797687e+002 -5.702219e+001 -1.333099e+002 -5.575048e+001 -1.394492e+002 -1.720154e-001 1.252124e+002
590625000 -1.913227e+000 1.797788e+002 -5.577968e+001 -1.367852e+002 -5.499913e+001 -1.361689e+002 -1.662645e-001 1.251579e+002
591250000 -1.952904e+000 1.793206e+002 -5.625265e+001 -1.387534e+002 -5.521687e+001 -1.421397e+002 -1.628781e-001 1.251819e+002
591875000 -1.997769e+000 1.789948e+002 -5.547936e+001 -1.391035e+002 -5.568696e+001 -1.376049e+002 -1.640996e-001 1.252160e+002
592500000 -2.032691e+000 1.786860e+002 -5.712775e+001 -1.392754e+002 -5.621249e+001 -1.426207e+002 -1.530807e-001 1.253038e+002
593125000 -2.072826e+000 1.784252e+002 -5.599697e+001 -1.469590e+002 -5.565713e+001 -1.407422e+002 -1.601482e-001 1.253949e+002
593750000 -2.103237e+000 1.781156e+002 -5.584734e+001 -1.408048e+002 -5.585933e+001 -1.466118e+002 -1.392991e-001 1.254573e+002
594375000 -2.127907e+000 1.778275e+002 -5.602147e+001 -1.464904e+002 -5.622670e+001 -1.316374e+002 -1.409537e-001 1.255423e+002
595000000 -2.155243e+000 1.775393e+002 -5.582718e+001 -1.441580e+002 -5.563302e+001 -1.396926e+002 -1.555237e-001 1.255890e+002
