!Agilent Technologies,E8364B,US42250235,A.06.04.32
!Agilent E8364B: A.06.04.32
!Date: Friday, January 15, 2021 16:14:47
!Correction: S11(Full 2 Port(1,2)) S21(Full 2 Port(1,2)) S12(Full 2 Port(1,2)) S22(Full 2 Port(1,2)) 
!S2P File: Measurements: S11, S21, S12, S22:
# Hz S  dB   R 50
500000000 -1.190934e-001 -1.295979e+002 -6.296342e+001 -7.280831e+001 -6.484521e+001 -6.589412e+001 -1.553418e-001 1.360336e+002
500625000 -1.250940e-001 -1.298443e+002 -6.359011e+001 -7.797972e+001 -6.819157e+001 -8.202203e+001 -1.714529e-001 1.359866e+002
501250000 -1.354433e-001 -1.300782e+002 -6.447813e+001 -7.733111e+001 -6.524421e+001 -6.384393e+001 -1.669746e-001 1.360176e+002
501875000 -1.278206e-001 -1.303719e+002 -6.272689e+001 -8.282607e+001 -6.335384e+001 -6.303911e+001 -1.727607e-001 1.358600e+002
502500000 -1.337442e-001 -1.305943e+002 -6.437952e+001 -6.365747e+001 -6.140563e+001 -7.211940e+001 -1.648428e-001 1.359061e+002
503125000 -1.388296e-001 -1.309186e+002 -6.232432e+001 -8.119699e+001 -6.452621e+001 -7.365363e+001 -1.652395e-001 1.357239e+002
503750000 -1.490179e-001 -1.311434e+002 -6.548805e+001 -8.139830e+001 -6.216726e+001 -8.472350e+001 -1.591258e-001 1.356380e+002
504375000 -1.478152e-001 -1.313723e+002 -6.289819e+001 -9.236784e+001 -6.313575e+001 -7.399825e+001 -1.830105e-001 1.355499e+002
505000000 -1.563765e-001 -1.316897e+002 -6.222829e+001 -8.741775e+001 -6.715729e+001 -8.476966e+001 -1.829522e-001 1.355191e+002
505625000 -1.540231e-001 -1.319272e+002 -6.396648e+001 -8.532743e+001 -6.777384e+001 -8.060245e+001 -1.826380e-001 1.353785e+002
506250000 -1.590364e-001 -1.322048e+002 -6.623166e+001 -1.017068e+002 -6.340016e+001 -7.779742e+001 -1.917321e-001 1.351303e+002
506875000 -1.641696e-001 -1.324262e+002 -6.556308e+001 -1.168327e+002 -6.426110e+001 -1.202446e+002 -1.879002e-001 1.350060e+002
507500000 -1.730330e-001 -1.326466e+002 -6.476643e+001 -8.052312e+001 -6.062117e+001 -8.777608e+001 -1.889544e-001 1.347906e+002
508125000 -1.767773e-001 -1.329180e+002 -6.276190e+001 -9.271480e+001 -6.419865e+001 -1.096061e+002 -1.959449e-001 1.346075e+002
508750000 -1.776869e-001 -1.331195e+002 -6.194196e+001 -9.477683e+001 -6.288413e+001 -8.161934e+001 -1.978898e-001 1.344069e+002
509375000 -1.874547e-001 -1.334341e+002 -6.600786e+001 -8.176083e+001 -6.077217e+001 -1.003803e+002 -1.887254e-001 1.342642e+002
510000000 -1.804886e-001 -1.336760e+002 -6.183378e+001 -1.012063e+002 -6.303133e+001 -9.771507e+001 -2.055613e-001 1.340168e+002
510625000 -1.944955e-001 -1.338667e+002 -6.289911e+001 -1.066522e+002 -6.242881e+001 -1.092127e+002 -1.939191e-001 1.338604e+002
511250000 -1.996993e-001 -1.341398e+002 -6.378640e+001 -7.012106e+001 -6.415387e+001 -1.000836e+002 -2.008042e-001 1.335582e+002
511875000 -1.945335e-001 -1.344258e+002 -6.361092e+001 -1.168382e+002 -6.289563e+001 -9.202328e+001 -1.908474e-001 1.333703e+002
512500000 -2.035549e-001 -1.346810e+002 -6.014839e+001 -9.957273e+001 -6.020856e+001 -1.182161e+002 -1.935868e-001 1.331806e+002
513125000 -2.141475e-001 -1.349870e+002 -6.084631e+001 -1.129504e+002 -6.313188e+001 -9.089808e+001 -1.951200e-001 1.330844e+002
513750000 -2.276121e-001 -1.352572e+002 -6.256939e+001 -1.077269e+002 -6.357876e+001 -1.078300e+002 -1.986507e-001 1.328562e+002
514375000 -2.256409e-001 -1.355900e+002 -6.293890e+001 -1.164877e+002 -6.277776e+001 -9.844400e+001 -1.781646e-001 1.326756e+002
515000000 -2.313109e-001 -1.358374e+002 -6.193676e+001 -1.131876e+002 -6.225322e+001 -1.279306e+002 -1.736354e-001 1.325822e+002
515625000 -2.383513e-001 -1.362431e+002 -6.387508e+001 -1.096903e+002 -6.191864e+001 -1.164193e+002 -1.805829e-001 1.324375e+002
516250000 -2.441955e-001 -1.365133e+002 -6.275939e+001 -1.152019e+002 -6.279728e+001 -1.054668e+002 -1.812939e-001 1.323294e+002
516875000 -2.577221e-001 -1.368409e+002 -6.068959e+001 -1.021421e+002 -6.454826e+001 -1.259315e+002 -1.706626e-001 1.323222e+002
517500000 -2.602145e-001 -1.371365e+002 -6.103787e+001 -1.021850e+002 -6.157209e+001 -1.126544e+002 -1.795602e-001 1.322589e+002
518125000 -2.610941e-001 -1.375017e+002 -5.899791e+001 -1.193997e+002 -6.223369e+001 -9.886359e+001 -1.690203e-001 1.321838e+002
518750000 -2.665431e-001 -1.378525e+002 -6.254396e+001 -1.159914e+002 -6.053054e+001 -1.056618e+002 -1.617996e-001 1.322282e+002
519375000 -2.747188e-001 -1.381284e+002 -6.299690e+001 -9.981412e+001 -6.432369e+001 -1.268545e+002 -1.509601e-001 1.321448e+002
520000000 -2.819241e-001 -1.384954e+002 -6.221027e+001 -1.207597e+002 -6.286107e+001 -1.317709e+002 -1.529603e-001 1.321499e+002
520625000 -2.798179e-001 -1.388547e+002 -5.981046e+001 -1.263158e+002 -6.113673e+001 -1.254092e+002 -1.534600e-001 1.320997e+002
521250000 -2.962656e-001 -1.391984e+002 -6.165163e+001 -1.242817e+002 -6.172603e+001 -1.185270e+002 -1.568741e-001 1.321561e+002
521875000 -2.935136e-001 -1.396137e+002 -6.336176e+001 -1.178698e+002 -6.174379e+001 -1.190480e+002 -1.406478e-001 1.321684e+002
522500000 -2.965676e-001 -1.399160e+002 -6.120274e+001 -1.243372e+002 -6.178551e+001 -1.173392e+002 -1.502593e-001 1.322099e+002
523125000 -3.118841e-001 -1.403244e+002 -6.165098e+001 -1.280795e+002 -6.289016e+001 -1.091020e+002 -1.563491e-001 1.322298e+002
523750000 -3.132903e-001 -1.406330e+002 -6.222495e+001 -9.671445e+001 -6.041621e+001 -1.154863e+002 -1.497415e-001 1.322258e+002
524375000 -3.335623e-001 -1.409894e+002 -5.931144e+001 -1.174137e+002 -6.089555e+001 -1.247593e+002 -1.576072e-001 1.322601e+002
525000000 -3.345882e-001 -1.413508e+002 -6.290995e+001 -1.249117e+002 -6.149542e+001 -1.154411e+002 -1.525077e-001 1.322354e+002
525625000 -3.571489e-001 -1.415992e+002 -6.198557e+001 -1.216068e+002 -6.068510e+001 -1.152118e+002 -1.569052e-001 1.322286e+002
526250000 -3.613461e-001 -1.419382e+002 -5.945277e+001 -1.124807e+002 -6.141853e+001 -1.130174e+002 -1.578778e-001 1.322693e+002
526875000 -3.831594e-001 -1.422350e+002 -6.108411e+001 -1.281693e+002 -5.994332e+001 -1.249197e+002 -1.472252e-001 1.322929e+002
527500000 -3.887684e-001 -1.425880e+002 -6.096342e+001 -1.108945e+002 -6.125057e+001 -1.264360e+002 -1.517218e-001 1.323299e+002
528125000 -4.145813e-001 -1.429024e+002 -5.856639e+001 -1.485057e+002 -6.119145e+001 -1.359355e+002 -1.631672e-001 1.323790e+002
528750000 -4.179417e-001 -1.431587e+002 -5.945051e+001 -1.360385e+002 -6.041607e+001 -1.183431e+002 -1.539124e-001 1.324451e+002
529375000 -4.309464e-001 -1.434613e+002 -5.724414e+001 -1.183960e+002 -5.902186e+001 -1.237306e+002 -1.543214e-001 1.324088e+002
530000000 -4.432502e-001 -1.437828e+002 -6.094050e+001 -1.315824e+002 -5.829646e+001 -1.277269e+002 -1.615780e-001 1.323714e+002
530625000 -4.502534e-001 -1.440407e+002 -5.855861e+001 -1.329347e+002 -5.843227e+001 -1.362024e+002 -1.536126e-001 1.323651e+002
531250000 -4.560780e-001 -1.443516e+002 -5.819591e+001 -1.451191e+002 -5.881704e+001 -1.419154e+002 -1.515641e-001 1.323575e+002
531875000 -4.744059e-001 -1.446480e+002 -5.956615e+001 -1.391164e+002 -5.970016e+001 -1.388069e+002 -1.544461e-001 1.324022e+002
532500000 -4.775765e-001 -1.448819e+002 -5.981044e+001 -1.372654e+002 -5.859296e+001 -1.492096e+002 -1.556458e-001 1.323610e+002
533125000 -4.768657e-001 -1.451931e+002 -5.893262e+001 -1.427571e+002 -5.808810e+001 -1.420287e+002 -1.704045e-001 1.323601e+002
533750000 -4.835878e-001 -1.455568e+002 -5.991087e+001 -1.464962e+002 -6.065069e+001 -1.381277e+002 -1.795279e-001 1.323381e+002
534375000 -4.848891e-001 -1.459326e+002 -6.029271e+001 -1.581163e+002 -5.819924e+001 -1.397372e+002 -1.598180e-001 1.322488e+002
535000000 -4.907254e-001 -1.462094e+002 -5.809053e+001 -1.522983e+002 -5.942672e+001 -1.488427e+002 -1.741231e-001 1.322280e+002
535625000 -5.025993e-001 -1.465968e+002 -5.845237e+001 -1.441591e+002 -5.962448e+001 -1.560081e+002 -1.707872e-001 1.321960e+002
536250000 -5.061821e-001 -1.469152e+002 -5.884557e+001 -1.581694e+002 -5.763810e+001 -1.566853e+002 -1.693246e-001 1.320429e+002
536875000 -5.075582e-001 -1.473029e+002 -6.046202e+001 -1.536241e+002 -5.879565e+001 -1.506386e+002 -1.824873e-001 1.320244e+002
537500000 -5.165895e-001 -1.475716e+002 -5.919857e+001 -1.561062e+002 -5.880093e+001 -1.474861e+002 -1.754059e-001 1.319652e+002
538125000 -5.236419e-001 -1.479495e+002 -5.847345e+001 -1.457443e+002 -5.794787e+001 -1.510821e+002 -1.758720e-001 1.319137e+002
538750000 -5.385530e-001 -1.483258e+002 -5.786765e+001 -1.579720e+002 -5.840000e+001 -1.500518e+002 -1.784595e-001 1.318133e+002
539375000 -5.458792e-001 -1.486608e+002 -5.769886e+001 -1.516020e+002 -5.822672e+001 -1.646594e+002 -1.743355e-001 1.317555e+002
540000000 -5.501818e-001 -1.489984e+002 -5.880545e+001 -1.603382e+002 -5.808859e+001 -1.576564e+002 -1.789282e-001 1.316415e+002
540625000 -5.569476e-001 -1.493348e+002 -5.705488e+001 -1.478965e+002 -5.748605e+001 -1.576336e+002 -1.691391e-001 1.315565e+002
541250000 -5.655320e-001 -1.496512e+002 -5.721667e+001 -1.655330e+002 -5.723910e+001 -1.653667e+002 -1.718761e-001 1.314891e+002
541875000 -5.750317e-001 -1.499778e+002 -5.763964e+001 -1.649464e+002 -5.796790e+001 -1.606364e+002 -1.815191e-001 1.313655e+002
542500000 -5.825412e-001 -1.502762e+002 -5.720002e+001 -1.654379e+002 -5.767501e+001 -1.583970e+002 -1.731281e-001 1.313202e+002
543125000 -5.877072e-001 -1.506286e+002 -5.779252e+001 -1.707333e+002 -5.905413e+001 -1.639782e+002 -1.773707e-001 1.312534e+002
543750000 -5.906190e-001 -1.509306e+002 -5.834071e+001 -1.754708e+002 -6.089219e+001 -1.794096e+002 -1.768431e-001 1.312305e+002
544375000 -5.993872e-001 -1.512814e+002 -5.818327e+001 -1.722866e+002 -5.815935e+001 -1.712171e+002 -1.795304e-001 1.311981e+002
545000000 -6.029231e-001 -1.516037e+002 -5.672267e+001 -1.649733e+002 -5.921478e+001 -1.710460e+002 -1.765307e-001 1.311189e+002
545625000 -6.135915e-001 -1.519762e+002 -5.826389e+001 -1.654161e+002 -5.997569e+001 -1.654156e+002 -1.714168e-001 1.311104e+002
546250000 -6.369897e-001 -1.523162e+002 -5.725838e+001 -1.622987e+002 -5.774953e+001 -1.792716e+002 -1.768069e-001 1.310292e+002
546875000 -6.474229e-001 -1.527124e+002 -5.749355e+001 -1.597696e+002 -5.795876e+001 -1.710425e+002 -1.796713e-001 1.310168e+002
547500000 -6.680560e-001 -1.530499e+002 -5.813588e+001 -1.752459e+002 -5.952665e+001 -1.701959e+002 -1.839399e-001 1.309013e+002
548125000 -6.799774e-001 -1.533268e+002 -5.770682e+001 -1.694902e+002 -5.917115e+001 -1.799736e+002 -1.768951e-001 1.308295e+002
548750000 -6.959310e-001 -1.537090e+002 -5.753931e+001 -1.675978e+002 -5.697715e+001 -1.743736e+002 -1.823979e-001 1.307603e+002
549375000 -7.153409e-001 -1.540412e+002 -5.900452e+001 1.704846e+002 -5.751741e+001 -1.746641e+002 -1.950585e-001 1.305516e+002
550000000 -7.223902e-001 -1.543561e+002 -5.640665e+001 -1.768404e+002 -5.808218e+001 1.796241e+002 -1.958979e-001 1.305125e+002
550625000 -7.395213e-001 -1.546516e+002 -5.671150e+001 1.737979e+002 -5.772354e+001 -1.760295e+002 -1.946631e-001 1.304314e+002
551250000 -7.483095e-001 -1.549785e+002 -5.760746e+001 -1.742461e+002 -5.592011e+001 1.797921e+002 -1.938235e-001 1.302403e+002
551875000 -7.656496e-001 -1.553062e+002 -5.919043e+001 -1.783215e+002 -5.668034e+001 -1.723139e+002 -1.931019e-001 1.300889e+002
552500000 -7.766054e-001 -1.556845e+002 -5.722288e+001 -1.793610e+002 -5.671462e+001 -1.792733e+002 -1.887131e-001 1.299523e+002
553125000 -7.819828e-001 -1.559436e+002 -5.681646e+001 -1.779824e+002 -5.603180e+001 1.782293e+002 -1.947761e-001 1.297633e+002
553750000 -7.998265e-001 -1.562144e+002 -5.802728e+001 1.780689e+002 -5.664579e+001 1.776285e+002 -2.048209e-001 1.296208e+002
554375000 -8.054129e-001 -1.564917e+002 -5.758641e+001 1.721172e+002 -5.680815e+001 1.739096e+002 -1.973885e-001 1.294838e+002
555000000 -8.124027e-001 -1.568436e+002 -5.689249e+001 1.760768e+002 -5.712209e+001 1.716726e+002 -1.955721e-001 1.293283e+002
555625000 -8.243822e-001 -1.570971e+002 -5.572446e+001 1.696729e+002 -5.577350e+001 1.762411e+002 -1.873884e-001 1.292955e+002
556250000 -8.307157e-001 -1.574359e+002 -5.633181e+001 1.678071e+002 -5.640320e+001 1.722710e+002 -1.942052e-001 1.291253e+002
556875000 -8.328920e-001 -1.577769e+002 -5.645823e+001 1.722175e+002 -5.685565e+001 1.682323e+002 -1.948539e-001 1.290827e+002
557500000 -8.478730e-001 -1.580245e+002 -5.642942e+001 1.628723e+002 -5.572854e+001 1.700985e+002 -1.782091e-001 1.289610e+002
558125000 -8.552533e-001 -1.583407e+002 -5.766861e+001 1.625859e+002 -5.690566e+001 1.669187e+002 -1.833404e-001 1.290080e+002
558750000 -8.571286e-001 -1.586249e+002 -5.682332e+001 1.592588e+002 -5.661073e+001 1.690701e+002 -1.689209e-001 1.289402e+002
559375000 -8.693724e-001 -1.589624e+002 -5.646310e+001 1.649645e+002 -5.661515e+001 1.642806e+002 -1.714849e-001 1.289435e+002
560000000 -8.728269e-001 -1.592166e+002 -5.658175e+001 1.679912e+002 -5.596242e+001 1.482474e+002 -1.582820e-001 1.289059e+002
560625000 -8.798954e-001 -1.594969e+002 -5.606273e+001 1.511877e+002 -5.717840e+001 1.626540e+002 -1.579977e-001 1.289274e+002
561250000 -8.909115e-001 -1.598843e+002 -5.575652e+001 1.519189e+002 -5.672580e+001 1.596314e+002 -1.561387e-001 1.290159e+002
561875000 -8.992983e-001 -1.601762e+002 -5.555770e+001 1.595274e+002 -5.723586e+001 1.542197e+002 -1.655739e-001 1.290518e+002
562500000 -9.123387e-001 -1.605509e+002 -5.656730e+001 1.568392e+002 -5.563937e+001 1.551217e+002 -1.547701e-001 1.290586e+002
563125000 -9.152375e-001 -1.608870e+002 -5.557116e+001 1.601879e+002 -5.700478e+001 1.513464e+002 -1.507996e-001 1.291103e+002
563750000 -9.324381e-001 -1.612865e+002 -5.820971e+001 1.546687e+002 -5.690972e+001 1.508485e+002 -1.579656e-001 1.291440e+002
564375000 -9.459474e-001 -1.616214e+002 -5.626660e+001 1.540258e+002 -5.701497e+001 1.541895e+002 -1.599894e-001 1.292127e+002
565000000 -9.598240e-001 -1.620659e+002 -5.630201e+001 1.540373e+002 -5.628787e+001 1.532319e+002 -1.691467e-001 1.292146e+002
565625000 -9.753693e-001 -1.624266e+002 -5.536069e+001 1.461176e+002 -5.592151e+001 1.567483e+002 -1.741271e-001 1.292282e+002
566250000 -9.971094e-001 -1.628760e+002 -5.543342e+001 1.381422e+002 -5.632671e+001 1.484301e+002 -1.773353e-001 1.292173e+002
566875000 -1.025491e+000 -1.632955e+002 -5.752649e+001 1.455962e+002 -5.565660e+001 1.496765e+002 -1.748488e-001 1.291630e+002
567500000 -1.046494e+000 -1.637834e+002 -5.656981e+001 1.484226e+002 -5.637806e+001 1.493826e+002 -1.818224e-001 1.291136e+002
568125000 -1.063656e+000 -1.641553e+002 -5.606295e+001 1.472186e+002 -5.707288e+001 1.479170e+002 -1.784872e-001 1.291003e+002
568750000 -1.085923e+000 -1.645428e+002 -5.626896e+001 1.458260e+002 -5.666378e+001 1.472151e+002 -1.842919e-001 1.290287e+002
569375000 -1.112646e+000 -1.649886e+002 -5.548161e+001 1.442522e+002 -5.668392e+001 1.486177e+002 -1.892105e-001 1.290276e+002
570000000 -1.132157e+000 -1.654222e+002 -5.585969e+001 1.390687e+002 -5.618508e+001 1.387816e+002 -1.835613e-001 1.288910e+002
570625000 -1.131395e+000 -1.658510e+002 -5.573293e+001 1.404607e+002 -5.532085e+001 1.383078e+002 -1.867991e-001 1.288789e+002
571250000 -1.155484e+000 -1.662394e+002 -5.562924e+001 1.433375e+002 -5.690457e+001 1.377581e+002 -1.852959e-001 1.288371e+002
571875000 -1.180539e+000 -1.666816e+002 -5.520991e+001 1.409628e+002 -5.514090e+001 1.450411e+002 -1.797156e-001 1.287201e+002
572500000 -1.196772e+000 -1.671421e+002 -5.454676e+001 1.351748e+002 -5.502051e+001 1.420202e+002 -1.922365e-001 1.286633e+002
573125000 -1.224696e+000 -1.675651e+002 -5.585181e+001 1.354948e+002 -5.513881e+001 1.313890e+002 -1.785374e-001 1.286273e+002
573750000 -1.242213e+000 -1.679930e+002 -5.523471e+001 1.468519e+002 -5.515709e+001 1.310364e+002 -1.893100e-001 1.285663e+002
574375000 -1.267412e+000 -1.683987e+002 -5.525428e+001 1.453977e+002 -5.488522e+001 1.366198e+002 -1.797986e-001 1.285452e+002
575000000 -1.285700e+000 -1.688213e+002 -5.504126e+001 1.387706e+002 -5.574886e+001 1.352168e+002 -1.854540e-001 1.285191e+002
575625000 -1.308140e+000 -1.692200e+002 -5.460179e+001 1.325161e+002 -5.524297e+001 1.395544e+002 -1.915834e-001 1.284263e+002
576250000 -1.327318e+000 -1.695742e+002 -5.511292e+001 1.293512e+002 -5.523860e+001 1.351246e+002 -2.012100e-001 1.282881e+002
576875000 -1.345685e+000 -1.699512e+002 -5.551540e+001 1.327980e+002 -5.561205e+001 1.269722e+002 -1.966572e-001 1.282283e+002
577500000 -1.373796e+000 -1.702746e+002 -5.448535e+001 1.321047e+002 -5.488830e+001 1.263055e+002 -1.967160e-001 1.281188e+002
578125000 -1.385278e+000 -1.706935e+002 -5.559152e+001 1.269695e+002 -5.489447e+001 1.258851e+002 -1.995694e-001 1.280535e+002
578750000 -1.400079e+000 -1.710985e+002 -5.462091e+001 1.294267e+002 -5.478492e+001 1.255960e+002 -2.033973e-001 1.278579e+002
579375000 -1.420205e+000 -1.714901e+002 -5.502505e+001 1.231468e+002 -5.440305e+001 1.206441e+002 -2.056208e-001 1.276753e+002
580000000 -1.438043e+000 -1.718659e+002 -5.435067e+001 1.210511e+002 -5.547778e+001 1.234101e+002 -2.045631e-001 1.275105e+002
580625000 -1.459646e+000 -1.723039e+002 -5.459400e+001 1.146467e+002 -5.464459e+001 1.210902e+002 -2.115753e-001 1.273286e+002
581250000 -1.481136e+000 -1.726917e+002 -5.596278e+001 1.174113e+002 -5.462250e+001 1.213872e+002 -2.130356e-001 1.272151e+002
581875000 -1.505561e+000 -1.731085e+002 -5.560817e+001 1.090970e+002 -5.610249e+001 1.145895e+002 -2.164555e-001 1.269400e+002
582500000 -1.520811e+000 -1.734697e+002 -5.529636e+001 1.096485e+002 -5.560453e+001 1.203906e+002 -2.172601e-001 1.267116e+002
583125000 -1.523556e+000 -1.740039e+002 -5.403922e+001 1.101228e+002 -5.500375e+001 1.204448e+002 -2.235313e-001 1.264523e+002
583750000 -1.542954e+000 -1.744963e+002 -5.501210e+001 1.175163e+002 -5.433622e+001 1.161352e+002 -2.296762e-001 1.262633e+002
584375000 -1.551201e+000 -1.749979e+002 -5.508346e+001 1.128979e+002 -5.573523e+001 1.108974e+002 -2.179809e-001 1.260679e+002
585000000 -1.569639e+000 -1.754949e+002 -5.506417e+001 1.101613e+002 -5.435526e+001 1.178534e+002 -2.240094e-001 1.258508e+002
585625000 -1.596912e+000 -1.759908e+002 -5.537574e+001 1.182222e+002 -5.461082e+001 1.156135e+002 -2.118656e-001 1.256701e+002
586250000 -1.606370e+000 -1.765194e+002 -5.395708e+001 1.092945e+002 -5.424961e+001 1.113823e+002 -2.081732e-001 1.255891e+002
586875000 -1.623880e+000 -1.770319e+002 -5.405049e+001 1.110764e+002 -5.367292e+001 1.092233e+002 -2.006835e-001 1.253865e+002
587500000 -1.658805e+000 -1.775403e+002 -5.329264e+001 1.116944e+002 -5.466367e+001 1.103555e+002 -1.986863e-001 1.252305e+002
588125000 -1.671738e+000 -1.780448e+002 -5.415337e+001 1.070010e+002 -5.357265e+001 1.120016e+002 -1.984517e-001 1.251608e+002
588750000 -1.689029e+000 -1.785816e+002 -5.473021e+001 1.188227e+002 -5.442088e+001 1.056236e+002 -1.927139e-001 1.250886e+002
589375000 -1.713975e+000 -1.790237e+002 -5.449032e+001 1.072418e+002 -5.447085e+001 1.022357e+002 -1.797545e-001 1.249753e+002
590000000 -1.744197e+000 -1.795434e+002 -5.405919e+001 1.007038e+002 -5.378310e+001 1.034652e+002 -1.740641e-001 1.250098e+002
590625000 -1.778676e+000 1.799679e+002 -5.436378e+001 1.021991e+002 -5.482821e+001 1.026299e+002 -1.741735e-001 1.249971e+002
591250000 -1.811772e+000 1.795029e+002 -5.335275e+001 1.001125e+002 -5.458110e+001 9.989708e+001 -1.802220e-001 1.250036e+002
591875000 -1.851285e+000 1.791687e+002 -5.470431e+001 1.003752e+002 -5.453748e+001 1.041691e+002 -1.700712e-001 1.249993e+002
592500000 -1.875130e+000 1.787805e+002 -5.374308e+001 1.003049e+002 -5.363122e+001 9.951928e+001 -1.651515e-001 1.250915e+002
593125000 -1.918469e+000 1.785055e+002 -5.369967e+001 1.055969e+002 -5.447603e+001 9.904008e+001 -1.669126e-001 1.251430e+002
593750000 -1.945594e+000 1.780948e+002 -5.311206e+001 9.287009e+001 -5.415133e+001 9.905298e+001 -1.555825e-001 1.252563e+002
594375000 -1.955700e+000 1.778191e+002 -5.406009e+001 9.747096e+001 -5.393892e+001 9.628511e+001 -1.472037e-001 1.253279e+002
595000000 -1.982487e+000 1.774384e+002 -5.490240e+001 9.854784e+001 -5.406490e+001 9.353662e+001 -1.648631e-001 1.253627e+002
