!Agilent Technologies,E8364B,US42250235,A.06.04.32
!Agilent E8364B: A.06.04.32
!Date: Friday, January 15, 2021 16:18:40
!Correction: S11(Full 2 Port(1,2)) S21(Full 2 Port(1,2)) S12(Full 2 Port(1,2)) S22(Full 2 Port(1,2)) 
!S2P File: Measurements: S11, S21, S12, S22:
# Hz S  dB   R 50
500000000 -1.241200e-001 -1.296023e+002 -6.270087e+001 8.994701e+001 -6.399658e+001 9.456828e+001 -1.599871e-001 1.344776e+002
500625000 -1.277342e-001 -1.298478e+002 -6.058629e+001 7.829752e+001 -6.116191e+001 7.540630e+001 -1.596284e-001 1.344757e+002
501250000 -1.302667e-001 -1.300566e+002 -6.003157e+001 7.564687e+001 -6.238595e+001 8.067174e+001 -1.661355e-001 1.343338e+002
501875000 -1.351803e-001 -1.303076e+002 -6.044105e+001 9.232748e+001 -6.204506e+001 7.947855e+001 -1.662528e-001 1.342789e+002
502500000 -1.343184e-001 -1.306073e+002 -6.109153e+001 7.625725e+001 -6.439038e+001 9.887543e+001 -1.574663e-001 1.342185e+002
503125000 -1.441949e-001 -1.308760e+002 -6.132111e+001 7.880358e+001 -6.121535e+001 9.679217e+001 -1.683529e-001 1.341335e+002
503750000 -1.421858e-001 -1.310942e+002 -6.272714e+001 8.525414e+001 -6.062258e+001 8.708649e+001 -1.720503e-001 1.339938e+002
504375000 -1.519223e-001 -1.313731e+002 -6.053801e+001 7.214557e+001 -5.978475e+001 7.792556e+001 -1.800634e-001 1.339493e+002
505000000 -1.529240e-001 -1.316563e+002 -6.092726e+001 7.457976e+001 -6.272660e+001 8.062679e+001 -1.824547e-001 1.338319e+002
505625000 -1.558685e-001 -1.318844e+002 -5.926852e+001 8.400674e+001 -6.128362e+001 8.384637e+001 -1.802163e-001 1.336870e+002
506250000 -1.619186e-001 -1.321364e+002 -6.136755e+001 7.324922e+001 -5.899228e+001 6.441869e+001 -1.892495e-001 1.335048e+002
506875000 -1.602637e-001 -1.323624e+002 -6.043431e+001 8.540128e+001 -5.980096e+001 7.642282e+001 -1.830747e-001 1.333242e+002
507500000 -1.654764e-001 -1.326237e+002 -6.039439e+001 6.368270e+001 -6.035843e+001 6.406791e+001 -1.851247e-001 1.331363e+002
508125000 -1.684439e-001 -1.328881e+002 -6.151584e+001 5.943796e+001 -6.233723e+001 6.246698e+001 -1.895240e-001 1.329018e+002
508750000 -1.724534e-001 -1.330672e+002 -6.045333e+001 7.025022e+001 -6.071458e+001 7.376418e+001 -1.889842e-001 1.327427e+002
509375000 -1.776320e-001 -1.333387e+002 -6.253783e+001 7.302939e+001 -6.048608e+001 6.068035e+001 -1.930339e-001 1.325730e+002
510000000 -1.783411e-001 -1.336130e+002 -6.129193e+001 6.559108e+001 -6.001106e+001 6.302432e+001 -1.992049e-001 1.323105e+002
510625000 -1.881035e-001 -1.338377e+002 -6.157035e+001 6.889198e+001 -6.123613e+001 7.372988e+001 -1.896057e-001 1.321342e+002
511250000 -1.897878e-001 -1.340845e+002 -6.023162e+001 5.474617e+001 -5.955129e+001 5.374726e+001 -1.959833e-001 1.318890e+002
511875000 -1.869151e-001 -1.343812e+002 -6.044288e+001 5.913585e+001 -6.111093e+001 7.098582e+001 -1.845189e-001 1.317117e+002
512500000 -1.941727e-001 -1.346650e+002 -5.811562e+001 6.055394e+001 -5.974429e+001 5.120554e+001 -1.906200e-001 1.314453e+002
513125000 -2.021545e-001 -1.349823e+002 -6.154480e+001 4.447625e+001 -5.959616e+001 4.091266e+001 -1.997536e-001 1.313426e+002
513750000 -2.173676e-001 -1.352477e+002 -5.984462e+001 5.472023e+001 -5.961967e+001 5.258703e+001 -1.996483e-001 1.311599e+002
514375000 -2.142424e-001 -1.355454e+002 -6.131023e+001 5.103376e+001 -5.910355e+001 5.630633e+001 -1.789470e-001 1.309483e+002
515000000 -2.260184e-001 -1.358325e+002 -6.153307e+001 5.629864e+001 -6.260350e+001 5.271252e+001 -1.787808e-001 1.308494e+002
515625000 -2.358229e-001 -1.361930e+002 -5.900417e+001 4.748658e+001 -5.985605e+001 4.178015e+001 -1.778412e-001 1.306698e+002
516250000 -2.362541e-001 -1.364620e+002 -6.038514e+001 5.754475e+001 -6.044949e+001 4.981088e+001 -1.757740e-001 1.306137e+002
516875000 -2.493070e-001 -1.368571e+002 -6.191731e+001 5.540971e+001 -6.239576e+001 5.022237e+001 -1.660356e-001 1.306181e+002
517500000 -2.532616e-001 -1.371242e+002 -5.997334e+001 4.350802e+001 -6.050469e+001 6.188668e+001 -1.697511e-001 1.305397e+002
518125000 -2.583929e-001 -1.374982e+002 -6.011966e+001 4.005335e+001 -6.009319e+001 5.230203e+001 -1.547049e-001 1.304859e+002
518750000 -2.676882e-001 -1.378292e+002 -6.026221e+001 4.197533e+001 -5.843679e+001 4.378543e+001 -1.603531e-001 1.305112e+002
519375000 -2.781738e-001 -1.381093e+002 -6.001257e+001 3.599733e+001 -5.865939e+001 4.706537e+001 -1.492903e-001 1.304626e+002
520000000 -2.801680e-001 -1.385138e+002 -5.968417e+001 3.267687e+001 -5.944333e+001 4.412130e+001 -1.494679e-001 1.304302e+002
520625000 -2.808703e-001 -1.388879e+002 -5.787978e+001 4.390391e+001 -5.936074e+001 3.833417e+001 -1.483486e-001 1.304031e+002
521250000 -2.902608e-001 -1.391904e+002 -5.812555e+001 3.568666e+001 -5.868696e+001 3.698870e+001 -1.458123e-001 1.304591e+002
521875000 -3.005900e-001 -1.395567e+002 -5.860563e+001 3.718324e+001 -5.909696e+001 4.496618e+001 -1.401137e-001 1.304958e+002
522500000 -2.985261e-001 -1.398965e+002 -5.943077e+001 3.009700e+001 -5.794299e+001 4.133624e+001 -1.458691e-001 1.304765e+002
523125000 -3.219688e-001 -1.402883e+002 -5.938013e+001 2.750908e+001 -5.798298e+001 3.447680e+001 -1.479416e-001 1.304847e+002
523750000 -3.226744e-001 -1.406023e+002 -5.791515e+001 2.919024e+001 -5.724150e+001 3.483358e+001 -1.428241e-001 1.305465e+002
524375000 -3.368186e-001 -1.409802e+002 -5.644496e+001 3.113706e+001 -5.925450e+001 3.187740e+001 -1.429349e-001 1.305349e+002
525000000 -3.410597e-001 -1.412381e+002 -5.885938e+001 3.433788e+001 -6.013292e+001 3.160086e+001 -1.427624e-001 1.305647e+002
525625000 -3.598768e-001 -1.415379e+002 -5.762079e+001 1.531992e+001 -5.883099e+001 3.673838e+001 -1.518874e-001 1.305654e+002
526250000 -3.578860e-001 -1.418850e+002 -5.852412e+001 2.075803e+001 -5.885266e+001 2.979266e+001 -1.538809e-001 1.306131e+002
526875000 -3.736023e-001 -1.422141e+002 -5.672713e+001 1.449887e+001 -5.802332e+001 2.367824e+001 -1.448033e-001 1.305917e+002
527500000 -3.808997e-001 -1.424740e+002 -5.680312e+001 2.780609e+001 -5.680404e+001 2.821649e+001 -1.546689e-001 1.305730e+002
528125000 -4.069947e-001 -1.427854e+002 -5.627258e+001 1.803785e+001 -5.712592e+001 3.139482e+001 -1.631460e-001 1.306206e+002
528750000 -4.104828e-001 -1.430338e+002 -5.828701e+001 1.253077e+001 -5.800359e+001 2.196987e+001 -1.497084e-001 1.307451e+002
529375000 -4.249565e-001 -1.432915e+002 -5.698592e+001 2.020028e+001 -5.719680e+001 1.285251e+001 -1.576207e-001 1.306643e+002
530000000 -4.323300e-001 -1.436285e+002 -5.733470e+001 1.839895e+001 -5.594362e+001 1.495533e+001 -1.495839e-001 1.306545e+002
530625000 -4.326844e-001 -1.439280e+002 -5.610567e+001 8.079806e+000 -5.679449e+001 1.202881e+001 -1.511814e-001 1.306660e+002
531250000 -4.301696e-001 -1.442270e+002 -5.668541e+001 5.171105e+000 -5.704600e+001 4.760672e+000 -1.517446e-001 1.306734e+002
531875000 -4.498665e-001 -1.445108e+002 -5.785646e+001 1.711576e+001 -5.656572e+001 1.301001e+001 -1.612946e-001 1.306280e+002
532500000 -4.518027e-001 -1.447883e+002 -5.731602e+001 3.049329e+000 -5.869615e+001 -1.754361e+000 -1.579061e-001 1.306652e+002
533125000 -4.529321e-001 -1.451657e+002 -5.676094e+001 2.127550e+000 -5.621721e+001 7.580294e+000 -1.645265e-001 1.306759e+002
533750000 -4.620982e-001 -1.455529e+002 -5.805402e+001 -1.967550e+000 -5.670968e+001 2.655597e+000 -1.737097e-001 1.306024e+002
534375000 -4.671970e-001 -1.458322e+002 -5.763179e+001 1.232027e+001 -5.720579e+001 3.258809e+000 -1.617422e-001 1.305536e+002
535000000 -4.721260e-001 -1.461944e+002 -5.631904e+001 2.194391e+000 -5.735440e+001 1.361285e+000 -1.700430e-001 1.305209e+002
535625000 -4.795331e-001 -1.465619e+002 -5.760693e+001 -5.434369e+000 -5.644735e+001 2.778371e-001 -1.630312e-001 1.304563e+002
536250000 -4.827603e-001 -1.469285e+002 -5.699829e+001 -7.450814e+000 -5.675475e+001 -2.397439e+000 -1.667255e-001 1.303549e+002
536875000 -4.879050e-001 -1.473054e+002 -5.551271e+001 1.289386e+000 -5.958643e+001 3.147305e+000 -1.713371e-001 1.303108e+002
537500000 -4.928452e-001 -1.476088e+002 -5.683429e+001 -9.210524e+000 -5.694303e+001 -9.174350e+000 -1.642716e-001 1.302692e+002
538125000 -4.981893e-001 -1.479682e+002 -5.682334e+001 -2.202254e+001 -5.631424e+001 2.913559e+000 -1.792576e-001 1.301494e+002
538750000 -5.144720e-001 -1.483438e+002 -5.585345e+001 -6.827677e+000 -5.671272e+001 -5.117967e+000 -1.774005e-001 1.300721e+002
539375000 -5.242655e-001 -1.486644e+002 -5.658595e+001 -6.645469e+000 -5.711604e+001 -3.039366e+000 -1.756877e-001 1.299932e+002
540000000 -5.234269e-001 -1.490333e+002 -5.632657e+001 -1.283704e+001 -5.639436e+001 -9.916315e+000 -1.792323e-001 1.299215e+002
540625000 -5.340759e-001 -1.493780e+002 -5.726312e+001 -8.089034e+000 -5.602255e+001 -1.034275e+001 -1.795759e-001 1.297887e+002
541250000 -5.398226e-001 -1.496444e+002 -5.683101e+001 -1.609719e+001 -5.712686e+001 -9.542172e+000 -1.715243e-001 1.297457e+002
541875000 -5.519961e-001 -1.499802e+002 -5.499369e+001 -6.396976e+000 -5.611944e+001 -1.396463e+001 -1.843298e-001 1.296454e+002
542500000 -5.508686e-001 -1.502931e+002 -5.669208e+001 -2.837099e+001 -5.682908e+001 -1.754318e+001 -1.736718e-001 1.296012e+002
543125000 -5.581401e-001 -1.506526e+002 -5.506240e+001 -1.399692e+001 -5.801854e+001 -1.544913e+001 -1.623973e-001 1.294658e+002
543750000 -5.578935e-001 -1.510025e+002 -5.568144e+001 -1.104958e+001 -5.628161e+001 -1.738726e+001 -1.815516e-001 1.294604e+002
544375000 -5.775366e-001 -1.513558e+002 -5.622144e+001 -1.036113e+001 -5.676748e+001 -1.674159e+001 -1.727016e-001 1.294066e+002
545000000 -5.804477e-001 -1.517017e+002 -5.728862e+001 -2.091149e+001 -5.550043e+001 -1.221972e+001 -1.691701e-001 1.293457e+002
545625000 -5.913330e-001 -1.520481e+002 -5.667427e+001 -1.786811e+001 -5.664925e+001 -1.660305e+001 -1.703055e-001 1.292938e+002
546250000 -6.194885e-001 -1.523963e+002 -5.517899e+001 -1.401921e+001 -5.474739e+001 -1.988065e+001 -1.794480e-001 1.292092e+002
546875000 -6.234856e-001 -1.527983e+002 -5.648093e+001 -2.477945e+001 -5.658579e+001 -2.268223e+001 -1.777744e-001 1.292633e+002
547500000 -6.450151e-001 -1.531282e+002 -5.618034e+001 -2.401456e+001 -5.657803e+001 -1.964882e+001 -1.777100e-001 1.291659e+002
548125000 -6.650266e-001 -1.534021e+002 -5.599915e+001 -2.155059e+001 -5.585648e+001 -2.793909e+001 -1.789526e-001 1.290273e+002
548750000 -6.750920e-001 -1.537893e+002 -5.522608e+001 -2.211761e+001 -5.561016e+001 -2.793993e+001 -1.801340e-001 1.289695e+002
549375000 -6.950666e-001 -1.540988e+002 -5.485246e+001 -2.712318e+001 -5.506223e+001 -2.885943e+001 -1.849905e-001 1.287667e+002
550000000 -7.028636e-001 -1.544090e+002 -5.510430e+001 -3.250251e+001 -5.484415e+001 -2.480163e+001 -1.918548e-001 1.287303e+002
550625000 -7.258978e-001 -1.547395e+002 -5.374928e+001 -3.246819e+001 -5.470487e+001 -2.181233e+001 -1.912554e-001 1.285878e+002
551250000 -7.260839e-001 -1.550253e+002 -5.410522e+001 -3.692143e+001 -5.445183e+001 -3.500116e+001 -1.946688e-001 1.284406e+002
551875000 -7.455183e-001 -1.553413e+002 -5.459432e+001 -3.517652e+001 -5.509406e+001 -3.375167e+001 -1.899865e-001 1.282387e+002
552500000 -7.532383e-001 -1.556944e+002 -5.459279e+001 -3.929296e+001 -5.445167e+001 -3.782469e+001 -1.959418e-001 1.281181e+002
553125000 -7.534090e-001 -1.559624e+002 -5.366486e+001 -3.664968e+001 -5.473344e+001 -4.539226e+001 -1.993937e-001 1.279868e+002
553750000 -7.765879e-001 -1.563235e+002 -5.387587e+001 -4.348104e+001 -5.444275e+001 -3.302463e+001 -1.994640e-001 1.277792e+002
554375000 -7.759216e-001 -1.565961e+002 -5.357514e+001 -4.575837e+001 -5.392355e+001 -3.941102e+001 -1.966651e-001 1.276477e+002
555000000 -7.823410e-001 -1.569666e+002 -5.398198e+001 -4.058986e+001 -5.385316e+001 -4.231176e+001 -1.942356e-001 1.275201e+002
555625000 -7.942241e-001 -1.572194e+002 -5.463651e+001 -5.088530e+001 -5.265588e+001 -4.399431e+001 -1.838924e-001 1.274426e+002
556250000 -8.051381e-001 -1.575952e+002 -5.446846e+001 -5.120954e+001 -5.396099e+001 -4.740491e+001 -1.874142e-001 1.272829e+002
556875000 -8.073292e-001 -1.579449e+002 -5.402782e+001 -4.421476e+001 -5.449245e+001 -4.379131e+001 -1.925440e-001 1.272006e+002
557500000 -8.222010e-001 -1.582155e+002 -5.350925e+001 -5.293497e+001 -5.365346e+001 -4.679412e+001 -1.876128e-001 1.271298e+002
558125000 -8.312781e-001 -1.585657e+002 -5.371278e+001 -5.413147e+001 -5.367325e+001 -4.793114e+001 -1.850598e-001 1.271099e+002
558750000 -8.345793e-001 -1.588039e+002 -5.408894e+001 -5.179647e+001 -5.434236e+001 -5.427988e+001 -1.734950e-001 1.270874e+002
559375000 -8.502882e-001 -1.591805e+002 -5.331989e+001 -5.561013e+001 -5.316690e+001 -5.391743e+001 -1.672562e-001 1.270883e+002
560000000 -8.547410e-001 -1.594719e+002 -5.292414e+001 -5.767580e+001 -5.357986e+001 -5.277525e+001 -1.579783e-001 1.270371e+002
560625000 -8.670878e-001 -1.597932e+002 -5.394500e+001 -6.057705e+001 -5.304136e+001 -6.461121e+001 -1.507727e-001 1.270746e+002
561250000 -8.720915e-001 -1.601621e+002 -5.265215e+001 -6.362701e+001 -5.303208e+001 -5.910181e+001 -1.602890e-001 1.270633e+002
561875000 -8.790828e-001 -1.605198e+002 -5.284362e+001 -6.872093e+001 -5.385736e+001 -6.186655e+001 -1.664344e-001 1.271805e+002
562500000 -8.962483e-001 -1.608174e+002 -5.371758e+001 -6.114857e+001 -5.358366e+001 -6.070540e+001 -1.607778e-001 1.272035e+002
563125000 -9.058142e-001 -1.611597e+002 -5.388422e+001 -6.885879e+001 -5.390042e+001 -6.433697e+001 -1.538296e-001 1.272419e+002
563750000 -9.297991e-001 -1.615869e+002 -5.391579e+001 -6.228293e+001 -5.324448e+001 -6.224453e+001 -1.593630e-001 1.272228e+002
564375000 -9.483101e-001 -1.619440e+002 -5.371727e+001 -6.516755e+001 -5.437861e+001 -6.614756e+001 -1.625324e-001 1.272987e+002
565000000 -9.607511e-001 -1.623765e+002 -5.317637e+001 -7.030694e+001 -5.299758e+001 -7.372873e+001 -1.648191e-001 1.273068e+002
565625000 -9.858451e-001 -1.627538e+002 -5.386013e+001 -6.611560e+001 -5.370287e+001 -7.062873e+001 -1.664920e-001 1.273013e+002
566250000 -1.000536e+000 -1.632270e+002 -5.284277e+001 -7.493236e+001 -5.351171e+001 -7.424442e+001 -1.691438e-001 1.273163e+002
566875000 -1.033064e+000 -1.636068e+002 -5.428858e+001 -7.497610e+001 -5.317965e+001 -6.946863e+001 -1.646221e-001 1.272487e+002
567500000 -1.055696e+000 -1.640702e+002 -5.323526e+001 -7.516902e+001 -5.328758e+001 -7.419679e+001 -1.710759e-001 1.272047e+002
568125000 -1.079874e+000 -1.644232e+002 -5.344929e+001 -7.550842e+001 -5.307920e+001 -7.543173e+001 -1.822636e-001 1.271804e+002
568750000 -1.102903e+000 -1.648257e+002 -5.289114e+001 -7.742471e+001 -5.318970e+001 -7.622067e+001 -1.881866e-001 1.271017e+002
569375000 -1.124254e+000 -1.652756e+002 -5.245160e+001 -8.098589e+001 -5.382440e+001 -7.862453e+001 -1.869616e-001 1.269921e+002
570000000 -1.142333e+000 -1.657140e+002 -5.265668e+001 -7.685252e+001 -5.340146e+001 -7.865302e+001 -1.881083e-001 1.269254e+002
570625000 -1.154823e+000 -1.660904e+002 -5.298369e+001 -8.501131e+001 -5.329467e+001 -7.558106e+001 -1.812505e-001 1.268825e+002
571250000 -1.177327e+000 -1.665066e+002 -5.294382e+001 -8.151924e+001 -5.193086e+001 -8.342312e+001 -1.840890e-001 1.268769e+002
571875000 -1.197791e+000 -1.669113e+002 -5.210207e+001 -8.014734e+001 -5.204209e+001 -8.271322e+001 -1.772424e-001 1.268007e+002
572500000 -1.216768e+000 -1.673923e+002 -5.236699e+001 -8.751238e+001 -5.342668e+001 -8.712374e+001 -1.783918e-001 1.267148e+002
573125000 -1.242220e+000 -1.678262e+002 -5.268246e+001 -8.491766e+001 -5.236388e+001 -8.852734e+001 -1.749138e-001 1.266987e+002
573750000 -1.264804e+000 -1.682351e+002 -5.256367e+001 -9.684047e+001 -5.263900e+001 -9.112198e+001 -1.852407e-001 1.266030e+002
574375000 -1.290611e+000 -1.686672e+002 -5.288344e+001 -8.833385e+001 -5.252721e+001 -9.391246e+001 -1.862617e-001 1.266283e+002
575000000 -1.314198e+000 -1.690910e+002 -5.179894e+001 -9.396782e+001 -5.158660e+001 -9.030408e+001 -1.865663e-001 1.264804e+002
575625000 -1.336594e+000 -1.694559e+002 -5.286115e+001 -9.668054e+001 -5.200334e+001 -9.330098e+001 -1.896129e-001 1.264113e+002
576250000 -1.356846e+000 -1.698146e+002 -5.274179e+001 -9.254527e+001 -5.273943e+001 -9.828468e+001 -1.896528e-001 1.263074e+002
576875000 -1.369827e+000 -1.702073e+002 -5.290105e+001 -9.935970e+001 -5.252650e+001 -9.932670e+001 -1.890728e-001 1.262691e+002
577500000 -1.399108e+000 -1.705668e+002 -5.250641e+001 -9.891850e+001 -5.184283e+001 -9.702656e+001 -1.880013e-001 1.261147e+002
578125000 -1.423102e+000 -1.709850e+002 -5.204015e+001 -9.945233e+001 -5.239285e+001 -9.569140e+001 -1.921553e-001 1.260687e+002
578750000 -1.445609e+000 -1.714285e+002 -5.302824e+001 -9.861951e+001 -5.198316e+001 -1.006005e+002 -2.031518e-001 1.258767e+002
579375000 -1.463117e+000 -1.717578e+002 -5.205003e+001 -1.044379e+002 -5.172514e+001 -1.020717e+002 -2.047960e-001 1.257633e+002
580000000 -1.495316e+000 -1.721366e+002 -5.185583e+001 -1.022078e+002 -5.262649e+001 -1.002519e+002 -2.087775e-001 1.255270e+002
580625000 -1.518251e+000 -1.725526e+002 -5.182861e+001 -1.028628e+002 -5.218113e+001 -1.065374e+002 -1.989428e-001 1.253937e+002
581250000 -1.537172e+000 -1.729323e+002 -5.173850e+001 -1.063703e+002 -5.187461e+001 -1.026465e+002 -2.123007e-001 1.252070e+002
581875000 -1.553665e+000 -1.733272e+002 -5.208689e+001 -1.040930e+002 -5.150594e+001 -1.047608e+002 -2.102816e-001 1.249972e+002
582500000 -1.571602e+000 -1.737026e+002 -5.114509e+001 -1.119621e+002 -5.187020e+001 -1.055215e+002 -2.149346e-001 1.247927e+002
583125000 -1.579738e+000 -1.742579e+002 -5.085765e+001 -1.126648e+002 -5.102144e+001 -1.091954e+002 -2.198369e-001 1.245043e+002
583750000 -1.604590e+000 -1.747094e+002 -5.214478e+001 -1.065988e+002 -5.144644e+001 -1.120494e+002 -2.231939e-001 1.242736e+002
584375000 -1.618709e+000 -1.751991e+002 -5.104303e+001 -1.108136e+002 -5.171872e+001 -1.136832e+002 -2.220327e-001 1.241056e+002
585000000 -1.635181e+000 -1.756714e+002 -5.169558e+001 -1.170783e+002 -5.108686e+001 -1.152421e+002 -2.111717e-001 1.238496e+002
585625000 -1.670793e+000 -1.761393e+002 -5.141267e+001 -1.189759e+002 -5.113113e+001 -1.130757e+002 -2.078591e-001 1.236967e+002
586250000 -1.686026e+000 -1.766391e+002 -5.152427e+001 -1.189617e+002 -5.170074e+001 -1.168317e+002 -2.025816e-001 1.235932e+002
586875000 -1.695254e+000 -1.771931e+002 -5.066568e+001 -1.206128e+002 -5.179541e+001 -1.149379e+002 -2.046457e-001 1.233500e+002
587500000 -1.720525e+000 -1.776528e+002 -5.094296e+001 -1.245561e+002 -5.120089e+001 -1.157055e+002 -1.955148e-001 1.232376e+002
588125000 -1.741295e+000 -1.781109e+002 -5.129008e+001 -1.217958e+002 -5.161416e+001 -1.186103e+002 -1.904988e-001 1.231543e+002
588750000 -1.761660e+000 -1.786515e+002 -5.138099e+001 -1.229620e+002 -5.048158e+001 -1.237508e+002 -1.916065e-001 1.230814e+002
589375000 -1.784550e+000 -1.791119e+002 -5.103776e+001 -1.264376e+002 -5.078288e+001 -1.236633e+002 -1.793172e-001 1.229767e+002
590000000 -1.825818e+000 -1.796322e+002 -5.123937e+001 -1.253833e+002 -5.045308e+001 -1.266121e+002 -1.779150e-001 1.230236e+002
590625000 -1.861904e+000 1.799274e+002 -5.078206e+001 -1.282519e+002 -5.051994e+001 -1.281466e+002 -1.726733e-001 1.229698e+002
591250000 -1.899200e+000 1.795053e+002 -5.213187e+001 -1.333198e+002 -5.095733e+001 -1.292205e+002 -1.720037e-001 1.229550e+002
591875000 -1.942226e+000 1.792015e+002 -5.032428e+001 -1.370016e+002 -5.180134e+001 -1.289045e+002 -1.612481e-001 1.230033e+002
592500000 -1.977259e+000 1.788602e+002 -5.090705e+001 -1.293565e+002 -5.100265e+001 -1.300436e+002 -1.659041e-001 1.230377e+002
593125000 -2.004290e+000 1.785940e+002 -5.053749e+001 -1.359889e+002 -5.029301e+001 -1.351686e+002 -1.752479e-001 1.232026e+002
593750000 -2.028943e+000 1.782886e+002 -5.157039e+001 -1.333803e+002 -5.028585e+001 -1.347724e+002 -1.541744e-001 1.232486e+002
594375000 -2.044012e+000 1.779954e+002 -5.053086e+001 -1.371471e+002 -5.019253e+001 -1.360458e+002 -1.485140e-001 1.232892e+002
595000000 -2.071426e+000 1.776661e+002 -5.003807e+001 -1.366262e+002 -5.024497e+001 -1.357409e+002 -1.717968e-001 1.233546e+002
