!Agilent Technologies,E8364B,US42250235,A.06.04.32
!Agilent E8364B: A.06.04.32
!Date: Thursday, October 01, 2020 13:24:50
!Correction: S11(Full 2 Port(1,2)) S21(Full 2 Port(1,2)) S12(Full 2 Port(1,2)) S22(Full 2 Port(1,2)) 
!S2P File: Measurements: S11, S21, S12, S22:
# Hz S  dB   R 50
500000000 -2.056022e-001 -1.750263e+002 -6.255875e+001 -3.869202e+000 -6.294816e+001 -1.632596e+001 -1.938632e-001 1.365403e+002
500377500.94375 -2.044811e-001 -1.751559e+002 -6.313385e+001 -9.642425e+000 -6.252124e+001 -1.670867e+001 -1.926734e-001 1.364381e+002
500755001.8875 -2.025819e-001 -1.754110e+002 -6.220503e+001 -1.349504e+001 -6.206190e+001 -6.314252e+000 -1.911986e-001 1.363173e+002
501132502.83126 -2.117019e-001 -1.755846e+002 -6.204685e+001 -1.470158e+001 -6.238615e+001 -1.856113e+001 -1.874961e-001 1.362264e+002
501510003.77501 -2.169462e-001 -1.757517e+002 -6.195872e+001 -1.168621e+001 -6.337632e+001 -2.028194e+001 -1.826205e-001 1.361648e+002
501887504.71876 -2.224983e-001 -1.760016e+002 -6.323548e+001 -1.460921e+001 -6.277340e+001 -1.650748e+001 -1.852846e-001 1.360446e+002
502265005.66251 -2.234677e-001 -1.761964e+002 -6.265208e+001 -1.574135e+001 -6.266387e+001 -2.462013e+001 -1.780444e-001 1.359771e+002
502642506.60627 -2.269614e-001 -1.764193e+002 -6.305117e+001 -1.924981e+001 -6.263448e+001 -1.806890e+001 -1.777641e-001 1.359122e+002
503020007.55002 -2.311762e-001 -1.766236e+002 -6.291532e+001 -9.481031e+000 -6.264174e+001 -2.307245e+001 -1.727501e-001 1.358544e+002
503397508.49377 -2.336309e-001 -1.767909e+002 -6.151180e+001 -1.451900e+001 -6.277461e+001 -1.834612e+001 -1.647462e-001 1.357841e+002
503775009.43752 -2.355566e-001 -1.770419e+002 -6.234673e+001 -1.833529e+001 -6.163631e+001 -1.875192e+001 -1.639923e-001 1.357632e+002
504152510.38128 -2.386837e-001 -1.772642e+002 -6.236994e+001 -2.088107e+001 -6.224868e+001 -2.641885e+001 -1.595384e-001 1.357438e+002
504530011.32503 -2.427769e-001 -1.774362e+002 -6.211820e+001 -2.589708e+001 -6.163945e+001 -2.439829e+001 -1.559699e-001 1.357163e+002
504907512.26878 -2.454499e-001 -1.776669e+002 -6.189635e+001 -2.051354e+001 -6.264576e+001 -2.961802e+001 -1.473018e-001 1.357104e+002
505285013.21253 -2.409505e-001 -1.779097e+002 -6.295535e+001 -2.197529e+001 -6.202804e+001 -1.894930e+001 -1.486998e-001 1.357374e+002
505662514.15629 -2.446732e-001 -1.780864e+002 -6.155297e+001 -2.411539e+001 -6.242237e+001 -2.251482e+001 -1.403884e-001 1.357215e+002
506040015.10004 -2.467105e-001 -1.782965e+002 -6.173301e+001 -2.628039e+001 -6.299773e+001 -2.171042e+001 -1.348832e-001 1.357515e+002
506417516.04379 -2.475661e-001 -1.784662e+002 -6.207731e+001 -2.151135e+001 -6.255114e+001 -2.903123e+001 -1.255007e-001 1.358094e+002
506795016.98754 -2.505659e-001 -1.787128e+002 -6.231934e+001 -2.833617e+001 -6.239753e+001 -3.048870e+001 -1.212763e-001 1.358557e+002
507172517.93129 -2.514739e-001 -1.789160e+002 -6.263411e+001 -2.464359e+001 -6.298803e+001 -2.655792e+001 -1.127981e-001 1.359250e+002
507550018.87505 -2.482041e-001 -1.791724e+002 -6.185321e+001 -2.407347e+001 -6.231938e+001 -3.068907e+001 -1.080250e-001 1.360051e+002
507927519.8188 -2.497411e-001 -1.793260e+002 -6.250456e+001 -2.251880e+001 -6.186705e+001 -2.970527e+001 -1.066780e-001 1.361041e+002
508305020.76255 -2.514127e-001 -1.795336e+002 -6.245723e+001 -3.042337e+001 -6.274239e+001 -2.956211e+001 -1.011611e-001 1.361780e+002
508682521.7063 -2.492159e-001 -1.797742e+002 -6.173287e+001 -2.862995e+001 -6.198944e+001 -3.558916e+001 -9.383620e-002 1.362925e+002
509060022.65006 -2.511909e-001 -1.799541e+002 -6.154494e+001 -2.823569e+001 -6.162045e+001 -3.232899e+001 -9.239412e-002 1.364134e+002
509437523.59381 -2.536564e-001 1.798709e+002 -6.177223e+001 -3.382811e+001 -6.213707e+001 -2.944877e+001 -8.575862e-002 1.365475e+002
509815024.53756 -2.530667e-001 1.796463e+002 -6.186259e+001 -2.552391e+001 -6.142612e+001 -3.142468e+001 -8.170210e-002 1.366937e+002
510192525.48131 -2.530325e-001 1.794574e+002 -6.211630e+001 -3.197947e+001 -6.123394e+001 -3.159550e+001 -7.948302e-002 1.368074e+002
510570026.42507 -2.512783e-001 1.792912e+002 -6.184581e+001 -3.035768e+001 -6.201065e+001 -3.493112e+001 -8.131368e-002 1.369895e+002
510947527.36882 -2.534610e-001 1.790662e+002 -6.140859e+001 -3.093030e+001 -6.134536e+001 -3.764285e+001 -7.531580e-002 1.371377e+002
511325028.31257 -2.511936e-001 1.788507e+002 -6.122094e+001 -3.156230e+001 -6.130819e+001 -3.625712e+001 -7.563732e-002 1.372902e+002
511702529.25632 -2.566757e-001 1.786393e+002 -6.134410e+001 -2.929964e+001 -6.156977e+001 -3.248373e+001 -7.760189e-002 1.374441e+002
512080030.20008 -2.560549e-001 1.784870e+002 -6.269032e+001 -3.422501e+001 -6.105788e+001 -3.854485e+001 -7.762546e-002 1.376095e+002
512457531.14383 -2.562728e-001 1.781976e+002 -6.200220e+001 -3.809443e+001 -6.182987e+001 -3.616196e+001 -7.753436e-002 1.377559e+002
512835032.08758 -2.615695e-001 1.780500e+002 -6.168431e+001 -3.572355e+001 -6.082659e+001 -3.871807e+001 -7.785750e-002 1.379081e+002
513212533.03133 -2.645711e-001 1.778180e+002 -6.133564e+001 -3.746886e+001 -6.100837e+001 -4.271069e+001 -8.475350e-002 1.380544e+002
513590033.97508 -2.635009e-001 1.776328e+002 -6.066004e+001 -3.630526e+001 -6.101426e+001 -3.721797e+001 -8.513099e-002 1.382179e+002
513967534.91884 -2.680658e-001 1.774209e+002 -6.133480e+001 -3.490112e+001 -6.139063e+001 -3.582672e+001 -8.712768e-002 1.383580e+002
514345035.86259 -2.638761e-001 1.771674e+002 -6.041154e+001 -3.588664e+001 -6.084557e+001 -3.958981e+001 -9.243361e-002 1.384812e+002
514722536.80634 -2.750084e-001 1.770015e+002 -6.055889e+001 -3.729604e+001 -6.141217e+001 -3.998792e+001 -9.601676e-002 1.386043e+002
515100037.75009 -2.755093e-001 1.767954e+002 -6.048664e+001 -3.445115e+001 -6.085000e+001 -4.251219e+001 -1.008826e-001 1.386968e+002
515477538.69385 -2.793562e-001 1.765547e+002 -6.015409e+001 -3.357225e+001 -6.090266e+001 -4.488307e+001 -1.031105e-001 1.388085e+002
515855039.6376 -2.830032e-001 1.763416e+002 -6.025247e+001 -3.721803e+001 -6.088510e+001 -4.478118e+001 -1.124475e-001 1.388942e+002
516232540.58135 -2.867001e-001 1.761328e+002 -6.044447e+001 -3.718957e+001 -6.049376e+001 -4.415881e+001 -1.149336e-001 1.389570e+002
516610041.5251 -2.903558e-001 1.759205e+002 -6.057014e+001 -4.083669e+001 -6.013165e+001 -4.675895e+001 -1.230641e-001 1.390016e+002
516987542.46886 -2.907431e-001 1.756789e+002 -6.006188e+001 -4.468371e+001 -6.026638e+001 -5.019519e+001 -1.336512e-001 1.390234e+002
517365043.41261 -2.968043e-001 1.755072e+002 -5.928803e+001 -4.463453e+001 -5.969316e+001 -4.659109e+001 -1.395943e-001 1.390423e+002
517742544.35636 -2.998087e-001 1.752944e+002 -5.940152e+001 -4.427049e+001 -6.010451e+001 -4.521732e+001 -1.451742e-001 1.390352e+002
518120045.30011 -2.991244e-001 1.749892e+002 -6.004953e+001 -4.427951e+001 -5.983748e+001 -4.679004e+001 -1.523547e-001 1.389991e+002
518497546.24387 -3.090032e-001 1.748245e+002 -5.877124e+001 -4.834220e+001 -5.963119e+001 -4.981800e+001 -1.590542e-001 1.389639e+002
518875047.18762 -3.104650e-001 1.745234e+002 -5.898121e+001 -4.678500e+001 -5.948528e+001 -5.128945e+001 -1.662028e-001 1.389072e+002
519252548.13137 -3.141408e-001 1.743632e+002 -5.957467e+001 -4.470852e+001 -5.903775e+001 -5.217358e+001 -1.690036e-001 1.388661e+002
519630049.07512 -3.158318e-001 1.740887e+002 -5.907724e+001 -4.976465e+001 -5.941597e+001 -5.084674e+001 -1.744524e-001 1.387676e+002
520007550.01888 -3.182936e-001 1.737934e+002 -5.897681e+001 -5.250607e+001 -5.935119e+001 -5.627212e+001 -1.838686e-001 1.386564e+002
520385050.96263 -3.228070e-001 1.736055e+002 -5.927005e+001 -5.160594e+001 -5.890587e+001 -5.490977e+001 -1.871683e-001 1.385512e+002
520762551.90638 -3.279031e-001 1.733452e+002 -5.905563e+001 -5.449940e+001 -5.888173e+001 -5.690896e+001 -1.957922e-001 1.384101e+002
521140052.85013 -3.279638e-001 1.731642e+002 -5.885488e+001 -5.989342e+001 -5.897911e+001 -5.693276e+001 -1.999296e-001 1.382489e+002
521517553.79388 -3.318440e-001 1.729072e+002 -5.884404e+001 -5.901861e+001 -5.921186e+001 -5.925486e+001 -2.038001e-001 1.380949e+002
521895054.73764 -3.345186e-001 1.726891e+002 -5.942672e+001 -6.050575e+001 -5.891521e+001 -5.934662e+001 -2.073986e-001 1.379130e+002
522272555.68139 -3.352237e-001 1.724106e+002 -5.952113e+001 -6.278389e+001 -5.849109e+001 -6.251397e+001 -2.103938e-001 1.377545e+002
522650056.62514 -3.373180e-001 1.722131e+002 -5.785135e+001 -6.180837e+001 -5.930082e+001 -6.427585e+001 -2.067654e-001 1.375587e+002
523027557.56889 -3.397779e-001 1.719618e+002 -5.942551e+001 -6.362048e+001 -5.864598e+001 -6.476884e+001 -2.144305e-001 1.374036e+002
523405058.51265 -3.438279e-001 1.716760e+002 -5.892483e+001 -6.454388e+001 -5.822166e+001 -6.864722e+001 -2.147989e-001 1.371404e+002
523782559.4564 -3.450506e-001 1.714644e+002 -5.864177e+001 -6.286173e+001 -5.855305e+001 -6.347750e+001 -2.130329e-001 1.370181e+002
524160060.40015 -3.474872e-001 1.711768e+002 -5.886929e+001 -6.822405e+001 -5.819017e+001 -6.730278e+001 -2.117502e-001 1.368346e+002
524537561.3439 -3.486136e-001 1.709894e+002 -5.884003e+001 -6.686313e+001 -5.841211e+001 -6.979110e+001 -2.132287e-001 1.367063e+002
524915062.28766 -3.522961e-001 1.707069e+002 -5.918952e+001 -6.629058e+001 -5.845339e+001 -7.036766e+001 -2.143701e-001 1.364672e+002
525292563.23141 -3.536628e-001 1.703997e+002 -5.806684e+001 -6.735040e+001 -5.869918e+001 -7.070169e+001 -2.113101e-001 1.362859e+002
525670064.17516 -3.596062e-001 1.701928e+002 -5.868822e+001 -7.213483e+001 -5.836300e+001 -7.190523e+001 -2.063341e-001 1.361060e+002
526047565.11891 -3.654563e-001 1.699592e+002 -5.953286e+001 -7.000130e+001 -5.821019e+001 -7.325037e+001 -2.034679e-001 1.359532e+002
526425066.06267 -3.691639e-001 1.697090e+002 -5.928279e+001 -6.864185e+001 -5.900643e+001 -7.670084e+001 -2.021779e-001 1.358224e+002
526802567.00642 -3.720570e-001 1.694691e+002 -5.920454e+001 -7.241462e+001 -5.853549e+001 -7.818476e+001 -1.965029e-001 1.356770e+002
527180067.95017 -3.806919e-001 1.692406e+002 -5.907774e+001 -6.893638e+001 -5.866463e+001 -7.434367e+001 -1.882045e-001 1.355375e+002
527557568.89392 -3.844183e-001 1.689943e+002 -5.918055e+001 -7.343073e+001 -5.888523e+001 -7.904904e+001 -1.826393e-001 1.354106e+002
527935069.83767 -3.896669e-001 1.687850e+002 -5.892710e+001 -7.548533e+001 -5.912746e+001 -8.163584e+001 -1.852841e-001 1.352835e+002
528312570.78143 -3.976516e-001 1.685041e+002 -5.916862e+001 -7.710774e+001 -5.850415e+001 -7.628087e+001 -1.767162e-001 1.352365e+002
528690071.72518 -4.004883e-001 1.682576e+002 -5.853755e+001 -7.484480e+001 -5.903399e+001 -8.028970e+001 -1.704471e-001 1.351008e+002
529067572.66893 -4.096974e-001 1.680824e+002 -5.904121e+001 -7.527119e+001 -5.873896e+001 -8.048904e+001 -1.653685e-001 1.350344e+002
529445073.61268 -4.066314e-001 1.677926e+002 -5.928749e+001 -7.599410e+001 -5.849083e+001 -8.032639e+001 -1.627022e-001 1.349585e+002
529822574.55644 -4.174405e-001 1.675420e+002 -5.867440e+001 -7.751575e+001 -5.826075e+001 -8.375150e+001 -1.553096e-001 1.348954e+002
530200075.50019 -4.228666e-001 1.672782e+002 -5.869971e+001 -7.978107e+001 -5.829851e+001 -8.157684e+001 -1.504208e-001 1.348596e+002
530577576.44394 -4.325657e-001 1.671175e+002 -5.893878e+001 -7.888656e+001 -5.909750e+001 -8.391908e+001 -1.471536e-001 1.347998e+002
530955077.38769 -4.364979e-001 1.668350e+002 -5.848452e+001 -7.988211e+001 -5.842680e+001 -8.405938e+001 -1.426395e-001 1.347429e+002
531332578.33145 -4.424244e-001 1.666146e+002 -5.908779e+001 -7.619096e+001 -5.863259e+001 -8.321758e+001 -1.399865e-001 1.347342e+002
531710079.2752 -4.483936e-001 1.663155e+002 -5.848391e+001 -8.037425e+001 -5.824378e+001 -8.448740e+001 -1.368634e-001 1.347223e+002
532087580.21895 -4.561581e-001 1.661316e+002 -5.876764e+001 -8.219497e+001 -5.824120e+001 -8.463653e+001 -1.285432e-001 1.346944e+002
532465081.1627 -4.616334e-001 1.658804e+002 -5.852259e+001 -8.528227e+001 -5.844072e+001 -8.516569e+001 -1.315177e-001 1.347016e+002
532842582.10646 -4.649539e-001 1.656492e+002 -5.820910e+001 -8.243840e+001 -5.827956e+001 -8.832370e+001 -1.259380e-001 1.346635e+002
533220083.05021 -4.758644e-001 1.654479e+002 -5.896167e+001 -7.631841e+001 -5.821672e+001 -8.503111e+001 -1.206255e-001 1.346660e+002
533597583.99396 -4.822921e-001 1.652028e+002 -5.866280e+001 -7.889842e+001 -5.835938e+001 -8.727866e+001 -1.229944e-001 1.346531e+002
533975084.93771 -4.893604e-001 1.649669e+002 -5.865666e+001 -8.427032e+001 -5.851390e+001 -9.073464e+001 -1.172320e-001 1.346734e+002
534352585.88146 -4.976318e-001 1.647566e+002 -5.868177e+001 -8.360552e+001 -5.846967e+001 -8.531036e+001 -1.110923e-001 1.346612e+002
534730086.82522 -5.011480e-001 1.644665e+002 -5.863473e+001 -8.445930e+001 -5.810196e+001 -8.706577e+001 -1.174277e-001 1.346647e+002
535107587.76897 -5.087100e-001 1.643032e+002 -5.833114e+001 -8.330347e+001 -5.845279e+001 -8.709274e+001 -1.102983e-001 1.347037e+002
535485088.71272 -5.143237e-001 1.640410e+002 -5.886531e+001 -8.380331e+001 -5.834364e+001 -9.294939e+001 -1.162289e-001 1.346577e+002
535862589.65647 -5.197031e-001 1.637947e+002 -5.774493e+001 -8.890569e+001 -5.766269e+001 -8.990576e+001 -1.152011e-001 1.346696e+002
536240090.60023 -5.240303e-001 1.635894e+002 -5.794774e+001 -8.345518e+001 -5.769254e+001 -8.807468e+001 -1.120022e-001 1.346758e+002
536617591.54398 -5.327991e-001 1.633162e+002 -5.756768e+001 -8.586085e+001 -5.749718e+001 -9.222037e+001 -1.144784e-001 1.346778e+002
536995092.48773 -5.377632e-001 1.631090e+002 -5.807883e+001 -8.318167e+001 -5.708562e+001 -9.214712e+001 -1.121037e-001 1.347433e+002
537372593.43148 -5.443864e-001 1.627846e+002 -5.739001e+001 -8.805142e+001 -5.743339e+001 -9.329886e+001 -1.138228e-001 1.346669e+002
537750094.37524 -5.563752e-001 1.626350e+002 -5.737710e+001 -8.476055e+001 -5.700875e+001 -9.029868e+001 -1.198857e-001 1.346664e+002
538127595.31899 -5.616817e-001 1.623268e+002 -5.711991e+001 -9.046117e+001 -5.686707e+001 -9.294646e+001 -1.151079e-001 1.346721e+002
538505096.26274 -5.695202e-001 1.620486e+002 -5.729062e+001 -9.126805e+001 -5.686002e+001 -9.390697e+001 -1.186122e-001 1.346957e+002
538882597.20649 -5.804591e-001 1.618789e+002 -5.686935e+001 -8.993996e+001 -5.654692e+001 -9.554322e+001 -1.178076e-001 1.346621e+002
539260098.15025 -5.877266e-001 1.615833e+002 -5.680817e+001 -9.052450e+001 -5.667741e+001 -9.632792e+001 -1.195296e-001 1.346579e+002
539637599.094 -5.984397e-001 1.613488e+002 -5.672359e+001 -9.054857e+001 -5.631609e+001 -9.759428e+001 -1.195501e-001 1.346609e+002
540015100.03775 -6.087709e-001 1.611145e+002 -5.694267e+001 -9.376969e+001 -5.629905e+001 -9.710168e+001 -1.238290e-001 1.346466e+002
540392600.9815 -6.206790e-001 1.609018e+002 -5.647861e+001 -9.247486e+001 -5.658901e+001 -1.005622e+002 -1.205144e-001 1.346556e+002
540770101.92525 -6.284956e-001 1.606936e+002 -5.645467e+001 -9.181654e+001 -5.598663e+001 -9.721266e+001 -1.217285e-001 1.346481e+002
541147602.86901 -6.372156e-001 1.603748e+002 -5.642380e+001 -9.529497e+001 -5.655893e+001 -1.020447e+002 -1.199699e-001 1.346638e+002
541525103.81276 -6.467437e-001 1.601915e+002 -5.606634e+001 -9.629718e+001 -5.638208e+001 -1.009833e+002 -1.221320e-001 1.346497e+002
541902604.75651 -6.557342e-001 1.600072e+002 -5.619382e+001 -9.384709e+001 -5.633877e+001 -1.025319e+002 -1.184404e-001 1.347110e+002
542280105.70026 -6.677402e-001 1.596829e+002 -5.623019e+001 -9.809363e+001 -5.582782e+001 -1.027802e+002 -1.208950e-001 1.346528e+002
542657606.64402 -6.662339e-001 1.594882e+002 -5.603788e+001 -9.903357e+001 -5.623658e+001 -1.038773e+002 -1.177600e-001 1.346852e+002
543035107.58777 -6.767474e-001 1.592711e+002 -5.595217e+001 -9.967641e+001 -5.582901e+001 -1.020517e+002 -1.205106e-001 1.346879e+002
543412608.53152 -6.837335e-001 1.590140e+002 -5.591570e+001 -1.013548e+002 -5.581009e+001 -1.052844e+002 -1.179068e-001 1.346996e+002
543790109.47527 -6.911124e-001 1.587716e+002 -5.564638e+001 -9.930287e+001 -5.602711e+001 -1.061341e+002 -1.153764e-001 1.347025e+002
544167610.41903 -6.955719e-001 1.585810e+002 -5.579635e+001 -1.020147e+002 -5.568968e+001 -1.060254e+002 -1.183331e-001 1.347294e+002
544545111.36278 -6.982235e-001 1.582702e+002 -5.546607e+001 -1.026148e+002 -5.538865e+001 -1.089837e+002 -1.173362e-001 1.347180e+002
544922612.30653 -7.048290e-001 1.580442e+002 -5.573309e+001 -1.057015e+002 -5.542195e+001 -1.094336e+002 -1.165224e-001 1.346959e+002
545300113.25028 -7.085816e-001 1.577846e+002 -5.526921e+001 -1.052394e+002 -5.522127e+001 -1.115677e+002 -1.189725e-001 1.347346e+002
545677614.19404 -7.166398e-001 1.575099e+002 -5.564437e+001 -1.060095e+002 -5.550903e+001 -1.118526e+002 -1.184074e-001 1.347417e+002
546055115.13779 -7.224338e-001 1.573262e+002 -5.551609e+001 -1.060469e+002 -5.532305e+001 -1.121122e+002 -1.197951e-001 1.347396e+002
546432616.08154 -7.335113e-001 1.570479e+002 -5.522691e+001 -1.106711e+002 -5.537611e+001 -1.115805e+002 -1.170792e-001 1.347637e+002
546810117.02529 -7.364826e-001 1.567539e+002 -5.513044e+001 -1.082706e+002 -5.506277e+001 -1.131132e+002 -1.164677e-001 1.347454e+002
547187617.96904 -7.467811e-001 1.565159e+002 -5.494452e+001 -1.106967e+002 -5.496262e+001 -1.147012e+002 -1.213192e-001 1.347728e+002
547565118.9128 -7.503830e-001 1.561623e+002 -5.504350e+001 -1.124702e+002 -5.462861e+001 -1.150177e+002 -1.183708e-001 1.347671e+002
547942619.85655 -7.583831e-001 1.559328e+002 -5.500408e+001 -1.114112e+002 -5.502562e+001 -1.148950e+002 -1.219196e-001 1.347798e+002
548320120.8003 -7.693862e-001 1.556684e+002 -5.445623e+001 -1.133207e+002 -5.479443e+001 -1.161789e+002 -1.230488e-001 1.347960e+002
548697621.74405 -7.798636e-001 1.554368e+002 -5.424266e+001 -1.125128e+002 -5.462281e+001 -1.186136e+002 -1.250442e-001 1.348105e+002
549075122.68781 -7.896821e-001 1.551390e+002 -5.462429e+001 -1.165238e+002 -5.442836e+001 -1.194985e+002 -1.311439e-001 1.347921e+002
549452623.63156 -8.010988e-001 1.549183e+002 -5.440883e+001 -1.170347e+002 -5.442939e+001 -1.208929e+002 -1.311492e-001 1.347857e+002
549830124.57531 -8.131383e-001 1.546624e+002 -5.440018e+001 -1.165713e+002 -5.441534e+001 -1.193887e+002 -1.333226e-001 1.347965e+002
550207625.51906 -8.204219e-001 1.544092e+002 -5.403686e+001 -1.157167e+002 -5.448836e+001 -1.235449e+002 -1.354077e-001 1.347933e+002
550585126.46282 -8.311474e-001 1.541271e+002 -5.408636e+001 -1.208911e+002 -5.400217e+001 -1.229286e+002 -1.377744e-001 1.347648e+002
550962627.40657 -8.448499e-001 1.538952e+002 -5.352468e+001 -1.195853e+002 -5.377449e+001 -1.238846e+002 -1.447698e-001 1.347685e+002
551340128.35032 -8.521232e-001 1.536528e+002 -5.395790e+001 -1.210000e+002 -5.395947e+001 -1.234740e+002 -1.480939e-001 1.347775e+002
551717629.29407 -8.684528e-001 1.533676e+002 -5.370582e+001 -1.227557e+002 -5.400470e+001 -1.243834e+002 -1.488579e-001 1.347704e+002
552095130.23783 -8.802202e-001 1.531666e+002 -5.357201e+001 -1.224526e+002 -5.361620e+001 -1.266498e+002 -1.498871e-001 1.347456e+002
552472631.18158 -8.923075e-001 1.529094e+002 -5.343481e+001 -1.240673e+002 -5.370188e+001 -1.283861e+002 -1.529496e-001 1.347357e+002
552850132.12533 -9.077174e-001 1.526863e+002 -5.345107e+001 -1.270880e+002 -5.345976e+001 -1.278022e+002 -1.540668e-001 1.347140e+002
553227633.06908 -9.168419e-001 1.524198e+002 -5.330067e+001 -1.273909e+002 -5.342307e+001 -1.311768e+002 -1.560226e-001 1.346943e+002
553605134.01284 -9.323415e-001 1.522053e+002 -5.336347e+001 -1.268315e+002 -5.297215e+001 -1.301755e+002 -1.625593e-001 1.346449e+002
553982634.95659 -9.514911e-001 1.519403e+002 -5.308913e+001 -1.308595e+002 -5.304135e+001 -1.331418e+002 -1.650933e-001 1.346257e+002
554360135.90034 -9.691061e-001 1.517525e+002 -5.307068e+001 -1.304489e+002 -5.287898e+001 -1.345331e+002 -1.653593e-001 1.345925e+002
554737636.84409 -9.852509e-001 1.514746e+002 -5.293524e+001 -1.316573e+002 -5.280483e+001 -1.347438e+002 -1.717376e-001 1.345557e+002
555115137.78784 -9.991988e-001 1.512547e+002 -5.302945e+001 -1.322742e+002 -5.270594e+001 -1.363165e+002 -1.742131e-001 1.345143e+002
