!Agilent Technologies,E8364B,US42250235,A.06.04.32
!Agilent E8364B: A.06.04.32
!Date: Thursday, October 01, 2020 13:12:38
!Correction: S11(Full 2 Port(1,2)) S21(Full 2 Port(1,2)) S12(Full 2 Port(1,2)) S22(Full 2 Port(1,2)) 
!S2P File: Measurements: S11, S21, S12, S22:
# Hz S  dB   R 50
500000000 -1.333262e-001 -1.755110e+002 -5.320814e+001 8.164474e+001 -5.281849e+001 8.222501e+001 -2.009573e-001 1.372213e+002
500377500.94375 -1.367755e-001 -1.757490e+002 -5.287388e+001 8.133347e+001 -5.275489e+001 8.175886e+001 -1.993947e-001 1.370821e+002
500755001.8875 -1.400484e-001 -1.759460e+002 -5.273775e+001 7.863245e+001 -5.252944e+001 8.252600e+001 -2.005994e-001 1.369401e+002
501132502.83126 -1.434532e-001 -1.761781e+002 -5.267781e+001 7.701265e+001 -5.281239e+001 7.914114e+001 -1.957903e-001 1.368103e+002
501510003.77501 -1.482707e-001 -1.764108e+002 -5.243371e+001 7.823545e+001 -5.231627e+001 8.264574e+001 -1.932729e-001 1.367177e+002
501887504.71876 -1.557080e-001 -1.765801e+002 -5.241704e+001 7.701047e+001 -5.221880e+001 8.029807e+001 -1.944681e-001 1.365837e+002
502265005.66251 -1.562422e-001 -1.768493e+002 -5.248332e+001 7.871168e+001 -5.227073e+001 7.895119e+001 -1.884419e-001 1.364794e+002
502642506.60627 -1.595949e-001 -1.770616e+002 -5.243074e+001 7.811259e+001 -5.204668e+001 7.802715e+001 -1.882552e-001 1.363869e+002
503020007.55002 -1.575803e-001 -1.773356e+002 -5.223504e+001 7.585824e+001 -5.231218e+001 7.994663e+001 -1.785630e-001 1.363055e+002
503397508.49377 -1.670205e-001 -1.775577e+002 -5.212025e+001 8.009030e+001 -5.208478e+001 7.880234e+001 -1.745801e-001 1.362158e+002
503775009.43752 -1.654350e-001 -1.777888e+002 -5.192506e+001 7.706395e+001 -5.208778e+001 7.846271e+001 -1.691225e-001 1.361819e+002
504152510.38128 -1.707289e-001 -1.780431e+002 -5.206350e+001 7.480703e+001 -5.183308e+001 7.769678e+001 -1.627622e-001 1.361381e+002
504530011.32503 -1.756820e-001 -1.782691e+002 -5.184772e+001 7.450208e+001 -5.162233e+001 7.960574e+001 -1.592844e-001 1.361066e+002
504907512.26878 -1.780246e-001 -1.785061e+002 -5.164446e+001 7.477282e+001 -5.161022e+001 7.659103e+001 -1.493183e-001 1.360935e+002
505285013.21253 -1.808002e-001 -1.787184e+002 -5.161934e+001 7.489616e+001 -5.159411e+001 7.736701e+001 -1.460441e-001 1.360851e+002
505662514.15629 -1.854648e-001 -1.789153e+002 -5.148249e+001 7.515205e+001 -5.162107e+001 7.656057e+001 -1.398735e-001 1.360719e+002
506040015.10004 -1.870585e-001 -1.792221e+002 -5.148213e+001 7.346657e+001 -5.125024e+001 7.707276e+001 -1.341139e-001 1.361258e+002
506417516.04379 -1.882792e-001 -1.794281e+002 -5.131410e+001 7.109780e+001 -5.108209e+001 7.704230e+001 -1.187929e-001 1.361679e+002
506795016.98754 -1.898115e-001 -1.796788e+002 -5.107297e+001 7.259799e+001 -5.100872e+001 7.668346e+001 -1.145920e-001 1.362441e+002
507172517.93129 -1.963923e-001 -1.798360e+002 -5.124860e+001 7.157536e+001 -5.073692e+001 7.500632e+001 -1.051751e-001 1.363250e+002
507550018.87505 -1.987861e-001 1.798393e+002 -5.107663e+001 7.150694e+001 -5.072481e+001 7.552197e+001 -9.592959e-002 1.363940e+002
507927519.8188 -2.025712e-001 1.797002e+002 -5.071771e+001 7.143790e+001 -5.087549e+001 7.658681e+001 -9.512750e-002 1.365143e+002
508305020.76255 -2.073971e-001 1.794783e+002 -5.067955e+001 7.222775e+001 -5.055074e+001 7.477520e+001 -8.930706e-002 1.366475e+002
508682521.7063 -2.079529e-001 1.792243e+002 -5.059500e+001 7.071112e+001 -5.042960e+001 7.476107e+001 -8.256508e-002 1.367780e+002
509060022.65006 -2.101749e-001 1.789954e+002 -5.088290e+001 6.855923e+001 -5.040296e+001 7.350160e+001 -7.519894e-002 1.369047e+002
509437523.59381 -2.144142e-001 1.788218e+002 -5.061765e+001 7.046265e+001 -5.034084e+001 7.239468e+001 -6.756502e-002 1.370675e+002
509815024.53756 -2.204251e-001 1.786034e+002 -5.063849e+001 6.859496e+001 -5.001372e+001 7.187000e+001 -6.592479e-002 1.372295e+002
510192525.48131 -2.190092e-001 1.783428e+002 -5.057084e+001 6.854243e+001 -4.980450e+001 7.201666e+001 -6.311526e-002 1.373990e+002
510570026.42507 -2.229146e-001 1.781169e+002 -5.014826e+001 6.747322e+001 -4.991206e+001 7.168684e+001 -6.512547e-002 1.376184e+002
510947527.36882 -2.318341e-001 1.778962e+002 -5.009722e+001 6.827403e+001 -4.983952e+001 7.130376e+001 -5.184017e-002 1.377909e+002
511325028.31257 -2.322716e-001 1.776674e+002 -5.018255e+001 6.641520e+001 -4.972668e+001 7.038824e+001 -5.468303e-002 1.379873e+002
511702529.25632 -2.387771e-001 1.775113e+002 -4.988909e+001 6.602545e+001 -4.954482e+001 7.080822e+001 -5.342134e-002 1.381765e+002
512080030.20008 -2.384077e-001 1.772453e+002 -5.002247e+001 6.591556e+001 -4.934817e+001 6.973941e+001 -5.523907e-002 1.383815e+002
512457531.14383 -2.448214e-001 1.770350e+002 -4.978020e+001 6.659145e+001 -4.933966e+001 6.830441e+001 -5.342611e-002 1.385599e+002
512835032.08758 -2.504787e-001 1.768194e+002 -4.957748e+001 6.541489e+001 -4.926236e+001 6.871926e+001 -5.455460e-002 1.387429e+002
513212533.03133 -2.587329e-001 1.766124e+002 -4.958168e+001 6.551775e+001 -4.903251e+001 6.829321e+001 -5.963153e-002 1.389341e+002
513590033.97508 -2.594546e-001 1.763980e+002 -4.953265e+001 6.496769e+001 -4.889857e+001 6.779206e+001 -6.474310e-002 1.391118e+002
513967534.91884 -2.653051e-001 1.761502e+002 -4.929189e+001 6.573685e+001 -4.882800e+001 6.645381e+001 -6.691372e-002 1.392866e+002
514345035.86259 -2.731657e-001 1.759080e+002 -4.918721e+001 6.489387e+001 -4.863461e+001 6.567137e+001 -7.360506e-002 1.394511e+002
514722536.80634 -2.822817e-001 1.757147e+002 -4.905526e+001 6.352559e+001 -4.865358e+001 6.643168e+001 -7.857448e-002 1.395840e+002
515100037.75009 -2.864926e-001 1.754289e+002 -4.890444e+001 6.364307e+001 -4.846815e+001 6.460592e+001 -8.591143e-002 1.397266e+002
515477538.69385 -2.934422e-001 1.752390e+002 -4.872604e+001 6.319494e+001 -4.847065e+001 6.314717e+001 -8.908284e-002 1.398548e+002
515855039.6376 -2.990287e-001 1.749526e+002 -4.860830e+001 6.438624e+001 -4.822360e+001 6.404636e+001 -9.492164e-002 1.399460e+002
516232540.58135 -3.038395e-001 1.747025e+002 -4.846941e+001 6.206725e+001 -4.810842e+001 6.226263e+001 -1.025542e-001 1.400168e+002
516610041.5251 -3.140838e-001 1.744724e+002 -4.818983e+001 6.181242e+001 -4.799909e+001 6.311897e+001 -1.120700e-001 1.400774e+002
516987542.46886 -3.238872e-001 1.742490e+002 -4.793332e+001 6.160940e+001 -4.783686e+001 6.248475e+001 -1.168779e-001 1.401247e+002
517365043.41261 -3.312661e-001 1.740264e+002 -4.782615e+001 5.962196e+001 -4.782162e+001 6.108711e+001 -1.274537e-001 1.401444e+002
517742544.35636 -3.364671e-001 1.737326e+002 -4.756596e+001 5.916547e+001 -4.766067e+001 6.004682e+001 -1.358291e-001 1.401299e+002
518120045.30011 -3.467669e-001 1.734580e+002 -4.762500e+001 5.840509e+001 -4.771644e+001 6.059407e+001 -1.431082e-001 1.401100e+002
518497546.24387 -3.578756e-001 1.732393e+002 -4.733795e+001 5.800419e+001 -4.736777e+001 6.002695e+001 -1.504681e-001 1.400564e+002
518875047.18762 -3.664463e-001 1.729903e+002 -4.716216e+001 5.726392e+001 -4.724896e+001 5.888692e+001 -1.625859e-001 1.399959e+002
519252548.13137 -3.713022e-001 1.727092e+002 -4.714995e+001 5.579197e+001 -4.723376e+001 5.861444e+001 -1.653728e-001 1.399409e+002
519630049.07512 -3.794667e-001 1.724478e+002 -4.683537e+001 5.501556e+001 -4.699093e+001 5.747344e+001 -1.761143e-001 1.398046e+002
520007550.01888 -3.905911e-001 1.721801e+002 -4.667867e+001 5.392124e+001 -4.693079e+001 5.771168e+001 -1.846371e-001 1.396949e+002
520385050.96263 -4.008836e-001 1.719593e+002 -4.660468e+001 5.293824e+001 -4.680500e+001 5.623581e+001 -1.876612e-001 1.395307e+002
520762551.90638 -4.140383e-001 1.716480e+002 -4.648180e+001 5.227673e+001 -4.675581e+001 5.628020e+001 -1.953367e-001 1.393746e+002
521140052.85013 -4.207547e-001 1.714125e+002 -4.634207e+001 5.038634e+001 -4.664244e+001 5.558368e+001 -2.002504e-001 1.391990e+002
521517553.79388 -4.333379e-001 1.711477e+002 -4.623532e+001 4.949088e+001 -4.645057e+001 5.485656e+001 -2.081658e-001 1.390021e+002
521895054.73764 -4.459821e-001 1.709170e+002 -4.620680e+001 4.836241e+001 -4.634745e+001 5.350955e+001 -2.114584e-001 1.387950e+002
522272555.68139 -4.543521e-001 1.706568e+002 -4.594355e+001 4.750137e+001 -4.613793e+001 5.298862e+001 -2.137879e-001 1.386097e+002
522650056.62514 -4.657085e-001 1.704244e+002 -4.598181e+001 4.563322e+001 -4.581579e+001 5.224387e+001 -2.111264e-001 1.384097e+002
523027557.56889 -4.777571e-001 1.701637e+002 -4.574429e+001 4.496774e+001 -4.588638e+001 5.149673e+001 -2.134001e-001 1.381021e+002
523405058.51265 -4.900652e-001 1.699532e+002 -4.572538e+001 4.451983e+001 -4.585326e+001 5.042711e+001 -2.196486e-001 1.379420e+002
523782559.4564 -4.999547e-001 1.696888e+002 -4.556754e+001 4.314590e+001 -4.555413e+001 4.970901e+001 -2.171074e-001 1.377140e+002
524160060.40015 -5.081301e-001 1.694525e+002 -4.557809e+001 4.225872e+001 -4.550526e+001 4.810126e+001 -2.145549e-001 1.374979e+002
524537561.3439 -5.227355e-001 1.692407e+002 -4.547131e+001 4.158431e+001 -4.535727e+001 4.809802e+001 -2.135921e-001 1.373365e+002
524915062.28766 -5.303220e-001 1.689816e+002 -4.542117e+001 3.972192e+001 -4.518979e+001 4.645483e+001 -2.153701e-001 1.370663e+002
525292563.23141 -5.392681e-001 1.687475e+002 -4.528164e+001 3.955693e+001 -4.522939e+001 4.604523e+001 -2.098110e-001 1.368572e+002
525670064.17516 -5.518627e-001 1.685058e+002 -4.516016e+001 3.802962e+001 -4.512628e+001 4.410085e+001 -2.037512e-001 1.366743e+002
526047565.11891 -5.626443e-001 1.683130e+002 -4.505567e+001 3.789676e+001 -4.502617e+001 4.383278e+001 -2.011442e-001 1.364797e+002
526425066.06267 -5.752056e-001 1.680521e+002 -4.513246e+001 3.637602e+001 -4.489820e+001 4.189311e+001 -1.997615e-001 1.363304e+002
526802567.00642 -5.857330e-001 1.677975e+002 -4.508919e+001 3.595252e+001 -4.475127e+001 4.220543e+001 -1.914438e-001 1.361644e+002
527180067.95017 -5.988002e-001 1.675278e+002 -4.500003e+001 3.536703e+001 -4.466412e+001 4.112786e+001 -1.860174e-001 1.360092e+002
527557568.89392 -6.141414e-001 1.672907e+002 -4.481760e+001 3.410737e+001 -4.458752e+001 4.010603e+001 -1.787389e-001 1.358586e+002
527935069.83767 -6.266211e-001 1.670303e+002 -4.480554e+001 3.376869e+001 -4.462424e+001 3.866761e+001 -1.756468e-001 1.356846e+002
528312570.78143 -6.421973e-001 1.667769e+002 -4.473115e+001 3.250491e+001 -4.444791e+001 3.794505e+001 -1.690568e-001 1.356935e+002
528690071.72518 -6.593479e-001 1.665536e+002 -4.464125e+001 3.120304e+001 -4.432693e+001 3.738391e+001 -1.632876e-001 1.355659e+002
529067572.66893 -6.783625e-001 1.663451e+002 -4.457532e+001 3.046166e+001 -4.409875e+001 3.723932e+001 -1.575757e-001 1.354952e+002
529445073.61268 -6.917832e-001 1.660836e+002 -4.448791e+001 3.047796e+001 -4.413248e+001 3.542805e+001 -1.525551e-001 1.354242e+002
529822574.55644 -7.069945e-001 1.658949e+002 -4.440819e+001 2.847528e+001 -4.416452e+001 3.489876e+001 -1.463905e-001 1.353728e+002
530200075.50019 -7.242432e-001 1.656500e+002 -4.422023e+001 2.810267e+001 -4.403477e+001 3.337831e+001 -1.409486e-001 1.353498e+002
530577576.44394 -7.433579e-001 1.654477e+002 -4.421054e+001 2.786336e+001 -4.387933e+001 3.325830e+001 -1.377009e-001 1.353130e+002
530955077.38769 -7.626343e-001 1.652314e+002 -4.405229e+001 2.753229e+001 -4.372912e+001 3.216522e+001 -1.327692e-001 1.352814e+002
531332578.33145 -7.769070e-001 1.649665e+002 -4.401252e+001 2.582311e+001 -4.366667e+001 3.127991e+001 -1.333633e-001 1.352814e+002
531710079.2752 -7.938979e-001 1.647617e+002 -4.386132e+001 2.560950e+001 -4.357643e+001 3.060310e+001 -1.270453e-001 1.352538e+002
532087580.21895 -8.141282e-001 1.645166e+002 -4.357148e+001 2.410583e+001 -4.351209e+001 3.002607e+001 -1.233859e-001 1.352810e+002
532465081.1627 -8.324876e-001 1.643499e+002 -4.368129e+001 2.310454e+001 -4.344783e+001 2.859932e+001 -1.251725e-001 1.352980e+002
532842582.10646 -8.541028e-001 1.641951e+002 -4.355304e+001 2.221417e+001 -4.328017e+001 2.823785e+001 -1.223995e-001 1.352931e+002
533220083.05021 -8.727732e-001 1.639521e+002 -4.340440e+001 2.124779e+001 -4.318467e+001 2.724431e+001 -1.191511e-001 1.353087e+002
533597583.99396 -8.926163e-001 1.637794e+002 -4.342802e+001 2.055085e+001 -4.313882e+001 2.651905e+001 -1.210310e-001 1.353296e+002
533975084.93771 -9.109312e-001 1.636386e+002 -4.323077e+001 1.901696e+001 -4.310738e+001 2.514199e+001 -1.185065e-001 1.353428e+002
534352585.88146 -9.298294e-001 1.633996e+002 -4.311619e+001 1.841105e+001 -4.297201e+001 2.409028e+001 -1.130296e-001 1.353620e+002
534730086.82522 -9.475598e-001 1.632411e+002 -4.308543e+001 1.697424e+001 -4.290955e+001 2.321239e+001 -1.202931e-001 1.353805e+002
535107587.76897 -9.651899e-001 1.630555e+002 -4.311566e+001 1.632535e+001 -4.278599e+001 2.214604e+001 -1.140974e-001 1.354228e+002
535485088.71272 -9.880697e-001 1.628800e+002 -4.284330e+001 1.501950e+001 -4.269901e+001 2.123369e+001 -1.238670e-001 1.353982e+002
535862589.65647 -1.007119e+000 1.627413e+002 -4.270847e+001 1.415096e+001 -4.262911e+001 2.005197e+001 -1.241311e-001 1.354167e+002
536240090.60023 -1.022017e+000 1.625461e+002 -4.259324e+001 1.344244e+001 -4.245790e+001 1.863453e+001 -1.241804e-001 1.354086e+002
536617591.54398 -1.045092e+000 1.624295e+002 -4.247273e+001 1.229086e+001 -4.242894e+001 1.797889e+001 -1.279998e-001 1.354334e+002
536995092.48773 -1.058752e+000 1.622192e+002 -4.244023e+001 1.063004e+001 -4.226733e+001 1.693708e+001 -1.277983e-001 1.354823e+002
537372593.43148 -1.081629e+000 1.620725e+002 -4.241339e+001 9.491792e+000 -4.224989e+001 1.595906e+001 -1.332759e-001 1.354296e+002
537750094.37524 -1.095155e+000 1.619866e+002 -4.232461e+001 8.030079e+000 -4.222652e+001 1.437687e+001 -1.372327e-001 1.354348e+002
538127595.31899 -1.115513e+000 1.617823e+002 -4.222039e+001 7.548027e+000 -4.216514e+001 1.327807e+001 -1.382919e-001 1.354106e+002
538505096.26274 -1.127503e+000 1.616625e+002 -4.209698e+001 6.151759e+000 -4.212856e+001 1.239687e+001 -1.428203e-001 1.354329e+002
538882597.20649 -1.146176e+000 1.615619e+002 -4.208292e+001 5.437910e+000 -4.205204e+001 1.094870e+001 -1.425922e-001 1.353949e+002
539260098.15025 -1.160472e+000 1.614460e+002 -4.201896e+001 3.848045e+000 -4.191951e+001 9.860448e+000 -1.451401e-001 1.353700e+002
539637599.094 -1.175463e+000 1.613060e+002 -4.189441e+001 3.161164e+000 -4.189365e+001 8.825243e+000 -1.474761e-001 1.353618e+002
540015100.03775 -1.192563e+000 1.611480e+002 -4.189606e+001 1.677258e+000 -4.181113e+001 7.846921e+000 -1.536704e-001 1.353270e+002
540392600.9815 -1.208445e+000 1.610201e+002 -4.183969e+001 6.044211e-001 -4.183385e+001 6.672938e+000 -1.514480e-001 1.352976e+002
540770101.92525 -1.217649e+000 1.608923e+002 -4.178473e+001 -6.741276e-001 -4.169540e+001 5.385999e+000 -1.516125e-001 1.352773e+002
541147602.86901 -1.237059e+000 1.607437e+002 -4.162942e+001 -2.126096e+000 -4.165948e+001 4.495525e+000 -1.559135e-001 1.352602e+002
541525103.81276 -1.253093e+000 1.607143e+002 -4.160756e+001 -3.268216e+000 -4.170146e+001 2.777682e+000 -1.554681e-001 1.352210e+002
541902604.75651 -1.261820e+000 1.605541e+002 -4.157121e+001 -4.086133e+000 -4.161743e+001 1.759728e+000 -1.516849e-001 1.352267e+002
542280105.70026 -1.272652e+000 1.604186e+002 -4.158327e+001 -6.143714e+000 -4.162278e+001 7.116885e-001 -1.518749e-001 1.351398e+002
542657606.64402 -1.283090e+000 1.603923e+002 -4.149512e+001 -6.843486e+000 -4.155222e+001 -2.134208e-001 -1.539668e-001 1.351243e+002
543035107.58777 -1.290470e+000 1.602456e+002 -4.141593e+001 -8.544379e+000 -4.164887e+001 -1.442114e+000 -1.564201e-001 1.351052e+002
543412608.53152 -1.301794e+000 1.601655e+002 -4.139182e+001 -9.075697e+000 -4.159892e+001 -2.400978e+000 -1.560533e-001 1.350612e+002
543790109.47527 -1.308068e+000 1.600167e+002 -4.145964e+001 -1.073884e+001 -4.155635e+001 -3.003577e+000 -1.532063e-001 1.350476e+002
544167610.41903 -1.310818e+000 1.598914e+002 -4.137879e+001 -1.184258e+001 -4.149089e+001 -3.837097e+000 -1.548762e-001 1.350365e+002
544545111.36278 -1.317859e+000 1.597241e+002 -4.130686e+001 -1.232627e+001 -4.156004e+001 -5.096643e+000 -1.543818e-001 1.349812e+002
544922612.30653 -1.323190e+000 1.596760e+002 -4.131464e+001 -1.351680e+001 -4.148295e+001 -5.618703e+000 -1.545713e-001 1.349233e+002
545300113.25028 -1.324259e+000 1.595360e+002 -4.123818e+001 -1.488364e+001 -4.146877e+001 -6.567510e+000 -1.555090e-001 1.349377e+002
545677614.19404 -1.329703e+000 1.593693e+002 -4.125501e+001 -1.628060e+001 -4.137391e+001 -7.204247e+000 -1.529787e-001 1.349099e+002
546055115.13779 -1.328673e+000 1.592473e+002 -4.117841e+001 -1.726281e+001 -4.136782e+001 -8.288029e+000 -1.535234e-001 1.348791e+002
546432616.08154 -1.333153e+000 1.591215e+002 -4.107871e+001 -1.862261e+001 -4.134693e+001 -9.194118e+000 -1.520775e-001 1.348598e+002
546810117.02529 -1.337115e+000 1.590258e+002 -4.115015e+001 -1.965543e+001 -4.132162e+001 -9.953357e+000 -1.506865e-001 1.348411e+002
547187617.96904 -1.338208e+000 1.588508e+002 -4.109085e+001 -2.067353e+001 -4.125808e+001 -1.078635e+001 -1.542185e-001 1.348260e+002
547565118.9128 -1.337694e+000 1.586553e+002 -4.107757e+001 -2.211580e+001 -4.122002e+001 -1.133891e+001 -1.529047e-001 1.348253e+002
547942619.85655 -1.338721e+000 1.585943e+002 -4.106186e+001 -2.275082e+001 -4.125317e+001 -1.275602e+001 -1.532346e-001 1.348065e+002
548320120.8003 -1.340527e+000 1.584165e+002 -4.104827e+001 -2.402054e+001 -4.112872e+001 -1.354971e+001 -1.527231e-001 1.348163e+002
548697621.74405 -1.338821e+000 1.582702e+002 -4.108665e+001 -2.544699e+001 -4.114640e+001 -1.459675e+001 -1.549151e-001 1.348190e+002
549075122.68781 -1.340636e+000 1.581367e+002 -4.098631e+001 -2.630099e+001 -4.102504e+001 -1.623264e+001 -1.584714e-001 1.347989e+002
549452623.63156 -1.337231e+000 1.579845e+002 -4.091926e+001 -2.789649e+001 -4.101841e+001 -1.677072e+001 -1.561404e-001 1.348075e+002
549830124.57531 -1.338884e+000 1.578412e+002 -4.101667e+001 -2.896305e+001 -4.102628e+001 -1.776455e+001 -1.590577e-001 1.348108e+002
550207625.51906 -1.337121e+000 1.576990e+002 -4.100513e+001 -2.947051e+001 -4.095936e+001 -1.898513e+001 -1.607531e-001 1.348041e+002
550585126.46282 -1.338446e+000 1.575556e+002 -4.095951e+001 -3.080177e+001 -4.101365e+001 -1.971507e+001 -1.617099e-001 1.347939e+002
550962627.40657 -1.338196e+000 1.574286e+002 -4.103050e+001 -3.146350e+001 -4.094167e+001 -2.046824e+001 -1.677413e-001 1.347986e+002
551340128.35032 -1.336160e+000 1.572948e+002 -4.101654e+001 -3.351337e+001 -4.098477e+001 -2.165829e+001 -1.645028e-001 1.348075e+002
551717629.29407 -1.338812e+000 1.571142e+002 -4.099284e+001 -3.384450e+001 -4.091415e+001 -2.263578e+001 -1.681371e-001 1.348285e+002
552095130.23783 -1.336306e+000 1.570007e+002 -4.098843e+001 -3.482367e+001 -4.097213e+001 -2.305059e+001 -1.696322e-001 1.348281e+002
552472631.18158 -1.336080e+000 1.568658e+002 -4.102320e+001 -3.550970e+001 -4.081545e+001 -2.411121e+001 -1.718597e-001 1.348510e+002
552850132.12533 -1.336767e+000 1.566986e+002 -4.104260e+001 -3.635389e+001 -4.089878e+001 -2.512434e+001 -1.721117e-001 1.348324e+002
553227633.06908 -1.336439e+000 1.565693e+002 -4.104930e+001 -3.750158e+001 -4.084759e+001 -2.650454e+001 -1.784770e-001 1.348217e+002
553605134.01284 -1.333660e+000 1.563991e+002 -4.102198e+001 -3.882288e+001 -4.082491e+001 -2.710315e+001 -1.783082e-001 1.348204e+002
553982634.95659 -1.335134e+000 1.562544e+002 -4.103327e+001 -3.968541e+001 -4.079159e+001 -2.773636e+001 -1.812116e-001 1.348056e+002
554360135.90034 -1.335485e+000 1.561391e+002 -4.112383e+001 -4.121649e+001 -4.080400e+001 -2.921555e+001 -1.813457e-001 1.347956e+002
554737636.84409 -1.329760e+000 1.559836e+002 -4.097641e+001 -4.130947e+001 -4.078345e+001 -2.969452e+001 -1.869667e-001 1.347957e+002
555115137.78784 -1.327661e+000 1.558803e+002 -4.111718e+001 -4.262131e+001 -4.080028e+001 -3.077153e+001 -1.849647e-001 1.347747e+002
555492638.7316 -1.321090e+000 1.556517e+002 -4.103988e+001 -4.367334e+001 -4.076523e+001 -3.171251e+001 -1.878607e-001 1.347291e+002
