!Agilent Technologies,E8364B,US42250235,A.06.04.32
!Agilent E8364B: A.06.04.32
!Date: Thursday, October 01, 2020 13:13:40
!Correction: S11(Full 2 Port(1,2)) S21(Full 2 Port(1,2)) S12(Full 2 Port(1,2)) S22(Full 2 Port(1,2)) 
!S2P File: Measurements: S11, S21, S12, S22:
# Hz S  dB   R 50
500000000 -2.657669e-001 -1.756370e+002 -5.110607e+001 4.030069e+001 -5.112775e+001 3.960805e+001 -1.746003e-001 1.371784e+002
500377500.94375 -2.692688e-001 -1.758585e+002 -5.094375e+001 4.230428e+001 -5.109185e+001 3.896672e+001 -1.704334e-001 1.370533e+002
500755001.8875 -2.751572e-001 -1.760352e+002 -5.102567e+001 3.875413e+001 -5.118908e+001 3.640990e+001 -1.742571e-001 1.369389e+002
501132502.83126 -2.830691e-001 -1.762644e+002 -5.119091e+001 3.724583e+001 -5.105821e+001 3.587212e+001 -1.698105e-001 1.368344e+002
501510003.77501 -2.914799e-001 -1.764717e+002 -5.068533e+001 3.638735e+001 -5.086041e+001 3.447047e+001 -1.657994e-001 1.367692e+002
501887504.71876 -2.992731e-001 -1.766273e+002 -5.035436e+001 3.449023e+001 -5.089108e+001 3.347712e+001 -1.673626e-001 1.366574e+002
502265005.66251 -3.063854e-001 -1.768836e+002 -5.079997e+001 3.487849e+001 -5.068329e+001 3.288238e+001 -1.601676e-001 1.365687e+002
502642506.60627 -3.134456e-001 -1.770579e+002 -5.065008e+001 3.339650e+001 -5.080458e+001 3.230774e+001 -1.587020e-001 1.365085e+002
503020007.55002 -3.152034e-001 -1.773122e+002 -5.029228e+001 3.287644e+001 -5.066917e+001 3.180414e+001 -1.529118e-001 1.364659e+002
503397508.49377 -3.258753e-001 -1.775117e+002 -5.046741e+001 3.192698e+001 -5.047367e+001 2.971554e+001 -1.461162e-001 1.364083e+002
503775009.43752 -3.319880e-001 -1.777215e+002 -5.021845e+001 3.136298e+001 -5.043973e+001 3.039646e+001 -1.462334e-001 1.363806e+002
504152510.38128 -3.364610e-001 -1.779418e+002 -5.019986e+001 2.955274e+001 -5.007201e+001 2.768636e+001 -1.377799e-001 1.363590e+002
504530011.32503 -3.466690e-001 -1.781505e+002 -5.009159e+001 2.925736e+001 -5.026057e+001 2.901283e+001 -1.345537e-001 1.363506e+002
504907512.26878 -3.544808e-001 -1.783363e+002 -4.980334e+001 2.840229e+001 -5.013272e+001 2.783385e+001 -1.280056e-001 1.363573e+002
505285013.21253 -3.584427e-001 -1.785384e+002 -4.968047e+001 2.768428e+001 -4.993732e+001 2.723546e+001 -1.226723e-001 1.363725e+002
505662514.15629 -3.662313e-001 -1.787085e+002 -4.977118e+001 2.665668e+001 -5.010801e+001 2.632298e+001 -1.173407e-001 1.363900e+002
506040015.10004 -3.721524e-001 -1.789562e+002 -4.966785e+001 2.635469e+001 -4.999749e+001 2.604163e+001 -1.154291e-001 1.364424e+002
506417516.04379 -3.796375e-001 -1.791271e+002 -4.961720e+001 2.376340e+001 -4.982558e+001 2.515965e+001 -9.979823e-002 1.364990e+002
506795016.98754 -3.842593e-001 -1.793516e+002 -4.950986e+001 2.352811e+001 -4.966202e+001 2.371731e+001 -9.669251e-002 1.365593e+002
507172517.93129 -3.931187e-001 -1.794634e+002 -4.948697e+001 2.219477e+001 -4.968747e+001 2.302485e+001 -9.191178e-002 1.366386e+002
507550018.87505 -3.953541e-001 -1.797431e+002 -4.949905e+001 2.202251e+001 -4.951324e+001 2.147211e+001 -8.377497e-002 1.367126e+002
507927519.8188 -4.024012e-001 -1.798353e+002 -4.944990e+001 2.128268e+001 -4.940461e+001 2.060114e+001 -7.995364e-002 1.368350e+002
508305020.76255 -4.067008e-001 1.799915e+002 -4.928118e+001 1.975331e+001 -4.933742e+001 1.992801e+001 -7.357223e-002 1.369528e+002
508682521.7063 -4.103228e-001 1.797821e+002 -4.920354e+001 1.851156e+001 -4.928094e+001 1.880577e+001 -6.965026e-002 1.370928e+002
509060022.65006 -4.117140e-001 1.795915e+002 -4.944333e+001 1.823386e+001 -4.923251e+001 1.704350e+001 -6.876025e-002 1.372069e+002
509437523.59381 -4.166024e-001 1.794506e+002 -4.917199e+001 1.576796e+001 -4.919960e+001 1.726543e+001 -6.173168e-002 1.373551e+002
509815024.53756 -4.226118e-001 1.792734e+002 -4.931178e+001 1.562778e+001 -4.920133e+001 1.531778e+001 -6.185827e-002 1.375026e+002
510192525.48131 -4.211433e-001 1.790526e+002 -4.945444e+001 1.486565e+001 -4.908211e+001 1.621017e+001 -5.589025e-002 1.376463e+002
510570026.42507 -4.240724e-001 1.788691e+002 -4.912891e+001 1.393053e+001 -4.915733e+001 1.387433e+001 -5.357943e-002 1.378456e+002
510947527.36882 -4.323952e-001 1.786947e+002 -4.916756e+001 1.315341e+001 -4.898223e+001 1.282079e+001 -4.866947e-002 1.379829e+002
511325028.31257 -4.315830e-001 1.785088e+002 -4.937970e+001 1.215281e+001 -4.896699e+001 1.309748e+001 -4.793484e-002 1.381722e+002
511702529.25632 -4.407045e-001 1.784023e+002 -4.906751e+001 1.109183e+001 -4.898163e+001 1.281831e+001 -4.969885e-002 1.383500e+002
512080030.20008 -4.408625e-001 1.781703e+002 -4.912075e+001 1.146259e+001 -4.882052e+001 1.060506e+001 -4.996987e-002 1.385145e+002
512457531.14383 -4.469969e-001 1.779931e+002 -4.880276e+001 1.116187e+001 -4.875653e+001 1.090460e+001 -4.859543e-002 1.386763e+002
512835032.08758 -4.485747e-001 1.778260e+002 -4.891839e+001 1.151912e+001 -4.863142e+001 9.051991e+000 -5.148879e-002 1.388224e+002
513212533.03133 -4.579193e-001 1.776741e+002 -4.877179e+001 9.500021e+000 -4.864739e+001 7.896934e+000 -5.738052e-002 1.389809e+002
513590033.97508 -4.582221e-001 1.775012e+002 -4.887977e+001 8.723850e+000 -4.869254e+001 7.112828e+000 -5.802037e-002 1.391393e+002
513967534.91884 -4.652275e-001 1.772780e+002 -4.860709e+001 9.303125e+000 -4.846988e+001 6.603484e+000 -6.009280e-002 1.392868e+002
514345035.86259 -4.720075e-001 1.770886e+002 -4.853725e+001 9.171327e+000 -4.856381e+001 6.116315e+000 -6.438670e-002 1.394272e+002
514722536.80634 -4.788507e-001 1.769567e+002 -4.854684e+001 7.698788e+000 -4.829918e+001 5.878952e+000 -6.652343e-002 1.395417e+002
515100037.75009 -4.829334e-001 1.766992e+002 -4.841030e+001 6.853590e+000 -4.831669e+001 4.758401e+000 -7.401936e-002 1.396477e+002
515477538.69385 -4.915062e-001 1.765578e+002 -4.826769e+001 5.675799e+000 -4.811345e+001 3.701324e+000 -7.854328e-002 1.397429e+002
515855039.6376 -4.955279e-001 1.763484e+002 -4.803445e+001 4.896173e+000 -4.821420e+001 3.836282e+000 -8.423928e-002 1.398236e+002
516232540.58135 -5.002410e-001 1.761530e+002 -4.799892e+001 4.010996e+000 -4.817125e+001 1.382351e+000 -8.756930e-002 1.398790e+002
516610041.5251 -5.071458e-001 1.759721e+002 -4.796378e+001 3.611514e+000 -4.801532e+001 1.889073e-001 -9.570597e-002 1.399299e+002
516987542.46886 -5.134498e-001 1.758139e+002 -4.789540e+001 1.223916e+000 -4.822000e+001 4.320057e-001 -1.032597e-001 1.399520e+002
517365043.41261 -5.204795e-001 1.756210e+002 -4.784338e+001 2.074411e+000 -4.795990e+001 -1.182010e+000 -1.112356e-001 1.399514e+002
517742544.35636 -5.255613e-001 1.754387e+002 -4.778013e+001 -3.518614e-002 -4.798935e+001 -2.053680e+000 -1.159893e-001 1.399439e+002
518120045.30011 -5.317243e-001 1.752178e+002 -4.760794e+001 -1.369895e+000 -4.783790e+001 -3.486925e+000 -1.248776e-001 1.399329e+002
518497546.24387 -5.395840e-001 1.750539e+002 -4.755306e+001 -2.743015e+000 -4.771019e+001 -3.921266e+000 -1.278473e-001 1.398729e+002
518875047.18762 -5.429524e-001 1.748357e+002 -4.758467e+001 -3.886750e+000 -4.780571e+001 -4.580197e+000 -1.381843e-001 1.398215e+002
519252548.13137 -5.450761e-001 1.746775e+002 -4.737557e+001 -4.780757e+000 -4.779639e+001 -5.983325e+000 -1.416150e-001 1.397746e+002
519630049.07512 -5.466027e-001 1.744641e+002 -4.741773e+001 -7.042083e+000 -4.762823e+001 -7.213323e+000 -1.482180e-001 1.396360e+002
520007550.01888 -5.514813e-001 1.742820e+002 -4.716807e+001 -6.204923e+000 -4.763476e+001 -8.581769e+000 -1.570291e-001 1.395235e+002
520385050.96263 -5.573003e-001 1.741298e+002 -4.704841e+001 -8.143111e+000 -4.755808e+001 -9.089991e+000 -1.612452e-001 1.393799e+002
520762551.90638 -5.608375e-001 1.738805e+002 -4.716624e+001 -9.768819e+000 -4.755841e+001 -9.640216e+000 -1.645352e-001 1.392697e+002
521140052.85013 -5.634284e-001 1.737135e+002 -4.729943e+001 -1.135441e+001 -4.758743e+001 -1.084772e+001 -1.706131e-001 1.390866e+002
521517553.79388 -5.651053e-001 1.735166e+002 -4.709481e+001 -1.253679e+001 -4.746691e+001 -1.253954e+001 -1.724114e-001 1.389226e+002
521895054.73764 -5.676016e-001 1.733695e+002 -4.699198e+001 -1.393625e+001 -4.736424e+001 -1.302022e+001 -1.762449e-001 1.387400e+002
522272555.68139 -5.658213e-001 1.731335e+002 -4.715855e+001 -1.564838e+001 -4.724362e+001 -1.432624e+001 -1.781180e-001 1.385935e+002
522650056.62514 -5.687796e-001 1.729511e+002 -4.725011e+001 -1.541747e+001 -4.733156e+001 -1.468674e+001 -1.754878e-001 1.384129e+002
523027557.56889 -5.678780e-001 1.727428e+002 -4.729412e+001 -1.707495e+001 -4.745727e+001 -1.572586e+001 -1.818748e-001 1.382090e+002
523405058.51265 -5.668446e-001 1.725604e+002 -4.720055e+001 -1.912725e+001 -4.738758e+001 -1.721070e+001 -1.834479e-001 1.379979e+002
523782559.4564 -5.702552e-001 1.723096e+002 -4.713981e+001 -1.815449e+001 -4.742056e+001 -1.813143e+001 -1.824990e-001 1.378347e+002
524160060.40015 -5.653001e-001 1.721250e+002 -4.740667e+001 -1.922517e+001 -4.738179e+001 -1.870146e+001 -1.806505e-001 1.376339e+002
524537561.3439 -5.696439e-001 1.719133e+002 -4.725203e+001 -2.003722e+001 -4.738783e+001 -2.023023e+001 -1.781622e-001 1.375041e+002
524915062.28766 -5.702935e-001 1.716801e+002 -4.741315e+001 -2.150147e+001 -4.737429e+001 -1.984785e+001 -1.795529e-001 1.372705e+002
525292563.23141 -5.702484e-001 1.714762e+002 -4.741002e+001 -2.206409e+001 -4.727794e+001 -2.089730e+001 -1.772978e-001 1.370807e+002
525670064.17516 -5.743747e-001 1.712979e+002 -4.733456e+001 -2.248089e+001 -4.736049e+001 -2.167183e+001 -1.711933e-001 1.369259e+002
526047565.11891 -5.726040e-001 1.710685e+002 -4.735236e+001 -2.398374e+001 -4.732477e+001 -2.221698e+001 -1.700174e-001 1.367718e+002
526425066.06267 -5.806238e-001 1.708664e+002 -4.720763e+001 -2.434498e+001 -4.727743e+001 -2.260715e+001 -1.652989e-001 1.366295e+002
526802567.00642 -5.808883e-001 1.706115e+002 -4.743204e+001 -2.502937e+001 -4.741651e+001 -2.368467e+001 -1.610082e-001 1.364903e+002
527180067.95017 -5.869395e-001 1.704103e+002 -4.746698e+001 -2.494288e+001 -4.701136e+001 -2.462927e+001 -1.562858e-001 1.363628e+002
527557568.89392 -5.934990e-001 1.702617e+002 -4.742255e+001 -2.703919e+001 -4.696996e+001 -2.575103e+001 -1.492737e-001 1.362317e+002
527935069.83767 -5.921956e-001 1.700035e+002 -4.731578e+001 -2.778431e+001 -4.721731e+001 -2.664083e+001 -1.483274e-001 1.360680e+002
528312570.78143 -5.960938e-001 1.697857e+002 -4.702078e+001 -2.752426e+001 -4.710634e+001 -2.716997e+001 -1.453314e-001 1.360875e+002
528690071.72518 -6.020250e-001 1.695952e+002 -4.730232e+001 -2.879763e+001 -4.712510e+001 -2.726027e+001 -1.360064e-001 1.359676e+002
529067572.66893 -6.055719e-001 1.694221e+002 -4.709303e+001 -2.980260e+001 -4.716517e+001 -2.886107e+001 -1.349259e-001 1.358880e+002
529445073.61268 -6.083078e-001 1.692020e+002 -4.732237e+001 -3.059584e+001 -4.699209e+001 -2.914650e+001 -1.320755e-001 1.358329e+002
529822574.55644 -6.104270e-001 1.689979e+002 -4.719911e+001 -2.980819e+001 -4.703846e+001 -2.982981e+001 -1.285261e-001 1.357827e+002
530200075.50019 -6.137816e-001 1.688121e+002 -4.729514e+001 -3.151998e+001 -4.707479e+001 -3.059761e+001 -1.204954e-001 1.357286e+002
530577576.44394 -6.187882e-001 1.686044e+002 -4.731256e+001 -3.148716e+001 -4.709985e+001 -3.311219e+001 -1.184635e-001 1.356964e+002
530955077.38769 -6.230561e-001 1.684702e+002 -4.713282e+001 -3.180616e+001 -4.714861e+001 -3.221659e+001 -1.170486e-001 1.356286e+002
531332578.33145 -6.244756e-001 1.682732e+002 -4.701825e+001 -3.224949e+001 -4.698753e+001 -3.334327e+001 -1.165079e-001 1.356299e+002
531710079.2752 -6.286969e-001 1.680334e+002 -4.728726e+001 -3.352840e+001 -4.709427e+001 -3.437653e+001 -1.120843e-001 1.356031e+002
532087580.21895 -6.272691e-001 1.678256e+002 -4.725622e+001 -3.455056e+001 -4.691875e+001 -3.383049e+001 -1.074693e-001 1.355812e+002
532465081.1627 -6.277086e-001 1.677302e+002 -4.709239e+001 -3.561713e+001 -4.699829e+001 -3.555429e+001 -1.130264e-001 1.355581e+002
532842582.10646 -6.279309e-001 1.675215e+002 -4.721686e+001 -3.646721e+001 -4.701566e+001 -3.679222e+001 -1.073268e-001 1.355539e+002
533220083.05021 -6.317028e-001 1.672684e+002 -4.716861e+001 -3.675624e+001 -4.697524e+001 -3.780793e+001 -1.038907e-001 1.355365e+002
533597583.99396 -6.327914e-001 1.670995e+002 -4.712251e+001 -3.738472e+001 -4.700010e+001 -3.787424e+001 -1.087402e-001 1.355314e+002
533975084.93771 -6.320483e-001 1.669293e+002 -4.693866e+001 -3.758468e+001 -4.693699e+001 -3.860284e+001 -1.059055e-001 1.355173e+002
534352585.88146 -6.369987e-001 1.666858e+002 -4.715197e+001 -3.863863e+001 -4.687616e+001 -3.954217e+001 -1.028712e-001 1.354940e+002
534730086.82522 -6.359078e-001 1.664968e+002 -4.708181e+001 -3.869603e+001 -4.694578e+001 -4.057421e+001 -1.087501e-001 1.354866e+002
535107587.76897 -6.357862e-001 1.663014e+002 -4.708274e+001 -3.958345e+001 -4.696640e+001 -4.097427e+001 -1.017441e-001 1.355088e+002
535485088.71272 -6.354576e-001 1.660879e+002 -4.704772e+001 -4.047878e+001 -4.670779e+001 -4.166829e+001 -1.092579e-001 1.354499e+002
535862589.65647 -6.377385e-001 1.659186e+002 -4.698404e+001 -4.122729e+001 -4.686513e+001 -4.115545e+001 -1.079479e-001 1.354464e+002
536240090.60023 -6.357423e-001 1.656927e+002 -4.689415e+001 -4.144873e+001 -4.683370e+001 -4.350579e+001 -1.076652e-001 1.354144e+002
536617591.54398 -6.374238e-001 1.655146e+002 -4.698405e+001 -4.271462e+001 -4.681250e+001 -4.416302e+001 -1.106150e-001 1.354185e+002
536995092.48773 -6.371009e-001 1.652633e+002 -4.694597e+001 -4.374417e+001 -4.683236e+001 -4.447507e+001 -1.088262e-001 1.354419e+002
537372593.43148 -6.384965e-001 1.650311e+002 -4.685458e+001 -4.319332e+001 -4.678803e+001 -4.465109e+001 -1.113914e-001 1.353691e+002
537750094.37524 -6.375614e-001 1.648754e+002 -4.671678e+001 -4.455941e+001 -4.687125e+001 -4.585373e+001 -1.164191e-001 1.353530e+002
538127595.31899 -6.392159e-001 1.645990e+002 -4.687141e+001 -4.509365e+001 -4.678989e+001 -4.653257e+001 -1.157277e-001 1.353228e+002
538505096.26274 -6.400854e-001 1.643752e+002 -4.688701e+001 -4.524082e+001 -4.689883e+001 -4.698018e+001 -1.177931e-001 1.353223e+002
538882597.20649 -6.398317e-001 1.642151e+002 -4.690864e+001 -4.670679e+001 -4.682904e+001 -4.802447e+001 -1.161421e-001 1.352625e+002
539260098.15025 -6.412186e-001 1.639881e+002 -4.682030e+001 -4.713136e+001 -4.686269e+001 -4.957735e+001 -1.173370e-001 1.352346e+002
539637599.094 -6.409117e-001 1.638079e+002 -4.689811e+001 -4.797044e+001 -4.675423e+001 -4.900068e+001 -1.197088e-001 1.352205e+002
540015100.03775 -6.441354e-001 1.636117e+002 -4.678308e+001 -4.864352e+001 -4.675008e+001 -4.974617e+001 -1.245958e-001 1.351897e+002
540392600.9815 -6.431608e-001 1.633258e+002 -4.689257e+001 -4.841322e+001 -4.680368e+001 -5.122492e+001 -1.186566e-001 1.351669e+002
540770101.92525 -6.402810e-001 1.631022e+002 -4.687562e+001 -4.986816e+001 -4.678471e+001 -5.090796e+001 -1.200482e-001 1.351419e+002
541147602.86901 -6.458377e-001 1.628540e+002 -4.667855e+001 -4.954541e+001 -4.675811e+001 -5.317239e+001 -1.188692e-001 1.351355e+002
541525103.81276 -6.452430e-001 1.627151e+002 -4.660692e+001 -5.052768e+001 -4.672945e+001 -5.307907e+001 -1.197328e-001 1.351082e+002
541902604.75651 -6.427373e-001 1.624402e+002 -4.662198e+001 -5.196284e+001 -4.679590e+001 -5.405573e+001 -1.160125e-001 1.351393e+002
542280105.70026 -6.438165e-001 1.621547e+002 -4.660040e+001 -5.205298e+001 -4.680600e+001 -5.495461e+001 -1.172954e-001 1.350791e+002
542657606.64402 -6.424003e-001 1.619982e+002 -4.678386e+001 -5.307941e+001 -4.684574e+001 -5.515663e+001 -1.175643e-001 1.350800e+002
543035107.58777 -6.428393e-001 1.617265e+002 -4.672652e+001 -5.449258e+001 -4.685035e+001 -5.608892e+001 -1.167987e-001 1.350933e+002
543412608.53152 -6.479504e-001 1.615345e+002 -4.674954e+001 -5.347861e+001 -4.689080e+001 -5.578259e+001 -1.151777e-001 1.350842e+002
543790109.47527 -6.485624e-001 1.612888e+002 -4.669833e+001 -5.436357e+001 -4.700841e+001 -5.664082e+001 -1.110244e-001 1.350667e+002
544167610.41903 -6.453635e-001 1.609883e+002 -4.681417e+001 -5.475624e+001 -4.694620e+001 -5.698708e+001 -1.109844e-001 1.351120e+002
544545111.36278 -6.505057e-001 1.607713e+002 -4.664920e+001 -5.626237e+001 -4.693981e+001 -5.741830e+001 -1.114658e-001 1.350794e+002
544922612.30653 -6.488759e-001 1.605606e+002 -4.675973e+001 -5.653195e+001 -4.696961e+001 -5.848088e+001 -1.107011e-001 1.350621e+002
545300113.25028 -6.482586e-001 1.603031e+002 -4.667270e+001 -5.650592e+001 -4.700065e+001 -5.769311e+001 -1.106056e-001 1.350920e+002
545677614.19404 -6.500009e-001 1.600236e+002 -4.664844e+001 -5.808137e+001 -4.693031e+001 -5.853587e+001 -1.106608e-001 1.351102e+002
546055115.13779 -6.494934e-001 1.597849e+002 -4.661562e+001 -5.826552e+001 -4.679294e+001 -5.915969e+001 -1.101755e-001 1.351010e+002
546432616.08154 -6.495877e-001 1.595379e+002 -4.659026e+001 -5.785517e+001 -4.701635e+001 -5.980926e+001 -1.085344e-001 1.351392e+002
546810117.02529 -6.517736e-001 1.593320e+002 -4.656443e+001 -5.852537e+001 -4.684504e+001 -6.023522e+001 -1.068440e-001 1.351417e+002
547187617.96904 -6.548172e-001 1.590363e+002 -4.665462e+001 -5.993602e+001 -4.683726e+001 -6.043944e+001 -1.106384e-001 1.351551e+002
547565118.9128 -6.535063e-001 1.587461e+002 -4.644563e+001 -5.985184e+001 -4.688979e+001 -6.063379e+001 -1.072559e-001 1.351547e+002
547942619.85655 -6.577273e-001 1.585776e+002 -4.647870e+001 -6.117199e+001 -4.668400e+001 -6.095776e+001 -1.134470e-001 1.351880e+002
548320120.8003 -6.557543e-001 1.583035e+002 -4.650411e+001 -6.037304e+001 -4.684438e+001 -6.080731e+001 -1.120699e-001 1.352010e+002
548697621.74405 -6.581553e-001 1.580605e+002 -4.641253e+001 -6.184839e+001 -4.671009e+001 -6.156986e+001 -1.126073e-001 1.352146e+002
549075122.68781 -6.593205e-001 1.578653e+002 -4.645256e+001 -6.281649e+001 -4.686971e+001 -6.214532e+001 -1.193159e-001 1.352202e+002
549452623.63156 -6.618769e-001 1.575706e+002 -4.656406e+001 -6.309599e+001 -4.673153e+001 -6.255765e+001 -1.170282e-001 1.352155e+002
549830124.57531 -6.626460e-001 1.573337e+002 -4.650787e+001 -6.427878e+001 -4.659383e+001 -6.364038e+001 -1.219917e-001 1.352407e+002
550207625.51906 -6.654674e-001 1.571211e+002 -4.633587e+001 -6.356162e+001 -4.658352e+001 -6.300182e+001 -1.242978e-001 1.352494e+002
550585126.46282 -6.657647e-001 1.568896e+002 -4.637686e+001 -6.498781e+001 -4.668215e+001 -6.382202e+001 -1.281168e-001 1.352323e+002
550962627.40657 -6.690524e-001 1.566556e+002 -4.630368e+001 -6.624087e+001 -4.654685e+001 -6.548541e+001 -1.339287e-001 1.352341e+002
551340128.35032 -6.692256e-001 1.564148e+002 -4.635814e+001 -6.600719e+001 -4.650154e+001 -6.493790e+001 -1.351334e-001 1.352502e+002
551717629.29407 -6.724868e-001 1.561637e+002 -4.631941e+001 -6.648572e+001 -4.651250e+001 -6.638911e+001 -1.350974e-001 1.352357e+002
552095130.23783 -6.741012e-001 1.559255e+002 -4.639539e+001 -6.788904e+001 -4.647641e+001 -6.666803e+001 -1.394497e-001 1.352193e+002
552472631.18158 -6.767103e-001 1.557296e+002 -4.642956e+001 -6.771006e+001 -4.644219e+001 -6.709013e+001 -1.420530e-001 1.352136e+002
552850132.12533 -6.820996e-001 1.555152e+002 -4.625050e+001 -6.756898e+001 -4.644067e+001 -6.741615e+001 -1.433839e-001 1.351598e+002
553227633.06908 -6.823182e-001 1.552516e+002 -4.634430e+001 -6.839766e+001 -4.642382e+001 -6.861253e+001 -1.468160e-001 1.351434e+002
553605134.01284 -6.817321e-001 1.549971e+002 -4.634169e+001 -6.896531e+001 -4.645908e+001 -6.793122e+001 -1.564960e-001 1.350927e+002
553982634.95659 -6.870690e-001 1.547652e+002 -4.631015e+001 -6.878961e+001 -4.634867e+001 -6.896008e+001 -1.562849e-001 1.350710e+002
554360135.90034 -6.889246e-001 1.545442e+002 -4.629936e+001 -6.917619e+001 -4.639509e+001 -6.892971e+001 -1.568211e-001 1.350199e+002
554737636.84409 -6.887372e-001 1.543382e+002 -4.619740e+001 -7.043220e+001 -4.630209e+001 -7.042955e+001 -1.625093e-001 1.349697e+002
555115137.78784 -6.917437e-001 1.540850e+002 -4.626220e+001 -7.098143e+001 -4.633692e+001 -7.008678e+001 -1.611050e-001 1.349257e+002
