!Agilent Technologies,E8364B,US42250235,A.06.04.32
!Agilent E8364B: A.06.04.32
!Date: Friday, January 15, 2021 12:06:35
!Correction: S11(Full 2 Port(1,2)) S21(Full 2 Port(1,2)) S12(Full 2 Port(1,2)) S22(Full 2 Port(1,2)) 
!S2P File: Measurements: S11, S21, S12, S22:
# Hz S  dB   R 50
500000000 -7.810518e-002 -1.292461e+002 -6.192040e+001 -4.064139e+001 -6.528226e+001 -4.745693e+001 -1.254648e-001 1.387353e+002
500625000 -8.531693e-002 -1.294919e+002 -6.409941e+001 -5.896867e+001 -6.144670e+001 -5.410944e+001 -1.256616e-001 1.386734e+002
501250000 -9.743251e-002 -1.297442e+002 -6.615639e+001 -6.314337e+001 -6.296877e+001 -6.502698e+001 -1.234434e-001 1.386557e+002
501875000 -9.149469e-002 -1.300967e+002 -6.450576e+001 -7.425761e+001 -6.382791e+001 -6.415639e+001 -1.232894e-001 1.385972e+002
502500000 -1.000986e-001 -1.303786e+002 -6.176474e+001 -6.398540e+001 -6.435872e+001 -5.419352e+001 -1.207979e-001 1.385338e+002
503125000 -1.061267e-001 -1.307181e+002 -6.371059e+001 -8.539828e+001 -6.272848e+001 -4.823903e+001 -1.274886e-001 1.384496e+002
503750000 -1.126996e-001 -1.309694e+002 -6.186997e+001 -6.566910e+001 -6.199883e+001 -5.234617e+001 -1.199113e-001 1.384414e+002
504375000 -1.246905e-001 -1.312780e+002 -6.130120e+001 -5.570933e+001 -6.086996e+001 -7.304209e+001 -1.330014e-001 1.383877e+002
505000000 -1.363831e-001 -1.315634e+002 -6.048465e+001 -6.002149e+001 -6.190746e+001 -6.361267e+001 -1.296016e-001 1.383699e+002
505625000 -1.292167e-001 -1.318437e+002 -6.325062e+001 -4.381828e+001 -6.353863e+001 -7.050972e+001 -1.269783e-001 1.382816e+002
506250000 -1.392324e-001 -1.321575e+002 -6.340419e+001 -6.601078e+001 -6.226799e+001 -5.699549e+001 -1.412446e-001 1.381678e+002
506875000 -1.504858e-001 -1.324583e+002 -6.108404e+001 -5.265283e+001 -6.126255e+001 -6.891474e+001 -1.230850e-001 1.380955e+002
507500000 -1.493178e-001 -1.327811e+002 -6.195668e+001 -5.388532e+001 -6.075663e+001 -5.927267e+001 -1.277777e-001 1.380285e+002
508125000 -1.533918e-001 -1.330619e+002 -6.156687e+001 -6.973866e+001 -6.011716e+001 -7.156037e+001 -1.295478e-001 1.380002e+002
508750000 -1.586467e-001 -1.333032e+002 -6.400956e+001 -7.389281e+001 -6.023398e+001 -6.297411e+001 -1.269777e-001 1.379686e+002
509375000 -1.650410e-001 -1.336896e+002 -6.164955e+001 -6.693539e+001 -6.285843e+001 -6.227161e+001 -1.244439e-001 1.379091e+002
510000000 -1.640828e-001 -1.339917e+002 -6.361153e+001 -6.918501e+001 -5.997277e+001 -7.167110e+001 -1.286213e-001 1.378822e+002
510625000 -1.722470e-001 -1.342571e+002 -6.184378e+001 -7.217229e+001 -6.166657e+001 -8.129119e+001 -1.190806e-001 1.378547e+002
511250000 -1.786845e-001 -1.345688e+002 -6.165928e+001 -6.046114e+001 -6.083758e+001 -6.443687e+001 -1.270319e-001 1.377450e+002
511875000 -1.748928e-001 -1.348766e+002 -5.907220e+001 -7.768035e+001 -6.133421e+001 -7.182186e+001 -1.211982e-001 1.377008e+002
512500000 -1.799080e-001 -1.351969e+002 -6.110873e+001 -7.122414e+001 -6.001237e+001 -7.098847e+001 -1.300382e-001 1.376539e+002
513125000 -1.933175e-001 -1.355269e+002 -5.944598e+001 -8.748240e+001 -6.113169e+001 -7.761665e+001 -1.295202e-001 1.376943e+002
513750000 -2.026769e-001 -1.358201e+002 -5.996199e+001 -9.074449e+001 -6.279340e+001 -8.158768e+001 -1.399014e-001 1.375797e+002
514375000 -2.049731e-001 -1.361556e+002 -6.229986e+001 -7.669442e+001 -6.009137e+001 -6.918656e+001 -1.343521e-001 1.374850e+002
515000000 -2.060933e-001 -1.364283e+002 -6.123365e+001 -8.561460e+001 -6.066306e+001 -7.528930e+001 -1.297721e-001 1.374382e+002
515625000 -2.166179e-001 -1.368022e+002 -6.286337e+001 -6.561182e+001 -6.393668e+001 -8.432428e+001 -1.311337e-001 1.373002e+002
516250000 -2.191909e-001 -1.371060e+002 -6.161716e+001 -7.769420e+001 -5.934000e+001 -6.558289e+001 -1.438505e-001 1.372093e+002
516875000 -2.393511e-001 -1.374368e+002 -5.951649e+001 -8.513064e+001 -6.001723e+001 -7.987670e+001 -1.463716e-001 1.371588e+002
517500000 -2.440904e-001 -1.377722e+002 -5.990168e+001 -7.279827e+001 -5.822676e+001 -6.966125e+001 -1.392890e-001 1.370165e+002
518125000 -2.524567e-001 -1.381090e+002 -5.850352e+001 -8.500298e+001 -6.073720e+001 -7.561105e+001 -1.438436e-001 1.368792e+002
518750000 -2.586038e-001 -1.384206e+002 -6.044349e+001 -7.192628e+001 -5.952356e+001 -7.841911e+001 -1.426589e-001 1.368557e+002
519375000 -2.801768e-001 -1.387112e+002 -5.956737e+001 -6.752992e+001 -5.984545e+001 -7.405741e+001 -1.411518e-001 1.366647e+002
520000000 -2.841053e-001 -1.390738e+002 -5.960202e+001 -8.707210e+001 -5.865505e+001 -7.905511e+001 -1.422597e-001 1.365941e+002
520625000 -3.000541e-001 -1.393949e+002 -5.792717e+001 -8.380151e+001 -5.949046e+001 -8.301598e+001 -1.413498e-001 1.363948e+002
521250000 -3.140058e-001 -1.396870e+002 -5.805091e+001 -8.431382e+001 -5.767508e+001 -8.380309e+001 -1.421225e-001 1.364062e+002
521875000 -3.182880e-001 -1.399932e+002 -5.720247e+001 -8.494958e+001 -5.823326e+001 -8.909098e+001 -1.252560e-001 1.363322e+002
522500000 -3.319628e-001 -1.402946e+002 -5.942070e+001 -8.283727e+001 -5.770142e+001 -8.692683e+001 -1.320409e-001 1.361830e+002
523125000 -3.570817e-001 -1.406033e+002 -5.664907e+001 -8.819646e+001 -5.806670e+001 -9.198088e+001 -1.292458e-001 1.362009e+002
523750000 -3.650254e-001 -1.409182e+002 -5.701719e+001 -9.390007e+001 -5.815315e+001 -8.708147e+001 -1.260790e-001 1.361789e+002
524375000 -3.866717e-001 -1.411878e+002 -5.818338e+001 -9.294991e+001 -5.914916e+001 -8.754510e+001 -1.187358e-001 1.361049e+002
525000000 -3.844296e-001 -1.414550e+002 -5.734903e+001 -9.428349e+001 -5.669316e+001 -9.835717e+001 -1.248511e-001 1.360863e+002
525625000 -4.039355e-001 -1.416934e+002 -5.695890e+001 -9.873910e+001 -5.808050e+001 -9.291190e+001 -1.187807e-001 1.360424e+002
526250000 -4.080834e-001 -1.420019e+002 -5.621949e+001 -9.958672e+001 -5.785885e+001 -1.127624e+002 -1.271826e-001 1.360815e+002
526875000 -4.225790e-001 -1.423569e+002 -5.699915e+001 -1.048905e+002 -5.920592e+001 -9.891828e+001 -1.223193e-001 1.360345e+002
527500000 -4.394612e-001 -1.426356e+002 -5.918475e+001 -1.019983e+002 -5.663313e+001 -1.036693e+002 -1.214598e-001 1.360419e+002
528125000 -4.613819e-001 -1.429218e+002 -5.768440e+001 -9.854546e+001 -5.777024e+001 -1.005252e+002 -1.253618e-001 1.360836e+002
528750000 -4.557144e-001 -1.432206e+002 -5.721774e+001 -1.101601e+002 -5.755609e+001 -1.047404e+002 -1.188890e-001 1.361489e+002
529375000 -4.665458e-001 -1.435085e+002 -5.639021e+001 -1.065535e+002 -5.826601e+001 -1.119467e+002 -1.214866e-001 1.360615e+002
530000000 -4.839823e-001 -1.438443e+002 -5.766639e+001 -1.109496e+002 -5.856659e+001 -1.128722e+002 -1.317551e-001 1.360695e+002
530625000 -4.972810e-001 -1.441270e+002 -5.672182e+001 -1.131388e+002 -5.788288e+001 -1.023812e+002 -1.268647e-001 1.360222e+002
531250000 -5.125328e-001 -1.444318e+002 -5.631765e+001 -1.071579e+002 -5.725500e+001 -1.074244e+002 -1.215806e-001 1.359730e+002
531875000 -5.310736e-001 -1.447097e+002 -5.695938e+001 -1.085851e+002 -5.695584e+001 -1.105591e+002 -1.304108e-001 1.359255e+002
532500000 -5.423980e-001 -1.449272e+002 -5.760589e+001 -1.111733e+002 -5.697268e+001 -1.081979e+002 -1.356947e-001 1.359179e+002
533125000 -5.529295e-001 -1.452467e+002 -5.595116e+001 -1.105892e+002 -5.715142e+001 -1.098635e+002 -1.357046e-001 1.358995e+002
533750000 -5.694228e-001 -1.455227e+002 -5.577289e+001 -1.161031e+002 -5.713642e+001 -1.128186e+002 -1.567350e-001 1.357545e+002
534375000 -5.782183e-001 -1.458044e+002 -5.638121e+001 -1.071639e+002 -5.590506e+001 -1.070565e+002 -1.287109e-001 1.356752e+002
535000000 -5.871573e-001 -1.460085e+002 -5.604254e+001 -1.052678e+002 -5.521830e+001 -1.138909e+002 -1.417902e-001 1.356453e+002
535625000 -5.980310e-001 -1.463091e+002 -5.693016e+001 -1.128591e+002 -5.723807e+001 -1.141643e+002 -1.339517e-001 1.356458e+002
536250000 -6.027680e-001 -1.465625e+002 -5.576830e+001 -1.199713e+002 -5.516039e+001 -1.200946e+002 -1.312623e-001 1.355001e+002
536875000 -6.081954e-001 -1.469170e+002 -5.659016e+001 -1.187394e+002 -5.570815e+001 -1.214604e+002 -1.378672e-001 1.354105e+002
537500000 -6.117887e-001 -1.471322e+002 -5.522144e+001 -1.197046e+002 -5.650162e+001 -1.219327e+002 -1.243248e-001 1.354070e+002
538125000 -6.204390e-001 -1.474279e+002 -5.577028e+001 -1.181544e+002 -5.452079e+001 -1.218811e+002 -1.330334e-001 1.354268e+002
538750000 -6.303797e-001 -1.477564e+002 -5.650234e+001 -1.229592e+002 -5.502974e+001 -1.173085e+002 -1.313334e-001 1.353499e+002
539375000 -6.392555e-001 -1.480600e+002 -5.520485e+001 -1.230635e+002 -5.599854e+001 -1.255503e+002 -1.267882e-001 1.353399e+002
540000000 -6.420984e-001 -1.483862e+002 -5.536998e+001 -1.249873e+002 -5.713959e+001 -1.220991e+002 -1.312186e-001 1.352519e+002
540625000 -6.499610e-001 -1.487052e+002 -5.438391e+001 -1.221354e+002 -5.616166e+001 -1.262209e+002 -1.286282e-001 1.352016e+002
541250000 -6.626219e-001 -1.489697e+002 -5.512822e+001 -1.189338e+002 -5.543510e+001 -1.229153e+002 -1.302471e-001 1.352086e+002
541875000 -6.753950e-001 -1.493094e+002 -5.543944e+001 -1.276482e+002 -5.588229e+001 -1.311075e+002 -1.320603e-001 1.351186e+002
542500000 -6.805854e-001 -1.496129e+002 -5.410202e+001 -1.228916e+002 -5.627023e+001 -1.241415e+002 -1.319461e-001 1.350909e+002
543125000 -6.830949e-001 -1.499429e+002 -5.597379e+001 -1.230370e+002 -5.553981e+001 -1.251114e+002 -1.307581e-001 1.350228e+002
543750000 -6.953496e-001 -1.502615e+002 -5.526028e+001 -1.315295e+002 -5.566469e+001 -1.321450e+002 -1.405938e-001 1.349671e+002
544375000 -7.158343e-001 -1.505925e+002 -5.453300e+001 -1.298061e+002 -5.432336e+001 -1.346029e+002 -1.383518e-001 1.349087e+002
545000000 -7.121190e-001 -1.508312e+002 -5.444941e+001 -1.360241e+002 -5.465605e+001 -1.329294e+002 -1.456218e-001 1.348285e+002
545625000 -7.225739e-001 -1.511821e+002 -5.493166e+001 -1.290648e+002 -5.388216e+001 -1.342701e+002 -1.411474e-001 1.347751e+002
546250000 -7.391527e-001 -1.514478e+002 -5.460921e+001 -1.377730e+002 -5.372285e+001 -1.309917e+002 -1.471039e-001 1.346223e+002
546875000 -7.401240e-001 -1.518601e+002 -5.538648e+001 -1.299127e+002 -5.381563e+001 -1.354244e+002 -1.508383e-001 1.346330e+002
547500000 -7.491634e-001 -1.521531e+002 -5.444107e+001 -1.351336e+002 -5.466967e+001 -1.408943e+002 -1.405081e-001 1.345168e+002
548125000 -7.667193e-001 -1.524204e+002 -5.444267e+001 -1.399696e+002 -5.372653e+001 -1.352807e+002 -1.360043e-001 1.344021e+002
548750000 -7.782459e-001 -1.528159e+002 -5.408765e+001 -1.418664e+002 -5.415555e+001 -1.406528e+002 -1.495841e-001 1.342880e+002
549375000 -7.952303e-001 -1.530729e+002 -5.455231e+001 -1.403037e+002 -5.347945e+001 -1.421513e+002 -1.529960e-001 1.341140e+002
550000000 -7.935715e-001 -1.533908e+002 -5.371598e+001 -1.429968e+002 -5.423106e+001 -1.443723e+002 -1.483607e-001 1.340822e+002
550625000 -8.115316e-001 -1.536794e+002 -5.441894e+001 -1.432905e+002 -5.331316e+001 -1.447108e+002 -1.489967e-001 1.340091e+002
551250000 -8.135237e-001 -1.539353e+002 -5.418634e+001 -1.472026e+002 -5.399976e+001 -1.464776e+002 -1.457540e-001 1.339285e+002
551875000 -8.245568e-001 -1.542193e+002 -5.365186e+001 -1.466859e+002 -5.436235e+001 -1.445275e+002 -1.385718e-001 1.338498e+002
552500000 -8.181626e-001 -1.545382e+002 -5.347529e+001 -1.536343e+002 -5.334536e+001 -1.524443e+002 -1.289739e-001 1.337428e+002
553125000 -8.241623e-001 -1.548857e+002 -5.327227e+001 -1.490363e+002 -5.317740e+001 -1.504180e+002 -1.382937e-001 1.337817e+002
553750000 -8.400273e-001 -1.551557e+002 -5.382772e+001 -1.449034e+002 -5.396424e+001 -1.518229e+002 -1.371893e-001 1.336485e+002
554375000 -8.433874e-001 -1.554392e+002 -5.296144e+001 -1.595132e+002 -5.435590e+001 -1.595673e+002 -1.355334e-001 1.336118e+002
555000000 -8.559874e-001 -1.557674e+002 -5.346437e+001 -1.536145e+002 -5.332645e+001 -1.563985e+002 -1.318695e-001 1.336002e+002
555625000 -8.682342e-001 -1.560112e+002 -5.352266e+001 -1.521415e+002 -5.473196e+001 -1.542253e+002 -1.162405e-001 1.336065e+002
556250000 -8.726896e-001 -1.563461e+002 -5.398577e+001 -1.629476e+002 -5.470102e+001 -1.567435e+002 -1.407853e-001 1.335478e+002
556875000 -8.721015e-001 -1.566305e+002 -5.361787e+001 -1.559883e+002 -5.324035e+001 -1.585662e+002 -1.452276e-001 1.335929e+002
557500000 -8.763440e-001 -1.569069e+002 -5.391550e+001 -1.573385e+002 -5.433347e+001 -1.584191e+002 -1.294238e-001 1.335536e+002
558125000 -8.782520e-001 -1.571734e+002 -5.359297e+001 -1.610910e+002 -5.351089e+001 -1.566341e+002 -1.397617e-001 1.335337e+002
558750000 -8.779127e-001 -1.575038e+002 -5.273748e+001 -1.589864e+002 -5.409386e+001 -1.525634e+002 -1.283772e-001 1.335278e+002
559375000 -8.838149e-001 -1.578889e+002 -5.430732e+001 -1.551455e+002 -5.321311e+001 -1.559577e+002 -1.323542e-001 1.334680e+002
560000000 -8.940813e-001 -1.581769e+002 -5.267305e+001 -1.611069e+002 -5.280751e+001 -1.678719e+002 -1.337906e-001 1.334474e+002
560625000 -8.929283e-001 -1.584906e+002 -5.262378e+001 -1.619201e+002 -5.325312e+001 -1.620909e+002 -1.349304e-001 1.334035e+002
561250000 -8.931783e-001 -1.588276e+002 -5.379264e+001 -1.682985e+002 -5.239322e+001 -1.656957e+002 -1.359938e-001 1.333690e+002
561875000 -8.918828e-001 -1.592069e+002 -5.298622e+001 -1.677042e+002 -5.316308e+001 -1.644620e+002 -1.405759e-001 1.333508e+002
562500000 -8.961079e-001 -1.595304e+002 -5.387819e+001 -1.661706e+002 -5.335113e+001 -1.658231e+002 -1.509865e-001 1.332919e+002
563125000 -8.930752e-001 -1.598399e+002 -5.294191e+001 -1.716407e+002 -5.324269e+001 -1.727751e+002 -1.391704e-001 1.332099e+002
563750000 -8.948218e-001 -1.602567e+002 -5.321125e+001 -1.722646e+002 -5.323673e+001 -1.730707e+002 -1.408375e-001 1.331789e+002
564375000 -8.955846e-001 -1.605888e+002 -5.253091e+001 -1.733084e+002 -5.179525e+001 -1.681587e+002 -1.469161e-001 1.330996e+002
565000000 -8.908385e-001 -1.610435e+002 -5.303533e+001 -1.722152e+002 -5.324644e+001 -1.668545e+002 -1.501235e-001 1.330558e+002
565625000 -8.957947e-001 -1.614646e+002 -5.263756e+001 -1.715392e+002 -5.262263e+001 -1.707243e+002 -1.543525e-001 1.329263e+002
566250000 -8.939998e-001 -1.618916e+002 -5.379463e+001 -1.749503e+002 -5.306642e+001 -1.729426e+002 -1.643762e-001 1.328149e+002
566875000 -9.102483e-001 -1.624128e+002 -5.237550e+001 -1.785559e+002 -5.263433e+001 -1.709078e+002 -1.561949e-001 1.326673e+002
567500000 -9.213887e-001 -1.628298e+002 -5.226332e+001 -1.756286e+002 -5.202871e+001 -1.713439e+002 -1.497733e-001 1.325843e+002
568125000 -9.288957e-001 -1.632671e+002 -5.281712e+001 -1.719779e+002 -5.242847e+001 -1.734906e+002 -1.566448e-001 1.324754e+002
568750000 -9.394662e-001 -1.636813e+002 -5.293113e+001 -1.760818e+002 -5.255441e+001 -1.682918e+002 -1.604058e-001 1.323373e+002
569375000 -9.565904e-001 -1.641133e+002 -5.265025e+001 -1.727299e+002 -5.206132e+001 -1.751631e+002 -1.567688e-001 1.322195e+002
570000000 -9.600857e-001 -1.645533e+002 -5.191553e+001 -1.747738e+002 -5.184706e+001 -1.752337e+002 -1.603632e-001 1.320241e+002
570625000 -9.735082e-001 -1.649483e+002 -5.188025e+001 -1.788264e+002 -5.150248e+001 -1.725087e+002 -1.548432e-001 1.319883e+002
571250000 -9.851853e-001 -1.654132e+002 -5.122536e+001 -1.752027e+002 -5.270448e+001 -1.749431e+002 -1.541959e-001 1.319002e+002
571875000 -1.007272e+000 -1.658201e+002 -5.169593e+001 -1.738564e+002 -5.140120e+001 -1.778246e+002 -1.435782e-001 1.317431e+002
572500000 -1.021876e+000 -1.662921e+002 -5.182938e+001 -1.772720e+002 -5.156791e+001 1.772344e+002 -1.528115e-001 1.316210e+002
573125000 -1.041440e+000 -1.666808e+002 -5.127829e+001 -1.773568e+002 -5.095341e+001 -1.790938e+002 -1.442194e-001 1.315794e+002
573750000 -1.050044e+000 -1.670960e+002 -5.150143e+001 1.796737e+002 -5.160148e+001 1.772663e+002 -1.559694e-001 1.314356e+002
574375000 -1.068670e+000 -1.674434e+002 -5.119225e+001 1.785034e+002 -5.090730e+001 1.778593e+002 -1.422724e-001 1.314314e+002
575000000 -1.082431e+000 -1.678706e+002 -5.061975e+001 1.741600e+002 -5.101554e+001 1.717162e+002 -1.422346e-001 1.313334e+002
575625000 -1.094087e+000 -1.682141e+002 -5.029161e+001 1.729587e+002 -5.103936e+001 1.758523e+002 -1.420258e-001 1.313096e+002
576250000 -1.098027e+000 -1.686254e+002 -5.051509e+001 1.685899e+002 -5.110346e+001 1.698562e+002 -1.467204e-001 1.312406e+002
576875000 -1.108965e+000 -1.690098e+002 -5.109913e+001 1.683411e+002 -5.031410e+001 1.686073e+002 -1.417270e-001 1.311945e+002
577500000 -1.127435e+000 -1.694436e+002 -5.022782e+001 1.656436e+002 -5.098476e+001 1.664239e+002 -1.323566e-001 1.311742e+002
578125000 -1.132077e+000 -1.698386e+002 -5.041677e+001 1.644238e+002 -5.062372e+001 1.676229e+002 -1.330196e-001 1.312767e+002
578750000 -1.141460e+000 -1.702982e+002 -5.039688e+001 1.675154e+002 -5.043447e+001 1.638750e+002 -1.301853e-001 1.312380e+002
579375000 -1.146600e+000 -1.706793e+002 -5.051154e+001 1.615613e+002 -5.019353e+001 1.609999e+002 -1.228516e-001 1.311820e+002
580000000 -1.156258e+000 -1.711061e+002 -5.130684e+001 1.644419e+002 -5.038298e+001 1.626405e+002 -1.272450e-001 1.312411e+002
580625000 -1.166237e+000 -1.715148e+002 -5.050741e+001 1.590722e+002 -5.075401e+001 1.596365e+002 -1.275645e-001 1.312880e+002
581250000 -1.184630e+000 -1.718955e+002 -5.010510e+001 1.609079e+002 -5.082147e+001 1.623652e+002 -1.240236e-001 1.312901e+002
581875000 -1.197113e+000 -1.723930e+002 -5.065252e+001 1.560423e+002 -5.007305e+001 1.600753e+002 -1.296946e-001 1.312417e+002
582500000 -1.216616e+000 -1.727996e+002 -5.013071e+001 1.549991e+002 -5.078666e+001 1.586786e+002 -1.288902e-001 1.312255e+002
583125000 -1.220365e+000 -1.733065e+002 -5.026793e+001 1.530003e+002 -5.001017e+001 1.569503e+002 -1.485230e-001 1.311608e+002
583750000 -1.247157e+000 -1.737768e+002 -5.026815e+001 1.550735e+002 -5.049469e+001 1.544918e+002 -1.505878e-001 1.311362e+002
584375000 -1.257761e+000 -1.741975e+002 -5.096514e+001 1.558155e+002 -4.989642e+001 1.524031e+002 -1.430562e-001 1.310865e+002
585000000 -1.267562e+000 -1.746729e+002 -5.074302e+001 1.510276e+002 -5.052850e+001 1.501506e+002 -1.551435e-001 1.310038e+002
585625000 -1.294401e+000 -1.751283e+002 -5.073359e+001 1.536986e+002 -5.057766e+001 1.517337e+002 -1.508311e-001 1.308775e+002
586250000 -1.303335e+000 -1.755974e+002 -5.115480e+001 1.519148e+002 -5.051733e+001 1.492903e+002 -1.510723e-001 1.308580e+002
586875000 -1.315450e+000 -1.761329e+002 -5.039328e+001 1.515452e+002 -5.051284e+001 1.501790e+002 -1.527572e-001 1.306961e+002
587500000 -1.340712e+000 -1.766419e+002 -4.988853e+001 1.496929e+002 -4.994737e+001 1.501165e+002 -1.571268e-001 1.305484e+002
588125000 -1.349210e+000 -1.771370e+002 -5.073173e+001 1.494769e+002 -5.020413e+001 1.516347e+002 -1.573416e-001 1.304535e+002
588750000 -1.369574e+000 -1.776220e+002 -5.007126e+001 1.491116e+002 -5.014826e+001 1.485058e+002 -1.650886e-001 1.303845e+002
589375000 -1.378625e+000 -1.781775e+002 -5.013170e+001 1.476829e+002 -5.013278e+001 1.505694e+002 -1.632052e-001 1.302004e+002
590000000 -1.403837e+000 -1.787312e+002 -5.067929e+001 1.446690e+002 -4.995356e+001 1.476133e+002 -1.555108e-001 1.301969e+002
590625000 -1.424502e+000 -1.792687e+002 -5.019542e+001 1.470233e+002 -4.999804e+001 1.452234e+002 -1.485737e-001 1.300373e+002
591250000 -1.443097e+000 -1.798768e+002 -4.963530e+001 1.458714e+002 -4.962776e+001 1.471345e+002 -1.533591e-001 1.300023e+002
591875000 -1.474972e+000 1.795820e+002 -4.958250e+001 1.408591e+002 -4.979927e+001 1.461757e+002 -1.426872e-001 1.299976e+002
592500000 -1.502438e+000 1.790092e+002 -4.991023e+001 1.439223e+002 -4.950218e+001 1.395018e+002 -1.366416e-001 1.299555e+002
593125000 -1.544402e+000 1.785057e+002 -4.999852e+001 1.416357e+002 -4.927824e+001 1.444861e+002 -1.448041e-001 1.299839e+002
593750000 -1.576397e+000 1.779153e+002 -4.943516e+001 1.417932e+002 -4.921896e+001 1.447404e+002 -1.293932e-001 1.299870e+002
594375000 -1.607383e+000 1.774622e+002 -4.907767e+001 1.418761e+002 -4.883887e+001 1.407560e+002 -1.316493e-001 1.300020e+002
595000000 -1.638222e+000 1.768991e+002 -4.879996e+001 1.413982e+002 -4.924717e+001 1.401041e+002 -1.423704e-001 1.300350e+002
