!Agilent Technologies,E8364B,US42250235,A.06.04.32
!Agilent E8364B: A.06.04.32
!Date: Friday, January 15, 2021 12:26:21
!Correction: S11(Full 2 Port(1,2)) S21(Full 2 Port(1,2)) S12(Full 2 Port(1,2)) S22(Full 2 Port(1,2)) 
!S2P File: Measurements: S11, S21, S12, S22:
# Hz S  dB   R 50
500000000 -8.952627e-002 -1.287009e+002 -5.593580e+001 -2.306168e+001 -5.674055e+001 -6.967547e+000 -1.436325e-001 1.384294e+002
500625000 -8.969118e-002 -1.289780e+002 -5.689194e+001 -2.456218e+000 -5.588322e+001 -1.323839e+001 -1.544142e-001 1.383819e+002
501250000 -9.288147e-002 -1.292026e+002 -5.744139e+001 -1.631207e+001 -5.745708e+001 -1.500336e+001 -1.465656e-001 1.383089e+002
501875000 -9.087576e-002 -1.294826e+002 -5.585973e+001 -8.394009e+000 -5.457597e+001 -2.320000e+001 -1.359044e-001 1.383172e+002
502500000 -8.812895e-002 -1.298286e+002 -5.611868e+001 -1.416272e+001 -5.728919e+001 -1.113700e+001 -1.392757e-001 1.382672e+002
503125000 -1.002380e-001 -1.301210e+002 -5.724954e+001 -1.760291e+001 -5.747481e+001 -1.661478e+001 -1.452910e-001 1.381282e+002
503750000 -9.358373e-002 -1.303364e+002 -5.531900e+001 -1.857042e+001 -5.724203e+001 -1.917104e+001 -1.440916e-001 1.380876e+002
504375000 -1.020191e-001 -1.306397e+002 -5.467427e+001 -1.443523e+001 -5.626957e+001 -1.732587e+001 -1.502554e-001 1.380668e+002
505000000 -1.074730e-001 -1.309272e+002 -5.577577e+001 -1.797328e+001 -5.579950e+001 -2.226799e+001 -1.502338e-001 1.380392e+002
505625000 -1.070693e-001 -1.312112e+002 -5.544858e+001 -2.275816e+001 -5.611538e+001 -1.841221e+001 -1.514762e-001 1.379292e+002
506250000 -1.154311e-001 -1.315227e+002 -5.493969e+001 -1.014358e+001 -5.633759e+001 -1.647782e+001 -1.517822e-001 1.378237e+002
506875000 -1.083492e-001 -1.317896e+002 -5.514854e+001 -2.357063e+001 -5.557518e+001 -1.662923e+001 -1.485093e-001 1.376927e+002
507500000 -1.109970e-001 -1.321373e+002 -5.538376e+001 -1.969065e+001 -5.521062e+001 -2.004582e+001 -1.393895e-001 1.376717e+002
508125000 -1.122144e-001 -1.324122e+002 -5.602795e+001 -2.201637e+001 -5.517337e+001 -2.525015e+001 -1.438669e-001 1.376641e+002
508750000 -1.102336e-001 -1.326765e+002 -5.534884e+001 -2.626587e+001 -5.502711e+001 -2.032913e+001 -1.445278e-001 1.375443e+002
509375000 -1.160740e-001 -1.330441e+002 -5.553209e+001 -2.639329e+001 -5.506639e+001 -3.491891e+001 -1.404617e-001 1.375136e+002
510000000 -1.136705e-001 -1.333794e+002 -5.526291e+001 -2.906775e+001 -5.584429e+001 -2.418389e+001 -1.478559e-001 1.374340e+002
510625000 -1.261273e-001 -1.336135e+002 -5.644561e+001 -2.439440e+001 -5.447908e+001 -2.809540e+001 -1.379619e-001 1.374562e+002
511250000 -1.287568e-001 -1.339492e+002 -5.559439e+001 -2.347068e+001 -5.501073e+001 -2.869193e+001 -1.497948e-001 1.373079e+002
511875000 -1.259422e-001 -1.342877e+002 -5.460617e+001 -2.576315e+001 -5.555367e+001 -2.682156e+001 -1.372816e-001 1.373011e+002
512500000 -1.238964e-001 -1.345790e+002 -5.507150e+001 -2.438663e+001 -5.514767e+001 -3.667789e+001 -1.398661e-001 1.372762e+002
513125000 -1.288757e-001 -1.349153e+002 -5.546915e+001 -2.386914e+001 -5.593167e+001 -2.972857e+001 -1.457128e-001 1.372861e+002
513750000 -1.388701e-001 -1.351558e+002 -5.443390e+001 -3.499218e+001 -5.475437e+001 -2.660507e+001 -1.511898e-001 1.371734e+002
514375000 -1.314635e-001 -1.354989e+002 -5.405749e+001 -3.716864e+001 -5.456256e+001 -3.444158e+001 -1.511427e-001 1.370316e+002
515000000 -1.312680e-001 -1.357516e+002 -5.582357e+001 -3.019858e+001 -5.400053e+001 -3.191069e+001 -1.423844e-001 1.370376e+002
515625000 -1.433180e-001 -1.361240e+002 -5.501361e+001 -4.038486e+001 -5.544885e+001 -3.312213e+001 -1.396618e-001 1.369693e+002
516250000 -1.363659e-001 -1.364148e+002 -5.431440e+001 -3.384439e+001 -5.456380e+001 -2.938038e+001 -1.575428e-001 1.368205e+002
516875000 -1.438807e-001 -1.367472e+002 -5.387140e+001 -3.133974e+001 -5.564466e+001 -3.712161e+001 -1.529956e-001 1.368405e+002
517500000 -1.442695e-001 -1.370289e+002 -5.349141e+001 -3.434872e+001 -5.423870e+001 -4.257599e+001 -1.615373e-001 1.367137e+002
518125000 -1.464444e-001 -1.373937e+002 -5.503038e+001 -3.483248e+001 -5.412693e+001 -4.373638e+001 -1.589800e-001 1.366269e+002
518750000 -1.532445e-001 -1.377018e+002 -5.469399e+001 -3.713023e+001 -5.388990e+001 -3.186527e+001 -1.547171e-001 1.365601e+002
519375000 -1.580945e-001 -1.379569e+002 -5.401198e+001 -3.274706e+001 -5.359941e+001 -3.813575e+001 -1.517639e-001 1.364274e+002
520000000 -1.640728e-001 -1.383152e+002 -5.353104e+001 -3.678777e+001 -5.532661e+001 -3.448953e+001 -1.594993e-001 1.362979e+002
520625000 -1.603166e-001 -1.386707e+002 -5.529911e+001 -4.033923e+001 -5.387001e+001 -3.331842e+001 -1.498150e-001 1.361530e+002
521250000 -1.664048e-001 -1.389661e+002 -5.420668e+001 -3.618105e+001 -5.372501e+001 -3.373418e+001 -1.534918e-001 1.361229e+002
521875000 -1.659504e-001 -1.393406e+002 -5.306782e+001 -4.429106e+001 -5.331524e+001 -4.197080e+001 -1.479573e-001 1.360423e+002
522500000 -1.699217e-001 -1.396279e+002 -5.361876e+001 -4.114569e+001 -5.379898e+001 -4.538040e+001 -1.546983e-001 1.359037e+002
523125000 -1.836605e-001 -1.399577e+002 -5.449995e+001 -3.379887e+001 -5.394296e+001 -3.174760e+001 -1.498863e-001 1.358885e+002
523750000 -1.764330e-001 -1.403016e+002 -5.294077e+001 -3.911311e+001 -5.350692e+001 -4.576992e+001 -1.461736e-001 1.358740e+002
524375000 -1.939183e-001 -1.406685e+002 -5.340494e+001 -4.159222e+001 -5.291027e+001 -4.313967e+001 -1.400857e-001 1.357642e+002
525000000 -1.945907e-001 -1.410176e+002 -5.241613e+001 -4.125415e+001 -5.278868e+001 -4.425418e+001 -1.464907e-001 1.357430e+002
525625000 -2.060319e-001 -1.413010e+002 -5.367113e+001 -3.767727e+001 -5.242960e+001 -4.062307e+001 -1.467499e-001 1.357031e+002
526250000 -1.998549e-001 -1.415852e+002 -5.340244e+001 -4.128682e+001 -5.350156e+001 -4.135759e+001 -1.364877e-001 1.357001e+002
526875000 -2.164787e-001 -1.419677e+002 -5.271281e+001 -4.104762e+001 -5.248626e+001 -4.478684e+001 -1.417548e-001 1.356312e+002
527500000 -2.226749e-001 -1.423401e+002 -5.234728e+001 -4.653659e+001 -5.306181e+001 -4.861034e+001 -1.421526e-001 1.356328e+002
528125000 -2.402882e-001 -1.426836e+002 -5.307016e+001 -5.254144e+001 -5.292422e+001 -4.813961e+001 -1.558473e-001 1.356531e+002
528750000 -2.328680e-001 -1.429783e+002 -5.305410e+001 -4.931719e+001 -5.204852e+001 -4.724627e+001 -1.474092e-001 1.356841e+002
529375000 -2.339930e-001 -1.433368e+002 -5.194610e+001 -4.965485e+001 -5.257850e+001 -4.887440e+001 -1.482346e-001 1.356064e+002
530000000 -2.406629e-001 -1.437359e+002 -5.224279e+001 -5.200413e+001 -5.266460e+001 -4.789552e+001 -1.460353e-001 1.356179e+002
530625000 -2.527256e-001 -1.440371e+002 -5.290407e+001 -5.444099e+001 -5.327571e+001 -5.048090e+001 -1.492049e-001 1.355760e+002
531250000 -2.530488e-001 -1.444569e+002 -5.316772e+001 -5.295422e+001 -5.168009e+001 -5.217353e+001 -1.373850e-001 1.355267e+002
531875000 -2.683659e-001 -1.447449e+002 -5.230447e+001 -5.261045e+001 -5.264277e+001 -5.135410e+001 -1.510548e-001 1.354318e+002
532500000 -2.713337e-001 -1.450794e+002 -5.254482e+001 -5.295944e+001 -5.286259e+001 -5.481522e+001 -1.441759e-001 1.354532e+002
533125000 -2.648860e-001 -1.454884e+002 -5.235882e+001 -5.654959e+001 -5.200103e+001 -5.066208e+001 -1.521429e-001 1.354305e+002
533750000 -2.764571e-001 -1.458228e+002 -5.136544e+001 -5.575813e+001 -5.144030e+001 -5.347539e+001 -1.604195e-001 1.353954e+002
534375000 -2.830000e-001 -1.462077e+002 -5.203179e+001 -5.350360e+001 -5.166613e+001 -5.345676e+001 -1.445090e-001 1.353270e+002
535000000 -2.989358e-001 -1.465811e+002 -5.147422e+001 -5.130737e+001 -5.170699e+001 -5.781404e+001 -1.493298e-001 1.353340e+002
535625000 -2.985536e-001 -1.469664e+002 -5.078279e+001 -5.418216e+001 -5.168020e+001 -5.396286e+001 -1.454806e-001 1.352842e+002
536250000 -3.078524e-001 -1.472945e+002 -5.126283e+001 -6.355208e+001 -5.121934e+001 -5.843275e+001 -1.464943e-001 1.351413e+002
536875000 -3.256032e-001 -1.477024e+002 -5.162767e+001 -6.144852e+001 -5.085710e+001 -5.801725e+001 -1.507864e-001 1.351217e+002
537500000 -3.244179e-001 -1.480741e+002 -5.125992e+001 -6.048127e+001 -5.087236e+001 -5.829578e+001 -1.473583e-001 1.351623e+002
538125000 -3.292347e-001 -1.484863e+002 -5.111395e+001 -5.997187e+001 -5.025047e+001 -6.167597e+001 -1.469024e-001 1.351222e+002
538750000 -3.544524e-001 -1.488311e+002 -5.071195e+001 -5.820573e+001 -5.054719e+001 -5.854749e+001 -1.488537e-001 1.350883e+002
539375000 -3.625844e-001 -1.491997e+002 -5.115483e+001 -5.807502e+001 -5.060077e+001 -6.001480e+001 -1.406177e-001 1.350490e+002
540000000 -3.650533e-001 -1.495884e+002 -5.106265e+001 -5.761674e+001 -5.033891e+001 -6.205886e+001 -1.489522e-001 1.349617e+002
540625000 -3.825495e-001 -1.500000e+002 -5.094146e+001 -5.822496e+001 -4.979852e+001 -6.197643e+001 -1.461723e-001 1.348927e+002
541250000 -3.929017e-001 -1.503475e+002 -5.077301e+001 -6.342730e+001 -4.995150e+001 -6.218618e+001 -1.461846e-001 1.349448e+002
541875000 -4.040738e-001 -1.507164e+002 -5.017123e+001 -6.085715e+001 -5.103973e+001 -6.885841e+001 -1.669683e-001 1.348451e+002
542500000 -4.101652e-001 -1.511224e+002 -5.076011e+001 -6.309207e+001 -4.984021e+001 -6.291440e+001 -1.585004e-001 1.347939e+002
543125000 -4.267263e-001 -1.515342e+002 -4.977188e+001 -6.641820e+001 -5.010386e+001 -6.547601e+001 -1.516715e-001 1.347297e+002
543750000 -4.283709e-001 -1.519037e+002 -4.979053e+001 -6.495541e+001 -4.997177e+001 -6.792691e+001 -1.629573e-001 1.346666e+002
544375000 -4.495893e-001 -1.522894e+002 -4.982565e+001 -6.504379e+001 -4.985455e+001 -6.880213e+001 -1.620980e-001 1.345722e+002
545000000 -4.547433e-001 -1.526989e+002 -5.033549e+001 -6.697984e+001 -4.976830e+001 -7.194981e+001 -1.540696e-001 1.345267e+002
545625000 -4.644349e-001 -1.530871e+002 -4.913216e+001 -6.846344e+001 -4.950558e+001 -7.010697e+001 -1.614873e-001 1.344156e+002
546250000 -4.877865e-001 -1.534546e+002 -4.932655e+001 -7.238207e+001 -4.872671e+001 -6.924983e+001 -1.642613e-001 1.343171e+002
546875000 -5.004970e-001 -1.539368e+002 -4.924577e+001 -7.079044e+001 -4.940274e+001 -6.638664e+001 -1.630594e-001 1.342417e+002
547500000 -5.186728e-001 -1.543367e+002 -4.895158e+001 -7.338277e+001 -4.913364e+001 -7.340520e+001 -1.728738e-001 1.341392e+002
548125000 -5.358130e-001 -1.547291e+002 -4.857296e+001 -7.230618e+001 -4.894181e+001 -7.081927e+001 -1.540841e-001 1.340147e+002
548750000 -5.507291e-001 -1.551768e+002 -4.865848e+001 -7.282204e+001 -4.867747e+001 -7.182561e+001 -1.662620e-001 1.339077e+002
549375000 -5.753540e-001 -1.555655e+002 -4.788197e+001 -7.204147e+001 -4.815271e+001 -7.449979e+001 -1.652696e-001 1.337132e+002
550000000 -5.864170e-001 -1.559691e+002 -4.816542e+001 -7.447944e+001 -4.816094e+001 -7.214642e+001 -1.664141e-001 1.337594e+002
550625000 -6.069227e-001 -1.563949e+002 -4.808233e+001 -7.521497e+001 -4.816096e+001 -7.368053e+001 -1.575820e-001 1.336342e+002
551250000 -6.275997e-001 -1.568180e+002 -4.791770e+001 -8.079053e+001 -4.794456e+001 -7.587592e+001 -1.621874e-001 1.335065e+002
551875000 -6.484708e-001 -1.571597e+002 -4.787718e+001 -8.102207e+001 -4.782925e+001 -7.801020e+001 -1.584774e-001 1.334760e+002
552500000 -6.630162e-001 -1.576210e+002 -4.756497e+001 -7.927962e+001 -4.773443e+001 -7.878399e+001 -1.579391e-001 1.333887e+002
553125000 -6.802307e-001 -1.579747e+002 -4.734438e+001 -8.152258e+001 -4.711529e+001 -7.943726e+001 -1.506238e-001 1.333946e+002
553750000 -7.126486e-001 -1.583361e+002 -4.723961e+001 -8.308845e+001 -4.716347e+001 -8.396708e+001 -1.552451e-001 1.332811e+002
554375000 -7.251882e-001 -1.587435e+002 -4.757172e+001 -8.097346e+001 -4.689322e+001 -8.338377e+001 -1.498244e-001 1.332617e+002
555000000 -7.426064e-001 -1.591232e+002 -4.657522e+001 -8.248283e+001 -4.694138e+001 -8.468324e+001 -1.550471e-001 1.332447e+002
555625000 -7.760978e-001 -1.595036e+002 -4.617994e+001 -8.757743e+001 -4.658621e+001 -8.256233e+001 -1.476593e-001 1.332602e+002
556250000 -7.982785e-001 -1.599567e+002 -4.669011e+001 -8.838857e+001 -4.652465e+001 -8.735835e+001 -1.486691e-001 1.332122e+002
556875000 -8.126115e-001 -1.604093e+002 -4.670573e+001 -9.044044e+001 -4.649449e+001 -8.798274e+001 -1.554461e-001 1.332150e+002
557500000 -8.524510e-001 -1.607657e+002 -4.602999e+001 -9.004118e+001 -4.625305e+001 -8.773493e+001 -1.490564e-001 1.332065e+002
558125000 -8.803837e-001 -1.611771e+002 -4.578305e+001 -8.917352e+001 -4.566445e+001 -9.030939e+001 -1.574018e-001 1.332723e+002
558750000 -8.983373e-001 -1.615894e+002 -4.558422e+001 -9.245521e+001 -4.569654e+001 -9.119468e+001 -1.496605e-001 1.331960e+002
559375000 -9.380832e-001 -1.620120e+002 -4.557544e+001 -9.133241e+001 -4.605468e+001 -9.453146e+001 -1.508696e-001 1.331744e+002
560000000 -9.678991e-001 -1.623581e+002 -4.540870e+001 -9.412576e+001 -4.571251e+001 -9.152394e+001 -1.451271e-001 1.331126e+002
560625000 -9.964570e-001 -1.627224e+002 -4.523537e+001 -9.501270e+001 -4.547058e+001 -9.326815e+001 -1.573692e-001 1.330739e+002
561250000 -1.025684e+000 -1.631926e+002 -4.515182e+001 -9.710237e+001 -4.557710e+001 -9.395199e+001 -1.574640e-001 1.330764e+002
561875000 -1.063756e+000 -1.635645e+002 -4.495377e+001 -9.757150e+001 -4.479720e+001 -9.784499e+001 -1.587415e-001 1.329958e+002
562500000 -1.095624e+000 -1.639405e+002 -4.443772e+001 -9.878374e+001 -4.492039e+001 -9.861790e+001 -1.610320e-001 1.329472e+002
563125000 -1.120859e+000 -1.642639e+002 -4.436594e+001 -1.013634e+002 -4.451202e+001 -9.883002e+001 -1.589690e-001 1.328987e+002
563750000 -1.169402e+000 -1.647052e+002 -4.455136e+001 -1.011738e+002 -4.444057e+001 -1.015026e+002 -1.624759e-001 1.328396e+002
564375000 -1.210428e+000 -1.650340e+002 -4.451439e+001 -1.048589e+002 -4.443608e+001 -1.049215e+002 -1.647900e-001 1.326957e+002
565000000 -1.243885e+000 -1.654414e+002 -4.417185e+001 -1.044693e+002 -4.433627e+001 -1.057470e+002 -1.709496e-001 1.325792e+002
565625000 -1.278843e+000 -1.657982e+002 -4.433204e+001 -1.076146e+002 -4.410759e+001 -1.067195e+002 -1.671645e-001 1.325804e+002
566250000 -1.312044e+000 -1.662122e+002 -4.366154e+001 -1.092660e+002 -4.394133e+001 -1.073437e+002 -1.714782e-001 1.324506e+002
566875000 -1.366432e+000 -1.665255e+002 -4.352658e+001 -1.113105e+002 -4.380367e+001 -1.089175e+002 -1.811778e-001 1.322845e+002
567500000 -1.411518e+000 -1.669373e+002 -4.356465e+001 -1.121608e+002 -4.362126e+001 -1.108449e+002 -1.710940e-001 1.322002e+002
568125000 -1.450596e+000 -1.672413e+002 -4.346550e+001 -1.134727e+002 -4.345908e+001 -1.142116e+002 -1.776163e-001 1.320579e+002
568750000 -1.492665e+000 -1.676111e+002 -4.313301e+001 -1.146036e+002 -4.344666e+001 -1.132345e+002 -1.767353e-001 1.319423e+002
569375000 -1.534158e+000 -1.679153e+002 -4.352564e+001 -1.155422e+002 -4.317810e+001 -1.172044e+002 -1.759663e-001 1.317935e+002
570000000 -1.578791e+000 -1.682318e+002 -4.328838e+001 -1.173951e+002 -4.345147e+001 -1.158418e+002 -1.766511e-001 1.315950e+002
570625000 -1.615841e+000 -1.685878e+002 -4.337362e+001 -1.186042e+002 -4.329355e+001 -1.204262e+002 -1.722669e-001 1.315649e+002
571250000 -1.658299e+000 -1.688560e+002 -4.305929e+001 -1.209409e+002 -4.314073e+001 -1.213998e+002 -1.724362e-001 1.314410e+002
571875000 -1.707332e+000 -1.691674e+002 -4.309536e+001 -1.215926e+002 -4.278999e+001 -1.232366e+002 -1.679257e-001 1.313060e+002
572500000 -1.749075e+000 -1.694635e+002 -4.239310e+001 -1.241723e+002 -4.283142e+001 -1.261098e+002 -1.728438e-001 1.312061e+002
573125000 -1.801270e+000 -1.697341e+002 -4.281283e+001 -1.255746e+002 -4.256179e+001 -1.256679e+002 -1.574208e-001 1.311189e+002
573750000 -1.837145e+000 -1.699758e+002 -4.262463e+001 -1.271415e+002 -4.262579e+001 -1.270239e+002 -1.701663e-001 1.309888e+002
574375000 -1.885518e+000 -1.702142e+002 -4.256319e+001 -1.281687e+002 -4.262188e+001 -1.287725e+002 -1.662107e-001 1.309984e+002
575000000 -1.928284e+000 -1.704581e+002 -4.221992e+001 -1.296727e+002 -4.245274e+001 -1.324962e+002 -1.610892e-001 1.309487e+002
575625000 -1.965650e+000 -1.706833e+002 -4.233991e+001 -1.333384e+002 -4.240410e+001 -1.317212e+002 -1.564900e-001 1.309044e+002
576250000 -2.002851e+000 -1.708836e+002 -4.246337e+001 -1.336790e+002 -4.216438e+001 -1.324655e+002 -1.657782e-001 1.308929e+002
576875000 -2.040440e+000 -1.710021e+002 -4.204869e+001 -1.352778e+002 -4.219587e+001 -1.349745e+002 -1.536193e-001 1.308876e+002
577500000 -2.087128e+000 -1.712462e+002 -4.209498e+001 -1.376446e+002 -4.222295e+001 -1.373510e+002 -1.494430e-001 1.308694e+002
578125000 -2.119004e+000 -1.714127e+002 -4.195659e+001 -1.387039e+002 -4.199262e+001 -1.378181e+002 -1.444458e-001 1.309258e+002
578750000 -2.149758e+000 -1.715715e+002 -4.195535e+001 -1.403449e+002 -4.187699e+001 -1.409587e+002 -1.498345e-001 1.308979e+002
579375000 -2.189650e+000 -1.716515e+002 -4.203410e+001 -1.407019e+002 -4.202295e+001 -1.408740e+002 -1.485209e-001 1.308686e+002
580000000 -2.221608e+000 -1.716976e+002 -4.200866e+001 -1.403923e+002 -4.173413e+001 -1.425829e+002 -1.500746e-001 1.308624e+002
580625000 -2.250123e+000 -1.718463e+002 -4.170495e+001 -1.463989e+002 -4.152286e+001 -1.439833e+002 -1.491989e-001 1.309336e+002
581250000 -2.282866e+000 -1.719414e+002 -4.154915e+001 -1.461800e+002 -4.154825e+001 -1.468591e+002 -1.504319e-001 1.309140e+002
581875000 -2.300357e+000 -1.720243e+002 -4.155609e+001 -1.473708e+002 -4.172348e+001 -1.489874e+002 -1.509643e-001 1.309361e+002
582500000 -2.319557e+000 -1.720856e+002 -4.167299e+001 -1.490008e+002 -4.166578e+001 -1.495137e+002 -1.534673e-001 1.308821e+002
583125000 -2.330029e+000 -1.722804e+002 -4.171431e+001 -1.517577e+002 -4.153994e+001 -1.529486e+002 -1.744479e-001 1.308515e+002
583750000 -2.337584e+000 -1.724055e+002 -4.138680e+001 -1.536974e+002 -4.161904e+001 -1.517519e+002 -1.762764e-001 1.307708e+002
584375000 -2.346082e+000 -1.726133e+002 -4.131684e+001 -1.540930e+002 -4.135490e+001 -1.532583e+002 -1.650402e-001 1.306985e+002
585000000 -2.353593e+000 -1.727852e+002 -4.131483e+001 -1.545883e+002 -4.115916e+001 -1.571931e+002 -1.847041e-001 1.306189e+002
585625000 -2.378423e+000 -1.729846e+002 -4.125899e+001 -1.586215e+002 -4.122750e+001 -1.576990e+002 -1.682335e-001 1.305163e+002
586250000 -2.393701e+000 -1.732254e+002 -4.109471e+001 -1.587080e+002 -4.130228e+001 -1.583943e+002 -1.761326e-001 1.305211e+002
586875000 -2.404828e+000 -1.734676e+002 -4.123111e+001 -1.582524e+002 -4.141409e+001 -1.601608e+002 -1.786639e-001 1.302658e+002
587500000 -2.417746e+000 -1.737327e+002 -4.125597e+001 -1.618424e+002 -4.095886e+001 -1.614409e+002 -1.781068e-001 1.301602e+002
588125000 -2.434832e+000 -1.738386e+002 -4.109755e+001 -1.630028e+002 -4.111476e+001 -1.647741e+002 -1.768446e-001 1.300727e+002
588750000 -2.444705e+000 -1.740511e+002 -4.097426e+001 -1.634690e+002 -4.100285e+001 -1.636801e+002 -1.817427e-001 1.299778e+002
589375000 -2.451153e+000 -1.742366e+002 -4.124174e+001 -1.645121e+002 -4.084938e+001 -1.657101e+002 -1.703994e-001 1.297724e+002
590000000 -2.466660e+000 -1.745139e+002 -4.059248e+001 -1.665875e+002 -4.092473e+001 -1.674609e+002 -1.757720e-001 1.297745e+002
590625000 -2.471689e+000 -1.747365e+002 -4.080301e+001 -1.694654e+002 -4.082276e+001 -1.687908e+002 -1.691054e-001 1.296379e+002
591250000 -2.474630e+000 -1.749481e+002 -4.055538e+001 -1.707390e+002 -4.069497e+001 -1.708561e+002 -1.694994e-001 1.296111e+002
591875000 -2.487151e+000 -1.751822e+002 -4.072753e+001 -1.707204e+002 -4.067482e+001 -1.728474e+002 -1.693331e-001 1.295531e+002
592500000 -2.491157e+000 -1.754569e+002 -4.054600e+001 -1.734351e+002 -4.079482e+001 -1.727768e+002 -1.597755e-001 1.295703e+002
593125000 -2.501467e+000 -1.756040e+002 -4.084208e+001 -1.751121e+002 -4.059952e+001 -1.750801e+002 -1.700011e-001 1.295749e+002
593750000 -2.508294e+000 -1.759233e+002 -4.080516e+001 -1.761765e+002 -4.064451e+001 -1.761586e+002 -1.447721e-001 1.296190e+002
594375000 -2.509035e+000 -1.760534e+002 -4.069511e+001 -1.758555e+002 -4.046906e+001 -1.776480e+002 -1.430208e-001 1.296424e+002
