!Agilent Technologies,E8364B,US42250235,A.06.04.32
!Agilent E8364B: A.06.04.32
!Date: Friday, January 15, 2021 12:52:32
!Correction: S11(Full 2 Port(1,2)) S21(Full 2 Port(1,2)) S12(Full 2 Port(1,2)) S22(Full 2 Port(1,2)) 
!S2P File: Measurements: S11, S21, S12, S22:
# Hz S  dB   R 50
500000000 -9.173399e-002 -1.291688e+002 -6.185426e+001 1.009066e+002 -5.993539e+001 1.035161e+002 -1.418464e-001 1.382568e+002
500625000 -9.524115e-002 -1.294187e+002 -5.899293e+001 1.033651e+002 -6.327464e+001 1.053566e+002 -1.468392e-001 1.383111e+002
501250000 -9.823763e-002 -1.296693e+002 -6.330076e+001 1.201529e+002 -6.013829e+001 9.406203e+001 -1.420553e-001 1.381911e+002
501875000 -1.041364e-001 -1.299183e+002 -6.202428e+001 9.157005e+001 -6.022510e+001 9.113717e+001 -1.403992e-001 1.381783e+002
502500000 -9.968924e-002 -1.302330e+002 -5.992269e+001 9.863441e+001 -6.422278e+001 1.180944e+002 -1.385472e-001 1.380981e+002
503125000 -1.148637e-001 -1.305463e+002 -6.292077e+001 9.823154e+001 -5.950827e+001 1.006216e+002 -1.392000e-001 1.379706e+002
503750000 -1.161709e-001 -1.308034e+002 -5.905256e+001 1.054621e+002 -5.882784e+001 9.744891e+001 -1.434425e-001 1.378999e+002
504375000 -1.253642e-001 -1.311071e+002 -5.893579e+001 1.043587e+002 -5.786190e+001 9.726218e+001 -1.572852e-001 1.379360e+002
505000000 -1.351582e-001 -1.314323e+002 -5.961987e+001 9.204851e+001 -6.085923e+001 9.338998e+001 -1.514799e-001 1.378619e+002
505625000 -1.379038e-001 -1.316415e+002 -5.849187e+001 1.009476e+002 -6.044651e+001 9.646079e+001 -1.472225e-001 1.377489e+002
506250000 -1.444639e-001 -1.319460e+002 -5.891495e+001 8.304321e+001 -5.949248e+001 7.862700e+001 -1.501247e-001 1.376463e+002
506875000 -1.541323e-001 -1.322501e+002 -5.763018e+001 8.382796e+001 -6.106541e+001 9.913991e+001 -1.461221e-001 1.376034e+002
507500000 -1.601945e-001 -1.325451e+002 -6.007183e+001 8.255922e+001 -5.924197e+001 8.793796e+001 -1.437875e-001 1.374659e+002
508125000 -1.676347e-001 -1.328242e+002 -5.833194e+001 8.621069e+001 -5.879774e+001 8.928938e+001 -1.468245e-001 1.374240e+002
508750000 -1.685788e-001 -1.331040e+002 -5.741443e+001 7.943653e+001 -5.947021e+001 9.187689e+001 -1.396908e-001 1.373492e+002
509375000 -1.815246e-001 -1.334371e+002 -5.899651e+001 8.247555e+001 -5.761734e+001 8.676347e+001 -1.420317e-001 1.373458e+002
510000000 -1.820884e-001 -1.337511e+002 -5.799471e+001 8.765607e+001 -5.888509e+001 7.289723e+001 -1.439054e-001 1.372705e+002
510625000 -1.979157e-001 -1.340170e+002 -5.854541e+001 7.604016e+001 -6.105598e+001 8.222360e+001 -1.417242e-001 1.373004e+002
511250000 -2.014414e-001 -1.342851e+002 -5.722205e+001 7.639382e+001 -5.804192e+001 8.065946e+001 -1.463383e-001 1.371616e+002
511875000 -2.046064e-001 -1.346484e+002 -5.861977e+001 6.137200e+001 -5.843352e+001 8.079960e+001 -1.361286e-001 1.371495e+002
512500000 -2.108278e-001 -1.349295e+002 -5.862706e+001 6.817297e+001 -5.777995e+001 6.147869e+001 -1.334921e-001 1.370582e+002
513125000 -2.252547e-001 -1.352370e+002 -5.824580e+001 6.737452e+001 -5.866412e+001 7.036776e+001 -1.427392e-001 1.370939e+002
513750000 -2.258573e-001 -1.354967e+002 -5.946613e+001 7.003841e+001 -5.751426e+001 7.066555e+001 -1.528819e-001 1.370033e+002
514375000 -2.383079e-001 -1.358824e+002 -5.756941e+001 6.674239e+001 -5.990994e+001 8.527223e+001 -1.422623e-001 1.369117e+002
515000000 -2.394453e-001 -1.360836e+002 -5.839832e+001 6.647727e+001 -5.785682e+001 6.301805e+001 -1.378657e-001 1.368808e+002
515625000 -2.496120e-001 -1.364896e+002 -5.727604e+001 7.239441e+001 -5.758208e+001 6.087976e+001 -1.437342e-001 1.367432e+002
516250000 -2.483107e-001 -1.367788e+002 -5.757432e+001 7.336434e+001 -5.937459e+001 6.072859e+001 -1.543136e-001 1.367289e+002
516875000 -2.629815e-001 -1.370760e+002 -5.885897e+001 6.552576e+001 -5.867682e+001 7.268059e+001 -1.501096e-001 1.366399e+002
517500000 -2.655164e-001 -1.373476e+002 -5.771657e+001 6.024548e+001 -5.906911e+001 6.322500e+001 -1.647211e-001 1.365836e+002
518125000 -2.707894e-001 -1.377514e+002 -5.705819e+001 6.058486e+001 -5.702067e+001 7.072601e+001 -1.544766e-001 1.364388e+002
518750000 -2.838786e-001 -1.380795e+002 -5.619703e+001 5.994244e+001 -5.819456e+001 5.622950e+001 -1.624228e-001 1.363755e+002
519375000 -2.897422e-001 -1.383210e+002 -5.666791e+001 6.150469e+001 -5.789413e+001 6.126135e+001 -1.478897e-001 1.362583e+002
520000000 -3.015036e-001 -1.386737e+002 -5.614152e+001 5.618492e+001 -5.735226e+001 5.663348e+001 -1.526905e-001 1.361502e+002
520625000 -3.087637e-001 -1.389894e+002 -5.718976e+001 5.364825e+001 -5.727255e+001 5.510189e+001 -1.516043e-001 1.359948e+002
521250000 -3.165480e-001 -1.392928e+002 -5.562817e+001 5.780153e+001 -5.708255e+001 5.392708e+001 -1.582607e-001 1.359657e+002
521875000 -3.265598e-001 -1.396279e+002 -5.700912e+001 5.704087e+001 -5.647871e+001 4.709789e+001 -1.430231e-001 1.358939e+002
522500000 -3.365275e-001 -1.399099e+002 -5.847239e+001 5.494905e+001 -5.592639e+001 4.238951e+001 -1.468257e-001 1.357667e+002
523125000 -3.573078e-001 -1.402358e+002 -5.585731e+001 4.926691e+001 -5.677040e+001 5.343131e+001 -1.479936e-001 1.357343e+002
523750000 -3.597704e-001 -1.404865e+002 -5.504256e+001 5.339287e+001 -5.742172e+001 4.467839e+001 -1.407641e-001 1.356827e+002
524375000 -3.801295e-001 -1.408057e+002 -5.662468e+001 4.373977e+001 -5.621641e+001 4.133847e+001 -1.380281e-001 1.356472e+002
525000000 -3.853893e-001 -1.410850e+002 -5.644344e+001 3.975407e+001 -5.652434e+001 4.146870e+001 -1.393699e-001 1.356149e+002
525625000 -4.085746e-001 -1.413430e+002 -5.678102e+001 3.789043e+001 -5.656148e+001 3.940433e+001 -1.491003e-001 1.355438e+002
526250000 -4.062343e-001 -1.416082e+002 -5.583159e+001 3.932941e+001 -5.673576e+001 4.136835e+001 -1.426472e-001 1.355485e+002
526875000 -4.210845e-001 -1.419104e+002 -5.527071e+001 2.814078e+001 -5.530779e+001 3.675380e+001 -1.323784e-001 1.355275e+002
527500000 -4.341968e-001 -1.421634e+002 -5.665518e+001 3.511082e+001 -5.610942e+001 3.367374e+001 -1.375629e-001 1.355175e+002
528125000 -4.534290e-001 -1.424308e+002 -5.589138e+001 3.972978e+001 -5.670757e+001 3.465619e+001 -1.364120e-001 1.355753e+002
528750000 -4.516407e-001 -1.426898e+002 -5.529448e+001 4.145461e+001 -5.689450e+001 2.999648e+001 -1.420200e-001 1.355792e+002
529375000 -4.620829e-001 -1.429448e+002 -5.620918e+001 4.024974e+001 -5.580854e+001 3.270151e+001 -1.383524e-001 1.354863e+002
530000000 -4.606054e-001 -1.432722e+002 -5.631081e+001 3.039472e+001 -5.688430e+001 2.706444e+001 -1.459563e-001 1.355039e+002
530625000 -4.683414e-001 -1.434706e+002 -5.537946e+001 2.498229e+001 -5.520049e+001 3.142957e+001 -1.449421e-001 1.354363e+002
531250000 -4.722740e-001 -1.437785e+002 -5.652674e+001 3.599417e+001 -5.533707e+001 2.038385e+001 -1.382263e-001 1.354401e+002
531875000 -4.892600e-001 -1.440445e+002 -5.499652e+001 2.389182e+001 -5.561761e+001 2.481155e+001 -1.476889e-001 1.353601e+002
532500000 -4.857994e-001 -1.443228e+002 -5.538091e+001 2.602725e+001 -5.547229e+001 2.342679e+001 -1.454901e-001 1.353584e+002
533125000 -4.874163e-001 -1.446122e+002 -5.636942e+001 2.982019e+001 -5.674760e+001 2.741031e+001 -1.557983e-001 1.353214e+002
533750000 -4.964307e-001 -1.449352e+002 -5.462215e+001 2.149499e+001 -5.648841e+001 2.807074e+001 -1.626149e-001 1.352597e+002
534375000 -4.993709e-001 -1.452442e+002 -5.669445e+001 2.645764e+001 -5.700595e+001 1.758650e+001 -1.431228e-001 1.352009e+002
535000000 -5.099741e-001 -1.455038e+002 -5.591433e+001 2.664994e+001 -5.601767e+001 1.494652e+001 -1.515523e-001 1.351931e+002
535625000 -5.125738e-001 -1.457888e+002 -5.522256e+001 1.796782e+001 -5.548827e+001 1.972935e+001 -1.405072e-001 1.352024e+002
536250000 -5.244548e-001 -1.461511e+002 -5.526091e+001 2.475512e+001 -5.561428e+001 1.470468e+001 -1.454151e-001 1.350852e+002
536875000 -5.230134e-001 -1.464527e+002 -5.501024e+001 1.967672e+001 -5.621262e+001 2.138780e+001 -1.454418e-001 1.350026e+002
537500000 -5.314509e-001 -1.466811e+002 -5.529935e+001 1.589882e+001 -5.560107e+001 1.735645e+001 -1.446977e-001 1.349997e+002
538125000 -5.397722e-001 -1.470202e+002 -5.616488e+001 1.423111e+001 -5.656738e+001 1.241285e+001 -1.457558e-001 1.349850e+002
538750000 -5.470606e-001 -1.473212e+002 -5.559302e+001 1.476023e+001 -5.584634e+001 9.935832e+000 -1.430354e-001 1.349908e+002
539375000 -5.560706e-001 -1.476496e+002 -5.481752e+001 1.047376e+001 -5.632883e+001 4.690558e+000 -1.442240e-001 1.349234e+002
540000000 -5.531884e-001 -1.479823e+002 -5.504628e+001 1.431233e+001 -5.619664e+001 1.755713e+001 -1.476432e-001 1.348415e+002
540625000 -5.565616e-001 -1.483165e+002 -5.556072e+001 1.956413e+000 -5.534739e+001 5.020169e+000 -1.452377e-001 1.348270e+002
541250000 -5.651670e-001 -1.486295e+002 -5.466468e+001 1.108176e+001 -5.522963e+001 -1.942324e+000 -1.440954e-001 1.348154e+002
541875000 -5.729720e-001 -1.489486e+002 -5.497145e+001 5.559919e+000 -5.464310e+001 -1.687500e+000 -1.482814e-001 1.347328e+002
542500000 -5.774815e-001 -1.493061e+002 -5.537521e+001 3.848441e+000 -5.494024e+001 -1.145574e+000 -1.492495e-001 1.346884e+002
543125000 -5.755417e-001 -1.496578e+002 -5.499359e+001 3.642596e+000 -5.565616e+001 6.666217e+000 -1.448709e-001 1.345459e+002
543750000 -5.836822e-001 -1.500055e+002 -5.379930e+001 -6.557809e-001 -5.332648e+001 -6.190116e+000 -1.564751e-001 1.345869e+002
544375000 -5.898635e-001 -1.503604e+002 -5.442827e+001 -6.167517e+000 -5.523985e+001 -7.873138e+000 -1.555345e-001 1.344964e+002
545000000 -5.926919e-001 -1.506862e+002 -5.415741e+001 -1.018966e+001 -5.462542e+001 -2.977338e+000 -1.548407e-001 1.343669e+002
545625000 -6.038919e-001 -1.510538e+002 -5.432577e+001 -1.171969e+001 -5.492697e+001 -9.937276e+000 -1.590640e-001 1.343203e+002
546250000 -6.164349e-001 -1.514113e+002 -5.370820e+001 -3.357769e+000 -5.471763e+001 -7.799870e+000 -1.646386e-001 1.342012e+002
546875000 -6.192222e-001 -1.517804e+002 -5.397179e+001 -7.699916e+000 -5.465176e+001 -1.105658e+001 -1.556319e-001 1.341685e+002
547500000 -6.266704e-001 -1.521146e+002 -5.494093e+001 -6.320697e+000 -5.395565e+001 -1.213232e+001 -1.635499e-001 1.340511e+002
548125000 -6.416003e-001 -1.524432e+002 -5.449469e+001 -6.664484e+000 -5.416726e+001 -4.693967e+000 -1.581657e-001 1.338816e+002
548750000 -6.521633e-001 -1.528088e+002 -5.376322e+001 -1.205087e+001 -5.418664e+001 -1.493826e+001 -1.678156e-001 1.338628e+002
549375000 -6.614808e-001 -1.531534e+002 -5.341262e+001 -1.750620e+001 -5.399828e+001 -1.202293e+001 -1.596158e-001 1.336191e+002
550000000 -6.598337e-001 -1.534607e+002 -5.329084e+001 -1.341553e+001 -5.361598e+001 -1.641706e+001 -1.684556e-001 1.336015e+002
550625000 -6.743134e-001 -1.537712e+002 -5.396006e+001 -1.599548e+001 -5.405376e+001 -1.838031e+001 -1.577560e-001 1.335091e+002
551250000 -6.710031e-001 -1.540996e+002 -5.342855e+001 -2.377347e+001 -5.453384e+001 -1.715230e+001 -1.611347e-001 1.334152e+002
551875000 -6.783288e-001 -1.544088e+002 -5.350744e+001 -2.177914e+001 -5.336256e+001 -2.434622e+001 -1.572387e-001 1.333974e+002
552500000 -6.802880e-001 -1.548233e+002 -5.365602e+001 -2.470529e+001 -5.349638e+001 -2.275344e+001 -1.438210e-001 1.333142e+002
553125000 -6.739023e-001 -1.550875e+002 -5.413831e+001 -2.403762e+001 -5.394257e+001 -2.593667e+001 -1.546198e-001 1.332681e+002
553750000 -6.888703e-001 -1.554809e+002 -5.517699e+001 -3.142243e+001 -5.457207e+001 -2.246388e+001 -1.610063e-001 1.331781e+002
554375000 -6.937912e-001 -1.557959e+002 -5.449146e+001 -2.376960e+001 -5.379087e+001 -2.206823e+001 -1.532506e-001 1.332177e+002
555000000 -6.983790e-001 -1.561571e+002 -5.391841e+001 -2.662133e+001 -5.369185e+001 -2.391520e+001 -1.498990e-001 1.331557e+002
555625000 -7.062252e-001 -1.564905e+002 -5.358665e+001 -3.300523e+001 -5.402040e+001 -3.078095e+001 -1.451742e-001 1.331416e+002
556250000 -7.172040e-001 -1.568514e+002 -5.430992e+001 -3.283011e+001 -5.426112e+001 -2.764869e+001 -1.511463e-001 1.330867e+002
556875000 -7.116418e-001 -1.572510e+002 -5.566654e+001 -2.813760e+001 -5.301708e+001 -3.135220e+001 -1.566077e-001 1.331715e+002
557500000 -7.284355e-001 -1.576000e+002 -5.467172e+001 -3.365675e+001 -5.463717e+001 -3.028812e+001 -1.511452e-001 1.331010e+002
558125000 -7.357469e-001 -1.579561e+002 -5.467378e+001 -3.203821e+001 -5.327373e+001 -3.508503e+001 -1.509841e-001 1.330474e+002
558750000 -7.405102e-001 -1.583252e+002 -5.453207e+001 -3.499807e+001 -5.424844e+001 -3.546295e+001 -1.487340e-001 1.330967e+002
559375000 -7.509535e-001 -1.587209e+002 -5.375925e+001 -3.138820e+001 -5.329172e+001 -3.823416e+001 -1.520827e-001 1.330711e+002
560000000 -7.616240e-001 -1.590922e+002 -5.388681e+001 -4.086285e+001 -5.373865e+001 -4.010364e+001 -1.510066e-001 1.329752e+002
560625000 -7.727990e-001 -1.594599e+002 -5.344587e+001 -3.600349e+001 -5.425206e+001 -3.995861e+001 -1.506496e-001 1.329859e+002
561250000 -7.813708e-001 -1.598219e+002 -5.311069e+001 -3.488439e+001 -5.371606e+001 -3.578436e+001 -1.527903e-001 1.329605e+002
561875000 -7.840040e-001 -1.602416e+002 -5.322350e+001 -4.243813e+001 -5.367168e+001 -4.254779e+001 -1.547131e-001 1.328919e+002
562500000 -7.980484e-001 -1.605869e+002 -5.338992e+001 -4.084803e+001 -5.385068e+001 -4.254210e+001 -1.573402e-001 1.328571e+002
563125000 -7.967837e-001 -1.609482e+002 -5.306625e+001 -4.035946e+001 -5.381306e+001 -4.487938e+001 -1.555081e-001 1.327868e+002
563750000 -8.066753e-001 -1.613518e+002 -5.234983e+001 -4.706192e+001 -5.387983e+001 -4.338821e+001 -1.673692e-001 1.327260e+002
564375000 -8.192078e-001 -1.617263e+002 -5.366161e+001 -4.631916e+001 -5.345475e+001 -4.333284e+001 -1.691779e-001 1.326621e+002
565000000 -8.237632e-001 -1.621777e+002 -5.296093e+001 -4.663998e+001 -5.408916e+001 -4.618253e+001 -1.713538e-001 1.325681e+002
565625000 -8.258211e-001 -1.625942e+002 -5.353635e+001 -4.955782e+001 -5.324579e+001 -5.034655e+001 -1.686909e-001 1.324330e+002
566250000 -8.319901e-001 -1.630485e+002 -5.396675e+001 -5.024741e+001 -5.508508e+001 -5.022640e+001 -1.700844e-001 1.323312e+002
566875000 -8.502923e-001 -1.634990e+002 -5.314024e+001 -4.624690e+001 -5.336795e+001 -4.711866e+001 -1.773633e-001 1.322227e+002
567500000 -8.615181e-001 -1.639991e+002 -5.319802e+001 -5.473945e+001 -5.336822e+001 -5.017989e+001 -1.715864e-001 1.321248e+002
568125000 -8.818896e-001 -1.644646e+002 -5.379296e+001 -4.983454e+001 -5.433929e+001 -4.584227e+001 -1.793063e-001 1.320219e+002
568750000 -8.874882e-001 -1.649156e+002 -5.339869e+001 -5.137661e+001 -5.393489e+001 -5.187998e+001 -1.736836e-001 1.318203e+002
569375000 -9.125834e-001 -1.653921e+002 -5.285568e+001 -5.193100e+001 -5.338626e+001 -5.027531e+001 -1.771683e-001 1.316705e+002
570000000 -9.253125e-001 -1.659173e+002 -5.293636e+001 -5.153392e+001 -5.267307e+001 -5.316821e+001 -1.757307e-001 1.315530e+002
570625000 -9.432086e-001 -1.663984e+002 -5.345153e+001 -4.786299e+001 -5.214122e+001 -5.038439e+001 -1.651392e-001 1.315016e+002
571250000 -9.615194e-001 -1.668484e+002 -5.322594e+001 -5.401247e+001 -5.265836e+001 -5.608735e+001 -1.737303e-001 1.314072e+002
571875000 -9.964069e-001 -1.672807e+002 -5.271323e+001 -5.273334e+001 -5.315805e+001 -5.645260e+001 -1.606974e-001 1.312524e+002
572500000 -1.017677e+000 -1.677765e+002 -5.189680e+001 -5.578855e+001 -5.310366e+001 -5.595999e+001 -1.691275e-001 1.310954e+002
573125000 -1.046515e+000 -1.681656e+002 -5.332942e+001 -5.524008e+001 -5.310478e+001 -5.518029e+001 -1.598147e-001 1.310308e+002
573750000 -1.068455e+000 -1.685629e+002 -5.261992e+001 -6.151692e+001 -5.227277e+001 -5.595002e+001 -1.690601e-001 1.309555e+002
574375000 -1.094133e+000 -1.689512e+002 -5.240810e+001 -6.265503e+001 -5.230749e+001 -6.007906e+001 -1.567664e-001 1.309373e+002
575000000 -1.110486e+000 -1.694077e+002 -5.211383e+001 -6.039992e+001 -5.204235e+001 -6.122618e+001 -1.617294e-001 1.308784e+002
575625000 -1.126891e+000 -1.698309e+002 -5.184683e+001 -6.327667e+001 -5.182938e+001 -6.036190e+001 -1.575411e-001 1.308653e+002
576250000 -1.140888e+000 -1.702124e+002 -5.176986e+001 -6.591683e+001 -5.239399e+001 -6.523628e+001 -1.630414e-001 1.307701e+002
576875000 -1.162371e+000 -1.706442e+002 -5.163061e+001 -6.045474e+001 -5.208240e+001 -6.255621e+001 -1.519583e-001 1.308228e+002
577500000 -1.188643e+000 -1.710813e+002 -5.220070e+001 -6.568463e+001 -5.150720e+001 -6.053468e+001 -1.533405e-001 1.307578e+002
578125000 -1.208910e+000 -1.714891e+002 -5.154845e+001 -6.229179e+001 -5.191262e+001 -6.641227e+001 -1.446277e-001 1.307718e+002
578750000 -1.228634e+000 -1.719181e+002 -5.197449e+001 -6.322552e+001 -5.229525e+001 -6.406239e+001 -1.477387e-001 1.307943e+002
579375000 -1.244617e+000 -1.723534e+002 -5.191521e+001 -6.665529e+001 -5.143332e+001 -6.981924e+001 -1.453531e-001 1.307978e+002
580000000 -1.264872e+000 -1.727878e+002 -5.177835e+001 -7.473986e+001 -5.064355e+001 -6.929544e+001 -1.445198e-001 1.308207e+002
580625000 -1.290573e+000 -1.732080e+002 -5.039865e+001 -7.022812e+001 -5.039795e+001 -6.910820e+001 -1.377137e-001 1.308295e+002
581250000 -1.308554e+000 -1.736138e+002 -5.075310e+001 -7.155563e+001 -5.069459e+001 -7.018256e+001 -1.480158e-001 1.308134e+002
581875000 -1.337983e+000 -1.740727e+002 -5.099612e+001 -7.599028e+001 -5.126497e+001 -7.183897e+001 -1.577812e-001 1.308866e+002
582500000 -1.361783e+000 -1.744721e+002 -5.051935e+001 -7.664290e+001 -5.128698e+001 -7.891388e+001 -1.455881e-001 1.308261e+002
583125000 -1.376407e+000 -1.749758e+002 -5.123864e+001 -7.597740e+001 -5.026740e+001 -7.847639e+001 -1.633838e-001 1.307213e+002
583750000 -1.403789e+000 -1.754695e+002 -5.116394e+001 -7.099953e+001 -5.064897e+001 -7.898537e+001 -1.701039e-001 1.306607e+002
584375000 -1.431264e+000 -1.759548e+002 -5.012808e+001 -7.894237e+001 -5.039954e+001 -7.764912e+001 -1.595593e-001 1.306191e+002
585000000 -1.453395e+000 -1.765232e+002 -4.986133e+001 -7.902969e+001 -5.091829e+001 -7.864694e+001 -1.740862e-001 1.305090e+002
585625000 -1.508994e+000 -1.769869e+002 -5.047886e+001 -7.825130e+001 -5.030889e+001 -8.092734e+001 -1.693162e-001 1.304293e+002
586250000 -1.531859e+000 -1.775306e+002 -5.037285e+001 -8.253697e+001 -5.001965e+001 -8.354132e+001 -1.764350e-001 1.303608e+002
586875000 -1.567938e+000 -1.780175e+002 -4.985197e+001 -8.376214e+001 -4.996458e+001 -8.367926e+001 -1.711460e-001 1.302156e+002
587500000 -1.617671e+000 -1.784595e+002 -5.042113e+001 -8.553425e+001 -4.953671e+001 -8.520012e+001 -1.699440e-001 1.300605e+002
588125000 -1.659484e+000 -1.789317e+002 -5.012848e+001 -8.398962e+001 -5.017751e+001 -8.781227e+001 -1.822299e-001 1.299932e+002
588750000 -1.694858e+000 -1.793381e+002 -4.982838e+001 -8.982015e+001 -4.947453e+001 -8.776502e+001 -1.773802e-001 1.298790e+002
589375000 -1.726573e+000 -1.798358e+002 -4.976674e+001 -9.285583e+001 -4.990683e+001 -9.146957e+001 -1.623981e-001 1.296947e+002
590000000 -1.762146e+000 1.797684e+002 -4.959649e+001 -9.485876e+001 -4.966429e+001 -9.174750e+001 -1.689105e-001 1.296870e+002
590625000 -1.791734e+000 1.792528e+002 -4.960650e+001 -9.123520e+001 -4.953578e+001 -9.153723e+001 -1.666194e-001 1.295865e+002
591250000 -1.828868e+000 1.787787e+002 -4.981339e+001 -9.066189e+001 -4.966500e+001 -9.477924e+001 -1.657847e-001 1.295168e+002
591875000 -1.868669e+000 1.783322e+002 -5.040785e+001 -9.950197e+001 -5.026105e+001 -9.872258e+001 -1.667603e-001 1.294400e+002
592500000 -1.907166e+000 1.778037e+002 -5.016661e+001 -9.382885e+001 -4.916287e+001 -9.746641e+001 -1.547747e-001 1.295094e+002
593125000 -1.950317e+000 1.773282e+002 -4.935799e+001 -9.707911e+001 -4.975533e+001 -9.561900e+001 -1.548000e-001 1.294872e+002
593750000 -1.993412e+000 1.768016e+002 -4.914380e+001 -9.925871e+001 -4.942115e+001 -9.861855e+001 -1.473165e-001 1.295406e+002
594375000 -2.029957e+000 1.763102e+002 -4.963087e+001 -9.892022e+001 -4.955754e+001 -9.863695e+001 -1.381924e-001 1.295188e+002
595000000 -2.080298e+000 1.758225e+002 -4.938691e+001 -1.008359e+002 -4.882937e+001 -1.009018e+002 -1.579684e-001 1.295424e+002
