!Agilent Technologies,E8364B,US42250235,A.06.04.32
!Agilent E8364B: A.06.04.32
!Date: Friday, January 15, 2021 12:15:55
!Correction: S11(Full 2 Port(1,2)) S21(Full 2 Port(1,2)) S12(Full 2 Port(1,2)) S22(Full 2 Port(1,2)) 
!S2P File: Measurements: S11, S21, S12, S22:
# Hz S  dB   R 50
500000000 -9.544997e-002 -1.291073e+002 -6.080868e+001 1.310006e+002 -6.157384e+001 1.056647e+002 -1.237252e-001 1.388529e+002
500625000 -9.690852e-002 -1.293756e+002 -6.304209e+001 1.014468e+002 -6.370952e+001 1.090307e+002 -1.243064e-001 1.387974e+002
501250000 -1.074956e-001 -1.296423e+002 -6.137798e+001 1.053104e+002 -5.965732e+001 1.146711e+002 -1.187457e-001 1.387060e+002
501875000 -9.780005e-002 -1.298994e+002 -5.896204e+001 1.080928e+002 -6.268904e+001 1.179865e+002 -1.142366e-001 1.386724e+002
502500000 -1.085363e-001 -1.302344e+002 -6.194706e+001 1.110775e+002 -6.236356e+001 1.175567e+002 -1.160075e-001 1.386550e+002
503125000 -1.243163e-001 -1.305391e+002 -6.159484e+001 1.228881e+002 -6.274356e+001 1.130583e+002 -1.219637e-001 1.385547e+002
503750000 -1.236448e-001 -1.307691e+002 -6.028932e+001 1.122584e+002 -6.089212e+001 1.162211e+002 -1.171116e-001 1.384830e+002
504375000 -1.329204e-001 -1.311285e+002 -6.102914e+001 1.130206e+002 -6.508612e+001 1.300556e+002 -1.292006e-001 1.385031e+002
505000000 -1.429113e-001 -1.314334e+002 -6.118893e+001 1.069146e+002 -6.204972e+001 1.176353e+002 -1.269093e-001 1.384211e+002
505625000 -1.467300e-001 -1.316816e+002 -6.084676e+001 1.145527e+002 -5.978598e+001 1.094686e+002 -1.179378e-001 1.383835e+002
506250000 -1.513620e-001 -1.320391e+002 -6.064523e+001 1.132732e+002 -6.094487e+001 1.002401e+002 -1.227898e-001 1.383370e+002
506875000 -1.573479e-001 -1.323085e+002 -6.031414e+001 1.070515e+002 -6.112712e+001 1.165325e+002 -1.230467e-001 1.382066e+002
507500000 -1.694763e-001 -1.325771e+002 -6.072900e+001 9.709299e+001 -5.786007e+001 1.008241e+002 -1.203363e-001 1.381325e+002
508125000 -1.737213e-001 -1.328708e+002 -6.169678e+001 1.005878e+002 -5.905908e+001 1.004153e+002 -1.118423e-001 1.380724e+002
508750000 -1.809930e-001 -1.331272e+002 -6.044399e+001 9.341895e+001 -6.089866e+001 1.109748e+002 -1.178994e-001 1.380604e+002
509375000 -1.842330e-001 -1.334864e+002 -5.919033e+001 1.003704e+002 -5.894855e+001 1.021135e+002 -1.142227e-001 1.380115e+002
510000000 -1.894069e-001 -1.337851e+002 -6.018487e+001 1.023792e+002 -6.013522e+001 9.154498e+001 -1.199092e-001 1.379800e+002
510625000 -2.041352e-001 -1.340320e+002 -6.004115e+001 1.024889e+002 -6.050764e+001 9.480640e+001 -1.099230e-001 1.379716e+002
511250000 -2.131591e-001 -1.342909e+002 -6.040564e+001 9.190466e+001 -6.067639e+001 9.227213e+001 -1.259753e-001 1.378977e+002
511875000 -2.060927e-001 -1.345811e+002 -6.057767e+001 8.767982e+001 -6.033769e+001 8.969994e+001 -1.260378e-001 1.378757e+002
512500000 -2.064220e-001 -1.348543e+002 -5.936573e+001 8.871347e+001 -5.860176e+001 8.767834e+001 -1.321072e-001 1.377699e+002
513125000 -2.220198e-001 -1.351061e+002 -5.862621e+001 8.449526e+001 -5.963131e+001 9.168571e+001 -1.251649e-001 1.378088e+002
513750000 -2.265552e-001 -1.354555e+002 -5.987753e+001 8.777130e+001 -6.015470e+001 8.526860e+001 -1.371505e-001 1.376807e+002
514375000 -2.306883e-001 -1.357372e+002 -6.109093e+001 9.184927e+001 -6.041158e+001 9.857957e+001 -1.252174e-001 1.375919e+002
515000000 -2.207511e-001 -1.360225e+002 -5.875674e+001 8.106572e+001 -6.037146e+001 9.361020e+001 -1.295659e-001 1.375497e+002
515625000 -2.355414e-001 -1.363753e+002 -6.017709e+001 8.065192e+001 -5.846367e+001 7.846718e+001 -1.202695e-001 1.373882e+002
516250000 -2.344283e-001 -1.366171e+002 -5.900809e+001 7.987946e+001 -5.975261e+001 8.063898e+001 -1.382899e-001 1.373340e+002
516875000 -2.502406e-001 -1.369380e+002 -5.769621e+001 7.920779e+001 -5.775058e+001 7.857722e+001 -1.389043e-001 1.373036e+002
517500000 -2.509354e-001 -1.372849e+002 -6.133766e+001 8.092246e+001 -5.985460e+001 7.968656e+001 -1.414959e-001 1.371497e+002
518125000 -2.513330e-001 -1.376013e+002 -5.935468e+001 8.788496e+001 -5.977272e+001 7.570828e+001 -1.408372e-001 1.369994e+002
518750000 -2.641013e-001 -1.378751e+002 -5.883543e+001 6.600437e+001 -5.908818e+001 7.766946e+001 -1.351115e-001 1.369199e+002
519375000 -2.770897e-001 -1.381099e+002 -5.893455e+001 7.495037e+001 -5.819636e+001 7.273854e+001 -1.312691e-001 1.368072e+002
520000000 -2.809191e-001 -1.384512e+002 -5.811039e+001 7.326637e+001 -6.016685e+001 8.263412e+001 -1.339371e-001 1.366519e+002
520625000 -2.871262e-001 -1.387675e+002 -5.938195e+001 6.344688e+001 -5.992117e+001 7.203787e+001 -1.323664e-001 1.365334e+002
521250000 -2.944033e-001 -1.390578e+002 -5.782562e+001 7.143790e+001 -5.924856e+001 8.303331e+001 -1.343344e-001 1.365234e+002
521875000 -2.943015e-001 -1.394032e+002 -5.845871e+001 6.721835e+001 -5.905364e+001 7.123122e+001 -1.258291e-001 1.364403e+002
522500000 -2.969956e-001 -1.397029e+002 -5.791791e+001 7.112211e+001 -5.836473e+001 6.243764e+001 -1.255111e-001 1.362949e+002
523125000 -3.146786e-001 -1.399966e+002 -5.942148e+001 6.198030e+001 -5.791596e+001 6.696046e+001 -1.218989e-001 1.362910e+002
523750000 -3.136235e-001 -1.403090e+002 -5.959960e+001 6.632679e+001 -5.917547e+001 7.404599e+001 -1.186743e-001 1.362337e+002
524375000 -3.350224e-001 -1.406619e+002 -5.796218e+001 5.838566e+001 -5.841143e+001 6.785822e+001 -1.123883e-001 1.361837e+002
525000000 -3.316653e-001 -1.409637e+002 -5.794604e+001 5.879161e+001 -5.686868e+001 6.570418e+001 -1.249687e-001 1.361976e+002
525625000 -3.490399e-001 -1.412298e+002 -5.764344e+001 5.229243e+001 -5.727000e+001 6.810906e+001 -1.215743e-001 1.361134e+002
526250000 -3.478014e-001 -1.415339e+002 -5.812029e+001 5.247945e+001 -5.841697e+001 6.391248e+001 -1.214037e-001 1.361810e+002
526875000 -3.658614e-001 -1.418652e+002 -5.710827e+001 5.422491e+001 -5.806157e+001 5.897395e+001 -1.104142e-001 1.361667e+002
527500000 -3.848702e-001 -1.421564e+002 -5.819406e+001 4.379881e+001 -5.773741e+001 6.286138e+001 -1.188834e-001 1.361811e+002
528125000 -3.958760e-001 -1.424379e+002 -5.796683e+001 4.772205e+001 -5.620901e+001 5.142017e+001 -1.211177e-001 1.361728e+002
528750000 -4.018122e-001 -1.427601e+002 -5.664404e+001 5.221522e+001 -5.722889e+001 4.468639e+001 -1.201429e-001 1.362217e+002
529375000 -4.154798e-001 -1.430278e+002 -5.757279e+001 5.610930e+001 -5.896802e+001 5.854599e+001 -1.130659e-001 1.361427e+002
530000000 -4.229477e-001 -1.433502e+002 -5.843048e+001 5.205061e+001 -5.782705e+001 4.813637e+001 -1.203510e-001 1.361416e+002
530625000 -4.353731e-001 -1.436201e+002 -5.786579e+001 5.117456e+001 -5.746083e+001 5.039294e+001 -1.222903e-001 1.361129e+002
531250000 -4.450344e-001 -1.439205e+002 -5.659677e+001 4.202771e+001 -5.691562e+001 5.125602e+001 -1.133945e-001 1.360417e+002
531875000 -4.605212e-001 -1.441547e+002 -5.715063e+001 3.745327e+001 -5.691163e+001 5.304019e+001 -1.315717e-001 1.359878e+002
532500000 -4.651312e-001 -1.444070e+002 -5.712569e+001 3.848655e+001 -5.620332e+001 4.012348e+001 -1.218688e-001 1.359992e+002
533125000 -4.646842e-001 -1.447784e+002 -5.711087e+001 4.600300e+001 -5.760142e+001 3.875398e+001 -1.349244e-001 1.359705e+002
533750000 -4.657064e-001 -1.450451e+002 -5.834490e+001 3.672124e+001 -5.650571e+001 4.747886e+001 -1.460015e-001 1.358713e+002
534375000 -4.680592e-001 -1.452921e+002 -5.720267e+001 2.906516e+001 -5.637938e+001 3.939812e+001 -1.270626e-001 1.358263e+002
535000000 -4.828267e-001 -1.455711e+002 -5.731360e+001 3.484667e+001 -5.665685e+001 4.009607e+001 -1.336881e-001 1.357937e+002
535625000 -4.749109e-001 -1.459251e+002 -5.771286e+001 3.705504e+001 -5.634262e+001 3.207763e+001 -1.268862e-001 1.356748e+002
536250000 -4.795296e-001 -1.462392e+002 -5.708355e+001 1.923217e+001 -5.722021e+001 3.420352e+001 -1.291501e-001 1.355975e+002
536875000 -4.870461e-001 -1.466040e+002 -5.730603e+001 3.292654e+001 -5.727242e+001 2.839149e+001 -1.267876e-001 1.355502e+002
537500000 -4.843068e-001 -1.468668e+002 -5.716836e+001 3.910830e+001 -5.581044e+001 3.297156e+001 -1.240939e-001 1.356070e+002
538125000 -4.900055e-001 -1.472544e+002 -5.823933e+001 2.512395e+001 -5.612643e+001 2.982569e+001 -1.245960e-001 1.354978e+002
538750000 -5.059965e-001 -1.475754e+002 -5.711277e+001 3.493479e+001 -5.617763e+001 3.718101e+001 -1.321834e-001 1.355253e+002
539375000 -5.150589e-001 -1.479413e+002 -5.801521e+001 3.231978e+001 -5.619524e+001 3.169762e+001 -1.216917e-001 1.354868e+002
540000000 -5.146608e-001 -1.482668e+002 -5.636885e+001 2.808769e+001 -5.767910e+001 2.854939e+001 -1.244759e-001 1.353858e+002
540625000 -5.217509e-001 -1.485936e+002 -5.640362e+001 2.103989e+001 -5.578602e+001 2.459975e+001 -1.302629e-001 1.353545e+002
541250000 -5.235301e-001 -1.488966e+002 -5.746117e+001 3.062539e+001 -5.578667e+001 3.151803e+001 -1.276919e-001 1.353206e+002
541875000 -5.371401e-001 -1.492142e+002 -5.536351e+001 2.811007e+001 -5.573406e+001 2.507922e+001 -1.331037e-001 1.352587e+002
542500000 -5.407552e-001 -1.495778e+002 -5.723032e+001 2.470994e+001 -5.548679e+001 3.218122e+001 -1.306912e-001 1.352072e+002
543125000 -5.400987e-001 -1.499052e+002 -5.611118e+001 2.595147e+001 -5.620539e+001 2.148838e+001 -1.289944e-001 1.350840e+002
543750000 -5.474373e-001 -1.502629e+002 -5.552574e+001 2.170295e+001 -5.712367e+001 1.839158e+001 -1.360572e-001 1.350792e+002
544375000 -5.592786e-001 -1.505963e+002 -5.550809e+001 2.169893e+001 -5.674200e+001 1.942285e+001 -1.307688e-001 1.350553e+002
545000000 -5.543021e-001 -1.509383e+002 -5.573298e+001 1.521450e+001 -5.475914e+001 1.549894e+001 -1.331536e-001 1.349558e+002
545625000 -5.616173e-001 -1.513109e+002 -5.500982e+001 1.049254e+001 -5.494626e+001 1.211658e+001 -1.406240e-001 1.348562e+002
546250000 -5.731366e-001 -1.516667e+002 -5.670389e+001 2.217348e+001 -5.565454e+001 1.441485e+001 -1.427929e-001 1.347756e+002
546875000 -5.793291e-001 -1.521436e+002 -5.620321e+001 1.326676e+001 -5.508746e+001 1.504646e+001 -1.402219e-001 1.347335e+002
547500000 -5.966997e-001 -1.524829e+002 -5.556324e+001 3.312790e+000 -5.518029e+001 8.428106e+000 -1.419444e-001 1.346042e+002
548125000 -6.029287e-001 -1.528752e+002 -5.564415e+001 9.334396e+000 -5.490331e+001 9.053814e+000 -1.361847e-001 1.344785e+002
548750000 -6.171499e-001 -1.532517e+002 -5.453660e+001 9.239278e+000 -5.531683e+001 1.124106e+001 -1.406336e-001 1.344313e+002
549375000 -6.296756e-001 -1.536190e+002 -5.441990e+001 1.028704e+000 -5.419401e+001 4.669601e+000 -1.422571e-001 1.341743e+002
550000000 -6.336890e-001 -1.539746e+002 -5.421567e+001 5.806396e+000 -5.429735e+001 7.195333e+000 -1.492628e-001 1.342123e+002
550625000 -6.505550e-001 -1.543237e+002 -5.554856e+001 1.835470e+000 -5.555232e+001 4.380556e+000 -1.436290e-001 1.341089e+002
551250000 -6.626282e-001 -1.546849e+002 -5.529960e+001 -1.606662e+000 -5.535324e+001 -4.914994e-001 -1.351709e-001 1.340189e+002
551875000 -6.779785e-001 -1.550480e+002 -5.503360e+001 2.403185e+000 -5.504175e+001 -3.354919e+000 -1.332522e-001 1.339713e+002
552500000 -6.787645e-001 -1.554145e+002 -5.473399e+001 9.390553e-001 -5.393996e+001 1.036487e+000 -1.270321e-001 1.339041e+002
553125000 -6.927113e-001 -1.557445e+002 -5.434058e+001 -6.578629e+000 -5.433257e+001 -7.842166e+000 -1.277234e-001 1.338827e+002
553750000 -7.126132e-001 -1.561011e+002 -5.437618e+001 -3.674113e+000 -5.476689e+001 -4.618672e+000 -1.326114e-001 1.337731e+002
554375000 -7.158955e-001 -1.563736e+002 -5.489278e+001 -4.841743e+000 -5.498333e+001 -6.861547e+000 -1.277803e-001 1.337638e+002
555000000 -7.373962e-001 -1.567886e+002 -5.379030e+001 -7.915096e+000 -5.409728e+001 -4.688466e+000 -1.341095e-001 1.336891e+002
555625000 -7.498301e-001 -1.570311e+002 -5.441926e+001 -1.962811e+001 -5.327151e+001 -1.494965e+001 -1.244869e-001 1.337751e+002
556250000 -7.748950e-001 -1.574335e+002 -5.365042e+001 -1.142163e+001 -5.455895e+001 -9.713962e+000 -1.242226e-001 1.336956e+002
556875000 -7.678859e-001 -1.578203e+002 -5.436486e+001 -1.410881e+001 -5.434964e+001 -1.529649e+001 -1.340604e-001 1.336931e+002
557500000 -7.929075e-001 -1.580877e+002 -5.476273e+001 -1.495120e+001 -5.441742e+001 -1.599710e+001 -1.265430e-001 1.336806e+002
558125000 -8.045588e-001 -1.584356e+002 -5.353748e+001 -1.550621e+001 -5.390213e+001 -1.495052e+001 -1.401570e-001 1.336979e+002
558750000 -8.096951e-001 -1.587824e+002 -5.390743e+001 -1.178290e+001 -5.438581e+001 -1.547394e+001 -1.352745e-001 1.336360e+002
559375000 -8.219625e-001 -1.591192e+002 -5.438635e+001 -2.458238e+001 -5.396703e+001 -1.993990e+001 -1.337055e-001 1.336158e+002
560000000 -8.342823e-001 -1.594467e+002 -5.422904e+001 -2.147076e+001 -5.473185e+001 -1.561397e+001 -1.291106e-001 1.335996e+002
560625000 -8.526494e-001 -1.597589e+002 -5.427303e+001 -1.754387e+001 -5.366454e+001 -1.481069e+001 -1.351308e-001 1.335294e+002
561250000 -8.554549e-001 -1.601445e+002 -5.338507e+001 -2.313227e+001 -5.424667e+001 -1.964118e+001 -1.271734e-001 1.334887e+002
561875000 -8.633934e-001 -1.604672e+002 -5.371503e+001 -2.572231e+001 -5.371351e+001 -1.870734e+001 -1.341575e-001 1.334794e+002
562500000 -8.706408e-001 -1.608534e+002 -5.381147e+001 -2.342030e+001 -5.420113e+001 -2.801281e+001 -1.365976e-001 1.334318e+002
563125000 -8.697202e-001 -1.611407e+002 -5.403954e+001 -3.698842e+001 -5.397254e+001 -2.937779e+001 -1.305522e-001 1.333812e+002
563750000 -8.828133e-001 -1.615785e+002 -5.372180e+001 -3.350626e+001 -5.361972e+001 -2.770263e+001 -1.414640e-001 1.332854e+002
564375000 -8.872632e-001 -1.619341e+002 -5.486169e+001 -3.335588e+001 -5.503630e+001 -3.519968e+001 -1.401803e-001 1.332606e+002
565000000 -8.899949e-001 -1.624027e+002 -5.472655e+001 -2.938757e+001 -5.411346e+001 -2.857990e+001 -1.426906e-001 1.331360e+002
565625000 -8.994710e-001 -1.627955e+002 -5.496003e+001 -3.592410e+001 -5.407125e+001 -3.028233e+001 -1.498153e-001 1.330908e+002
566250000 -9.066490e-001 -1.633112e+002 -5.393428e+001 -3.495700e+001 -5.469126e+001 -2.864068e+001 -1.475340e-001 1.329702e+002
566875000 -9.321239e-001 -1.637175e+002 -5.387425e+001 -3.372739e+001 -5.376021e+001 -2.877157e+001 -1.549225e-001 1.328091e+002
567500000 -9.443461e-001 -1.642597e+002 -5.423184e+001 -3.865971e+001 -5.394630e+001 -2.714566e+001 -1.480402e-001 1.327065e+002
568125000 -9.681857e-001 -1.646260e+002 -5.390062e+001 -3.432061e+001 -5.418092e+001 -3.190956e+001 -1.525188e-001 1.325865e+002
568750000 -9.868747e-001 -1.650819e+002 -5.443005e+001 -3.741924e+001 -5.455275e+001 -3.052270e+001 -1.534577e-001 1.324951e+002
569375000 -1.001006e+000 -1.655376e+002 -5.386977e+001 -3.822471e+001 -5.329608e+001 -3.235969e+001 -1.605214e-001 1.323914e+002
570000000 -1.014253e+000 -1.660091e+002 -5.346244e+001 -3.351410e+001 -5.331228e+001 -3.014680e+001 -1.515378e-001 1.321704e+002
570625000 -1.033025e+000 -1.664020e+002 -5.268762e+001 -3.270005e+001 -5.368206e+001 -3.434224e+001 -1.519465e-001 1.321056e+002
571250000 -1.054187e+000 -1.668064e+002 -5.319626e+001 -3.790660e+001 -5.336745e+001 -3.626559e+001 -1.529723e-001 1.320438e+002
571875000 -1.076654e+000 -1.672992e+002 -5.305370e+001 -4.400133e+001 -5.278369e+001 -4.653793e+001 -1.459539e-001 1.318535e+002
572500000 -1.103153e+000 -1.677421e+002 -5.307753e+001 -4.404395e+001 -5.312615e+001 -3.876994e+001 -1.506961e-001 1.317887e+002
573125000 -1.131932e+000 -1.681668e+002 -5.292385e+001 -4.030414e+001 -5.334950e+001 -4.455122e+001 -1.359727e-001 1.316981e+002
573750000 -1.155064e+000 -1.686653e+002 -5.250339e+001 -4.646656e+001 -5.366633e+001 -4.752492e+001 -1.439463e-001 1.315883e+002
574375000 -1.183815e+000 -1.690284e+002 -5.297322e+001 -4.777877e+001 -5.256596e+001 -4.500831e+001 -1.431290e-001 1.315603e+002
575000000 -1.209818e+000 -1.694860e+002 -5.330135e+001 -5.185363e+001 -5.255738e+001 -4.114005e+001 -1.429135e-001 1.314912e+002
575625000 -1.241800e+000 -1.698491e+002 -5.261797e+001 -4.459129e+001 -5.298534e+001 -4.312714e+001 -1.387955e-001 1.314301e+002
576250000 -1.260054e+000 -1.702364e+002 -5.328164e+001 -5.107697e+001 -5.336668e+001 -4.875358e+001 -1.330763e-001 1.313858e+002
576875000 -1.286319e+000 -1.705910e+002 -5.312241e+001 -5.647370e+001 -5.289658e+001 -4.674224e+001 -1.334681e-001 1.314034e+002
577500000 -1.321077e+000 -1.709450e+002 -5.192932e+001 -5.617987e+001 -5.230732e+001 -5.552356e+001 -1.265078e-001 1.313630e+002
578125000 -1.341580e+000 -1.713411e+002 -5.315422e+001 -5.393061e+001 -5.286910e+001 -5.095287e+001 -1.218789e-001 1.314012e+002
578750000 -1.360731e+000 -1.717220e+002 -5.221720e+001 -4.960910e+001 -5.186575e+001 -4.818604e+001 -1.290773e-001 1.314035e+002
579375000 -1.373586e+000 -1.720967e+002 -5.259028e+001 -5.790189e+001 -5.282658e+001 -5.748355e+001 -1.284143e-001 1.313512e+002
580000000 -1.399899e+000 -1.724699e+002 -5.199464e+001 -6.381179e+001 -5.219970e+001 -5.566398e+001 -1.234298e-001 1.313880e+002
580625000 -1.423705e+000 -1.728753e+002 -5.246578e+001 -5.561041e+001 -5.233326e+001 -5.894270e+001 -1.247181e-001 1.314402e+002
581250000 -1.452963e+000 -1.732604e+002 -5.112003e+001 -5.360188e+001 -5.203096e+001 -5.450498e+001 -1.226749e-001 1.314416e+002
581875000 -1.483024e+000 -1.735717e+002 -5.210454e+001 -5.775403e+001 -5.247696e+001 -5.851398e+001 -1.255821e-001 1.314793e+002
582500000 -1.508104e+000 -1.739395e+002 -5.209297e+001 -6.348372e+001 -5.229568e+001 -5.952616e+001 -1.239004e-001 1.313678e+002
583125000 -1.527266e+000 -1.743535e+002 -5.262952e+001 -6.460377e+001 -5.165472e+001 -5.906242e+001 -1.356770e-001 1.313014e+002
583750000 -1.549208e+000 -1.747271e+002 -5.223369e+001 -6.613537e+001 -5.191004e+001 -6.127103e+001 -1.481632e-001 1.312661e+002
584375000 -1.566798e+000 -1.751046e+002 -5.171199e+001 -6.984550e+001 -5.121897e+001 -6.760928e+001 -1.464402e-001 1.312043e+002
585000000 -1.589370e+000 -1.755619e+002 -5.138537e+001 -7.098104e+001 -5.164288e+001 -6.850094e+001 -1.554871e-001 1.311401e+002
585625000 -1.626994e+000 -1.759704e+002 -5.186779e+001 -6.968061e+001 -5.160904e+001 -6.628106e+001 -1.407524e-001 1.310224e+002
586250000 -1.649227e+000 -1.764259e+002 -5.216676e+001 -7.154235e+001 -5.098660e+001 -7.012685e+001 -1.481763e-001 1.309995e+002
586875000 -1.672162e+000 -1.768606e+002 -5.165772e+001 -7.785899e+001 -5.159393e+001 -7.124193e+001 -1.557505e-001 1.308509e+002
587500000 -1.711392e+000 -1.772908e+002 -5.102236e+001 -7.314308e+001 -5.107038e+001 -7.073140e+001 -1.497876e-001 1.307082e+002
588125000 -1.736949e+000 -1.776463e+002 -5.086026e+001 -7.563386e+001 -5.089339e+001 -7.614330e+001 -1.555859e-001 1.306241e+002
588750000 -1.762028e+000 -1.780223e+002 -5.125604e+001 -7.820166e+001 -5.088993e+001 -7.793908e+001 -1.599771e-001 1.305172e+002
589375000 -1.783353e+000 -1.784387e+002 -5.085878e+001 -8.026565e+001 -5.141357e+001 -7.732554e+001 -1.438792e-001 1.303445e+002
590000000 -1.802644e+000 -1.789504e+002 -5.133013e+001 -8.545169e+001 -5.142692e+001 -7.662435e+001 -1.485998e-001 1.303310e+002
590625000 -1.831979e+000 -1.793684e+002 -5.091607e+001 -8.149731e+001 -5.088939e+001 -8.026889e+001 -1.429268e-001 1.301831e+002
591250000 -1.854524e+000 -1.798680e+002 -5.048433e+001 -7.983721e+001 -5.125540e+001 -8.198068e+001 -1.509943e-001 1.301502e+002
591875000 -1.887302e+000 1.796578e+002 -5.086146e+001 -8.105874e+001 -5.113144e+001 -7.883541e+001 -1.394054e-001 1.301087e+002
592500000 -1.924695e+000 1.792137e+002 -5.060046e+001 -8.394312e+001 -5.110042e+001 -8.610211e+001 -1.382885e-001 1.300603e+002
593125000 -1.968426e+000 1.787578e+002 -5.076872e+001 -8.544498e+001 -5.034790e+001 -8.321897e+001 -1.321665e-001 1.301529e+002
593750000 -2.003873e+000 1.783213e+002 -5.078485e+001 -8.466478e+001 -5.051701e+001 -8.446479e+001 -1.230912e-001 1.301589e+002
594375000 -2.033210e+000 1.779058e+002 -5.039016e+001 -9.014687e+001 -4.996872e+001 -8.005272e+001 -1.226030e-001 1.301772e+002
595000000 -2.068861e+000 1.774872e+002 -5.085853e+001 -8.877406e+001 -5.022438e+001 -8.600130e+001 -1.318925e-001 1.301878e+002
595625000 -2.099028e+000 1.770478e+002 -5.045280e+001 -9.275098e+001 -5.048836e+001 -8.565286e+001 -1.253171e-001 1.301782e+002
