!Agilent Technologies,E8364B,US42250235,A.06.04.32
!Agilent E8364B: A.06.04.32
!Date: Thursday, October 01, 2020 13:11:59
!Correction: S11(Full 2 Port(1,2)) S21(Full 2 Port(1,2)) S12(Full 2 Port(1,2)) S22(Full 2 Port(1,2)) 
!S2P File: Measurements: S11, S21, S12, S22:
# Hz S  dB   R 50
500000000 -1.050669e-001 -1.751637e+002 -5.325251e+001 1.089804e+002 -5.395340e+001 1.030346e+002 -1.910777e-001 1.375883e+002
500377500.94375 -1.082731e-001 -1.753037e+002 -5.322592e+001 1.059827e+002 -5.405572e+001 1.011084e+002 -1.893712e-001 1.374382e+002
500755001.8875 -1.050477e-001 -1.755749e+002 -5.340376e+001 1.072726e+002 -5.407814e+001 1.005378e+002 -1.901675e-001 1.373239e+002
501132502.83126 -1.116862e-001 -1.757551e+002 -5.309092e+001 1.052797e+002 -5.382198e+001 1.013471e+002 -1.882943e-001 1.371651e+002
501510003.77501 -1.152607e-001 -1.759199e+002 -5.332444e+001 1.070228e+002 -5.365096e+001 1.015889e+002 -1.855959e-001 1.370197e+002
501887504.71876 -1.198988e-001 -1.761910e+002 -5.313765e+001 1.039270e+002 -5.383670e+001 9.997071e+001 -1.838765e-001 1.369356e+002
502265005.66251 -1.193500e-001 -1.763685e+002 -5.284208e+001 1.056883e+002 -5.355354e+001 1.020903e+002 -1.795132e-001 1.368235e+002
502642506.60627 -1.215400e-001 -1.766305e+002 -5.292687e+001 1.048296e+002 -5.346508e+001 1.007516e+002 -1.791987e-001 1.367455e+002
503020007.55002 -1.234650e-001 -1.768185e+002 -5.275463e+001 1.049436e+002 -5.334665e+001 9.852214e+001 -1.709807e-001 1.366453e+002
503397508.49377 -1.271371e-001 -1.770378e+002 -5.291140e+001 1.045673e+002 -5.357952e+001 1.007128e+002 -1.674067e-001 1.365574e+002
503775009.43752 -1.271523e-001 -1.773165e+002 -5.262984e+001 1.015699e+002 -5.351648e+001 9.949103e+001 -1.597718e-001 1.365070e+002
504152510.38128 -1.277937e-001 -1.775070e+002 -5.253860e+001 1.029613e+002 -5.339734e+001 1.007313e+002 -1.543959e-001 1.364485e+002
504530011.32503 -1.304775e-001 -1.777749e+002 -5.242056e+001 1.022142e+002 -5.312492e+001 9.844777e+001 -1.483160e-001 1.364094e+002
504907512.26878 -1.346148e-001 -1.779482e+002 -5.248952e+001 1.028951e+002 -5.354437e+001 9.781228e+001 -1.414481e-001 1.363991e+002
505285013.21253 -1.345173e-001 -1.782544e+002 -5.240269e+001 1.011597e+002 -5.314304e+001 9.905788e+001 -1.386884e-001 1.364079e+002
505662514.15629 -1.333605e-001 -1.784327e+002 -5.243127e+001 1.013870e+002 -5.296863e+001 1.000531e+002 -1.301493e-001 1.364044e+002
506040015.10004 -1.347846e-001 -1.786436e+002 -5.237667e+001 1.019957e+002 -5.288926e+001 9.846468e+001 -1.203205e-001 1.364440e+002
506417516.04379 -1.356757e-001 -1.788757e+002 -5.248318e+001 1.013512e+002 -5.286314e+001 9.932525e+001 -1.121825e-001 1.364915e+002
506795016.98754 -1.360016e-001 -1.791010e+002 -5.189641e+001 1.007147e+002 -5.287380e+001 9.827609e+001 -1.080435e-001 1.365347e+002
507172517.93129 -1.385874e-001 -1.793171e+002 -5.221014e+001 1.014406e+002 -5.282420e+001 9.868310e+001 -9.768529e-002 1.366267e+002
507550018.87505 -1.400854e-001 -1.795543e+002 -5.203300e+001 9.973281e+001 -5.276554e+001 9.960383e+001 -9.201099e-002 1.367017e+002
507927519.8188 -1.401136e-001 -1.797700e+002 -5.214326e+001 9.984949e+001 -5.253629e+001 9.825525e+001 -8.690611e-002 1.368220e+002
508305020.76255 -1.432762e-001 -1.799652e+002 -5.177162e+001 1.009725e+002 -5.209877e+001 9.908924e+001 -7.800990e-002 1.369356e+002
508682521.7063 -1.392711e-001 1.797733e+002 -5.170530e+001 9.981670e+001 -5.225522e+001 9.937276e+001 -7.463109e-002 1.370735e+002
509060022.65006 -1.416482e-001 1.795867e+002 -5.182078e+001 1.000658e+002 -5.206108e+001 9.741015e+001 -6.697139e-002 1.372086e+002
509437523.59381 -1.446116e-001 1.793919e+002 -5.159365e+001 9.900330e+001 -5.195029e+001 9.788955e+001 -6.070944e-002 1.373741e+002
509815024.53756 -1.436725e-001 1.791651e+002 -5.154520e+001 9.793817e+001 -5.207323e+001 9.826482e+001 -5.697462e-002 1.375549e+002
510192525.48131 -1.460287e-001 1.790043e+002 -5.132162e+001 9.985976e+001 -5.188272e+001 9.641311e+001 -5.510315e-002 1.376927e+002
510570026.42507 -1.484578e-001 1.787866e+002 -5.154566e+001 9.884042e+001 -5.154016e+001 9.740135e+001 -5.012257e-002 1.379308e+002
510947527.36882 -1.467122e-001 1.785157e+002 -5.117075e+001 9.779956e+001 -5.168647e+001 9.702598e+001 -4.444140e-002 1.380880e+002
511325028.31257 -1.464448e-001 1.783550e+002 -5.144524e+001 9.835006e+001 -5.168642e+001 9.545917e+001 -4.268787e-002 1.382964e+002
511702529.25632 -1.509329e-001 1.781161e+002 -5.130171e+001 9.889275e+001 -5.139522e+001 9.607815e+001 -4.440277e-002 1.384955e+002
512080030.20008 -1.492094e-001 1.779191e+002 -5.123673e+001 9.664594e+001 -5.121981e+001 9.461009e+001 -4.133933e-002 1.386961e+002
512457531.14383 -1.511000e-001 1.776577e+002 -5.121394e+001 9.925880e+001 -5.144755e+001 9.501681e+001 -4.040198e-002 1.388819e+002
512835032.08758 -1.528756e-001 1.774673e+002 -5.094381e+001 9.937407e+001 -5.139239e+001 9.445676e+001 -4.337459e-002 1.390677e+002
513212533.03133 -1.585284e-001 1.772558e+002 -5.087172e+001 9.694851e+001 -5.106284e+001 9.530093e+001 -4.823538e-002 1.392541e+002
513590033.97508 -1.579644e-001 1.770421e+002 -5.088268e+001 9.825115e+001 -5.104729e+001 9.410368e+001 -5.101667e-002 1.394430e+002
513967534.91884 -1.638841e-001 1.768593e+002 -5.076635e+001 9.675536e+001 -5.101756e+001 9.387028e+001 -5.401500e-002 1.396169e+002
514345035.86259 -1.602922e-001 1.765721e+002 -5.074833e+001 9.773746e+001 -5.109179e+001 9.371244e+001 -6.092143e-002 1.397703e+002
514722536.80634 -1.672388e-001 1.763548e+002 -5.053806e+001 9.829257e+001 -5.088247e+001 9.294246e+001 -6.465719e-002 1.399356e+002
515100037.75009 -1.706570e-001 1.761828e+002 -5.033093e+001 9.729042e+001 -5.059064e+001 9.368896e+001 -6.965461e-002 1.400417e+002
515477538.69385 -1.763240e-001 1.759053e+002 -5.032209e+001 9.708599e+001 -5.058613e+001 9.266402e+001 -7.495788e-002 1.401823e+002
515855039.6376 -1.762664e-001 1.757147e+002 -5.012202e+001 9.610876e+001 -5.070230e+001 9.295631e+001 -8.389262e-002 1.402793e+002
516232540.58135 -1.800304e-001 1.754827e+002 -5.002966e+001 9.665541e+001 -5.042965e+001 9.329959e+001 -8.714589e-002 1.403669e+002
516610041.5251 -1.823238e-001 1.752134e+002 -4.988551e+001 9.570948e+001 -5.022334e+001 9.239371e+001 -9.745885e-002 1.404150e+002
516987542.46886 -1.838776e-001 1.750168e+002 -4.971954e+001 9.497855e+001 -5.023443e+001 9.190761e+001 -1.088168e-001 1.404560e+002
517365043.41261 -1.893933e-001 1.747374e+002 -4.949131e+001 9.579333e+001 -5.024631e+001 9.165215e+001 -1.167816e-001 1.404811e+002
517742544.35636 -1.905236e-001 1.745196e+002 -4.937340e+001 9.535966e+001 -5.002390e+001 9.134219e+001 -1.225458e-001 1.404779e+002
518120045.30011 -1.956444e-001 1.742897e+002 -4.913388e+001 9.355109e+001 -4.987720e+001 9.155906e+001 -1.307203e-001 1.404414e+002
518497546.24387 -1.974443e-001 1.740235e+002 -4.914805e+001 9.231252e+001 -4.980305e+001 9.102094e+001 -1.400316e-001 1.403999e+002
518875047.18762 -2.016360e-001 1.737445e+002 -4.920368e+001 9.241808e+001 -4.962881e+001 9.105111e+001 -1.485296e-001 1.403323e+002
519252548.13137 -2.049651e-001 1.735588e+002 -4.896859e+001 9.329531e+001 -4.944028e+001 9.005426e+001 -1.526569e-001 1.402790e+002
519630049.07512 -2.058060e-001 1.733049e+002 -4.889317e+001 9.275077e+001 -4.941402e+001 9.002374e+001 -1.604506e-001 1.401550e+002
520007550.01888 -2.105356e-001 1.729594e+002 -4.889114e+001 9.159165e+001 -4.946675e+001 8.967569e+001 -1.697686e-001 1.400177e+002
520385050.96263 -2.138550e-001 1.727434e+002 -4.854984e+001 9.154404e+001 -4.925906e+001 8.909714e+001 -1.767307e-001 1.398802e+002
520762551.90638 -2.181796e-001 1.725249e+002 -4.847242e+001 9.008414e+001 -4.921077e+001 9.058521e+001 -1.821658e-001 1.397082e+002
521140052.85013 -2.183086e-001 1.722341e+002 -4.854562e+001 8.995162e+001 -4.911425e+001 8.893086e+001 -1.901033e-001 1.395195e+002
521517553.79388 -2.215259e-001 1.720091e+002 -4.842407e+001 8.859165e+001 -4.872255e+001 8.888233e+001 -1.926224e-001 1.393528e+002
521895054.73764 -2.255125e-001 1.717325e+002 -4.816151e+001 8.911514e+001 -4.871864e+001 8.750945e+001 -1.952312e-001 1.391516e+002
522272555.68139 -2.247744e-001 1.715108e+002 -4.795057e+001 8.765704e+001 -4.878098e+001 8.869268e+001 -2.005106e-001 1.389450e+002
522650056.62514 -2.323476e-001 1.712546e+002 -4.806386e+001 8.749377e+001 -4.859182e+001 8.790613e+001 -1.980158e-001 1.386734e+002
523027557.56889 -2.347799e-001 1.710005e+002 -4.792030e+001 8.614749e+001 -4.830848e+001 8.657806e+001 -2.035224e-001 1.385050e+002
523405058.51265 -2.378350e-001 1.707462e+002 -4.789146e+001 8.694355e+001 -4.833479e+001 8.765260e+001 -2.040868e-001 1.382790e+002
523782559.4564 -2.391571e-001 1.704460e+002 -4.779580e+001 8.393676e+001 -4.827587e+001 8.571329e+001 -2.053160e-001 1.380600e+002
524160060.40015 -2.412695e-001 1.701799e+002 -4.753009e+001 8.464339e+001 -4.794126e+001 8.552318e+001 -2.040520e-001 1.378434e+002
524537561.3439 -2.482605e-001 1.699940e+002 -4.775582e+001 8.415779e+001 -4.802534e+001 8.550321e+001 -2.010211e-001 1.376698e+002
524915062.28766 -2.529523e-001 1.696883e+002 -4.757113e+001 8.257246e+001 -4.781867e+001 8.365379e+001 -2.006664e-001 1.374008e+002
525292563.23141 -2.526103e-001 1.693816e+002 -4.748761e+001 8.405605e+001 -4.765664e+001 8.380205e+001 -1.970572e-001 1.371904e+002
525670064.17516 -2.549067e-001 1.691640e+002 -4.758868e+001 8.258015e+001 -4.770074e+001 8.438461e+001 -1.941067e-001 1.369982e+002
526047565.11891 -2.589166e-001 1.689249e+002 -4.739871e+001 8.144067e+001 -4.743530e+001 8.203598e+001 -1.900913e-001 1.368139e+002
526425066.06267 -2.629001e-001 1.686467e+002 -4.741023e+001 8.104572e+001 -4.748292e+001 8.176867e+001 -1.870307e-001 1.366648e+002
526802567.00642 -2.680377e-001 1.684063e+002 -4.721048e+001 8.194395e+001 -4.730018e+001 8.229954e+001 -1.792586e-001 1.365061e+002
527180067.95017 -2.689799e-001 1.681524e+002 -4.708049e+001 8.113401e+001 -4.732726e+001 8.174374e+001 -1.725655e-001 1.363321e+002
527557568.89392 -2.771812e-001 1.678783e+002 -4.720610e+001 7.986694e+001 -4.718818e+001 8.047130e+001 -1.654601e-001 1.361998e+002
527935069.83767 -2.807894e-001 1.676413e+002 -4.709638e+001 7.994495e+001 -4.709120e+001 8.172504e+001 -1.645323e-001 1.360705e+002
528312570.78143 -2.887988e-001 1.672894e+002 -4.706355e+001 7.977993e+001 -4.685976e+001 7.935069e+001 -1.560601e-001 1.360325e+002
528690071.72518 -2.925107e-001 1.671299e+002 -4.690210e+001 7.871613e+001 -4.693895e+001 7.955761e+001 -1.516297e-001 1.358862e+002
529067572.66893 -2.991538e-001 1.668621e+002 -4.682162e+001 7.767279e+001 -4.671600e+001 7.783881e+001 -1.424788e-001 1.358092e+002
529445073.61268 -3.011712e-001 1.666014e+002 -4.676157e+001 7.834631e+001 -4.661518e+001 7.905299e+001 -1.417953e-001 1.357710e+002
529822574.55644 -3.070641e-001 1.663243e+002 -4.671888e+001 7.926135e+001 -4.664236e+001 7.987891e+001 -1.356660e-001 1.357137e+002
530200075.50019 -3.101010e-001 1.659890e+002 -4.666655e+001 7.794418e+001 -4.650971e+001 7.894027e+001 -1.300288e-001 1.356696e+002
530577576.44394 -3.200335e-001 1.657565e+002 -4.648783e+001 7.726321e+001 -4.647939e+001 7.681445e+001 -1.267386e-001 1.356354e+002
530955077.38769 -3.217590e-001 1.655042e+002 -4.641649e+001 7.799555e+001 -4.616025e+001 7.722832e+001 -1.192923e-001 1.356019e+002
531332578.33145 -3.287529e-001 1.652244e+002 -4.625308e+001 7.769608e+001 -4.629455e+001 7.619866e+001 -1.220882e-001 1.356099e+002
531710079.2752 -3.311167e-001 1.649208e+002 -4.627202e+001 7.694412e+001 -4.620316e+001 7.717783e+001 -1.142467e-001 1.356028e+002
532087580.21895 -3.389852e-001 1.646469e+002 -4.614688e+001 7.725457e+001 -4.615794e+001 7.682465e+001 -1.111826e-001 1.356018e+002
532465081.1627 -3.473516e-001 1.644548e+002 -4.617027e+001 7.693199e+001 -4.593856e+001 7.600530e+001 -1.115805e-001 1.356309e+002
532842582.10646 -3.515758e-001 1.641490e+002 -4.587463e+001 7.661091e+001 -4.583550e+001 7.582510e+001 -1.072464e-001 1.356258e+002
533220083.05021 -3.583034e-001 1.638683e+002 -4.586914e+001 7.674171e+001 -4.565368e+001 7.514797e+001 -1.046765e-001 1.356501e+002
533597583.99396 -3.676892e-001 1.636355e+002 -4.567509e+001 7.516512e+001 -4.557214e+001 7.595523e+001 -1.065959e-001 1.356611e+002
533975084.93771 -3.720639e-001 1.633272e+002 -4.557107e+001 7.560480e+001 -4.547612e+001 7.550966e+001 -1.040461e-001 1.356844e+002
534352585.88146 -3.809067e-001 1.630486e+002 -4.548043e+001 7.678934e+001 -4.524913e+001 7.456631e+001 -9.979795e-002 1.357081e+002
534730086.82522 -3.866845e-001 1.627299e+002 -4.525041e+001 7.542799e+001 -4.523861e+001 7.380401e+001 -1.052652e-001 1.357266e+002
535107587.76897 -3.915369e-001 1.625062e+002 -4.519156e+001 7.535045e+001 -4.515717e+001 7.307059e+001 -1.004780e-001 1.357254e+002
535485088.71272 -4.038660e-001 1.622144e+002 -4.508951e+001 7.431488e+001 -4.501280e+001 7.291920e+001 -1.053158e-001 1.357621e+002
535862589.65647 -4.088898e-001 1.619402e+002 -4.496407e+001 7.400362e+001 -4.478862e+001 7.182018e+001 -1.060982e-001 1.357834e+002
536240090.60023 -4.178231e-001 1.616727e+002 -4.475413e+001 7.343253e+001 -4.461959e+001 7.168702e+001 -1.039815e-001 1.357317e+002
536617591.54398 -4.251316e-001 1.613792e+002 -4.468480e+001 7.330541e+001 -4.447525e+001 7.151755e+001 -1.095572e-001 1.358051e+002
536995092.48773 -4.347607e-001 1.610824e+002 -4.459116e+001 7.255848e+001 -4.444975e+001 7.178521e+001 -1.104885e-001 1.358594e+002
537372593.43148 -4.412266e-001 1.607895e+002 -4.444056e+001 7.204296e+001 -4.424210e+001 7.061879e+001 -1.131910e-001 1.358003e+002
537750094.37524 -4.545018e-001 1.605142e+002 -4.424790e+001 7.129936e+001 -4.404973e+001 7.018217e+001 -1.195740e-001 1.358051e+002
538127595.31899 -4.619743e-001 1.602122e+002 -4.411138e+001 7.073598e+001 -4.395274e+001 6.934657e+001 -1.172644e-001 1.357978e+002
538505096.26274 -4.722217e-001 1.599534e+002 -4.393918e+001 7.048435e+001 -4.391310e+001 6.885674e+001 -1.206531e-001 1.358256e+002
538882597.20649 -4.810289e-001 1.596550e+002 -4.394776e+001 6.964836e+001 -4.377980e+001 6.816837e+001 -1.225165e-001 1.357329e+002
539260098.15025 -4.933423e-001 1.593577e+002 -4.377689e+001 6.916916e+001 -4.355877e+001 6.733356e+001 -1.263295e-001 1.357593e+002
539637599.094 -5.052802e-001 1.590694e+002 -4.369144e+001 6.814979e+001 -4.353940e+001 6.704835e+001 -1.276461e-001 1.357352e+002
540015100.03775 -5.143265e-001 1.588081e+002 -4.363531e+001 6.822660e+001 -4.344515e+001 6.618884e+001 -1.356476e-001 1.357021e+002
540392600.9815 -5.274516e-001 1.585000e+002 -4.342475e+001 6.786663e+001 -4.321074e+001 6.543228e+001 -1.332424e-001 1.356460e+002
540770101.92525 -5.396038e-001 1.581588e+002 -4.327787e+001 6.781918e+001 -4.312687e+001 6.525102e+001 -1.311622e-001 1.356540e+002
541147602.86901 -5.525606e-001 1.578689e+002 -4.313681e+001 6.654366e+001 -4.300471e+001 6.477396e+001 -1.323751e-001 1.356388e+002
541525103.81276 -5.649414e-001 1.575620e+002 -4.301809e+001 6.624664e+001 -4.291429e+001 6.382146e+001 -1.351779e-001 1.355906e+002
541902604.75651 -5.797951e-001 1.572678e+002 -4.288944e+001 6.538702e+001 -4.272311e+001 6.329050e+001 -1.318803e-001 1.356125e+002
542280105.70026 -5.955950e-001 1.569492e+002 -4.265235e+001 6.499464e+001 -4.263960e+001 6.287127e+001 -1.350521e-001 1.355241e+002
542657606.64402 -6.041439e-001 1.566744e+002 -4.247209e+001 6.460136e+001 -4.252798e+001 6.220941e+001 -1.328538e-001 1.354996e+002
543035107.58777 -6.235361e-001 1.563984e+002 -4.242471e+001 6.373688e+001 -4.242911e+001 6.144440e+001 -1.364819e-001 1.354781e+002
543412608.53152 -6.392657e-001 1.560575e+002 -4.236190e+001 6.291172e+001 -4.224472e+001 6.111464e+001 -1.345507e-001 1.354333e+002
543790109.47527 -6.553771e-001 1.557549e+002 -4.219473e+001 6.230193e+001 -4.213479e+001 6.019874e+001 -1.323851e-001 1.354167e+002
544167610.41903 -6.697379e-001 1.554919e+002 -4.195005e+001 6.200747e+001 -4.204827e+001 6.023331e+001 -1.323774e-001 1.354078e+002
544545111.36278 -6.869197e-001 1.551542e+002 -4.185467e+001 6.105900e+001 -4.184543e+001 5.948821e+001 -1.327839e-001 1.353678e+002
544922612.30653 -6.974477e-001 1.548444e+002 -4.174842e+001 6.027206e+001 -4.178821e+001 5.843726e+001 -1.336497e-001 1.352968e+002
545300113.25028 -7.127462e-001 1.545377e+002 -4.155297e+001 5.965240e+001 -4.160271e+001 5.774871e+001 -1.330357e-001 1.352943e+002
545677614.19404 -7.303195e-001 1.542340e+002 -4.134248e+001 5.875177e+001 -4.152557e+001 5.742165e+001 -1.310797e-001 1.352777e+002
546055115.13779 -7.439406e-001 1.539241e+002 -4.139531e+001 5.771344e+001 -4.135265e+001 5.661937e+001 -1.311807e-001 1.352363e+002
546432616.08154 -7.632693e-001 1.536256e+002 -4.120289e+001 5.668433e+001 -4.123627e+001 5.609185e+001 -1.319278e-001 1.351698e+002
546810117.02529 -7.785598e-001 1.533155e+002 -4.101865e+001 5.645058e+001 -4.104056e+001 5.500546e+001 -1.309786e-001 1.351892e+002
547187617.96904 -7.995182e-001 1.530153e+002 -4.092098e+001 5.517981e+001 -4.097636e+001 5.461105e+001 -1.327930e-001 1.351757e+002
547565118.9128 -8.131936e-001 1.526913e+002 -4.074981e+001 5.437943e+001 -4.076072e+001 5.354585e+001 -1.303443e-001 1.351719e+002
547942619.85655 -8.319679e-001 1.523867e+002 -4.059548e+001 5.362021e+001 -4.070859e+001 5.298320e+001 -1.314393e-001 1.351701e+002
548320120.8003 -8.507667e-001 1.520738e+002 -4.055005e+001 5.307450e+001 -4.048573e+001 5.222623e+001 -1.308908e-001 1.351569e+002
548697621.74405 -8.733969e-001 1.517619e+002 -4.039177e+001 5.158694e+001 -4.037344e+001 5.155119e+001 -1.348390e-001 1.351522e+002
549075122.68781 -8.915280e-001 1.515016e+002 -4.030587e+001 5.095981e+001 -4.019388e+001 5.040697e+001 -1.371650e-001 1.351376e+002
549452623.63156 -9.131948e-001 1.511951e+002 -4.013357e+001 4.999340e+001 -4.007595e+001 4.941574e+001 -1.380338e-001 1.351281e+002
549830124.57531 -9.343617e-001 1.508975e+002 -4.008662e+001 4.937326e+001 -3.993776e+001 4.875689e+001 -1.369334e-001 1.351333e+002
550207625.51906 -9.554797e-001 1.505951e+002 -3.995506e+001 4.788790e+001 -3.983364e+001 4.787922e+001 -1.408346e-001 1.351121e+002
550585126.46282 -9.788761e-001 1.502477e+002 -3.990938e+001 4.712666e+001 -3.973858e+001 4.701425e+001 -1.403746e-001 1.351085e+002
550962627.40657 -9.989523e-001 1.499646e+002 -3.970872e+001 4.623343e+001 -3.959657e+001 4.613697e+001 -1.476898e-001 1.351167e+002
551340128.35032 -1.024100e+000 1.496559e+002 -3.966283e+001 4.538589e+001 -3.940736e+001 4.542434e+001 -1.440187e-001 1.351475e+002
551717629.29407 -1.049934e+000 1.493303e+002 -3.955050e+001 4.466378e+001 -3.927050e+001 4.434138e+001 -1.481300e-001 1.351483e+002
552095130.23783 -1.077249e+000 1.490710e+002 -3.948116e+001 4.352594e+001 -3.913618e+001 4.352145e+001 -1.501885e-001 1.351411e+002
552472631.18158 -1.103055e+000 1.487701e+002 -3.933954e+001 4.263288e+001 -3.903241e+001 4.250095e+001 -1.515481e-001 1.351340e+002
552850132.12533 -1.132109e+000 1.485217e+002 -3.922637e+001 4.189178e+001 -3.892635e+001 4.150611e+001 -1.534911e-001 1.351451e+002
553227633.06908 -1.161648e+000 1.481640e+002 -3.913514e+001 4.087193e+001 -3.879774e+001 4.080223e+001 -1.561290e-001 1.351495e+002
553605134.01284 -1.188594e+000 1.479240e+002 -3.907327e+001 4.049519e+001 -3.862643e+001 3.972335e+001 -1.617414e-001 1.351177e+002
553982634.95659 -1.224547e+000 1.476343e+002 -3.894620e+001 3.915274e+001 -3.851296e+001 3.907818e+001 -1.625804e-001 1.351074e+002
554360135.90034 -1.261269e+000 1.473062e+002 -3.880112e+001 3.838192e+001 -3.838831e+001 3.781898e+001 -1.621772e-001 1.350854e+002
554737636.84409 -1.295223e+000 1.470460e+002 -3.876711e+001 3.765497e+001 -3.828404e+001 3.678434e+001 -1.653703e-001 1.350877e+002
555115137.78784 -1.333322e+000 1.467291e+002 -3.859082e+001 3.661236e+001 -3.812707e+001 3.599799e+001 -1.670473e-001 1.350737e+002
555492638.7316 -1.370158e+000 1.464278e+002 -3.844321e+001 3.569007e+001 -3.804544e+001 3.502313e+001 -1.681896e-001 1.350362e+002
555870139.67535 -1.406917e+000 1.462158e+002 -3.832473e+001 3.479118e+001 -3.791840e+001 3.381195e+001 -1.727457e-001 1.350160e+002
