!Agilent Technologies,E8364B,US42250235,A.06.04.32
!Agilent E8364B: A.06.04.32
!Date: Thursday, October 01, 2020 13:23:55
!Correction: S11(Full 2 Port(1,2)) S21(Full 2 Port(1,2)) S12(Full 2 Port(1,2)) S22(Full 2 Port(1,2)) 
!S2P File: Measurements: S11, S21, S12, S22:
# Hz S  dB   R 50
500000000 -2.199198e-001 -1.751498e+002 -6.162813e+001 1.844156e+001 -6.236074e+001 1.002876e+001 -2.287778e-001 1.361947e+002
500377500.94375 -2.220170e-001 -1.752951e+002 -6.246050e+001 1.785272e+001 -6.312010e+001 1.184536e+001 -2.269753e-001 1.360875e+002
500755001.8875 -2.252321e-001 -1.755607e+002 -6.268769e+001 1.581280e+001 -6.259043e+001 8.064916e+000 -2.300844e-001 1.359821e+002
501132502.83126 -2.297181e-001 -1.757412e+002 -6.283538e+001 1.029887e+001 -6.270975e+001 1.260620e+001 -2.243346e-001 1.358810e+002
501510003.77501 -2.348578e-001 -1.759437e+002 -6.231239e+001 1.136935e+001 -6.250222e+001 6.342521e+000 -2.227329e-001 1.357751e+002
501887504.71876 -2.439720e-001 -1.761176e+002 -6.246665e+001 1.402094e+001 -6.254026e+001 6.344205e+000 -2.211652e-001 1.356888e+002
502265005.66251 -2.435237e-001 -1.763364e+002 -6.248557e+001 1.516280e+001 -6.298323e+001 -8.619715e-002 -2.186725e-001 1.356272e+002
502642506.60627 -2.497129e-001 -1.765519e+002 -6.125535e+001 1.621757e+001 -6.196229e+001 6.318592e+000 -2.167935e-001 1.355734e+002
503020007.55002 -2.489738e-001 -1.767446e+002 -6.136879e+001 1.406740e+001 -6.210542e+001 7.645018e+000 -2.098303e-001 1.355054e+002
503397508.49377 -2.544870e-001 -1.769604e+002 -6.202493e+001 5.294703e+000 -6.346834e+001 1.289530e+000 -2.070788e-001 1.354564e+002
503775009.43752 -2.575717e-001 -1.771082e+002 -6.167207e+001 5.172806e+000 -6.221777e+001 -4.781981e-001 -1.997286e-001 1.354092e+002
504152510.38128 -2.612006e-001 -1.773752e+002 -6.206070e+001 2.727111e+000 -6.270834e+001 -1.794810e+000 -1.980457e-001 1.353874e+002
504530011.32503 -2.658956e-001 -1.775298e+002 -6.182295e+001 3.463827e+000 -6.136162e+001 -2.165069e+000 -1.927558e-001 1.353689e+002
504907512.26878 -2.699127e-001 -1.777761e+002 -6.152513e+001 9.569845e+000 -6.236145e+001 -3.099425e-001 -1.876913e-001 1.353686e+002
505285013.21253 -2.666594e-001 -1.779962e+002 -6.238819e+001 3.046392e+000 -6.170695e+001 -2.019886e-001 -1.826260e-001 1.353741e+002
505662514.15629 -2.724020e-001 -1.781339e+002 -6.229391e+001 6.208779e+000 -6.183416e+001 -2.457245e+000 -1.780463e-001 1.353577e+002
506040015.10004 -2.721218e-001 -1.783993e+002 -6.272236e+001 -8.888479e-001 -6.251757e+001 3.367083e+000 -1.720261e-001 1.354183e+002
506417516.04379 -2.745640e-001 -1.785463e+002 -6.154210e+001 -6.305657e-001 -6.320353e+001 -9.981961e+000 -1.629677e-001 1.354597e+002
506795016.98754 -2.744513e-001 -1.788246e+002 -6.203538e+001 -4.229879e-001 -6.217832e+001 -7.169472e+000 -1.588103e-001 1.355154e+002
507172517.93129 -2.743300e-001 -1.789888e+002 -6.147975e+001 1.205607e+000 -6.193007e+001 -3.886855e+000 -1.547589e-001 1.355853e+002
507550018.87505 -2.767272e-001 -1.792445e+002 -6.207196e+001 -1.086201e+000 -6.237709e+001 -6.326471e+000 -1.485684e-001 1.356309e+002
507927519.8188 -2.772892e-001 -1.793961e+002 -6.178251e+001 1.272526e+000 -6.152209e+001 -9.566189e+000 -1.445429e-001 1.357490e+002
508305020.76255 -2.805264e-001 -1.795567e+002 -6.211506e+001 1.162345e-001 -6.153608e+001 -4.295610e+000 -1.385863e-001 1.358461e+002
508682521.7063 -2.780031e-001 -1.797808e+002 -6.211539e+001 -6.988491e+000 -6.164670e+001 -7.013245e+000 -1.333910e-001 1.359592e+002
509060022.65006 -2.784120e-001 -1.799953e+002 -6.099539e+001 1.407546e+000 -6.146536e+001 -3.734115e+000 -1.313339e-001 1.360673e+002
509437523.59381 -2.806175e-001 1.798595e+002 -6.166198e+001 -2.854770e+000 -6.142535e+001 -1.012471e+001 -1.241886e-001 1.361964e+002
509815024.53756 -2.787205e-001 1.796251e+002 -6.201205e+001 -6.079068e+000 -6.105333e+001 -1.218258e+001 -1.246536e-001 1.363375e+002
510192525.48131 -2.781686e-001 1.794201e+002 -6.147467e+001 -2.725526e+000 -6.164556e+001 -1.109396e+001 -1.189956e-001 1.364639e+002
510570026.42507 -2.752687e-001 1.792326e+002 -6.143912e+001 -8.452191e+000 -6.134962e+001 -8.388310e+000 -1.196393e-001 1.366485e+002
510947527.36882 -2.817564e-001 1.790003e+002 -6.171940e+001 -2.505823e+000 -6.119667e+001 -1.210404e+001 -1.148513e-001 1.367780e+002
511325028.31257 -2.765830e-001 1.788155e+002 -6.147278e+001 -7.231128e+000 -6.257922e+001 -7.959312e+000 -1.126760e-001 1.369390e+002
511702529.25632 -2.815772e-001 1.786803e+002 -6.133450e+001 -1.077881e+001 -6.201509e+001 -1.926957e+001 -1.150400e-001 1.371082e+002
512080030.20008 -2.806744e-001 1.784675e+002 -6.152061e+001 -4.239841e+000 -6.079368e+001 -1.798026e+001 -1.139782e-001 1.372681e+002
512457531.14383 -2.850970e-001 1.781921e+002 -6.221855e+001 -8.303027e+000 -6.132674e+001 -1.506492e+001 -1.114419e-001 1.374106e+002
512835032.08758 -2.866586e-001 1.780481e+002 -6.047398e+001 -8.637813e+000 -6.161547e+001 -1.512664e+001 -1.150116e-001 1.375607e+002
513212533.03133 -2.916543e-001 1.778639e+002 -6.132410e+001 -7.998319e+000 -6.181353e+001 -2.076615e+001 -1.199181e-001 1.377215e+002
513590033.97508 -2.899632e-001 1.776705e+002 -6.132526e+001 -1.273248e+001 -6.135445e+001 -1.567799e+001 -1.227323e-001 1.378750e+002
513967534.91884 -2.958434e-001 1.774229e+002 -6.095100e+001 -1.154654e+001 -6.068550e+001 -1.945275e+001 -1.256390e-001 1.380019e+002
514345035.86259 -2.962351e-001 1.772072e+002 -6.042864e+001 -1.057900e+001 -6.102393e+001 -1.253480e+001 -1.292120e-001 1.381352e+002
514722536.80634 -3.020748e-001 1.770244e+002 -6.083202e+001 -1.275313e+001 -6.081498e+001 -2.213601e+001 -1.332154e-001 1.382526e+002
515100037.75009 -3.049630e-001 1.767900e+002 -6.048053e+001 -9.209497e+000 -6.120351e+001 -1.744522e+001 -1.372406e-001 1.383551e+002
515477538.69385 -3.083258e-001 1.766159e+002 -6.105181e+001 -1.526496e+001 -6.067518e+001 -2.281857e+001 -1.431013e-001 1.384654e+002
515855039.6376 -3.098708e-001 1.763740e+002 -6.073318e+001 -1.330210e+001 -6.044869e+001 -1.901179e+001 -1.536246e-001 1.385314e+002
516232540.58135 -3.120897e-001 1.761488e+002 -6.093812e+001 -1.227098e+001 -6.006377e+001 -2.120997e+001 -1.543876e-001 1.385883e+002
516610041.5251 -3.149447e-001 1.759507e+002 -6.009128e+001 -1.983302e+001 -6.075560e+001 -1.953428e+001 -1.644642e-001 1.386445e+002
516987542.46886 -3.236909e-001 1.757315e+002 -6.077363e+001 -1.584872e+001 -6.065147e+001 -2.713138e+001 -1.705756e-001 1.386717e+002
517365043.41261 -3.220042e-001 1.755124e+002 -6.063872e+001 -1.949669e+001 -6.014649e+001 -2.890890e+001 -1.782427e-001 1.386774e+002
517742544.35636 -3.293800e-001 1.753340e+002 -5.966159e+001 -1.664783e+001 -6.065364e+001 -3.130194e+001 -1.863214e-001 1.386717e+002
518120045.30011 -3.332447e-001 1.750607e+002 -5.980135e+001 -2.382005e+001 -6.033191e+001 -2.508388e+001 -1.909502e-001 1.386491e+002
518497546.24387 -3.408918e-001 1.748308e+002 -5.966904e+001 -2.334432e+001 -6.054795e+001 -2.787577e+001 -1.974788e-001 1.386060e+002
518875047.18762 -3.425576e-001 1.746359e+002 -5.954237e+001 -2.638186e+001 -6.009833e+001 -2.792443e+001 -2.063835e-001 1.385605e+002
519252548.13137 -3.429779e-001 1.743928e+002 -5.980597e+001 -2.551550e+001 -5.947091e+001 -2.874877e+001 -2.088221e-001 1.385164e+002
519630049.07512 -3.455960e-001 1.741673e+002 -5.939980e+001 -2.362037e+001 -5.949542e+001 -2.901327e+001 -2.173156e-001 1.383897e+002
520007550.01888 -3.508797e-001 1.739334e+002 -5.959215e+001 -3.218286e+001 -5.937957e+001 -3.141455e+001 -2.225825e-001 1.382892e+002
520385050.96263 -3.522899e-001 1.736997e+002 -5.899892e+001 -2.740508e+001 -5.982986e+001 -3.477262e+001 -2.281825e-001 1.381607e+002
520762551.90638 -3.573494e-001 1.734578e+002 -5.832048e+001 -3.531311e+001 -5.929104e+001 -3.317994e+001 -2.314585e-001 1.380265e+002
521140052.85013 -3.578210e-001 1.732464e+002 -5.894149e+001 -3.171494e+001 -5.963178e+001 -3.763374e+001 -2.401423e-001 1.378630e+002
521517553.79388 -3.635310e-001 1.730400e+002 -5.872767e+001 -3.022537e+001 -5.963839e+001 -3.735491e+001 -2.422146e-001 1.377258e+002
521895054.73764 -3.626664e-001 1.727849e+002 -5.917698e+001 -3.633958e+001 -5.938273e+001 -3.852611e+001 -2.454153e-001 1.375587e+002
522272555.68139 -3.639235e-001 1.725404e+002 -5.940324e+001 -3.546886e+001 -5.904478e+001 -4.157355e+001 -2.480458e-001 1.373928e+002
522650056.62514 -3.692626e-001 1.723204e+002 -5.878680e+001 -3.785720e+001 -5.882238e+001 -4.277195e+001 -2.461514e-001 1.372292e+002
523027557.56889 -3.669134e-001 1.720698e+002 -5.868639e+001 -3.919941e+001 -5.936493e+001 -4.074473e+001 -2.516131e-001 1.370108e+002
523405058.51265 -3.723316e-001 1.718640e+002 -5.919939e+001 -4.384275e+001 -5.910181e+001 -4.501604e+001 -2.525864e-001 1.368259e+002
523782559.4564 -3.721605e-001 1.715955e+002 -5.858029e+001 -4.304959e+001 -5.889862e+001 -4.739963e+001 -2.523045e-001 1.366286e+002
524160060.40015 -3.726099e-001 1.713656e+002 -5.919683e+001 -4.085602e+001 -5.914927e+001 -4.844468e+001 -2.509442e-001 1.364419e+002
524537561.3439 -3.745532e-001 1.711399e+002 -5.971190e+001 -4.629012e+001 -5.853775e+001 -4.890632e+001 -2.482950e-001 1.363096e+002
524915062.28766 -3.763843e-001 1.708793e+002 -5.935097e+001 -4.668282e+001 -5.947013e+001 -5.199119e+001 -2.488905e-001 1.360712e+002
525292563.23141 -3.774972e-001 1.706449e+002 -5.921423e+001 -4.107605e+001 -5.895017e+001 -4.887856e+001 -2.456110e-001 1.359081e+002
525670064.17516 -3.819461e-001 1.703958e+002 -5.915157e+001 -4.649845e+001 -5.931012e+001 -5.104039e+001 -2.399435e-001 1.357287e+002
526047565.11891 -3.880146e-001 1.701830e+002 -5.903824e+001 -4.712849e+001 -5.926546e+001 -5.478547e+001 -2.375561e-001 1.355961e+002
526425066.06267 -3.894708e-001 1.699571e+002 -5.932052e+001 -4.459002e+001 -5.974368e+001 -5.388266e+001 -2.321865e-001 1.354551e+002
526802567.00642 -3.926993e-001 1.697284e+002 -5.988210e+001 -4.829754e+001 -5.983965e+001 -5.563256e+001 -2.291689e-001 1.353201e+002
527180067.95017 -3.989112e-001 1.694516e+002 -5.958464e+001 -5.098866e+001 -5.918675e+001 -5.275240e+001 -2.230568e-001 1.351691e+002
527557568.89392 -4.013738e-001 1.692208e+002 -5.955360e+001 -5.051399e+001 -5.934708e+001 -5.768354e+001 -2.130711e-001 1.349895e+002
527935069.83767 -4.060045e-001 1.689616e+002 -5.957442e+001 -5.085111e+001 -5.904363e+001 -6.067632e+001 -2.154903e-001 1.349282e+002
528312570.78143 -4.127790e-001 1.687179e+002 -5.958225e+001 -5.169648e+001 -5.897545e+001 -5.876285e+001 -2.057691e-001 1.349023e+002
528690071.72518 -4.175638e-001 1.684953e+002 -5.951979e+001 -5.134933e+001 -5.952654e+001 -5.618830e+001 -2.017753e-001 1.347424e+002
529067572.66893 -4.229773e-001 1.682954e+002 -6.007055e+001 -5.450251e+001 -5.887462e+001 -5.740126e+001 -1.948066e-001 1.346741e+002
529445073.61268 -4.264064e-001 1.680290e+002 -5.910021e+001 -5.475312e+001 -5.937497e+001 -6.180747e+001 -1.929829e-001 1.346069e+002
529822574.55644 -4.333690e-001 1.677955e+002 -5.972878e+001 -5.463852e+001 -5.929297e+001 -5.894959e+001 -1.868166e-001 1.345635e+002
530200075.50019 -4.354490e-001 1.675865e+002 -5.955052e+001 -5.348453e+001 -5.909468e+001 -6.282420e+001 -1.833132e-001 1.345007e+002
530577576.44394 -4.422675e-001 1.673797e+002 -5.942746e+001 -5.415211e+001 -6.017320e+001 -6.398722e+001 -1.789422e-001 1.344713e+002
530955077.38769 -4.480050e-001 1.671618e+002 -5.959638e+001 -5.240366e+001 -5.946656e+001 -6.296273e+001 -1.718753e-001 1.344135e+002
531332578.33145 -4.525194e-001 1.668885e+002 -5.943000e+001 -4.989129e+001 -5.923902e+001 -5.891988e+001 -1.724666e-001 1.344238e+002
531710079.2752 -4.588890e-001 1.666619e+002 -5.946073e+001 -5.833683e+001 -5.928742e+001 -6.290844e+001 -1.660333e-001 1.343664e+002
532087580.21895 -4.618816e-001 1.663979e+002 -5.913773e+001 -5.527111e+001 -5.883899e+001 -6.156622e+001 -1.603871e-001 1.343814e+002
532465081.1627 -4.671875e-001 1.662039e+002 -5.916285e+001 -5.877347e+001 -5.883032e+001 -6.389465e+001 -1.627920e-001 1.343596e+002
532842582.10646 -4.682993e-001 1.659993e+002 -5.922139e+001 -5.510369e+001 -5.904794e+001 -6.013674e+001 -1.557729e-001 1.343397e+002
533220083.05021 -4.776823e-001 1.657283e+002 -5.947672e+001 -5.791369e+001 -5.902785e+001 -5.888379e+001 -1.502175e-001 1.343528e+002
533597583.99396 -4.837867e-001 1.655017e+002 -5.985033e+001 -5.847332e+001 -5.973050e+001 -6.712344e+001 -1.533964e-001 1.343250e+002
533975084.93771 -4.896563e-001 1.653036e+002 -5.932067e+001 -5.598658e+001 -5.906962e+001 -6.567403e+001 -1.462172e-001 1.343534e+002
534352585.88146 -4.953581e-001 1.650318e+002 -5.888974e+001 -5.619267e+001 -5.874381e+001 -6.498192e+001 -1.428928e-001 1.343282e+002
534730086.82522 -5.001803e-001 1.648297e+002 -5.930886e+001 -5.952663e+001 -5.890287e+001 -6.805882e+001 -1.476582e-001 1.343325e+002
535107587.76897 -5.028278e-001 1.645765e+002 -5.905195e+001 -6.140411e+001 -5.861865e+001 -6.585578e+001 -1.409000e-001 1.343813e+002
535485088.71272 -5.077238e-001 1.644052e+002 -5.885980e+001 -5.835897e+001 -5.910995e+001 -6.882975e+001 -1.463395e-001 1.343259e+002
535862589.65647 -5.144072e-001 1.641549e+002 -5.914469e+001 -5.487587e+001 -5.905676e+001 -6.489014e+001 -1.440864e-001 1.343494e+002
536240090.60023 -5.143376e-001 1.638808e+002 -5.893069e+001 -5.811708e+001 -5.878288e+001 -6.587383e+001 -1.445622e-001 1.343328e+002
536617591.54398 -5.214240e-001 1.636966e+002 -5.893700e+001 -6.061285e+001 -5.829691e+001 -6.757085e+001 -1.437997e-001 1.343518e+002
536995092.48773 -5.249541e-001 1.634050e+002 -5.840762e+001 -6.204332e+001 -5.874006e+001 -6.798981e+001 -1.444863e-001 1.343924e+002
537372593.43148 -5.326793e-001 1.631807e+002 -5.878663e+001 -6.115210e+001 -5.818076e+001 -6.878819e+001 -1.463618e-001 1.343507e+002
537750094.37524 -5.402940e-001 1.629669e+002 -5.835735e+001 -6.256327e+001 -5.867433e+001 -6.857301e+001 -1.497601e-001 1.343416e+002
538127595.31899 -5.429071e-001 1.626492e+002 -5.824519e+001 -6.025922e+001 -5.781033e+001 -6.914107e+001 -1.497482e-001 1.343306e+002
538505096.26274 -5.514531e-001 1.624143e+002 -5.803432e+001 -6.322554e+001 -5.798565e+001 -6.847999e+001 -1.510363e-001 1.343702e+002
538882597.20649 -5.562928e-001 1.621981e+002 -5.771825e+001 -6.702787e+001 -5.784851e+001 -7.345180e+001 -1.478140e-001 1.343389e+002
539260098.15025 -5.651918e-001 1.620051e+002 -5.850219e+001 -6.349758e+001 -5.743032e+001 -7.311528e+001 -1.507882e-001 1.343318e+002
539637599.094 -5.722130e-001 1.617450e+002 -5.782226e+001 -6.449837e+001 -5.762809e+001 -7.184734e+001 -1.500465e-001 1.343343e+002
540015100.03775 -5.813904e-001 1.615014e+002 -5.752576e+001 -6.678083e+001 -5.763416e+001 -7.244857e+001 -1.559169e-001 1.343258e+002
540392600.9815 -5.868654e-001 1.612398e+002 -5.775319e+001 -6.614404e+001 -5.763502e+001 -7.499646e+001 -1.524020e-001 1.343090e+002
540770101.92525 -5.890256e-001 1.610274e+002 -5.768965e+001 -6.523602e+001 -5.761414e+001 -7.824661e+001 -1.517627e-001 1.343132e+002
541147602.86901 -5.967571e-001 1.607341e+002 -5.734978e+001 -7.147169e+001 -5.757945e+001 -7.740961e+001 -1.494706e-001 1.343209e+002
541525103.81276 -6.075796e-001 1.605965e+002 -5.759183e+001 -6.765204e+001 -5.754264e+001 -8.174939e+001 -1.510393e-001 1.343143e+002
541902604.75651 -6.075824e-001 1.603090e+002 -5.742437e+001 -7.508501e+001 -5.731781e+001 -8.023631e+001 -1.476095e-001 1.343533e+002
542280105.70026 -6.149158e-001 1.600393e+002 -5.686391e+001 -7.418134e+001 -5.707748e+001 -7.994471e+001 -1.477412e-001 1.343154e+002
542657606.64402 -6.231257e-001 1.598687e+002 -5.724916e+001 -7.277579e+001 -5.697628e+001 -8.114440e+001 -1.506748e-001 1.343374e+002
543035107.58777 -6.245719e-001 1.595838e+002 -5.709993e+001 -7.146490e+001 -5.735730e+001 -8.154038e+001 -1.506776e-001 1.343274e+002
543412608.53152 -6.335254e-001 1.593882e+002 -5.692524e+001 -7.540523e+001 -5.695849e+001 -8.319204e+001 -1.500195e-001 1.343522e+002
543790109.47527 -6.401491e-001 1.590969e+002 -5.702938e+001 -7.655044e+001 -5.684624e+001 -8.415611e+001 -1.482761e-001 1.343654e+002
544167610.41903 -6.375205e-001 1.588525e+002 -5.660658e+001 -7.404311e+001 -5.716585e+001 -8.407204e+001 -1.461877e-001 1.343971e+002
544545111.36278 -6.474575e-001 1.585481e+002 -5.690659e+001 -7.484991e+001 -5.708363e+001 -8.215884e+001 -1.479082e-001 1.343652e+002
544922612.30653 -6.488714e-001 1.583763e+002 -5.662257e+001 -7.678454e+001 -5.699645e+001 -8.348366e+001 -1.506726e-001 1.343575e+002
545300113.25028 -6.533659e-001 1.581085e+002 -5.659612e+001 -7.734934e+001 -5.708409e+001 -8.796920e+001 -1.488554e-001 1.343812e+002
545677614.19404 -6.569468e-001 1.578038e+002 -5.657955e+001 -7.895222e+001 -5.679227e+001 -8.829375e+001 -1.501330e-001 1.343953e+002
546055115.13779 -6.593635e-001 1.575491e+002 -5.632872e+001 -8.275090e+001 -5.640039e+001 -8.617520e+001 -1.494825e-001 1.344017e+002
546432616.08154 -6.671184e-001 1.572929e+002 -5.639251e+001 -8.107652e+001 -5.674355e+001 -9.014444e+001 -1.502463e-001 1.344099e+002
546810117.02529 -6.696066e-001 1.570623e+002 -5.664918e+001 -7.921198e+001 -5.646656e+001 -8.659858e+001 -1.495799e-001 1.344121e+002
547187617.96904 -6.804600e-001 1.567379e+002 -5.588973e+001 -8.172625e+001 -5.639599e+001 -9.013583e+001 -1.526415e-001 1.344100e+002
547565118.9128 -6.814055e-001 1.564151e+002 -5.630128e+001 -8.098965e+001 -5.613085e+001 -9.001126e+001 -1.512146e-001 1.344263e+002
547942619.85655 -6.888695e-001 1.561850e+002 -5.574604e+001 -8.525742e+001 -5.610949e+001 -8.968246e+001 -1.547824e-001 1.344325e+002
548320120.8003 -6.947995e-001 1.559214e+002 -5.617887e+001 -8.395499e+001 -5.602121e+001 -9.035497e+001 -1.585042e-001 1.344449e+002
548697621.74405 -7.045370e-001 1.556517e+002 -5.645161e+001 -8.658585e+001 -5.588731e+001 -9.102965e+001 -1.614022e-001 1.344571e+002
549075122.68781 -7.111105e-001 1.554008e+002 -5.568298e+001 -8.623470e+001 -5.620863e+001 -9.140308e+001 -1.648023e-001 1.344408e+002
549452623.63156 -7.179456e-001 1.551358e+002 -5.545158e+001 -8.808350e+001 -5.582861e+001 -9.444994e+001 -1.654230e-001 1.344243e+002
549830124.57531 -7.278195e-001 1.548697e+002 -5.548010e+001 -8.734869e+001 -5.579026e+001 -9.456351e+001 -1.656475e-001 1.344472e+002
550207625.51906 -7.324865e-001 1.546306e+002 -5.540997e+001 -9.037436e+001 -5.542571e+001 -9.536625e+001 -1.729690e-001 1.344363e+002
550585126.46282 -7.399361e-001 1.543741e+002 -5.515462e+001 -8.874452e+001 -5.580178e+001 -9.413425e+001 -1.734198e-001 1.344139e+002
550962627.40657 -7.490357e-001 1.541034e+002 -5.509511e+001 -8.966340e+001 -5.525609e+001 -9.825759e+001 -1.804746e-001 1.343993e+002
551340128.35032 -7.563318e-001 1.538562e+002 -5.523353e+001 -9.385326e+001 -5.551161e+001 -9.570770e+001 -1.793396e-001 1.344029e+002
551717629.29407 -7.645533e-001 1.535734e+002 -5.462353e+001 -9.025539e+001 -5.523462e+001 -9.698678e+001 -1.840118e-001 1.343897e+002
552095130.23783 -7.737328e-001 1.533411e+002 -5.527845e+001 -9.396743e+001 -5.501147e+001 -9.997942e+001 -1.899343e-001 1.343800e+002
552472631.18158 -7.819148e-001 1.530639e+002 -5.460133e+001 -9.205431e+001 -5.477803e+001 -1.004358e+002 -1.922195e-001 1.343693e+002
552850132.12533 -7.951974e-001 1.527687e+002 -5.473785e+001 -9.941557e+001 -5.467393e+001 -1.017085e+002 -1.915182e-001 1.343347e+002
553227633.06908 -8.055015e-001 1.525148e+002 -5.470401e+001 -1.002082e+002 -5.470569e+001 -1.023931e+002 -2.031546e-001 1.342991e+002
553605134.01284 -8.191266e-001 1.522207e+002 -5.466818e+001 -9.626994e+001 -5.487119e+001 -1.031720e+002 -2.041840e-001 1.342763e+002
553982634.95659 -8.318827e-001 1.519570e+002 -5.442587e+001 -9.844302e+001 -5.436339e+001 -1.044388e+002 -2.071208e-001 1.342260e+002
554360135.90034 -8.450669e-001 1.517089e+002 -5.421191e+001 -1.023958e+002 -5.397559e+001 -1.079019e+002 -2.078588e-001 1.341948e+002
554737636.84409 -8.589314e-001 1.514292e+002 -5.462342e+001 -1.008654e+002 -5.449843e+001 -1.071575e+002 -2.124721e-001 1.341673e+002
555115137.78784 -8.726448e-001 1.512188e+002 -5.448734e+001 -1.014974e+002 -5.383099e+001 -1.103263e+002 -2.131737e-001 1.341145e+002
