!Agilent Technologies,E8364B,US42250235,A.06.04.32
!Agilent E8364B: A.06.04.32
!Date: Friday, January 15, 2021 11:10:42
!Correction: S11(Full 2 Port(1,2)) S21(Full 2 Port(1,2)) S12(Full 2 Port(1,2)) S22(Full 2 Port(1,2)) 
!S2P File: Measurements: S11, S21, S12, S22:
# Hz S  dB   R 50
500000000 -7.472248e-002 -1.289402e+002 -6.084503e+001 1.065601e+002 -6.123858e+001 1.131154e+002 -1.354302e-001 1.380062e+002
500625000 -8.037259e-002 -1.292229e+002 -6.266281e+001 1.178698e+002 -6.216822e+001 1.017804e+002 -1.426341e-001 1.380191e+002
501250000 -9.184033e-002 -1.295223e+002 -6.131694e+001 1.169059e+002 -6.047152e+001 1.129264e+002 -1.329401e-001 1.380027e+002
501875000 -7.542317e-002 -1.298157e+002 -5.835287e+001 1.057556e+002 -6.244012e+001 1.117943e+002 -1.226483e-001 1.379402e+002
502500000 -7.708760e-002 -1.301006e+002 -6.029263e+001 1.065033e+002 -6.026968e+001 1.128612e+002 -1.343210e-001 1.379238e+002
503125000 -9.447239e-002 -1.304410e+002 -6.023267e+001 1.121987e+002 -6.026046e+001 1.076449e+002 -1.310510e-001 1.379129e+002
503750000 -9.284268e-002 -1.307356e+002 -5.978512e+001 1.106060e+002 -6.086871e+001 1.147819e+002 -1.350852e-001 1.378077e+002
504375000 -1.061664e-001 -1.310539e+002 -5.996268e+001 1.022862e+002 -5.994424e+001 1.023759e+002 -1.541447e-001 1.377746e+002
505000000 -1.162643e-001 -1.313371e+002 -6.104296e+001 1.096830e+002 -6.192561e+001 1.137074e+002 -1.487797e-001 1.377516e+002
505625000 -1.122194e-001 -1.315929e+002 -6.344299e+001 1.077734e+002 -6.062273e+001 1.063121e+002 -1.457547e-001 1.376638e+002
506250000 -1.131749e-001 -1.319010e+002 -5.834390e+001 1.052444e+002 -6.088763e+001 1.071085e+002 -1.515417e-001 1.375778e+002
506875000 -1.187239e-001 -1.322346e+002 -6.139445e+001 1.121046e+002 -6.065309e+001 1.009626e+002 -1.440830e-001 1.374467e+002
507500000 -1.212016e-001 -1.324915e+002 -6.093684e+001 1.032336e+002 -5.947165e+001 9.616572e+001 -1.442051e-001 1.373447e+002
508125000 -1.290837e-001 -1.328150e+002 -5.804490e+001 1.065528e+002 -5.825111e+001 8.477386e+001 -1.481621e-001 1.372605e+002
508750000 -1.313558e-001 -1.330128e+002 -5.917709e+001 9.996601e+001 -5.842820e+001 1.108443e+002 -1.514081e-001 1.372046e+002
509375000 -1.393919e-001 -1.333757e+002 -5.969341e+001 1.006534e+002 -5.941405e+001 9.762250e+001 -1.446939e-001 1.371281e+002
510000000 -1.420146e-001 -1.337385e+002 -6.061864e+001 1.016873e+002 -6.036184e+001 9.896925e+001 -1.474777e-001 1.370737e+002
510625000 -1.476628e-001 -1.339701e+002 -5.861094e+001 8.288021e+001 -5.954078e+001 1.043192e+002 -1.337180e-001 1.370244e+002
511250000 -1.551255e-001 -1.342663e+002 -5.751687e+001 9.642907e+001 -5.957590e+001 1.052275e+002 -1.472763e-001 1.369091e+002
511875000 -1.539518e-001 -1.346024e+002 -5.778053e+001 9.489584e+001 -5.691513e+001 1.055385e+002 -1.419634e-001 1.368082e+002
512500000 -1.504838e-001 -1.348889e+002 -5.834894e+001 8.893890e+001 -5.769055e+001 1.022742e+002 -1.408158e-001 1.367426e+002
513125000 -1.692753e-001 -1.352590e+002 -5.813567e+001 9.738093e+001 -5.924349e+001 9.114812e+001 -1.319460e-001 1.368162e+002
513750000 -1.709869e-001 -1.355112e+002 -5.759155e+001 8.425368e+001 -5.843482e+001 9.764846e+001 -1.475294e-001 1.367154e+002
514375000 -1.740904e-001 -1.358789e+002 -5.804182e+001 8.650297e+001 -5.739182e+001 9.539287e+001 -1.382123e-001 1.365971e+002
515000000 -1.748445e-001 -1.361098e+002 -5.741248e+001 9.763503e+001 -5.874686e+001 1.010301e+002 -1.384144e-001 1.366281e+002
515625000 -1.795995e-001 -1.365642e+002 -5.753717e+001 8.853975e+001 -5.706047e+001 1.020802e+002 -1.390099e-001 1.365735e+002
516250000 -1.828906e-001 -1.368201e+002 -5.750398e+001 8.640936e+001 -5.947958e+001 9.003046e+001 -1.467367e-001 1.365069e+002
516875000 -1.973394e-001 -1.372287e+002 -5.901326e+001 8.568797e+001 -5.785563e+001 8.271962e+001 -1.410858e-001 1.365632e+002
517500000 -1.969321e-001 -1.375101e+002 -5.846935e+001 7.985088e+001 -5.621659e+001 9.348188e+001 -1.506823e-001 1.364614e+002
518125000 -2.011977e-001 -1.379080e+002 -5.709172e+001 9.015697e+001 -5.744509e+001 8.646899e+001 -1.465388e-001 1.363593e+002
518750000 -2.205130e-001 -1.382291e+002 -5.639759e+001 8.744782e+001 -5.707460e+001 9.012104e+001 -1.543698e-001 1.363521e+002
519375000 -2.361438e-001 -1.385173e+002 -5.549277e+001 8.939836e+001 -5.699994e+001 8.575652e+001 -1.400059e-001 1.362349e+002
520000000 -2.426805e-001 -1.388693e+002 -5.552598e+001 8.768597e+001 -5.556100e+001 7.974326e+001 -1.540311e-001 1.361476e+002
520625000 -2.532769e-001 -1.392556e+002 -5.710080e+001 8.346478e+001 -5.645096e+001 8.417465e+001 -1.416119e-001 1.360097e+002
521250000 -2.658693e-001 -1.395357e+002 -5.605845e+001 7.900788e+001 -5.671015e+001 8.626990e+001 -1.439672e-001 1.359736e+002
521875000 -2.733110e-001 -1.399191e+002 -5.636968e+001 8.596320e+001 -5.620379e+001 8.442088e+001 -1.455048e-001 1.359083e+002
522500000 -2.846293e-001 -1.402137e+002 -5.467733e+001 8.132732e+001 -5.618622e+001 8.573061e+001 -1.399070e-001 1.357712e+002
523125000 -3.114180e-001 -1.405499e+002 -5.568488e+001 7.704282e+001 -5.645942e+001 8.149692e+001 -1.436769e-001 1.357621e+002
523750000 -3.127201e-001 -1.408496e+002 -5.621775e+001 7.958657e+001 -5.492738e+001 8.054953e+001 -1.420321e-001 1.356920e+002
524375000 -3.361939e-001 -1.412148e+002 -5.450480e+001 8.627579e+001 -5.579274e+001 7.896565e+001 -1.374358e-001 1.355689e+002
525000000 -3.323840e-001 -1.415580e+002 -5.481417e+001 7.935709e+001 -5.582390e+001 7.966543e+001 -1.448614e-001 1.355305e+002
525625000 -3.539354e-001 -1.418445e+002 -5.376229e+001 7.443591e+001 -5.466829e+001 7.625265e+001 -1.533581e-001 1.354650e+002
526250000 -3.583227e-001 -1.421638e+002 -5.466316e+001 8.107687e+001 -5.507561e+001 7.934336e+001 -1.478415e-001 1.353479e+002
526875000 -3.782760e-001 -1.425224e+002 -5.444041e+001 7.592007e+001 -5.486794e+001 7.412906e+001 -1.401396e-001 1.353242e+002
527500000 -3.842673e-001 -1.428561e+002 -5.447775e+001 7.381041e+001 -5.523642e+001 6.852399e+001 -1.434299e-001 1.353236e+002
528125000 -4.125093e-001 -1.431757e+002 -5.424590e+001 7.703943e+001 -5.441563e+001 7.093633e+001 -1.427558e-001 1.353082e+002
528750000 -4.107300e-001 -1.435098e+002 -5.354076e+001 7.235085e+001 -5.469112e+001 7.691164e+001 -1.409401e-001 1.352952e+002
529375000 -4.283510e-001 -1.438295e+002 -5.429448e+001 7.160233e+001 -5.388125e+001 7.223966e+001 -1.443871e-001 1.352164e+002
530000000 -4.374664e-001 -1.442339e+002 -5.348835e+001 6.959347e+001 -5.383225e+001 7.027904e+001 -1.407767e-001 1.352162e+002
530625000 -4.579866e-001 -1.445496e+002 -5.406413e+001 7.012994e+001 -5.394684e+001 7.271608e+001 -1.406079e-001 1.351912e+002
531250000 -4.723095e-001 -1.449035e+002 -5.374018e+001 6.228138e+001 -5.380711e+001 6.884835e+001 -1.366824e-001 1.351926e+002
531875000 -5.008314e-001 -1.452274e+002 -5.294116e+001 6.950608e+001 -5.374894e+001 6.555495e+001 -1.392770e-001 1.352001e+002
532500000 -5.137674e-001 -1.455071e+002 -5.347615e+001 6.439200e+001 -5.318668e+001 6.743199e+001 -1.387442e-001 1.351779e+002
533125000 -5.270334e-001 -1.458336e+002 -5.307107e+001 5.879302e+001 -5.332106e+001 6.349505e+001 -1.427125e-001 1.351462e+002
533750000 -5.438997e-001 -1.461612e+002 -5.314157e+001 6.237937e+001 -5.335930e+001 6.284531e+001 -1.481625e-001 1.351031e+002
534375000 -5.572259e-001 -1.464703e+002 -5.353096e+001 6.302522e+001 -5.312089e+001 6.494585e+001 -1.367406e-001 1.351133e+002
535000000 -5.782720e-001 -1.467772e+002 -5.262908e+001 6.334762e+001 -5.258727e+001 6.202817e+001 -1.410453e-001 1.350452e+002
535625000 -5.875569e-001 -1.470761e+002 -5.276067e+001 6.130523e+001 -5.266195e+001 5.569066e+001 -1.408932e-001 1.350694e+002
536250000 -6.079378e-001 -1.474105e+002 -5.241008e+001 6.018948e+001 -5.275789e+001 5.778210e+001 -1.412426e-001 1.349990e+002
536875000 -6.238419e-001 -1.477583e+002 -5.199444e+001 5.581071e+001 -5.139653e+001 5.534442e+001 -1.437746e-001 1.349926e+002
537500000 -6.390741e-001 -1.479953e+002 -5.167535e+001 6.461131e+001 -5.229720e+001 5.826249e+001 -1.386282e-001 1.349790e+002
538125000 -6.504929e-001 -1.483746e+002 -5.168105e+001 5.461300e+001 -5.157010e+001 5.443057e+001 -1.502880e-001 1.349541e+002
538750000 -6.791287e-001 -1.486833e+002 -5.100950e+001 5.294513e+001 -5.245760e+001 5.743799e+001 -1.480787e-001 1.348639e+002
539375000 -6.996760e-001 -1.489901e+002 -5.166181e+001 5.249653e+001 -5.142178e+001 5.458300e+001 -1.498612e-001 1.347907e+002
540000000 -7.144671e-001 -1.493037e+002 -5.101258e+001 5.327378e+001 -5.121096e+001 5.178622e+001 -1.550475e-001 1.347494e+002
540625000 -7.357889e-001 -1.496658e+002 -5.112347e+001 4.888137e+001 -5.135353e+001 5.473045e+001 -1.522637e-001 1.346764e+002
541250000 -7.492930e-001 -1.499453e+002 -5.069466e+001 4.956928e+001 -5.036049e+001 4.817750e+001 -1.592391e-001 1.345771e+002
541875000 -7.726465e-001 -1.503046e+002 -5.041901e+001 4.512545e+001 -5.136362e+001 5.470194e+001 -1.748817e-001 1.344012e+002
542500000 -7.952408e-001 -1.505723e+002 -5.035566e+001 4.997483e+001 -5.050204e+001 4.696722e+001 -1.560617e-001 1.343320e+002
543125000 -8.145643e-001 -1.509662e+002 -5.077397e+001 4.331576e+001 -5.041567e+001 4.627193e+001 -1.570260e-001 1.342131e+002
543750000 -8.420470e-001 -1.512589e+002 -5.023373e+001 4.990980e+001 -4.994678e+001 4.643642e+001 -1.692110e-001 1.341516e+002
544375000 -8.710721e-001 -1.515456e+002 -5.006498e+001 4.051732e+001 -5.060543e+001 4.314939e+001 -1.691926e-001 1.339677e+002
545000000 -8.853377e-001 -1.518683e+002 -5.034415e+001 4.027065e+001 -5.031370e+001 3.908990e+001 -1.655704e-001 1.339008e+002
545625000 -9.136218e-001 -1.521557e+002 -4.937700e+001 3.746930e+001 -4.999580e+001 3.674731e+001 -1.625035e-001 1.338490e+002
546250000 -9.451153e-001 -1.524232e+002 -4.945982e+001 3.636966e+001 -4.968122e+001 3.859707e+001 -1.742477e-001 1.336328e+002
546875000 -9.620072e-001 -1.527756e+002 -5.004308e+001 3.637094e+001 -4.969545e+001 3.357905e+001 -1.652560e-001 1.336398e+002
547500000 -9.857815e-001 -1.530218e+002 -4.882831e+001 3.221844e+001 -4.927633e+001 3.155834e+001 -1.612950e-001 1.334644e+002
548125000 -1.011257e+000 -1.533060e+002 -4.955927e+001 3.484865e+001 -4.905785e+001 3.225440e+001 -1.580947e-001 1.333996e+002
548750000 -1.037687e+000 -1.535885e+002 -4.887625e+001 3.134213e+001 -4.945725e+001 3.322443e+001 -1.580611e-001 1.333648e+002
549375000 -1.066782e+000 -1.538469e+002 -4.911923e+001 2.715554e+001 -4.916102e+001 2.934192e+001 -1.617410e-001 1.331235e+002
550000000 -1.085538e+000 -1.540685e+002 -4.873896e+001 2.901179e+001 -4.901271e+001 2.960316e+001 -1.558243e-001 1.331863e+002
550625000 -1.110243e+000 -1.543049e+002 -4.884820e+001 2.335553e+001 -4.886382e+001 2.699057e+001 -1.448063e-001 1.331177e+002
551250000 -1.124950e+000 -1.545633e+002 -4.916527e+001 2.307070e+001 -4.830738e+001 2.248202e+001 -1.476481e-001 1.331220e+002
551875000 -1.139047e+000 -1.547971e+002 -4.867970e+001 2.113061e+001 -4.888999e+001 2.088555e+001 -1.412626e-001 1.330386e+002
552500000 -1.160437e+000 -1.550462e+002 -4.837246e+001 2.065846e+001 -4.860774e+001 2.228842e+001 -1.476975e-001 1.330679e+002
553125000 -1.172707e+000 -1.552494e+002 -4.878267e+001 1.866066e+001 -4.857618e+001 1.853228e+001 -1.394926e-001 1.330958e+002
553750000 -1.195673e+000 -1.555415e+002 -4.881590e+001 1.723891e+001 -4.837160e+001 1.862965e+001 -1.418962e-001 1.330100e+002
554375000 -1.207917e+000 -1.557457e+002 -4.849758e+001 1.526919e+001 -4.839907e+001 1.853139e+001 -1.444858e-001 1.330559e+002
555000000 -1.225746e+000 -1.560230e+002 -4.841805e+001 1.489254e+001 -4.843750e+001 1.733614e+001 -1.463318e-001 1.330589e+002
555625000 -1.256222e+000 -1.561476e+002 -4.801408e+001 1.503134e+001 -4.827872e+001 1.389107e+001 -1.376165e-001 1.330550e+002
556250000 -1.271445e+000 -1.564832e+002 -4.861872e+001 1.241613e+001 -4.792762e+001 1.321818e+001 -1.520510e-001 1.329448e+002
556875000 -1.272240e+000 -1.566274e+002 -4.798819e+001 9.349034e+000 -4.788863e+001 1.275313e+001 -1.548342e-001 1.330113e+002
557500000 -1.300482e+000 -1.567824e+002 -4.764007e+001 7.453003e+000 -4.819213e+001 1.196738e+001 -1.498947e-001 1.329411e+002
558125000 -1.311492e+000 -1.569762e+002 -4.787423e+001 9.428267e+000 -4.798978e+001 5.492766e+000 -1.552079e-001 1.328840e+002
558750000 -1.311635e+000 -1.572056e+002 -4.767023e+001 2.791160e+000 -4.774757e+001 3.826611e+000 -1.541060e-001 1.328439e+002
559375000 -1.333140e+000 -1.574344e+002 -4.767039e+001 3.022003e+000 -4.802236e+001 6.372191e+000 -1.582499e-001 1.327716e+002
560000000 -1.341185e+000 -1.576398e+002 -4.828622e+001 4.981570e+000 -4.763697e+001 6.749819e+000 -1.567313e-001 1.326792e+002
560625000 -1.348697e+000 -1.578202e+002 -4.772203e+001 5.069317e+000 -4.781565e+001 4.117300e+000 -1.582230e-001 1.326269e+002
561250000 -1.351902e+000 -1.580405e+002 -4.728910e+001 1.254025e+000 -4.729152e+001 8.541007e-001 -1.541468e-001 1.325479e+002
561875000 -1.354742e+000 -1.582979e+002 -4.741342e+001 3.889007e+000 -4.774406e+001 2.032358e+000 -1.619761e-001 1.325277e+002
562500000 -1.363850e+000 -1.585226e+002 -4.791273e+001 -2.918051e+000 -4.743782e+001 -1.757807e+000 -1.696260e-001 1.324315e+002
563125000 -1.355003e+000 -1.587179e+002 -4.750499e+001 -8.403967e-001 -4.813289e+001 -8.056934e-001 -1.509524e-001 1.323476e+002
563750000 -1.361200e+000 -1.590057e+002 -4.739729e+001 -4.803574e+000 -4.778012e+001 -3.593952e+000 -1.516060e-001 1.322765e+002
564375000 -1.372947e+000 -1.592363e+002 -4.729349e+001 -6.792529e+000 -4.737107e+001 -4.072841e+000 -1.571803e-001 1.322358e+002
565000000 -1.362507e+000 -1.595650e+002 -4.693135e+001 -6.404149e+000 -4.729527e+001 -4.300355e+000 -1.621531e-001 1.321388e+002
565625000 -1.370047e+000 -1.598212e+002 -4.691447e+001 -8.923708e+000 -4.730585e+001 -3.452118e+000 -1.618039e-001 1.321235e+002
566250000 -1.379483e+000 -1.601568e+002 -4.736989e+001 -7.478239e+000 -4.685621e+001 -8.620455e+000 -1.565423e-001 1.320346e+002
566875000 -1.397234e+000 -1.604894e+002 -4.673499e+001 -8.855853e+000 -4.671189e+001 -7.765234e+000 -1.578202e-001 1.319223e+002
567500000 -1.403782e+000 -1.608353e+002 -4.751836e+001 -1.219785e+001 -4.670021e+001 -9.052774e+000 -1.495083e-001 1.318716e+002
568125000 -1.425541e+000 -1.610451e+002 -4.705256e+001 -1.345513e+001 -4.679719e+001 -1.184607e+001 -1.600125e-001 1.318036e+002
568750000 -1.434391e+000 -1.613039e+002 -4.634950e+001 -1.186747e+001 -4.659134e+001 -1.629696e+001 -1.587912e-001 1.317454e+002
569375000 -1.440230e+000 -1.615735e+002 -4.624518e+001 -1.513176e+001 -4.689393e+001 -1.444661e+001 -1.547014e-001 1.317164e+002
570000000 -1.448520e+000 -1.618968e+002 -4.636684e+001 -1.791240e+001 -4.619010e+001 -1.864688e+001 -1.720759e-001 1.315731e+002
570625000 -1.454801e+000 -1.620673e+002 -4.606928e+001 -1.965683e+001 -4.621253e+001 -1.819491e+001 -1.590314e-001 1.315264e+002
571250000 -1.458801e+000 -1.623871e+002 -4.604679e+001 -2.018420e+001 -4.672249e+001 -2.062782e+001 -1.691400e-001 1.314947e+002
571875000 -1.459981e+000 -1.626470e+002 -4.611378e+001 -2.393046e+001 -4.598994e+001 -2.194330e+001 -1.637861e-001 1.314083e+002
572500000 -1.469850e+000 -1.629200e+002 -4.612246e+001 -2.305504e+001 -4.600614e+001 -2.159392e+001 -1.698597e-001 1.312321e+002
573125000 -1.461154e+000 -1.631482e+002 -4.609317e+001 -2.160938e+001 -4.591050e+001 -2.629730e+001 -1.581247e-001 1.312201e+002
573750000 -1.458870e+000 -1.635056e+002 -4.611870e+001 -2.726984e+001 -4.596325e+001 -2.627274e+001 -1.727750e-001 1.310712e+002
574375000 -1.456173e+000 -1.637427e+002 -4.556937e+001 -2.840631e+001 -4.653997e+001 -2.507126e+001 -1.692220e-001 1.310474e+002
575000000 -1.453701e+000 -1.640504e+002 -4.609537e+001 -3.106618e+001 -4.622468e+001 -2.826999e+001 -1.730724e-001 1.308692e+002
575625000 -1.441768e+000 -1.643796e+002 -4.599514e+001 -3.052601e+001 -4.577780e+001 -3.060616e+001 -1.698726e-001 1.308094e+002
576250000 -1.434594e+000 -1.647301e+002 -4.609328e+001 -3.159344e+001 -4.596882e+001 -3.154288e+001 -1.703682e-001 1.306913e+002
576875000 -1.427650e+000 -1.651049e+002 -4.621116e+001 -3.292917e+001 -4.611539e+001 -3.028381e+001 -1.704726e-001 1.306585e+002
577500000 -1.436233e+000 -1.654415e+002 -4.569499e+001 -3.380453e+001 -4.582342e+001 -3.227226e+001 -1.622866e-001 1.305728e+002
578125000 -1.434496e+000 -1.658333e+002 -4.571301e+001 -3.829773e+001 -4.560960e+001 -3.457309e+001 -1.628958e-001 1.305790e+002
578750000 -1.430921e+000 -1.661595e+002 -4.604387e+001 -3.731865e+001 -4.561704e+001 -3.501337e+001 -1.519481e-001 1.304600e+002
579375000 -1.427519e+000 -1.664545e+002 -4.510373e+001 -3.737996e+001 -4.557325e+001 -3.784982e+001 -1.526474e-001 1.304163e+002
580000000 -1.424770e+000 -1.667692e+002 -4.524855e+001 -4.140720e+001 -4.548721e+001 -3.842400e+001 -1.512444e-001 1.303924e+002
580625000 -1.424818e+000 -1.671342e+002 -4.549605e+001 -4.113874e+001 -4.546289e+001 -4.076073e+001 -1.410397e-001 1.303999e+002
581250000 -1.418767e+000 -1.674957e+002 -4.539230e+001 -4.286789e+001 -4.509985e+001 -4.279084e+001 -1.422224e-001 1.304122e+002
581875000 -1.420382e+000 -1.678219e+002 -4.564043e+001 -4.593989e+001 -4.533131e+001 -4.470621e+001 -1.460778e-001 1.303657e+002
582500000 -1.407829e+000 -1.681702e+002 -4.512716e+001 -4.694704e+001 -4.549828e+001 -4.277859e+001 -1.356104e-001 1.303960e+002
583125000 -1.396585e+000 -1.686681e+002 -4.538292e+001 -4.767783e+001 -4.540052e+001 -4.714485e+001 -1.627370e-001 1.303387e+002
583750000 -1.403560e+000 -1.690358e+002 -4.551397e+001 -4.834858e+001 -4.542251e+001 -4.731895e+001 -1.609280e-001 1.303366e+002
584375000 -1.404471e+000 -1.694474e+002 -4.533666e+001 -4.968005e+001 -4.548184e+001 -4.864681e+001 -1.514279e-001 1.303392e+002
585000000 -1.398046e+000 -1.698746e+002 -4.548014e+001 -5.069767e+001 -4.563006e+001 -4.931162e+001 -1.577223e-001 1.302965e+002
585625000 -1.409552e+000 -1.702396e+002 -4.513490e+001 -4.992194e+001 -4.509055e+001 -5.230680e+001 -1.503674e-001 1.302796e+002
586250000 -1.401596e+000 -1.706974e+002 -4.521299e+001 -5.308883e+001 -4.534935e+001 -5.178693e+001 -1.529036e-001 1.303298e+002
586875000 -1.392322e+000 -1.711279e+002 -4.539914e+001 -5.314568e+001 -4.535892e+001 -5.252949e+001 -1.581020e-001 1.302017e+002
587500000 -1.407267e+000 -1.715706e+002 -4.533619e+001 -5.435015e+001 -4.531086e+001 -5.194997e+001 -1.600657e-001 1.300495e+002
588125000 -1.402636e+000 -1.720007e+002 -4.541380e+001 -5.629135e+001 -4.486769e+001 -5.268368e+001 -1.705066e-001 1.300687e+002
588750000 -1.400168e+000 -1.724241e+002 -4.512357e+001 -5.906856e+001 -4.473789e+001 -5.583562e+001 -1.673484e-001 1.299991e+002
589375000 -1.408571e+000 -1.729104e+002 -4.525925e+001 -5.708255e+001 -4.503991e+001 -5.477682e+001 -1.580364e-001 1.298511e+002
590000000 -1.416738e+000 -1.733730e+002 -4.485663e+001 -5.830269e+001 -4.497078e+001 -5.605386e+001 -1.663295e-001 1.297957e+002
590625000 -1.422433e+000 -1.738121e+002 -4.469706e+001 -5.805746e+001 -4.474741e+001 -5.803984e+001 -1.699924e-001 1.296848e+002
591250000 -1.424105e+000 -1.742627e+002 -4.477391e+001 -6.069025e+001 -4.491079e+001 -5.803284e+001 -1.725463e-001 1.295827e+002
591875000 -1.443860e+000 -1.746470e+002 -4.484576e+001 -6.066429e+001 -4.478350e+001 -6.005651e+001 -1.656147e-001 1.295177e+002
592500000 -1.453853e+000 -1.751381e+002 -4.451618e+001 -6.365339e+001 -4.431079e+001 -6.246748e+001 -1.641653e-001 1.294965e+002
593125000 -1.466901e+000 -1.755505e+002 -4.472352e+001 -6.208956e+001 -4.448400e+001 -6.310619e+001 -1.672736e-001 1.294237e+002
593750000 -1.471937e+000 -1.760040e+002 -4.427919e+001 -6.455612e+001 -4.466565e+001 -6.568200e+001 -1.539573e-001 1.293544e+002
594375000 -1.469576e+000 -1.763887e+002 -4.455186e+001 -6.506490e+001 -4.436716e+001 -6.549441e+001 -1.505412e-001 1.293350e+002
595000000 -1.474465e+000 -1.768546e+002 -4.426936e+001 -6.729575e+001 -4.433950e+001 -6.785780e+001 -1.587529e-001 1.293255e+002
595625000 -1.472830e+000 -1.773378e+002 -4.390366e+001 -6.943030e+001 -4.404805e+001 -6.867290e+001 -1.599630e-001 1.292594e+002
