!Agilent Technologies,E8364B,US42250235,A.06.04.32
!Agilent E8364B: A.06.04.32
!Date: Friday, January 15, 2021 12:32:51
!Correction: S11(Full 2 Port(1,2)) S21(Full 2 Port(1,2)) S12(Full 2 Port(1,2)) S22(Full 2 Port(1,2)) 
!S2P File: Measurements: S11, S21, S12, S22:
# Hz S  dB   R 50
500000000 -9.390294e-002 -1.288875e+002 -6.262866e+001 -1.367613e+001 -6.374871e+001 -2.550566e+001 -1.538748e-001 1.384333e+002
500625000 -9.447525e-002 -1.291814e+002 -6.861687e+001 -4.088299e+001 -6.444208e+001 -1.622622e+001 -1.531531e-001 1.383686e+002
501250000 -9.831879e-002 -1.294667e+002 -6.551514e+001 -2.087347e+001 -6.750616e+001 -4.302242e+001 -1.502584e-001 1.383333e+002
501875000 -9.873229e-002 -1.297546e+002 -6.723280e+001 -2.959529e+001 -6.487595e+001 -2.603224e+001 -1.441813e-001 1.382888e+002
502500000 -9.883744e-002 -1.299795e+002 -6.613421e+001 -2.905858e+001 -6.552060e+001 -2.952776e+001 -1.528349e-001 1.382624e+002
503125000 -1.100236e-001 -1.303405e+002 -6.739335e+001 -3.779887e+001 -6.549416e+001 -2.053390e+001 -1.579873e-001 1.381076e+002
503750000 -1.101375e-001 -1.305657e+002 -6.549294e+001 -2.017336e+001 -6.438380e+001 -5.460109e+001 -1.624340e-001 1.380785e+002
504375000 -1.230575e-001 -1.308667e+002 -6.114907e+001 -3.023025e+001 -6.452418e+001 -4.706710e+001 -1.732823e-001 1.379959e+002
505000000 -1.310498e-001 -1.311635e+002 -6.254847e+001 -3.091884e+001 -6.428304e+001 -3.181377e+001 -1.670153e-001 1.380303e+002
505625000 -1.263585e-001 -1.314166e+002 -6.565955e+001 -4.797250e+001 -6.519849e+001 -4.139257e+001 -1.585137e-001 1.379192e+002
506250000 -1.367225e-001 -1.317448e+002 -6.461579e+001 -3.743470e+001 -6.415627e+001 -4.896397e+001 -1.648405e-001 1.378229e+002
506875000 -1.280871e-001 -1.320190e+002 -6.435082e+001 -4.999475e+001 -6.470493e+001 -4.266804e+001 -1.657941e-001 1.377581e+002
507500000 -1.339527e-001 -1.322983e+002 -6.442146e+001 -2.407774e+001 -6.442149e+001 -2.613277e+001 -1.632574e-001 1.376121e+002
508125000 -1.373115e-001 -1.326320e+002 -6.107469e+001 -5.918728e+001 -6.675443e+001 -4.053231e+001 -1.551524e-001 1.375957e+002
508750000 -1.362732e-001 -1.328788e+002 -6.542282e+001 -5.619079e+001 -6.170919e+001 -4.359662e+001 -1.629684e-001 1.375545e+002
509375000 -1.444758e-001 -1.332610e+002 -6.461687e+001 -5.370356e+001 -6.342014e+001 -6.507614e+001 -1.550799e-001 1.375125e+002
510000000 -1.423619e-001 -1.335783e+002 -6.348081e+001 -4.992318e+001 -6.433501e+001 -5.478645e+001 -1.618735e-001 1.374174e+002
510625000 -1.505799e-001 -1.338363e+002 -6.082686e+001 -4.369778e+001 -6.272195e+001 -4.786484e+001 -1.541096e-001 1.374812e+002
511250000 -1.535054e-001 -1.341367e+002 -6.454066e+001 -4.895528e+001 -6.357937e+001 -4.541681e+001 -1.618939e-001 1.373094e+002
511875000 -1.502747e-001 -1.344937e+002 -6.330389e+001 -5.129980e+001 -6.172169e+001 -5.288140e+001 -1.520494e-001 1.373069e+002
512500000 -1.584431e-001 -1.347789e+002 -6.204378e+001 -4.413398e+001 -6.418312e+001 -6.526639e+001 -1.615211e-001 1.372005e+002
513125000 -1.656148e-001 -1.350839e+002 -6.351557e+001 -6.266865e+001 -6.500692e+001 -5.663771e+001 -1.622588e-001 1.372366e+002
513750000 -1.699196e-001 -1.353606e+002 -6.694585e+001 -7.631104e+001 -6.058731e+001 -7.379453e+001 -1.685166e-001 1.372094e+002
514375000 -1.738650e-001 -1.356972e+002 -6.356477e+001 -6.508788e+001 -6.339622e+001 -4.880652e+001 -1.523751e-001 1.370776e+002
515000000 -1.710038e-001 -1.360116e+002 -6.464781e+001 -6.520060e+001 -6.315710e+001 -5.944735e+001 -1.576111e-001 1.370064e+002
515625000 -1.839773e-001 -1.364134e+002 -6.257932e+001 -6.188436e+001 -6.370094e+001 -5.860216e+001 -1.539696e-001 1.369386e+002
516250000 -1.788500e-001 -1.366737e+002 -6.257751e+001 -5.626495e+001 -6.082231e+001 -6.527956e+001 -1.696559e-001 1.368310e+002
516875000 -1.972838e-001 -1.369839e+002 -6.451597e+001 -5.941791e+001 -6.695643e+001 -5.958045e+001 -1.652228e-001 1.368599e+002
517500000 -1.922497e-001 -1.372973e+002 -6.010391e+001 -7.473771e+001 -6.209972e+001 -6.710706e+001 -1.726995e-001 1.366988e+002
518125000 -1.933531e-001 -1.376748e+002 -6.400564e+001 -7.776181e+001 -6.237135e+001 -6.016838e+001 -1.781855e-001 1.365588e+002
518750000 -2.119060e-001 -1.379989e+002 -6.124932e+001 -6.733163e+001 -6.244468e+001 -6.893005e+001 -1.725996e-001 1.364821e+002
519375000 -2.161290e-001 -1.382314e+002 -6.276151e+001 -7.640073e+001 -5.994032e+001 -6.597129e+001 -1.688773e-001 1.363507e+002
520000000 -2.238100e-001 -1.386186e+002 -6.021500e+001 -7.524682e+001 -6.154604e+001 -6.943865e+001 -1.743100e-001 1.362848e+002
520625000 -2.286385e-001 -1.389451e+002 -6.053662e+001 -6.190351e+001 -6.341710e+001 -6.702593e+001 -1.682440e-001 1.361298e+002
521250000 -2.367930e-001 -1.392673e+002 -6.317012e+001 -7.005959e+001 -6.420150e+001 -7.717956e+001 -1.655969e-001 1.360510e+002
521875000 -2.462411e-001 -1.395959e+002 -6.229449e+001 -7.493698e+001 -6.378476e+001 -8.431028e+001 -1.611315e-001 1.360302e+002
522500000 -2.570791e-001 -1.399307e+002 -6.101575e+001 -7.300500e+001 -6.169497e+001 -8.203718e+001 -1.658266e-001 1.359193e+002
523125000 -2.662481e-001 -1.402476e+002 -6.127658e+001 -8.820142e+001 -6.229560e+001 -7.822795e+001 -1.601590e-001 1.358855e+002
523750000 -2.740216e-001 -1.405791e+002 -6.249917e+001 -8.080807e+001 -6.129123e+001 -8.392326e+001 -1.617531e-001 1.357888e+002
524375000 -2.996122e-001 -1.408601e+002 -6.137222e+001 -9.826948e+001 -6.026233e+001 -8.249724e+001 -1.522113e-001 1.357051e+002
525000000 -3.028931e-001 -1.411951e+002 -6.000185e+001 -8.739794e+001 -6.201710e+001 -8.010352e+001 -1.632778e-001 1.356859e+002
525625000 -3.154082e-001 -1.414875e+002 -5.995427e+001 -9.434404e+001 -6.198915e+001 -8.779748e+001 -1.652095e-001 1.356210e+002
526250000 -3.139353e-001 -1.417922e+002 -6.027497e+001 -8.702003e+001 -6.350627e+001 -1.026639e+002 -1.568662e-001 1.356035e+002
526875000 -3.238547e-001 -1.421324e+002 -6.326017e+001 -9.636964e+001 -6.187941e+001 -1.008944e+002 -1.516520e-001 1.356151e+002
527500000 -3.392000e-001 -1.424273e+002 -6.133531e+001 -7.868992e+001 -6.065927e+001 -8.259595e+001 -1.555893e-001 1.355813e+002
528125000 -3.559951e-001 -1.427773e+002 -6.072275e+001 -7.807767e+001 -6.026073e+001 -1.011982e+002 -1.560439e-001 1.356504e+002
528750000 -3.524639e-001 -1.430656e+002 -5.929799e+001 -8.831456e+001 -6.138224e+001 -8.195219e+001 -1.529811e-001 1.356733e+002
529375000 -3.669862e-001 -1.434198e+002 -5.956794e+001 -9.096572e+001 -6.291938e+001 -9.878130e+001 -1.608199e-001 1.356031e+002
530000000 -3.747004e-001 -1.437870e+002 -6.284911e+001 -7.892172e+001 -6.031185e+001 -8.776169e+001 -1.664624e-001 1.355544e+002
530625000 -3.911570e-001 -1.440529e+002 -6.111595e+001 -9.507787e+001 -6.247332e+001 -9.993170e+001 -1.554489e-001 1.355539e+002
531250000 -4.026951e-001 -1.444147e+002 -6.049385e+001 -1.115859e+002 -6.358702e+001 -8.934502e+001 -1.540760e-001 1.354953e+002
531875000 -4.161294e-001 -1.447399e+002 -6.478356e+001 -8.058431e+001 -6.256721e+001 -1.034416e+002 -1.625436e-001 1.354709e+002
532500000 -4.240086e-001 -1.449942e+002 -6.024399e+001 -9.505827e+001 -6.261022e+001 -1.119795e+002 -1.582357e-001 1.354328e+002
533125000 -4.320962e-001 -1.453740e+002 -5.895034e+001 -1.137730e+002 -5.966207e+001 -1.174528e+002 -1.705756e-001 1.353960e+002
533750000 -4.385826e-001 -1.457297e+002 -6.227365e+001 -1.162169e+002 -5.933054e+001 -9.557579e+001 -1.775733e-001 1.353561e+002
534375000 -4.474441e-001 -1.460471e+002 -5.991898e+001 -1.061592e+002 -5.996938e+001 -1.161191e+002 -1.595828e-001 1.352797e+002
535000000 -4.628171e-001 -1.463359e+002 -5.974942e+001 -9.685986e+001 -6.008890e+001 -9.818913e+001 -1.736351e-001 1.352517e+002
535625000 -4.726589e-001 -1.466830e+002 -5.847872e+001 -9.608549e+001 -6.080442e+001 -1.096544e+002 -1.537569e-001 1.352439e+002
536250000 -4.838210e-001 -1.470090e+002 -5.819895e+001 -1.097447e+002 -5.950330e+001 -1.068075e+002 -1.577735e-001 1.351156e+002
536875000 -5.011488e-001 -1.473903e+002 -5.858603e+001 -1.148355e+002 -5.918708e+001 -1.094380e+002 -1.692677e-001 1.350876e+002
537500000 -5.065680e-001 -1.476236e+002 -5.938902e+001 -1.140386e+002 -5.889234e+001 -1.044385e+002 -1.566703e-001 1.350887e+002
538125000 -5.102820e-001 -1.480029e+002 -5.799109e+001 -1.117094e+002 -5.954292e+001 -1.154430e+002 -1.628565e-001 1.350706e+002
538750000 -5.344688e-001 -1.483141e+002 -5.889220e+001 -1.119874e+002 -5.944928e+001 -1.086466e+002 -1.667695e-001 1.350276e+002
539375000 -5.389083e-001 -1.486078e+002 -6.023285e+001 -1.145361e+002 -6.231929e+001 -1.307307e+002 -1.605275e-001 1.349914e+002
540000000 -5.487231e-001 -1.489501e+002 -5.870607e+001 -1.185263e+002 -5.879307e+001 -1.343665e+002 -1.605311e-001 1.349134e+002
540625000 -5.639055e-001 -1.493044e+002 -5.890848e+001 -1.133077e+002 -5.840351e+001 -1.264868e+002 -1.636289e-001 1.348837e+002
541250000 -5.653925e-001 -1.495993e+002 -5.857495e+001 -1.209336e+002 -5.937533e+001 -1.338319e+002 -1.535790e-001 1.348649e+002
541875000 -5.881375e-001 -1.499833e+002 -5.965435e+001 -1.217456e+002 -6.019447e+001 -1.239231e+002 -1.743398e-001 1.347399e+002
542500000 -5.955666e-001 -1.503355e+002 -5.836588e+001 -1.216543e+002 -5.916565e+001 -1.276816e+002 -1.691985e-001 1.347663e+002
543125000 -6.021428e-001 -1.506864e+002 -5.919691e+001 -1.282612e+002 -5.807293e+001 -1.326779e+002 -1.716514e-001 1.346388e+002
543750000 -6.219257e-001 -1.510481e+002 -5.796815e+001 -1.268612e+002 -5.860923e+001 -1.301933e+002 -1.702940e-001 1.346074e+002
544375000 -6.419459e-001 -1.514064e+002 -5.763043e+001 -1.305095e+002 -5.861409e+001 -1.279747e+002 -1.656753e-001 1.345466e+002
545000000 -6.548099e-001 -1.517528e+002 -5.555070e+001 -1.262481e+002 -5.914593e+001 -1.315570e+002 -1.645397e-001 1.344782e+002
545625000 -6.668075e-001 -1.520676e+002 -5.823212e+001 -1.293264e+002 -5.883190e+001 -1.400230e+002 -1.806144e-001 1.344460e+002
546250000 -6.942974e-001 -1.523604e+002 -5.688024e+001 -1.274917e+002 -5.857493e+001 -1.380752e+002 -1.795515e-001 1.343287e+002
546875000 -7.127267e-001 -1.527409e+002 -5.770561e+001 -1.306424e+002 -5.850641e+001 -1.314264e+002 -1.838938e-001 1.342695e+002
547500000 -7.269157e-001 -1.530806e+002 -5.664560e+001 -1.259115e+002 -5.775460e+001 -1.348814e+002 -1.799466e-001 1.341687e+002
548125000 -7.514431e-001 -1.533400e+002 -5.629045e+001 -1.363901e+002 -5.803899e+001 -1.387885e+002 -1.789197e-001 1.340313e+002
548750000 -7.684250e-001 -1.536849e+002 -5.719133e+001 -1.414016e+002 -5.643775e+001 -1.426140e+002 -1.801264e-001 1.339507e+002
549375000 -7.920614e-001 -1.539830e+002 -5.767578e+001 -1.386645e+002 -5.710732e+001 -1.413813e+002 -1.806412e-001 1.336764e+002
550000000 -8.040166e-001 -1.542589e+002 -5.610633e+001 -1.429080e+002 -5.734367e+001 -1.595599e+002 -1.857175e-001 1.337611e+002
550625000 -8.229780e-001 -1.544922e+002 -5.610262e+001 -1.455822e+002 -5.646530e+001 -1.584458e+002 -1.756427e-001 1.336353e+002
551250000 -8.237140e-001 -1.547355e+002 -5.759888e+001 -1.513120e+002 -5.650372e+001 -1.412885e+002 -1.693092e-001 1.335645e+002
551875000 -8.445191e-001 -1.549894e+002 -5.603348e+001 -1.560393e+002 -5.553112e+001 -1.600146e+002 -1.705000e-001 1.334760e+002
552500000 -8.441418e-001 -1.552876e+002 -5.682430e+001 -1.459494e+002 -5.555646e+001 -1.493383e+002 -1.685799e-001 1.334412e+002
553125000 -8.401396e-001 -1.555381e+002 -5.673397e+001 -1.528101e+002 -5.801397e+001 -1.670630e+002 -1.741987e-001 1.334101e+002
553750000 -8.603781e-001 -1.558141e+002 -5.610298e+001 -1.608884e+002 -5.616179e+001 -1.615452e+002 -1.678626e-001 1.332747e+002
554375000 -8.572350e-001 -1.561204e+002 -5.618007e+001 -1.629480e+002 -5.659652e+001 -1.644625e+002 -1.677024e-001 1.333428e+002
555000000 -8.641974e-001 -1.564608e+002 -5.596680e+001 -1.700380e+002 -5.812544e+001 -1.686721e+002 -1.677608e-001 1.332937e+002
555625000 -8.845639e-001 -1.567090e+002 -5.628939e+001 -1.667318e+002 -5.747377e+001 -1.549528e+002 -1.498229e-001 1.333177e+002
556250000 -8.935989e-001 -1.571056e+002 -5.637986e+001 -1.616602e+002 -5.680800e+001 -1.680748e+002 -1.663845e-001 1.332908e+002
556875000 -8.969772e-001 -1.574346e+002 -5.648190e+001 -1.686080e+002 -5.865263e+001 -1.653550e+002 -1.647442e-001 1.332519e+002
557500000 -9.144090e-001 -1.576714e+002 -5.692114e+001 -1.664335e+002 -5.823909e+001 -1.719123e+002 -1.665180e-001 1.332366e+002
558125000 -9.128565e-001 -1.579821e+002 -5.552252e+001 -1.649538e+002 -5.703266e+001 -1.651014e+002 -1.722629e-001 1.332562e+002
558750000 -9.146196e-001 -1.582926e+002 -5.619664e+001 -1.721247e+002 -5.790447e+001 -1.664858e+002 -1.640549e-001 1.332118e+002
559375000 -9.314374e-001 -1.586434e+002 -5.660984e+001 -1.687780e+002 -5.732046e+001 -1.718202e+002 -1.661705e-001 1.331944e+002
560000000 -9.397953e-001 -1.589762e+002 -5.514853e+001 -1.627561e+002 -5.710187e+001 -1.637115e+002 -1.611640e-001 1.331179e+002
560625000 -9.447235e-001 -1.593105e+002 -5.506346e+001 -1.688287e+002 -5.647984e+001 -1.738223e+002 -1.662653e-001 1.331139e+002
561250000 -9.585890e-001 -1.597132e+002 -5.645124e+001 -1.757347e+002 -5.649734e+001 -1.732673e+002 -1.681207e-001 1.330687e+002
561875000 -9.632109e-001 -1.600364e+002 -5.478477e+001 -1.743958e+002 -5.637400e+001 -1.723006e+002 -1.677008e-001 1.330474e+002
562500000 -9.796371e-001 -1.603521e+002 -5.561588e+001 -1.746944e+002 -5.609761e+001 -1.798055e+002 -1.754506e-001 1.330193e+002
563125000 -9.760457e-001 -1.606661e+002 -5.500208e+001 -1.726876e+002 -5.556771e+001 1.792386e+002 -1.698387e-001 1.329110e+002
563750000 -9.927641e-001 -1.610535e+002 -5.617284e+001 -1.782387e+002 -5.569703e+001 -1.784738e+002 -1.836430e-001 1.328411e+002
564375000 -1.004711e+000 -1.613748e+002 -5.413143e+001 1.798744e+002 -5.517948e+001 1.776668e+002 -1.846499e-001 1.328066e+002
565000000 -1.004966e+000 -1.618164e+002 -5.455527e+001 1.767302e+002 -5.665435e+001 1.776513e+002 -1.828640e-001 1.326958e+002
565625000 -1.014007e+000 -1.621692e+002 -5.456865e+001 1.754318e+002 -5.689582e+001 1.776481e+002 -1.850806e-001 1.326101e+002
566250000 -1.020144e+000 -1.625836e+002 -5.488150e+001 1.736500e+002 -5.589781e+001 1.698824e+002 -1.879560e-001 1.324875e+002
566875000 -1.039535e+000 -1.629859e+002 -5.563322e+001 1.703540e+002 -5.582059e+001 1.750087e+002 -1.939425e-001 1.323094e+002
567500000 -1.054437e+000 -1.634087e+002 -5.450323e+001 1.729405e+002 -5.652286e+001 1.687967e+002 -1.892736e-001 1.322302e+002
568125000 -1.074828e+000 -1.637139e+002 -5.440011e+001 1.705330e+002 -5.511719e+001 1.672457e+002 -1.943345e-001 1.320829e+002
568750000 -1.083114e+000 -1.641353e+002 -5.367969e+001 1.649278e+002 -5.598249e+001 1.650418e+002 -1.905984e-001 1.319454e+002
569375000 -1.098742e+000 -1.645634e+002 -5.576484e+001 1.701387e+002 -5.591076e+001 1.649788e+002 -1.900879e-001 1.318634e+002
570000000 -1.103652e+000 -1.649531e+002 -5.544417e+001 1.651678e+002 -5.549172e+001 1.589682e+002 -1.890766e-001 1.316656e+002
570625000 -1.121663e+000 -1.653532e+002 -5.421932e+001 1.661401e+002 -5.551339e+001 1.638117e+002 -1.931413e-001 1.315760e+002
571250000 -1.141494e+000 -1.657643e+002 -5.552627e+001 1.608054e+002 -5.544192e+001 1.556310e+002 -1.849186e-001 1.315120e+002
571875000 -1.161867e+000 -1.660877e+002 -5.516369e+001 1.485175e+002 -5.483234e+001 1.593027e+002 -1.799252e-001 1.313687e+002
572500000 -1.185118e+000 -1.664974e+002 -5.532434e+001 1.657469e+002 -5.457259e+001 1.562812e+002 -1.787990e-001 1.312361e+002
573125000 -1.203809e+000 -1.667994e+002 -5.377055e+001 1.583638e+002 -5.553087e+001 1.572916e+002 -1.709328e-001 1.311846e+002
573750000 -1.202405e+000 -1.671655e+002 -5.414144e+001 1.589239e+002 -5.586650e+001 1.514954e+002 -1.853050e-001 1.310583e+002
574375000 -1.215558e+000 -1.674529e+002 -5.453946e+001 1.477568e+002 -5.440552e+001 1.418960e+002 -1.731723e-001 1.310264e+002
575000000 -1.226637e+000 -1.678610e+002 -5.444294e+001 1.513537e+002 -5.475644e+001 1.481022e+002 -1.734999e-001 1.309622e+002
575625000 -1.234655e+000 -1.681926e+002 -5.447149e+001 1.482514e+002 -5.474936e+001 1.447749e+002 -1.743387e-001 1.309278e+002
576250000 -1.242925e+000 -1.686082e+002 -5.334908e+001 1.457781e+002 -5.451402e+001 1.448103e+002 -1.815729e-001 1.308763e+002
576875000 -1.243515e+000 -1.689942e+002 -5.315874e+001 1.426748e+002 -5.574749e+001 1.452253e+002 -1.676364e-001 1.309241e+002
577500000 -1.264007e+000 -1.693836e+002 -5.373119e+001 1.455321e+002 -5.397058e+001 1.417670e+002 -1.654579e-001 1.309021e+002
578125000 -1.267376e+000 -1.697845e+002 -5.324015e+001 1.444206e+002 -5.426441e+001 1.408854e+002 -1.584814e-001 1.309391e+002
578750000 -1.274649e+000 -1.701919e+002 -5.334412e+001 1.384552e+002 -5.456253e+001 1.343077e+002 -1.640856e-001 1.308605e+002
579375000 -1.283349e+000 -1.705132e+002 -5.368581e+001 1.409615e+002 -5.346521e+001 1.467599e+002 -1.557328e-001 1.309124e+002
580000000 -1.287711e+000 -1.709162e+002 -5.288114e+001 1.364447e+002 -5.471546e+001 1.364942e+002 -1.599034e-001 1.309603e+002
580625000 -1.299381e+000 -1.713604e+002 -5.391563e+001 1.316475e+002 -5.422362e+001 1.363620e+002 -1.555721e-001 1.309766e+002
581250000 -1.305014e+000 -1.717811e+002 -5.252106e+001 1.341326e+002 -5.355287e+001 1.377997e+002 -1.612597e-001 1.309699e+002
581875000 -1.315167e+000 -1.722265e+002 -5.359530e+001 1.304030e+002 -5.467252e+001 1.297258e+002 -1.726636e-001 1.309786e+002
582500000 -1.331974e+000 -1.726410e+002 -5.274113e+001 1.362479e+002 -5.345943e+001 1.334989e+002 -1.688492e-001 1.308977e+002
583125000 -1.336220e+000 -1.731859e+002 -5.356746e+001 1.308681e+002 -5.431764e+001 1.262239e+002 -1.837761e-001 1.308058e+002
583750000 -1.351420e+000 -1.737040e+002 -5.255567e+001 1.276040e+002 -5.424369e+001 1.306949e+002 -1.851019e-001 1.307924e+002
584375000 -1.369475e+000 -1.742319e+002 -5.342399e+001 1.321425e+002 -5.443471e+001 1.235370e+002 -1.759007e-001 1.307374e+002
585000000 -1.388027e+000 -1.747192e+002 -5.274247e+001 1.291396e+002 -5.403023e+001 1.251948e+002 -1.950484e-001 1.306222e+002
585625000 -1.418591e+000 -1.751974e+002 -5.317992e+001 1.247027e+002 -5.456512e+001 1.207366e+002 -1.779829e-001 1.305425e+002
586250000 -1.433513e+000 -1.756833e+002 -5.287111e+001 1.191451e+002 -5.468979e+001 1.240436e+002 -1.824318e-001 1.304509e+002
586875000 -1.451632e+000 -1.762039e+002 -5.338208e+001 1.226041e+002 -5.343611e+001 1.208801e+002 -1.868225e-001 1.303465e+002
587500000 -1.482962e+000 -1.766875e+002 -5.236278e+001 1.186630e+002 -5.322836e+001 1.189366e+002 -1.832882e-001 1.301920e+002
588125000 -1.504244e+000 -1.771960e+002 -5.274148e+001 1.150574e+002 -5.330492e+001 1.148121e+002 -1.860310e-001 1.300661e+002
588750000 -1.529721e+000 -1.777077e+002 -5.285106e+001 1.161203e+002 -5.415820e+001 1.149473e+002 -1.920594e-001 1.300040e+002
589375000 -1.546065e+000 -1.782036e+002 -5.342607e+001 1.116166e+002 -5.252654e+001 1.146893e+002 -1.779623e-001 1.298101e+002
590000000 -1.576882e+000 -1.788058e+002 -5.322007e+001 1.138631e+002 -5.353331e+001 1.128702e+002 -1.884299e-001 1.298072e+002
590625000 -1.603282e+000 -1.793172e+002 -5.268216e+001 1.140377e+002 -5.414957e+001 1.093741e+002 -1.772705e-001 1.296489e+002
591250000 -1.639975e+000 -1.798115e+002 -5.258761e+001 1.146791e+002 -5.417322e+001 1.097967e+002 -1.847535e-001 1.296033e+002
591875000 -1.682377e+000 1.796849e+002 -5.313318e+001 1.096648e+002 -5.358308e+001 1.078993e+002 -1.787501e-001 1.295862e+002
592500000 -1.716182e+000 1.791349e+002 -5.253557e+001 1.074815e+002 -5.299283e+001 1.142180e+002 -1.749999e-001 1.296026e+002
593125000 -1.754200e+000 1.786732e+002 -5.226150e+001 1.145359e+002 -5.434426e+001 1.023964e+002 -1.744356e-001 1.295839e+002
593750000 -1.798035e+000 1.781899e+002 -5.252321e+001 1.118278e+002 -5.243687e+001 1.084081e+002 -1.519875e-001 1.296457e+002
594375000 -1.825307e+000 1.777177e+002 -5.211559e+001 1.070474e+002 -5.306842e+001 1.085511e+002 -1.531072e-001 1.296848e+002
595000000 -1.872787e+000 1.772254e+002 -5.178092e+001 1.005029e+002 -5.344160e+001 1.012929e+002 -1.620829e-001 1.296608e+002
