!Agilent Technologies,E8364B,US42250235,A.06.04.32
!Agilent E8364B: A.06.04.32
!Date: Friday, January 15, 2021 11:45:59
!Correction: S11(Full 2 Port(1,2)) S21(Full 2 Port(1,2)) S12(Full 2 Port(1,2)) S22(Full 2 Port(1,2)) 
!S2P File: Measurements: S11, S21, S12, S22:
# Hz S  dB   R 50
500000000 -1.978372e-002 -1.286057e+002 -5.517392e+001 1.297849e+002 -5.550585e+001 1.238386e+002 -1.452122e-001 1.387444e+002
500625000 -2.017222e-002 -1.288316e+002 -5.457232e+001 1.326416e+002 -5.488286e+001 1.307503e+002 -1.383194e-001 1.387693e+002
501250000 -2.024198e-002 -1.291365e+002 -5.519083e+001 1.332521e+002 -5.520402e+001 1.289979e+002 -1.365364e-001 1.387032e+002
501875000 -1.882188e-002 -1.294413e+002 -5.464456e+001 1.334455e+002 -5.507701e+001 1.355668e+002 -1.403724e-001 1.387475e+002
502500000 -2.140010e-002 -1.296958e+002 -5.444257e+001 1.324724e+002 -5.382059e+001 1.297852e+002 -1.353967e-001 1.387944e+002
503125000 -2.840336e-002 -1.300452e+002 -5.442008e+001 1.269917e+002 -5.398245e+001 1.316004e+002 -1.404234e-001 1.386172e+002
503750000 -2.446106e-002 -1.303073e+002 -5.372671e+001 1.219737e+002 -5.411562e+001 1.248743e+002 -1.380041e-001 1.385625e+002
504375000 -3.598971e-002 -1.306147e+002 -5.337564e+001 1.301899e+002 -5.418222e+001 1.277853e+002 -1.480780e-001 1.385911e+002
505000000 -3.898351e-002 -1.309608e+002 -5.393466e+001 1.237926e+002 -5.455532e+001 1.343998e+002 -1.470657e-001 1.385797e+002
505625000 -2.945690e-002 -1.312162e+002 -5.334895e+001 1.274176e+002 -5.369597e+001 1.317557e+002 -1.517700e-001 1.384853e+002
506250000 -3.328691e-002 -1.315450e+002 -5.366526e+001 1.246256e+002 -5.352663e+001 1.286852e+002 -1.532565e-001 1.383252e+002
506875000 -3.228422e-002 -1.318108e+002 -5.334051e+001 1.216258e+002 -5.335168e+001 1.278128e+002 -1.435532e-001 1.382585e+002
507500000 -3.928403e-002 -1.321752e+002 -5.300903e+001 1.321337e+002 -5.293389e+001 1.222379e+002 -1.468238e-001 1.381612e+002
508125000 -4.352642e-002 -1.324400e+002 -5.248534e+001 1.296886e+002 -5.348552e+001 1.265330e+002 -1.496536e-001 1.381180e+002
508750000 -4.057529e-002 -1.327103e+002 -5.316477e+001 1.344838e+002 -5.302980e+001 1.267572e+002 -1.460901e-001 1.379902e+002
509375000 -4.586355e-002 -1.330900e+002 -5.276402e+001 1.240398e+002 -5.299149e+001 1.282658e+002 -1.460486e-001 1.379600e+002
510000000 -4.465334e-002 -1.334172e+002 -5.293905e+001 1.262825e+002 -5.218724e+001 1.251605e+002 -1.507240e-001 1.378371e+002
510625000 -5.047671e-002 -1.336918e+002 -5.288438e+001 1.314001e+002 -5.286322e+001 1.253927e+002 -1.399013e-001 1.378733e+002
511250000 -5.632854e-002 -1.339429e+002 -5.205802e+001 1.211586e+002 -5.276328e+001 1.250477e+002 -1.458991e-001 1.376829e+002
511875000 -5.011646e-002 -1.343046e+002 -5.180764e+001 1.262724e+002 -5.196660e+001 1.233496e+002 -1.424695e-001 1.376567e+002
512500000 -4.963342e-002 -1.346016e+002 -5.231958e+001 1.207202e+002 -5.175510e+001 1.242102e+002 -1.556113e-001 1.375894e+002
513125000 -5.874677e-002 -1.349424e+002 -5.225733e+001 1.228158e+002 -5.190048e+001 1.239658e+002 -1.471252e-001 1.375873e+002
513750000 -6.433774e-002 -1.352375e+002 -5.175544e+001 1.233804e+002 -5.197780e+001 1.218269e+002 -1.537980e-001 1.375406e+002
514375000 -6.230175e-002 -1.355633e+002 -5.129585e+001 1.188777e+002 -5.199360e+001 1.171128e+002 -1.445645e-001 1.374127e+002
515000000 -6.836165e-002 -1.358806e+002 -5.103244e+001 1.135697e+002 -5.140058e+001 1.189668e+002 -1.382461e-001 1.373827e+002
515625000 -7.476156e-002 -1.362399e+002 -5.149959e+001 1.159138e+002 -5.182818e+001 1.204923e+002 -1.403321e-001 1.373088e+002
516250000 -7.580383e-002 -1.365670e+002 -5.146687e+001 1.185401e+002 -5.122704e+001 1.200629e+002 -1.519825e-001 1.372511e+002
516875000 -8.507453e-002 -1.369205e+002 -5.145519e+001 1.184140e+002 -5.162338e+001 1.163862e+002 -1.468929e-001 1.373093e+002
517500000 -8.000103e-002 -1.372434e+002 -5.153199e+001 1.200373e+002 -5.032537e+001 1.132013e+002 -1.462506e-001 1.372024e+002
518125000 -8.465838e-002 -1.376102e+002 -5.127274e+001 1.175347e+002 -5.082326e+001 1.198472e+002 -1.511228e-001 1.371559e+002
518750000 -8.888108e-002 -1.379425e+002 -5.048141e+001 1.127372e+002 -5.058687e+001 1.214394e+002 -1.520334e-001 1.370885e+002
519375000 -9.949888e-002 -1.382480e+002 -5.088366e+001 1.137507e+002 -5.086750e+001 1.195546e+002 -1.439718e-001 1.370279e+002
520000000 -1.066426e-001 -1.386242e+002 -5.071120e+001 1.179711e+002 -5.082399e+001 1.152917e+002 -1.496260e-001 1.369857e+002
520625000 -1.025587e-001 -1.389572e+002 -5.023199e+001 1.143318e+002 -5.055913e+001 1.143077e+002 -1.475195e-001 1.368089e+002
521250000 -1.102943e-001 -1.393377e+002 -4.979768e+001 1.170323e+002 -5.049487e+001 1.144093e+002 -1.474788e-001 1.368096e+002
521875000 -1.104199e-001 -1.397300e+002 -5.022121e+001 1.158021e+002 -5.029686e+001 1.195436e+002 -1.466973e-001 1.367137e+002
522500000 -1.167396e-001 -1.400846e+002 -4.988704e+001 1.177055e+002 -4.993747e+001 1.138761e+002 -1.527086e-001 1.365846e+002
523125000 -1.294364e-001 -1.404532e+002 -5.005127e+001 1.113877e+002 -4.964616e+001 1.143270e+002 -1.622839e-001 1.364997e+002
523750000 -1.261950e-001 -1.408092e+002 -4.917125e+001 1.115436e+002 -4.892195e+001 1.127906e+002 -1.548237e-001 1.365103e+002
524375000 -1.390725e-001 -1.411963e+002 -4.880836e+001 1.140110e+002 -4.929061e+001 1.113960e+002 -1.456361e-001 1.363495e+002
525000000 -1.435696e-001 -1.416046e+002 -4.843943e+001 1.106388e+002 -4.963547e+001 1.163543e+002 -1.520929e-001 1.363135e+002
525625000 -1.551952e-001 -1.418767e+002 -4.950850e+001 1.120497e+002 -4.939415e+001 1.120993e+002 -1.559675e-001 1.362422e+002
526250000 -1.583463e-001 -1.422622e+002 -4.890929e+001 1.140810e+002 -4.839889e+001 1.105427e+002 -1.536834e-001 1.361573e+002
526875000 -1.648884e-001 -1.426418e+002 -4.834056e+001 1.120006e+002 -4.790676e+001 1.113603e+002 -1.477273e-001 1.361352e+002
527500000 -1.644890e-001 -1.430303e+002 -4.844013e+001 1.127528e+002 -4.857211e+001 1.076817e+002 -1.500215e-001 1.360523e+002
528125000 -1.831640e-001 -1.434606e+002 -4.797185e+001 1.084009e+002 -4.799062e+001 1.114699e+002 -1.512350e-001 1.360434e+002
528750000 -1.800277e-001 -1.437828e+002 -4.806144e+001 1.103570e+002 -4.800826e+001 1.073195e+002 -1.456673e-001 1.360577e+002
529375000 -1.927592e-001 -1.442030e+002 -4.838671e+001 1.080228e+002 -4.818002e+001 1.097523e+002 -1.481021e-001 1.359411e+002
530000000 -1.997524e-001 -1.446143e+002 -4.790706e+001 1.038682e+002 -4.754128e+001 1.055763e+002 -1.500309e-001 1.358967e+002
530625000 -2.116687e-001 -1.449884e+002 -4.772399e+001 1.039822e+002 -4.764974e+001 1.068907e+002 -1.429611e-001 1.358821e+002
531250000 -2.216186e-001 -1.454225e+002 -4.738691e+001 1.033960e+002 -4.777967e+001 1.067263e+002 -1.303241e-001 1.359063e+002
531875000 -2.340460e-001 -1.457963e+002 -4.715979e+001 1.057775e+002 -4.721704e+001 1.034467e+002 -1.450192e-001 1.358572e+002
532500000 -2.432214e-001 -1.461564e+002 -4.661720e+001 1.040374e+002 -4.669577e+001 1.018566e+002 -1.394041e-001 1.358781e+002
533125000 -2.481332e-001 -1.465861e+002 -4.708756e+001 1.031918e+002 -4.673819e+001 1.064541e+002 -1.532883e-001 1.359132e+002
533750000 -2.629981e-001 -1.470164e+002 -4.640513e+001 1.060929e+002 -4.681796e+001 1.055739e+002 -1.595219e-001 1.358488e+002
534375000 -2.730363e-001 -1.474506e+002 -4.614653e+001 1.024096e+002 -4.648670e+001 1.026558e+002 -1.430360e-001 1.358161e+002
535000000 -2.871729e-001 -1.478317e+002 -4.645332e+001 1.034596e+002 -4.668309e+001 1.014198e+002 -1.517383e-001 1.358421e+002
535625000 -3.009967e-001 -1.482552e+002 -4.620600e+001 1.008236e+002 -4.627928e+001 1.010337e+002 -1.404116e-001 1.358216e+002
536250000 -3.115673e-001 -1.486855e+002 -4.606468e+001 9.944349e+001 -4.578705e+001 9.963177e+001 -1.378145e-001 1.357940e+002
536875000 -3.303580e-001 -1.490809e+002 -4.604507e+001 9.773739e+001 -4.576580e+001 9.999588e+001 -1.381837e-001 1.357447e+002
537500000 -3.435257e-001 -1.494820e+002 -4.554535e+001 9.807807e+001 -4.558152e+001 1.007266e+002 -1.461000e-001 1.357410e+002
538125000 -3.526899e-001 -1.499269e+002 -4.530044e+001 9.803757e+001 -4.514621e+001 9.932925e+001 -1.528586e-001 1.357021e+002
538750000 -3.823501e-001 -1.503403e+002 -4.501879e+001 9.645519e+001 -4.491264e+001 9.760695e+001 -1.556527e-001 1.356402e+002
539375000 -4.032234e-001 -1.507800e+002 -4.507644e+001 9.596825e+001 -4.503388e+001 9.536658e+001 -1.525290e-001 1.356204e+002
540000000 -4.175059e-001 -1.512561e+002 -4.466815e+001 9.401743e+001 -4.437058e+001 9.557873e+001 -1.588538e-001 1.355421e+002
540625000 -4.386637e-001 -1.517063e+002 -4.425208e+001 9.425485e+001 -4.432344e+001 9.581491e+001 -1.602196e-001 1.354680e+002
541250000 -4.621047e-001 -1.521164e+002 -4.420416e+001 9.253177e+001 -4.426807e+001 9.306081e+001 -1.568264e-001 1.353613e+002
541875000 -4.814609e-001 -1.525691e+002 -4.421428e+001 9.016853e+001 -4.407923e+001 9.120138e+001 -1.636867e-001 1.352183e+002
542500000 -5.087110e-001 -1.530122e+002 -4.338421e+001 8.946986e+001 -4.392582e+001 9.096056e+001 -1.630157e-001 1.351949e+002
543125000 -5.341367e-001 -1.535202e+002 -4.364104e+001 8.941792e+001 -4.360153e+001 8.975140e+001 -1.606684e-001 1.350658e+002
543750000 -5.542393e-001 -1.539521e+002 -4.339285e+001 8.821078e+001 -4.344846e+001 8.875571e+001 -1.781505e-001 1.349693e+002
544375000 -5.924433e-001 -1.544368e+002 -4.308212e+001 8.881279e+001 -4.285382e+001 8.768229e+001 -1.729407e-001 1.347923e+002
545000000 -6.168271e-001 -1.548539e+002 -4.262893e+001 8.726720e+001 -4.293013e+001 8.695675e+001 -1.639235e-001 1.347836e+002
545625000 -6.472014e-001 -1.553197e+002 -4.263543e+001 8.560117e+001 -4.282512e+001 8.515643e+001 -1.671382e-001 1.346041e+002
546250000 -6.898476e-001 -1.557565e+002 -4.239888e+001 8.540041e+001 -4.240747e+001 8.431766e+001 -1.758478e-001 1.345094e+002
546875000 -7.212247e-001 -1.562906e+002 -4.211248e+001 8.426733e+001 -4.232767e+001 8.325311e+001 -1.663615e-001 1.344041e+002
547500000 -7.624109e-001 -1.567379e+002 -4.202114e+001 8.175092e+001 -4.205998e+001 8.218987e+001 -1.643730e-001 1.342910e+002
548125000 -7.999092e-001 -1.571837e+002 -4.178682e+001 7.950179e+001 -4.189728e+001 8.195786e+001 -1.536648e-001 1.341745e+002
548750000 -8.343735e-001 -1.577079e+002 -4.150747e+001 7.903988e+001 -4.168266e+001 7.969422e+001 -1.657788e-001 1.341816e+002
549375000 -8.822690e-001 -1.581439e+002 -4.135134e+001 7.795556e+001 -4.139503e+001 7.817754e+001 -1.585215e-001 1.339911e+002
550000000 -9.195065e-001 -1.586430e+002 -4.119971e+001 7.656601e+001 -4.119893e+001 7.739829e+001 -1.581891e-001 1.340069e+002
550625000 -9.684860e-001 -1.591004e+002 -4.093715e+001 7.380446e+001 -4.088492e+001 7.589713e+001 -1.552776e-001 1.339650e+002
551250000 -1.018437e+000 -1.595894e+002 -4.067242e+001 7.209534e+001 -4.063243e+001 7.323734e+001 -1.495711e-001 1.339768e+002
551875000 -1.076370e+000 -1.600540e+002 -4.042956e+001 7.096658e+001 -4.024631e+001 7.205846e+001 -1.489816e-001 1.339183e+002
552500000 -1.129541e+000 -1.604732e+002 -4.060967e+001 6.963355e+001 -4.039376e+001 7.025632e+001 -1.555660e-001 1.339021e+002
553125000 -1.178361e+000 -1.608348e+002 -3.987067e+001 6.754972e+001 -4.020895e+001 6.873363e+001 -1.458222e-001 1.339224e+002
553750000 -1.252931e+000 -1.612656e+002 -3.980635e+001 6.683364e+001 -3.996078e+001 6.719176e+001 -1.505342e-001 1.338340e+002
554375000 -1.308218e+000 -1.616114e+002 -3.957772e+001 6.462126e+001 -3.981551e+001 6.601678e+001 -1.482797e-001 1.338448e+002
555000000 -1.369246e+000 -1.620090e+002 -3.959599e+001 6.253802e+001 -3.971055e+001 6.355720e+001 -1.492399e-001 1.338987e+002
555625000 -1.446777e+000 -1.622779e+002 -3.938844e+001 6.107187e+001 -3.938239e+001 6.201359e+001 -1.521789e-001 1.338996e+002
556250000 -1.511099e+000 -1.626553e+002 -3.926181e+001 6.080086e+001 -3.914537e+001 6.185014e+001 -1.543949e-001 1.338065e+002
556875000 -1.577397e+000 -1.629887e+002 -3.895242e+001 5.800573e+001 -3.924759e+001 5.935063e+001 -1.571889e-001 1.338661e+002
557500000 -1.657199e+000 -1.631611e+002 -3.886982e+001 5.595502e+001 -3.885357e+001 5.781210e+001 -1.520954e-001 1.337903e+002
558125000 -1.723552e+000 -1.634449e+002 -3.862228e+001 5.354934e+001 -3.877896e+001 5.642319e+001 -1.642441e-001 1.337531e+002
558750000 -1.788499e+000 -1.636606e+002 -3.848916e+001 5.336842e+001 -3.856879e+001 5.463651e+001 -1.607194e-001 1.337018e+002
559375000 -1.864275e+000 -1.639044e+002 -3.829685e+001 5.148596e+001 -3.852845e+001 5.223755e+001 -1.552573e-001 1.337070e+002
560000000 -1.947358e+000 -1.640572e+002 -3.810848e+001 4.962067e+001 -3.843261e+001 5.026378e+001 -1.578768e-001 1.335275e+002
560625000 -2.019309e+000 -1.642079e+002 -3.800449e+001 4.805127e+001 -3.814428e+001 4.846323e+001 -1.559919e-001 1.335519e+002
561250000 -2.102917e+000 -1.643937e+002 -3.797011e+001 4.545297e+001 -3.796788e+001 4.746307e+001 -1.628013e-001 1.334521e+002
561875000 -2.179525e+000 -1.644498e+002 -3.762422e+001 4.357813e+001 -3.773962e+001 4.434738e+001 -1.701305e-001 1.334129e+002
562500000 -2.263816e+000 -1.644856e+002 -3.751739e+001 4.184109e+001 -3.752755e+001 4.281220e+001 -1.694200e-001 1.333428e+002
563125000 -2.327417e+000 -1.644570e+002 -3.735071e+001 3.929212e+001 -3.750122e+001 4.051041e+001 -1.595882e-001 1.332534e+002
563750000 -2.412009e+000 -1.644251e+002 -3.732232e+001 3.646719e+001 -3.738631e+001 3.828459e+001 -1.751261e-001 1.331512e+002
564375000 -2.480371e+000 -1.643008e+002 -3.711025e+001 3.454213e+001 -3.715936e+001 3.597089e+001 -1.647891e-001 1.331318e+002
565000000 -2.548478e+000 -1.641632e+002 -3.701881e+001 3.163686e+001 -3.714866e+001 3.394965e+001 -1.682804e-001 1.330047e+002
565625000 -2.604224e+000 -1.639931e+002 -3.707173e+001 2.983972e+001 -3.700718e+001 3.156203e+001 -1.691892e-001 1.329999e+002
566250000 -2.654496e+000 -1.638090e+002 -3.701976e+001 2.816341e+001 -3.681394e+001 2.913498e+001 -1.717972e-001 1.329393e+002
566875000 -2.703093e+000 -1.636390e+002 -3.687909e+001 2.556939e+001 -3.685746e+001 2.786208e+001 -1.704325e-001 1.328132e+002
567500000 -2.737342e+000 -1.634919e+002 -3.690857e+001 2.317627e+001 -3.674226e+001 2.462363e+001 -1.675362e-001 1.327350e+002
568125000 -2.766783e+000 -1.632697e+002 -3.691073e+001 2.236760e+001 -3.684398e+001 2.381559e+001 -1.767790e-001 1.326315e+002
568750000 -2.793312e+000 -1.630985e+002 -3.666965e+001 1.916085e+001 -3.675557e+001 2.110079e+001 -1.784810e-001 1.325572e+002
569375000 -2.822007e+000 -1.629009e+002 -3.687222e+001 1.641600e+001 -3.670277e+001 1.873637e+001 -1.736639e-001 1.325180e+002
570000000 -2.831401e+000 -1.627028e+002 -3.682601e+001 1.559671e+001 -3.667860e+001 1.694306e+001 -1.744459e-001 1.323708e+002
570625000 -2.835908e+000 -1.625652e+002 -3.678340e+001 1.338093e+001 -3.664650e+001 1.579547e+001 -1.665427e-001 1.323191e+002
571250000 -2.840048e+000 -1.623655e+002 -3.685856e+001 1.139015e+001 -3.668367e+001 1.273290e+001 -1.759644e-001 1.322998e+002
571875000 -2.842976e+000 -1.622076e+002 -3.666920e+001 8.676061e+000 -3.666269e+001 1.087149e+001 -1.652857e-001 1.321502e+002
572500000 -2.837745e+000 -1.621157e+002 -3.658924e+001 7.973157e+000 -3.661530e+001 9.167383e+000 -1.837742e-001 1.320832e+002
573125000 -2.827270e+000 -1.619382e+002 -3.662206e+001 5.968518e+000 -3.656643e+001 7.838096e+000 -1.627755e-001 1.320058e+002
573750000 -2.808425e+000 -1.618470e+002 -3.662341e+001 3.934783e+000 -3.672798e+001 5.998566e+000 -1.860484e-001 1.319223e+002
574375000 -2.793068e+000 -1.617068e+002 -3.658714e+001 2.227444e+000 -3.651682e+001 3.633249e+000 -1.699082e-001 1.318595e+002
575000000 -2.768112e+000 -1.616794e+002 -3.670547e+001 5.223630e-001 -3.663340e+001 1.257076e+000 -1.698954e-001 1.317584e+002
575625000 -2.750155e+000 -1.616527e+002 -3.672260e+001 -5.810974e-001 -3.653676e+001 2.025222e-001 -1.692736e-001 1.316700e+002
576250000 -2.716611e+000 -1.615886e+002 -3.681900e+001 -3.040953e+000 -3.688001e+001 -1.621151e+000 -1.726687e-001 1.315544e+002
576875000 -2.680686e+000 -1.615529e+002 -3.678244e+001 -6.057278e+000 -3.667193e+001 -3.488558e+000 -1.717032e-001 1.315485e+002
577500000 -2.652259e+000 -1.615510e+002 -3.671462e+001 -7.056631e+000 -3.676276e+001 -5.267837e+000 -1.672004e-001 1.314742e+002
578125000 -2.614097e+000 -1.616125e+002 -3.700920e+001 -8.116976e+000 -3.679714e+001 -6.539718e+000 -1.681530e-001 1.314603e+002
578750000 -2.567771e+000 -1.616888e+002 -3.687774e+001 -1.070529e+001 -3.681927e+001 -8.495609e+000 -1.588996e-001 1.313893e+002
579375000 -2.529088e+000 -1.617294e+002 -3.684210e+001 -1.238714e+001 -3.680796e+001 -1.023024e+001 -1.615593e-001 1.313413e+002
580000000 -2.475131e+000 -1.618151e+002 -3.690475e+001 -1.403671e+001 -3.676805e+001 -1.231865e+001 -1.596856e-001 1.313568e+002
580625000 -2.441667e+000 -1.620450e+002 -3.693444e+001 -1.430815e+001 -3.680529e+001 -1.289563e+001 -1.540381e-001 1.313193e+002
581250000 -2.398262e+000 -1.622058e+002 -3.707791e+001 -1.640154e+001 -3.697284e+001 -1.472121e+001 -1.554024e-001 1.312965e+002
581875000 -2.362144e+000 -1.624569e+002 -3.706359e+001 -1.686841e+001 -3.692012e+001 -1.594675e+001 -1.562989e-001 1.312891e+002
582500000 -2.327674e+000 -1.626722e+002 -3.712360e+001 -1.810844e+001 -3.685614e+001 -1.739094e+001 -1.565974e-001 1.312473e+002
583125000 -2.287379e+000 -1.629045e+002 -3.726319e+001 -1.927013e+001 -3.704281e+001 -1.747261e+001 -1.637081e-001 1.312177e+002
583750000 -2.258485e+000 -1.631914e+002 -3.719042e+001 -2.199640e+001 -3.695024e+001 -2.047668e+001 -1.750780e-001 1.311863e+002
584375000 -2.227290e+000 -1.634754e+002 -3.727069e+001 -2.179880e+001 -3.701973e+001 -2.072930e+001 -1.702994e-001 1.311653e+002
585000000 -2.188219e+000 -1.638057e+002 -3.724900e+001 -2.334897e+001 -3.705914e+001 -2.291109e+001 -1.770728e-001 1.311316e+002
585625000 -2.166465e+000 -1.640649e+002 -3.719659e+001 -2.595360e+001 -3.714667e+001 -2.321395e+001 -1.629708e-001 1.310803e+002
586250000 -2.133388e+000 -1.643659e+002 -3.734922e+001 -2.630083e+001 -3.717802e+001 -2.584708e+001 -1.706951e-001 1.311387e+002
586875000 -2.098437e+000 -1.647598e+002 -3.732139e+001 -2.702001e+001 -3.709135e+001 -2.635842e+001 -1.724438e-001 1.310317e+002
587500000 -2.079138e+000 -1.650986e+002 -3.738070e+001 -2.869066e+001 -3.723026e+001 -2.741680e+001 -1.738231e-001 1.309440e+002
588125000 -2.045664e+000 -1.653990e+002 -3.749891e+001 -3.104274e+001 -3.728260e+001 -2.855050e+001 -1.736054e-001 1.308394e+002
588750000 -2.014977e+000 -1.657852e+002 -3.744070e+001 -3.108954e+001 -3.727448e+001 -3.047926e+001 -1.775959e-001 1.307630e+002
589375000 -1.989318e+000 -1.662062e+002 -3.747089e+001 -3.248333e+001 -3.723470e+001 -3.189546e+001 -1.669191e-001 1.306270e+002
590000000 -1.961038e+000 -1.665554e+002 -3.759111e+001 -3.399356e+001 -3.750829e+001 -3.215145e+001 -1.788899e-001 1.305775e+002
590625000 -1.933436e+000 -1.669642e+002 -3.768042e+001 -3.498223e+001 -3.726278e+001 -3.395650e+001 -1.815788e-001 1.304077e+002
591250000 -1.912778e+000 -1.673827e+002 -3.755367e+001 -3.637588e+001 -3.742167e+001 -3.413710e+001 -1.810821e-001 1.304462e+002
591875000 -1.896379e+000 -1.677882e+002 -3.765186e+001 -3.604036e+001 -3.753320e+001 -3.612951e+001 -1.809038e-001 1.303342e+002
592500000 -1.885325e+000 -1.682523e+002 -3.767963e+001 -3.820077e+001 -3.754604e+001 -3.739754e+001 -1.735075e-001 1.302938e+002
593125000 -1.869085e+000 -1.686677e+002 -3.761020e+001 -3.844964e+001 -3.751423e+001 -3.842328e+001 -1.778636e-001 1.302640e+002
593750000 -1.856231e+000 -1.691057e+002 -3.782815e+001 -3.983033e+001 -3.764769e+001 -3.990110e+001 -1.649947e-001 1.302912e+002
594375000 -1.836497e+000 -1.694821e+002 -3.773380e+001 -4.167347e+001 -3.759287e+001 -4.068743e+001 -1.612180e-001 1.301769e+002
595000000 -1.826172e+000 -1.699079e+002 -3.783690e+001 -4.122350e+001 -3.768422e+001 -4.077158e+001 -1.783554e-001 1.301684e+002
595625000 -1.806210e+000 -1.704605e+002 -3.773464e+001 -4.291971e+001 -3.770661e+001 -4.246894e+001 -1.619596e-001 1.300743e+002
