!Agilent Technologies,E8364B,US42250235,A.06.04.32
!Agilent E8364B: A.06.04.32
!Date: Friday, January 15, 2021 12:02:17
!Correction: S11(Full 2 Port(1,2)) S21(Full 2 Port(1,2)) S12(Full 2 Port(1,2)) S22(Full 2 Port(1,2)) 
!S2P File: Measurements: S11, S21, S12, S22:
# Hz S  dB   R 50
500000000 -1.902950e-001 -1.291783e+002 -5.544897e+001 6.400362e+001 -5.547078e+001 5.298179e+001 -1.175201e-001 1.385790e+002
500625000 -1.895762e-001 -1.293896e+002 -5.469001e+001 5.499343e+001 -5.517799e+001 5.451335e+001 -1.275420e-001 1.386571e+002
501250000 -2.030356e-001 -1.296293e+002 -5.450528e+001 5.078852e+001 -5.432557e+001 5.554272e+001 -1.233225e-001 1.385715e+002
501875000 -2.041535e-001 -1.299227e+002 -5.496647e+001 4.514389e+001 -5.554855e+001 4.898407e+001 -1.128813e-001 1.386120e+002
502500000 -2.110714e-001 -1.301533e+002 -5.468119e+001 5.882524e+001 -5.511034e+001 4.974703e+001 -1.105879e-001 1.386528e+002
503125000 -2.182189e-001 -1.304330e+002 -5.381172e+001 5.363378e+001 -5.613107e+001 4.905995e+001 -1.234207e-001 1.385424e+002
503750000 -2.196589e-001 -1.306654e+002 -5.477921e+001 3.924252e+001 -5.526809e+001 4.650957e+001 -1.218521e-001 1.384580e+002
504375000 -2.361363e-001 -1.309732e+002 -5.429470e+001 4.046746e+001 -5.473027e+001 4.882096e+001 -1.308793e-001 1.384421e+002
505000000 -2.348204e-001 -1.312309e+002 -5.444218e+001 5.314027e+001 -5.411805e+001 4.176311e+001 -1.352656e-001 1.384637e+002
505625000 -2.372684e-001 -1.314876e+002 -5.484893e+001 4.738068e+001 -5.502709e+001 4.937199e+001 -1.367537e-001 1.383208e+002
506250000 -2.500532e-001 -1.317524e+002 -5.453791e+001 4.507074e+001 -5.336592e+001 4.456820e+001 -1.361218e-001 1.382268e+002
506875000 -2.483641e-001 -1.319986e+002 -5.372172e+001 3.752326e+001 -5.459088e+001 3.841277e+001 -1.347718e-001 1.381199e+002
507500000 -2.518938e-001 -1.322328e+002 -5.342742e+001 3.875322e+001 -5.444488e+001 3.980021e+001 -1.425354e-001 1.379808e+002
508125000 -2.586108e-001 -1.325096e+002 -5.409398e+001 3.118549e+001 -5.434947e+001 3.840499e+001 -1.415845e-001 1.379626e+002
508750000 -2.636754e-001 -1.327133e+002 -5.369840e+001 3.336246e+001 -5.423139e+001 3.791353e+001 -1.364248e-001 1.378260e+002
509375000 -2.698007e-001 -1.330462e+002 -5.412181e+001 3.923652e+001 -5.436101e+001 3.368335e+001 -1.279706e-001 1.377934e+002
510000000 -2.622904e-001 -1.333542e+002 -5.351880e+001 3.391087e+001 -5.319719e+001 3.316221e+001 -1.434248e-001 1.377044e+002
510625000 -2.769256e-001 -1.335089e+002 -5.399228e+001 3.617329e+001 -5.360360e+001 3.626105e+001 -1.277192e-001 1.376666e+002
511250000 -2.712263e-001 -1.337827e+002 -5.387641e+001 3.367187e+001 -5.408188e+001 3.502215e+001 -1.316377e-001 1.375174e+002
511875000 -2.735633e-001 -1.341124e+002 -5.328045e+001 2.991556e+001 -5.387643e+001 2.380621e+001 -1.293721e-001 1.374304e+002
512500000 -2.759507e-001 -1.343663e+002 -5.385402e+001 3.003346e+001 -5.282385e+001 2.651326e+001 -1.322749e-001 1.373619e+002
513125000 -2.809994e-001 -1.346128e+002 -5.253594e+001 2.588355e+001 -5.372411e+001 2.191475e+001 -1.377999e-001 1.373629e+002
513750000 -2.818944e-001 -1.348427e+002 -5.339461e+001 2.744062e+001 -5.373731e+001 3.166875e+001 -1.415435e-001 1.372418e+002
514375000 -2.862055e-001 -1.351268e+002 -5.407045e+001 2.949105e+001 -5.403483e+001 2.649279e+001 -1.311050e-001 1.372350e+002
515000000 -2.965775e-001 -1.353891e+002 -5.362783e+001 2.380533e+001 -5.353730e+001 2.756872e+001 -1.348390e-001 1.371725e+002
515625000 -2.984433e-001 -1.357357e+002 -5.260525e+001 1.767622e+001 -5.388529e+001 2.148224e+001 -1.229225e-001 1.371350e+002
516250000 -2.949803e-001 -1.359756e+002 -5.348951e+001 1.576983e+001 -5.346239e+001 2.269088e+001 -1.330732e-001 1.369930e+002
516875000 -3.077454e-001 -1.362408e+002 -5.362535e+001 2.009145e+001 -5.347519e+001 2.360307e+001 -1.295437e-001 1.370632e+002
517500000 -2.992190e-001 -1.365278e+002 -5.250399e+001 1.720209e+001 -5.353330e+001 1.642779e+001 -1.425405e-001 1.369428e+002
518125000 -3.066894e-001 -1.368373e+002 -5.384227e+001 1.913996e+001 -5.260529e+001 1.935118e+001 -1.339287e-001 1.368458e+002
518750000 -3.096526e-001 -1.371329e+002 -5.299868e+001 1.642260e+001 -5.374643e+001 1.275196e+001 -1.418882e-001 1.368049e+002
519375000 -3.184605e-001 -1.373234e+002 -5.368893e+001 1.929757e+001 -5.421638e+001 1.649093e+001 -1.314209e-001 1.367457e+002
520000000 -3.190122e-001 -1.376944e+002 -5.335844e+001 1.649240e+001 -5.360845e+001 1.541721e+001 -1.421205e-001 1.366641e+002
520625000 -3.236469e-001 -1.380114e+002 -5.314492e+001 2.015452e+001 -5.258998e+001 2.044714e+001 -1.337871e-001 1.365125e+002
521250000 -3.288146e-001 -1.382688e+002 -5.362203e+001 1.622510e+001 -5.238480e+001 1.488321e+001 -1.363339e-001 1.364850e+002
521875000 -3.207034e-001 -1.386113e+002 -5.375225e+001 1.586943e+001 -5.360025e+001 1.383796e+001 -1.297171e-001 1.364335e+002
522500000 -3.259047e-001 -1.388730e+002 -5.252679e+001 1.100794e+001 -5.295311e+001 1.496777e+001 -1.352542e-001 1.363396e+002
523125000 -3.355629e-001 -1.392179e+002 -5.284268e+001 1.415572e+001 -5.294887e+001 9.849367e+000 -1.376865e-001 1.362483e+002
523750000 -3.379118e-001 -1.394943e+002 -5.306695e+001 7.809098e+000 -5.251320e+001 7.770841e+000 -1.332822e-001 1.361744e+002
524375000 -3.480421e-001 -1.398112e+002 -5.299366e+001 4.455511e+000 -5.237770e+001 9.239102e+000 -1.280638e-001 1.361019e+002
525000000 -3.404222e-001 -1.400973e+002 -5.266574e+001 3.155678e+000 -5.224107e+001 9.518697e+000 -1.376179e-001 1.360446e+002
525625000 -3.552044e-001 -1.403510e+002 -5.166581e+001 4.525877e+000 -5.264342e+001 6.634443e+000 -1.427331e-001 1.359723e+002
526250000 -3.467358e-001 -1.406851e+002 -5.224033e+001 4.617121e+000 -5.250961e+001 3.539127e+000 -1.303389e-001 1.359429e+002
526875000 -3.588955e-001 -1.409844e+002 -5.196492e+001 2.026370e+000 -5.260556e+001 5.393425e+000 -1.275529e-001 1.358402e+002
527500000 -3.585847e-001 -1.412659e+002 -5.251195e+001 -5.356070e-001 -5.240934e+001 5.145900e+000 -1.363600e-001 1.358124e+002
528125000 -3.704017e-001 -1.415582e+002 -5.137300e+001 4.244549e+000 -5.258313e+001 1.506852e+000 -1.327210e-001 1.358464e+002
528750000 -3.636817e-001 -1.418317e+002 -5.228709e+001 -3.837478e+000 -5.222572e+001 1.409824e+000 -1.302966e-001 1.358764e+002
529375000 -3.708115e-001 -1.421377e+002 -5.205868e+001 2.454349e-001 -5.162348e+001 -1.538335e+000 -1.336104e-001 1.357471e+002
530000000 -3.706172e-001 -1.425100e+002 -5.158479e+001 -1.951241e+000 -5.212461e+001 -4.826567e-001 -1.243345e-001 1.357779e+002
530625000 -3.709429e-001 -1.427606e+002 -5.217788e+001 -4.738415e+000 -5.225713e+001 -7.620285e-001 -1.348781e-001 1.357539e+002
531250000 -3.757904e-001 -1.431089e+002 -5.252080e+001 -1.591023e+000 -5.206122e+001 -3.917816e+000 -1.255317e-001 1.356968e+002
531875000 -3.856864e-001 -1.433811e+002 -5.147655e+001 -9.568383e-001 -5.209072e+001 -2.024255e+000 -1.277420e-001 1.356123e+002
532500000 -3.792133e-001 -1.436502e+002 -5.271085e+001 -6.847868e-001 -5.287634e+001 -7.920752e+000 -1.258762e-001 1.356872e+002
533125000 -3.747259e-001 -1.439865e+002 -5.228262e+001 -2.565244e+000 -5.151944e+001 -5.870656e+000 -1.367075e-001 1.356716e+002
533750000 -3.800538e-001 -1.443275e+002 -5.243268e+001 -8.430538e+000 -5.209792e+001 -9.194001e+000 -1.387694e-001 1.356674e+002
534375000 -3.835993e-001 -1.446668e+002 -5.239946e+001 -8.569366e+000 -5.256979e+001 -7.021107e+000 -1.273900e-001 1.356188e+002
535000000 -3.896320e-001 -1.449206e+002 -5.272519e+001 -8.093114e+000 -5.241959e+001 -1.169431e+001 -1.318193e-001 1.356252e+002
535625000 -3.890900e-001 -1.452528e+002 -5.244918e+001 -8.184576e+000 -5.221011e+001 -1.038102e+001 -1.237301e-001 1.356671e+002
536250000 -3.872847e-001 -1.456078e+002 -5.242153e+001 -9.679697e+000 -5.175011e+001 -1.251969e+001 -1.191211e-001 1.355403e+002
536875000 -3.914907e-001 -1.459585e+002 -5.190268e+001 -1.055792e+001 -5.208909e+001 -9.909331e+000 -1.292415e-001 1.355305e+002
537500000 -3.920385e-001 -1.462585e+002 -5.223907e+001 -7.993502e+000 -5.251364e+001 -1.401948e+001 -1.243495e-001 1.355540e+002
538125000 -3.955230e-001 -1.466246e+002 -5.191511e+001 -1.476839e+001 -5.279579e+001 -1.359369e+001 -1.322607e-001 1.354935e+002
538750000 -4.082099e-001 -1.469753e+002 -5.222882e+001 -1.272413e+001 -5.217587e+001 -1.152556e+001 -1.317696e-001 1.355167e+002
539375000 -4.115764e-001 -1.472876e+002 -5.057160e+001 -1.360693e+001 -5.248389e+001 -1.231903e+001 -1.318141e-001 1.354527e+002
540000000 -4.117063e-001 -1.476225e+002 -5.269835e+001 -9.544615e+000 -5.125298e+001 -9.957744e+000 -1.449307e-001 1.353881e+002
540625000 -4.209394e-001 -1.479890e+002 -5.191751e+001 -1.125833e+001 -5.169152e+001 -1.452389e+001 -1.387720e-001 1.353260e+002
541250000 -4.238884e-001 -1.483052e+002 -5.151717e+001 -1.360008e+001 -5.149147e+001 -1.718482e+001 -1.356492e-001 1.352605e+002
541875000 -4.305685e-001 -1.486174e+002 -5.134164e+001 -1.582889e+001 -5.173400e+001 -1.798997e+001 -1.443203e-001 1.351372e+002
542500000 -4.288554e-001 -1.490037e+002 -5.183883e+001 -1.461236e+001 -5.149430e+001 -1.920836e+001 -1.477916e-001 1.350800e+002
543125000 -4.295949e-001 -1.493640e+002 -5.129397e+001 -1.361876e+001 -5.156524e+001 -1.821698e+001 -1.402976e-001 1.348953e+002
543750000 -4.336204e-001 -1.496833e+002 -5.158150e+001 -1.832114e+001 -5.077905e+001 -1.500314e+001 -1.522141e-001 1.348161e+002
544375000 -4.406795e-001 -1.501152e+002 -5.123687e+001 -1.620430e+001 -5.137399e+001 -2.155286e+001 -1.507523e-001 1.347326e+002
545000000 -4.454147e-001 -1.504338e+002 -5.114132e+001 -1.663707e+001 -5.194504e+001 -2.336302e+001 -1.427632e-001 1.346000e+002
545625000 -4.653329e-001 -1.507785e+002 -5.084189e+001 -1.522772e+001 -5.187753e+001 -2.099467e+001 -1.466728e-001 1.345569e+002
546250000 -4.616435e-001 -1.511180e+002 -5.079591e+001 -1.796979e+001 -5.166722e+001 -1.865119e+001 -1.523386e-001 1.343830e+002
546875000 -4.715162e-001 -1.515400e+002 -5.102951e+001 -2.451050e+001 -5.113550e+001 -2.228913e+001 -1.512325e-001 1.343376e+002
547500000 -4.718069e-001 -1.519118e+002 -5.108659e+001 -2.102096e+001 -5.059591e+001 -2.298722e+001 -1.404025e-001 1.342809e+002
548125000 -4.791108e-001 -1.522211e+002 -5.177774e+001 -2.515919e+001 -5.046171e+001 -2.264204e+001 -1.359849e-001 1.341474e+002
548750000 -4.829379e-001 -1.527040e+002 -5.028050e+001 -2.604395e+001 -5.092394e+001 -2.083966e+001 -1.445022e-001 1.340929e+002
549375000 -4.901992e-001 -1.530415e+002 -5.094239e+001 -2.589045e+001 -5.070184e+001 -2.184179e+001 -1.486871e-001 1.338457e+002
550000000 -4.904569e-001 -1.533917e+002 -5.067953e+001 -2.535543e+001 -5.030907e+001 -2.351260e+001 -1.418915e-001 1.339232e+002
550625000 -4.991415e-001 -1.537937e+002 -5.028031e+001 -2.248763e+001 -5.050400e+001 -2.694901e+001 -1.363318e-001 1.338690e+002
551250000 -5.014551e-001 -1.541892e+002 -5.118246e+001 -2.472359e+001 -5.104231e+001 -2.744616e+001 -1.382124e-001 1.338416e+002
551875000 -5.099512e-001 -1.545470e+002 -5.045179e+001 -2.127479e+001 -4.999873e+001 -2.384123e+001 -1.345960e-001 1.338239e+002
552500000 -5.106214e-001 -1.549497e+002 -5.042663e+001 -2.643804e+001 -4.997892e+001 -3.079292e+001 -1.250792e-001 1.338236e+002
553125000 -5.142090e-001 -1.553304e+002 -5.053486e+001 -3.229339e+001 -5.024806e+001 -3.115943e+001 -1.303152e-001 1.337998e+002
553750000 -5.295672e-001 -1.556832e+002 -5.073285e+001 -2.649539e+001 -4.991072e+001 -2.875490e+001 -1.337690e-001 1.337045e+002
554375000 -5.277353e-001 -1.560196e+002 -5.057581e+001 -3.188651e+001 -5.053613e+001 -2.745958e+001 -1.303194e-001 1.337307e+002
555000000 -5.272967e-001 -1.564335e+002 -5.006750e+001 -3.174101e+001 -5.039249e+001 -3.328852e+001 -1.362648e-001 1.337636e+002
555625000 -5.470982e-001 -1.567741e+002 -5.049520e+001 -3.316875e+001 -5.078801e+001 -3.234825e+001 -1.301293e-001 1.337830e+002
556250000 -5.495510e-001 -1.571985e+002 -5.018827e+001 -3.100567e+001 -5.027847e+001 -3.250161e+001 -1.402187e-001 1.336967e+002
556875000 -5.534641e-001 -1.576058e+002 -5.050846e+001 -3.471593e+001 -4.984146e+001 -3.088142e+001 -1.486719e-001 1.336387e+002
557500000 -5.648807e-001 -1.579547e+002 -5.040348e+001 -3.486184e+001 -5.002486e+001 -3.596929e+001 -1.377944e-001 1.336068e+002
558125000 -5.672967e-001 -1.583269e+002 -4.951546e+001 -3.546004e+001 -4.960522e+001 -3.206895e+001 -1.494650e-001 1.335854e+002
558750000 -5.665781e-001 -1.587566e+002 -4.990831e+001 -3.399029e+001 -4.972536e+001 -3.548591e+001 -1.467879e-001 1.335182e+002
559375000 -5.837072e-001 -1.591451e+002 -4.990175e+001 -3.336540e+001 -4.955153e+001 -3.837584e+001 -1.471119e-001 1.334574e+002
560000000 -5.986557e-001 -1.595569e+002 -4.950184e+001 -3.417240e+001 -4.962277e+001 -3.427927e+001 -1.402914e-001 1.333468e+002
560625000 -6.049664e-001 -1.598628e+002 -4.946983e+001 -4.199645e+001 -4.962394e+001 -3.977360e+001 -1.432041e-001 1.332604e+002
561250000 -6.088135e-001 -1.603295e+002 -4.942535e+001 -3.979504e+001 -4.940340e+001 -3.813385e+001 -1.510846e-001 1.332370e+002
561875000 -6.169768e-001 -1.607346e+002 -4.891654e+001 -3.854253e+001 -4.928825e+001 -4.011201e+001 -1.482456e-001 1.331028e+002
562500000 -6.279571e-001 -1.611418e+002 -4.904439e+001 -4.032812e+001 -4.956921e+001 -3.777038e+001 -1.507434e-001 1.330853e+002
563125000 -6.317890e-001 -1.615420e+002 -4.922146e+001 -4.341603e+001 -4.952704e+001 -4.290708e+001 -1.460531e-001 1.329581e+002
563750000 -6.432689e-001 -1.619587e+002 -4.919091e+001 -3.994592e+001 -4.924302e+001 -4.277503e+001 -1.523693e-001 1.328929e+002
564375000 -6.589699e-001 -1.623899e+002 -4.959922e+001 -4.026241e+001 -4.968043e+001 -4.222182e+001 -1.457585e-001 1.328548e+002
565000000 -6.672420e-001 -1.628013e+002 -4.879286e+001 -4.433909e+001 -4.927467e+001 -4.516821e+001 -1.510920e-001 1.327212e+002
565625000 -6.751809e-001 -1.632150e+002 -4.906261e+001 -4.262318e+001 -4.884964e+001 -4.787095e+001 -1.509371e-001 1.326645e+002
566250000 -6.885421e-001 -1.637257e+002 -4.875418e+001 -4.265639e+001 -4.919255e+001 -4.534050e+001 -1.506756e-001 1.325722e+002
566875000 -7.069325e-001 -1.641154e+002 -4.840303e+001 -4.940484e+001 -4.909163e+001 -4.392071e+001 -1.467559e-001 1.324494e+002
567500000 -7.275242e-001 -1.645745e+002 -4.944645e+001 -4.522982e+001 -4.869566e+001 -4.622214e+001 -1.430023e-001 1.324428e+002
568125000 -7.377786e-001 -1.650150e+002 -4.940571e+001 -4.853511e+001 -4.906131e+001 -4.913757e+001 -1.482135e-001 1.323169e+002
568750000 -7.548479e-001 -1.654646e+002 -4.858706e+001 -4.668845e+001 -4.891818e+001 -5.069818e+001 -1.472362e-001 1.323134e+002
569375000 -7.718313e-001 -1.659701e+002 -4.835377e+001 -4.758102e+001 -4.851126e+001 -4.906519e+001 -1.500311e-001 1.322250e+002
570000000 -7.834850e-001 -1.664269e+002 -4.881283e+001 -5.021346e+001 -4.806679e+001 -4.934235e+001 -1.450429e-001 1.320699e+002
570625000 -7.919780e-001 -1.668891e+002 -4.886755e+001 -5.157384e+001 -4.794450e+001 -4.928970e+001 -1.454154e-001 1.320772e+002
571250000 -8.192053e-001 -1.673498e+002 -4.779413e+001 -5.413337e+001 -4.819221e+001 -5.024811e+001 -1.512282e-001 1.319948e+002
571875000 -8.297628e-001 -1.677594e+002 -4.800970e+001 -5.165494e+001 -4.812021e+001 -5.024568e+001 -1.480255e-001 1.318842e+002
572500000 -8.456728e-001 -1.682930e+002 -4.833279e+001 -4.932209e+001 -4.801043e+001 -4.939259e+001 -1.505244e-001 1.317732e+002
573125000 -8.640344e-001 -1.687589e+002 -4.759025e+001 -4.844246e+001 -4.823214e+001 -4.974586e+001 -1.432043e-001 1.316904e+002
573750000 -8.871253e-001 -1.692378e+002 -4.786154e+001 -5.427275e+001 -4.794690e+001 -5.350162e+001 -1.557239e-001 1.316029e+002
574375000 -9.007990e-001 -1.696991e+002 -4.778135e+001 -5.190932e+001 -4.835887e+001 -5.631890e+001 -1.523424e-001 1.315559e+002
575000000 -9.286487e-001 -1.701934e+002 -4.746108e+001 -5.386163e+001 -4.799926e+001 -5.468530e+001 -1.494015e-001 1.314159e+002
575625000 -9.448717e-001 -1.706276e+002 -4.754282e+001 -5.578808e+001 -4.721133e+001 -5.478491e+001 -1.445103e-001 1.313574e+002
576250000 -9.565052e-001 -1.710906e+002 -4.810868e+001 -5.504966e+001 -4.736843e+001 -5.805547e+001 -1.557632e-001 1.312415e+002
576875000 -9.687563e-001 -1.715963e+002 -4.767393e+001 -5.771564e+001 -4.748644e+001 -5.910630e+001 -1.500857e-001 1.312346e+002
577500000 -9.934722e-001 -1.720962e+002 -4.736943e+001 -5.983406e+001 -4.753930e+001 -5.958329e+001 -1.445328e-001 1.310831e+002
578125000 -1.010488e+000 -1.725653e+002 -4.719765e+001 -6.152599e+001 -4.743376e+001 -6.110061e+001 -1.428757e-001 1.311206e+002
578750000 -1.026307e+000 -1.730667e+002 -4.726920e+001 -6.395021e+001 -4.741107e+001 -6.031400e+001 -1.460440e-001 1.310392e+002
579375000 -1.047934e+000 -1.735652e+002 -4.669466e+001 -6.136982e+001 -4.738454e+001 -6.512584e+001 -1.364064e-001 1.309786e+002
580000000 -1.066452e+000 -1.740383e+002 -4.700701e+001 -6.214042e+001 -4.693944e+001 -6.157005e+001 -1.437524e-001 1.310196e+002
580625000 -1.093161e+000 -1.745414e+002 -4.703109e+001 -6.679677e+001 -4.660484e+001 -6.202001e+001 -1.330242e-001 1.309689e+002
581250000 -1.122110e+000 -1.750108e+002 -4.697734e+001 -6.205206e+001 -4.702785e+001 -6.501595e+001 -1.440084e-001 1.310047e+002
581875000 -1.146535e+000 -1.755948e+002 -4.680058e+001 -6.740388e+001 -4.659796e+001 -6.390236e+001 -1.371968e-001 1.309697e+002
582500000 -1.173379e+000 -1.760022e+002 -4.612939e+001 -6.543066e+001 -4.688045e+001 -6.317131e+001 -1.362324e-001 1.309639e+002
583125000 -1.196429e+000 -1.765811e+002 -4.647326e+001 -6.499731e+001 -4.697329e+001 -6.461746e+001 -1.439972e-001 1.309196e+002
583750000 -1.222660e+000 -1.771029e+002 -4.649852e+001 -6.882668e+001 -4.660507e+001 -6.607170e+001 -1.402699e-001 1.308542e+002
584375000 -1.259479e+000 -1.775819e+002 -4.626140e+001 -6.780034e+001 -4.659475e+001 -6.636882e+001 -1.335302e-001 1.308898e+002
585000000 -1.283946e+000 -1.781166e+002 -4.603016e+001 -6.964335e+001 -4.634309e+001 -6.702814e+001 -1.474598e-001 1.308723e+002
585625000 -1.331697e+000 -1.785916e+002 -4.628287e+001 -6.879807e+001 -4.637902e+001 -7.003120e+001 -1.427899e-001 1.308716e+002
586250000 -1.352361e+000 -1.790974e+002 -4.618210e+001 -6.914628e+001 -4.640572e+001 -7.068716e+001 -1.401756e-001 1.308484e+002
586875000 -1.380554e+000 -1.796321e+002 -4.595900e+001 -7.072442e+001 -4.634019e+001 -7.196737e+001 -1.459804e-001 1.307563e+002
587500000 -1.423616e+000 1.798359e+002 -4.582212e+001 -7.056816e+001 -4.596590e+001 -7.318284e+001 -1.431084e-001 1.306489e+002
588125000 -1.453247e+000 1.793417e+002 -4.603978e+001 -7.226614e+001 -4.577430e+001 -7.222464e+001 -1.527012e-001 1.306168e+002
588750000 -1.491256e+000 1.788313e+002 -4.545163e+001 -7.295323e+001 -4.582711e+001 -7.494764e+001 -1.610247e-001 1.305063e+002
589375000 -1.523833e+000 1.783396e+002 -4.542258e+001 -7.122698e+001 -4.567484e+001 -7.621909e+001 -1.500704e-001 1.304165e+002
590000000 -1.568192e+000 1.778022e+002 -4.523964e+001 -7.537952e+001 -4.530944e+001 -7.492371e+001 -1.576594e-001 1.303237e+002
590625000 -1.590354e+000 1.772928e+002 -4.537980e+001 -7.584666e+001 -4.548219e+001 -7.763235e+001 -1.485389e-001 1.301828e+002
591250000 -1.632825e+000 1.767780e+002 -4.555126e+001 -7.651308e+001 -4.539065e+001 -7.847548e+001 -1.541914e-001 1.301373e+002
591875000 -1.674477e+000 1.762344e+002 -4.526916e+001 -7.752819e+001 -4.555394e+001 -7.858134e+001 -1.579501e-001 1.300745e+002
592500000 -1.710376e+000 1.756561e+002 -4.520024e+001 -8.220099e+001 -4.504717e+001 -7.941241e+001 -1.583673e-001 1.300638e+002
593125000 -1.766810e+000 1.751229e+002 -4.463985e+001 -7.934938e+001 -4.528363e+001 -7.905718e+001 -1.560678e-001 1.300122e+002
593750000 -1.808977e+000 1.745935e+002 -4.488194e+001 -7.971973e+001 -4.503724e+001 -7.961574e+001 -1.419231e-001 1.299851e+002
594375000 -1.852957e+000 1.740389e+002 -4.492311e+001 -8.140103e+001 -4.495765e+001 -8.377043e+001 -1.384735e-001 1.299505e+002
595000000 -1.900243e+000 1.735252e+002 -4.497571e+001 -8.406890e+001 -4.473881e+001 -8.407327e+001 -1.471546e-001 1.299398e+002
