!Agilent Technologies,E8364B,US42250235,A.06.04.32
!Agilent E8364B: A.06.04.32
!Date: Friday, January 15, 2021 12:34:46
!Correction: S11(Full 2 Port(1,2)) S21(Full 2 Port(1,2)) S12(Full 2 Port(1,2)) S22(Full 2 Port(1,2)) 
!S2P File: Measurements: S11, S21, S12, S22:
# Hz S  dB   R 50
500000000 -1.246210e-001 -1.288786e+002 -5.756272e+001 4.219919e+001 -5.742869e+001 3.272854e+001 -4.131048e-001 1.383091e+002
500625000 -1.240077e-001 -1.290961e+002 -5.806142e+001 2.102790e+001 -5.793817e+001 3.927736e+001 -4.060965e-001 1.382396e+002
501250000 -1.371733e-001 -1.293352e+002 -5.745732e+001 3.578305e+001 -5.846207e+001 3.568367e+001 -3.990417e-001 1.382429e+002
501875000 -1.312450e-001 -1.296403e+002 -5.869852e+001 3.155696e+001 -5.872609e+001 2.737757e+001 -4.018174e-001 1.381859e+002
502500000 -1.318426e-001 -1.299141e+002 -5.803236e+001 2.831225e+001 -5.810853e+001 2.978337e+001 -3.971585e-001 1.381243e+002
503125000 -1.469254e-001 -1.301797e+002 -5.833598e+001 3.184589e+001 -5.883093e+001 4.347633e+001 -4.015071e-001 1.380291e+002
503750000 -1.476637e-001 -1.304176e+002 -5.781330e+001 2.950072e+001 -5.770028e+001 2.631629e+001 -3.953020e-001 1.380009e+002
504375000 -1.561763e-001 -1.307310e+002 -5.735293e+001 2.078549e+001 -5.712713e+001 2.918476e+001 -4.070380e-001 1.379111e+002
505000000 -1.583191e-001 -1.310160e+002 -5.733644e+001 1.448319e+001 -5.771938e+001 2.391144e+001 -4.081089e-001 1.378766e+002
505625000 -1.546639e-001 -1.312291e+002 -5.765311e+001 1.896462e+001 -5.718483e+001 2.594229e+001 -4.111922e-001 1.377638e+002
506250000 -1.699437e-001 -1.315537e+002 -5.668013e+001 1.436164e+001 -5.688155e+001 1.531157e+001 -4.156464e-001 1.376923e+002
506875000 -1.624569e-001 -1.318179e+002 -5.759787e+001 1.017310e+001 -5.845329e+001 2.353829e+001 -4.142457e-001 1.376021e+002
507500000 -1.665421e-001 -1.321244e+002 -5.766017e+001 1.604876e+001 -5.791706e+001 1.631731e+001 -4.092965e-001 1.375534e+002
508125000 -1.722383e-001 -1.324250e+002 -5.689980e+001 1.117545e+001 -5.717868e+001 1.819348e+001 -4.122054e-001 1.375037e+002
508750000 -1.732391e-001 -1.326233e+002 -5.626097e+001 1.802609e+001 -5.713280e+001 1.652331e+001 -4.098194e-001 1.374185e+002
509375000 -1.759276e-001 -1.330421e+002 -5.747593e+001 1.300281e+001 -5.778307e+001 1.653682e+001 -3.995852e-001 1.373667e+002
510000000 -1.732468e-001 -1.333309e+002 -5.773988e+001 7.385000e+000 -5.834836e+001 8.486030e+000 -4.142298e-001 1.373387e+002
510625000 -1.796238e-001 -1.335925e+002 -5.755373e+001 1.383039e+001 -5.871310e+001 1.296385e+001 -3.897749e-001 1.373226e+002
511250000 -1.891517e-001 -1.338360e+002 -5.789600e+001 -1.475954e+000 -5.808479e+001 1.761698e+001 -4.079139e-001 1.372197e+002
511875000 -1.775427e-001 -1.342087e+002 -5.589405e+001 1.735133e+000 -5.766405e+001 1.900511e+001 -3.966792e-001 1.371647e+002
512500000 -1.855921e-001 -1.344937e+002 -5.701138e+001 1.668238e+000 -5.763548e+001 -3.714671e-001 -4.006164e-001 1.370933e+002
513125000 -1.939643e-001 -1.348042e+002 -5.681411e+001 3.780826e+000 -5.731538e+001 1.525808e+001 -3.996283e-001 1.371402e+002
513750000 -1.925730e-001 -1.350249e+002 -5.649052e+001 -4.285721e-001 -5.609504e+001 4.321577e+000 -4.088135e-001 1.370625e+002
514375000 -1.915106e-001 -1.353809e+002 -5.577853e+001 -4.168960e+000 -5.785137e+001 3.991910e+000 -4.063394e-001 1.369552e+002
515000000 -1.964017e-001 -1.356538e+002 -5.738786e+001 -9.640238e+000 -5.635402e+001 -5.850735e-001 -3.954281e-001 1.368891e+002
515625000 -2.020059e-001 -1.360113e+002 -5.604092e+001 -6.756935e+000 -5.597972e+001 4.085844e+000 -3.967170e-001 1.368113e+002
516250000 -1.999552e-001 -1.363047e+002 -5.752080e+001 -3.405622e+000 -5.671957e+001 3.303626e+000 -4.201616e-001 1.367428e+002
516875000 -2.115962e-001 -1.366026e+002 -5.624425e+001 -4.316393e+000 -5.696447e+001 -5.962793e+000 -4.152407e-001 1.367393e+002
517500000 -2.088674e-001 -1.369037e+002 -5.717187e+001 -9.490211e+000 -5.709631e+001 -6.910502e+000 -4.104324e-001 1.365524e+002
518125000 -2.056005e-001 -1.372552e+002 -5.649324e+001 -6.425523e+000 -5.607589e+001 -7.194165e+000 -4.141085e-001 1.364769e+002
518750000 -2.192795e-001 -1.375888e+002 -5.718265e+001 -3.246834e-001 -5.612883e+001 -6.410747e+000 -4.158692e-001 1.364073e+002
519375000 -2.248230e-001 -1.378287e+002 -5.631331e+001 -5.949202e+000 -5.639663e+001 -6.408340e+000 -4.053746e-001 1.362847e+002
520000000 -2.251021e-001 -1.381910e+002 -5.604506e+001 -2.078163e+001 -5.680660e+001 -1.190045e+001 -4.121176e-001 1.361510e+002
520625000 -2.311850e-001 -1.384955e+002 -5.761457e+001 -1.587223e+001 -5.574384e+001 -1.398168e+001 -4.146805e-001 1.360393e+002
521250000 -2.423469e-001 -1.388141e+002 -5.502132e+001 -1.766158e+001 -5.568290e+001 -9.154397e+000 -4.109021e-001 1.359485e+002
521875000 -2.391322e-001 -1.391630e+002 -5.616519e+001 -1.528268e+001 -5.600912e+001 -1.150361e+001 -3.997055e-001 1.358940e+002
522500000 -2.439957e-001 -1.394514e+002 -5.500324e+001 -1.233360e+001 -5.485468e+001 -1.517109e+001 -4.012200e-001 1.357946e+002
523125000 -2.585180e-001 -1.398010e+002 -5.653428e+001 -2.070993e+001 -5.702471e+001 -1.504862e+001 -4.051605e-001 1.357694e+002
523750000 -2.598867e-001 -1.401065e+002 -5.552451e+001 -2.814992e+001 -5.510929e+001 -1.971812e+001 -3.945065e-001 1.356852e+002
524375000 -2.744714e-001 -1.404584e+002 -5.637926e+001 -2.401930e+001 -5.550069e+001 -1.701266e+001 -3.896648e-001 1.356554e+002
525000000 -2.728190e-001 -1.407374e+002 -5.573478e+001 -2.273519e+001 -5.597975e+001 -1.491501e+001 -3.947288e-001 1.356192e+002
525625000 -2.936220e-001 -1.409991e+002 -5.495193e+001 -2.816198e+001 -5.566154e+001 -2.275055e+001 -4.026515e-001 1.355128e+002
526250000 -2.819428e-001 -1.413100e+002 -5.505873e+001 -3.246915e+001 -5.536280e+001 -2.652024e+001 -3.973743e-001 1.355527e+002
526875000 -2.947087e-001 -1.416411e+002 -5.498407e+001 -3.294823e+001 -5.644368e+001 -2.487369e+001 -3.850533e-001 1.355158e+002
527500000 -3.007669e-001 -1.419646e+002 -5.590184e+001 -3.759552e+001 -5.474033e+001 -3.131843e+001 -3.907298e-001 1.355143e+002
528125000 -3.238262e-001 -1.422657e+002 -5.467089e+001 -2.972233e+001 -5.543286e+001 -2.675170e+001 -3.903568e-001 1.355749e+002
528750000 -3.112112e-001 -1.425791e+002 -5.465377e+001 -3.887685e+001 -5.448925e+001 -2.777022e+001 -3.898570e-001 1.355842e+002
529375000 -3.251957e-001 -1.429090e+002 -5.463849e+001 -4.096690e+001 -5.559722e+001 -3.777564e+001 -3.972079e-001 1.355057e+002
530000000 -3.297165e-001 -1.432954e+002 -5.526831e+001 -3.285357e+001 -5.564096e+001 -3.000306e+001 -3.956032e-001 1.355197e+002
530625000 -3.318818e-001 -1.435895e+002 -5.519783e+001 -3.610559e+001 -5.487126e+001 -3.452921e+001 -3.995785e-001 1.354490e+002
531250000 -3.338102e-001 -1.439388e+002 -5.586906e+001 -3.779750e+001 -5.571824e+001 -3.167903e+001 -3.846804e-001 1.354400e+002
531875000 -3.486779e-001 -1.442571e+002 -5.493671e+001 -4.467075e+001 -5.577460e+001 -3.385199e+001 -3.928858e-001 1.353017e+002
532500000 -3.477560e-001 -1.445517e+002 -5.402041e+001 -4.476053e+001 -5.443813e+001 -3.880299e+001 -3.894596e-001 1.353914e+002
533125000 -3.449050e-001 -1.449570e+002 -5.458721e+001 -4.515196e+001 -5.533658e+001 -3.980272e+001 -3.998122e-001 1.353225e+002
533750000 -3.555132e-001 -1.453147e+002 -5.420064e+001 -3.997661e+001 -5.457927e+001 -3.804175e+001 -4.130981e-001 1.352768e+002
534375000 -3.622702e-001 -1.456787e+002 -5.523925e+001 -4.869573e+001 -5.437861e+001 -4.173980e+001 -3.968058e-001 1.352174e+002
535000000 -3.680237e-001 -1.459616e+002 -5.383443e+001 -4.962465e+001 -5.566875e+001 -4.572899e+001 -4.017208e-001 1.351989e+002
535625000 -3.738724e-001 -1.463477e+002 -5.478136e+001 -4.503575e+001 -5.351553e+001 -4.005202e+001 -3.906392e-001 1.351121e+002
536250000 -3.810396e-001 -1.467359e+002 -5.375399e+001 -5.056237e+001 -5.488628e+001 -4.809892e+001 -3.953489e-001 1.350649e+002
536875000 -3.951665e-001 -1.471147e+002 -5.472379e+001 -5.392605e+001 -5.450224e+001 -5.277543e+001 -4.027014e-001 1.350615e+002
537500000 -3.933639e-001 -1.474258e+002 -5.512794e+001 -5.056673e+001 -5.420816e+001 -4.797702e+001 -3.857740e-001 1.350208e+002
538125000 -4.064837e-001 -1.478215e+002 -5.437389e+001 -5.500675e+001 -5.370565e+001 -5.434919e+001 -3.994172e-001 1.349881e+002
538750000 -4.232401e-001 -1.481981e+002 -5.349015e+001 -5.429560e+001 -5.442781e+001 -5.060945e+001 -3.916870e-001 1.349251e+002
539375000 -4.341511e-001 -1.485052e+002 -5.384606e+001 -5.763253e+001 -5.323389e+001 -5.423336e+001 -3.902578e-001 1.349267e+002
540000000 -4.410462e-001 -1.488901e+002 -5.299669e+001 -6.216271e+001 -5.346033e+001 -5.062453e+001 -3.859657e-001 1.348542e+002
540625000 -4.578029e-001 -1.492556e+002 -5.297775e+001 -6.057414e+001 -5.472435e+001 -5.485653e+001 -3.913210e-001 1.348247e+002
541250000 -4.630323e-001 -1.495806e+002 -5.395484e+001 -5.674998e+001 -5.459103e+001 -6.252832e+001 -3.860758e-001 1.348032e+002
541875000 -4.802568e-001 -1.499290e+002 -5.355642e+001 -5.995045e+001 -5.373139e+001 -6.179735e+001 -3.993980e-001 1.346948e+002
542500000 -4.867059e-001 -1.503255e+002 -5.390113e+001 -6.739075e+001 -5.364622e+001 -6.493015e+001 -3.941555e-001 1.346573e+002
543125000 -4.880458e-001 -1.506986e+002 -5.337848e+001 -6.653680e+001 -5.375942e+001 -6.488649e+001 -3.951601e-001 1.345958e+002
543750000 -4.976164e-001 -1.510702e+002 -5.329401e+001 -6.902419e+001 -5.292175e+001 -5.840123e+001 -3.997668e-001 1.345334e+002
544375000 -5.192389e-001 -1.514839e+002 -5.283164e+001 -7.374003e+001 -5.293695e+001 -6.334530e+001 -3.965841e-001 1.345215e+002
545000000 -5.216243e-001 -1.518330e+002 -5.236731e+001 -6.574275e+001 -5.291069e+001 -6.566016e+001 -4.012176e-001 1.344318e+002
545625000 -5.372695e-001 -1.521705e+002 -5.333168e+001 -6.782442e+001 -5.283459e+001 -6.543111e+001 -4.070481e-001 1.343806e+002
546250000 -5.592025e-001 -1.525928e+002 -5.268041e+001 -7.203043e+001 -5.341354e+001 -6.273779e+001 -4.075511e-001 1.342116e+002
546875000 -5.696942e-001 -1.530388e+002 -5.249811e+001 -7.320162e+001 -5.248516e+001 -6.771411e+001 -4.075555e-001 1.341712e+002
547500000 -5.857867e-001 -1.534054e+002 -5.314137e+001 -7.240688e+001 -5.256410e+001 -7.198536e+001 -4.077907e-001 1.340738e+002
548125000 -6.041790e-001 -1.537136e+002 -5.178893e+001 -7.111194e+001 -5.298954e+001 -7.449119e+001 -4.011001e-001 1.339611e+002
548750000 -6.289690e-001 -1.541845e+002 -5.175492e+001 -7.458593e+001 -5.205591e+001 -7.190064e+001 -4.084345e-001 1.338761e+002
549375000 -6.434208e-001 -1.544645e+002 -5.109708e+001 -7.519600e+001 -5.213877e+001 -7.480781e+001 -4.096159e-001 1.335927e+002
550000000 -6.586725e-001 -1.548903e+002 -5.088879e+001 -7.958663e+001 -5.178596e+001 -8.038712e+001 -4.066092e-001 1.336065e+002
550625000 -6.799517e-001 -1.551994e+002 -5.092154e+001 -8.483254e+001 -5.150907e+001 -7.627416e+001 -4.043143e-001 1.335419e+002
551250000 -6.961715e-001 -1.555426e+002 -5.122212e+001 -8.938659e+001 -5.094968e+001 -8.147562e+001 -4.055120e-001 1.334650e+002
551875000 -7.158805e-001 -1.559071e+002 -5.108439e+001 -8.763354e+001 -5.104576e+001 -8.369094e+001 -3.937017e-001 1.333872e+002
552500000 -7.282364e-001 -1.562567e+002 -5.140242e+001 -8.276704e+001 -5.090778e+001 -8.546844e+001 -3.928863e-001 1.333603e+002
553125000 -7.459863e-001 -1.565161e+002 -5.148106e+001 -8.841817e+001 -5.047396e+001 -8.713885e+001 -3.896971e-001 1.333257e+002
553750000 -7.651818e-001 -1.569237e+002 -5.064884e+001 -8.840657e+001 -5.063092e+001 -8.718462e+001 -3.886580e-001 1.332146e+002
554375000 -7.775645e-001 -1.572228e+002 -5.022160e+001 -9.556748e+001 -5.096939e+001 -8.886442e+001 -3.899757e-001 1.331646e+002
555000000 -7.911773e-001 -1.575959e+002 -5.044152e+001 -9.212077e+001 -5.060484e+001 -9.042749e+001 -3.911017e-001 1.332042e+002
555625000 -8.167828e-001 -1.579080e+002 -5.022572e+001 -9.601585e+001 -5.055466e+001 -9.382365e+001 -3.814678e-001 1.331911e+002
556250000 -8.276581e-001 -1.582739e+002 -5.045400e+001 -9.593958e+001 -5.107960e+001 -9.001683e+001 -3.819395e-001 1.331458e+002
556875000 -8.439659e-001 -1.586642e+002 -5.061527e+001 -9.741486e+001 -5.063447e+001 -9.385476e+001 -3.940588e-001 1.331572e+002
557500000 -8.707911e-001 -1.590208e+002 -5.015086e+001 -1.004414e+002 -5.092069e+001 -1.006662e+002 -3.869437e-001 1.331379e+002
558125000 -8.896520e-001 -1.593091e+002 -5.059860e+001 -1.014923e+002 -5.073109e+001 -1.008677e+002 -3.947517e-001 1.331130e+002
558750000 -9.046632e-001 -1.597030e+002 -4.983920e+001 -1.051540e+002 -4.983850e+001 -1.009643e+002 -3.832896e-001 1.330822e+002
559375000 -9.243763e-001 -1.600188e+002 -5.049178e+001 -1.076349e+002 -4.972652e+001 -1.046001e+002 -3.849364e-001 1.330778e+002
560000000 -9.557241e-001 -1.603430e+002 -5.038869e+001 -1.109620e+002 -4.987741e+001 -1.090280e+002 -3.807975e-001 1.330255e+002
560625000 -9.624906e-001 -1.606823e+002 -4.976438e+001 -1.096898e+002 -4.978957e+001 -1.037514e+002 -3.817953e-001 1.330381e+002
561250000 -9.853510e-001 -1.610081e+002 -5.001873e+001 -1.136232e+002 -4.947734e+001 -1.086430e+002 -3.855646e-001 1.329830e+002
561875000 -1.007483e+000 -1.613686e+002 -4.976059e+001 -1.146945e+002 -4.954840e+001 -1.096951e+002 -3.887252e-001 1.329103e+002
562500000 -1.025568e+000 -1.616793e+002 -4.972223e+001 -1.165551e+002 -4.956298e+001 -1.111404e+002 -3.950813e-001 1.329298e+002
563125000 -1.042225e+000 -1.620074e+002 -4.966483e+001 -1.131619e+002 -4.941878e+001 -1.167674e+002 -3.899854e-001 1.328719e+002
563750000 -1.064445e+000 -1.623318e+002 -4.987866e+001 -1.214669e+002 -4.975814e+001 -1.136468e+002 -4.051716e-001 1.327583e+002
564375000 -1.083266e+000 -1.626604e+002 -4.966615e+001 -1.243164e+002 -4.962651e+001 -1.185052e+002 -4.017857e-001 1.326936e+002
565000000 -1.096754e+000 -1.630261e+002 -4.950605e+001 -1.182873e+002 -4.961157e+001 -1.218633e+002 -4.056606e-001 1.325956e+002
565625000 -1.108620e+000 -1.633758e+002 -4.855528e+001 -1.236996e+002 -4.926344e+001 -1.200812e+002 -4.040622e-001 1.325097e+002
566250000 -1.121876e+000 -1.638280e+002 -4.931713e+001 -1.302013e+002 -4.879577e+001 -1.231103e+002 -4.087165e-001 1.323894e+002
566875000 -1.144655e+000 -1.641697e+002 -4.933068e+001 -1.273526e+002 -4.902730e+001 -1.255041e+002 -4.040046e-001 1.321859e+002
567500000 -1.168220e+000 -1.646242e+002 -4.894445e+001 -1.324765e+002 -4.949012e+001 -1.273526e+002 -4.079354e-001 1.321284e+002
568125000 -1.199779e+000 -1.649245e+002 -4.895873e+001 -1.322720e+002 -4.851142e+001 -1.304432e+002 -4.104258e-001 1.319608e+002
568750000 -1.215111e+000 -1.653235e+002 -4.906678e+001 -1.367812e+002 -4.900228e+001 -1.313070e+002 -4.109513e-001 1.318241e+002
569375000 -1.243595e+000 -1.657045e+002 -4.856848e+001 -1.386782e+002 -4.878787e+001 -1.330017e+002 -4.108360e-001 1.317450e+002
570000000 -1.268624e+000 -1.661274e+002 -4.870884e+001 -1.355891e+002 -4.891635e+001 -1.310035e+002 -4.092512e-001 1.315443e+002
570625000 -1.285513e+000 -1.664522e+002 -4.877996e+001 -1.374934e+002 -4.902711e+001 -1.373296e+002 -4.099341e-001 1.314963e+002
571250000 -1.324889e+000 -1.668352e+002 -4.931797e+001 -1.362935e+002 -4.892446e+001 -1.355429e+002 -4.034729e-001 1.313705e+002
571875000 -1.362734e+000 -1.672004e+002 -4.912151e+001 -1.375115e+002 -4.850193e+001 -1.372903e+002 -4.051349e-001 1.312542e+002
572500000 -1.394278e+000 -1.675573e+002 -4.865978e+001 -1.401828e+002 -4.884802e+001 -1.394294e+002 -3.972672e-001 1.311152e+002
573125000 -1.423722e+000 -1.678706e+002 -4.870702e+001 -1.440677e+002 -4.901777e+001 -1.412025e+002 -3.881162e-001 1.309989e+002
573750000 -1.449506e+000 -1.681299e+002 -4.852815e+001 -1.450569e+002 -4.811707e+001 -1.419201e+002 -3.974338e-001 1.309526e+002
574375000 -1.475555e+000 -1.684460e+002 -4.765887e+001 -1.487401e+002 -4.848472e+001 -1.444857e+002 -3.896773e-001 1.309171e+002
575000000 -1.498673e+000 -1.687011e+002 -4.833960e+001 -1.515447e+002 -4.849569e+001 -1.477386e+002 -3.917885e-001 1.308400e+002
575625000 -1.520274e+000 -1.689843e+002 -4.792942e+001 -1.500909e+002 -4.784269e+001 -1.463937e+002 -3.834181e-001 1.308393e+002
576250000 -1.538241e+000 -1.692514e+002 -4.783352e+001 -1.562725e+002 -4.796487e+001 -1.480907e+002 -3.932895e-001 1.308065e+002
576875000 -1.553733e+000 -1.695597e+002 -4.815459e+001 -1.554083e+002 -4.797668e+001 -1.521406e+002 -3.764934e-001 1.307820e+002
577500000 -1.582351e+000 -1.698262e+002 -4.805192e+001 -1.579328e+002 -4.754951e+001 -1.503916e+002 -3.778685e-001 1.307101e+002
578125000 -1.595470e+000 -1.701156e+002 -4.771460e+001 -1.598722e+002 -4.784467e+001 -1.537258e+002 -3.836052e-001 1.308225e+002
578750000 -1.613705e+000 -1.703817e+002 -4.818953e+001 -1.594058e+002 -4.756455e+001 -1.544667e+002 -3.691945e-001 1.308049e+002
579375000 -1.629443e+000 -1.706176e+002 -4.732082e+001 -1.608236e+002 -4.758173e+001 -1.560403e+002 -3.700124e-001 1.307550e+002
580000000 -1.639451e+000 -1.707976e+002 -4.773142e+001 -1.636539e+002 -4.779783e+001 -1.594780e+002 -3.751843e-001 1.307822e+002
580625000 -1.653903e+000 -1.711213e+002 -4.756049e+001 -1.656960e+002 -4.750216e+001 -1.610125e+002 -3.699164e-001 1.308665e+002
581250000 -1.657617e+000 -1.714054e+002 -4.763243e+001 -1.677718e+002 -4.748873e+001 -1.634199e+002 -3.680636e-001 1.308312e+002
581875000 -1.665661e+000 -1.717313e+002 -4.789779e+001 -1.726174e+002 -4.745132e+001 -1.663615e+002 -3.738585e-001 1.308625e+002
582500000 -1.676171e+000 -1.720482e+002 -4.751725e+001 -1.660995e+002 -4.749512e+001 -1.660862e+002 -3.762954e-001 1.307939e+002
583125000 -1.678530e+000 -1.724593e+002 -4.731048e+001 -1.713159e+002 -4.755382e+001 -1.701993e+002 -3.912681e-001 1.307121e+002
583750000 -1.689997e+000 -1.728089e+002 -4.735309e+001 -1.743106e+002 -4.749283e+001 -1.697453e+002 -4.023050e-001 1.306742e+002
584375000 -1.705147e+000 -1.732672e+002 -4.725727e+001 -1.741673e+002 -4.735125e+001 -1.711208e+002 -3.832283e-001 1.305987e+002
585000000 -1.724695e+000 -1.736228e+002 -4.749740e+001 -1.785750e+002 -4.726495e+001 -1.717913e+002 -3.932670e-001 1.305151e+002
585625000 -1.756203e+000 -1.739533e+002 -4.754100e+001 -1.785163e+002 -4.707514e+001 -1.769832e+002 -3.893917e-001 1.304666e+002
586250000 -1.774969e+000 -1.743250e+002 -4.695546e+001 1.764856e+002 -4.714760e+001 -1.745817e+002 -3.901483e-001 1.303766e+002
586875000 -1.794538e+000 -1.746995e+002 -4.677609e+001 1.794303e+002 -4.688327e+001 -1.777268e+002 -4.032678e-001 1.302436e+002
587500000 -1.810050e+000 -1.749871e+002 -4.664193e+001 1.738954e+002 -4.658503e+001 -1.785645e+002 -4.012289e-001 1.301080e+002
588125000 -1.819814e+000 -1.753038e+002 -4.739592e+001 1.738402e+002 -4.679625e+001 1.773390e+002 -3.981982e-001 1.299889e+002
588750000 -1.829330e+000 -1.756441e+002 -4.710656e+001 1.724888e+002 -4.683607e+001 1.780302e+002 -4.054326e-001 1.298864e+002
589375000 -1.822533e+000 -1.760503e+002 -4.655753e+001 1.734942e+002 -4.698148e+001 1.739705e+002 -3.940258e-001 1.297278e+002
590000000 -1.829658e+000 -1.764648e+002 -4.705342e+001 1.716650e+002 -4.672749e+001 1.723941e+002 -3.963400e-001 1.296667e+002
590625000 -1.838657e+000 -1.769109e+002 -4.707443e+001 1.706128e+002 -4.677509e+001 1.745556e+002 -3.949087e-001 1.295462e+002
591250000 -1.850858e+000 -1.774333e+002 -4.688975e+001 1.694083e+002 -4.724623e+001 1.704633e+002 -3.879300e-001 1.294916e+002
591875000 -1.870435e+000 -1.778882e+002 -4.687202e+001 1.657574e+002 -4.713975e+001 1.686616e+002 -3.745689e-001 1.294336e+002
592500000 -1.885910e+000 -1.783625e+002 -4.700979e+001 1.698209e+002 -4.646726e+001 1.693401e+002 -3.751777e-001 1.294374e+002
593125000 -1.916166e+000 -1.788105e+002 -4.678626e+001 1.642326e+002 -4.685572e+001 1.676822e+002 -3.746435e-001 1.294741e+002
593750000 -1.952085e+000 -1.792926e+002 -4.645099e+001 1.636401e+002 -4.666051e+001 1.655808e+002 -3.633596e-001 1.295444e+002
594375000 -1.967015e+000 -1.796986e+002 -4.667325e+001 1.625215e+002 -4.647237e+001 1.662491e+002 -3.548991e-001 1.295631e+002
595000000 -1.992975e+000 1.798749e+002 -4.635855e+001 1.627590e+002 -4.622203e+001 1.637448e+002 -3.691582e-001 1.295762e+002
