!Agilent Technologies,E8364B,US42250235,A.06.04.32
!Agilent E8364B: A.06.04.32
!Date: Friday, January 15, 2021 11:16:59
!Correction: S11(Full 2 Port(1,2)) S21(Full 2 Port(1,2)) S12(Full 2 Port(1,2)) S22(Full 2 Port(1,2)) 
!S2P File: Measurements: S11, S21, S12, S22:
# Hz S  dB   R 50
500000000 -3.026410e-002 -1.287871e+002 -5.800771e+001 1.307278e+002 -5.675645e+001 1.241260e+002 -1.422634e-001 1.379076e+002
500625000 -3.520571e-002 -1.290526e+002 -5.791019e+001 1.345503e+002 -5.705399e+001 1.411385e+002 -1.351599e-001 1.379402e+002
501250000 -3.765061e-002 -1.293564e+002 -5.837371e+001 1.290717e+002 -5.662759e+001 1.327328e+002 -1.360799e-001 1.379221e+002
501875000 -4.091675e-002 -1.296451e+002 -5.765509e+001 1.276839e+002 -5.771321e+001 1.294016e+002 -1.371877e-001 1.378909e+002
502500000 -3.347676e-002 -1.299209e+002 -5.640054e+001 1.276384e+002 -5.739567e+001 1.369002e+002 -1.312205e-001 1.379279e+002
503125000 -3.826534e-002 -1.302240e+002 -5.665679e+001 1.365044e+002 -5.800779e+001 1.233072e+002 -1.380765e-001 1.378131e+002
503750000 -3.749400e-002 -1.304909e+002 -5.845742e+001 1.227756e+002 -5.645355e+001 1.331161e+002 -1.372405e-001 1.378080e+002
504375000 -4.513062e-002 -1.307759e+002 -5.741611e+001 1.287662e+002 -5.630371e+001 1.276438e+002 -1.529410e-001 1.377852e+002
505000000 -4.695534e-002 -1.311118e+002 -5.689714e+001 1.312390e+002 -5.691321e+001 1.247973e+002 -1.524655e-001 1.377499e+002
505625000 -4.582184e-002 -1.314017e+002 -5.701054e+001 1.298902e+002 -5.722389e+001 1.321768e+002 -1.474249e-001 1.376317e+002
506250000 -4.939238e-002 -1.317403e+002 -5.770428e+001 1.293061e+002 -5.747215e+001 1.281651e+002 -1.547805e-001 1.375076e+002
506875000 -4.951166e-002 -1.320646e+002 -5.711992e+001 1.371628e+002 -5.667772e+001 1.356100e+002 -1.557852e-001 1.374315e+002
507500000 -5.641324e-002 -1.323496e+002 -5.682476e+001 1.273338e+002 -5.599832e+001 1.376498e+002 -1.516861e-001 1.372751e+002
508125000 -5.827509e-002 -1.326249e+002 -5.619657e+001 1.246985e+002 -5.735233e+001 1.332264e+002 -1.543877e-001 1.372415e+002
508750000 -6.191824e-002 -1.329143e+002 -5.568295e+001 1.347126e+002 -5.692488e+001 1.352958e+002 -1.531632e-001 1.371565e+002
509375000 -6.365907e-002 -1.333331e+002 -5.639606e+001 1.204841e+002 -5.730545e+001 1.300148e+002 -1.439102e-001 1.370988e+002
510000000 -6.387817e-002 -1.336288e+002 -5.588488e+001 1.318906e+002 -5.663535e+001 1.275500e+002 -1.614204e-001 1.369944e+002
510625000 -7.197932e-002 -1.338623e+002 -5.561849e+001 1.311434e+002 -5.532912e+001 1.254627e+002 -1.445559e-001 1.369955e+002
511250000 -7.691021e-002 -1.341997e+002 -5.466473e+001 1.239191e+002 -5.586057e+001 1.251521e+002 -1.519926e-001 1.368175e+002
511875000 -7.532579e-002 -1.345258e+002 -5.544204e+001 1.366310e+002 -5.591767e+001 1.265155e+002 -1.388303e-001 1.367689e+002
512500000 -7.274179e-002 -1.348073e+002 -5.507812e+001 1.219415e+002 -5.511985e+001 1.180881e+002 -1.434635e-001 1.367398e+002
513125000 -8.081940e-002 -1.351497e+002 -5.578310e+001 1.289940e+002 -5.513991e+001 1.274314e+002 -1.482007e-001 1.367200e+002
513750000 -8.562780e-002 -1.354375e+002 -5.435305e+001 1.236516e+002 -5.544399e+001 1.279597e+002 -1.448437e-001 1.366505e+002
514375000 -8.944163e-002 -1.357716e+002 -5.515144e+001 1.244993e+002 -5.512339e+001 1.233154e+002 -1.374204e-001 1.365775e+002
515000000 -8.726647e-002 -1.360322e+002 -5.427624e+001 1.235986e+002 -5.536322e+001 1.226051e+002 -1.441159e-001 1.365579e+002
515625000 -9.779160e-002 -1.364629e+002 -5.488245e+001 1.179332e+002 -5.480287e+001 1.260725e+002 -1.433733e-001 1.364883e+002
516250000 -9.360443e-002 -1.367170e+002 -5.516470e+001 1.165732e+002 -5.456157e+001 1.269758e+002 -1.470958e-001 1.364489e+002
516875000 -1.085487e-001 -1.370418e+002 -5.468539e+001 1.240316e+002 -5.436100e+001 1.230368e+002 -1.356202e-001 1.364404e+002
517500000 -1.090867e-001 -1.373602e+002 -5.356114e+001 1.235240e+002 -5.442278e+001 1.190484e+002 -1.554885e-001 1.363433e+002
518125000 -1.062856e-001 -1.377525e+002 -5.344036e+001 1.170264e+002 -5.452028e+001 1.259114e+002 -1.467619e-001 1.363308e+002
518750000 -1.165526e-001 -1.380711e+002 -5.490313e+001 1.207925e+002 -5.445038e+001 1.218428e+002 -1.499215e-001 1.363044e+002
519375000 -1.253769e-001 -1.383324e+002 -5.350242e+001 1.232528e+002 -5.380942e+001 1.192521e+002 -1.468314e-001 1.362370e+002
520000000 -1.306477e-001 -1.387284e+002 -5.386677e+001 1.157835e+002 -5.444795e+001 1.191793e+002 -1.520728e-001 1.361027e+002
520625000 -1.373646e-001 -1.390660e+002 -5.343919e+001 1.186508e+002 -5.442202e+001 1.143810e+002 -1.520094e-001 1.359906e+002
521250000 -1.455763e-001 -1.394163e+002 -5.317316e+001 1.175330e+002 -5.409846e+001 1.180410e+002 -1.501408e-001 1.359483e+002
521875000 -1.443667e-001 -1.397745e+002 -5.321636e+001 1.191843e+002 -5.358123e+001 1.179382e+002 -1.466765e-001 1.358927e+002
522500000 -1.446080e-001 -1.401250e+002 -5.274282e+001 1.132204e+002 -5.336333e+001 1.148282e+002 -1.504820e-001 1.357733e+002
523125000 -1.585360e-001 -1.405273e+002 -5.240548e+001 1.154426e+002 -5.292140e+001 1.205666e+002 -1.527157e-001 1.357131e+002
523750000 -1.627409e-001 -1.408286e+002 -5.295060e+001 1.136532e+002 -5.308495e+001 1.191398e+002 -1.529720e-001 1.356171e+002
524375000 -1.796963e-001 -1.412279e+002 -5.187595e+001 1.136606e+002 -5.307372e+001 1.185049e+002 -1.468648e-001 1.355428e+002
525000000 -1.760295e-001 -1.415797e+002 -5.257815e+001 1.151027e+002 -5.271238e+001 1.151096e+002 -1.490024e-001 1.354621e+002
525625000 -1.970275e-001 -1.418735e+002 -5.248989e+001 1.126073e+002 -5.185802e+001 1.138329e+002 -1.585482e-001 1.354134e+002
526250000 -1.855401e-001 -1.422497e+002 -5.207825e+001 1.145689e+002 -5.245543e+001 1.142344e+002 -1.444581e-001 1.353566e+002
526875000 -1.927417e-001 -1.426690e+002 -5.234877e+001 1.133406e+002 -5.216415e+001 1.119373e+002 -1.353693e-001 1.352957e+002
527500000 -2.111562e-001 -1.429680e+002 -5.222670e+001 1.113997e+002 -5.218570e+001 1.080362e+002 -1.374042e-001 1.352238e+002
528125000 -2.212562e-001 -1.433995e+002 -5.192290e+001 1.105638e+002 -5.241690e+001 1.068961e+002 -1.520919e-001 1.352467e+002
528750000 -2.176776e-001 -1.437164e+002 -5.186502e+001 1.111617e+002 -5.212416e+001 1.127159e+002 -1.425767e-001 1.353110e+002
529375000 -2.294821e-001 -1.441462e+002 -5.224776e+001 1.120397e+002 -5.154966e+001 1.068263e+002 -1.476788e-001 1.351904e+002
530000000 -2.459954e-001 -1.445383e+002 -5.142187e+001 1.075692e+002 -5.067390e+001 1.091825e+002 -1.416811e-001 1.351931e+002
530625000 -2.537569e-001 -1.448508e+002 -5.192832e+001 1.059260e+002 -5.148295e+001 1.084153e+002 -1.451677e-001 1.351754e+002
531250000 -2.619531e-001 -1.452774e+002 -5.058817e+001 1.107111e+002 -5.135851e+001 1.098706e+002 -1.374620e-001 1.350918e+002
531875000 -2.726494e-001 -1.456003e+002 -5.108768e+001 1.101496e+002 -5.053604e+001 1.087819e+002 -1.367154e-001 1.350776e+002
532500000 -2.795691e-001 -1.459587e+002 -5.116715e+001 1.075404e+002 -5.129144e+001 1.075326e+002 -1.378067e-001 1.350979e+002
533125000 -2.957153e-001 -1.463655e+002 -5.125106e+001 1.075357e+002 -5.118441e+001 1.055614e+002 -1.500853e-001 1.351231e+002
533750000 -3.034844e-001 -1.467843e+002 -5.033006e+001 1.069725e+002 -4.966637e+001 1.039201e+002 -1.508031e-001 1.351005e+002
534375000 -3.168011e-001 -1.471704e+002 -5.086340e+001 1.068144e+002 -5.074874e+001 1.033641e+002 -1.432739e-001 1.350594e+002
535000000 -3.327374e-001 -1.475206e+002 -5.092011e+001 1.071237e+002 -4.979821e+001 1.094374e+002 -1.482100e-001 1.350562e+002
535625000 -3.394682e-001 -1.479456e+002 -5.011680e+001 1.038010e+002 -4.969176e+001 1.010481e+002 -1.427297e-001 1.350325e+002
536250000 -3.534400e-001 -1.483409e+002 -4.991564e+001 1.051648e+002 -4.937848e+001 1.041412e+002 -1.399508e-001 1.349549e+002
536875000 -3.726614e-001 -1.487687e+002 -4.910148e+001 1.052350e+002 -4.979177e+001 1.065872e+002 -1.494401e-001 1.349439e+002
537500000 -3.834270e-001 -1.490932e+002 -4.963321e+001 1.002476e+002 -4.925929e+001 1.029670e+002 -1.419889e-001 1.349518e+002
538125000 -4.024633e-001 -1.495173e+002 -4.931802e+001 1.006730e+002 -4.921500e+001 1.022450e+002 -1.508586e-001 1.348927e+002
538750000 -4.227605e-001 -1.498966e+002 -4.903566e+001 9.958801e+001 -4.869741e+001 9.964138e+001 -1.491468e-001 1.348748e+002
539375000 -4.448264e-001 -1.502913e+002 -4.838647e+001 9.731619e+001 -4.915550e+001 9.962767e+001 -1.577266e-001 1.347843e+002
540000000 -4.618301e-001 -1.507028e+002 -4.833199e+001 9.637642e+001 -4.823034e+001 9.735231e+001 -1.498769e-001 1.346890e+002
540625000 -4.803174e-001 -1.511573e+002 -4.856414e+001 9.911144e+001 -4.829796e+001 9.761282e+001 -1.517268e-001 1.346464e+002
541250000 -5.043225e-001 -1.515138e+002 -4.829127e+001 9.799920e+001 -4.818801e+001 9.477583e+001 -1.530592e-001 1.345151e+002
541875000 -5.200495e-001 -1.518817e+002 -4.798782e+001 9.392849e+001 -4.796041e+001 9.284509e+001 -1.655771e-001 1.344024e+002
542500000 -5.427506e-001 -1.522742e+002 -4.837803e+001 9.768383e+001 -4.810185e+001 9.762338e+001 -1.590012e-001 1.343165e+002
543125000 -5.642022e-001 -1.527571e+002 -4.747962e+001 9.162872e+001 -4.767847e+001 9.370744e+001 -1.637629e-001 1.341618e+002
543750000 -5.848750e-001 -1.531458e+002 -4.747802e+001 9.382041e+001 -4.771056e+001 9.147957e+001 -1.664648e-001 1.340870e+002
544375000 -6.086670e-001 -1.535260e+002 -4.719100e+001 9.374115e+001 -4.716485e+001 8.951893e+001 -1.669952e-001 1.339217e+002
545000000 -6.373706e-001 -1.539518e+002 -4.711283e+001 8.979218e+001 -4.698386e+001 8.929963e+001 -1.651980e-001 1.338143e+002
545625000 -6.595073e-001 -1.544038e+002 -4.732563e+001 8.946534e+001 -4.690134e+001 8.870670e+001 -1.613510e-001 1.337099e+002
546250000 -6.930303e-001 -1.547448e+002 -4.664120e+001 8.572282e+001 -4.685431e+001 8.773898e+001 -1.702916e-001 1.335371e+002
546875000 -7.227019e-001 -1.552086e+002 -4.643041e+001 8.976532e+001 -4.667205e+001 8.939870e+001 -1.632737e-001 1.335227e+002
547500000 -7.531356e-001 -1.556166e+002 -4.671847e+001 8.577708e+001 -4.608661e+001 8.690300e+001 -1.636467e-001 1.334232e+002
548125000 -7.804682e-001 -1.559872e+002 -4.631340e+001 8.449915e+001 -4.607182e+001 8.525831e+001 -1.568894e-001 1.332777e+002
548750000 -8.108326e-001 -1.565003e+002 -4.621395e+001 8.651811e+001 -4.567864e+001 8.343342e+001 -1.619565e-001 1.332731e+002
549375000 -8.463355e-001 -1.569026e+002 -4.576311e+001 8.287775e+001 -4.590852e+001 7.855336e+001 -1.538109e-001 1.330442e+002
550000000 -8.765755e-001 -1.573009e+002 -4.563060e+001 7.978178e+001 -4.560482e+001 8.021259e+001 -1.598388e-001 1.331563e+002
550625000 -9.185133e-001 -1.577256e+002 -4.599008e+001 7.822454e+001 -4.527162e+001 7.977996e+001 -1.453213e-001 1.330643e+002
551250000 -9.497985e-001 -1.580797e+002 -4.544746e+001 7.731450e+001 -4.497512e+001 7.884547e+001 -1.481438e-001 1.330529e+002
551875000 -9.885089e-001 -1.584882e+002 -4.507448e+001 7.640832e+001 -4.502525e+001 7.620962e+001 -1.443065e-001 1.330239e+002
552500000 -1.023778e+000 -1.589015e+002 -4.526235e+001 7.651781e+001 -4.492799e+001 7.494718e+001 -1.434142e-001 1.329664e+002
553125000 -1.057257e+000 -1.592133e+002 -4.482682e+001 7.666312e+001 -4.478923e+001 7.499229e+001 -1.455603e-001 1.330378e+002
553750000 -1.101954e+000 -1.596254e+002 -4.507081e+001 7.238575e+001 -4.457294e+001 7.230660e+001 -1.494539e-001 1.329663e+002
554375000 -1.143168e+000 -1.599232e+002 -4.474426e+001 7.121185e+001 -4.450079e+001 7.209827e+001 -1.435890e-001 1.329597e+002
555000000 -1.190199e+000 -1.602826e+002 -4.451712e+001 7.334819e+001 -4.483626e+001 6.862863e+001 -1.441639e-001 1.329865e+002
555625000 -1.236701e+000 -1.605880e+002 -4.459483e+001 6.835130e+001 -4.432602e+001 6.845268e+001 -1.537343e-001 1.330005e+002
556250000 -1.272444e+000 -1.609360e+002 -4.406533e+001 6.866404e+001 -4.405155e+001 6.491755e+001 -1.495742e-001 1.329384e+002
556875000 -1.313945e+000 -1.612715e+002 -4.406683e+001 6.648753e+001 -4.376001e+001 6.502769e+001 -1.648007e-001 1.329760e+002
557500000 -1.371299e+000 -1.615230e+002 -4.394583e+001 6.539568e+001 -4.403688e+001 6.516668e+001 -1.599329e-001 1.328553e+002
558125000 -1.413424e+000 -1.618220e+002 -4.402484e+001 6.302651e+001 -4.361355e+001 6.345747e+001 -1.641942e-001 1.328214e+002
558750000 -1.458122e+000 -1.620816e+002 -4.346152e+001 6.137875e+001 -4.320632e+001 6.025648e+001 -1.630862e-001 1.327585e+002
559375000 -1.505782e+000 -1.624059e+002 -4.296210e+001 6.101876e+001 -4.341415e+001 5.838525e+001 -1.522647e-001 1.327034e+002
560000000 -1.548619e+000 -1.626183e+002 -4.341079e+001 5.981173e+001 -4.343699e+001 5.783928e+001 -1.597519e-001 1.325788e+002
560625000 -1.605725e+000 -1.628383e+002 -4.296368e+001 5.780606e+001 -4.335311e+001 5.594904e+001 -1.525293e-001 1.325683e+002
561250000 -1.648875e+000 -1.630473e+002 -4.309619e+001 5.656020e+001 -4.314468e+001 5.444291e+001 -1.573185e-001 1.324647e+002
561875000 -1.696693e+000 -1.633085e+002 -4.289567e+001 5.463689e+001 -4.294603e+001 5.407418e+001 -1.620459e-001 1.323820e+002
562500000 -1.741271e+000 -1.634759e+002 -4.284242e+001 5.205534e+001 -4.279565e+001 5.229646e+001 -1.702446e-001 1.323819e+002
563125000 -1.782014e+000 -1.636592e+002 -4.282333e+001 5.195050e+001 -4.263874e+001 4.989388e+001 -1.660963e-001 1.322876e+002
563750000 -1.839305e+000 -1.638480e+002 -4.262682e+001 5.069341e+001 -4.274418e+001 4.950807e+001 -1.686648e-001 1.321574e+002
564375000 -1.881063e+000 -1.639680e+002 -4.259776e+001 4.928270e+001 -4.247215e+001 4.796362e+001 -1.593400e-001 1.321422e+002
565000000 -1.928767e+000 -1.641532e+002 -4.237107e+001 4.696466e+001 -4.234841e+001 4.561801e+001 -1.573627e-001 1.320748e+002
565625000 -1.964165e+000 -1.642684e+002 -4.251581e+001 4.470779e+001 -4.243420e+001 4.515654e+001 -1.628261e-001 1.319933e+002
566250000 -2.002607e+000 -1.644202e+002 -4.187561e+001 4.481769e+001 -4.219969e+001 4.348617e+001 -1.633321e-001 1.319537e+002
566875000 -2.051412e+000 -1.645367e+002 -4.206184e+001 4.307803e+001 -4.201398e+001 4.315255e+001 -1.541469e-001 1.318850e+002
567500000 -2.092811e+000 -1.646964e+002 -4.208229e+001 4.178529e+001 -4.196493e+001 4.045127e+001 -1.519624e-001 1.317937e+002
568125000 -2.129668e+000 -1.648181e+002 -4.193487e+001 4.117839e+001 -4.191835e+001 3.963699e+001 -1.635907e-001 1.317657e+002
568750000 -2.164532e+000 -1.649192e+002 -4.171982e+001 3.710577e+001 -4.161053e+001 3.581137e+001 -1.687837e-001 1.316615e+002
569375000 -2.197789e+000 -1.650617e+002 -4.164265e+001 3.792778e+001 -4.149448e+001 3.576081e+001 -1.643745e-001 1.316846e+002
570000000 -2.223339e+000 -1.651301e+002 -4.157386e+001 3.379959e+001 -4.171839e+001 3.240161e+001 -1.631339e-001 1.314808e+002
570625000 -2.241843e+000 -1.652375e+002 -4.141261e+001 3.209734e+001 -4.156907e+001 3.148507e+001 -1.680369e-001 1.314574e+002
571250000 -2.270824e+000 -1.653483e+002 -4.150409e+001 3.117402e+001 -4.146429e+001 3.094295e+001 -1.709281e-001 1.314172e+002
571875000 -2.299704e+000 -1.654918e+002 -4.137532e+001 3.187907e+001 -4.118360e+001 2.944759e+001 -1.627550e-001 1.313591e+002
572500000 -2.328932e+000 -1.655670e+002 -4.139332e+001 2.808960e+001 -4.127206e+001 2.642194e+001 -1.846640e-001 1.312233e+002
573125000 -2.341838e+000 -1.656681e+002 -4.105164e+001 2.803342e+001 -4.139384e+001 2.789412e+001 -1.647114e-001 1.311266e+002
573750000 -2.362916e+000 -1.657768e+002 -4.107222e+001 2.416718e+001 -4.110732e+001 2.523163e+001 -1.760402e-001 1.310364e+002
574375000 -2.387442e+000 -1.658454e+002 -4.104467e+001 2.374804e+001 -4.115074e+001 2.335253e+001 -1.688834e-001 1.309431e+002
575000000 -2.399372e+000 -1.659834e+002 -4.089643e+001 2.229040e+001 -4.117070e+001 1.982052e+001 -1.659437e-001 1.308188e+002
575625000 -2.417224e+000 -1.660541e+002 -4.102357e+001 2.209791e+001 -4.105778e+001 1.907951e+001 -1.663027e-001 1.307623e+002
576250000 -2.430913e+000 -1.661321e+002 -4.092815e+001 1.915334e+001 -4.088036e+001 1.815740e+001 -1.694339e-001 1.306344e+002
576875000 -2.431076e+000 -1.662010e+002 -4.083116e+001 1.947393e+001 -4.102435e+001 1.683273e+001 -1.761530e-001 1.305780e+002
577500000 -2.451001e+000 -1.662647e+002 -4.068895e+001 1.548851e+001 -4.106036e+001 1.656221e+001 -1.622508e-001 1.304771e+002
578125000 -2.457775e+000 -1.663479e+002 -4.086499e+001 1.358389e+001 -4.091505e+001 1.414216e+001 -1.579110e-001 1.304813e+002
578750000 -2.451378e+000 -1.664556e+002 -4.074597e+001 1.188074e+001 -4.061211e+001 1.263071e+001 -1.586083e-001 1.303827e+002
579375000 -2.461378e+000 -1.664691e+002 -4.075532e+001 9.412141e+000 -4.069919e+001 1.069819e+001 -1.497987e-001 1.303793e+002
580000000 -2.453125e+000 -1.665251e+002 -4.079203e+001 1.005912e+001 -4.062146e+001 8.401870e+000 -1.612173e-001 1.303256e+002
580625000 -2.444550e+000 -1.666327e+002 -4.079411e+001 8.153469e+000 -4.096665e+001 7.081942e+000 -1.517368e-001 1.303168e+002
581250000 -2.445933e+000 -1.667126e+002 -4.081459e+001 7.938498e+000 -4.054283e+001 5.757602e+000 -1.532789e-001 1.303411e+002
581875000 -2.429497e+000 -1.668354e+002 -4.097088e+001 4.080564e+000 -4.078951e+001 6.735777e+000 -1.633249e-001 1.303661e+002
582500000 -2.423774e+000 -1.670021e+002 -4.083987e+001 3.936314e+000 -4.077099e+001 3.955386e+000 -1.445771e-001 1.303030e+002
583125000 -2.409952e+000 -1.671760e+002 -4.075882e+001 2.813839e+000 -4.075677e+001 3.055597e+000 -1.518754e-001 1.302992e+002
583750000 -2.396092e+000 -1.673530e+002 -4.081622e+001 2.839304e+000 -4.090945e+001 1.705627e+000 -1.610434e-001 1.302743e+002
584375000 -2.382416e+000 -1.675557e+002 -4.052536e+001 8.457943e-001 -4.073224e+001 1.106218e+000 -1.531994e-001 1.302267e+002
585000000 -2.369927e+000 -1.677254e+002 -4.042376e+001 -6.117398e-001 -4.072092e+001 -1.670854e+000 -1.634620e-001 1.302285e+002
585625000 -2.371157e+000 -1.679598e+002 -4.073834e+001 -2.419022e+000 -4.072459e+001 -8.817902e-001 -1.579244e-001 1.301849e+002
586250000 -2.344193e+000 -1.682528e+002 -4.057318e+001 -2.134191e+000 -4.077963e+001 -3.830045e+000 -1.606048e-001 1.302248e+002
586875000 -2.323982e+000 -1.684814e+002 -4.045277e+001 -3.059777e+000 -4.058735e+001 -4.063159e+000 -1.663256e-001 1.301195e+002
587500000 -2.316132e+000 -1.687909e+002 -4.063555e+001 -5.194977e+000 -4.053137e+001 -5.470243e+000 -1.608894e-001 1.300660e+002
588125000 -2.303965e+000 -1.690591e+002 -4.043965e+001 -5.227737e+000 -4.059170e+001 -6.564394e+000 -1.702846e-001 1.299346e+002
588750000 -2.290027e+000 -1.693449e+002 -4.055871e+001 -6.680511e+000 -4.061757e+001 -8.125820e+000 -1.791216e-001 1.299236e+002
589375000 -2.284192e+000 -1.696709e+002 -4.048127e+001 -7.118223e+000 -4.048167e+001 -8.980788e+000 -1.658555e-001 1.297571e+002
590000000 -2.278536e+000 -1.700033e+002 -4.046715e+001 -8.722175e+000 -4.050874e+001 -8.414507e+000 -1.675980e-001 1.297527e+002
590625000 -2.274972e+000 -1.702981e+002 -4.047793e+001 -9.284879e+000 -4.046494e+001 -1.086099e+001 -1.728190e-001 1.295407e+002
591250000 -2.272809e+000 -1.706617e+002 -4.034909e+001 -1.004696e+001 -4.044373e+001 -1.221362e+001 -1.765101e-001 1.294819e+002
591875000 -2.274405e+000 -1.708945e+002 -4.029131e+001 -1.154882e+001 -4.046958e+001 -1.169961e+001 -1.712334e-001 1.293861e+002
592500000 -2.273075e+000 -1.711748e+002 -4.031626e+001 -1.298675e+001 -4.041077e+001 -1.308321e+001 -1.708378e-001 1.293727e+002
593125000 -2.273264e+000 -1.714882e+002 -3.985080e+001 -1.453008e+001 -4.041934e+001 -1.609300e+001 -1.776678e-001 1.293055e+002
593750000 -2.266506e+000 -1.718085e+002 -4.033407e+001 -1.478719e+001 -4.027908e+001 -1.520969e+001 -1.625057e-001 1.293601e+002
594375000 -2.251107e+000 -1.720352e+002 -4.002786e+001 -1.639021e+001 -4.035678e+001 -1.698463e+001 -1.626854e-001 1.292593e+002
595000000 -2.243452e+000 -1.723750e+002 -4.030572e+001 -1.582873e+001 -4.016456e+001 -1.913900e+001 -1.627443e-001 1.292337e+002
595625000 -2.227734e+000 -1.728279e+002 -3.996776e+001 -1.893802e+001 -3.992175e+001 -1.965215e+001 -1.595220e-001 1.291681e+002
