!Agilent Technologies,E8364B,US42250235,A.06.04.32
!Agilent E8364B: A.06.04.32
!Date: Friday, January 15, 2021 12:37:10
!Correction: S11(Full 2 Port(1,2)) S21(Full 2 Port(1,2)) S12(Full 2 Port(1,2)) S22(Full 2 Port(1,2)) 
!S2P File: Measurements: S11, S21, S12, S22:
# Hz S  dB   R 50
500000000 -1.210694e-001 -1.289384e+002 -6.065800e+001 1.374375e+001 -6.193753e+001 2.831990e+001 -1.389997e-001 1.386344e+002
500625000 -1.167938e-001 -1.291801e+002 -5.949347e+001 2.101613e+001 -6.084892e+001 4.899663e+000 -1.419060e-001 1.385877e+002
501250000 -1.208087e-001 -1.294479e+002 -6.325689e+001 -5.383988e+000 -6.098722e+001 2.167502e+001 -1.415765e-001 1.384862e+002
501875000 -1.255469e-001 -1.297370e+002 -6.001650e+001 2.489124e+001 -6.085361e+001 2.012141e+001 -1.385558e-001 1.385139e+002
502500000 -1.196800e-001 -1.299981e+002 -6.257926e+001 2.994689e+001 -6.215650e+001 1.547271e+001 -1.355292e-001 1.384555e+002
503125000 -1.330204e-001 -1.302983e+002 -6.292195e+001 -1.536090e+000 -6.171123e+001 2.455680e+001 -1.421870e-001 1.383085e+002
503750000 -1.296313e-001 -1.305084e+002 -6.109404e+001 9.964359e+000 -6.031971e+001 6.908494e+000 -1.406969e-001 1.382841e+002
504375000 -1.439642e-001 -1.308003e+002 -6.051724e+001 2.841737e+001 -6.347857e+001 2.621210e+001 -1.527845e-001 1.382439e+002
505000000 -1.467889e-001 -1.311013e+002 -5.947008e+001 2.044286e+001 -5.901124e+001 9.277210e+000 -1.573006e-001 1.382106e+002
505625000 -1.485024e-001 -1.313553e+002 -6.082999e+001 1.430388e+001 -6.296454e+001 1.052241e+001 -1.487127e-001 1.381089e+002
506250000 -1.586762e-001 -1.316532e+002 -6.181796e+001 1.395399e+001 -6.108728e+001 1.651739e+001 -1.475471e-001 1.379726e+002
506875000 -1.512192e-001 -1.319109e+002 -6.163642e+001 4.720340e+000 -6.049030e+001 8.754913e+000 -1.471052e-001 1.379318e+002
507500000 -1.596624e-001 -1.322233e+002 -5.905776e+001 4.289916e+000 -6.024029e+001 -8.542848e+000 -1.443845e-001 1.378226e+002
508125000 -1.659329e-001 -1.324756e+002 -5.922513e+001 2.672439e+000 -6.155041e+001 -9.030788e+000 -1.443672e-001 1.377910e+002
508750000 -1.626397e-001 -1.327093e+002 -6.037784e+001 -8.737566e+000 -6.078618e+001 -2.666248e+000 -1.437168e-001 1.377137e+002
509375000 -1.656093e-001 -1.330774e+002 -6.159041e+001 -2.427489e+000 -6.112791e+001 -1.170376e+000 -1.415285e-001 1.376908e+002
510000000 -1.654245e-001 -1.333968e+002 -6.025495e+001 2.452232e+000 -6.078666e+001 -2.853698e+000 -1.430307e-001 1.376356e+002
510625000 -1.775984e-001 -1.336380e+002 -6.090771e+001 -6.114508e+000 -6.010843e+001 -2.065336e+000 -1.324282e-001 1.376367e+002
511250000 -1.786752e-001 -1.339086e+002 -5.943410e+001 -6.645680e+000 -6.063284e+001 -1.548501e+001 -1.385607e-001 1.374676e+002
511875000 -1.759971e-001 -1.342113e+002 -6.118702e+001 -9.395821e+000 -6.078142e+001 -1.602788e+001 -1.339502e-001 1.374787e+002
512500000 -1.726950e-001 -1.345261e+002 -6.032624e+001 -2.588579e+001 -5.892370e+001 -1.261347e+001 -1.400268e-001 1.374340e+002
513125000 -1.817787e-001 -1.348567e+002 -5.837767e+001 -6.113895e+000 -6.094073e+001 -1.927993e+000 -1.425220e-001 1.374510e+002
513750000 -1.841496e-001 -1.351496e+002 -6.019662e+001 8.948041e+000 -6.142338e+001 -1.460826e+001 -1.499260e-001 1.373917e+002
514375000 -1.813065e-001 -1.354535e+002 -6.050784e+001 -1.655409e+001 -6.281232e+001 -6.781896e+000 -1.440850e-001 1.372407e+002
515000000 -1.859718e-001 -1.357697e+002 -6.078664e+001 -5.362063e+000 -6.013250e+001 -7.830885e+000 -1.376784e-001 1.372558e+002
515625000 -1.940537e-001 -1.361563e+002 -5.897541e+001 -1.810174e+001 -6.033963e+001 -1.110973e+001 -1.461282e-001 1.371560e+002
516250000 -1.867787e-001 -1.364255e+002 -6.014480e+001 -9.386951e+000 -6.054331e+001 -1.761560e+001 -1.525851e-001 1.370512e+002
516875000 -2.021141e-001 -1.367402e+002 -6.021755e+001 -1.763605e+001 -5.963667e+001 -1.426209e+001 -1.498973e-001 1.370747e+002
517500000 -2.046542e-001 -1.370790e+002 -5.972676e+001 -1.819223e+001 -5.942606e+001 -1.933959e+001 -1.562714e-001 1.369312e+002
518125000 -2.026877e-001 -1.374638e+002 -5.883402e+001 -2.615699e+001 -6.037925e+001 -2.441547e+001 -1.526353e-001 1.367700e+002
518750000 -2.118334e-001 -1.377885e+002 -5.970342e+001 -2.208435e+001 -6.024881e+001 -2.857224e+001 -1.613362e-001 1.367437e+002
519375000 -2.209467e-001 -1.380182e+002 -5.826085e+001 -1.993420e+001 -5.941108e+001 -1.700819e+001 -1.497288e-001 1.365939e+002
520000000 -2.183012e-001 -1.383736e+002 -5.872670e+001 -2.334163e+001 -5.973620e+001 -2.242853e+001 -1.519380e-001 1.365141e+002
520625000 -2.272927e-001 -1.387160e+002 -5.950389e+001 -1.760433e+001 -5.982309e+001 -1.656599e+001 -1.537792e-001 1.363763e+002
521250000 -2.315127e-001 -1.390179e+002 -5.956258e+001 -2.588299e+001 -5.761652e+001 -2.571150e+001 -1.495547e-001 1.362881e+002
521875000 -2.304649e-001 -1.394170e+002 -5.896656e+001 -2.547628e+001 -5.938512e+001 -2.851896e+001 -1.459052e-001 1.362641e+002
522500000 -2.451893e-001 -1.397234e+002 -5.947844e+001 -1.906044e+001 -5.998145e+001 -2.753035e+001 -1.518036e-001 1.361073e+002
523125000 -2.552400e-001 -1.400730e+002 -5.862696e+001 -3.772032e+001 -5.830312e+001 -2.960530e+001 -1.489251e-001 1.360874e+002
523750000 -2.535360e-001 -1.403725e+002 -5.757067e+001 -2.544477e+001 -5.922464e+001 -3.275592e+001 -1.427173e-001 1.360003e+002
524375000 -2.696157e-001 -1.406815e+002 -5.789120e+001 -3.295799e+001 -5.763887e+001 -2.998846e+001 -1.353679e-001 1.359891e+002
525000000 -2.734686e-001 -1.410173e+002 -5.858158e+001 -2.793026e+001 -5.762995e+001 -2.845690e+001 -1.429307e-001 1.359614e+002
525625000 -2.890084e-001 -1.412654e+002 -5.774674e+001 -3.920549e+001 -5.817835e+001 -3.309177e+001 -1.409788e-001 1.358540e+002
526250000 -2.842576e-001 -1.416244e+002 -5.880610e+001 -3.525018e+001 -5.872835e+001 -4.300775e+001 -1.387956e-001 1.358733e+002
526875000 -2.953980e-001 -1.419475e+002 -5.711337e+001 -3.610047e+001 -5.849468e+001 -4.514169e+001 -1.301071e-001 1.358552e+002
527500000 -3.009046e-001 -1.422951e+002 -5.763403e+001 -5.069275e+001 -5.764846e+001 -3.221688e+001 -1.371447e-001 1.358166e+002
528125000 -3.185920e-001 -1.426537e+002 -5.844236e+001 -4.384566e+001 -5.845518e+001 -4.123797e+001 -1.409318e-001 1.358290e+002
528750000 -3.183028e-001 -1.429146e+002 -5.721101e+001 -4.423035e+001 -5.598124e+001 -4.326746e+001 -1.462085e-001 1.358991e+002
529375000 -3.289786e-001 -1.432283e+002 -5.618372e+001 -3.772157e+001 -5.886543e+001 -4.936722e+001 -1.401537e-001 1.358356e+002
530000000 -3.416754e-001 -1.435974e+002 -5.618365e+001 -4.981696e+001 -5.672429e+001 -4.974826e+001 -1.344036e-001 1.358081e+002
530625000 -3.491429e-001 -1.438645e+002 -5.653457e+001 -5.304668e+001 -5.732476e+001 -4.931501e+001 -1.391953e-001 1.357702e+002
531250000 -3.519086e-001 -1.442271e+002 -5.755722e+001 -5.657481e+001 -5.809749e+001 -5.650306e+001 -1.355587e-001 1.356865e+002
531875000 -3.667965e-001 -1.445333e+002 -5.858285e+001 -5.781798e+001 -5.691813e+001 -5.605421e+001 -1.473558e-001 1.357246e+002
532500000 -3.721305e-001 -1.447787e+002 -5.722521e+001 -5.671091e+001 -5.720710e+001 -5.977887e+001 -1.408700e-001 1.356883e+002
533125000 -3.769487e-001 -1.451559e+002 -5.640299e+001 -5.269999e+001 -5.799445e+001 -5.396146e+001 -1.423085e-001 1.356617e+002
533750000 -3.811802e-001 -1.455041e+002 -5.630062e+001 -6.170646e+001 -5.653391e+001 -5.247987e+001 -1.559804e-001 1.355822e+002
534375000 -3.851460e-001 -1.458663e+002 -5.628346e+001 -6.141809e+001 -5.653576e+001 -5.547330e+001 -1.371404e-001 1.355123e+002
535000000 -3.949790e-001 -1.461467e+002 -5.621255e+001 -5.865728e+001 -5.662440e+001 -5.556457e+001 -1.461651e-001 1.354900e+002
535625000 -4.047534e-001 -1.465450e+002 -5.523153e+001 -6.059508e+001 -5.649816e+001 -5.929000e+001 -1.436286e-001 1.355019e+002
536250000 -4.091747e-001 -1.468768e+002 -5.696839e+001 -6.310088e+001 -5.614093e+001 -6.487568e+001 -1.448106e-001 1.353824e+002
536875000 -4.205983e-001 -1.472484e+002 -5.629945e+001 -6.798368e+001 -5.630529e+001 -6.346249e+001 -1.492686e-001 1.353251e+002
537500000 -4.245716e-001 -1.475446e+002 -5.571715e+001 -6.923473e+001 -5.753361e+001 -6.367049e+001 -1.397262e-001 1.353875e+002
538125000 -4.338800e-001 -1.479562e+002 -5.751306e+001 -5.632883e+001 -5.524010e+001 -6.553461e+001 -1.502365e-001 1.353330e+002
538750000 -4.572960e-001 -1.483071e+002 -5.599271e+001 -6.906888e+001 -5.650545e+001 -6.763610e+001 -1.455781e-001 1.352705e+002
539375000 -4.694487e-001 -1.486353e+002 -5.516848e+001 -6.528217e+001 -5.647421e+001 -6.953005e+001 -1.474505e-001 1.352881e+002
540000000 -4.718646e-001 -1.490325e+002 -5.512492e+001 -7.368224e+001 -5.504412e+001 -7.137894e+001 -1.473255e-001 1.351803e+002
540625000 -4.812591e-001 -1.493869e+002 -5.508193e+001 -6.953804e+001 -5.602462e+001 -7.210632e+001 -1.414336e-001 1.351764e+002
541250000 -4.977463e-001 -1.497506e+002 -5.607444e+001 -7.362346e+001 -5.530838e+001 -6.549907e+001 -1.462199e-001 1.351210e+002
541875000 -5.152184e-001 -1.500780e+002 -5.645810e+001 -6.964794e+001 -5.691343e+001 -7.038537e+001 -1.513691e-001 1.350480e+002
542500000 -5.270314e-001 -1.504735e+002 -5.565575e+001 -7.895263e+001 -5.585485e+001 -7.394392e+001 -1.483003e-001 1.350276e+002
543125000 -5.328356e-001 -1.508718e+002 -5.477302e+001 -7.368902e+001 -5.473271e+001 -7.354276e+001 -1.465673e-001 1.349469e+002
543750000 -5.408389e-001 -1.512177e+002 -5.580626e+001 -7.441040e+001 -5.557540e+001 -7.016634e+001 -1.595653e-001 1.348725e+002
544375000 -5.596087e-001 -1.515701e+002 -5.613803e+001 -7.611343e+001 -5.510440e+001 -7.851648e+001 -1.577433e-001 1.347764e+002
545000000 -5.659226e-001 -1.519158e+002 -5.504658e+001 -7.652541e+001 -5.526005e+001 -7.629282e+001 -1.502358e-001 1.347682e+002
545625000 -5.850489e-001 -1.523249e+002 -5.461215e+001 -8.063185e+001 -5.590919e+001 -7.282078e+001 -1.540887e-001 1.346994e+002
546250000 -6.024368e-001 -1.527052e+002 -5.437062e+001 -8.029780e+001 -5.502127e+001 -7.837135e+001 -1.642459e-001 1.345286e+002
546875000 -6.194679e-001 -1.531321e+002 -5.483385e+001 -8.300159e+001 -5.533933e+001 -8.089235e+001 -1.652740e-001 1.345210e+002
547500000 -6.358943e-001 -1.534928e+002 -5.399992e+001 -8.096813e+001 -5.524327e+001 -8.718842e+001 -1.651749e-001 1.344046e+002
548125000 -6.585001e-001 -1.538396e+002 -5.556573e+001 -8.188243e+001 -5.473648e+001 -8.780171e+001 -1.649025e-001 1.342784e+002
548750000 -6.793199e-001 -1.542516e+002 -5.412166e+001 -8.994125e+001 -5.393109e+001 -8.292290e+001 -1.604451e-001 1.341775e+002
549375000 -6.958234e-001 -1.546279e+002 -5.410587e+001 -8.336781e+001 -5.443277e+001 -8.913277e+001 -1.645055e-001 1.339468e+002
550000000 -7.138792e-001 -1.549311e+002 -5.424249e+001 -9.543446e+001 -5.400243e+001 -8.417992e+001 -1.658938e-001 1.339796e+002
550625000 -7.370414e-001 -1.552756e+002 -5.413297e+001 -8.898254e+001 -5.398890e+001 -8.966093e+001 -1.550496e-001 1.338532e+002
551250000 -7.496975e-001 -1.556116e+002 -5.339026e+001 -9.434528e+001 -5.351468e+001 -8.808236e+001 -1.572139e-001 1.338281e+002
551875000 -7.620620e-001 -1.558908e+002 -5.395233e+001 -9.233677e+001 -5.417014e+001 -9.347150e+001 -1.554842e-001 1.337394e+002
552500000 -7.851207e-001 -1.562681e+002 -5.377247e+001 -9.675910e+001 -5.365417e+001 -9.510979e+001 -1.531909e-001 1.336363e+002
553125000 -7.917351e-001 -1.565801e+002 -5.269076e+001 -9.902872e+001 -5.256971e+001 -1.017993e+002 -1.450936e-001 1.336252e+002
553750000 -8.211632e-001 -1.568761e+002 -5.280494e+001 -1.052975e+002 -5.253592e+001 -1.065960e+002 -1.474559e-001 1.335136e+002
554375000 -8.315746e-001 -1.572039e+002 -5.247538e+001 -1.020257e+002 -5.272564e+001 -1.024602e+002 -1.468321e-001 1.335278e+002
555000000 -8.542680e-001 -1.575127e+002 -5.317352e+001 -1.016909e+002 -5.222625e+001 -1.087397e+002 -1.484833e-001 1.335018e+002
555625000 -8.797905e-001 -1.577855e+002 -5.261775e+001 -1.028986e+002 -5.272282e+001 -1.086002e+002 -1.401065e-001 1.335206e+002
556250000 -8.942600e-001 -1.581628e+002 -5.185275e+001 -1.019830e+002 -5.213239e+001 -1.071554e+002 -1.479494e-001 1.334571e+002
556875000 -9.056988e-001 -1.584714e+002 -5.200090e+001 -1.137549e+002 -5.264036e+001 -1.079575e+002 -1.491141e-001 1.335028e+002
557500000 -9.356253e-001 -1.587251e+002 -5.149651e+001 -1.149553e+002 -5.267961e+001 -1.109548e+002 -1.481091e-001 1.334824e+002
558125000 -9.535903e-001 -1.590165e+002 -5.215887e+001 -1.157753e+002 -5.225570e+001 -1.121271e+002 -1.541685e-001 1.334716e+002
558750000 -9.636999e-001 -1.593357e+002 -5.177029e+001 -1.184740e+002 -5.318019e+001 -1.133114e+002 -1.467685e-001 1.334648e+002
559375000 -9.753939e-001 -1.596531e+002 -5.271125e+001 -1.227645e+002 -5.213615e+001 -1.194710e+002 -1.494461e-001 1.334564e+002
560000000 -9.961568e-001 -1.599401e+002 -5.157462e+001 -1.220307e+002 -5.218182e+001 -1.191966e+002 -1.362662e-001 1.333236e+002
560625000 -1.007490e+000 -1.602128e+002 -5.196937e+001 -1.244112e+002 -5.231226e+001 -1.202546e+002 -1.445103e-001 1.333409e+002
561250000 -1.022832e+000 -1.606013e+002 -5.218459e+001 -1.236061e+002 -5.140454e+001 -1.221022e+002 -1.477537e-001 1.332774e+002
561875000 -1.036836e+000 -1.609209e+002 -5.109062e+001 -1.231258e+002 -5.148842e+001 -1.304111e+002 -1.561272e-001 1.332689e+002
562500000 -1.049460e+000 -1.612181e+002 -5.204173e+001 -1.245293e+002 -5.178051e+001 -1.287605e+002 -1.596077e-001 1.332412e+002
563125000 -1.054221e+000 -1.615373e+002 -5.162320e+001 -1.298761e+002 -5.077377e+001 -1.271097e+002 -1.472812e-001 1.331418e+002
563750000 -1.078018e+000 -1.618816e+002 -5.168314e+001 -1.297650e+002 -5.195843e+001 -1.353960e+002 -1.600485e-001 1.330891e+002
564375000 -1.088098e+000 -1.621839e+002 -5.115331e+001 -1.321105e+002 -5.146761e+001 -1.366378e+002 -1.640490e-001 1.330047e+002
565000000 -1.097270e+000 -1.625897e+002 -5.079126e+001 -1.343319e+002 -5.095008e+001 -1.303831e+002 -1.748209e-001 1.328715e+002
565625000 -1.115824e+000 -1.629145e+002 -5.072889e+001 -1.388125e+002 -5.117789e+001 -1.317647e+002 -1.702223e-001 1.328223e+002
566250000 -1.131831e+000 -1.633441e+002 -5.054153e+001 -1.395975e+002 -5.183747e+001 -1.365444e+002 -1.745411e-001 1.326976e+002
566875000 -1.150098e+000 -1.637078e+002 -5.102188e+001 -1.383174e+002 -5.123029e+001 -1.423943e+002 -1.768782e-001 1.325392e+002
567500000 -1.167675e+000 -1.641501e+002 -5.066772e+001 -1.451486e+002 -5.090253e+001 -1.418713e+002 -1.696173e-001 1.324416e+002
568125000 -1.189307e+000 -1.644350e+002 -5.097125e+001 -1.501350e+002 -5.054284e+001 -1.438949e+002 -1.739091e-001 1.323678e+002
568750000 -1.207014e+000 -1.648460e+002 -5.073715e+001 -1.511035e+002 -5.111107e+001 -1.444915e+002 -1.765256e-001 1.321565e+002
569375000 -1.233723e+000 -1.652244e+002 -5.072169e+001 -1.475929e+002 -5.087447e+001 -1.506456e+002 -1.765558e-001 1.321177e+002
570000000 -1.249365e+000 -1.656017e+002 -5.089727e+001 -1.534134e+002 -5.156935e+001 -1.550117e+002 -1.752570e-001 1.318938e+002
570625000 -1.260047e+000 -1.659369e+002 -5.056238e+001 -1.498171e+002 -5.097585e+001 -1.518135e+002 -1.666263e-001 1.318005e+002
571250000 -1.278692e+000 -1.663153e+002 -5.047567e+001 -1.533741e+002 -5.104583e+001 -1.522053e+002 -1.728756e-001 1.317209e+002
571875000 -1.310018e+000 -1.666601e+002 -5.036330e+001 -1.547522e+002 -5.149207e+001 -1.543334e+002 -1.658296e-001 1.315975e+002
572500000 -1.331633e+000 -1.670323e+002 -5.059417e+001 -1.622311e+002 -5.139317e+001 -1.555544e+002 -1.729118e-001 1.314748e+002
573125000 -1.358373e+000 -1.673426e+002 -5.103495e+001 -1.608313e+002 -5.101903e+001 -1.581251e+002 -1.626250e-001 1.313999e+002
573750000 -1.372609e+000 -1.676887e+002 -5.067915e+001 -1.632604e+002 -5.096668e+001 -1.582873e+002 -1.704073e-001 1.313064e+002
574375000 -1.387413e+000 -1.680050e+002 -5.103466e+001 -1.613000e+002 -5.124822e+001 -1.603308e+002 -1.617229e-001 1.313018e+002
575000000 -1.403448e+000 -1.683535e+002 -5.087683e+001 -1.616418e+002 -5.090689e+001 -1.630712e+002 -1.543107e-001 1.312140e+002
575625000 -1.425388e+000 -1.686630e+002 -5.044685e+001 -1.661973e+002 -5.120356e+001 -1.628083e+002 -1.556772e-001 1.311258e+002
576250000 -1.437591e+000 -1.689792e+002 -5.052685e+001 -1.694517e+002 -5.123635e+001 -1.672813e+002 -1.550746e-001 1.311528e+002
576875000 -1.452493e+000 -1.692997e+002 -5.056662e+001 -1.725560e+002 -5.112319e+001 -1.665461e+002 -1.485442e-001 1.311341e+002
577500000 -1.484469e+000 -1.696445e+002 -5.069549e+001 -1.685421e+002 -5.047464e+001 -1.703190e+002 -1.476257e-001 1.311008e+002
578125000 -1.490644e+000 -1.699331e+002 -5.050035e+001 -1.693870e+002 -5.067641e+001 -1.689821e+002 -1.497969e-001 1.311683e+002
578750000 -1.513554e+000 -1.702581e+002 -4.991066e+001 -1.712341e+002 -5.069731e+001 -1.712880e+002 -1.432708e-001 1.311003e+002
579375000 -1.527512e+000 -1.705870e+002 -5.033335e+001 -1.741455e+002 -4.945210e+001 -1.748846e+002 -1.441291e-001 1.310956e+002
580000000 -1.538130e+000 -1.708428e+002 -4.983824e+001 -1.735322e+002 -5.036054e+001 -1.723530e+002 -1.520670e-001 1.311599e+002
580625000 -1.550919e+000 -1.712040e+002 -4.997506e+001 -1.757279e+002 -5.053956e+001 -1.730721e+002 -1.386758e-001 1.311934e+002
581250000 -1.566638e+000 -1.714569e+002 -5.025093e+001 -1.748201e+002 -5.002997e+001 -1.775935e+002 -1.472835e-001 1.311754e+002
581875000 -1.578366e+000 -1.717935e+002 -5.035187e+001 -1.798252e+002 -4.946871e+001 -1.784283e+002 -1.462748e-001 1.311752e+002
582500000 -1.593019e+000 -1.721435e+002 -5.003010e+001 -1.790423e+002 -5.040853e+001 1.787383e+002 -1.514748e-001 1.311594e+002
583125000 -1.590262e+000 -1.725395e+002 -4.982442e+001 1.784068e+002 -4.993700e+001 1.779000e+002 -1.638238e-001 1.310347e+002
583750000 -1.613706e+000 -1.729164e+002 -4.979737e+001 1.789078e+002 -5.013368e+001 1.761211e+002 -1.686227e-001 1.310615e+002
584375000 -1.624682e+000 -1.732645e+002 -4.917685e+001 1.764495e+002 -4.974567e+001 1.728919e+002 -1.662524e-001 1.309904e+002
585000000 -1.628649e+000 -1.737366e+002 -4.930363e+001 1.741541e+002 -4.994330e+001 1.752718e+002 -1.746016e-001 1.308801e+002
585625000 -1.662527e+000 -1.740591e+002 -4.985523e+001 1.731165e+002 -5.019887e+001 1.708723e+002 -1.667719e-001 1.307428e+002
586250000 -1.668111e+000 -1.744383e+002 -4.954783e+001 1.700216e+002 -4.960058e+001 1.703415e+002 -1.720375e-001 1.307433e+002
586875000 -1.672403e+000 -1.748330e+002 -4.916722e+001 1.680420e+002 -4.969392e+001 1.665712e+002 -1.832019e-001 1.305760e+002
587500000 -1.702147e+000 -1.752083e+002 -4.963653e+001 1.670186e+002 -4.946431e+001 1.667122e+002 -1.745644e-001 1.304048e+002
588125000 -1.697227e+000 -1.755965e+002 -4.920354e+001 1.626909e+002 -4.948018e+001 1.653337e+002 -1.750111e-001 1.303642e+002
588750000 -1.707671e+000 -1.760018e+002 -4.912397e+001 1.597255e+002 -4.970703e+001 1.611445e+002 -1.839858e-001 1.302326e+002
589375000 -1.705061e+000 -1.764643e+002 -4.958130e+001 1.600263e+002 -4.989830e+001 1.644198e+002 -1.705599e-001 1.300535e+002
590000000 -1.714077e+000 -1.769516e+002 -4.927699e+001 1.600092e+002 -4.982377e+001 1.591776e+002 -1.744281e-001 1.300317e+002
590625000 -1.724803e+000 -1.774574e+002 -4.912196e+001 1.591613e+002 -4.976039e+001 1.616957e+002 -1.639097e-001 1.298810e+002
591250000 -1.740070e+000 -1.779863e+002 -4.920933e+001 1.562906e+002 -4.924167e+001 1.614681e+002 -1.679094e-001 1.298420e+002
591875000 -1.769960e+000 -1.784676e+002 -4.892545e+001 1.550996e+002 -4.937518e+001 1.597612e+002 -1.633169e-001 1.298716e+002
592500000 -1.787044e+000 -1.790087e+002 -4.942041e+001 1.534197e+002 -4.947420e+001 1.573199e+002 -1.592755e-001 1.298469e+002
593125000 -1.829319e+000 -1.794587e+002 -4.880237e+001 1.542358e+002 -4.919151e+001 1.532690e+002 -1.609067e-001 1.298178e+002
593750000 -1.848798e+000 -1.799171e+002 -4.910698e+001 1.542011e+002 -4.917743e+001 1.526829e+002 -1.412067e-001 1.299008e+002
594375000 -1.869098e+000 1.796499e+002 -4.859226e+001 1.536036e+002 -4.890956e+001 1.536751e+002 -1.410788e-001 1.298694e+002
595000000 -1.900230e+000 1.792508e+002 -4.877640e+001 1.512547e+002 -4.865294e+001 1.491891e+002 -1.526526e-001 1.299171e+002
