!Agilent Technologies,E8364B,US42250235,A.06.04.32
!Agilent E8364B: A.06.04.32
!Date: Friday, January 15, 2021 12:10:45
!Correction: S11(Full 2 Port(1,2)) S21(Full 2 Port(1,2)) S12(Full 2 Port(1,2)) S22(Full 2 Port(1,2)) 
!S2P File: Measurements: S11, S21, S12, S22:
# Hz S  dB   R 50
500000000 -1.104631e-001 -1.290956e+002 -6.382835e+001 -9.184071e+001 -6.466095e+001 -1.146994e+002 -1.222573e-001 1.387064e+002
500625000 -1.134299e-001 -1.293447e+002 -6.413032e+001 -1.090793e+002 -6.148403e+001 -1.021955e+002 -1.253073e-001 1.386609e+002
501250000 -1.168616e-001 -1.296057e+002 -6.255639e+001 -1.195041e+002 -6.214511e+001 -1.243319e+002 -1.241937e-001 1.386689e+002
501875000 -1.184324e-001 -1.299016e+002 -6.222302e+001 -1.277381e+002 -6.316453e+001 -1.073744e+002 -1.159772e-001 1.386089e+002
502500000 -1.311596e-001 -1.302203e+002 -6.132077e+001 -1.229305e+002 -6.304859e+001 -1.195026e+002 -1.157205e-001 1.385941e+002
503125000 -1.357391e-001 -1.304843e+002 -6.106893e+001 -1.182746e+002 -6.167928e+001 -1.223501e+002 -1.109796e-001 1.384789e+002
503750000 -1.422238e-001 -1.307459e+002 -6.354550e+001 -1.265053e+002 -6.064930e+001 -1.158637e+002 -1.198788e-001 1.384162e+002
504375000 -1.530268e-001 -1.310528e+002 -6.142113e+001 -1.352739e+002 -6.184912e+001 -1.243184e+002 -1.337186e-001 1.383773e+002
505000000 -1.563530e-001 -1.313439e+002 -6.064320e+001 -1.192478e+002 -6.194590e+001 -1.442138e+002 -1.297432e-001 1.383295e+002
505625000 -1.534730e-001 -1.316167e+002 -6.023908e+001 -1.334743e+002 -6.166919e+001 -1.344203e+002 -1.264004e-001 1.382417e+002
506250000 -1.680997e-001 -1.319365e+002 -5.970430e+001 -1.209711e+002 -5.878310e+001 -1.328209e+002 -1.365253e-001 1.381513e+002
506875000 -1.670073e-001 -1.322456e+002 -6.062467e+001 -1.357975e+002 -6.067471e+001 -1.311097e+002 -1.154725e-001 1.381258e+002
507500000 -1.758347e-001 -1.325324e+002 -6.310159e+001 -1.342578e+002 -6.196096e+001 -1.284008e+002 -1.272067e-001 1.380098e+002
508125000 -1.838834e-001 -1.328562e+002 -6.110184e+001 -1.305993e+002 -6.280808e+001 -1.354062e+002 -1.295243e-001 1.380095e+002
508750000 -1.866702e-001 -1.331082e+002 -6.135416e+001 -1.417620e+002 -6.050283e+001 -1.298697e+002 -1.199943e-001 1.379086e+002
509375000 -1.950611e-001 -1.334097e+002 -5.995700e+001 -1.460223e+002 -6.290549e+001 -1.431382e+002 -1.158164e-001 1.379414e+002
510000000 -2.033363e-001 -1.337424e+002 -6.021063e+001 -1.443565e+002 -6.077827e+001 -1.278930e+002 -1.313976e-001 1.378660e+002
510625000 -2.147688e-001 -1.339602e+002 -6.096759e+001 -1.334980e+002 -6.185167e+001 -1.423879e+002 -1.222658e-001 1.378748e+002
511250000 -2.164439e-001 -1.342310e+002 -6.104568e+001 -1.448610e+002 -6.051291e+001 -1.376837e+002 -1.237222e-001 1.377916e+002
511875000 -2.159439e-001 -1.345188e+002 -6.110820e+001 -1.283309e+002 -5.909996e+001 -1.416991e+002 -1.221458e-001 1.376971e+002
512500000 -2.217663e-001 -1.348862e+002 -5.998370e+001 -1.486137e+002 -6.032829e+001 -1.504789e+002 -1.270468e-001 1.376803e+002
513125000 -2.295751e-001 -1.351180e+002 -6.006189e+001 -1.453027e+002 -5.974433e+001 -1.398542e+002 -1.307447e-001 1.376846e+002
513750000 -2.379785e-001 -1.353592e+002 -5.959608e+001 -1.399433e+002 -5.956990e+001 -1.513359e+002 -1.372593e-001 1.376180e+002
514375000 -2.370774e-001 -1.356624e+002 -6.007795e+001 -1.356644e+002 -6.031457e+001 -1.408030e+002 -1.316233e-001 1.374609e+002
515000000 -2.385760e-001 -1.359425e+002 -5.946630e+001 -1.443899e+002 -5.980446e+001 -1.425495e+002 -1.263452e-001 1.374068e+002
515625000 -2.487342e-001 -1.362932e+002 -5.915031e+001 -1.577119e+002 -6.184900e+001 -1.560624e+002 -1.272441e-001 1.373012e+002
516250000 -2.571912e-001 -1.365163e+002 -5.872437e+001 -1.598750e+002 -6.062690e+001 -1.499419e+002 -1.442501e-001 1.372132e+002
516875000 -2.667019e-001 -1.367836e+002 -6.051836e+001 -1.589263e+002 -5.894343e+001 -1.539839e+002 -1.357421e-001 1.371552e+002
517500000 -2.651693e-001 -1.370699e+002 -5.896515e+001 -1.484168e+002 -6.026096e+001 -1.521751e+002 -1.437915e-001 1.370314e+002
518125000 -2.643114e-001 -1.374150e+002 -5.949330e+001 -1.661155e+002 -6.094627e+001 -1.543406e+002 -1.384500e-001 1.369088e+002
518750000 -2.698822e-001 -1.376911e+002 -5.829450e+001 -1.636455e+002 -5.860816e+001 -1.609877e+002 -1.359498e-001 1.368063e+002
519375000 -2.767538e-001 -1.379030e+002 -5.947700e+001 -1.579860e+002 -5.842215e+001 -1.611338e+002 -1.360152e-001 1.366878e+002
520000000 -2.813856e-001 -1.382726e+002 -5.837461e+001 -1.542190e+002 -5.893870e+001 -1.668689e+002 -1.349206e-001 1.365942e+002
520625000 -2.825856e-001 -1.385494e+002 -6.015511e+001 -1.773555e+002 -5.930333e+001 -1.534226e+002 -1.355050e-001 1.364488e+002
521250000 -2.870771e-001 -1.388791e+002 -5.876284e+001 -1.622485e+002 -5.965809e+001 -1.608796e+002 -1.373938e-001 1.363767e+002
521875000 -2.865741e-001 -1.392131e+002 -5.784592e+001 -1.632863e+002 -5.776371e+001 -1.726835e+002 -1.266193e-001 1.363271e+002
522500000 -2.940027e-001 -1.395050e+002 -5.891187e+001 -1.646637e+002 -5.861584e+001 -1.642539e+002 -1.255371e-001 1.361971e+002
523125000 -3.020656e-001 -1.398313e+002 -5.789840e+001 -1.671436e+002 -6.049258e+001 -1.702494e+002 -1.259058e-001 1.361364e+002
523750000 -2.987101e-001 -1.401615e+002 -5.991166e+001 -1.654518e+002 -5.875702e+001 -1.695300e+002 -1.277954e-001 1.361131e+002
524375000 -3.103156e-001 -1.404855e+002 -5.885214e+001 -1.657656e+002 -5.940193e+001 -1.663066e+002 -1.212844e-001 1.360650e+002
525000000 -3.117911e-001 -1.408226e+002 -5.866559e+001 1.798442e+002 -5.937493e+001 -1.725074e+002 -1.184366e-001 1.361010e+002
525625000 -3.273768e-001 -1.411041e+002 -5.847250e+001 -1.608022e+002 -5.849952e+001 -1.607815e+002 -1.262837e-001 1.360158e+002
526250000 -3.267435e-001 -1.414656e+002 -5.780780e+001 -1.701842e+002 -5.841913e+001 1.781952e+002 -1.223106e-001 1.360524e+002
526875000 -3.459055e-001 -1.418081e+002 -5.834867e+001 -1.792518e+002 -5.881808e+001 -1.744042e+002 -1.172203e-001 1.360657e+002
527500000 -3.508407e-001 -1.421082e+002 -5.849603e+001 -1.742326e+002 -5.792439e+001 -1.705630e+002 -1.188434e-001 1.359944e+002
528125000 -3.689370e-001 -1.424732e+002 -5.851659e+001 -1.724254e+002 -5.881693e+001 -1.751874e+002 -1.225016e-001 1.360886e+002
528750000 -3.737408e-001 -1.427578e+002 -5.968732e+001 1.788496e+002 -5.701578e+001 -1.724535e+002 -1.130237e-001 1.360627e+002
529375000 -3.853138e-001 -1.430599e+002 -5.826733e+001 -1.684819e+002 -5.773312e+001 -1.777924e+002 -1.258756e-001 1.360678e+002
530000000 -4.009424e-001 -1.434064e+002 -5.800982e+001 -1.771048e+002 -5.711107e+001 -1.737277e+002 -1.236654e-001 1.360574e+002
530625000 -4.090036e-001 -1.436445e+002 -5.843811e+001 -1.761033e+002 -5.633463e+001 1.786593e+002 -1.257655e-001 1.360027e+002
531250000 -4.267353e-001 -1.440212e+002 -5.791269e+001 -1.799031e+002 -5.787657e+001 -1.775477e+002 -1.217228e-001 1.359958e+002
531875000 -4.436018e-001 -1.442745e+002 -5.702931e+001 1.721711e+002 -5.921506e+001 1.739513e+002 -1.247992e-001 1.358986e+002
532500000 -4.496253e-001 -1.445054e+002 -5.786049e+001 -1.748370e+002 -5.617084e+001 1.791050e+002 -1.291753e-001 1.358993e+002
533125000 -4.567877e-001 -1.448049e+002 -5.715639e+001 1.645759e+002 -5.793385e+001 -1.758170e+002 -1.401075e-001 1.358628e+002
533750000 -4.664297e-001 -1.451192e+002 -5.738686e+001 1.703930e+002 -5.813082e+001 1.697885e+002 -1.475936e-001 1.358271e+002
534375000 -4.634517e-001 -1.453878e+002 -5.705281e+001 1.618788e+002 -5.784329e+001 1.778599e+002 -1.348820e-001 1.357319e+002
535000000 -4.665557e-001 -1.456501e+002 -5.830384e+001 1.728646e+002 -5.851699e+001 -1.779869e+002 -1.328789e-001 1.356663e+002
535625000 -4.702758e-001 -1.459804e+002 -5.690103e+001 1.734627e+002 -5.885446e+001 1.694007e+002 -1.299760e-001 1.355855e+002
536250000 -4.733987e-001 -1.463202e+002 -5.812024e+001 1.725489e+002 -6.022037e+001 1.641863e+002 -1.324479e-001 1.354859e+002
536875000 -4.852875e-001 -1.465930e+002 -5.768581e+001 1.607157e+002 -5.728654e+001 1.649052e+002 -1.323235e-001 1.354387e+002
537500000 -4.842877e-001 -1.469254e+002 -5.787586e+001 1.639624e+002 -5.866375e+001 1.660614e+002 -1.262548e-001 1.354811e+002
538125000 -4.823222e-001 -1.472987e+002 -5.813137e+001 1.790060e+002 -5.779543e+001 1.600778e+002 -1.346591e-001 1.354219e+002
538750000 -5.024279e-001 -1.476438e+002 -5.718317e+001 1.676162e+002 -5.822883e+001 1.557096e+002 -1.290509e-001 1.353431e+002
539375000 -5.105116e-001 -1.479540e+002 -5.700899e+001 1.645323e+002 -5.845966e+001 1.559345e+002 -1.255040e-001 1.353396e+002
540000000 -5.134774e-001 -1.482668e+002 -5.673882e+001 1.575479e+002 -5.774752e+001 1.489241e+002 -1.305100e-001 1.352472e+002
540625000 -5.281337e-001 -1.486317e+002 -5.816532e+001 1.629263e+002 -5.704285e+001 1.633364e+002 -1.273516e-001 1.352814e+002
541250000 -5.315111e-001 -1.489311e+002 -5.737344e+001 1.593765e+002 -5.659500e+001 1.600388e+002 -1.277719e-001 1.352289e+002
541875000 -5.416437e-001 -1.492169e+002 -5.886643e+001 1.571107e+002 -5.757101e+001 1.572529e+002 -1.283002e-001 1.351446e+002
542500000 -5.467136e-001 -1.495309e+002 -5.618773e+001 1.492150e+002 -5.718104e+001 1.552272e+002 -1.291997e-001 1.351201e+002
543125000 -5.467246e-001 -1.498848e+002 -5.605771e+001 1.643207e+002 -5.657669e+001 1.613975e+002 -1.280867e-001 1.349966e+002
543750000 -5.501114e-001 -1.502197e+002 -5.721605e+001 1.593528e+002 -5.654712e+001 1.563524e+002 -1.364023e-001 1.349932e+002
544375000 -5.570489e-001 -1.505499e+002 -5.511927e+001 1.568779e+002 -5.577519e+001 1.476422e+002 -1.308150e-001 1.348707e+002
545000000 -5.548981e-001 -1.508862e+002 -5.573125e+001 1.555510e+002 -5.634187e+001 1.544237e+002 -1.337892e-001 1.348885e+002
545625000 -5.608202e-001 -1.512474e+002 -5.591936e+001 1.525195e+002 -5.631339e+001 1.402403e+002 -1.450949e-001 1.348002e+002
546250000 -5.691605e-001 -1.515883e+002 -5.620708e+001 1.509483e+002 -5.731299e+001 1.556207e+002 -1.407977e-001 1.346736e+002
546875000 -5.775270e-001 -1.520469e+002 -5.595948e+001 1.483279e+002 -5.626665e+001 1.470925e+002 -1.448205e-001 1.346048e+002
547500000 -5.823126e-001 -1.523680e+002 -5.566896e+001 1.492604e+002 -5.682957e+001 1.488003e+002 -1.459812e-001 1.345178e+002
548125000 -5.919382e-001 -1.527341e+002 -5.589967e+001 1.483476e+002 -5.659085e+001 1.466054e+002 -1.442483e-001 1.344147e+002
548750000 -6.041220e-001 -1.531960e+002 -5.541391e+001 1.480553e+002 -5.578989e+001 1.493307e+002 -1.505201e-001 1.342846e+002
549375000 -6.155495e-001 -1.535429e+002 -5.555690e+001 1.429686e+002 -5.591352e+001 1.381588e+002 -1.502394e-001 1.341017e+002
550000000 -6.271701e-001 -1.538986e+002 -5.726234e+001 1.362989e+002 -5.609975e+001 1.439511e+002 -1.492999e-001 1.341432e+002
550625000 -6.400818e-001 -1.542867e+002 -5.574065e+001 1.356846e+002 -5.553286e+001 1.432755e+002 -1.438921e-001 1.340578e+002
551250000 -6.384082e-001 -1.546443e+002 -5.501303e+001 1.352956e+002 -5.547238e+001 1.413410e+002 -1.442687e-001 1.338757e+002
551875000 -6.539342e-001 -1.550110e+002 -5.465089e+001 1.317107e+002 -5.500366e+001 1.418506e+002 -1.356788e-001 1.338441e+002
552500000 -6.678702e-001 -1.554001e+002 -5.440481e+001 1.373687e+002 -5.660709e+001 1.419991e+002 -1.354170e-001 1.337327e+002
553125000 -6.707909e-001 -1.557516e+002 -5.612286e+001 1.378043e+002 -5.513118e+001 1.371235e+002 -1.292373e-001 1.337321e+002
553750000 -6.939554e-001 -1.561230e+002 -5.525033e+001 1.322294e+002 -5.501571e+001 1.329668e+002 -1.345737e-001 1.336338e+002
554375000 -7.054721e-001 -1.564147e+002 -5.580157e+001 1.368073e+002 -5.557856e+001 1.327625e+002 -1.378873e-001 1.335972e+002
555000000 -7.220083e-001 -1.567711e+002 -5.566702e+001 1.347352e+002 -5.583907e+001 1.259762e+002 -1.327042e-001 1.336349e+002
555625000 -7.427480e-001 -1.570758e+002 -5.439490e+001 1.342347e+002 -5.488855e+001 1.319024e+002 -1.290477e-001 1.336604e+002
556250000 -7.573646e-001 -1.574444e+002 -5.515562e+001 1.440822e+002 -5.449173e+001 1.325360e+002 -1.283057e-001 1.336063e+002
556875000 -7.543302e-001 -1.578150e+002 -5.435342e+001 1.262904e+002 -5.541844e+001 1.303292e+002 -1.372888e-001 1.336027e+002
557500000 -7.741603e-001 -1.581576e+002 -5.509417e+001 1.222038e+002 -5.623418e+001 1.252456e+002 -1.308332e-001 1.335748e+002
558125000 -7.804057e-001 -1.584671e+002 -5.462782e+001 1.276466e+002 -5.444551e+001 1.279603e+002 -1.335804e-001 1.335912e+002
558750000 -7.879316e-001 -1.588290e+002 -5.365530e+001 1.243223e+002 -5.502149e+001 1.287566e+002 -1.284082e-001 1.334945e+002
559375000 -8.117424e-001 -1.592026e+002 -5.455983e+001 1.164196e+002 -5.486314e+001 1.259860e+002 -1.284409e-001 1.335069e+002
560000000 -8.214530e-001 -1.595324e+002 -5.404433e+001 1.182079e+002 -5.501051e+001 1.239453e+002 -1.286819e-001 1.333821e+002
560625000 -8.353480e-001 -1.598603e+002 -5.400359e+001 1.249878e+002 -5.515564e+001 1.161604e+002 -1.353448e-001 1.334476e+002
561250000 -8.461209e-001 -1.602528e+002 -5.498192e+001 1.236522e+002 -5.483795e+001 1.160500e+002 -1.386784e-001 1.333950e+002
561875000 -8.580920e-001 -1.605860e+002 -5.559285e+001 1.203388e+002 -5.484929e+001 1.167875e+002 -1.333161e-001 1.333461e+002
562500000 -8.676665e-001 -1.609015e+002 -5.456206e+001 1.146179e+002 -5.479618e+001 1.169519e+002 -1.343685e-001 1.333549e+002
563125000 -8.726723e-001 -1.612625e+002 -5.508148e+001 1.150155e+002 -5.523262e+001 1.172778e+002 -1.320445e-001 1.332293e+002
563750000 -8.906510e-001 -1.616127e+002 -5.419969e+001 1.154981e+002 -5.440799e+001 1.133285e+002 -1.457892e-001 1.331606e+002
564375000 -8.999137e-001 -1.619926e+002 -5.438185e+001 1.177623e+002 -5.447212e+001 1.113930e+002 -1.403727e-001 1.330845e+002
565000000 -9.087548e-001 -1.623931e+002 -5.433905e+001 1.102900e+002 -5.366167e+001 1.180400e+002 -1.442859e-001 1.330156e+002
565625000 -9.218839e-001 -1.627499e+002 -5.580742e+001 1.048082e+002 -5.479259e+001 1.108271e+002 -1.454560e-001 1.329659e+002
566250000 -9.224433e-001 -1.631711e+002 -5.415569e+001 1.108273e+002 -5.444517e+001 1.104748e+002 -1.480999e-001 1.328256e+002
566875000 -9.433154e-001 -1.635751e+002 -5.526717e+001 1.078741e+002 -5.557122e+001 1.066701e+002 -1.525994e-001 1.327073e+002
567500000 -9.486985e-001 -1.640343e+002 -5.412004e+001 1.048738e+002 -5.408907e+001 1.145724e+002 -1.462618e-001 1.325995e+002
568125000 -9.620292e-001 -1.644015e+002 -5.381244e+001 1.055437e+002 -5.436851e+001 1.142900e+002 -1.566187e-001 1.324327e+002
568750000 -9.771796e-001 -1.648530e+002 -5.514420e+001 1.093558e+002 -5.397292e+001 1.038438e+002 -1.519420e-001 1.322914e+002
569375000 -9.924363e-001 -1.652710e+002 -5.477010e+001 1.108801e+002 -5.451566e+001 1.042971e+002 -1.573223e-001 1.322504e+002
570000000 -1.002077e+000 -1.657399e+002 -5.426294e+001 1.079685e+002 -5.459039e+001 9.734097e+001 -1.479326e-001 1.320781e+002
570625000 -1.009021e+000 -1.661763e+002 -5.377788e+001 1.025391e+002 -5.429026e+001 1.057734e+002 -1.521077e-001 1.319813e+002
571250000 -1.027431e+000 -1.665681e+002 -5.394720e+001 1.010944e+002 -5.365344e+001 9.580193e+001 -1.483280e-001 1.319057e+002
571875000 -1.046269e+000 -1.670419e+002 -5.317582e+001 1.015572e+002 -5.486115e+001 1.020276e+002 -1.464897e-001 1.317571e+002
572500000 -1.063922e+000 -1.674852e+002 -5.354896e+001 9.690260e+001 -5.404296e+001 1.028067e+002 -1.481235e-001 1.316397e+002
573125000 -1.077360e+000 -1.679180e+002 -5.352452e+001 9.813972e+001 -5.452827e+001 9.789745e+001 -1.402982e-001 1.315620e+002
573750000 -1.096177e+000 -1.683751e+002 -5.513951e+001 1.024105e+002 -5.378009e+001 9.535476e+001 -1.582776e-001 1.314613e+002
574375000 -1.112526e+000 -1.688110e+002 -5.372374e+001 9.713957e+001 -5.394727e+001 1.024507e+002 -1.514865e-001 1.314100e+002
575000000 -1.134727e+000 -1.692975e+002 -5.436145e+001 9.538026e+001 -5.481091e+001 9.540142e+001 -1.384306e-001 1.313422e+002
575625000 -1.159412e+000 -1.697194e+002 -5.340464e+001 9.324477e+001 -5.451888e+001 9.867126e+001 -1.378045e-001 1.313429e+002
576250000 -1.184141e+000 -1.701771e+002 -5.360666e+001 9.817197e+001 -5.406647e+001 9.853152e+001 -1.359284e-001 1.312982e+002
576875000 -1.203233e+000 -1.706042e+002 -5.330114e+001 9.206050e+001 -5.408177e+001 9.827657e+001 -1.377454e-001 1.312625e+002
577500000 -1.236181e+000 -1.709946e+002 -5.396848e+001 9.428184e+001 -5.247094e+001 9.101998e+001 -1.248620e-001 1.312627e+002
578125000 -1.256926e+000 -1.713386e+002 -5.291622e+001 9.448637e+001 -5.316268e+001 9.355521e+001 -1.266077e-001 1.312867e+002
578750000 -1.280682e+000 -1.717941e+002 -5.310407e+001 9.509928e+001 -5.319297e+001 9.400804e+001 -1.230207e-001 1.312058e+002
579375000 -1.293632e+000 -1.721906e+002 -5.296480e+001 9.687397e+001 -5.318954e+001 8.929073e+001 -1.243232e-001 1.312219e+002
580000000 -1.313750e+000 -1.725877e+002 -5.316829e+001 8.839311e+001 -5.212975e+001 8.962167e+001 -1.282402e-001 1.312520e+002
580625000 -1.340020e+000 -1.730341e+002 -5.296645e+001 8.838441e+001 -5.255523e+001 9.370751e+001 -1.207202e-001 1.313198e+002
581250000 -1.369647e+000 -1.733978e+002 -5.313247e+001 8.757028e+001 -5.204362e+001 9.100173e+001 -1.211752e-001 1.312831e+002
581875000 -1.395017e+000 -1.738221e+002 -5.232068e+001 8.028091e+001 -5.264050e+001 9.141126e+001 -1.274630e-001 1.313101e+002
582500000 -1.426642e+000 -1.741870e+002 -5.173560e+001 8.278684e+001 -5.224207e+001 8.292661e+001 -1.250074e-001 1.312476e+002
583125000 -1.439134e+000 -1.746989e+002 -5.173092e+001 8.489230e+001 -5.216185e+001 8.390177e+001 -1.386028e-001 1.311924e+002
583750000 -1.465396e+000 -1.750849e+002 -5.222435e+001 7.839180e+001 -5.188499e+001 7.522764e+001 -1.510899e-001 1.311689e+002
584375000 -1.489315e+000 -1.755206e+002 -5.174407e+001 8.291874e+001 -5.234805e+001 7.878369e+001 -1.354359e-001 1.310757e+002
585000000 -1.512313e+000 -1.759771e+002 -5.180277e+001 8.233424e+001 -5.328584e+001 8.013763e+001 -1.562016e-001 1.310193e+002
585625000 -1.553601e+000 -1.764510e+002 -5.267194e+001 7.714188e+001 -5.242714e+001 8.201471e+001 -1.457210e-001 1.309443e+002
586250000 -1.573706e+000 -1.768849e+002 -5.153543e+001 7.451846e+001 -5.222182e+001 7.544423e+001 -1.471702e-001 1.309207e+002
586875000 -1.605588e+000 -1.773897e+002 -5.195543e+001 7.460217e+001 -5.182409e+001 7.753107e+001 -1.601638e-001 1.307195e+002
587500000 -1.650005e+000 -1.778070e+002 -5.151288e+001 7.253401e+001 -5.156908e+001 7.271455e+001 -1.473977e-001 1.305703e+002
588125000 -1.669913e+000 -1.782095e+002 -5.146511e+001 7.440232e+001 -5.209074e+001 7.405053e+001 -1.567483e-001 1.305317e+002
588750000 -1.698802e+000 -1.786440e+002 -5.128102e+001 6.844811e+001 -5.173016e+001 6.768690e+001 -1.616050e-001 1.304652e+002
589375000 -1.727355e+000 -1.790814e+002 -5.149274e+001 6.619476e+001 -5.205178e+001 7.041376e+001 -1.551904e-001 1.302711e+002
590000000 -1.755359e+000 -1.795061e+002 -5.110107e+001 6.401508e+001 -5.139832e+001 6.699316e+001 -1.530575e-001 1.301855e+002
590625000 -1.781104e+000 -1.799701e+002 -5.200271e+001 6.918040e+001 -5.130519e+001 6.338986e+001 -1.531969e-001 1.300273e+002
591250000 -1.808207e+000 1.795189e+002 -5.128573e+001 6.603450e+001 -5.092213e+001 6.414165e+001 -1.485395e-001 1.300312e+002
591875000 -1.855759e+000 1.790694e+002 -5.092375e+001 6.479993e+001 -5.200674e+001 6.436584e+001 -1.493863e-001 1.300047e+002
592500000 -1.886407e+000 1.786110e+002 -5.212759e+001 5.513534e+001 -5.186410e+001 5.774705e+001 -1.414001e-001 1.299945e+002
593125000 -1.927565e+000 1.782024e+002 -5.187711e+001 5.645087e+001 -5.150408e+001 6.036066e+001 -1.301495e-001 1.299900e+002
593750000 -1.971237e+000 1.777709e+002 -5.179105e+001 5.952297e+001 -5.180534e+001 5.974900e+001 -1.248039e-001 1.300138e+002
594375000 -1.994789e+000 1.773925e+002 -5.130778e+001 5.413737e+001 -5.172038e+001 6.070274e+001 -1.242670e-001 1.300626e+002
595000000 -2.026889e+000 1.770041e+002 -5.128675e+001 5.925236e+001 -5.185463e+001 5.401787e+001 -1.389506e-001 1.300243e+002
595625000 -2.051589e+000 1.765159e+002 -5.080693e+001 5.905044e+001 -5.134788e+001 5.849345e+001 -1.260231e-001 1.300872e+002
