!Agilent Technologies,E8364B,US42250235,A.06.04.32
!Agilent E8364B: A.06.04.32
!Date: Friday, January 15, 2021 13:48:31
!Correction: S11(Full 2 Port(1,2)) S21(Full 2 Port(1,2)) S12(Full 2 Port(1,2)) S22(Full 2 Port(1,2)) 
!S2P File: Measurements: S11, S21, S12, S22:
# Hz S  dB   R 50
500000000 -1.223808e-001 -1.295493e+002 -5.419937e+001 1.102662e+002 -5.414799e+001 1.124631e+002 -1.577948e-001 1.376984e+002
500625000 -1.262431e-001 -1.298031e+002 -5.411022e+001 1.108225e+002 -5.401130e+001 1.099984e+002 -1.585325e-001 1.376963e+002
501250000 -1.374705e-001 -1.300684e+002 -5.363212e+001 1.105636e+002 -5.401008e+001 1.125497e+002 -1.596129e-001 1.376071e+002
501875000 -1.367725e-001 -1.303847e+002 -5.512757e+001 1.103458e+002 -5.412386e+001 1.070424e+002 -1.479364e-001 1.375378e+002
502500000 -1.415213e-001 -1.306822e+002 -5.476599e+001 1.063014e+002 -5.331281e+001 1.058626e+002 -1.452187e-001 1.375640e+002
503125000 -1.550027e-001 -1.309549e+002 -5.378267e+001 1.057896e+002 -5.433142e+001 1.085197e+002 -1.554392e-001 1.373644e+002
503750000 -1.568835e-001 -1.312223e+002 -5.290031e+001 1.062828e+002 -5.316972e+001 1.105184e+002 -1.559349e-001 1.372618e+002
504375000 -1.707435e-001 -1.315088e+002 -5.214854e+001 1.125794e+002 -5.392053e+001 1.066815e+002 -1.755373e-001 1.372742e+002
505000000 -1.726204e-001 -1.318163e+002 -5.257718e+001 9.930023e+001 -5.269301e+001 1.079784e+002 -1.696793e-001 1.372228e+002
505625000 -1.794440e-001 -1.320678e+002 -5.292715e+001 1.058472e+002 -5.320208e+001 1.029883e+002 -1.617970e-001 1.371028e+002
506250000 -1.892446e-001 -1.323716e+002 -5.334412e+001 1.048488e+002 -5.274989e+001 9.873130e+001 -1.678131e-001 1.369644e+002
506875000 -1.915489e-001 -1.326747e+002 -5.198516e+001 1.053598e+002 -5.324557e+001 9.913916e+001 -1.623070e-001 1.369062e+002
507500000 -1.972087e-001 -1.329789e+002 -5.201186e+001 1.056139e+002 -5.256604e+001 1.081469e+002 -1.581630e-001 1.368286e+002
508125000 -2.098704e-001 -1.332429e+002 -5.215690e+001 9.916001e+001 -5.217390e+001 1.017459e+002 -1.592650e-001 1.367319e+002
508750000 -2.176927e-001 -1.335302e+002 -5.123666e+001 9.857726e+001 -5.193244e+001 9.779547e+001 -1.601564e-001 1.367023e+002
509375000 -2.279844e-001 -1.338517e+002 -5.204350e+001 9.417088e+001 -5.186487e+001 9.497054e+001 -1.450742e-001 1.366806e+002
510000000 -2.316401e-001 -1.341763e+002 -5.121012e+001 9.635625e+001 -5.202066e+001 9.727478e+001 -1.531003e-001 1.366312e+002
510625000 -2.457762e-001 -1.344169e+002 -5.129271e+001 9.456366e+001 -5.136501e+001 1.007482e+002 -1.406830e-001 1.366160e+002
511250000 -2.552902e-001 -1.347030e+002 -5.145964e+001 9.491464e+001 -5.143971e+001 9.369069e+001 -1.539873e-001 1.365117e+002
511875000 -2.530033e-001 -1.350596e+002 -5.056026e+001 9.391711e+001 -5.083231e+001 9.534402e+001 -1.442928e-001 1.365060e+002
512500000 -2.646359e-001 -1.353763e+002 -5.154693e+001 9.104135e+001 -5.149346e+001 9.557127e+001 -1.527566e-001 1.364500e+002
513125000 -2.748473e-001 -1.356755e+002 -5.124452e+001 8.851659e+001 -5.138288e+001 9.356448e+001 -1.560163e-001 1.364853e+002
513750000 -2.841535e-001 -1.359763e+002 -5.052805e+001 9.381221e+001 -5.116259e+001 9.103624e+001 -1.625227e-001 1.364554e+002
514375000 -2.933920e-001 -1.362829e+002 -5.065233e+001 8.941735e+001 -5.067936e+001 8.641018e+001 -1.462867e-001 1.363697e+002
515000000 -2.963513e-001 -1.365780e+002 -5.122555e+001 8.830451e+001 -5.110933e+001 8.705465e+001 -1.530800e-001 1.362952e+002
515625000 -3.183540e-001 -1.369262e+002 -5.010937e+001 8.701168e+001 -5.084421e+001 8.707606e+001 -1.566556e-001 1.362555e+002
516250000 -3.107417e-001 -1.372250e+002 -5.015715e+001 9.116108e+001 -5.097667e+001 8.539756e+001 -1.607094e-001 1.361407e+002
516875000 -3.378308e-001 -1.374883e+002 -4.992132e+001 8.330083e+001 -5.057679e+001 8.656378e+001 -1.546685e-001 1.361692e+002
517500000 -3.394585e-001 -1.378125e+002 -5.048953e+001 7.631595e+001 -5.054273e+001 8.262508e+001 -1.701968e-001 1.360231e+002
518125000 -3.517481e-001 -1.381776e+002 -5.022993e+001 8.494533e+001 -5.010938e+001 8.400587e+001 -1.630436e-001 1.359063e+002
518750000 -3.651496e-001 -1.384533e+002 -4.954560e+001 8.219160e+001 -5.021642e+001 7.760613e+001 -1.690851e-001 1.358776e+002
519375000 -3.826371e-001 -1.386760e+002 -4.999216e+001 7.795196e+001 -4.922618e+001 7.930402e+001 -1.554499e-001 1.358113e+002
520000000 -3.901226e-001 -1.390139e+002 -4.973799e+001 7.702641e+001 -4.988793e+001 8.033929e+001 -1.595467e-001 1.356392e+002
520625000 -3.985388e-001 -1.393015e+002 -4.980442e+001 7.684924e+001 -4.984747e+001 7.887761e+001 -1.556550e-001 1.355292e+002
521250000 -4.097835e-001 -1.395780e+002 -4.967490e+001 7.462546e+001 -4.989543e+001 7.665742e+001 -1.576791e-001 1.355355e+002
521875000 -4.087738e-001 -1.398627e+002 -4.931483e+001 7.350089e+001 -4.923498e+001 7.402800e+001 -1.578020e-001 1.354445e+002
522500000 -4.204362e-001 -1.401557e+002 -4.949035e+001 7.439738e+001 -4.950156e+001 7.432034e+001 -1.649814e-001 1.353843e+002
523125000 -4.366932e-001 -1.404519e+002 -4.941903e+001 7.143888e+001 -4.897131e+001 7.101536e+001 -1.596087e-001 1.353582e+002
523750000 -4.419546e-001 -1.407688e+002 -4.910451e+001 6.451299e+001 -4.930130e+001 7.042296e+001 -1.569422e-001 1.352905e+002
524375000 -4.608676e-001 -1.410217e+002 -4.840330e+001 6.888610e+001 -4.862261e+001 7.086089e+001 -1.445864e-001 1.352867e+002
525000000 -4.711947e-001 -1.413325e+002 -4.887654e+001 6.468546e+001 -4.868515e+001 6.796956e+001 -1.512689e-001 1.352884e+002
525625000 -4.884922e-001 -1.415432e+002 -4.878236e+001 6.353865e+001 -4.874864e+001 6.392334e+001 -1.591207e-001 1.352221e+002
526250000 -4.854084e-001 -1.418044e+002 -4.858265e+001 6.473154e+001 -4.821011e+001 6.486377e+001 -1.520192e-001 1.352404e+002
526875000 -4.990261e-001 -1.421443e+002 -4.855224e+001 6.313926e+001 -4.875406e+001 6.736650e+001 -1.473158e-001 1.352451e+002
527500000 -5.177795e-001 -1.423723e+002 -4.810504e+001 6.604359e+001 -4.842939e+001 6.191305e+001 -1.554144e-001 1.352003e+002
528125000 -5.354058e-001 -1.426379e+002 -4.813598e+001 6.186248e+001 -4.835443e+001 6.181028e+001 -1.579538e-001 1.352658e+002
528750000 -5.308067e-001 -1.428930e+002 -4.785039e+001 6.329643e+001 -4.830008e+001 5.973320e+001 -1.532833e-001 1.353290e+002
529375000 -5.431208e-001 -1.431457e+002 -4.854550e+001 5.833673e+001 -4.839577e+001 5.777686e+001 -1.486687e-001 1.352037e+002
530000000 -5.558764e-001 -1.434581e+002 -4.794512e+001 5.631491e+001 -4.829280e+001 5.694554e+001 -1.559794e-001 1.351650e+002
530625000 -5.674468e-001 -1.437208e+002 -4.822097e+001 5.555188e+001 -4.784063e+001 5.461902e+001 -1.556244e-001 1.351269e+002
531250000 -5.726128e-001 -1.440201e+002 -4.780611e+001 5.252045e+001 -4.764104e+001 5.072878e+001 -1.508149e-001 1.351115e+002
531875000 -5.874648e-001 -1.442392e+002 -4.756450e+001 5.380460e+001 -4.772776e+001 5.340848e+001 -1.524648e-001 1.350252e+002
532500000 -5.967390e-001 -1.444984e+002 -4.763698e+001 5.416787e+001 -4.772905e+001 5.364176e+001 -1.592794e-001 1.350419e+002
533125000 -5.987242e-001 -1.447917e+002 -4.778605e+001 5.263806e+001 -4.754667e+001 5.084810e+001 -1.686638e-001 1.349836e+002
533750000 -6.098440e-001 -1.450607e+002 -4.768873e+001 4.935780e+001 -4.819813e+001 5.084357e+001 -1.785954e-001 1.349134e+002
534375000 -6.184314e-001 -1.453542e+002 -4.746662e+001 4.965282e+001 -4.735477e+001 4.907424e+001 -1.607504e-001 1.348522e+002
535000000 -6.247366e-001 -1.456024e+002 -4.770403e+001 4.741618e+001 -4.758944e+001 4.999870e+001 -1.657739e-001 1.347925e+002
535625000 -6.263154e-001 -1.459000e+002 -4.721702e+001 4.808919e+001 -4.737078e+001 4.608471e+001 -1.666912e-001 1.347017e+002
536250000 -6.413221e-001 -1.462278e+002 -4.681883e+001 4.571907e+001 -4.751394e+001 4.676506e+001 -1.601594e-001 1.346069e+002
536875000 -6.501352e-001 -1.465113e+002 -4.741646e+001 4.392626e+001 -4.724919e+001 4.395615e+001 -1.681164e-001 1.345631e+002
537500000 -6.573352e-001 -1.467623e+002 -4.684128e+001 4.314654e+001 -4.672598e+001 4.493571e+001 -1.630873e-001 1.345393e+002
538125000 -6.659311e-001 -1.470573e+002 -4.723735e+001 4.159575e+001 -4.673167e+001 4.057284e+001 -1.681661e-001 1.344949e+002
538750000 -6.812278e-001 -1.473696e+002 -4.683017e+001 4.009772e+001 -4.684122e+001 3.994677e+001 -1.653695e-001 1.344518e+002
539375000 -6.886991e-001 -1.476545e+002 -4.695105e+001 4.075105e+001 -4.671803e+001 3.969430e+001 -1.585512e-001 1.344244e+002
540000000 -6.918699e-001 -1.479212e+002 -4.688874e+001 4.025138e+001 -4.672911e+001 3.629871e+001 -1.561305e-001 1.342710e+002
540625000 -6.986938e-001 -1.482996e+002 -4.667106e+001 3.818562e+001 -4.696172e+001 3.850243e+001 -1.576112e-001 1.342557e+002
541250000 -7.050809e-001 -1.484973e+002 -4.671887e+001 3.494647e+001 -4.647290e+001 3.794900e+001 -1.692429e-001 1.342222e+002
541875000 -7.174838e-001 -1.487817e+002 -4.619903e+001 3.831310e+001 -4.639969e+001 3.497245e+001 -1.724083e-001 1.341461e+002
542500000 -7.188745e-001 -1.490707e+002 -4.670724e+001 3.713880e+001 -4.662781e+001 3.370486e+001 -1.728268e-001 1.341528e+002
543125000 -7.230018e-001 -1.494161e+002 -4.687257e+001 3.374930e+001 -4.655454e+001 3.421039e+001 -1.686905e-001 1.339841e+002
543750000 -7.233363e-001 -1.497175e+002 -4.653279e+001 3.360733e+001 -4.660146e+001 2.960257e+001 -1.748413e-001 1.339476e+002
544375000 -7.355874e-001 -1.499968e+002 -4.649525e+001 2.856082e+001 -4.668726e+001 3.110634e+001 -1.691340e-001 1.338556e+002
545000000 -7.390010e-001 -1.503084e+002 -4.642411e+001 2.964814e+001 -4.641858e+001 2.915638e+001 -1.624462e-001 1.337818e+002
545625000 -7.332442e-001 -1.506137e+002 -4.621433e+001 2.810151e+001 -4.621584e+001 2.795797e+001 -1.680287e-001 1.336846e+002
546250000 -7.576048e-001 -1.509553e+002 -4.640554e+001 2.585850e+001 -4.603248e+001 2.619996e+001 -1.812093e-001 1.335441e+002
546875000 -7.554882e-001 -1.512980e+002 -4.578667e+001 2.551491e+001 -4.598018e+001 2.701321e+001 -1.771180e-001 1.335003e+002
547500000 -7.666174e-001 -1.515966e+002 -4.579597e+001 2.513432e+001 -4.640757e+001 2.607786e+001 -1.831201e-001 1.333846e+002
548125000 -7.752625e-001 -1.518719e+002 -4.585763e+001 2.410508e+001 -4.572248e+001 2.407547e+001 -1.837996e-001 1.332479e+002
548750000 -7.741576e-001 -1.522318e+002 -4.612968e+001 2.240764e+001 -4.560455e+001 2.414587e+001 -1.854676e-001 1.331871e+002
549375000 -7.901247e-001 -1.525032e+002 -4.583974e+001 2.189182e+001 -4.593896e+001 1.998822e+001 -1.791336e-001 1.329328e+002
550000000 -7.810465e-001 -1.528364e+002 -4.566613e+001 1.939937e+001 -4.529744e+001 2.245826e+001 -1.805709e-001 1.329595e+002
550625000 -7.950626e-001 -1.531467e+002 -4.577140e+001 2.096610e+001 -4.579739e+001 2.034967e+001 -1.708277e-001 1.328801e+002
551250000 -7.942771e-001 -1.534381e+002 -4.585678e+001 1.727835e+001 -4.553890e+001 1.726859e+001 -1.776755e-001 1.327873e+002
551875000 -8.009861e-001 -1.537325e+002 -4.542755e+001 1.578972e+001 -4.534388e+001 1.522796e+001 -1.662427e-001 1.326892e+002
552500000 -8.093095e-001 -1.540903e+002 -4.577674e+001 1.409603e+001 -4.579268e+001 1.375928e+001 -1.579334e-001 1.326701e+002
553125000 -8.070084e-001 -1.543733e+002 -4.547914e+001 1.482272e+001 -4.554345e+001 1.369531e+001 -1.680757e-001 1.326202e+002
553750000 -8.194444e-001 -1.546663e+002 -4.550216e+001 1.580223e+001 -4.544799e+001 1.045893e+001 -1.656211e-001 1.325549e+002
554375000 -8.169379e-001 -1.549872e+002 -4.588567e+001 1.072701e+001 -4.526188e+001 1.068407e+001 -1.654380e-001 1.325379e+002
555000000 -8.203590e-001 -1.553219e+002 -4.569695e+001 9.781446e+000 -4.551179e+001 9.183569e+000 -1.681037e-001 1.325687e+002
555625000 -8.253961e-001 -1.556154e+002 -4.575631e+001 9.723337e+000 -4.546169e+001 1.010975e+001 -1.524835e-001 1.325846e+002
556250000 -8.369748e-001 -1.559463e+002 -4.532340e+001 6.292174e+000 -4.537379e+001 8.373575e+000 -1.529097e-001 1.325143e+002
556875000 -8.336726e-001 -1.563397e+002 -4.552589e+001 8.852817e+000 -4.525135e+001 7.945803e+000 -1.589305e-001 1.325889e+002
557500000 -8.502626e-001 -1.566374e+002 -4.524059e+001 6.201902e+000 -4.517255e+001 5.869502e+000 -1.639071e-001 1.325707e+002
558125000 -8.483589e-001 -1.569481e+002 -4.559209e+001 7.117199e+000 -4.553455e+001 5.578974e+000 -1.692749e-001 1.325908e+002
558750000 -8.580818e-001 -1.572790e+002 -4.548911e+001 7.568038e+000 -4.537553e+001 4.168363e+000 -1.594722e-001 1.325579e+002
559375000 -8.696536e-001 -1.576775e+002 -4.511774e+001 4.788598e+000 -4.518608e+001 3.907792e+000 -1.517191e-001 1.325396e+002
560000000 -8.784561e-001 -1.579592e+002 -4.497325e+001 4.516406e+000 -4.487217e+001 1.816646e+000 -1.620266e-001 1.325208e+002
560625000 -8.813918e-001 -1.582319e+002 -4.480198e+001 2.911329e+000 -4.507718e+001 5.863886e-001 -1.572159e-001 1.325444e+002
561250000 -8.876106e-001 -1.586226e+002 -4.482958e+001 -4.249790e-001 -4.510122e+001 4.897945e-001 -1.629706e-001 1.325081e+002
561875000 -8.934238e-001 -1.589580e+002 -4.524288e+001 -5.923824e-001 -4.505704e+001 -6.130522e-001 -1.674706e-001 1.324984e+002
562500000 -8.987916e-001 -1.592888e+002 -4.480581e+001 -1.514085e-001 -4.495998e+001 -2.579289e-001 -1.627769e-001 1.324467e+002
563125000 -8.923105e-001 -1.595833e+002 -4.470181e+001 -1.365736e+000 -4.514083e+001 -1.168321e+000 -1.664059e-001 1.324249e+002
563750000 -9.051198e-001 -1.599978e+002 -4.549289e+001 -2.756395e+000 -4.485646e+001 -3.250750e+000 -1.762778e-001 1.323364e+002
564375000 -9.106836e-001 -1.603296e+002 -4.512914e+001 -4.649360e+000 -4.486971e+001 -3.392698e+000 -1.761147e-001 1.322910e+002
565000000 -9.116274e-001 -1.607261e+002 -4.504157e+001 -6.520568e+000 -4.462464e+001 -6.654964e+000 -1.808492e-001 1.322338e+002
565625000 -9.209446e-001 -1.611091e+002 -4.449498e+001 -6.464720e+000 -4.498576e+001 -6.633574e+000 -1.867198e-001 1.321079e+002
566250000 -9.196325e-001 -1.614775e+002 -4.463334e+001 -1.023558e+001 -4.494402e+001 -8.107065e+000 -1.831906e-001 1.320465e+002
566875000 -9.403487e-001 -1.618545e+002 -4.433666e+001 -9.982376e+000 -4.453560e+001 -1.013090e+001 -1.828167e-001 1.318742e+002
567500000 -9.497508e-001 -1.622974e+002 -4.429213e+001 -1.057002e+001 -4.460722e+001 -8.797954e+000 -1.803955e-001 1.317714e+002
568125000 -9.566370e-001 -1.626249e+002 -4.473007e+001 -9.750410e+000 -4.463129e+001 -1.015178e+001 -1.789724e-001 1.316655e+002
568750000 -9.589698e-001 -1.629989e+002 -4.466988e+001 -1.201975e+001 -4.442917e+001 -1.104057e+001 -1.913462e-001 1.315393e+002
569375000 -9.738537e-001 -1.634271e+002 -4.467055e+001 -1.404905e+001 -4.470361e+001 -1.241498e+001 -1.838307e-001 1.314280e+002
570000000 -9.791763e-001 -1.638089e+002 -4.444870e+001 -1.473620e+001 -4.444016e+001 -1.138295e+001 -1.880541e-001 1.312567e+002
570625000 -9.810746e-001 -1.642301e+002 -4.445866e+001 -1.403574e+001 -4.416169e+001 -1.394159e+001 -1.784837e-001 1.311542e+002
571250000 -9.861840e-001 -1.646560e+002 -4.417290e+001 -1.372634e+001 -4.426613e+001 -1.603923e+001 -1.850726e-001 1.310581e+002
571875000 -9.946961e-001 -1.650368e+002 -4.400309e+001 -1.650261e+001 -4.442858e+001 -1.758369e+001 -1.763349e-001 1.309094e+002
572500000 -1.005378e+000 -1.654611e+002 -4.424569e+001 -1.698089e+001 -4.419558e+001 -1.780629e+001 -1.751774e-001 1.308301e+002
573125000 -1.010148e+000 -1.658499e+002 -4.407357e+001 -1.702449e+001 -4.420813e+001 -1.867857e+001 -1.681473e-001 1.307262e+002
573750000 -1.025021e+000 -1.662594e+002 -4.428557e+001 -1.811246e+001 -4.395979e+001 -2.089852e+001 -1.814905e-001 1.306323e+002
574375000 -1.031458e+000 -1.666509e+002 -4.418565e+001 -1.943128e+001 -4.396583e+001 -1.832332e+001 -1.773352e-001 1.305556e+002
575000000 -1.038158e+000 -1.670972e+002 -4.388878e+001 -2.167909e+001 -4.413187e+001 -1.950906e+001 -1.707962e-001 1.304579e+002
575625000 -1.051237e+000 -1.675309e+002 -4.445527e+001 -2.273013e+001 -4.403540e+001 -2.222193e+001 -1.704317e-001 1.304661e+002
576250000 -1.057157e+000 -1.678784e+002 -4.384945e+001 -2.373978e+001 -4.376388e+001 -2.217713e+001 -1.750373e-001 1.303766e+002
576875000 -1.065986e+000 -1.683095e+002 -4.376733e+001 -2.317992e+001 -4.393131e+001 -2.573353e+001 -1.656990e-001 1.304053e+002
577500000 -1.074690e+000 -1.686783e+002 -4.390897e+001 -2.444406e+001 -4.377451e+001 -2.545754e+001 -1.642592e-001 1.303152e+002
578125000 -1.083691e+000 -1.691373e+002 -4.393764e+001 -2.543842e+001 -4.384946e+001 -2.516018e+001 -1.643095e-001 1.303772e+002
578750000 -1.080145e+000 -1.695141e+002 -4.397137e+001 -2.756669e+001 -4.373759e+001 -2.585165e+001 -1.640616e-001 1.303219e+002
579375000 -1.089833e+000 -1.699144e+002 -4.371532e+001 -2.796549e+001 -4.369119e+001 -2.811283e+001 -1.627619e-001 1.302625e+002
580000000 -1.102424e+000 -1.703665e+002 -4.403482e+001 -2.849320e+001 -4.397141e+001 -2.827543e+001 -1.576232e-001 1.303356e+002
580625000 -1.109347e+000 -1.708252e+002 -4.366622e+001 -2.900743e+001 -4.366479e+001 -3.007498e+001 -1.560828e-001 1.303264e+002
581250000 -1.123433e+000 -1.711925e+002 -4.374276e+001 -3.032305e+001 -4.348992e+001 -2.997223e+001 -1.578434e-001 1.303496e+002
581875000 -1.134354e+000 -1.716358e+002 -4.355574e+001 -3.056885e+001 -4.390787e+001 -3.124026e+001 -1.690173e-001 1.303077e+002
582500000 -1.153500e+000 -1.720725e+002 -4.355494e+001 -3.043964e+001 -4.342393e+001 -3.058445e+001 -1.704331e-001 1.302430e+002
583125000 -1.157676e+000 -1.725560e+002 -4.375809e+001 -3.303901e+001 -4.338988e+001 -3.230126e+001 -1.784440e-001 1.301467e+002
583750000 -1.179745e+000 -1.730219e+002 -4.361777e+001 -3.340443e+001 -4.355618e+001 -3.349333e+001 -1.898728e-001 1.301007e+002
584375000 -1.191042e+000 -1.734467e+002 -4.348439e+001 -3.431845e+001 -4.356013e+001 -3.360802e+001 -1.843240e-001 1.299983e+002
585000000 -1.204331e+000 -1.739141e+002 -4.330878e+001 -3.424263e+001 -4.353651e+001 -3.396032e+001 -1.857897e-001 1.299072e+002
585625000 -1.230859e+000 -1.743339e+002 -4.326266e+001 -3.356523e+001 -4.309125e+001 -3.524374e+001 -1.836949e-001 1.297931e+002
586250000 -1.239555e+000 -1.748640e+002 -4.328763e+001 -3.680116e+001 -4.333776e+001 -3.596016e+001 -1.893977e-001 1.297680e+002
586875000 -1.252032e+000 -1.753242e+002 -4.307369e+001 -3.505608e+001 -4.334835e+001 -3.746455e+001 -1.897070e-001 1.296023e+002
587500000 -1.277389e+000 -1.757912e+002 -4.311890e+001 -3.683944e+001 -4.326350e+001 -3.626849e+001 -1.887608e-001 1.294282e+002
588125000 -1.283613e+000 -1.762732e+002 -4.327005e+001 -3.961807e+001 -4.308857e+001 -3.894048e+001 -1.861455e-001 1.293216e+002
588750000 -1.307843e+000 -1.767289e+002 -4.330964e+001 -3.955352e+001 -4.294391e+001 -4.012846e+001 -1.975944e-001 1.292049e+002
589375000 -1.311079e+000 -1.772545e+002 -4.298493e+001 -3.975422e+001 -4.307794e+001 -4.090779e+001 -1.775361e-001 1.290996e+002
590000000 -1.333764e+000 -1.777879e+002 -4.303220e+001 -4.099980e+001 -4.319307e+001 -4.029150e+001 -1.789447e-001 1.290251e+002
590625000 -1.342916e+000 -1.782524e+002 -4.304739e+001 -4.118007e+001 -4.297125e+001 -4.127293e+001 -1.818426e-001 1.289252e+002
591250000 -1.361919e+000 -1.787732e+002 -4.290826e+001 -4.314869e+001 -4.302945e+001 -4.284987e+001 -1.736416e-001 1.288642e+002
591875000 -1.386427e+000 -1.792274e+002 -4.291388e+001 -4.305645e+001 -4.274865e+001 -4.398737e+001 -1.718139e-001 1.287982e+002
592500000 -1.406646e+000 -1.797549e+002 -4.261913e+001 -4.422751e+001 -4.261478e+001 -4.453499e+001 -1.670351e-001 1.288220e+002
593125000 -1.423739e+000 1.798123e+002 -4.283127e+001 -4.526956e+001 -4.255545e+001 -4.611742e+001 -1.681781e-001 1.288720e+002
593750000 -1.438571e+000 1.793139e+002 -4.267891e+001 -4.674919e+001 -4.275670e+001 -4.621450e+001 -1.488991e-001 1.289363e+002
594375000 -1.450417e+000 1.788347e+002 -4.286034e+001 -4.643228e+001 -4.255024e+001 -4.643085e+001 -1.497518e-001 1.289775e+002
595000000 -1.458119e+000 1.783378e+002 -4.255244e+001 -4.665936e+001 -4.246822e+001 -4.733970e+001 -1.630013e-001 1.289981e+002
595625000 -1.475115e+000 1.777565e+002 -4.275125e+001 -4.749626e+001 -4.215850e+001 -4.778605e+001 -1.518047e-001 1.290240e+002
