!Agilent Technologies,E8364B,US42250235,A.06.04.32
!Agilent E8364B: A.06.04.32
!Date: Friday, January 15, 2021 13:51:30
!Correction: S11(Full 2 Port(1,2)) S21(Full 2 Port(1,2)) S12(Full 2 Port(1,2)) S22(Full 2 Port(1,2)) 
!S2P File: Measurements: S11, S21, S12, S22:
# Hz S  dB   R 50
500000000 -9.387278e-002 -1.290846e+002 -6.295114e+001 1.511619e+002 -6.141566e+001 1.597961e+002 -1.587674e-001 1.378458e+002
500625000 -9.978560e-002 -1.293734e+002 -6.358663e+001 1.429377e+002 -6.260917e+001 1.552706e+002 -1.661575e-001 1.377838e+002
501250000 -9.836632e-002 -1.296248e+002 -6.515923e+001 1.632835e+002 -6.404553e+001 1.775903e+002 -1.644181e-001 1.376925e+002
501875000 -1.016199e-001 -1.299050e+002 -6.254254e+001 1.511835e+002 -6.198296e+001 1.460232e+002 -1.575740e-001 1.376617e+002
502500000 -9.401429e-002 -1.302003e+002 -6.297354e+001 1.631906e+002 -6.285732e+001 1.612646e+002 -1.585484e-001 1.376322e+002
503125000 -1.047661e-001 -1.304860e+002 -6.283797e+001 1.547056e+002 -6.274157e+001 1.613723e+002 -1.573568e-001 1.375390e+002
503750000 -1.078153e-001 -1.307751e+002 -5.970863e+001 1.514756e+002 -6.079723e+001 1.503787e+002 -1.661913e-001 1.374549e+002
504375000 -1.139082e-001 -1.310390e+002 -6.079626e+001 1.579700e+002 -6.320637e+001 1.363531e+002 -1.698867e-001 1.373540e+002
505000000 -1.143918e-001 -1.313704e+002 -6.241362e+001 1.498479e+002 -6.413637e+001 1.471692e+002 -1.662270e-001 1.373478e+002
505625000 -1.181416e-001 -1.315979e+002 -6.073063e+001 1.521978e+002 -6.461069e+001 1.433175e+002 -1.659070e-001 1.372275e+002
506250000 -1.270466e-001 -1.319113e+002 -6.117513e+001 1.518874e+002 -6.204727e+001 1.591840e+002 -1.690968e-001 1.371682e+002
506875000 -1.258328e-001 -1.322135e+002 -6.149136e+001 1.600970e+002 -5.909864e+001 1.402053e+002 -1.632397e-001 1.370456e+002
507500000 -1.341138e-001 -1.325235e+002 -6.272529e+001 1.635909e+002 -6.176279e+001 1.417447e+002 -1.602529e-001 1.369648e+002
508125000 -1.416435e-001 -1.328242e+002 -6.116333e+001 1.472490e+002 -6.007796e+001 1.370364e+002 -1.574884e-001 1.368848e+002
508750000 -1.402499e-001 -1.331064e+002 -6.268116e+001 1.579758e+002 -6.160642e+001 1.374754e+002 -1.590889e-001 1.368347e+002
509375000 -1.468720e-001 -1.334293e+002 -6.263950e+001 1.405994e+002 -5.927853e+001 1.461169e+002 -1.487468e-001 1.368228e+002
510000000 -1.491117e-001 -1.337679e+002 -6.156938e+001 1.495318e+002 -6.175821e+001 1.332911e+002 -1.607159e-001 1.367313e+002
510625000 -1.516353e-001 -1.340614e+002 -5.874149e+001 1.413202e+002 -6.007674e+001 1.342351e+002 -1.515073e-001 1.367785e+002
511250000 -1.620951e-001 -1.343282e+002 -5.897013e+001 1.366657e+002 -6.085123e+001 1.322307e+002 -1.551555e-001 1.366345e+002
511875000 -1.613346e-001 -1.347082e+002 -6.040953e+001 1.403344e+002 -6.226213e+001 1.346646e+002 -1.570136e-001 1.366495e+002
512500000 -1.617485e-001 -1.350299e+002 -6.067604e+001 1.319042e+002 -5.939867e+001 1.453954e+002 -1.541199e-001 1.366034e+002
513125000 -1.697155e-001 -1.353621e+002 -5.798326e+001 1.480784e+002 -6.165642e+001 1.255850e+002 -1.612565e-001 1.365766e+002
513750000 -1.784023e-001 -1.356471e+002 -6.082518e+001 1.293279e+002 -6.039873e+001 1.374861e+002 -1.639021e-001 1.365339e+002
514375000 -1.793745e-001 -1.360063e+002 -6.002530e+001 1.487297e+002 -6.086371e+001 1.290407e+002 -1.535043e-001 1.364590e+002
515000000 -1.866926e-001 -1.363121e+002 -6.249654e+001 1.288522e+002 -5.978916e+001 1.315875e+002 -1.582794e-001 1.364401e+002
515625000 -2.019166e-001 -1.366921e+002 -5.998868e+001 1.331024e+002 -6.049781e+001 1.297839e+002 -1.618857e-001 1.364028e+002
516250000 -2.025146e-001 -1.370178e+002 -6.084962e+001 1.335599e+002 -5.877428e+001 1.255211e+002 -1.750845e-001 1.362876e+002
516875000 -2.170688e-001 -1.373214e+002 -5.957087e+001 1.355156e+002 -5.933430e+001 1.299776e+002 -1.594090e-001 1.362458e+002
517500000 -2.223733e-001 -1.376278e+002 -6.012826e+001 1.339521e+002 -5.961501e+001 1.379506e+002 -1.766305e-001 1.361133e+002
518125000 -2.286173e-001 -1.379590e+002 -5.996774e+001 1.260163e+002 -5.996877e+001 1.261047e+002 -1.702314e-001 1.360492e+002
518750000 -2.385486e-001 -1.382975e+002 -6.022326e+001 1.255483e+002 -6.071355e+001 1.244740e+002 -1.744106e-001 1.360151e+002
519375000 -2.476337e-001 -1.385621e+002 -6.179883e+001 1.296301e+002 -5.868356e+001 1.267019e+002 -1.590709e-001 1.358465e+002
520000000 -2.528808e-001 -1.389155e+002 -5.779210e+001 1.306829e+002 -5.940535e+001 1.247093e+002 -1.627993e-001 1.357695e+002
520625000 -2.600376e-001 -1.392198e+002 -5.789990e+001 1.230352e+002 -5.921544e+001 1.226813e+002 -1.647723e-001 1.356320e+002
521250000 -2.743758e-001 -1.395739e+002 -5.941120e+001 1.135862e+002 -5.927607e+001 1.256638e+002 -1.699010e-001 1.355919e+002
521875000 -2.697544e-001 -1.399122e+002 -5.938047e+001 1.179484e+002 -6.039408e+001 1.189368e+002 -1.594070e-001 1.355430e+002
522500000 -2.839336e-001 -1.402012e+002 -5.950169e+001 1.270568e+002 -5.841423e+001 1.289920e+002 -1.629824e-001 1.354376e+002
523125000 -2.979807e-001 -1.405316e+002 -5.901410e+001 1.077932e+002 -5.876275e+001 1.224355e+002 -1.579013e-001 1.354421e+002
523750000 -2.989001e-001 -1.408467e+002 -5.873795e+001 1.281393e+002 -5.785914e+001 1.229020e+002 -1.624204e-001 1.354166e+002
524375000 -3.195793e-001 -1.411779e+002 -5.903380e+001 1.112145e+002 -5.702295e+001 1.278606e+002 -1.535998e-001 1.353567e+002
525000000 -3.198524e-001 -1.414983e+002 -5.854343e+001 1.202215e+002 -5.739110e+001 1.144420e+002 -1.586398e-001 1.353039e+002
525625000 -3.375995e-001 -1.417546e+002 -5.719452e+001 1.116291e+002 -5.823531e+001 1.100427e+002 -1.563995e-001 1.352914e+002
526250000 -3.342578e-001 -1.420601e+002 -5.802253e+001 1.062958e+002 -5.778340e+001 1.067533e+002 -1.561240e-001 1.352886e+002
526875000 -3.421838e-001 -1.423856e+002 -5.670658e+001 1.091525e+002 -5.684351e+001 1.123783e+002 -1.462607e-001 1.352422e+002
527500000 -3.548623e-001 -1.426729e+002 -5.895039e+001 1.111311e+002 -5.718562e+001 1.161585e+002 -1.571502e-001 1.352521e+002
528125000 -3.752172e-001 -1.430074e+002 -5.601866e+001 1.078300e+002 -5.784449e+001 1.167395e+002 -1.477604e-001 1.353114e+002
528750000 -3.725340e-001 -1.433109e+002 -5.638568e+001 1.001050e+002 -5.708784e+001 1.090868e+002 -1.604904e-001 1.353443e+002
529375000 -3.946609e-001 -1.436070e+002 -5.699214e+001 1.094886e+002 -5.757564e+001 1.034139e+002 -1.528419e-001 1.352712e+002
530000000 -3.981485e-001 -1.440185e+002 -5.563537e+001 1.125412e+002 -5.670963e+001 1.048957e+002 -1.567905e-001 1.352286e+002
530625000 -4.049518e-001 -1.442509e+002 -5.561925e+001 9.403796e+001 -5.681211e+001 1.006539e+002 -1.599475e-001 1.352018e+002
531250000 -4.175501e-001 -1.446490e+002 -5.565583e+001 1.023957e+002 -5.643961e+001 1.071508e+002 -1.529345e-001 1.351496e+002
531875000 -4.389135e-001 -1.448918e+002 -5.420751e+001 1.050590e+002 -5.634496e+001 9.879202e+001 -1.654920e-001 1.350824e+002
532500000 -4.497810e-001 -1.452358e+002 -5.572289e+001 9.697691e+001 -5.683335e+001 9.745806e+001 -1.653299e-001 1.350916e+002
533125000 -4.529711e-001 -1.455282e+002 -5.520680e+001 1.019933e+002 -5.639571e+001 9.732097e+001 -1.735328e-001 1.350507e+002
533750000 -4.699086e-001 -1.459154e+002 -5.639515e+001 9.716033e+001 -5.534014e+001 9.404188e+001 -1.766293e-001 1.349454e+002
534375000 -4.834150e-001 -1.462589e+002 -5.536549e+001 8.729343e+001 -5.675929e+001 8.998984e+001 -1.635412e-001 1.348848e+002
535000000 -4.987767e-001 -1.465263e+002 -5.491307e+001 9.051900e+001 -5.612654e+001 9.414630e+001 -1.664052e-001 1.348139e+002
535625000 -5.086237e-001 -1.468896e+002 -5.558229e+001 8.871371e+001 -5.546708e+001 9.835493e+001 -1.647616e-001 1.347918e+002
536250000 -5.234905e-001 -1.472354e+002 -5.513008e+001 8.994778e+001 -5.508552e+001 8.497673e+001 -1.614880e-001 1.346768e+002
536875000 -5.367712e-001 -1.475626e+002 -5.536479e+001 8.284057e+001 -5.409488e+001 8.566798e+001 -1.701187e-001 1.345901e+002
537500000 -5.535766e-001 -1.478598e+002 -5.469674e+001 8.389176e+001 -5.507350e+001 8.568449e+001 -1.609547e-001 1.346202e+002
538125000 -5.668195e-001 -1.482012e+002 -5.466345e+001 7.977272e+001 -5.492731e+001 7.707281e+001 -1.614081e-001 1.346052e+002
538750000 -5.927807e-001 -1.484921e+002 -5.429827e+001 8.027767e+001 -5.432557e+001 8.359241e+001 -1.686773e-001 1.345591e+002
539375000 -6.087095e-001 -1.487883e+002 -5.554947e+001 7.736277e+001 -5.462418e+001 8.090153e+001 -1.600505e-001 1.345064e+002
540000000 -6.095893e-001 -1.490743e+002 -5.618405e+001 8.065956e+001 -5.501641e+001 8.309368e+001 -1.624939e-001 1.343827e+002
540625000 -6.310877e-001 -1.493919e+002 -5.491442e+001 8.064368e+001 -5.511784e+001 7.865374e+001 -1.675074e-001 1.343162e+002
541250000 -6.461022e-001 -1.496287e+002 -5.389689e+001 7.259959e+001 -5.462350e+001 7.393866e+001 -1.652340e-001 1.342949e+002
541875000 -6.624980e-001 -1.499801e+002 -5.398603e+001 7.746208e+001 -5.396104e+001 6.594391e+001 -1.754974e-001 1.341671e+002
542500000 -6.733218e-001 -1.503000e+002 -5.381847e+001 7.210426e+001 -5.440858e+001 7.156425e+001 -1.649293e-001 1.341501e+002
543125000 -6.771778e-001 -1.505978e+002 -5.441821e+001 7.030024e+001 -5.495837e+001 6.495354e+001 -1.703002e-001 1.340976e+002
543750000 -6.890695e-001 -1.509129e+002 -5.437585e+001 6.787585e+001 -5.466855e+001 6.391817e+001 -1.785651e-001 1.340012e+002
544375000 -6.958655e-001 -1.512297e+002 -5.305643e+001 7.142636e+001 -5.487603e+001 6.397325e+001 -1.708681e-001 1.339856e+002
545000000 -7.004656e-001 -1.515384e+002 -5.506944e+001 6.688273e+001 -5.443663e+001 6.397221e+001 -1.671602e-001 1.338325e+002
545625000 -7.139158e-001 -1.518931e+002 -5.449020e+001 6.416358e+001 -5.476717e+001 6.583846e+001 -1.713999e-001 1.337860e+002
546250000 -7.388281e-001 -1.522115e+002 -5.430117e+001 6.188856e+001 -5.440551e+001 6.477607e+001 -1.807598e-001 1.336222e+002
546875000 -7.499408e-001 -1.525919e+002 -5.375878e+001 6.829227e+001 -5.430306e+001 6.239578e+001 -1.804492e-001 1.335681e+002
547500000 -7.652718e-001 -1.528892e+002 -5.455935e+001 6.439005e+001 -5.361579e+001 6.272310e+001 -1.817413e-001 1.334819e+002
548125000 -7.850483e-001 -1.531567e+002 -5.429033e+001 5.728891e+001 -5.325179e+001 5.926319e+001 -1.743171e-001 1.333877e+002
548750000 -7.924642e-001 -1.534619e+002 -5.381617e+001 6.049550e+001 -5.478170e+001 5.506101e+001 -1.763249e-001 1.332769e+002
549375000 -8.092679e-001 -1.537509e+002 -5.358898e+001 5.288560e+001 -5.369754e+001 5.169657e+001 -1.785059e-001 1.330560e+002
550000000 -8.149279e-001 -1.539999e+002 -5.427891e+001 4.936258e+001 -5.403373e+001 5.374385e+001 -1.789232e-001 1.330444e+002
550625000 -8.264705e-001 -1.543050e+002 -5.349756e+001 4.818435e+001 -5.318871e+001 5.213350e+001 -1.777770e-001 1.329377e+002
551250000 -8.331690e-001 -1.545760e+002 -5.307907e+001 4.384455e+001 -5.276859e+001 4.979318e+001 -1.635362e-001 1.328709e+002
551875000 -8.404442e-001 -1.548582e+002 -5.339617e+001 5.035097e+001 -5.293604e+001 4.950704e+001 -1.625633e-001 1.327871e+002
552500000 -8.480775e-001 -1.551655e+002 -5.363599e+001 5.173147e+001 -5.340518e+001 3.939017e+001 -1.645494e-001 1.327503e+002
553125000 -8.488690e-001 -1.554360e+002 -5.350492e+001 4.688658e+001 -5.321075e+001 4.441879e+001 -1.646331e-001 1.326969e+002
553750000 -8.640303e-001 -1.557495e+002 -5.292109e+001 4.486961e+001 -5.311507e+001 4.559112e+001 -1.649964e-001 1.326799e+002
554375000 -8.604458e-001 -1.560294e+002 -5.324958e+001 4.236621e+001 -5.424167e+001 4.032441e+001 -1.646333e-001 1.326598e+002
555000000 -8.719316e-001 -1.563395e+002 -5.326848e+001 3.857388e+001 -5.333616e+001 3.952252e+001 -1.581970e-001 1.326535e+002
555625000 -8.770884e-001 -1.566486e+002 -5.400321e+001 4.177473e+001 -5.282032e+001 3.771551e+001 -1.476359e-001 1.326844e+002
556250000 -8.836171e-001 -1.569908e+002 -5.316831e+001 3.776152e+001 -5.309159e+001 3.842730e+001 -1.572427e-001 1.326383e+002
556875000 -8.887932e-001 -1.573331e+002 -5.344286e+001 3.483251e+001 -5.368485e+001 3.175649e+001 -1.635391e-001 1.327129e+002
557500000 -9.017909e-001 -1.576475e+002 -5.286095e+001 3.157268e+001 -5.357513e+001 3.877749e+001 -1.521510e-001 1.326534e+002
558125000 -9.100654e-001 -1.579937e+002 -5.287412e+001 3.278394e+001 -5.319815e+001 2.751508e+001 -1.624305e-001 1.327069e+002
558750000 -9.116196e-001 -1.583345e+002 -5.292401e+001 3.310947e+001 -5.333402e+001 3.058644e+001 -1.576322e-001 1.326627e+002
559375000 -9.238951e-001 -1.586622e+002 -5.264418e+001 3.643693e+001 -5.356797e+001 3.106483e+001 -1.592040e-001 1.327035e+002
560000000 -9.405816e-001 -1.590141e+002 -5.219432e+001 3.063589e+001 -5.296088e+001 2.736348e+001 -1.509788e-001 1.325691e+002
560625000 -9.389245e-001 -1.593626e+002 -5.350391e+001 3.869524e+001 -5.237770e+001 2.350964e+001 -1.584838e-001 1.326587e+002
561250000 -9.592034e-001 -1.596414e+002 -5.331745e+001 3.121486e+001 -5.331524e+001 3.173671e+001 -1.557256e-001 1.325974e+002
561875000 -9.656559e-001 -1.600580e+002 -5.306977e+001 2.871408e+001 -5.180233e+001 2.340350e+001 -1.729796e-001 1.325761e+002
562500000 -9.644901e-001 -1.603813e+002 -5.237346e+001 2.975200e+001 -5.236530e+001 2.750832e+001 -1.696036e-001 1.325896e+002
563125000 -9.711680e-001 -1.606764e+002 -5.186621e+001 2.404928e+001 -5.304054e+001 2.154260e+001 -1.617796e-001 1.325140e+002
563750000 -9.815639e-001 -1.610903e+002 -5.287921e+001 2.347098e+001 -5.200400e+001 2.340112e+001 -1.704963e-001 1.324691e+002
564375000 -9.948635e-001 -1.614145e+002 -5.257151e+001 2.357167e+001 -5.222994e+001 2.191481e+001 -1.724420e-001 1.323758e+002
565000000 -9.981508e-001 -1.618438e+002 -5.185990e+001 2.160416e+001 -5.234835e+001 2.437191e+001 -1.824882e-001 1.323267e+002
565625000 -1.013366e+000 -1.622115e+002 -5.245810e+001 1.620008e+001 -5.208005e+001 1.896799e+001 -1.845224e-001 1.321882e+002
566250000 -1.022413e+000 -1.626694e+002 -5.235804e+001 1.881382e+001 -5.172251e+001 1.361392e+001 -1.865558e-001 1.321080e+002
566875000 -1.047621e+000 -1.630243e+002 -5.245631e+001 1.390891e+001 -5.187476e+001 1.744578e+001 -1.927672e-001 1.319987e+002
567500000 -1.059443e+000 -1.634252e+002 -5.182015e+001 1.744731e+001 -5.162803e+001 1.347717e+001 -1.825151e-001 1.318415e+002
568125000 -1.076186e+000 -1.637701e+002 -5.153593e+001 1.029933e+001 -5.173765e+001 1.304328e+001 -1.884013e-001 1.316975e+002
568750000 -1.091445e+000 -1.641358e+002 -5.148045e+001 1.548537e+001 -5.172858e+001 9.448575e+000 -1.922495e-001 1.316109e+002
569375000 -1.115637e+000 -1.645410e+002 -5.138025e+001 9.426785e+000 -5.215252e+001 8.860196e+000 -1.887825e-001 1.315324e+002
570000000 -1.125957e+000 -1.649534e+002 -5.170218e+001 5.021077e+000 -5.253292e+001 7.539362e+000 -1.843440e-001 1.313560e+002
570625000 -1.126881e+000 -1.652349e+002 -5.250470e+001 6.062279e+000 -5.142860e+001 4.318783e+000 -1.807353e-001 1.311762e+002
571250000 -1.148607e+000 -1.656528e+002 -5.165623e+001 4.648331e+000 -5.258540e+001 8.020564e+000 -1.825204e-001 1.311544e+002
571875000 -1.160921e+000 -1.660061e+002 -5.173468e+001 1.068805e+000 -5.137386e+001 4.981633e+000 -1.708094e-001 1.310020e+002
572500000 -1.177052e+000 -1.664036e+002 -5.180885e+001 2.616913e+000 -5.244884e+001 3.452385e+000 -1.844927e-001 1.308697e+002
573125000 -1.183512e+000 -1.667787e+002 -5.163556e+001 -5.113392e+000 -5.125063e+001 -8.184540e-001 -1.730901e-001 1.308138e+002
573750000 -1.194430e+000 -1.671672e+002 -5.201534e+001 6.609844e-001 -5.254625e+001 4.933340e-001 -1.823371e-001 1.306668e+002
574375000 -1.205083e+000 -1.674919e+002 -5.215712e+001 -5.503655e-001 -5.138367e+001 -5.089092e+000 -1.764190e-001 1.306339e+002
575000000 -1.216809e+000 -1.679388e+002 -5.130240e+001 3.637008e+000 -5.188359e+001 -5.330614e-001 -1.701722e-001 1.305915e+002
575625000 -1.223732e+000 -1.682757e+002 -5.172710e+001 -2.000854e+000 -5.135949e+001 -1.852678e+000 -1.758941e-001 1.304847e+002
576250000 -1.233019e+000 -1.686590e+002 -5.155741e+001 -6.820020e+000 -5.125319e+001 -5.991425e+000 -1.732295e-001 1.304425e+002
576875000 -1.248483e+000 -1.690937e+002 -5.142887e+001 -6.601586e+000 -5.135209e+001 -1.934425e+000 -1.680595e-001 1.304668e+002
577500000 -1.258351e+000 -1.694428e+002 -5.152470e+001 -7.562252e+000 -5.130036e+001 -1.333008e+001 -1.621622e-001 1.303774e+002
578125000 -1.268110e+000 -1.697966e+002 -5.120566e+001 -3.823176e+000 -5.165145e+001 -6.278538e+000 -1.625680e-001 1.304520e+002
578750000 -1.273304e+000 -1.702049e+002 -5.168657e+001 -1.024437e+001 -5.085215e+001 -6.926180e+000 -1.535722e-001 1.303974e+002
579375000 -1.280975e+000 -1.706017e+002 -5.189137e+001 -1.360603e+001 -5.167199e+001 -1.077597e+001 -1.610736e-001 1.303973e+002
580000000 -1.279982e+000 -1.709906e+002 -5.117931e+001 -7.863605e+000 -5.125269e+001 -1.220502e+001 -1.681113e-001 1.304242e+002
580625000 -1.293125e+000 -1.713769e+002 -5.079812e+001 -1.399371e+001 -5.095083e+001 -1.289147e+001 -1.612631e-001 1.304290e+002
581250000 -1.304818e+000 -1.718019e+002 -5.092709e+001 -1.377699e+001 -5.078989e+001 -1.072619e+001 -1.696258e-001 1.303882e+002
581875000 -1.313391e+000 -1.722622e+002 -5.095050e+001 -1.376154e+001 -5.098195e+001 -1.612428e+001 -1.638470e-001 1.303892e+002
582500000 -1.333149e+000 -1.726960e+002 -5.060817e+001 -1.825256e+001 -5.063323e+001 -1.499840e+001 -1.663575e-001 1.303131e+002
583125000 -1.339303e+000 -1.732327e+002 -5.206455e+001 -1.842332e+001 -5.056100e+001 -1.932964e+001 -1.750818e-001 1.301877e+002
583750000 -1.359490e+000 -1.737067e+002 -5.140288e+001 -1.775076e+001 -5.131585e+001 -1.473240e+001 -1.854360e-001 1.301204e+002
584375000 -1.374940e+000 -1.741739e+002 -5.097845e+001 -1.853621e+001 -5.116214e+001 -2.205600e+001 -1.847202e-001 1.300685e+002
585000000 -1.393277e+000 -1.746971e+002 -5.065185e+001 -2.184262e+001 -5.083673e+001 -1.842165e+001 -1.864979e-001 1.299815e+002
585625000 -1.430608e+000 -1.751555e+002 -5.117155e+001 -2.519091e+001 -5.046322e+001 -2.223754e+001 -1.803814e-001 1.299026e+002
586250000 -1.441476e+000 -1.756329e+002 -5.066394e+001 -2.388442e+001 -5.105337e+001 -2.405320e+001 -1.799417e-001 1.298511e+002
586875000 -1.461518e+000 -1.761257e+002 -5.089775e+001 -2.468937e+001 -5.034858e+001 -2.287111e+001 -1.888902e-001 1.296694e+002
587500000 -1.493570e+000 -1.765710e+002 -5.041767e+001 -2.561018e+001 -5.062156e+001 -2.374291e+001 -1.886651e-001 1.295617e+002
588125000 -1.514148e+000 -1.770558e+002 -5.022864e+001 -3.085563e+001 -5.054215e+001 -2.717846e+001 -1.930391e-001 1.293731e+002
588750000 -1.530508e+000 -1.775764e+002 -4.990448e+001 -2.448366e+001 -5.013158e+001 -2.879754e+001 -1.978624e-001 1.293186e+002
589375000 -1.553320e+000 -1.780997e+002 -5.014837e+001 -3.230262e+001 -5.042370e+001 -3.028536e+001 -1.851113e-001 1.291877e+002
590000000 -1.579033e+000 -1.786117e+002 -5.041836e+001 -2.878427e+001 -5.018853e+001 -2.997389e+001 -1.876901e-001 1.291054e+002
590625000 -1.603243e+000 -1.791452e+002 -5.001854e+001 -3.094551e+001 -5.060084e+001 -3.021308e+001 -1.811805e-001 1.289787e+002
591250000 -1.631662e+000 -1.796511e+002 -4.970382e+001 -3.432281e+001 -4.989369e+001 -3.711013e+001 -1.807130e-001 1.289234e+002
591875000 -1.674760e+000 1.799094e+002 -5.035106e+001 -3.391501e+001 -5.003848e+001 -3.227625e+001 -1.738607e-001 1.288833e+002
592500000 -1.702009e+000 1.794254e+002 -4.996498e+001 -3.287830e+001 -5.010300e+001 -3.376593e+001 -1.650095e-001 1.289062e+002
593125000 -1.733659e+000 1.790529e+002 -4.960107e+001 -3.323820e+001 -4.966993e+001 -3.496729e+001 -1.650311e-001 1.289511e+002
593750000 -1.760316e+000 1.785533e+002 -4.977581e+001 -3.974461e+001 -4.940935e+001 -3.654211e+001 -1.511268e-001 1.289769e+002
594375000 -1.771069e+000 1.781597e+002 -4.958488e+001 -3.716415e+001 -4.935493e+001 -3.923274e+001 -1.487169e-001 1.289423e+002
595000000 -1.798887e+000 1.776569e+002 -4.973072e+001 -4.128055e+001 -4.962045e+001 -3.912802e+001 -1.622872e-001 1.290468e+002
595625000 -1.818724e+000 1.771469e+002 -4.875951e+001 -3.982618e+001 -4.917517e+001 -4.057040e+001 -1.457191e-001 1.290329e+002
