!Agilent Technologies,E8364B,US42250235,A.06.04.32
!Agilent E8364B: A.06.04.32
!Date: Friday, January 15, 2021 12:11:46
!Correction: S11(Full 2 Port(1,2)) S21(Full 2 Port(1,2)) S12(Full 2 Port(1,2)) S22(Full 2 Port(1,2)) 
!S2P File: Measurements: S11, S21, S12, S22:
# Hz S  dB   R 50
500000000 -1.151417e-001 -1.288368e+002 -6.244476e+001 -1.555148e+002 -6.118916e+001 -1.564101e+002 -1.175284e-001 1.387963e+002
500625000 -1.140303e-001 -1.291144e+002 -6.150002e+001 -1.367805e+002 -6.136935e+001 -1.669297e+002 -1.227115e-001 1.387625e+002
501250000 -1.201975e-001 -1.293655e+002 -6.275771e+001 -1.756255e+002 -6.048306e+001 -1.600309e+002 -1.218641e-001 1.387060e+002
501875000 -1.159834e-001 -1.296841e+002 -6.100611e+001 -1.500012e+002 -6.281494e+001 -1.535122e+002 -1.161363e-001 1.386484e+002
502500000 -1.314277e-001 -1.299534e+002 -6.092762e+001 -1.430599e+002 -6.119266e+001 -1.651864e+002 -1.128241e-001 1.386115e+002
503125000 -1.313044e-001 -1.302274e+002 -6.397223e+001 -1.796642e+002 -6.118018e+001 -1.710077e+002 -1.153378e-001 1.385226e+002
503750000 -1.310036e-001 -1.304507e+002 -6.140718e+001 -1.799245e+002 -6.147796e+001 -1.509952e+002 -1.165918e-001 1.384291e+002
504375000 -1.411348e-001 -1.307283e+002 -6.183759e+001 -1.678659e+002 -6.188732e+001 -1.638005e+002 -1.367235e-001 1.384372e+002
505000000 -1.498161e-001 -1.310524e+002 -6.236323e+001 -1.760024e+002 -6.192748e+001 -1.541813e+002 -1.282530e-001 1.383934e+002
505625000 -1.429459e-001 -1.313033e+002 -6.257761e+001 -1.599151e+002 -6.126756e+001 -1.714301e+002 -1.266189e-001 1.383303e+002
506250000 -1.491989e-001 -1.315887e+002 -6.345782e+001 -1.671489e+002 -6.231273e+001 -1.759052e+002 -1.324243e-001 1.382431e+002
506875000 -1.481539e-001 -1.318748e+002 -6.229807e+001 -1.694856e+002 -6.335881e+001 -1.737722e+002 -1.205696e-001 1.381877e+002
507500000 -1.495588e-001 -1.321401e+002 -6.250640e+001 -1.614889e+002 -6.261563e+001 1.750095e+002 -1.194337e-001 1.381240e+002
508125000 -1.555054e-001 -1.324978e+002 -6.037570e+001 -1.700148e+002 -6.048704e+001 -1.606410e+002 -1.223066e-001 1.380375e+002
508750000 -1.544722e-001 -1.327040e+002 -6.079400e+001 1.797761e+002 -6.081589e+001 -1.755618e+002 -1.190581e-001 1.380254e+002
509375000 -1.516282e-001 -1.330842e+002 -6.002336e+001 -1.772372e+002 -6.133837e+001 1.796445e+002 -1.115920e-001 1.379854e+002
510000000 -1.505369e-001 -1.334101e+002 -6.074687e+001 1.797663e+002 -6.017815e+001 -1.727794e+002 -1.255483e-001 1.379361e+002
510625000 -1.570561e-001 -1.336887e+002 -6.131158e+001 1.660224e+002 -6.015132e+001 1.698641e+002 -1.113464e-001 1.379403e+002
511250000 -1.559067e-001 -1.339548e+002 -6.172690e+001 -1.750857e+002 -6.291119e+001 1.700817e+002 -1.227857e-001 1.378297e+002
511875000 -1.510649e-001 -1.342994e+002 -6.054167e+001 1.787552e+002 -6.038936e+001 -1.750679e+002 -1.204211e-001 1.378144e+002
512500000 -1.557896e-001 -1.346177e+002 -5.991433e+001 1.793616e+002 -6.056519e+001 1.781651e+002 -1.204889e-001 1.377224e+002
513125000 -1.639434e-001 -1.348849e+002 -5.970951e+001 1.648573e+002 -6.150319e+001 1.752708e+002 -1.272869e-001 1.377509e+002
513750000 -1.615147e-001 -1.351576e+002 -6.227101e+001 1.448872e+002 -5.993851e+001 1.637981e+002 -1.347790e-001 1.376983e+002
514375000 -1.695876e-001 -1.355049e+002 -6.203038e+001 1.694515e+002 -6.334641e+001 1.787692e+002 -1.186760e-001 1.375445e+002
515000000 -1.668912e-001 -1.357829e+002 -5.967151e+001 -1.784244e+002 -6.030910e+001 1.728623e+002 -1.242673e-001 1.374936e+002
515625000 -1.720409e-001 -1.361222e+002 -6.243584e+001 1.583439e+002 -5.949636e+001 1.678136e+002 -1.269606e-001 1.374155e+002
516250000 -1.708480e-001 -1.364805e+002 -6.358998e+001 1.786526e+002 -6.006434e+001 1.678894e+002 -1.315860e-001 1.373074e+002
516875000 -1.855632e-001 -1.367295e+002 -6.092374e+001 1.676635e+002 -6.015026e+001 1.736202e+002 -1.335745e-001 1.372316e+002
517500000 -1.838826e-001 -1.370759e+002 -6.015073e+001 1.626083e+002 -5.866550e+001 1.700428e+002 -1.405757e-001 1.370946e+002
518125000 -1.840497e-001 -1.374335e+002 -6.083984e+001 1.721905e+002 -6.139809e+001 1.708780e+002 -1.370400e-001 1.369760e+002
518750000 -1.966511e-001 -1.377343e+002 -6.210485e+001 1.621148e+002 -6.003094e+001 1.620796e+002 -1.406769e-001 1.368971e+002
519375000 -2.026170e-001 -1.379809e+002 -5.854362e+001 1.605009e+002 -5.966302e+001 1.644986e+002 -1.317852e-001 1.367813e+002
520000000 -2.125258e-001 -1.383766e+002 -5.994042e+001 1.471380e+002 -6.054926e+001 1.617151e+002 -1.399172e-001 1.366213e+002
520625000 -2.054938e-001 -1.387142e+002 -6.165295e+001 1.659576e+002 -6.076392e+001 1.590856e+002 -1.337558e-001 1.364643e+002
521250000 -2.199576e-001 -1.389884e+002 -5.992754e+001 1.788501e+002 -5.994460e+001 1.600369e+002 -1.341662e-001 1.364103e+002
521875000 -2.181297e-001 -1.392920e+002 -5.933509e+001 1.617438e+002 -6.013149e+001 1.664822e+002 -1.297064e-001 1.363978e+002
522500000 -2.281172e-001 -1.396795e+002 -6.003408e+001 1.680052e+002 -5.896516e+001 1.594539e+002 -1.257693e-001 1.363113e+002
523125000 -2.353179e-001 -1.399863e+002 -6.115977e+001 1.679544e+002 -5.762178e+001 1.545751e+002 -1.238556e-001 1.362360e+002
523750000 -2.339407e-001 -1.402855e+002 -5.855753e+001 1.566181e+002 -5.780582e+001 1.628018e+002 -1.221852e-001 1.361939e+002
524375000 -2.540511e-001 -1.406108e+002 -5.804859e+001 1.621092e+002 -5.975880e+001 1.553828e+002 -1.154357e-001 1.361738e+002
525000000 -2.563679e-001 -1.409329e+002 -6.010371e+001 1.623940e+002 -5.997545e+001 1.440440e+002 -1.182914e-001 1.361640e+002
525625000 -2.654902e-001 -1.412386e+002 -5.892951e+001 1.488740e+002 -6.084343e+001 1.593035e+002 -1.196000e-001 1.361033e+002
526250000 -2.610565e-001 -1.415393e+002 -5.943347e+001 1.455289e+002 -5.955506e+001 1.530173e+002 -1.176197e-001 1.360717e+002
526875000 -2.680510e-001 -1.418802e+002 -5.574852e+001 1.674138e+002 -5.864233e+001 1.597765e+002 -1.121383e-001 1.361029e+002
527500000 -2.719352e-001 -1.422305e+002 -5.815085e+001 1.535901e+002 -5.856223e+001 1.607321e+002 -1.222374e-001 1.360729e+002
528125000 -2.942112e-001 -1.425453e+002 -5.678550e+001 1.532126e+002 -5.976515e+001 1.621826e+002 -1.197671e-001 1.361663e+002
528750000 -2.897940e-001 -1.429038e+002 -5.859564e+001 1.449855e+002 -5.858532e+001 1.432747e+002 -1.139196e-001 1.362068e+002
529375000 -2.948492e-001 -1.432296e+002 -5.791912e+001 1.597303e+002 -5.965422e+001 1.480070e+002 -1.129905e-001 1.361442e+002
530000000 -3.120922e-001 -1.436027e+002 -5.946260e+001 1.580963e+002 -5.802983e+001 1.460577e+002 -1.177875e-001 1.361628e+002
530625000 -3.183105e-001 -1.439030e+002 -5.853465e+001 1.438196e+002 -5.855577e+001 1.512689e+002 -1.234518e-001 1.360585e+002
531250000 -3.200707e-001 -1.442375e+002 -5.544418e+001 1.477140e+002 -5.835204e+001 1.556612e+002 -1.158337e-001 1.360225e+002
531875000 -3.354636e-001 -1.445533e+002 -5.725471e+001 1.455323e+002 -5.835582e+001 1.457268e+002 -1.265190e-001 1.359863e+002
532500000 -3.459249e-001 -1.448573e+002 -5.917529e+001 1.476247e+002 -5.757829e+001 1.471967e+002 -1.173072e-001 1.359871e+002
533125000 -3.524356e-001 -1.452278e+002 -5.806345e+001 1.391361e+002 -5.774641e+001 1.470821e+002 -1.401269e-001 1.359341e+002
533750000 -3.564143e-001 -1.456298e+002 -5.846853e+001 1.376606e+002 -5.836524e+001 1.387593e+002 -1.370570e-001 1.358559e+002
534375000 -3.591053e-001 -1.459468e+002 -5.879234e+001 1.399709e+002 -5.842288e+001 1.479322e+002 -1.249325e-001 1.357808e+002
535000000 -3.749538e-001 -1.462261e+002 -5.839596e+001 1.324438e+002 -5.751846e+001 1.312081e+002 -1.313970e-001 1.357733e+002
535625000 -3.805254e-001 -1.465872e+002 -5.872523e+001 1.427381e+002 -5.703277e+001 1.327754e+002 -1.351952e-001 1.356994e+002
536250000 -3.886064e-001 -1.469535e+002 -5.747279e+001 1.319825e+002 -5.805212e+001 1.413304e+002 -1.281291e-001 1.355517e+002
536875000 -3.908010e-001 -1.473066e+002 -5.709584e+001 1.351292e+002 -5.572773e+001 1.399732e+002 -1.364073e-001 1.355598e+002
537500000 -3.935612e-001 -1.476388e+002 -5.767717e+001 1.365798e+002 -5.671651e+001 1.368698e+002 -1.306599e-001 1.355460e+002
538125000 -4.036981e-001 -1.480253e+002 -5.762733e+001 1.433320e+002 -5.766590e+001 1.332467e+002 -1.288132e-001 1.354859e+002
538750000 -4.192581e-001 -1.484301e+002 -5.745745e+001 1.346004e+002 -5.648639e+001 1.278080e+002 -1.318335e-001 1.354691e+002
539375000 -4.233238e-001 -1.487328e+002 -5.708821e+001 1.362036e+002 -5.668777e+001 1.295681e+002 -1.247517e-001 1.354140e+002
540000000 -4.385466e-001 -1.490774e+002 -5.693957e+001 1.358901e+002 -5.740314e+001 1.289664e+002 -1.251246e-001 1.353331e+002
540625000 -4.460986e-001 -1.495383e+002 -5.665421e+001 1.358996e+002 -5.665704e+001 1.268512e+002 -1.251578e-001 1.353228e+002
541250000 -4.521325e-001 -1.498200e+002 -5.694514e+001 1.314404e+002 -5.687209e+001 1.267929e+002 -1.292906e-001 1.353214e+002
541875000 -4.637448e-001 -1.502041e+002 -5.755248e+001 1.354436e+002 -5.654656e+001 1.316290e+002 -1.327769e-001 1.352155e+002
542500000 -4.808224e-001 -1.505865e+002 -5.655971e+001 1.329195e+002 -5.826065e+001 1.283891e+002 -1.287679e-001 1.351856e+002
543125000 -4.819403e-001 -1.510045e+002 -5.704773e+001 1.221283e+002 -5.681446e+001 1.151506e+002 -1.249538e-001 1.350565e+002
543750000 -4.908182e-001 -1.513850e+002 -5.692506e+001 1.284707e+002 -5.742910e+001 1.187577e+002 -1.356208e-001 1.350836e+002
544375000 -5.166607e-001 -1.517819e+002 -5.729617e+001 1.288176e+002 -5.734917e+001 1.265871e+002 -1.376629e-001 1.350319e+002
545000000 -5.199422e-001 -1.521115e+002 -5.617176e+001 1.310229e+002 -5.593441e+001 1.251377e+002 -1.341135e-001 1.349637e+002
545625000 -5.276739e-001 -1.525148e+002 -5.639791e+001 1.250272e+002 -5.616293e+001 1.259305e+002 -1.325256e-001 1.348677e+002
546250000 -5.558594e-001 -1.529275e+002 -5.614883e+001 1.283264e+002 -5.664891e+001 1.237425e+002 -1.401269e-001 1.347589e+002
546875000 -5.614845e-001 -1.533677e+002 -5.586240e+001 1.260432e+002 -5.666827e+001 1.242476e+002 -1.450684e-001 1.346869e+002
547500000 -5.856208e-001 -1.537294e+002 -5.502185e+001 1.219689e+002 -5.600564e+001 1.196766e+002 -1.432354e-001 1.345916e+002
548125000 -6.024125e-001 -1.541200e+002 -5.462972e+001 1.234178e+002 -5.619623e+001 1.189449e+002 -1.384244e-001 1.344845e+002
548750000 -6.171634e-001 -1.545681e+002 -5.515840e+001 1.197301e+002 -5.558081e+001 1.131514e+002 -1.456859e-001 1.344059e+002
549375000 -6.455702e-001 -1.549452e+002 -5.606369e+001 1.130977e+002 -5.505980e+001 1.175146e+002 -1.428469e-001 1.341882e+002
550000000 -6.622955e-001 -1.553137e+002 -5.601130e+001 1.168630e+002 -5.453367e+001 1.148429e+002 -1.437577e-001 1.342209e+002
550625000 -6.863559e-001 -1.557117e+002 -5.437411e+001 1.197269e+002 -5.447110e+001 1.148414e+002 -1.419828e-001 1.340830e+002
551250000 -7.004558e-001 -1.560154e+002 -5.421639e+001 1.142622e+002 -5.411970e+001 1.107518e+002 -1.393211e-001 1.340321e+002
551875000 -7.209001e-001 -1.563844e+002 -5.455013e+001 1.176591e+002 -5.450968e+001 1.083082e+002 -1.346758e-001 1.339325e+002
552500000 -7.440971e-001 -1.567578e+002 -5.515070e+001 1.085517e+002 -5.461488e+001 1.051152e+002 -1.330058e-001 1.338358e+002
553125000 -7.584560e-001 -1.570868e+002 -5.452538e+001 1.139261e+002 -5.484976e+001 1.095863e+002 -1.341927e-001 1.338558e+002
553750000 -7.910547e-001 -1.574314e+002 -5.408346e+001 1.092366e+002 -5.388924e+001 1.057477e+002 -1.359123e-001 1.337169e+002
554375000 -8.077294e-001 -1.577516e+002 -5.526394e+001 1.078501e+002 -5.487779e+001 1.020801e+002 -1.335048e-001 1.336907e+002
555000000 -8.322299e-001 -1.581290e+002 -5.423625e+001 1.023921e+002 -5.437120e+001 1.059686e+002 -1.279712e-001 1.337399e+002
555625000 -8.570234e-001 -1.584327e+002 -5.433612e+001 1.145694e+002 -5.474760e+001 1.042451e+002 -1.183163e-001 1.337247e+002
556250000 -8.801820e-001 -1.587923e+002 -5.458313e+001 1.036740e+002 -5.406404e+001 1.001049e+002 -1.266607e-001 1.336902e+002
556875000 -9.066642e-001 -1.591197e+002 -5.375554e+001 1.044665e+002 -5.380586e+001 1.002131e+002 -1.350216e-001 1.336897e+002
557500000 -9.335922e-001 -1.593669e+002 -5.515304e+001 1.027691e+002 -5.444211e+001 9.645524e+001 -1.297791e-001 1.336451e+002
558125000 -9.492680e-001 -1.596766e+002 -5.388858e+001 9.445930e+001 -5.402063e+001 9.651807e+001 -1.355204e-001 1.336218e+002
558750000 -9.630206e-001 -1.599662e+002 -5.402081e+001 9.412880e+001 -5.433762e+001 9.988274e+001 -1.325853e-001 1.335910e+002
559375000 -9.896269e-001 -1.602807e+002 -5.483319e+001 1.001058e+002 -5.360719e+001 9.823541e+001 -1.306342e-001 1.335853e+002
560000000 -1.010724e+000 -1.605345e+002 -5.338459e+001 9.701642e+001 -5.448489e+001 9.447675e+001 -1.284980e-001 1.335272e+002
560625000 -1.025490e+000 -1.608809e+002 -5.348120e+001 9.919198e+001 -5.303671e+001 9.461961e+001 -1.273976e-001 1.335153e+002
561250000 -1.032313e+000 -1.612380e+002 -5.353041e+001 9.379470e+001 -5.262088e+001 9.405318e+001 -1.270487e-001 1.334352e+002
561875000 -1.058826e+000 -1.615680e+002 -5.353456e+001 9.439967e+001 -5.380680e+001 8.662743e+001 -1.438938e-001 1.333931e+002
562500000 -1.070931e+000 -1.618820e+002 -5.337474e+001 9.480983e+001 -5.283105e+001 9.007218e+001 -1.395396e-001 1.333892e+002
563125000 -1.082261e+000 -1.622049e+002 -5.273178e+001 8.687672e+001 -5.312947e+001 8.971883e+001 -1.299129e-001 1.333484e+002
563750000 -1.103243e+000 -1.625737e+002 -5.308059e+001 9.077161e+001 -5.316095e+001 8.697386e+001 -1.458316e-001 1.332533e+002
564375000 -1.123637e+000 -1.628911e+002 -5.255611e+001 8.673956e+001 -5.353922e+001 8.356654e+001 -1.437356e-001 1.331991e+002
565000000 -1.131588e+000 -1.632560e+002 -5.234665e+001 8.278106e+001 -5.220800e+001 8.173147e+001 -1.471502e-001 1.330966e+002
565625000 -1.148982e+000 -1.636248e+002 -5.279949e+001 7.905975e+001 -5.227669e+001 8.290842e+001 -1.487393e-001 1.330504e+002
566250000 -1.165463e+000 -1.639882e+002 -5.270378e+001 7.993521e+001 -5.256246e+001 8.573872e+001 -1.515952e-001 1.329517e+002
566875000 -1.190357e+000 -1.643568e+002 -5.282424e+001 7.605341e+001 -5.254512e+001 7.733100e+001 -1.460756e-001 1.327552e+002
567500000 -1.208334e+000 -1.647999e+002 -5.305876e+001 7.880497e+001 -5.258475e+001 7.597229e+001 -1.478691e-001 1.326589e+002
568125000 -1.232193e+000 -1.651590e+002 -5.297197e+001 7.931258e+001 -5.166114e+001 7.402394e+001 -1.537283e-001 1.325556e+002
568750000 -1.255553e+000 -1.655929e+002 -5.239816e+001 7.422234e+001 -5.284706e+001 6.885612e+001 -1.534876e-001 1.324256e+002
569375000 -1.282444e+000 -1.660029e+002 -5.254247e+001 7.646753e+001 -5.307866e+001 7.385902e+001 -1.550309e-001 1.322885e+002
570000000 -1.305215e+000 -1.664009e+002 -5.195747e+001 8.003126e+001 -5.221533e+001 7.780233e+001 -1.590514e-001 1.321272e+002
570625000 -1.337399e+000 -1.668209e+002 -5.160222e+001 8.109122e+001 -5.135606e+001 7.308364e+001 -1.558644e-001 1.320479e+002
571250000 -1.367305e+000 -1.672085e+002 -5.205225e+001 7.588997e+001 -5.212428e+001 7.799399e+001 -1.593673e-001 1.320184e+002
571875000 -1.407169e+000 -1.675546e+002 -5.144845e+001 7.264816e+001 -5.140168e+001 6.824839e+001 -1.397539e-001 1.318073e+002
572500000 -1.444179e+000 -1.679617e+002 -5.158636e+001 7.142510e+001 -5.193814e+001 6.897747e+001 -1.422898e-001 1.317299e+002
573125000 -1.484618e+000 -1.682551e+002 -5.142722e+001 6.905629e+001 -5.134726e+001 6.789418e+001 -1.314382e-001 1.316422e+002
573750000 -1.518929e+000 -1.685848e+002 -5.094931e+001 6.724973e+001 -5.150386e+001 6.409216e+001 -1.569476e-001 1.315362e+002
574375000 -1.556183e+000 -1.687740e+002 -5.089521e+001 6.309251e+001 -5.149383e+001 6.297396e+001 -1.371937e-001 1.315656e+002
575000000 -1.589870e+000 -1.690255e+002 -5.126232e+001 6.621692e+001 -5.140543e+001 6.516429e+001 -1.384827e-001 1.314550e+002
575625000 -1.604167e+000 -1.692872e+002 -5.088838e+001 6.498938e+001 -5.105515e+001 6.368300e+001 -1.465758e-001 1.313994e+002
576250000 -1.624207e+000 -1.695481e+002 -5.016571e+001 6.156030e+001 -5.113912e+001 5.890877e+001 -1.408252e-001 1.313629e+002
576875000 -1.647734e+000 -1.697891e+002 -5.044080e+001 6.083532e+001 -5.048016e+001 5.720781e+001 -1.318440e-001 1.313557e+002
577500000 -1.676954e+000 -1.700388e+002 -5.029978e+001 5.830464e+001 -5.069488e+001 5.849578e+001 -1.305823e-001 1.313082e+002
578125000 -1.700647e+000 -1.702779e+002 -5.061424e+001 5.753426e+001 -5.118748e+001 5.610510e+001 -1.238510e-001 1.313445e+002
578750000 -1.718808e+000 -1.705752e+002 -5.072242e+001 5.768092e+001 -5.072810e+001 5.409655e+001 -1.304602e-001 1.313163e+002
579375000 -1.735595e+000 -1.707484e+002 -5.081868e+001 5.298742e+001 -4.996096e+001 5.371981e+001 -1.217754e-001 1.313416e+002
580000000 -1.757050e+000 -1.709125e+002 -5.055624e+001 5.145322e+001 -4.996141e+001 5.028773e+001 -1.286183e-001 1.313533e+002
580625000 -1.770972e+000 -1.711662e+002 -5.086238e+001 4.970965e+001 -4.997455e+001 5.217025e+001 -1.140032e-001 1.313634e+002
581250000 -1.790544e+000 -1.713175e+002 -5.003306e+001 4.847061e+001 -5.020696e+001 4.877348e+001 -1.252214e-001 1.313962e+002
581875000 -1.789927e+000 -1.715598e+002 -5.022768e+001 4.717920e+001 -4.969788e+001 4.398011e+001 -1.323497e-001 1.313622e+002
582500000 -1.801692e+000 -1.718597e+002 -5.064487e+001 4.476305e+001 -4.988930e+001 4.223348e+001 -1.285610e-001 1.313578e+002
583125000 -1.793690e+000 -1.721454e+002 -5.000644e+001 4.581146e+001 -5.063110e+001 4.419902e+001 -1.513735e-001 1.312690e+002
583750000 -1.802687e+000 -1.724287e+002 -4.987754e+001 4.239158e+001 -5.021883e+001 3.939055e+001 -1.480252e-001 1.311828e+002
584375000 -1.808814e+000 -1.727100e+002 -5.010056e+001 4.013995e+001 -4.994153e+001 4.105990e+001 -1.397223e-001 1.311689e+002
585000000 -1.810706e+000 -1.730413e+002 -5.010122e+001 4.112195e+001 -5.009054e+001 3.928663e+001 -1.477050e-001 1.310979e+002
585625000 -1.824867e+000 -1.733418e+002 -5.054134e+001 4.128476e+001 -4.988265e+001 3.680381e+001 -1.467960e-001 1.310012e+002
586250000 -1.823129e+000 -1.737126e+002 -4.966093e+001 3.721715e+001 -4.909760e+001 3.491208e+001 -1.472258e-001 1.310014e+002
586875000 -1.826286e+000 -1.741441e+002 -4.987868e+001 3.710063e+001 -5.052978e+001 3.317376e+001 -1.506124e-001 1.308110e+002
587500000 -1.834213e+000 -1.745143e+002 -4.942698e+001 3.436246e+001 -4.941498e+001 3.241248e+001 -1.487659e-001 1.306904e+002
588125000 -1.841139e+000 -1.749136e+002 -4.962395e+001 3.826676e+001 -4.944516e+001 2.889274e+001 -1.571878e-001 1.305772e+002
588750000 -1.840725e+000 -1.753378e+002 -4.966231e+001 3.626566e+001 -4.961794e+001 3.472714e+001 -1.593408e-001 1.304859e+002
589375000 -1.847910e+000 -1.758073e+002 -4.956663e+001 3.078285e+001 -4.898930e+001 3.064601e+001 -1.503986e-001 1.303655e+002
590000000 -1.857270e+000 -1.762390e+002 -4.982409e+001 3.216423e+001 -4.916921e+001 2.730486e+001 -1.482629e-001 1.302728e+002
590625000 -1.870384e+000 -1.767222e+002 -4.922021e+001 3.016537e+001 -4.972681e+001 2.783465e+001 -1.483689e-001 1.301843e+002
591250000 -1.881351e+000 -1.772206e+002 -4.898312e+001 2.731426e+001 -4.916279e+001 2.943964e+001 -1.475386e-001 1.301116e+002
591875000 -1.907789e+000 -1.776867e+002 -4.923197e+001 2.611978e+001 -4.936947e+001 2.683251e+001 -1.448451e-001 1.301071e+002
592500000 -1.938600e+000 -1.781772e+002 -4.915970e+001 3.055801e+001 -5.034279e+001 2.261498e+001 -1.403123e-001 1.300539e+002
593125000 -1.973719e+000 -1.785858e+002 -4.951106e+001 2.529450e+001 -4.891434e+001 2.077401e+001 -1.423585e-001 1.300939e+002
593750000 -2.013562e+000 -1.789556e+002 -4.969299e+001 2.199194e+001 -4.935606e+001 2.186030e+001 -1.229866e-001 1.301193e+002
594375000 -2.037266e+000 -1.792975e+002 -4.855917e+001 2.036648e+001 -4.890205e+001 1.964532e+001 -1.219552e-001 1.301375e+002
595000000 -2.062732e+000 -1.796346e+002 -4.859298e+001 2.322256e+001 -4.899009e+001 2.193362e+001 -1.407634e-001 1.301669e+002
595625000 -2.087702e+000 -1.799589e+002 -4.864708e+001 1.877241e+001 -4.845898e+001 1.910538e+001 -1.220790e-001 1.301701e+002
