!Agilent Technologies,E8364B,US42250235,A.06.04.32
!Agilent E8364B: A.06.04.32
!Date: Friday, January 15, 2021 12:51:38
!Correction: S11(Full 2 Port(1,2)) S21(Full 2 Port(1,2)) S12(Full 2 Port(1,2)) S22(Full 2 Port(1,2)) 
!S2P File: Measurements: S11, S21, S12, S22:
# Hz S  dB   R 50
500000000 -1.084354e-001 -1.291486e+002 -5.964003e+001 7.847635e+001 -6.130929e+001 9.235136e+001 -1.503418e-001 1.382570e+002
500625000 -1.166459e-001 -1.293639e+002 -6.014321e+001 8.724283e+001 -6.144160e+001 7.359866e+001 -1.521574e-001 1.382646e+002
501250000 -1.226643e-001 -1.296707e+002 -6.268877e+001 8.263271e+001 -6.083672e+001 8.707469e+001 -1.464645e-001 1.381692e+002
501875000 -1.241925e-001 -1.299114e+002 -6.205211e+001 9.517728e+001 -6.075336e+001 8.378573e+001 -1.359172e-001 1.381376e+002
502500000 -1.215192e-001 -1.301822e+002 -6.096743e+001 7.668600e+001 -6.316236e+001 8.262305e+001 -1.365258e-001 1.381319e+002
503125000 -1.430371e-001 -1.304651e+002 -6.123859e+001 7.686044e+001 -5.951768e+001 7.283730e+001 -1.434867e-001 1.379693e+002
503750000 -1.430010e-001 -1.307119e+002 -5.909050e+001 7.911761e+001 -6.169472e+001 9.051416e+001 -1.446955e-001 1.379174e+002
504375000 -1.563202e-001 -1.310001e+002 -5.927641e+001 9.146483e+001 -5.982541e+001 6.604771e+001 -1.607511e-001 1.378929e+002
505000000 -1.601296e-001 -1.312780e+002 -6.212500e+001 5.692201e+001 -6.027229e+001 7.651565e+001 -1.565348e-001 1.377900e+002
505625000 -1.612541e-001 -1.315131e+002 -6.041283e+001 7.837623e+001 -6.183090e+001 6.054803e+001 -1.528417e-001 1.377718e+002
506250000 -1.684395e-001 -1.318222e+002 -5.992558e+001 6.617236e+001 -6.042563e+001 6.818156e+001 -1.544248e-001 1.376105e+002
506875000 -1.720767e-001 -1.320967e+002 -5.837660e+001 6.387229e+001 -6.085077e+001 5.601347e+001 -1.496608e-001 1.375374e+002
507500000 -1.811111e-001 -1.323666e+002 -6.105301e+001 8.534552e+001 -6.075202e+001 8.017301e+001 -1.468981e-001 1.374392e+002
508125000 -1.832087e-001 -1.326870e+002 -5.828882e+001 7.977287e+001 -6.147464e+001 6.378107e+001 -1.445953e-001 1.374088e+002
508750000 -1.886187e-001 -1.329055e+002 -5.924205e+001 5.474974e+001 -6.010851e+001 6.633703e+001 -1.433256e-001 1.373758e+002
509375000 -1.973856e-001 -1.332567e+002 -6.018931e+001 6.250740e+001 -5.999850e+001 6.356443e+001 -1.456139e-001 1.373033e+002
510000000 -1.957531e-001 -1.335590e+002 -5.933661e+001 6.144022e+001 -5.904839e+001 6.099624e+001 -1.479577e-001 1.372553e+002
510625000 -2.076587e-001 -1.337939e+002 -5.949273e+001 7.125060e+001 -6.076624e+001 4.863580e+001 -1.415550e-001 1.372744e+002
511250000 -2.101205e-001 -1.340527e+002 -5.934256e+001 7.102097e+001 -6.108087e+001 6.070678e+001 -1.459450e-001 1.371506e+002
511875000 -2.141772e-001 -1.344202e+002 -5.926234e+001 6.641996e+001 -6.038605e+001 5.358358e+001 -1.465357e-001 1.371091e+002
512500000 -2.142366e-001 -1.346657e+002 -5.854380e+001 5.186191e+001 -6.002492e+001 6.248907e+001 -1.514517e-001 1.370620e+002
513125000 -2.200735e-001 -1.349779e+002 -5.976207e+001 5.392738e+001 -5.903026e+001 5.552869e+001 -1.493185e-001 1.371152e+002
513750000 -2.274583e-001 -1.352997e+002 -6.086367e+001 6.971149e+001 -5.998791e+001 6.770428e+001 -1.602107e-001 1.369985e+002
514375000 -2.361153e-001 -1.356097e+002 -5.772476e+001 6.047664e+001 -5.926239e+001 4.373233e+001 -1.539289e-001 1.369165e+002
515000000 -2.362405e-001 -1.358712e+002 -5.833663e+001 5.265250e+001 -5.870168e+001 4.783763e+001 -1.486433e-001 1.368898e+002
515625000 -2.418087e-001 -1.362813e+002 -5.705816e+001 4.127919e+001 -5.735581e+001 5.248569e+001 -1.497721e-001 1.367915e+002
516250000 -2.485301e-001 -1.365920e+002 -5.939618e+001 5.826511e+001 -5.795398e+001 5.085841e+001 -1.613203e-001 1.366770e+002
516875000 -2.630638e-001 -1.368762e+002 -5.893639e+001 5.416485e+001 -5.844378e+001 4.542533e+001 -1.559085e-001 1.366363e+002
517500000 -2.645609e-001 -1.371991e+002 -5.757696e+001 5.586353e+001 -5.866946e+001 3.971164e+001 -1.594710e-001 1.365472e+002
518125000 -2.614107e-001 -1.375629e+002 -5.858119e+001 4.033333e+001 -5.896677e+001 5.213153e+001 -1.616254e-001 1.364203e+002
518750000 -2.782160e-001 -1.378223e+002 -5.648819e+001 3.858269e+001 -6.028652e+001 5.644416e+001 -1.656677e-001 1.363564e+002
519375000 -2.887526e-001 -1.380512e+002 -5.948980e+001 4.173484e+001 -5.869172e+001 4.470733e+001 -1.601536e-001 1.361912e+002
520000000 -3.002500e-001 -1.384336e+002 -5.735420e+001 4.328513e+001 -5.869840e+001 3.553644e+001 -1.649475e-001 1.361300e+002
520625000 -3.004510e-001 -1.387415e+002 -5.678632e+001 3.715035e+001 -5.651712e+001 3.297194e+001 -1.615969e-001 1.359816e+002
521250000 -3.158316e-001 -1.390196e+002 -5.815668e+001 4.609246e+001 -5.728450e+001 3.489715e+001 -1.558034e-001 1.359438e+002
521875000 -3.214299e-001 -1.393373e+002 -5.835053e+001 3.844761e+001 -5.852051e+001 3.694397e+001 -1.582647e-001 1.358750e+002
522500000 -3.231274e-001 -1.396460e+002 -5.833025e+001 4.359990e+001 -5.740487e+001 3.357829e+001 -1.585530e-001 1.357898e+002
523125000 -3.428925e-001 -1.399118e+002 -5.772827e+001 3.799837e+001 -5.745367e+001 2.826375e+001 -1.503590e-001 1.357038e+002
523750000 -3.392227e-001 -1.401698e+002 -5.755026e+001 2.951138e+001 -5.785595e+001 3.520518e+001 -1.457951e-001 1.356586e+002
524375000 -3.536388e-001 -1.404784e+002 -5.647166e+001 3.647602e+001 -5.810850e+001 3.644409e+001 -1.357211e-001 1.355954e+002
525000000 -3.574497e-001 -1.407761e+002 -5.722089e+001 3.498260e+001 -5.689003e+001 2.696341e+001 -1.435951e-001 1.356011e+002
525625000 -3.718901e-001 -1.409632e+002 -5.651800e+001 1.923848e+001 -5.647660e+001 2.263326e+001 -1.493971e-001 1.355495e+002
526250000 -3.693372e-001 -1.412802e+002 -5.721725e+001 2.378951e+001 -5.844442e+001 2.707148e+001 -1.456565e-001 1.355319e+002
526875000 -3.734488e-001 -1.415623e+002 -5.645186e+001 2.123409e+001 -5.716669e+001 2.237328e+001 -1.387211e-001 1.355397e+002
527500000 -3.758087e-001 -1.418746e+002 -5.610602e+001 2.893110e+001 -5.724456e+001 2.332487e+001 -1.453370e-001 1.354732e+002
528125000 -3.987953e-001 -1.421257e+002 -5.600672e+001 2.667235e+001 -5.689285e+001 1.704199e+001 -1.485878e-001 1.354721e+002
528750000 -3.836591e-001 -1.424273e+002 -5.690526e+001 6.690752e+000 -5.639029e+001 1.455686e+001 -1.405683e-001 1.355613e+002
529375000 -3.970846e-001 -1.427093e+002 -5.551654e+001 1.829202e+001 -5.729273e+001 8.318018e+000 -1.456761e-001 1.354393e+002
530000000 -3.937860e-001 -1.430704e+002 -5.679090e+001 1.930495e+001 -5.623354e+001 1.432767e+001 -1.482227e-001 1.354926e+002
530625000 -4.001514e-001 -1.433702e+002 -5.665218e+001 1.046256e+001 -5.729036e+001 1.287729e+001 -1.505051e-001 1.354241e+002
531250000 -4.074312e-001 -1.436736e+002 -5.667990e+001 4.316167e+000 -5.789383e+001 1.612596e+000 -1.442388e-001 1.353811e+002
531875000 -4.185770e-001 -1.439579e+002 -5.609253e+001 1.696991e+001 -5.648183e+001 1.386123e+001 -1.516207e-001 1.353508e+002
532500000 -4.158888e-001 -1.442276e+002 -5.640067e+001 -3.882805e-001 -5.638773e+001 -2.945132e+000 -1.518961e-001 1.353574e+002
533125000 -4.205794e-001 -1.445749e+002 -5.699159e+001 1.501693e+001 -5.690985e+001 8.702781e+000 -1.606174e-001 1.353278e+002
533750000 -4.293831e-001 -1.449441e+002 -5.580687e+001 1.047096e+001 -5.637007e+001 5.483867e+000 -1.695166e-001 1.352588e+002
534375000 -4.348346e-001 -1.452653e+002 -5.651287e+001 2.816509e+000 -5.716882e+001 5.382729e+000 -1.486658e-001 1.351915e+002
535000000 -4.373686e-001 -1.455265e+002 -5.654069e+001 8.686859e+000 -5.616105e+001 3.882540e+000 -1.535763e-001 1.351695e+002
535625000 -4.469313e-001 -1.458532e+002 -5.662691e+001 5.349712e+000 -5.523530e+001 3.502600e+000 -1.478639e-001 1.351109e+002
536250000 -4.535779e-001 -1.461967e+002 -5.574131e+001 4.019370e+000 -5.632779e+001 -3.841553e+000 -1.491665e-001 1.350328e+002
536875000 -4.602239e-001 -1.465282e+002 -5.525123e+001 -1.029489e+000 -5.586648e+001 -4.091646e+000 -1.554611e-001 1.349942e+002
537500000 -4.605800e-001 -1.468181e+002 -5.582477e+001 4.383525e+000 -5.650888e+001 -2.330853e+000 -1.480056e-001 1.349707e+002
538125000 -4.638170e-001 -1.471842e+002 -5.636513e+001 2.137226e+000 -5.572723e+001 -9.704408e+000 -1.574592e-001 1.349318e+002
538750000 -4.792881e-001 -1.475271e+002 -5.720862e+001 -1.691503e+000 -5.593399e+001 -5.291188e+000 -1.487708e-001 1.349323e+002
539375000 -4.880285e-001 -1.478567e+002 -5.473228e+001 -4.867248e+000 -5.517168e+001 -2.954569e+000 -1.491456e-001 1.348680e+002
540000000 -4.847939e-001 -1.482351e+002 -5.580106e+001 -7.673817e+000 -5.579721e+001 -6.498109e+000 -1.446545e-001 1.347824e+002
540625000 -4.942901e-001 -1.485699e+002 -5.545793e+001 -1.037274e+001 -5.434210e+001 -7.632077e+000 -1.545105e-001 1.348013e+002
541250000 -5.000939e-001 -1.488739e+002 -5.564043e+001 -1.344995e+001 -5.513227e+001 -9.430087e+000 -1.532353e-001 1.347196e+002
541875000 -5.095777e-001 -1.492418e+002 -5.418773e+001 -9.025840e+000 -5.548118e+001 -2.555745e+000 -1.545163e-001 1.346731e+002
542500000 -5.151801e-001 -1.495958e+002 -5.524739e+001 -1.152931e+001 -5.623652e+001 -9.208305e+000 -1.567661e-001 1.346741e+002
543125000 -5.163155e-001 -1.500026e+002 -5.549113e+001 -9.918946e+000 -5.610645e+001 -2.355106e+001 -1.519239e-001 1.345563e+002
543750000 -5.189983e-001 -1.503746e+002 -5.511250e+001 -1.173770e+001 -5.468328e+001 -1.688033e+001 -1.650090e-001 1.345577e+002
544375000 -5.418445e-001 -1.507256e+002 -5.496484e+001 -1.471332e+001 -5.562304e+001 -1.589684e+001 -1.527584e-001 1.344680e+002
545000000 -5.439066e-001 -1.510770e+002 -5.483963e+001 -2.530039e+001 -5.584903e+001 -1.674213e+001 -1.598299e-001 1.343607e+002
545625000 -5.558397e-001 -1.513953e+002 -5.505997e+001 -2.187016e+001 -5.480581e+001 -1.995431e+001 -1.642358e-001 1.343076e+002
546250000 -5.709449e-001 -1.517918e+002 -5.517162e+001 -2.237758e+001 -5.465120e+001 -2.391659e+001 -1.710299e-001 1.341391e+002
546875000 -5.763800e-001 -1.522270e+002 -5.439893e+001 -2.706418e+001 -5.482165e+001 -2.066070e+001 -1.726155e-001 1.341457e+002
547500000 -5.853114e-001 -1.525913e+002 -5.512817e+001 -2.680884e+001 -5.402925e+001 -2.557649e+001 -1.694097e-001 1.339902e+002
548125000 -6.005822e-001 -1.529229e+002 -5.458673e+001 -2.765903e+001 -5.408400e+001 -2.499827e+001 -1.754584e-001 1.338666e+002
548750000 -6.112357e-001 -1.533101e+002 -5.394333e+001 -3.080309e+001 -5.493410e+001 -2.832833e+001 -1.675835e-001 1.338150e+002
549375000 -6.247681e-001 -1.536718e+002 -5.501533e+001 -3.117430e+001 -5.414822e+001 -3.143638e+001 -1.729870e-001 1.336256e+002
550000000 -6.299657e-001 -1.539631e+002 -5.445621e+001 -2.597591e+001 -5.431631e+001 -2.924950e+001 -1.663259e-001 1.335971e+002
550625000 -6.493080e-001 -1.543257e+002 -5.446206e+001 -3.040431e+001 -5.411502e+001 -3.236306e+001 -1.701484e-001 1.334957e+002
551250000 -6.507988e-001 -1.546299e+002 -5.372437e+001 -3.130340e+001 -5.404187e+001 -4.112388e+001 -1.683739e-001 1.334107e+002
551875000 -6.544342e-001 -1.549465e+002 -5.437807e+001 -3.766427e+001 -5.377454e+001 -3.405244e+001 -1.554585e-001 1.333211e+002
552500000 -6.638858e-001 -1.553296e+002 -5.376186e+001 -3.188856e+001 -5.443376e+001 -3.988856e+001 -1.605111e-001 1.332633e+002
553125000 -6.587191e-001 -1.556190e+002 -5.444244e+001 -4.058372e+001 -5.419675e+001 -4.103331e+001 -1.575575e-001 1.332077e+002
553750000 -6.748788e-001 -1.560451e+002 -5.424209e+001 -4.320358e+001 -5.409810e+001 -3.626568e+001 -1.637968e-001 1.331382e+002
554375000 -6.779173e-001 -1.563863e+002 -5.466494e+001 -3.553186e+001 -5.333017e+001 -4.583789e+001 -1.523616e-001 1.331564e+002
555000000 -6.798979e-001 -1.567516e+002 -5.347265e+001 -4.452269e+001 -5.367694e+001 -3.878705e+001 -1.563345e-001 1.331136e+002
555625000 -6.975612e-001 -1.570548e+002 -5.369921e+001 -4.030074e+001 -5.382850e+001 -4.448758e+001 -1.474252e-001 1.331519e+002
556250000 -7.115205e-001 -1.574951e+002 -5.338864e+001 -4.549492e+001 -5.346286e+001 -4.243473e+001 -1.569254e-001 1.331008e+002
556875000 -7.106786e-001 -1.578849e+002 -5.398249e+001 -4.896515e+001 -5.428164e+001 -4.215997e+001 -1.576245e-001 1.330705e+002
557500000 -7.327690e-001 -1.582031e+002 -5.349364e+001 -4.723486e+001 -5.425745e+001 -4.711377e+001 -1.570168e-001 1.330519e+002
558125000 -7.404901e-001 -1.586170e+002 -5.334016e+001 -5.137321e+001 -5.453035e+001 -4.857602e+001 -1.597195e-001 1.330968e+002
558750000 -7.456820e-001 -1.589415e+002 -5.422961e+001 -4.936067e+001 -5.379822e+001 -4.995270e+001 -1.524215e-001 1.330075e+002
559375000 -7.662442e-001 -1.593902e+002 -5.325466e+001 -5.364806e+001 -5.384002e+001 -5.363924e+001 -1.530009e-001 1.330637e+002
560000000 -7.879410e-001 -1.597307e+002 -5.319688e+001 -5.710173e+001 -5.402196e+001 -5.025024e+001 -1.614313e-001 1.329705e+002
560625000 -7.874154e-001 -1.600884e+002 -5.280564e+001 -5.247160e+001 -5.348480e+001 -4.974981e+001 -1.483389e-001 1.329768e+002
561250000 -7.989366e-001 -1.604986e+002 -5.293963e+001 -5.561448e+001 -5.316835e+001 -5.627324e+001 -1.645175e-001 1.329262e+002
561875000 -8.153589e-001 -1.609171e+002 -5.341677e+001 -5.050816e+001 -5.281685e+001 -5.837386e+001 -1.666804e-001 1.328913e+002
562500000 -8.305230e-001 -1.612929e+002 -5.309712e+001 -5.499542e+001 -5.330153e+001 -5.496035e+001 -1.637677e-001 1.328830e+002
563125000 -8.338934e-001 -1.616709e+002 -5.268751e+001 -5.542995e+001 -5.371749e+001 -5.653668e+001 -1.603751e-001 1.327988e+002
563750000 -8.514246e-001 -1.620886e+002 -5.242137e+001 -6.478793e+001 -5.327279e+001 -6.299524e+001 -1.691413e-001 1.327014e+002
564375000 -8.738953e-001 -1.624411e+002 -5.242099e+001 -6.188962e+001 -5.330887e+001 -5.839782e+001 -1.645309e-001 1.326558e+002
565000000 -8.830405e-001 -1.629183e+002 -5.281995e+001 -6.432977e+001 -5.296269e+001 -6.169250e+001 -1.814518e-001 1.325190e+002
565625000 -8.943124e-001 -1.632879e+002 -5.322549e+001 -5.835152e+001 -5.238778e+001 -6.534515e+001 -1.743463e-001 1.324625e+002
566250000 -9.084098e-001 -1.638102e+002 -5.252751e+001 -6.534392e+001 -5.306744e+001 -6.335607e+001 -1.817427e-001 1.323192e+002
566875000 -9.325042e-001 -1.642760e+002 -5.405715e+001 -6.871807e+001 -5.306004e+001 -6.608496e+001 -1.779684e-001 1.321946e+002
567500000 -9.551026e-001 -1.646943e+002 -5.252537e+001 -6.846652e+001 -5.286417e+001 -6.440953e+001 -1.721552e-001 1.320131e+002
568125000 -9.796792e-001 -1.651041e+002 -5.305342e+001 -6.583925e+001 -5.238129e+001 -7.013429e+001 -1.796755e-001 1.319595e+002
568750000 -9.970794e-001 -1.656046e+002 -5.231830e+001 -6.954473e+001 -5.182922e+001 -7.092114e+001 -1.827656e-001 1.317893e+002
569375000 -1.021968e+000 -1.660091e+002 -5.241750e+001 -6.990947e+001 -5.240937e+001 -7.003649e+001 -1.741026e-001 1.317054e+002
570000000 -1.044502e+000 -1.664956e+002 -5.188028e+001 -7.255816e+001 -5.263763e+001 -7.384393e+001 -1.852733e-001 1.315145e+002
570625000 -1.060031e+000 -1.668895e+002 -5.169460e+001 -7.154728e+001 -5.147259e+001 -7.602302e+001 -1.758471e-001 1.314655e+002
571250000 -1.089258e+000 -1.673403e+002 -5.072906e+001 -7.534247e+001 -5.218426e+001 -7.412649e+001 -1.760895e-001 1.313592e+002
571875000 -1.124592e+000 -1.677318e+002 -5.088645e+001 -7.592304e+001 -5.150569e+001 -7.383215e+001 -1.676926e-001 1.311936e+002
572500000 -1.153204e+000 -1.682149e+002 -5.206429e+001 -7.679311e+001 -5.183506e+001 -7.872668e+001 -1.765512e-001 1.311251e+002
573125000 -1.184977e+000 -1.685674e+002 -5.120659e+001 -7.856969e+001 -5.063918e+001 -7.768156e+001 -1.615815e-001 1.310372e+002
573750000 -1.207741e+000 -1.689899e+002 -5.157729e+001 -8.183804e+001 -5.153844e+001 -8.081784e+001 -1.738710e-001 1.309269e+002
574375000 -1.234888e+000 -1.693180e+002 -5.077436e+001 -8.234990e+001 -5.107954e+001 -8.000393e+001 -1.652355e-001 1.309164e+002
575000000 -1.251697e+000 -1.697180e+002 -5.075355e+001 -8.444076e+001 -5.108960e+001 -8.482014e+001 -1.586901e-001 1.308340e+002
575625000 -1.278304e+000 -1.701035e+002 -5.086744e+001 -8.046483e+001 -5.061688e+001 -8.520319e+001 -1.687979e-001 1.308246e+002
576250000 -1.301165e+000 -1.704596e+002 -5.112924e+001 -8.882452e+001 -5.103011e+001 -8.913012e+001 -1.627592e-001 1.307538e+002
576875000 -1.321575e+000 -1.708553e+002 -5.040810e+001 -8.432722e+001 -5.084952e+001 -8.616600e+001 -1.594664e-001 1.308393e+002
577500000 -1.355341e+000 -1.712278e+002 -5.017523e+001 -8.892409e+001 -5.070768e+001 -8.715995e+001 -1.526684e-001 1.306987e+002
578125000 -1.380137e+000 -1.716608e+002 -5.019265e+001 -9.275657e+001 -5.015672e+001 -8.720512e+001 -1.483014e-001 1.307703e+002
578750000 -1.397629e+000 -1.719969e+002 -5.040631e+001 -9.009142e+001 -5.071206e+001 -9.509479e+001 -1.492928e-001 1.307926e+002
579375000 -1.421504e+000 -1.723535e+002 -5.085212e+001 -9.298988e+001 -5.051530e+001 -9.481889e+001 -1.533273e-001 1.307539e+002
580000000 -1.444398e+000 -1.727138e+002 -5.001652e+001 -9.646500e+001 -4.984993e+001 -9.655317e+001 -1.592997e-001 1.307974e+002
580625000 -1.470206e+000 -1.730667e+002 -4.994403e+001 -9.805502e+001 -5.016949e+001 -9.949416e+001 -1.473306e-001 1.308088e+002
581250000 -1.485680e+000 -1.734756e+002 -4.970141e+001 -9.681460e+001 -5.054770e+001 -9.592944e+001 -1.532402e-001 1.308260e+002
581875000 -1.511088e+000 -1.738802e+002 -5.088376e+001 -1.014241e+002 -4.965152e+001 -1.006267e+002 -1.585874e-001 1.308108e+002
582500000 -1.535970e+000 -1.742667e+002 -4.925121e+001 -9.700993e+001 -4.929832e+001 -9.837578e+001 -1.547571e-001 1.307431e+002
583125000 -1.561777e+000 -1.747902e+002 -5.021539e+001 -9.965144e+001 -5.002132e+001 -1.061036e+002 -1.658720e-001 1.306339e+002
583750000 -1.595994e+000 -1.752610e+002 -4.959856e+001 -1.043558e+002 -4.999263e+001 -1.068762e+002 -1.784182e-001 1.306293e+002
584375000 -1.632715e+000 -1.756731e+002 -4.994293e+001 -1.110405e+002 -5.006864e+001 -1.053375e+002 -1.678244e-001 1.305521e+002
585000000 -1.665731e+000 -1.761388e+002 -4.955179e+001 -1.114982e+002 -4.962085e+001 -1.087083e+002 -1.702410e-001 1.304918e+002
585625000 -1.714844e+000 -1.765225e+002 -4.974585e+001 -1.122978e+002 -4.960003e+001 -1.077962e+002 -1.761929e-001 1.303453e+002
586250000 -1.741718e+000 -1.769066e+002 -4.957243e+001 -1.122026e+002 -4.952559e+001 -1.162317e+002 -1.763197e-001 1.303285e+002
586875000 -1.779600e+000 -1.773261e+002 -4.982699e+001 -1.125673e+002 -4.933582e+001 -1.169536e+002 -1.785227e-001 1.301903e+002
587500000 -1.821493e+000 -1.776970e+002 -4.962873e+001 -1.104305e+002 -4.988519e+001 -1.160590e+002 -1.760823e-001 1.300654e+002
588125000 -1.854527e+000 -1.780074e+002 -4.973566e+001 -1.135499e+002 -4.956147e+001 -1.141448e+002 -1.776235e-001 1.299593e+002
588750000 -1.880373e+000 -1.784357e+002 -4.960182e+001 -1.167291e+002 -4.963069e+001 -1.182914e+002 -1.864170e-001 1.298409e+002
589375000 -1.901478e+000 -1.788489e+002 -4.917326e+001 -1.202066e+002 -4.929707e+001 -1.213811e+002 -1.732176e-001 1.296642e+002
590000000 -1.935847e+000 -1.792550e+002 -4.924826e+001 -1.224910e+002 -4.899474e+001 -1.191111e+002 -1.786523e-001 1.296662e+002
590625000 -1.970380e+000 -1.796983e+002 -4.918552e+001 -1.215577e+002 -4.881626e+001 -1.235894e+002 -1.725336e-001 1.295123e+002
591250000 -2.000900e+000 1.798560e+002 -4.948795e+001 -1.245437e+002 -4.973193e+001 -1.238380e+002 -1.695704e-001 1.295118e+002
591875000 -2.036773e+000 1.794391e+002 -4.901280e+001 -1.230058e+002 -4.924447e+001 -1.267442e+002 -1.702440e-001 1.294293e+002
592500000 -2.073613e+000 1.789984e+002 -4.856409e+001 -1.243208e+002 -4.851145e+001 -1.236615e+002 -1.627443e-001 1.294617e+002
593125000 -2.120228e+000 1.785623e+002 -4.861272e+001 -1.252252e+002 -4.874536e+001 -1.289828e+002 -1.607343e-001 1.294279e+002
593750000 -2.160425e+000 1.780719e+002 -4.873814e+001 -1.300015e+002 -4.853936e+001 -1.268418e+002 -1.500654e-001 1.294449e+002
594375000 -2.212022e+000 1.777385e+002 -4.869101e+001 -1.293882e+002 -4.846880e+001 -1.323437e+002 -1.446652e-001 1.295176e+002
595000000 -2.258884e+000 1.773369e+002 -4.833953e+001 -1.275691e+002 -4.830555e+001 -1.281418e+002 -1.573231e-001 1.295161e+002
