!Agilent Technologies,E8364B,US42250235,A.06.04.32
!Agilent E8364B: A.06.04.32
!Date: Friday, January 15, 2021 12:34:33
!Correction: S11(Full 2 Port(1,2)) S21(Full 2 Port(1,2)) S12(Full 2 Port(1,2)) S22(Full 2 Port(1,2)) 
!S2P File: Measurements: S11, S21, S12, S22:
# Hz S  dB   R 50
500000000 -1.057016e-001 -1.288422e+002 -6.103238e+001 -1.239518e+001 -6.369772e+001 -1.589711e+000 -1.829173e-001 1.385177e+002
500625000 -1.034415e-001 -1.290920e+002 -6.057144e+001 -2.078257e+001 -5.964685e+001 -2.638164e+001 -1.815560e-001 1.384569e+002
501250000 -1.092093e-001 -1.293186e+002 -5.994986e+001 -1.890485e+001 -6.063712e+001 -8.861142e+000 -1.814236e-001 1.383810e+002
501875000 -1.100556e-001 -1.296295e+002 -6.010350e+001 -1.190987e+001 -6.041317e+001 -1.526706e+001 -1.750769e-001 1.383472e+002
502500000 -1.029043e-001 -1.299210e+002 -6.055623e+001 -2.025247e+001 -6.360892e+001 -1.842854e+001 -1.738363e-001 1.383580e+002
503125000 -1.194646e-001 -1.301897e+002 -6.064708e+001 -2.007961e+001 -6.038935e+001 -1.284640e+001 -1.712950e-001 1.382473e+002
503750000 -1.146007e-001 -1.304645e+002 -6.272945e+001 -4.908215e+001 -6.090854e+001 -1.999296e+001 -1.760591e-001 1.381765e+002
504375000 -1.347374e-001 -1.307699e+002 -6.002497e+001 -8.958489e+000 -6.001946e+001 -1.360640e+001 -1.948600e-001 1.380978e+002
505000000 -1.297749e-001 -1.310477e+002 -5.970591e+001 -1.594088e+001 -5.953014e+001 -2.835336e+001 -1.927819e-001 1.380688e+002
505625000 -1.319779e-001 -1.313155e+002 -6.136996e+001 -2.574566e+001 -5.990500e+001 -2.876194e+001 -1.808280e-001 1.379789e+002
506250000 -1.342112e-001 -1.316238e+002 -6.094071e+001 -2.988512e+001 -6.112818e+001 -2.925986e+001 -1.855787e-001 1.379224e+002
506875000 -1.382849e-001 -1.319141e+002 -6.110795e+001 -1.986226e+001 -6.108118e+001 -1.396755e+001 -1.803813e-001 1.378060e+002
507500000 -1.431926e-001 -1.321573e+002 -5.891467e+001 -2.766740e+001 -5.901125e+001 -2.877670e+001 -1.791618e-001 1.377631e+002
508125000 -1.422685e-001 -1.325392e+002 -6.170163e+001 -2.671071e+001 -6.063297e+001 -3.438228e+001 -1.796017e-001 1.377009e+002
508750000 -1.401811e-001 -1.327465e+002 -6.101351e+001 -3.722523e+001 -5.878414e+001 -3.625095e+001 -1.858129e-001 1.376007e+002
509375000 -1.473543e-001 -1.331255e+002 -5.904879e+001 -3.991247e+001 -5.932871e+001 -3.934967e+001 -1.749392e-001 1.375855e+002
510000000 -1.430714e-001 -1.334604e+002 -5.910825e+001 -3.846268e+001 -6.152409e+001 -3.307141e+001 -1.923822e-001 1.374922e+002
510625000 -1.563079e-001 -1.336861e+002 -5.813624e+001 -4.068600e+001 -5.992712e+001 -3.600350e+001 -1.745837e-001 1.375374e+002
511250000 -1.526154e-001 -1.339843e+002 -5.909250e+001 -4.093704e+001 -5.867076e+001 -3.914764e+001 -1.787833e-001 1.374076e+002
511875000 -1.566701e-001 -1.343491e+002 -5.915585e+001 -2.608605e+001 -5.939624e+001 -3.439428e+001 -1.728335e-001 1.373864e+002
512500000 -1.600852e-001 -1.346069e+002 -5.899207e+001 -5.944344e+001 -5.927911e+001 -3.938367e+001 -1.851889e-001 1.373253e+002
513125000 -1.635924e-001 -1.349133e+002 -5.964336e+001 -5.427643e+001 -5.746516e+001 -3.781958e+001 -1.814129e-001 1.373771e+002
513750000 -1.716853e-001 -1.352296e+002 -5.790111e+001 -4.224281e+001 -5.849781e+001 -4.012231e+001 -1.854628e-001 1.373016e+002
514375000 -1.670942e-001 -1.355547e+002 -5.934143e+001 -4.707478e+001 -5.906651e+001 -4.702095e+001 -1.813771e-001 1.371799e+002
515000000 -1.686326e-001 -1.358107e+002 -5.786850e+001 -4.436901e+001 -5.998418e+001 -3.924187e+001 -1.807010e-001 1.370961e+002
515625000 -1.739443e-001 -1.362295e+002 -5.751029e+001 -4.751799e+001 -5.785931e+001 -4.440249e+001 -1.852463e-001 1.369782e+002
516250000 -1.765381e-001 -1.365446e+002 -5.877166e+001 -4.538194e+001 -6.119823e+001 -4.049438e+001 -1.920813e-001 1.369528e+002
516875000 -1.848776e-001 -1.368320e+002 -5.969897e+001 -4.364216e+001 -6.009396e+001 -5.638379e+001 -1.926951e-001 1.368794e+002
517500000 -1.817049e-001 -1.371338e+002 -5.920496e+001 -5.535400e+001 -5.820317e+001 -4.551397e+001 -1.946112e-001 1.367806e+002
518125000 -1.862002e-001 -1.374995e+002 -5.872265e+001 -4.885927e+001 -5.715538e+001 -4.989233e+001 -1.901399e-001 1.367091e+002
518750000 -1.941779e-001 -1.377794e+002 -5.871836e+001 -5.616115e+001 -5.890417e+001 -5.066971e+001 -1.972791e-001 1.365756e+002
519375000 -2.057815e-001 -1.381012e+002 -5.859746e+001 -5.669723e+001 -5.802995e+001 -5.698146e+001 -1.851702e-001 1.364990e+002
520000000 -2.043713e-001 -1.384707e+002 -5.868924e+001 -5.612251e+001 -5.832734e+001 -5.863284e+001 -1.950848e-001 1.363340e+002
520625000 -2.145749e-001 -1.388172e+002 -5.728203e+001 -6.433553e+001 -5.819798e+001 -5.968777e+001 -1.938427e-001 1.362301e+002
521250000 -2.249182e-001 -1.390993e+002 -5.862889e+001 -6.366847e+001 -5.924156e+001 -5.752432e+001 -1.937802e-001 1.361546e+002
521875000 -2.235641e-001 -1.394358e+002 -5.727121e+001 -7.134885e+001 -5.775105e+001 -6.134266e+001 -1.858775e-001 1.361093e+002
522500000 -2.299883e-001 -1.397312e+002 -5.904367e+001 -7.199779e+001 -5.740969e+001 -7.297797e+001 -1.849484e-001 1.359883e+002
523125000 -2.517376e-001 -1.400837e+002 -5.766592e+001 -7.124713e+001 -5.676224e+001 -6.484779e+001 -1.880510e-001 1.359223e+002
523750000 -2.492183e-001 -1.403983e+002 -5.668846e+001 -6.811864e+001 -5.700940e+001 -6.337548e+001 -1.788503e-001 1.358438e+002
524375000 -2.711918e-001 -1.407585e+002 -5.666583e+001 -6.303469e+001 -5.708815e+001 -6.708743e+001 -1.718642e-001 1.358381e+002
525000000 -2.715590e-001 -1.410641e+002 -5.736232e+001 -7.373341e+001 -5.733152e+001 -7.204785e+001 -1.744171e-001 1.358148e+002
525625000 -2.860129e-001 -1.413224e+002 -5.734748e+001 -7.283713e+001 -5.667043e+001 -7.620833e+001 -1.898127e-001 1.357484e+002
526250000 -2.901498e-001 -1.416383e+002 -5.840398e+001 -6.881857e+001 -5.785122e+001 -7.537945e+001 -1.729078e-001 1.357495e+002
526875000 -2.939274e-001 -1.420064e+002 -5.826711e+001 -6.694617e+001 -5.737330e+001 -7.158177e+001 -1.640120e-001 1.357499e+002
527500000 -3.049600e-001 -1.423192e+002 -5.527691e+001 -8.099358e+001 -5.713485e+001 -7.682700e+001 -1.837294e-001 1.357237e+002
528125000 -3.235444e-001 -1.426860e+002 -5.658519e+001 -7.917989e+001 -5.700845e+001 -7.212682e+001 -1.858237e-001 1.356735e+002
528750000 -3.205805e-001 -1.429869e+002 -5.685078e+001 -8.468760e+001 -5.658958e+001 -7.824595e+001 -1.781800e-001 1.358068e+002
529375000 -3.368173e-001 -1.433492e+002 -5.633231e+001 -8.718845e+001 -5.658940e+001 -7.906912e+001 -1.788082e-001 1.356761e+002
530000000 -3.427133e-001 -1.437125e+002 -5.617487e+001 -8.675053e+001 -5.687268e+001 -7.884341e+001 -1.816369e-001 1.356786e+002
530625000 -3.467078e-001 -1.440132e+002 -5.670414e+001 -8.458206e+001 -5.722544e+001 -8.538620e+001 -1.849815e-001 1.356082e+002
531250000 -3.562093e-001 -1.443865e+002 -5.655143e+001 -8.955675e+001 -5.643723e+001 -9.553881e+001 -1.781799e-001 1.356016e+002
531875000 -3.793164e-001 -1.446729e+002 -5.631014e+001 -8.487818e+001 -5.644595e+001 -8.273058e+001 -1.843270e-001 1.355777e+002
532500000 -3.790045e-001 -1.450023e+002 -5.550080e+001 -8.883257e+001 -5.552135e+001 -8.538525e+001 -1.881859e-001 1.355198e+002
533125000 -3.875572e-001 -1.453253e+002 -5.547269e+001 -9.289356e+001 -5.617274e+001 -9.418609e+001 -1.907653e-001 1.354776e+002
533750000 -3.946283e-001 -1.456910e+002 -5.712663e+001 -9.650552e+001 -5.610591e+001 -8.995090e+001 -2.033583e-001 1.354421e+002
534375000 -4.067129e-001 -1.460789e+002 -5.496265e+001 -9.405383e+001 -5.612163e+001 -9.574238e+001 -1.817072e-001 1.353569e+002
535000000 -4.153298e-001 -1.463778e+002 -5.649460e+001 -9.713762e+001 -5.610574e+001 -9.498001e+001 -1.920994e-001 1.353220e+002
535625000 -4.248407e-001 -1.467616e+002 -5.399869e+001 -9.386474e+001 -5.514330e+001 -9.224464e+001 -1.827560e-001 1.353078e+002
536250000 -4.382726e-001 -1.471261e+002 -5.573774e+001 -9.527328e+001 -5.504440e+001 -9.444119e+001 -1.776166e-001 1.351909e+002
536875000 -4.577260e-001 -1.474828e+002 -5.541381e+001 -9.284386e+001 -5.543643e+001 -1.007423e+002 -1.941739e-001 1.351441e+002
537500000 -4.643639e-001 -1.477686e+002 -5.577858e+001 -1.028413e+002 -5.471681e+001 -9.822898e+001 -1.878953e-001 1.351912e+002
538125000 -4.731228e-001 -1.480984e+002 -5.509265e+001 -1.003291e+002 -5.519859e+001 -9.801508e+001 -1.834815e-001 1.351611e+002
538750000 -4.911199e-001 -1.484993e+002 -5.481726e+001 -1.068085e+002 -5.528607e+001 -1.014704e+002 -1.831264e-001 1.351384e+002
539375000 -5.096878e-001 -1.488243e+002 -5.525293e+001 -1.123671e+002 -5.411110e+001 -1.059852e+002 -1.785026e-001 1.351008e+002
540000000 -5.192875e-001 -1.491346e+002 -5.488287e+001 -1.068874e+002 -5.564675e+001 -1.113053e+002 -1.828455e-001 1.349943e+002
540625000 -5.270320e-001 -1.495022e+002 -5.475175e+001 -1.016559e+002 -5.496437e+001 -1.048526e+002 -1.818159e-001 1.349983e+002
541250000 -5.356824e-001 -1.497961e+002 -5.475483e+001 -1.105744e+002 -5.478627e+001 -1.095401e+002 -1.745986e-001 1.349404e+002
541875000 -5.508195e-001 -1.501455e+002 -5.375818e+001 -1.095468e+002 -5.504531e+001 -1.072657e+002 -1.835440e-001 1.348926e+002
542500000 -5.615199e-001 -1.505248e+002 -5.381830e+001 -1.154780e+002 -5.461906e+001 -1.185849e+002 -1.874800e-001 1.348750e+002
543125000 -5.726004e-001 -1.509500e+002 -5.438543e+001 -1.167338e+002 -5.498827e+001 -1.142392e+002 -1.850832e-001 1.347549e+002
543750000 -5.893608e-001 -1.512984e+002 -5.338054e+001 -1.145450e+002 -5.423558e+001 -1.175972e+002 -1.924218e-001 1.347345e+002
544375000 -6.083132e-001 -1.516403e+002 -5.413521e+001 -1.148885e+002 -5.377752e+001 -1.180960e+002 -1.865880e-001 1.346425e+002
545000000 -6.254551e-001 -1.519871e+002 -5.391772e+001 -1.212591e+002 -5.383750e+001 -1.131635e+002 -1.932217e-001 1.346001e+002
545625000 -6.419806e-001 -1.523510e+002 -5.389965e+001 -1.195499e+002 -5.432375e+001 -1.158077e+002 -1.966389e-001 1.344820e+002
546250000 -6.634368e-001 -1.527024e+002 -5.304669e+001 -1.200609e+002 -5.277988e+001 -1.225264e+002 -1.968215e-001 1.344090e+002
546875000 -6.839622e-001 -1.531035e+002 -5.297234e+001 -1.265979e+002 -5.379974e+001 -1.213164e+002 -1.938587e-001 1.343057e+002
547500000 -7.018169e-001 -1.534131e+002 -5.283651e+001 -1.302659e+002 -5.344495e+001 -1.293992e+002 -1.997316e-001 1.342405e+002
548125000 -7.294509e-001 -1.537439e+002 -5.296214e+001 -1.245867e+002 -5.410728e+001 -1.242452e+002 -2.039037e-001 1.341039e+002
548750000 -7.515396e-001 -1.541494e+002 -5.351984e+001 -1.245639e+002 -5.307618e+001 -1.259937e+002 -2.038126e-001 1.340256e+002
549375000 -7.806598e-001 -1.544561e+002 -5.317429e+001 -1.332126e+002 -5.269317e+001 -1.326120e+002 -2.081394e-001 1.338474e+002
550000000 -7.925371e-001 -1.546927e+002 -5.207669e+001 -1.367902e+002 -5.206079e+001 -1.350976e+002 -2.063442e-001 1.338052e+002
550625000 -8.201185e-001 -1.549702e+002 -5.304914e+001 -1.347102e+002 -5.249981e+001 -1.344214e+002 -2.008522e-001 1.336909e+002
551250000 -8.323350e-001 -1.552386e+002 -5.199337e+001 -1.414553e+002 -5.237757e+001 -1.398972e+002 -1.989702e-001 1.336073e+002
551875000 -8.541389e-001 -1.554568e+002 -5.225070e+001 -1.426960e+002 -5.270401e+001 -1.418732e+002 -1.940159e-001 1.335438e+002
552500000 -8.563579e-001 -1.557934e+002 -5.267601e+001 -1.490660e+002 -5.235539e+001 -1.464852e+002 -1.891584e-001 1.335042e+002
553125000 -8.698362e-001 -1.560441e+002 -5.286958e+001 -1.473101e+002 -5.316568e+001 -1.419535e+002 -1.921398e-001 1.334589e+002
553750000 -8.887086e-001 -1.563285e+002 -5.264457e+001 -1.442832e+002 -5.167713e+001 -1.451580e+002 -1.899815e-001 1.333683e+002
554375000 -8.921391e-001 -1.566068e+002 -5.189902e+001 -1.481097e+002 -5.242981e+001 -1.502189e+002 -1.884957e-001 1.333602e+002
555000000 -9.113808e-001 -1.569376e+002 -5.166185e+001 -1.515496e+002 -5.158028e+001 -1.487780e+002 -1.921214e-001 1.333441e+002
555625000 -9.332359e-001 -1.571965e+002 -5.255124e+001 -1.519500e+002 -5.172579e+001 -1.553703e+002 -1.846505e-001 1.333849e+002
556250000 -9.456083e-001 -1.575201e+002 -5.180957e+001 -1.546073e+002 -5.188813e+001 -1.538779e+002 -1.796734e-001 1.333278e+002
556875000 -9.514410e-001 -1.578472e+002 -5.154169e+001 -1.586313e+002 -5.162619e+001 -1.568925e+002 -1.885011e-001 1.333402e+002
557500000 -9.748248e-001 -1.580545e+002 -5.164317e+001 -1.620903e+002 -5.172917e+001 -1.598503e+002 -1.894881e-001 1.332654e+002
558125000 -9.872911e-001 -1.583487e+002 -5.285086e+001 -1.588246e+002 -5.178502e+001 -1.578728e+002 -1.904305e-001 1.333228e+002
558750000 -9.905241e-001 -1.586198e+002 -5.258630e+001 -1.668459e+002 -5.221581e+001 -1.603536e+002 -1.868979e-001 1.332889e+002
559375000 -1.006968e+000 -1.589577e+002 -5.178827e+001 -1.653940e+002 -5.233313e+001 -1.646803e+002 -1.865344e-001 1.332515e+002
560000000 -1.016486e+000 -1.592509e+002 -5.179956e+001 -1.631919e+002 -5.233828e+001 -1.598629e+002 -1.874484e-001 1.331824e+002
560625000 -1.019730e+000 -1.595339e+002 -5.170446e+001 -1.639408e+002 -5.230739e+001 -1.642724e+002 -1.871628e-001 1.332026e+002
561250000 -1.035007e+000 -1.598551e+002 -5.152879e+001 -1.654366e+002 -5.144239e+001 -1.598734e+002 -1.831855e-001 1.331536e+002
561875000 -1.046953e+000 -1.601834e+002 -5.145798e+001 -1.685629e+002 -5.254987e+001 -1.671019e+002 -1.940753e-001 1.331286e+002
562500000 -1.061466e+000 -1.604906e+002 -5.198179e+001 -1.667745e+002 -5.144623e+001 -1.662175e+002 -1.955139e-001 1.330615e+002
563125000 -1.060038e+000 -1.607558e+002 -5.193604e+001 -1.683809e+002 -5.178292e+001 -1.729650e+002 -1.967033e-001 1.329744e+002
563750000 -1.074578e+000 -1.611090e+002 -5.162524e+001 -1.787042e+002 -5.148235e+001 -1.718572e+002 -2.076013e-001 1.329323e+002
564375000 -1.081610e+000 -1.614504e+002 -5.077268e+001 1.759940e+002 -5.168353e+001 -1.740219e+002 -2.063303e-001 1.328802e+002
565000000 -1.083814e+000 -1.618033e+002 -5.114029e+001 -1.760065e+002 -5.065889e+001 -1.753875e+002 -2.091565e-001 1.327141e+002
565625000 -1.093750e+000 -1.621374e+002 -5.030962e+001 1.797509e+002 -5.091909e+001 -1.780036e+002 -2.064918e-001 1.326303e+002
566250000 -1.101852e+000 -1.625519e+002 -5.094381e+001 1.772076e+002 -5.109871e+001 1.792735e+002 -2.140030e-001 1.325293e+002
566875000 -1.119664e+000 -1.629306e+002 -5.145863e+001 1.773992e+002 -5.051092e+001 -1.789070e+002 -2.169839e-001 1.323933e+002
567500000 -1.133666e+000 -1.633439e+002 -5.132959e+001 1.740613e+002 -5.074440e+001 1.791926e+002 -2.069254e-001 1.322808e+002
568125000 -1.152050e+000 -1.636667e+002 -5.046440e+001 1.724632e+002 -5.074443e+001 1.746559e+002 -2.218402e-001 1.321241e+002
568750000 -1.164188e+000 -1.640319e+002 -5.057618e+001 1.751997e+002 -5.078508e+001 1.704918e+002 -2.161054e-001 1.320091e+002
569375000 -1.180920e+000 -1.644183e+002 -5.109281e+001 1.732267e+002 -5.105288e+001 1.667542e+002 -2.192528e-001 1.318905e+002
570000000 -1.194243e+000 -1.648199e+002 -5.137734e+001 1.658420e+002 -5.101027e+001 1.710585e+002 -2.135108e-001 1.317590e+002
570625000 -1.203314e+000 -1.651585e+002 -5.103231e+001 1.654205e+002 -5.067395e+001 1.666144e+002 -2.131558e-001 1.316526e+002
571250000 -1.224105e+000 -1.655541e+002 -5.076612e+001 1.664557e+002 -5.023560e+001 1.670141e+002 -2.137608e-001 1.315392e+002
571875000 -1.255597e+000 -1.658688e+002 -4.979510e+001 1.640667e+002 -4.983065e+001 1.653729e+002 -2.024660e-001 1.314087e+002
572500000 -1.273319e+000 -1.662457e+002 -5.014701e+001 1.613524e+002 -5.036769e+001 1.609352e+002 -2.077421e-001 1.312894e+002
573125000 -1.292280e+000 -1.664988e+002 -5.028078e+001 1.636592e+002 -5.003094e+001 1.622688e+002 -1.994882e-001 1.312087e+002
573750000 -1.297276e+000 -1.667659e+002 -5.024318e+001 1.646006e+002 -5.030626e+001 1.591152e+002 -2.113152e-001 1.311346e+002
574375000 -1.307672e+000 -1.671115e+002 -5.014699e+001 1.576777e+002 -5.027828e+001 1.564187e+002 -1.950160e-001 1.310997e+002
575000000 -1.311689e+000 -1.674620e+002 -4.930254e+001 1.524171e+002 -4.969048e+001 1.550460e+002 -2.028870e-001 1.310493e+002
575625000 -1.315150e+000 -1.678000e+002 -4.988869e+001 1.548076e+002 -4.984323e+001 1.544913e+002 -1.986650e-001 1.309633e+002
576250000 -1.312162e+000 -1.681465e+002 -5.020485e+001 1.509209e+002 -5.014652e+001 1.502107e+002 -2.011088e-001 1.309857e+002
576875000 -1.317663e+000 -1.685009e+002 -4.991605e+001 1.471268e+002 -5.045017e+001 1.489253e+002 -1.909433e-001 1.309697e+002
577500000 -1.338639e+000 -1.688314e+002 -5.002047e+001 1.487785e+002 -4.948067e+001 1.506532e+002 -1.900665e-001 1.309420e+002
578125000 -1.342352e+000 -1.692380e+002 -4.935066e+001 1.484821e+002 -4.966849e+001 1.438867e+002 -1.886220e-001 1.309721e+002
578750000 -1.340078e+000 -1.695609e+002 -5.002214e+001 1.402388e+002 -5.028479e+001 1.453399e+002 -1.800884e-001 1.309625e+002
579375000 -1.343686e+000 -1.698980e+002 -5.010689e+001 1.396559e+002 -4.925692e+001 1.405385e+002 -1.821835e-001 1.309436e+002
580000000 -1.354237e+000 -1.702773e+002 -5.010502e+001 1.401603e+002 -4.983152e+001 1.388927e+002 -1.874442e-001 1.309417e+002
580625000 -1.351868e+000 -1.706983e+002 -4.971626e+001 1.399625e+002 -4.970031e+001 1.411643e+002 -1.807691e-001 1.310144e+002
581250000 -1.360165e+000 -1.711189e+002 -5.017145e+001 1.361376e+002 -4.982719e+001 1.412208e+002 -1.954541e-001 1.309834e+002
581875000 -1.362355e+000 -1.715554e+002 -5.033855e+001 1.369358e+002 -5.006012e+001 1.363745e+002 -1.893028e-001 1.309714e+002
582500000 -1.372881e+000 -1.719577e+002 -4.974045e+001 1.339503e+002 -4.997803e+001 1.346339e+002 -1.974560e-001 1.309860e+002
583125000 -1.372450e+000 -1.725045e+002 -5.010909e+001 1.312862e+002 -4.956386e+001 1.324378e+002 -1.968185e-001 1.309193e+002
583750000 -1.391881e+000 -1.729414e+002 -5.014175e+001 1.291265e+002 -5.021326e+001 1.313964e+002 -2.020013e-001 1.308441e+002
584375000 -1.399423e+000 -1.733919e+002 -5.017724e+001 1.293097e+002 -4.976832e+001 1.298765e+002 -2.020140e-001 1.307870e+002
585000000 -1.414817e+000 -1.738897e+002 -4.990551e+001 1.310993e+002 -4.984772e+001 1.322185e+002 -2.200591e-001 1.306972e+002
585625000 -1.440002e+000 -1.743711e+002 -5.030598e+001 1.278428e+002 -5.014367e+001 1.292572e+002 -2.135490e-001 1.305938e+002
586250000 -1.452896e+000 -1.748143e+002 -4.966386e+001 1.278521e+002 -5.017756e+001 1.242100e+002 -2.100624e-001 1.305799e+002
586875000 -1.463585e+000 -1.753403e+002 -4.979818e+001 1.259289e+002 -4.959510e+001 1.269223e+002 -2.161258e-001 1.304754e+002
587500000 -1.494068e+000 -1.757957e+002 -4.907832e+001 1.253343e+002 -4.927267e+001 1.267032e+002 -2.191964e-001 1.302893e+002
588125000 -1.501386e+000 -1.762540e+002 -4.895095e+001 1.206402e+002 -4.966857e+001 1.229462e+002 -2.180646e-001 1.301720e+002
588750000 -1.510721e+000 -1.767188e+002 -4.911546e+001 1.216559e+002 -4.997615e+001 1.244008e+002 -2.164281e-001 1.300352e+002
589375000 -1.529513e+000 -1.772507e+002 -4.969138e+001 1.131374e+002 -4.943005e+001 1.195541e+002 -2.115764e-001 1.298961e+002
590000000 -1.555440e+000 -1.778033e+002 -5.029608e+001 1.150320e+002 -4.921471e+001 1.170900e+002 -2.161701e-001 1.298202e+002
590625000 -1.574372e+000 -1.782943e+002 -4.976362e+001 1.179024e+002 -4.928968e+001 1.185275e+002 -2.081532e-001 1.296942e+002
591250000 -1.605005e+000 -1.788603e+002 -4.975648e+001 1.146542e+002 -4.961049e+001 1.193434e+002 -2.163929e-001 1.296608e+002
591875000 -1.629398e+000 -1.793525e+002 -4.959290e+001 1.143040e+002 -4.975002e+001 1.163491e+002 -2.020942e-001 1.296262e+002
592500000 -1.659808e+000 -1.799622e+002 -4.994535e+001 1.148598e+002 -4.912108e+001 1.161285e+002 -2.051374e-001 1.296358e+002
593125000 -1.692538e+000 1.795996e+002 -4.867309e+001 1.132627e+002 -4.884986e+001 1.176825e+002 -2.028465e-001 1.296356e+002
593750000 -1.726864e+000 1.790484e+002 -4.922578e+001 1.121960e+002 -4.903509e+001 1.127337e+002 -1.907435e-001 1.296979e+002
594375000 -1.756348e+000 1.785686e+002 -4.881612e+001 1.111919e+002 -4.908937e+001 1.128589e+002 -1.911108e-001 1.296677e+002
595000000 -1.792248e+000 1.781137e+002 -4.846085e+001 1.061438e+002 -4.853135e+001 1.091419e+002 -1.960112e-001 1.297131e+002
