!Agilent Technologies,E8364B,US42250235,A.06.04.32
!Agilent E8364B: A.06.04.32
!Date: Friday, January 15, 2021 12:02:38
!Correction: S11(Full 2 Port(1,2)) S21(Full 2 Port(1,2)) S12(Full 2 Port(1,2)) S22(Full 2 Port(1,2)) 
!S2P File: Measurements: S11, S21, S12, S22:
# Hz S  dB   R 50
500000000 -1.746320e-001 -1.292302e+002 -5.630269e+001 5.076506e+001 -5.503490e+001 5.115161e+001 -1.180536e-001 1.386344e+002
500625000 -1.787996e-001 -1.295055e+002 -5.559872e+001 4.389720e+001 -5.578388e+001 4.598958e+001 -1.267481e-001 1.387038e+002
501250000 -1.885391e-001 -1.297050e+002 -5.480155e+001 4.253695e+001 -5.481864e+001 4.360537e+001 -1.128843e-001 1.386826e+002
501875000 -1.869355e-001 -1.300265e+002 -5.627944e+001 4.194503e+001 -5.475416e+001 4.360413e+001 -1.186185e-001 1.386301e+002
502500000 -1.910653e-001 -1.302778e+002 -5.596748e+001 4.083704e+001 -5.493058e+001 4.416899e+001 -1.107846e-001 1.386920e+002
503125000 -1.996706e-001 -1.305694e+002 -5.599432e+001 4.089879e+001 -5.474776e+001 4.564730e+001 -1.172172e-001 1.385710e+002
503750000 -2.050977e-001 -1.307670e+002 -5.537571e+001 3.874876e+001 -5.568401e+001 4.233677e+001 -1.234383e-001 1.385635e+002
504375000 -2.156051e-001 -1.310660e+002 -5.506816e+001 3.174430e+001 -5.432046e+001 4.169149e+001 -1.320213e-001 1.385198e+002
505000000 -2.214270e-001 -1.313592e+002 -5.454608e+001 4.078304e+001 -5.399243e+001 3.759624e+001 -1.341881e-001 1.385103e+002
505625000 -2.210797e-001 -1.316096e+002 -5.453608e+001 3.072153e+001 -5.489074e+001 3.054638e+001 -1.310431e-001 1.383447e+002
506250000 -2.331014e-001 -1.319407e+002 -5.452251e+001 3.163800e+001 -5.492474e+001 3.215641e+001 -1.434560e-001 1.382734e+002
506875000 -2.379014e-001 -1.321853e+002 -5.363005e+001 3.311016e+001 -5.496882e+001 3.979187e+001 -1.413116e-001 1.381969e+002
507500000 -2.417089e-001 -1.324639e+002 -5.435143e+001 2.846765e+001 -5.436481e+001 2.812426e+001 -1.371824e-001 1.380732e+002
508125000 -2.488256e-001 -1.327331e+002 -5.386000e+001 3.039265e+001 -5.445739e+001 3.686271e+001 -1.416945e-001 1.379814e+002
508750000 -2.520041e-001 -1.329273e+002 -5.410475e+001 2.634684e+001 -5.421568e+001 3.694468e+001 -1.397554e-001 1.379085e+002
509375000 -2.614075e-001 -1.332760e+002 -5.425996e+001 2.825502e+001 -5.381773e+001 3.120011e+001 -1.339039e-001 1.378500e+002
510000000 -2.616509e-001 -1.335388e+002 -5.387556e+001 2.972977e+001 -5.378030e+001 3.599484e+001 -1.454802e-001 1.377533e+002
510625000 -2.693104e-001 -1.337631e+002 -5.285821e+001 2.555660e+001 -5.384527e+001 2.734794e+001 -1.275290e-001 1.377237e+002
511250000 -2.798048e-001 -1.340348e+002 -5.373676e+001 2.162218e+001 -5.416185e+001 2.603305e+001 -1.384067e-001 1.375488e+002
511875000 -2.796327e-001 -1.343549e+002 -5.317426e+001 2.235955e+001 -5.383512e+001 2.885437e+001 -1.269750e-001 1.374973e+002
512500000 -2.721669e-001 -1.346024e+002 -5.391383e+001 2.774947e+001 -5.321197e+001 2.484757e+001 -1.297441e-001 1.374426e+002
513125000 -2.903462e-001 -1.348808e+002 -5.326836e+001 2.080742e+001 -5.254179e+001 2.702278e+001 -1.331931e-001 1.373984e+002
513750000 -2.942608e-001 -1.351554e+002 -5.326792e+001 2.198351e+001 -5.413704e+001 2.133580e+001 -1.319363e-001 1.373542e+002
514375000 -2.955655e-001 -1.354225e+002 -5.317938e+001 1.935447e+001 -5.303131e+001 2.471714e+001 -1.344602e-001 1.372729e+002
515000000 -2.997513e-001 -1.356595e+002 -5.302140e+001 1.286912e+001 -5.358016e+001 2.314313e+001 -1.300393e-001 1.372673e+002
515625000 -3.084903e-001 -1.359715e+002 -5.381936e+001 1.590494e+001 -5.385036e+001 1.958463e+001 -1.250744e-001 1.371401e+002
516250000 -3.048218e-001 -1.362209e+002 -5.316893e+001 1.297425e+001 -5.319610e+001 1.923463e+001 -1.329473e-001 1.370716e+002
516875000 -3.276132e-001 -1.365099e+002 -5.413837e+001 1.600723e+001 -5.280674e+001 1.666667e+001 -1.259677e-001 1.371233e+002
517500000 -3.265788e-001 -1.367638e+002 -5.326729e+001 1.399208e+001 -5.296545e+001 1.210065e+001 -1.387481e-001 1.369829e+002
518125000 -3.211617e-001 -1.370839e+002 -5.221324e+001 1.353945e+001 -5.233920e+001 1.938484e+001 -1.382032e-001 1.369275e+002
518750000 -3.382558e-001 -1.373666e+002 -5.322662e+001 1.205594e+001 -5.230931e+001 1.053044e+001 -1.423388e-001 1.369283e+002
519375000 -3.438531e-001 -1.375793e+002 -5.281902e+001 1.564292e+001 -5.264069e+001 1.054411e+001 -1.301878e-001 1.367534e+002
520000000 -3.419482e-001 -1.378632e+002 -5.393666e+001 4.947041e+000 -5.245864e+001 1.162425e+001 -1.401161e-001 1.366902e+002
520625000 -3.471686e-001 -1.381590e+002 -5.328778e+001 1.165220e+001 -5.279979e+001 1.378037e+001 -1.352046e-001 1.366042e+002
521250000 -3.536559e-001 -1.384611e+002 -5.267103e+001 6.403978e+000 -5.275230e+001 1.188820e+001 -1.336037e-001 1.365340e+002
521875000 -3.565839e-001 -1.387432e+002 -5.296963e+001 1.280175e+001 -5.337891e+001 8.930958e+000 -1.317854e-001 1.364921e+002
522500000 -3.552421e-001 -1.390494e+002 -5.196749e+001 5.537309e+000 -5.196401e+001 3.618492e+000 -1.342060e-001 1.363723e+002
523125000 -3.642595e-001 -1.393475e+002 -5.282065e+001 5.308785e+000 -5.244942e+001 4.478041e+000 -1.364238e-001 1.363461e+002
523750000 -3.596309e-001 -1.396421e+002 -5.259336e+001 7.867070e+000 -5.223872e+001 3.694634e+000 -1.365307e-001 1.362408e+002
524375000 -3.771269e-001 -1.399715e+002 -5.218325e+001 -2.923182e+000 -5.238786e+001 5.171135e+000 -1.296082e-001 1.361766e+002
525000000 -3.708539e-001 -1.402853e+002 -5.165730e+001 2.683179e+000 -5.210239e+001 6.817951e+000 -1.337903e-001 1.361242e+002
525625000 -3.855387e-001 -1.405280e+002 -5.218318e+001 -1.144248e+000 -5.193880e+001 -3.448075e+000 -1.363272e-001 1.360144e+002
526250000 -3.850730e-001 -1.408288e+002 -5.198104e+001 -4.863922e-002 -5.213536e+001 5.902831e-002 -1.246249e-001 1.359737e+002
526875000 -3.894596e-001 -1.411519e+002 -5.205727e+001 -3.560010e+000 -5.151707e+001 -1.045287e+000 -1.185869e-001 1.359296e+002
527500000 -3.968724e-001 -1.414192e+002 -5.251538e+001 2.929960e-001 -5.193359e+001 -3.494468e+000 -1.282060e-001 1.359168e+002
528125000 -4.169417e-001 -1.417218e+002 -5.269680e+001 -7.275749e+000 -5.141621e+001 -6.626950e+000 -1.244497e-001 1.358582e+002
528750000 -4.044367e-001 -1.419946e+002 -5.215623e+001 -1.304354e+001 -5.181408e+001 -7.945483e+000 -1.296373e-001 1.359635e+002
529375000 -4.087447e-001 -1.422771e+002 -5.221924e+001 -9.113136e+000 -5.215094e+001 -4.470632e+000 -1.287653e-001 1.358170e+002
530000000 -4.250846e-001 -1.426509e+002 -5.227919e+001 -1.022396e+001 -5.257677e+001 -6.392666e+000 -1.278977e-001 1.358467e+002
530625000 -4.273407e-001 -1.429484e+002 -5.176122e+001 -4.982648e+000 -5.175709e+001 -8.283598e+000 -1.305719e-001 1.358313e+002
531250000 -4.292016e-001 -1.432398e+002 -5.132054e+001 -1.066973e+001 -5.202436e+001 -8.478804e+000 -1.238498e-001 1.357671e+002
531875000 -4.330835e-001 -1.434843e+002 -5.324235e+001 -1.521750e+001 -5.201693e+001 -1.179874e+001 -1.197122e-001 1.357160e+002
532500000 -4.415505e-001 -1.437220e+002 -5.189625e+001 -8.271818e+000 -5.174149e+001 -1.200268e+001 -1.191921e-001 1.357700e+002
533125000 -4.368476e-001 -1.440469e+002 -5.194431e+001 -1.785634e+001 -5.149817e+001 -1.417224e+001 -1.244035e-001 1.357406e+002
533750000 -4.346229e-001 -1.443598e+002 -5.180347e+001 -1.481893e+001 -5.168313e+001 -1.391229e+001 -1.460464e-001 1.356852e+002
534375000 -4.364511e-001 -1.446684e+002 -5.217044e+001 -1.646784e+001 -5.149493e+001 -1.787743e+001 -1.214166e-001 1.356672e+002
535000000 -4.444132e-001 -1.449571e+002 -5.169474e+001 -2.120430e+001 -5.221011e+001 -1.528993e+001 -1.346035e-001 1.356844e+002
535625000 -4.449011e-001 -1.452718e+002 -5.174878e+001 -1.986414e+001 -5.170362e+001 -2.347071e+001 -1.247857e-001 1.356725e+002
536250000 -4.361839e-001 -1.455808e+002 -5.229431e+001 -1.613481e+001 -5.147148e+001 -2.080433e+001 -1.264637e-001 1.355565e+002
536875000 -4.476469e-001 -1.459492e+002 -5.136422e+001 -1.780941e+001 -5.171372e+001 -1.766377e+001 -1.247625e-001 1.356234e+002
537500000 -4.454257e-001 -1.462522e+002 -5.241371e+001 -1.824578e+001 -5.153526e+001 -1.825445e+001 -1.274369e-001 1.356313e+002
538125000 -4.518816e-001 -1.465666e+002 -5.109569e+001 -1.982023e+001 -5.176194e+001 -1.653177e+001 -1.339678e-001 1.356168e+002
538750000 -4.646114e-001 -1.468968e+002 -5.212686e+001 -1.818090e+001 -5.133055e+001 -2.255091e+001 -1.373691e-001 1.355325e+002
539375000 -4.758770e-001 -1.472322e+002 -5.177661e+001 -2.488249e+001 -5.185011e+001 -2.231447e+001 -1.321132e-001 1.354994e+002
540000000 -4.717484e-001 -1.475405e+002 -5.090975e+001 -2.109036e+001 -5.217657e+001 -1.892817e+001 -1.380741e-001 1.353897e+002
540625000 -4.793945e-001 -1.479204e+002 -5.162133e+001 -1.832714e+001 -5.124866e+001 -2.152245e+001 -1.386414e-001 1.353403e+002
541250000 -4.874771e-001 -1.481801e+002 -5.099458e+001 -2.316117e+001 -5.134151e+001 -2.589405e+001 -1.408433e-001 1.352882e+002
541875000 -4.836159e-001 -1.484915e+002 -5.168723e+001 -2.273128e+001 -5.117177e+001 -2.955733e+001 -1.473005e-001 1.351983e+002
542500000 -4.900231e-001 -1.488237e+002 -5.198180e+001 -2.396110e+001 -5.056125e+001 -2.990292e+001 -1.370577e-001 1.351360e+002
543125000 -4.907403e-001 -1.491794e+002 -5.125468e+001 -2.546302e+001 -5.090658e+001 -2.877111e+001 -1.382237e-001 1.349966e+002
543750000 -5.013151e-001 -1.495398e+002 -5.223053e+001 -2.821784e+001 -5.088100e+001 -2.144768e+001 -1.521675e-001 1.349344e+002
544375000 -5.060742e-001 -1.498730e+002 -5.125236e+001 -2.583420e+001 -5.097498e+001 -3.017758e+001 -1.486033e-001 1.347787e+002
545000000 -5.021896e-001 -1.502130e+002 -5.115907e+001 -2.845812e+001 -5.121060e+001 -2.683073e+001 -1.526481e-001 1.346927e+002
545625000 -5.161007e-001 -1.505403e+002 -5.157555e+001 -3.819771e+001 -5.144333e+001 -2.941597e+001 -1.479923e-001 1.346306e+002
546250000 -5.194179e-001 -1.509145e+002 -5.166853e+001 -2.856160e+001 -5.121156e+001 -3.090796e+001 -1.508255e-001 1.344358e+002
546875000 -5.257121e-001 -1.513291e+002 -5.110251e+001 -3.046205e+001 -5.096538e+001 -3.130587e+001 -1.447037e-001 1.343785e+002
547500000 -5.363041e-001 -1.516323e+002 -5.185561e+001 -3.492165e+001 -5.086120e+001 -3.480251e+001 -1.489039e-001 1.343020e+002
548125000 -5.455855e-001 -1.520113e+002 -5.140011e+001 -3.569289e+001 -5.096111e+001 -3.145309e+001 -1.477126e-001 1.341676e+002
548750000 -5.405565e-001 -1.523951e+002 -5.107453e+001 -3.443265e+001 -5.081832e+001 -3.195448e+001 -1.453068e-001 1.341095e+002
549375000 -5.538092e-001 -1.527229e+002 -5.073510e+001 -3.330146e+001 -5.087456e+001 -3.613741e+001 -1.445541e-001 1.339321e+002
550000000 -5.508763e-001 -1.530918e+002 -5.031025e+001 -3.683475e+001 -5.093404e+001 -3.362251e+001 -1.417091e-001 1.339952e+002
550625000 -5.608173e-001 -1.535080e+002 -5.053133e+001 -3.940776e+001 -5.022705e+001 -3.584501e+001 -1.442153e-001 1.338853e+002
551250000 -5.623506e-001 -1.538444e+002 -5.048050e+001 -3.916006e+001 -4.997571e+001 -3.638426e+001 -1.378251e-001 1.339277e+002
551875000 -5.618902e-001 -1.542053e+002 -5.039078e+001 -4.061646e+001 -5.018838e+001 -3.747441e+001 -1.345067e-001 1.338420e+002
552500000 -5.704572e-001 -1.546010e+002 -5.054565e+001 -4.037789e+001 -4.993704e+001 -3.935027e+001 -1.215854e-001 1.338725e+002
553125000 -5.731758e-001 -1.548898e+002 -5.026759e+001 -3.978086e+001 -4.952588e+001 -4.113070e+001 -1.341645e-001 1.338223e+002
553750000 -5.842847e-001 -1.552566e+002 -4.983245e+001 -4.285685e+001 -4.998860e+001 -4.081703e+001 -1.341846e-001 1.337456e+002
554375000 -5.842000e-001 -1.555751e+002 -5.043640e+001 -4.187248e+001 -5.028245e+001 -4.558714e+001 -1.300489e-001 1.337697e+002
555000000 -5.852364e-001 -1.560186e+002 -5.089418e+001 -4.496050e+001 -4.985724e+001 -4.433999e+001 -1.298525e-001 1.337918e+002
555625000 -5.951945e-001 -1.563070e+002 -5.048691e+001 -4.587811e+001 -5.024621e+001 -4.407569e+001 -1.289586e-001 1.338566e+002
556250000 -5.993618e-001 -1.567189e+002 -5.012869e+001 -4.796207e+001 -4.985524e+001 -4.881353e+001 -1.359819e-001 1.336864e+002
556875000 -5.976025e-001 -1.571306e+002 -4.988250e+001 -4.771406e+001 -4.977817e+001 -4.501833e+001 -1.462806e-001 1.337434e+002
557500000 -6.149228e-001 -1.574499e+002 -4.926790e+001 -4.765217e+001 -4.976031e+001 -4.657553e+001 -1.424268e-001 1.336826e+002
558125000 -6.195505e-001 -1.578262e+002 -4.979407e+001 -4.697030e+001 -4.911245e+001 -4.561894e+001 -1.518892e-001 1.336318e+002
558750000 -6.218793e-001 -1.581845e+002 -4.969671e+001 -4.691431e+001 -4.998511e+001 -4.620115e+001 -1.461900e-001 1.335624e+002
559375000 -6.281683e-001 -1.585858e+002 -4.913913e+001 -4.890128e+001 -4.955914e+001 -4.857445e+001 -1.444506e-001 1.334686e+002
560000000 -6.347807e-001 -1.589630e+002 -4.965369e+001 -5.294894e+001 -4.971661e+001 -5.336246e+001 -1.431131e-001 1.334215e+002
560625000 -6.446659e-001 -1.592898e+002 -4.918107e+001 -5.123190e+001 -4.950955e+001 -5.307598e+001 -1.429866e-001 1.333455e+002
561250000 -6.500768e-001 -1.596687e+002 -4.955557e+001 -5.224033e+001 -4.894595e+001 -5.009571e+001 -1.386666e-001 1.332337e+002
561875000 -6.532696e-001 -1.601308e+002 -4.951223e+001 -5.147758e+001 -4.927423e+001 -5.333585e+001 -1.544300e-001 1.331674e+002
562500000 -6.593887e-001 -1.605067e+002 -4.876530e+001 -5.567412e+001 -4.931716e+001 -5.556078e+001 -1.524255e-001 1.331324e+002
563125000 -6.545281e-001 -1.608698e+002 -4.959423e+001 -5.640746e+001 -4.920331e+001 -5.550617e+001 -1.479944e-001 1.330161e+002
563750000 -6.760411e-001 -1.612816e+002 -4.937552e+001 -5.612222e+001 -4.877444e+001 -5.884291e+001 -1.518788e-001 1.329453e+002
564375000 -6.810523e-001 -1.617034e+002 -4.935890e+001 -5.749945e+001 -4.877790e+001 -5.682859e+001 -1.513180e-001 1.328742e+002
565000000 -6.788936e-001 -1.621391e+002 -4.966134e+001 -5.635589e+001 -4.916776e+001 -5.634859e+001 -1.449672e-001 1.327638e+002
565625000 -7.025024e-001 -1.625209e+002 -4.900143e+001 -5.789627e+001 -4.912741e+001 -6.033580e+001 -1.540485e-001 1.326940e+002
566250000 -7.030779e-001 -1.630028e+002 -4.934042e+001 -6.029413e+001 -4.924169e+001 -6.036165e+001 -1.488242e-001 1.326280e+002
566875000 -7.175676e-001 -1.634409e+002 -4.882396e+001 -5.888998e+001 -4.936950e+001 -6.397150e+001 -1.502293e-001 1.324883e+002
567500000 -7.364040e-001 -1.639407e+002 -4.887867e+001 -6.217463e+001 -4.889771e+001 -6.281829e+001 -1.430099e-001 1.324726e+002
568125000 -7.500873e-001 -1.643174e+002 -4.910982e+001 -6.041984e+001 -4.928807e+001 -5.843312e+001 -1.502215e-001 1.324093e+002
568750000 -7.588730e-001 -1.646923e+002 -4.976937e+001 -6.335550e+001 -4.871795e+001 -5.958976e+001 -1.554361e-001 1.323520e+002
569375000 -7.840261e-001 -1.651512e+002 -4.926867e+001 -6.589187e+001 -4.872104e+001 -6.516742e+001 -1.497471e-001 1.322347e+002
570000000 -7.862332e-001 -1.656270e+002 -4.935425e+001 -6.277137e+001 -4.884490e+001 -6.483543e+001 -1.455929e-001 1.321275e+002
570625000 -7.941492e-001 -1.660642e+002 -4.914042e+001 -6.188964e+001 -4.870256e+001 -6.364972e+001 -1.502059e-001 1.320742e+002
571250000 -8.079706e-001 -1.664898e+002 -4.883493e+001 -6.618663e+001 -4.895487e+001 -6.857909e+001 -1.545654e-001 1.320190e+002
571875000 -8.249875e-001 -1.669129e+002 -4.887102e+001 -6.671544e+001 -4.904919e+001 -6.540893e+001 -1.549923e-001 1.318965e+002
572500000 -8.393686e-001 -1.674082e+002 -4.821180e+001 -6.428907e+001 -4.857373e+001 -6.629903e+001 -1.531178e-001 1.317944e+002
573125000 -8.566992e-001 -1.679015e+002 -4.885200e+001 -6.645654e+001 -4.825847e+001 -6.791812e+001 -1.435612e-001 1.317195e+002
573750000 -8.657318e-001 -1.683212e+002 -4.847457e+001 -6.890524e+001 -4.842211e+001 -6.600767e+001 -1.611703e-001 1.316706e+002
574375000 -8.865969e-001 -1.687783e+002 -4.899366e+001 -6.805186e+001 -4.858399e+001 -7.153679e+001 -1.572333e-001 1.315277e+002
575000000 -9.019022e-001 -1.692667e+002 -4.795681e+001 -6.945100e+001 -4.829813e+001 -7.198774e+001 -1.564844e-001 1.314517e+002
575625000 -9.123173e-001 -1.697213e+002 -4.817264e+001 -6.843815e+001 -4.782272e+001 -7.096544e+001 -1.470008e-001 1.313787e+002
576250000 -9.224818e-001 -1.701453e+002 -4.844977e+001 -7.585184e+001 -4.817556e+001 -7.012780e+001 -1.542217e-001 1.313133e+002
576875000 -9.359677e-001 -1.706553e+002 -4.786599e+001 -7.018000e+001 -4.768684e+001 -7.276872e+001 -1.587771e-001 1.312738e+002
577500000 -9.573534e-001 -1.711203e+002 -4.778171e+001 -7.423778e+001 -4.800462e+001 -7.114181e+001 -1.491164e-001 1.311505e+002
578125000 -9.716524e-001 -1.715907e+002 -4.795798e+001 -7.520776e+001 -4.732599e+001 -7.308498e+001 -1.472170e-001 1.311845e+002
578750000 -9.762219e-001 -1.720663e+002 -4.787037e+001 -7.648854e+001 -4.755883e+001 -7.302394e+001 -1.371166e-001 1.310862e+002
579375000 -9.910892e-001 -1.725442e+002 -4.767129e+001 -7.371881e+001 -4.754171e+001 -7.681921e+001 -1.342998e-001 1.309765e+002
580000000 -1.011980e+000 -1.729979e+002 -4.766169e+001 -7.289821e+001 -4.768590e+001 -7.536140e+001 -1.383000e-001 1.310331e+002
580625000 -1.030434e+000 -1.734980e+002 -4.757540e+001 -7.522296e+001 -4.740374e+001 -7.487107e+001 -1.334193e-001 1.309933e+002
581250000 -1.050328e+000 -1.740094e+002 -4.755228e+001 -8.018278e+001 -4.774645e+001 -7.583149e+001 -1.355529e-001 1.310130e+002
581875000 -1.072074e+000 -1.745061e+002 -4.780952e+001 -8.078926e+001 -4.706691e+001 -7.739758e+001 -1.304320e-001 1.310319e+002
582500000 -1.095096e+000 -1.749661e+002 -4.720029e+001 -8.013851e+001 -4.716267e+001 -7.750322e+001 -1.375009e-001 1.309877e+002
583125000 -1.114220e+000 -1.755145e+002 -4.754258e+001 -7.690584e+001 -4.758148e+001 -7.917496e+001 -1.400337e-001 1.309493e+002
583750000 -1.136485e+000 -1.759698e+002 -4.735754e+001 -8.151441e+001 -4.710314e+001 -8.323729e+001 -1.429414e-001 1.309613e+002
584375000 -1.164343e+000 -1.764993e+002 -4.783564e+001 -8.366955e+001 -4.691917e+001 -8.080093e+001 -1.352056e-001 1.309493e+002
585000000 -1.174831e+000 -1.769577e+002 -4.728813e+001 -8.542727e+001 -4.725194e+001 -8.258197e+001 -1.421066e-001 1.308611e+002
585625000 -1.213354e+000 -1.774552e+002 -4.696593e+001 -8.360806e+001 -4.643663e+001 -8.519262e+001 -1.471104e-001 1.308400e+002
586250000 -1.231835e+000 -1.779606e+002 -4.701056e+001 -8.484997e+001 -4.664604e+001 -8.602914e+001 -1.528000e-001 1.308432e+002
586875000 -1.254062e+000 -1.784659e+002 -4.720948e+001 -8.243963e+001 -4.653574e+001 -8.598030e+001 -1.449241e-001 1.307717e+002
587500000 -1.288000e+000 -1.789868e+002 -4.677985e+001 -8.901015e+001 -4.659975e+001 -8.782090e+001 -1.456831e-001 1.306739e+002
588125000 -1.314003e+000 -1.795010e+002 -4.705775e+001 -8.744331e+001 -4.682134e+001 -8.645742e+001 -1.523389e-001 1.306580e+002
588750000 -1.341915e+000 1.799590e+002 -4.665959e+001 -8.690379e+001 -4.647633e+001 -8.899548e+001 -1.606902e-001 1.305679e+002
589375000 -1.360846e+000 1.794989e+002 -4.675409e+001 -8.855342e+001 -4.669651e+001 -8.738535e+001 -1.501438e-001 1.304002e+002
590000000 -1.390372e+000 1.789520e+002 -4.704494e+001 -9.160011e+001 -4.646333e+001 -8.851894e+001 -1.509777e-001 1.303379e+002
590625000 -1.414840e+000 1.784360e+002 -4.689361e+001 -8.754812e+001 -4.664295e+001 -8.903571e+001 -1.510825e-001 1.302272e+002
591250000 -1.441381e+000 1.778609e+002 -4.676468e+001 -9.143528e+001 -4.665351e+001 -9.100833e+001 -1.542011e-001 1.301708e+002
591875000 -1.483133e+000 1.774044e+002 -4.663303e+001 -8.973305e+001 -4.616986e+001 -9.049784e+001 -1.495325e-001 1.301458e+002
592500000 -1.502469e+000 1.767868e+002 -4.650459e+001 -8.953027e+001 -4.642183e+001 -9.168843e+001 -1.501702e-001 1.300797e+002
593125000 -1.548314e+000 1.762689e+002 -4.658674e+001 -9.145440e+001 -4.645325e+001 -9.134605e+001 -1.618964e-001 1.300527e+002
593750000 -1.579656e+000 1.756883e+002 -4.635825e+001 -9.246875e+001 -4.599956e+001 -9.230182e+001 -1.426861e-001 1.299873e+002
594375000 -1.613232e+000 1.751291e+002 -4.651054e+001 -9.198875e+001 -4.614934e+001 -9.402089e+001 -1.386533e-001 1.299712e+002
595000000 -1.643021e+000 1.746260e+002 -4.634200e+001 -9.374888e+001 -4.577562e+001 -9.431314e+001 -1.495304e-001 1.299034e+002
