!Agilent Technologies,E8364B,US42250235,A.06.04.32
!Agilent E8364B: A.06.04.32
!Date: Friday, January 15, 2021 12:08:15
!Correction: S11(Full 2 Port(1,2)) S21(Full 2 Port(1,2)) S12(Full 2 Port(1,2)) S22(Full 2 Port(1,2)) 
!S2P File: Measurements: S11, S21, S12, S22:
# Hz S  dB   R 50
500000000 -7.838517e-002 -1.289650e+002 -6.210132e+001 -4.625412e+001 -5.902639e+001 -3.506670e+001 -1.218232e-001 1.386419e+002
500625000 -8.270022e-002 -1.292731e+002 -5.948965e+001 -5.425921e+001 -6.126992e+001 -5.932098e+001 -1.247565e-001 1.386054e+002
501250000 -9.028578e-002 -1.294900e+002 -6.094219e+001 -3.710235e+001 -6.021135e+001 -4.958465e+001 -1.304885e-001 1.385261e+002
501875000 -8.053543e-002 -1.297906e+002 -5.979780e+001 -4.168318e+001 -5.777692e+001 -4.943283e+001 -1.095678e-001 1.385072e+002
502500000 -8.484386e-002 -1.301132e+002 -6.039582e+001 -4.930208e+001 -6.052324e+001 -5.496890e+001 -1.176203e-001 1.385224e+002
503125000 -9.273936e-002 -1.303892e+002 -5.938653e+001 -5.470983e+001 -5.874845e+001 -5.570601e+001 -1.212292e-001 1.384064e+002
503750000 -9.601452e-002 -1.306472e+002 -5.810019e+001 -4.518268e+001 -5.901235e+001 -4.475755e+001 -1.284812e-001 1.382825e+002
504375000 -1.035100e-001 -1.309752e+002 -5.952865e+001 -5.807897e+001 -5.922505e+001 -4.993903e+001 -1.372075e-001 1.383164e+002
505000000 -1.087983e-001 -1.312941e+002 -5.804595e+001 -4.969896e+001 -5.971297e+001 -5.599908e+001 -1.340123e-001 1.382780e+002
505625000 -1.083729e-001 -1.315510e+002 -6.033044e+001 -6.164595e+001 -5.851190e+001 -5.066701e+001 -1.290540e-001 1.381813e+002
506250000 -1.160681e-001 -1.318748e+002 -5.823965e+001 -4.183031e+001 -5.847694e+001 -5.606903e+001 -1.313469e-001 1.381146e+002
506875000 -1.112990e-001 -1.321675e+002 -5.746161e+001 -5.562474e+001 -5.842737e+001 -4.654501e+001 -1.316684e-001 1.380367e+002
507500000 -1.196939e-001 -1.324983e+002 -6.000560e+001 -6.061939e+001 -5.839894e+001 -5.274010e+001 -1.272802e-001 1.379745e+002
508125000 -1.212417e-001 -1.328019e+002 -5.913709e+001 -6.353679e+001 -5.790074e+001 -5.092497e+001 -1.272778e-001 1.379842e+002
508750000 -1.220112e-001 -1.331031e+002 -5.876406e+001 -6.334549e+001 -5.812058e+001 -6.213218e+001 -1.263897e-001 1.378834e+002
509375000 -1.295418e-001 -1.334667e+002 -5.676300e+001 -6.188082e+001 -5.781700e+001 -5.542053e+001 -1.237947e-001 1.378498e+002
510000000 -1.300195e-001 -1.337619e+002 -5.793749e+001 -5.116233e+001 -5.774765e+001 -5.390115e+001 -1.251363e-001 1.377432e+002
510625000 -1.457550e-001 -1.340291e+002 -5.782458e+001 -6.057574e+001 -5.822406e+001 -5.877741e+001 -1.173481e-001 1.378046e+002
511250000 -1.477536e-001 -1.343050e+002 -5.912859e+001 -4.863989e+001 -5.847909e+001 -6.963319e+001 -1.299288e-001 1.377244e+002
511875000 -1.413496e-001 -1.346712e+002 -5.779763e+001 -5.667255e+001 -5.716841e+001 -7.053133e+001 -1.210837e-001 1.376627e+002
512500000 -1.450669e-001 -1.348951e+002 -5.707012e+001 -6.810867e+001 -5.862241e+001 -5.355080e+001 -1.255343e-001 1.376232e+002
513125000 -1.587378e-001 -1.352326e+002 -5.779174e+001 -6.708956e+001 -5.747433e+001 -6.754051e+001 -1.346370e-001 1.376230e+002
513750000 -1.601668e-001 -1.355179e+002 -5.803990e+001 -5.958320e+001 -5.764271e+001 -6.964149e+001 -1.360295e-001 1.375389e+002
514375000 -1.661904e-001 -1.358742e+002 -5.755589e+001 -7.546667e+001 -5.663971e+001 -6.210733e+001 -1.266301e-001 1.373620e+002
515000000 -1.666395e-001 -1.361329e+002 -5.680362e+001 -6.086332e+001 -5.812145e+001 -6.479485e+001 -1.226632e-001 1.373669e+002
515625000 -1.697913e-001 -1.365024e+002 -5.653171e+001 -7.622506e+001 -5.685052e+001 -6.651942e+001 -1.241083e-001 1.372519e+002
516250000 -1.709556e-001 -1.367945e+002 -5.754486e+001 -7.161691e+001 -5.658395e+001 -6.587366e+001 -1.325315e-001 1.371057e+002
516875000 -1.865971e-001 -1.370901e+002 -5.739093e+001 -6.547762e+001 -5.837635e+001 -5.635420e+001 -1.383730e-001 1.371413e+002
517500000 -1.819435e-001 -1.374168e+002 -5.659693e+001 -6.867300e+001 -5.639857e+001 -6.875982e+001 -1.447750e-001 1.369220e+002
518125000 -1.883599e-001 -1.378029e+002 -5.814426e+001 -7.456741e+001 -5.792825e+001 -7.013546e+001 -1.392493e-001 1.367947e+002
518750000 -1.907781e-001 -1.380507e+002 -5.631968e+001 -7.705650e+001 -5.724672e+001 -7.068472e+001 -1.446030e-001 1.367432e+002
519375000 -2.049562e-001 -1.383401e+002 -5.582122e+001 -7.326217e+001 -5.666966e+001 -7.907309e+001 -1.424547e-001 1.366311e+002
520000000 -2.064243e-001 -1.387099e+002 -5.690437e+001 -7.334884e+001 -5.661973e+001 -7.054702e+001 -1.359711e-001 1.364468e+002
520625000 -2.115833e-001 -1.390318e+002 -5.634357e+001 -7.412466e+001 -5.630075e+001 -7.692640e+001 -1.323357e-001 1.363338e+002
521250000 -2.192436e-001 -1.393592e+002 -5.706636e+001 -7.060223e+001 -5.595363e+001 -7.806962e+001 -1.421649e-001 1.363045e+002
521875000 -2.284599e-001 -1.397066e+002 -5.695026e+001 -7.750069e+001 -5.516110e+001 -7.390031e+001 -1.219856e-001 1.362422e+002
522500000 -2.293322e-001 -1.399879e+002 -5.631950e+001 -8.466936e+001 -5.524809e+001 -7.914663e+001 -1.350372e-001 1.361258e+002
523125000 -2.388160e-001 -1.403627e+002 -5.489780e+001 -8.149541e+001 -5.619249e+001 -7.424611e+001 -1.304516e-001 1.361111e+002
523750000 -2.409859e-001 -1.407051e+002 -5.547807e+001 -7.722141e+001 -5.497865e+001 -8.495364e+001 -1.292375e-001 1.360518e+002
524375000 -2.582096e-001 -1.409945e+002 -5.552541e+001 -8.608270e+001 -5.529546e+001 -7.847894e+001 -1.139092e-001 1.360376e+002
525000000 -2.544497e-001 -1.413824e+002 -5.596520e+001 -7.995397e+001 -5.559874e+001 -8.360883e+001 -1.186087e-001 1.360275e+002
525625000 -2.765000e-001 -1.416632e+002 -5.486586e+001 -7.871735e+001 -5.497591e+001 -8.397845e+001 -1.233665e-001 1.359093e+002
526250000 -2.744821e-001 -1.420087e+002 -5.458301e+001 -8.617748e+001 -5.479079e+001 -8.243660e+001 -1.199838e-001 1.359669e+002
526875000 -2.885391e-001 -1.423721e+002 -5.572866e+001 -8.517264e+001 -5.562774e+001 -8.585880e+001 -1.106012e-001 1.359730e+002
527500000 -2.955320e-001 -1.427063e+002 -5.652607e+001 -9.447495e+001 -5.482243e+001 -8.093672e+001 -1.121885e-001 1.359743e+002
528125000 -3.123206e-001 -1.430641e+002 -5.517900e+001 -8.317975e+001 -5.551377e+001 -9.212448e+001 -1.272012e-001 1.360055e+002
528750000 -3.221425e-001 -1.434241e+002 -5.480957e+001 -8.894368e+001 -5.480811e+001 -8.540535e+001 -1.145238e-001 1.360783e+002
529375000 -3.304811e-001 -1.437935e+002 -5.590810e+001 -9.160106e+001 -5.549824e+001 -8.736700e+001 -1.223600e-001 1.359562e+002
530000000 -3.458873e-001 -1.441320e+002 -5.382799e+001 -8.195857e+001 -5.484424e+001 -9.611307e+001 -1.252766e-001 1.359438e+002
530625000 -3.579213e-001 -1.444438e+002 -5.388063e+001 -9.563833e+001 -5.497108e+001 -1.004498e+002 -1.232771e-001 1.358777e+002
531250000 -3.732445e-001 -1.448303e+002 -5.481458e+001 -9.058525e+001 -5.397903e+001 -9.156489e+001 -1.121015e-001 1.358976e+002
531875000 -3.986987e-001 -1.451226e+002 -5.467010e+001 -9.129309e+001 -5.501274e+001 -1.012460e+002 -1.320556e-001 1.357924e+002
532500000 -4.076628e-001 -1.453973e+002 -5.350798e+001 -9.750388e+001 -5.341037e+001 -9.598408e+001 -1.314956e-001 1.358284e+002
533125000 -4.163319e-001 -1.457241e+002 -5.377930e+001 -9.218881e+001 -5.395179e+001 -9.355695e+001 -1.363963e-001 1.357867e+002
533750000 -4.250641e-001 -1.461225e+002 -5.371531e+001 -1.096233e+002 -5.338783e+001 -9.440750e+001 -1.439408e-001 1.356763e+002
534375000 -4.397151e-001 -1.464259e+002 -5.430288e+001 -1.020590e+002 -5.307462e+001 -1.016225e+002 -1.245597e-001 1.356100e+002
535000000 -4.503841e-001 -1.467238e+002 -5.270849e+001 -9.930215e+001 -5.344798e+001 -1.009544e+002 -1.364814e-001 1.355550e+002
535625000 -4.599577e-001 -1.470736e+002 -5.290968e+001 -9.892899e+001 -5.353040e+001 -9.954031e+001 -1.231047e-001 1.355479e+002
536250000 -4.710023e-001 -1.473920e+002 -5.329837e+001 -9.964739e+001 -5.351341e+001 -1.019774e+002 -1.259636e-001 1.353963e+002
536875000 -4.817746e-001 -1.478013e+002 -5.308644e+001 -1.005258e+002 -5.318150e+001 -1.057897e+002 -1.356316e-001 1.353480e+002
537500000 -4.909745e-001 -1.480904e+002 -5.406819e+001 -1.089009e+002 -5.312241e+001 -1.017752e+002 -1.239819e-001 1.353711e+002
538125000 -5.067338e-001 -1.484243e+002 -5.220638e+001 -1.059518e+002 -5.332443e+001 -1.064929e+002 -1.338174e-001 1.353169e+002
538750000 -5.267376e-001 -1.488268e+002 -5.336024e+001 -1.051709e+002 -5.309076e+001 -1.103152e+002 -1.291557e-001 1.352951e+002
539375000 -5.455494e-001 -1.491322e+002 -5.375051e+001 -1.099961e+002 -5.261876e+001 -1.109982e+002 -1.279293e-001 1.352433e+002
540000000 -5.502743e-001 -1.494433e+002 -5.248145e+001 -1.141758e+002 -5.310492e+001 -1.110917e+002 -1.332220e-001 1.351766e+002
540625000 -5.712410e-001 -1.498312e+002 -5.342233e+001 -1.110494e+002 -5.215433e+001 -1.143775e+002 -1.258682e-001 1.351582e+002
541250000 -5.855957e-001 -1.501496e+002 -5.226145e+001 -1.121425e+002 -5.280032e+001 -1.111292e+002 -1.235251e-001 1.351689e+002
541875000 -5.956850e-001 -1.504652e+002 -5.261530e+001 -1.167329e+002 -5.317787e+001 -1.115576e+002 -1.399764e-001 1.350486e+002
542500000 -6.142485e-001 -1.508084e+002 -5.287069e+001 -1.142476e+002 -5.239333e+001 -1.128469e+002 -1.324052e-001 1.349826e+002
543125000 -6.293812e-001 -1.511880e+002 -5.267173e+001 -1.206992e+002 -5.204204e+001 -1.195002e+002 -1.287660e-001 1.349042e+002
543750000 -6.356393e-001 -1.515622e+002 -5.248405e+001 -1.205596e+002 -5.224963e+001 -1.204754e+002 -1.409287e-001 1.348611e+002
544375000 -6.571781e-001 -1.518717e+002 -5.152655e+001 -1.167744e+002 -5.187365e+001 -1.143278e+002 -1.435750e-001 1.348302e+002
545000000 -6.715941e-001 -1.522205e+002 -5.222251e+001 -1.186620e+002 -5.139292e+001 -1.189531e+002 -1.288396e-001 1.347427e+002
545625000 -6.842428e-001 -1.525602e+002 -5.188690e+001 -1.202650e+002 -5.138383e+001 -1.215117e+002 -1.363737e-001 1.347193e+002
546250000 -7.092869e-001 -1.528351e+002 -5.227813e+001 -1.236692e+002 -5.109509e+001 -1.182950e+002 -1.452760e-001 1.345808e+002
546875000 -7.218170e-001 -1.532588e+002 -5.126799e+001 -1.245304e+002 -5.131125e+001 -1.221442e+002 -1.464028e-001 1.345803e+002
547500000 -7.437554e-001 -1.536004e+002 -5.157909e+001 -1.290181e+002 -5.086576e+001 -1.227787e+002 -1.456654e-001 1.344094e+002
548125000 -7.619649e-001 -1.539191e+002 -5.121982e+001 -1.276701e+002 -5.105573e+001 -1.279570e+002 -1.376487e-001 1.342902e+002
548750000 -7.794345e-001 -1.542767e+002 -5.210677e+001 -1.261356e+002 -5.111113e+001 -1.283262e+002 -1.446696e-001 1.342351e+002
549375000 -8.001224e-001 -1.546595e+002 -5.197801e+001 -1.289804e+002 -5.076101e+001 -1.288496e+002 -1.460245e-001 1.340114e+002
550000000 -8.080868e-001 -1.549583e+002 -5.131997e+001 -1.291087e+002 -5.078736e+001 -1.302935e+002 -1.475010e-001 1.339943e+002
550625000 -8.384680e-001 -1.552693e+002 -5.098495e+001 -1.314229e+002 -5.043437e+001 -1.312346e+002 -1.485880e-001 1.339137e+002
551250000 -8.527061e-001 -1.556354e+002 -5.067807e+001 -1.301767e+002 -5.048495e+001 -1.306704e+002 -1.447552e-001 1.338483e+002
551875000 -8.737132e-001 -1.559182e+002 -5.089017e+001 -1.348872e+002 -5.049915e+001 -1.322999e+002 -1.319162e-001 1.337451e+002
552500000 -8.921173e-001 -1.563147e+002 -5.020929e+001 -1.406629e+002 -5.043359e+001 -1.405621e+002 -1.361590e-001 1.336942e+002
553125000 -9.091603e-001 -1.565774e+002 -5.097947e+001 -1.362313e+002 -4.989491e+001 -1.385723e+002 -1.369892e-001 1.336322e+002
553750000 -9.408183e-001 -1.568876e+002 -5.053839e+001 -1.411752e+002 -4.993144e+001 -1.405563e+002 -1.402694e-001 1.335837e+002
554375000 -9.604117e-001 -1.571888e+002 -4.998700e+001 -1.410779e+002 -4.969746e+001 -1.369932e+002 -1.369594e-001 1.335340e+002
555000000 -9.741364e-001 -1.575201e+002 -5.039650e+001 -1.411606e+002 -5.005418e+001 -1.425205e+002 -1.291844e-001 1.335504e+002
555625000 -9.988112e-001 -1.577616e+002 -5.081012e+001 -1.415753e+002 -4.994110e+001 -1.404921e+002 -1.322599e-001 1.335512e+002
556250000 -1.025367e+000 -1.580774e+002 -5.065234e+001 -1.436900e+002 -4.967991e+001 -1.456665e+002 -1.327910e-001 1.334930e+002
556875000 -1.037465e+000 -1.583521e+002 -5.039415e+001 -1.506584e+002 -5.003049e+001 -1.449922e+002 -1.327153e-001 1.335094e+002
557500000 -1.070121e+000 -1.586764e+002 -5.024760e+001 -1.469192e+002 -4.939957e+001 -1.472432e+002 -1.295765e-001 1.334536e+002
558125000 -1.085342e+000 -1.589143e+002 -4.977551e+001 -1.466748e+002 -4.902944e+001 -1.491610e+002 -1.372748e-001 1.334793e+002
558750000 -1.103577e+000 -1.591881e+002 -5.023321e+001 -1.544488e+002 -4.943002e+001 -1.516689e+002 -1.219773e-001 1.334400e+002
559375000 -1.126536e+000 -1.595080e+002 -4.986437e+001 -1.515176e+002 -4.922762e+001 -1.490537e+002 -1.379760e-001 1.333937e+002
560000000 -1.151446e+000 -1.597588e+002 -4.929821e+001 -1.570362e+002 -4.978167e+001 -1.522669e+002 -1.343743e-001 1.333376e+002
560625000 -1.170170e+000 -1.600009e+002 -4.996840e+001 -1.541470e+002 -4.903395e+001 -1.530327e+002 -1.315961e-001 1.333445e+002
561250000 -1.182904e+000 -1.603177e+002 -4.913456e+001 -1.519297e+002 -4.893967e+001 -1.561051e+002 -1.325336e-001 1.332580e+002
561875000 -1.200050e+000 -1.605449e+002 -4.924605e+001 -1.588586e+002 -4.846757e+001 -1.566849e+002 -1.437518e-001 1.332704e+002
562500000 -1.215969e+000 -1.607186e+002 -4.876851e+001 -1.588088e+002 -4.893369e+001 -1.612538e+002 -1.408366e-001 1.332602e+002
563125000 -1.220598e+000 -1.609359e+002 -4.961737e+001 -1.638281e+002 -4.844440e+001 -1.608477e+002 -1.306445e-001 1.331711e+002
563750000 -1.238115e+000 -1.612628e+002 -4.880765e+001 -1.604093e+002 -4.887731e+001 -1.654036e+002 -1.517159e-001 1.330791e+002
564375000 -1.253122e+000 -1.614846e+002 -4.930210e+001 -1.633236e+002 -4.855438e+001 -1.635835e+002 -1.504597e-001 1.330373e+002
565000000 -1.263271e+000 -1.617888e+002 -4.900299e+001 -1.650986e+002 -4.846148e+001 -1.668975e+002 -1.417670e-001 1.329375e+002
565625000 -1.264273e+000 -1.621204e+002 -4.916519e+001 -1.631244e+002 -4.822263e+001 -1.683093e+002 -1.467345e-001 1.328437e+002
566250000 -1.269446e+000 -1.624245e+002 -4.942073e+001 -1.683362e+002 -4.881306e+001 -1.687191e+002 -1.583842e-001 1.327726e+002
566875000 -1.285679e+000 -1.627741e+002 -4.894146e+001 -1.704193e+002 -4.857712e+001 -1.690843e+002 -1.552703e-001 1.325693e+002
567500000 -1.297441e+000 -1.631475e+002 -4.931688e+001 -1.680703e+002 -4.799803e+001 -1.733960e+002 -1.484270e-001 1.325220e+002
568125000 -1.311451e+000 -1.634430e+002 -4.918353e+001 -1.692057e+002 -4.807287e+001 -1.746970e+002 -1.520337e-001 1.323715e+002
568750000 -1.325312e+000 -1.637421e+002 -4.903226e+001 -1.755204e+002 -4.816440e+001 -1.729070e+002 -1.516042e-001 1.322479e+002
569375000 -1.341789e+000 -1.640619e+002 -4.841595e+001 -1.727821e+002 -4.786188e+001 -1.773371e+002 -1.520050e-001 1.321748e+002
570000000 -1.349596e+000 -1.643613e+002 -4.878639e+001 -1.752638e+002 -4.810377e+001 -1.760332e+002 -1.517782e-001 1.319956e+002
570625000 -1.355830e+000 -1.646929e+002 -4.900554e+001 1.794070e+002 -4.809939e+001 -1.762964e+002 -1.523674e-001 1.319131e+002
571250000 -1.363700e+000 -1.650180e+002 -4.916080e+001 -1.775546e+002 -4.795459e+001 -1.782074e+002 -1.560581e-001 1.317954e+002
571875000 -1.380090e+000 -1.653909e+002 -4.844594e+001 -1.797609e+002 -4.818970e+001 1.789132e+002 -1.539185e-001 1.317033e+002
572500000 -1.389401e+000 -1.657150e+002 -4.881734e+001 -1.798180e+002 -4.868522e+001 1.775073e+002 -1.522087e-001 1.315457e+002
573125000 -1.404976e+000 -1.660575e+002 -4.815794e+001 1.736551e+002 -4.804472e+001 1.765563e+002 -1.420793e-001 1.315019e+002
573750000 -1.411565e+000 -1.663662e+002 -4.912907e+001 1.754769e+002 -4.822182e+001 1.752816e+002 -1.522590e-001 1.313718e+002
574375000 -1.426481e+000 -1.666845e+002 -4.804409e+001 1.759876e+002 -4.804199e+001 1.731181e+002 -1.421971e-001 1.313730e+002
575000000 -1.442731e+000 -1.670543e+002 -4.876971e+001 1.714239e+002 -4.789352e+001 1.703935e+002 -1.414993e-001 1.312877e+002
575625000 -1.451721e+000 -1.673632e+002 -4.829258e+001 1.733473e+002 -4.785775e+001 1.728097e+002 -1.428405e-001 1.312444e+002
576250000 -1.470108e+000 -1.677021e+002 -4.803269e+001 1.721320e+002 -4.803440e+001 1.690311e+002 -1.417602e-001 1.311993e+002
576875000 -1.477487e+000 -1.680064e+002 -4.836890e+001 1.679518e+002 -4.798549e+001 1.675721e+002 -1.317274e-001 1.311885e+002
577500000 -1.495581e+000 -1.682661e+002 -4.845935e+001 1.675876e+002 -4.764707e+001 1.696792e+002 -1.383028e-001 1.311407e+002
578125000 -1.500276e+000 -1.685840e+002 -4.792400e+001 1.655760e+002 -4.749105e+001 1.645123e+002 -1.319800e-001 1.311923e+002
578750000 -1.504291e+000 -1.688857e+002 -4.839767e+001 1.651410e+002 -4.766462e+001 1.639654e+002 -1.320718e-001 1.312049e+002
579375000 -1.508252e+000 -1.691533e+002 -4.818168e+001 1.648433e+002 -4.760333e+001 1.596095e+002 -1.321872e-001 1.311966e+002
580000000 -1.512286e+000 -1.694554e+002 -4.854970e+001 1.621668e+002 -4.737737e+001 1.609261e+002 -1.262213e-001 1.312197e+002
580625000 -1.516316e+000 -1.697912e+002 -4.817361e+001 1.594748e+002 -4.765200e+001 1.573104e+002 -1.294017e-001 1.311976e+002
581250000 -1.528135e+000 -1.701455e+002 -4.813328e+001 1.628875e+002 -4.739426e+001 1.588581e+002 -1.307746e-001 1.311812e+002
581875000 -1.532951e+000 -1.705105e+002 -4.817205e+001 1.544815e+002 -4.742376e+001 1.560679e+002 -1.345697e-001 1.312389e+002
582500000 -1.543401e+000 -1.708119e+002 -4.805337e+001 1.565938e+002 -4.734855e+001 1.538955e+002 -1.317808e-001 1.311883e+002
583125000 -1.541848e+000 -1.712480e+002 -4.830658e+001 1.542534e+002 -4.773689e+001 1.526502e+002 -1.440537e-001 1.311233e+002
583750000 -1.546006e+000 -1.715747e+002 -4.793389e+001 1.539334e+002 -4.730518e+001 1.536352e+002 -1.500435e-001 1.310727e+002
584375000 -1.556758e+000 -1.718892e+002 -4.823095e+001 1.519075e+002 -4.769079e+001 1.505247e+002 -1.537919e-001 1.309746e+002
585000000 -1.556661e+000 -1.723555e+002 -4.815816e+001 1.539221e+002 -4.725542e+001 1.536083e+002 -1.613315e-001 1.309444e+002
585625000 -1.571291e+000 -1.727088e+002 -4.808353e+001 1.510612e+002 -4.768185e+001 1.522902e+002 -1.478844e-001 1.308011e+002
586250000 -1.570707e+000 -1.731511e+002 -4.851946e+001 1.511189e+002 -4.750257e+001 1.491059e+002 -1.549111e-001 1.308562e+002
586875000 -1.575939e+000 -1.735909e+002 -4.798581e+001 1.493133e+002 -4.777982e+001 1.484022e+002 -1.552244e-001 1.306269e+002
587500000 -1.583737e+000 -1.739966e+002 -4.883846e+001 1.482357e+002 -4.779024e+001 1.485863e+002 -1.535324e-001 1.305373e+002
588125000 -1.588458e+000 -1.744174e+002 -4.864695e+001 1.486051e+002 -4.771876e+001 1.469342e+002 -1.568226e-001 1.304324e+002
588750000 -1.596307e+000 -1.748445e+002 -4.799144e+001 1.470367e+002 -4.755674e+001 1.467885e+002 -1.632252e-001 1.303131e+002
589375000 -1.594220e+000 -1.753271e+002 -4.843937e+001 1.459026e+002 -4.740084e+001 1.434844e+002 -1.524158e-001 1.302064e+002
590000000 -1.601701e+000 -1.758709e+002 -4.864671e+001 1.445860e+002 -4.744783e+001 1.449483e+002 -1.610274e-001 1.300949e+002
590625000 -1.610987e+000 -1.763740e+002 -4.841093e+001 1.420817e+002 -4.741726e+001 1.423764e+002 -1.496719e-001 1.300013e+002
591250000 -1.622205e+000 -1.768632e+002 -4.821054e+001 1.426756e+002 -4.721194e+001 1.436322e+002 -1.511980e-001 1.299065e+002
591875000 -1.653803e+000 -1.773568e+002 -4.785684e+001 1.433986e+002 -4.740531e+001 1.417129e+002 -1.474565e-001 1.299175e+002
592500000 -1.670997e+000 -1.778130e+002 -4.766647e+001 1.413366e+002 -4.713187e+001 1.407297e+002 -1.438749e-001 1.298727e+002
593125000 -1.694889e+000 -1.782132e+002 -4.773119e+001 1.436695e+002 -4.692102e+001 1.390108e+002 -1.422717e-001 1.299123e+002
593750000 -1.716320e+000 -1.786545e+002 -4.777789e+001 1.391930e+002 -4.696386e+001 1.366678e+002 -1.248579e-001 1.299161e+002
594375000 -1.730538e+000 -1.790650e+002 -4.770701e+001 1.401220e+002 -4.669269e+001 1.372899e+002 -1.259864e-001 1.299883e+002
595000000 -1.740162e+000 -1.795078e+002 -4.794232e+001 1.361837e+002 -4.712157e+001 1.337965e+002 -1.413230e-001 1.299654e+002
