!Agilent Technologies,E8364B,US42250235,A.06.04.32
!Agilent E8364B: A.06.04.32
!Date: Thursday, October 01, 2020 15:31:26
!Correction: S11(Full 2 Port(1,2)) S21(Full 2 Port(1,2)) S12(Full 2 Port(1,2)) S22(Full 2 Port(1,2)) 
!S2P File: Measurements: S11, S21, S12, S22:
# Hz S  dB   R 50
500000000 -1.675190e-001 -1.750537e+002 -6.521192e+001 -5.447353e+001 -6.630802e+001 -5.287287e+001 9.506742e-002 1.441172e+002
500377500.94375 -1.671386e-001 -1.752797e+002 -6.627127e+001 -6.280611e+001 -6.664716e+001 -5.193709e+001 9.211276e-002 1.442486e+002
500755001.8875 -1.684035e-001 -1.754485e+002 -6.606346e+001 -6.185788e+001 -6.630228e+001 -4.873165e+001 9.142439e-002 1.443261e+002
501132502.83126 -1.704185e-001 -1.756648e+002 -6.628716e+001 -5.706543e+001 -6.739563e+001 -5.965973e+001 8.356216e-002 1.444026e+002
501510003.77501 -1.697808e-001 -1.758593e+002 -6.511549e+001 -5.970353e+001 -6.561886e+001 -4.828910e+001 8.085500e-002 1.444682e+002
501887504.71876 -1.747826e-001 -1.760850e+002 -6.524364e+001 -5.136132e+001 -6.583528e+001 -5.348276e+001 7.634579e-002 1.445132e+002
502265005.66251 -1.764209e-001 -1.762900e+002 -6.591635e+001 -6.809221e+001 -6.780080e+001 -5.286490e+001 7.054163e-002 1.445672e+002
502642506.60627 -1.740242e-001 -1.764949e+002 -6.482657e+001 -6.691986e+001 -6.563288e+001 -6.480502e+001 6.429910e-002 1.446205e+002
503020007.55002 -1.787170e-001 -1.766930e+002 -6.454081e+001 -6.220750e+001 -6.532961e+001 -5.328930e+001 5.839457e-002 1.445776e+002
503397508.49377 -1.795117e-001 -1.769171e+002 -6.502208e+001 -6.249559e+001 -6.661948e+001 -5.853552e+001 5.129499e-002 1.445556e+002
503775009.43752 -1.777769e-001 -1.770994e+002 -6.583578e+001 -7.024226e+001 -6.665307e+001 -5.696689e+001 4.480610e-002 1.445195e+002
504152510.38128 -1.771853e-001 -1.773308e+002 -6.629430e+001 -6.039225e+001 -6.639899e+001 -6.593360e+001 3.518750e-002 1.444712e+002
504530011.32503 -1.798396e-001 -1.775318e+002 -6.462355e+001 -7.187889e+001 -6.623746e+001 -6.260911e+001 2.714285e-002 1.444102e+002
504907512.26878 -1.830311e-001 -1.777509e+002 -6.450231e+001 -6.460665e+001 -6.572307e+001 -6.291371e+001 1.897472e-002 1.443234e+002
505285013.21253 -1.868309e-001 -1.779462e+002 -6.444715e+001 -6.332587e+001 -6.486953e+001 -6.306715e+001 1.442391e-002 1.442295e+002
505662514.15629 -1.840420e-001 -1.781342e+002 -6.477179e+001 -6.969617e+001 -6.671142e+001 -7.511581e+001 7.345432e-003 1.441168e+002
506040015.10004 -1.877987e-001 -1.783938e+002 -6.683156e+001 -7.134248e+001 -6.521074e+001 -6.498068e+001 -9.357646e-004 1.439683e+002
506417516.04379 -1.867717e-001 -1.786053e+002 -6.445042e+001 -6.989027e+001 -6.688879e+001 -6.792816e+001 -5.932049e-003 1.438304e+002
506795016.98754 -1.887188e-001 -1.788059e+002 -6.383807e+001 -6.768787e+001 -6.696915e+001 -6.720137e+001 -9.500887e-003 1.436297e+002
507172517.93129 -1.917358e-001 -1.790370e+002 -6.492813e+001 -7.029833e+001 -6.497999e+001 -6.339339e+001 -1.245523e-002 1.434644e+002
507550018.87505 -1.937217e-001 -1.792470e+002 -6.486985e+001 -6.668037e+001 -6.731874e+001 -6.350152e+001 -2.097932e-002 1.432552e+002
507927519.8188 -1.973967e-001 -1.794734e+002 -6.567049e+001 -7.041505e+001 -6.634731e+001 -6.743346e+001 -2.711907e-002 1.430837e+002
508305020.76255 -1.981132e-001 -1.796920e+002 -6.487259e+001 -6.742786e+001 -6.614668e+001 -6.878764e+001 -2.967619e-002 1.428763e+002
508682521.7063 -1.980516e-001 -1.799082e+002 -6.508176e+001 -6.481783e+001 -6.618474e+001 -6.849108e+001 -3.613034e-002 1.426669e+002
509060022.65006 -2.021507e-001 1.798586e+002 -6.492995e+001 -7.001205e+001 -6.581654e+001 -7.190253e+001 -3.615568e-002 1.424110e+002
509437523.59381 -1.991121e-001 1.796387e+002 -6.434299e+001 -7.653767e+001 -6.531571e+001 -6.966184e+001 -3.405439e-002 1.422055e+002
509815024.53756 -2.009112e-001 1.794193e+002 -6.545512e+001 -8.351546e+001 -6.554668e+001 -7.655141e+001 -3.431541e-002 1.419770e+002
510192525.48131 -2.026961e-001 1.792043e+002 -6.499203e+001 -7.899444e+001 -6.525258e+001 -6.957407e+001 -3.449666e-002 1.417584e+002
510570026.42507 -2.068728e-001 1.789681e+002 -6.450525e+001 -7.527969e+001 -6.559342e+001 -7.705019e+001 -3.309231e-002 1.415229e+002
510947527.36882 -2.086557e-001 1.787758e+002 -6.454720e+001 -7.095260e+001 -6.524281e+001 -7.913788e+001 -3.352229e-002 1.413038e+002
511325028.31257 -2.086156e-001 1.785333e+002 -6.424103e+001 -7.769681e+001 -6.491044e+001 -7.023276e+001 -3.045777e-002 1.410794e+002
511702529.25632 -2.093255e-001 1.782681e+002 -6.446651e+001 -7.105553e+001 -6.385682e+001 -7.525999e+001 -2.855851e-002 1.408860e+002
512080030.20008 -2.137222e-001 1.780858e+002 -6.312798e+001 -7.709234e+001 -6.588297e+001 -7.327074e+001 -2.375347e-002 1.406877e+002
512457531.14383 -2.156415e-001 1.778498e+002 -6.489017e+001 -7.690968e+001 -6.487547e+001 -7.317435e+001 -1.853682e-002 1.404988e+002
512835032.08758 -2.199206e-001 1.776320e+002 -6.406107e+001 -8.057643e+001 -6.599689e+001 -7.733192e+001 -1.514558e-002 1.403353e+002
513212533.03133 -2.192290e-001 1.773885e+002 -6.357983e+001 -7.614499e+001 -6.571672e+001 -7.780262e+001 -9.590722e-003 1.401368e+002
513590033.97508 -2.220780e-001 1.771497e+002 -6.445264e+001 -7.621561e+001 -6.459492e+001 -7.408040e+001 -2.114650e-003 1.400118e+002
513967534.91884 -2.248037e-001 1.769604e+002 -6.472737e+001 -7.084338e+001 -6.372543e+001 -7.691972e+001 8.260494e-003 1.398598e+002
514345035.86259 -2.244101e-001 1.767288e+002 -6.369073e+001 -8.474575e+001 -6.471635e+001 -7.478002e+001 8.449522e-003 1.397819e+002
514722536.80634 -2.279987e-001 1.765146e+002 -6.393199e+001 -7.284512e+001 -6.480006e+001 -7.417348e+001 1.481922e-002 1.396889e+002
515100037.75009 -2.265259e-001 1.762898e+002 -6.384501e+001 -7.755809e+001 -6.605845e+001 -7.853554e+001 2.411949e-002 1.396134e+002
515477538.69385 -2.269023e-001 1.760093e+002 -6.358223e+001 -7.536003e+001 -6.534252e+001 -8.136830e+001 3.181414e-002 1.395396e+002
515855039.6376 -2.311277e-001 1.758386e+002 -6.385486e+001 -7.908334e+001 -6.502792e+001 -8.635905e+001 4.099612e-002 1.395088e+002
516232540.58135 -2.323174e-001 1.755992e+002 -6.459270e+001 -7.858510e+001 -6.527586e+001 -8.181037e+001 4.584022e-002 1.394916e+002
516610041.5251 -2.358544e-001 1.753875e+002 -6.339653e+001 -7.690804e+001 -6.555978e+001 -8.647065e+001 5.113706e-002 1.394973e+002
516987542.46886 -2.348355e-001 1.751606e+002 -6.310174e+001 -8.376041e+001 -6.462220e+001 -8.027821e+001 5.850776e-002 1.395111e+002
517365043.41261 -2.389822e-001 1.749092e+002 -6.442800e+001 -7.904636e+001 -6.533472e+001 -7.942953e+001 6.420975e-002 1.395227e+002
517742544.35636 -2.425014e-001 1.746958e+002 -6.405107e+001 -8.198355e+001 -6.418323e+001 -8.252132e+001 7.035265e-002 1.395859e+002
518120045.30011 -2.429847e-001 1.744622e+002 -6.313778e+001 -7.491283e+001 -6.532515e+001 -7.731649e+001 7.825134e-002 1.396508e+002
518497546.24387 -2.474096e-001 1.742374e+002 -6.336099e+001 -7.472651e+001 -6.553329e+001 -8.638869e+001 8.196229e-002 1.397302e+002
518875047.18762 -2.484311e-001 1.740615e+002 -6.507027e+001 -7.682240e+001 -6.623626e+001 -8.352693e+001 8.818994e-002 1.398236e+002
519252548.13137 -2.524116e-001 1.737658e+002 -6.412980e+001 -8.568398e+001 -6.566029e+001 -8.263645e+001 9.093045e-002 1.399240e+002
519630049.07512 -2.564728e-001 1.735375e+002 -6.294252e+001 -8.313001e+001 -6.461573e+001 -8.357825e+001 9.337213e-002 1.400516e+002
520007550.01888 -2.603562e-001 1.733097e+002 -6.282801e+001 -7.819943e+001 -6.484164e+001 -8.308569e+001 9.843933e-002 1.401163e+002
520385050.96263 -2.601047e-001 1.730872e+002 -6.309007e+001 -8.000183e+001 -6.549438e+001 -8.576030e+001 9.792875e-002 1.402789e+002
520762551.90638 -2.632244e-001 1.728457e+002 -6.396942e+001 -8.948940e+001 -6.433655e+001 -8.690554e+001 1.015683e-001 1.404063e+002
521140052.85013 -2.667804e-001 1.726226e+002 -6.263376e+001 -8.644252e+001 -6.475292e+001 -8.965291e+001 1.032997e-001 1.405338e+002
521517553.79388 -2.705078e-001 1.724200e+002 -6.351394e+001 -8.158643e+001 -6.544141e+001 -8.422891e+001 1.021039e-001 1.407032e+002
521895054.73764 -2.717845e-001 1.721464e+002 -6.255386e+001 -8.260160e+001 -6.436681e+001 -8.537836e+001 1.009819e-001 1.408334e+002
522272555.68139 -2.751373e-001 1.719106e+002 -6.249584e+001 -8.392690e+001 -6.462331e+001 -9.310484e+001 1.000872e-001 1.409817e+002
522650056.62514 -2.769358e-001 1.716504e+002 -6.355363e+001 -8.443810e+001 -6.443722e+001 -8.296916e+001 9.824204e-002 1.410600e+002
523027557.56889 -2.835905e-001 1.714386e+002 -6.263671e+001 -8.546906e+001 -6.401078e+001 -9.220095e+001 9.431697e-002 1.412772e+002
523405058.51265 -2.847848e-001 1.711763e+002 -6.324454e+001 -8.571535e+001 -6.441431e+001 -8.975058e+001 9.248941e-002 1.414505e+002
523782559.4564 -2.915265e-001 1.709499e+002 -6.219994e+001 -9.367233e+001 -6.412528e+001 -8.814629e+001 8.703146e-002 1.415163e+002
524160060.40015 -2.949964e-001 1.707339e+002 -6.262765e+001 -8.469933e+001 -6.401571e+001 -8.752316e+001 8.608984e-002 1.416279e+002
524537561.3439 -2.924029e-001 1.704684e+002 -6.280502e+001 -8.605589e+001 -6.349538e+001 -8.817139e+001 7.919752e-002 1.417207e+002
524915062.28766 -3.009725e-001 1.702655e+002 -6.256271e+001 -8.791579e+001 -6.364323e+001 -8.702848e+001 7.586380e-002 1.418298e+002
525292563.23141 -3.055768e-001 1.699566e+002 -6.304413e+001 -8.706234e+001 -6.434767e+001 -9.836034e+001 6.833742e-002 1.419015e+002
525670064.17516 -3.037074e-001 1.697207e+002 -6.133793e+001 -8.582317e+001 -6.369871e+001 -8.831795e+001 6.300668e-002 1.419498e+002
526047565.11891 -3.083466e-001 1.694980e+002 -6.212514e+001 -8.543417e+001 -6.362526e+001 -8.907537e+001 5.803955e-002 1.420073e+002
526425066.06267 -3.134552e-001 1.691737e+002 -6.168644e+001 -8.557047e+001 -6.291816e+001 -9.151028e+001 4.611582e-002 1.420578e+002
526802567.00642 -3.161509e-001 1.689635e+002 -6.119584e+001 -9.171410e+001 -6.357011e+001 -9.539120e+001 4.566407e-002 1.420550e+002
527180067.95017 -3.226177e-001 1.686968e+002 -6.201789e+001 -8.781891e+001 -6.280285e+001 -9.331869e+001 3.626700e-002 1.420439e+002
527557568.89392 -3.231562e-001 1.684516e+002 -6.178811e+001 -9.079645e+001 -6.414851e+001 -9.603498e+001 3.187624e-002 1.419714e+002
527935069.83767 -3.278815e-001 1.681832e+002 -6.200109e+001 -9.629694e+001 -6.337881e+001 -9.527607e+001 2.182683e-002 1.419877e+002
528312570.78143 -3.356841e-001 1.679290e+002 -6.253530e+001 -9.455016e+001 -6.348747e+001 -9.695819e+001 1.940118e-002 1.419480e+002
528690071.72518 -3.337206e-001 1.676838e+002 -6.095645e+001 -9.355293e+001 -6.323709e+001 -9.423942e+001 1.233444e-002 1.418591e+002
529067572.66893 -3.424852e-001 1.673929e+002 -6.132529e+001 -9.691925e+001 -6.282368e+001 -9.842094e+001 4.117925e-004 1.417491e+002
529445073.61268 -3.437476e-001 1.671661e+002 -6.177509e+001 -9.757610e+001 -6.320420e+001 -9.946689e+001 -3.844329e-003 1.416431e+002
529822574.55644 -3.481070e-001 1.669003e+002 -6.138615e+001 -9.836732e+001 -6.379865e+001 -1.012966e+002 -9.080864e-003 1.414948e+002
530200075.50019 -3.538970e-001 1.665860e+002 -6.231390e+001 -9.575043e+001 -6.270732e+001 -9.929811e+001 -1.122796e-002 1.413259e+002
530577576.44394 -3.614030e-001 1.663794e+002 -6.192194e+001 -9.311862e+001 -6.333594e+001 -1.025804e+002 -2.107289e-002 1.411597e+002
530955077.38769 -3.677489e-001 1.661071e+002 -6.108404e+001 -9.310900e+001 -6.292777e+001 -9.879431e+001 -2.354605e-002 1.409937e+002
531332578.33145 -3.729015e-001 1.658439e+002 -6.105476e+001 -9.996381e+001 -6.307412e+001 -9.883572e+001 -2.941118e-002 1.407720e+002
531710079.2752 -3.773112e-001 1.655986e+002 -6.197257e+001 -1.021120e+002 -6.217970e+001 -1.089080e+002 -3.650352e-002 1.405448e+002
532087580.21895 -3.832483e-001 1.653246e+002 -6.107624e+001 -9.642669e+001 -6.255642e+001 -1.064280e+002 -3.689209e-002 1.403180e+002
532465081.1627 -3.884999e-001 1.650545e+002 -6.108789e+001 -9.465735e+001 -6.242938e+001 -1.000403e+002 -3.936345e-002 1.400856e+002
532842582.10646 -3.946376e-001 1.647882e+002 -6.101486e+001 -9.229958e+001 -6.298297e+001 -1.046236e+002 -4.349146e-002 1.398240e+002
533220083.05021 -4.013852e-001 1.645469e+002 -6.155725e+001 -9.624385e+001 -6.212271e+001 -1.079185e+002 -4.651588e-002 1.395807e+002
533597583.99396 -4.058362e-001 1.642605e+002 -6.067162e+001 -9.891912e+001 -6.243410e+001 -1.012704e+002 -4.299955e-002 1.393679e+002
533975084.93771 -4.119168e-001 1.639646e+002 -6.091182e+001 -9.586709e+001 -6.218086e+001 -1.091306e+002 -4.722087e-002 1.390660e+002
534352585.88146 -4.245279e-001 1.637954e+002 -6.019677e+001 -9.805404e+001 -6.238426e+001 -1.056879e+002 -4.404924e-002 1.387973e+002
534730086.82522 -4.301940e-001 1.634977e+002 -6.026102e+001 -9.854401e+001 -6.226189e+001 -1.049041e+002 -4.709438e-002 1.385555e+002
535107587.76897 -4.332167e-001 1.632348e+002 -5.956468e+001 -1.008396e+002 -6.169669e+001 -1.064121e+002 -4.680804e-002 1.382913e+002
535485088.71272 -4.367399e-001 1.629660e+002 -6.066663e+001 -1.004457e+002 -6.145982e+001 -1.095832e+002 -4.453354e-002 1.380377e+002
535862589.65647 -4.450002e-001 1.626982e+002 -6.020024e+001 -1.058011e+002 -6.134740e+001 -1.134203e+002 -4.000611e-002 1.377991e+002
536240090.60023 -4.476536e-001 1.624674e+002 -5.932460e+001 -1.037577e+002 -6.201578e+001 -1.112922e+002 -3.581040e-002 1.375601e+002
536617591.54398 -4.580864e-001 1.621614e+002 -6.001436e+001 -1.047157e+002 -6.183766e+001 -1.117056e+002 -3.396304e-002 1.373134e+002
536995092.48773 -4.630855e-001 1.619138e+002 -6.000386e+001 -1.082822e+002 -6.165544e+001 -1.129130e+002 -2.753977e-002 1.371422e+002
537372593.43148 -4.719676e-001 1.616360e+002 -6.010076e+001 -1.059351e+002 -6.182360e+001 -1.136076e+002 -2.106871e-002 1.369452e+002
537750094.37524 -4.777825e-001 1.613421e+002 -5.918508e+001 -1.064517e+002 -6.141433e+001 -1.160331e+002 -1.729418e-002 1.367693e+002
538127595.31899 -4.828189e-001 1.610658e+002 -5.962772e+001 -1.020761e+002 -6.240438e+001 -1.152847e+002 -1.252480e-002 1.366091e+002
538505096.26274 -4.901569e-001 1.608170e+002 -6.036888e+001 -1.059559e+002 -6.092133e+001 -1.165829e+002 -7.008761e-003 1.364908e+002
538882597.20649 -4.966851e-001 1.605493e+002 -5.967812e+001 -1.063530e+002 -6.136127e+001 -1.206694e+002 2.139088e-003 1.363318e+002
539260098.15025 -5.063591e-001 1.602575e+002 -5.883432e+001 -1.041495e+002 -6.130251e+001 -1.167513e+002 7.383134e-003 1.362300e+002
539637599.094 -5.146834e-001 1.600014e+002 -5.942841e+001 -1.110881e+002 -6.140094e+001 -1.161850e+002 1.287000e-002 1.361417e+002
540015100.03775 -5.258718e-001 1.597005e+002 -5.898269e+001 -1.096612e+002 -6.099411e+001 -1.210689e+002 2.300977e-002 1.361559e+002
540392600.9815 -5.310518e-001 1.594423e+002 -5.960633e+001 -1.058227e+002 -6.179568e+001 -1.149759e+002 2.729627e-002 1.360094e+002
540770101.92525 -5.401116e-001 1.591604e+002 -5.896069e+001 -1.152775e+002 -6.089972e+001 -1.229160e+002 3.527237e-002 1.360426e+002
541147602.86901 -5.502719e-001 1.588790e+002 -5.898338e+001 -1.141572e+002 -6.018277e+001 -1.247352e+002 3.937770e-002 1.360461e+002
541525103.81276 -5.605686e-001 1.586130e+002 -5.958382e+001 -1.156344e+002 -6.067896e+001 -1.209209e+002 4.503572e-002 1.360679e+002
541902604.75651 -5.706773e-001 1.583854e+002 -5.894352e+001 -1.142529e+002 -6.084248e+001 -1.245463e+002 5.155724e-002 1.361039e+002
542280105.70026 -5.812240e-001 1.580782e+002 -5.870113e+001 -1.161593e+002 -6.070807e+001 -1.220033e+002 6.116037e-002 1.361612e+002
542657606.64402 -5.936201e-001 1.577485e+002 -5.827887e+001 -1.123492e+002 -6.075140e+001 -1.268951e+002 6.227209e-002 1.362535e+002
543035107.58777 -6.017083e-001 1.575313e+002 -5.917248e+001 -1.159527e+002 -6.086155e+001 -1.248509e+002 6.744971e-002 1.363373e+002
543412608.53152 -6.152405e-001 1.572246e+002 -5.918229e+001 -1.194597e+002 -6.096847e+001 -1.318744e+002 7.340044e-002 1.364462e+002
543790109.47527 -6.255405e-001 1.569781e+002 -5.893047e+001 -1.123322e+002 -6.088670e+001 -1.313832e+002 7.848276e-002 1.365477e+002
544167610.41903 -6.405011e-001 1.567264e+002 -5.888332e+001 -1.127659e+002 -6.083350e+001 -1.307449e+002 8.484633e-002 1.366951e+002
544545111.36278 -6.468653e-001 1.564367e+002 -5.851351e+001 -1.195216e+002 -6.092622e+001 -1.268399e+002 8.653007e-002 1.368448e+002
544922612.30653 -6.599324e-001 1.561678e+002 -5.861166e+001 -1.192666e+002 -6.052935e+001 -1.307408e+002 9.121377e-002 1.370037e+002
545300113.25028 -6.705459e-001 1.558641e+002 -5.868283e+001 -1.217717e+002 -6.069899e+001 -1.290134e+002 9.382609e-002 1.371565e+002
545677614.19404 -6.823013e-001 1.556542e+002 -5.844109e+001 -1.198127e+002 -6.092326e+001 -1.336065e+002 9.458120e-002 1.373166e+002
546055115.13779 -6.923299e-001 1.553498e+002 -5.825175e+001 -1.184992e+002 -6.021443e+001 -1.260311e+002 9.483486e-002 1.375052e+002
546432616.08154 -7.067772e-001 1.550999e+002 -5.817561e+001 -1.169952e+002 -6.050301e+001 -1.335928e+002 9.742187e-002 1.376633e+002
546810117.02529 -7.164287e-001 1.547894e+002 -5.834087e+001 -1.181660e+002 -6.101097e+001 -1.305820e+002 9.647284e-002 1.378288e+002
547187617.96904 -7.296695e-001 1.545172e+002 -5.866771e+001 -1.218739e+002 -6.076010e+001 -1.344397e+002 9.726649e-002 1.380168e+002
547565118.9128 -7.422807e-001 1.542227e+002 -5.792189e+001 -1.215324e+002 -6.090623e+001 -1.339144e+002 9.491872e-002 1.381663e+002
547942619.85655 -7.583294e-001 1.539438e+002 -5.818445e+001 -1.221794e+002 -5.997225e+001 -1.331424e+002 9.590690e-002 1.383222e+002
548320120.8003 -7.691292e-001 1.536555e+002 -5.842302e+001 -1.221645e+002 -6.068579e+001 -1.346272e+002 8.934323e-002 1.384669e+002
548697621.74405 -7.823576e-001 1.533938e+002 -5.788246e+001 -1.238099e+002 -6.048635e+001 -1.350093e+002 9.106945e-002 1.386169e+002
549075122.68781 -7.971981e-001 1.530878e+002 -5.790037e+001 -1.262398e+002 -6.038255e+001 -1.339254e+002 8.232183e-002 1.387938e+002
549452623.63156 -8.150604e-001 1.528305e+002 -5.768940e+001 -1.232950e+002 -6.022139e+001 -1.383423e+002 7.877165e-002 1.388480e+002
549830124.57531 -8.273405e-001 1.525345e+002 -5.753434e+001 -1.236244e+002 -6.081034e+001 -1.356833e+002 7.298867e-002 1.389637e+002
550207625.51906 -8.418459e-001 1.522705e+002 -5.774598e+001 -1.300715e+002 -5.994776e+001 -1.360294e+002 6.789294e-002 1.390343e+002
550585126.46282 -8.569059e-001 1.519099e+002 -5.737934e+001 -1.246315e+002 -6.005026e+001 -1.394911e+002 6.180600e-002 1.391080e+002
550962627.40657 -8.729599e-001 1.516602e+002 -5.732768e+001 -1.271353e+002 -5.956407e+001 -1.370183e+002 5.767839e-002 1.391481e+002
551340128.35032 -8.909477e-001 1.513770e+002 -5.745897e+001 -1.254492e+002 -5.985117e+001 -1.396284e+002 4.609006e-002 1.391769e+002
551717629.29407 -9.093245e-001 1.510474e+002 -5.730253e+001 -1.302885e+002 -6.014673e+001 -1.412119e+002 3.879823e-002 1.391672e+002
552095130.23783 -9.245360e-001 1.508043e+002 -5.751794e+001 -1.320322e+002 -5.959119e+001 -1.407123e+002 3.174635e-002 1.391648e+002
552472631.18158 -9.400527e-001 1.504787e+002 -5.731906e+001 -1.288766e+002 -5.990749e+001 -1.446479e+002 2.249508e-002 1.391029e+002
552850132.12533 -9.545434e-001 1.502066e+002 -5.682882e+001 -1.302457e+002 -5.924240e+001 -1.417783e+002 1.290062e-002 1.390509e+002
553227633.06908 -9.776938e-001 1.499106e+002 -5.643860e+001 -1.314267e+002 -5.952837e+001 -1.403719e+002 6.338801e-003 1.389745e+002
553605134.01284 -9.957212e-001 1.496169e+002 -5.686074e+001 -1.354462e+002 -5.938291e+001 -1.434016e+002 2.410155e-003 1.388076e+002
553982634.95659 -1.015780e+000 1.493364e+002 -5.672908e+001 -1.330263e+002 -5.901338e+001 -1.463414e+002 -1.146938e-002 1.387515e+002
554360135.90034 -1.035702e+000 1.490580e+002 -5.657334e+001 -1.342250e+002 -5.889600e+001 -1.451133e+002 -1.859987e-002 1.385837e+002
554737636.84409 -1.055159e+000 1.487512e+002 -5.661702e+001 -1.384791e+002 -5.926435e+001 -1.456089e+002 -2.676686e-002 1.384228e+002
555115137.78784 -1.075905e+000 1.484836e+002 -5.682094e+001 -1.404797e+002 -5.872888e+001 -1.484546e+002 -2.798903e-002 1.382276e+002
