!Agilent Technologies,E8364B,US42250235,A.06.04.32
!Agilent E8364B: A.06.04.32
!Date: Thursday, October 01, 2020 15:47:37
!Correction: S11(Full 2 Port(1,2)) S21(Full 2 Port(1,2)) S12(Full 2 Port(1,2)) S22(Full 2 Port(1,2)) 
!S2P File: Measurements: S11, S21, S12, S22:
# Hz S  dB   R 50
500000000 -2.269383e-001 -1.753492e+002 -7.139322e+001 -4.403592e+001 -7.720963e+001 -8.350793e+001 -6.439090e-003 1.433130e+002
500377500.94375 -2.282063e-001 -1.755520e+002 -7.489626e+001 -7.789010e+001 -7.759186e+001 -5.335132e+001 -7.378816e-003 1.434954e+002
500755001.8875 -2.318216e-001 -1.757457e+002 -7.334476e+001 -6.342228e+001 -7.616285e+001 -6.847877e+001 -6.233914e-003 1.436278e+002
501132502.83126 -2.339383e-001 -1.759802e+002 -7.276826e+001 -5.839138e+001 -7.810500e+001 -6.954861e+001 -1.129627e-002 1.437775e+002
501510003.77501 -2.348764e-001 -1.761882e+002 -7.589885e+001 -5.244966e+001 -7.464815e+001 -3.865404e+001 -1.545484e-002 1.439244e+002
501887504.71876 -2.425186e-001 -1.763836e+002 -7.394728e+001 -9.515837e+001 -7.754174e+001 -5.263485e+001 -1.757721e-002 1.440372e+002
502265005.66251 -2.476973e-001 -1.765903e+002 -7.314878e+001 -8.467068e+001 -7.493983e+001 -5.774890e+001 -2.381678e-002 1.441732e+002
502642506.60627 -2.483187e-001 -1.767854e+002 -7.453515e+001 -8.795348e+001 -7.397215e+001 -7.612625e+001 -3.042725e-002 1.443044e+002
503020007.55002 -2.541964e-001 -1.770005e+002 -7.536207e+001 -4.649021e+001 -7.425014e+001 -5.456339e+001 -3.887566e-002 1.443293e+002
503397508.49377 -2.581874e-001 -1.772045e+002 -7.335602e+001 -5.119046e+001 -7.897348e+001 -8.765421e+001 -3.989033e-002 1.444182e+002
503775009.43752 -2.587575e-001 -1.773969e+002 -7.185114e+001 -8.967536e+001 -7.583302e+001 -8.516785e+001 -5.334168e-002 1.444689e+002
504152510.38128 -2.633854e-001 -1.776056e+002 -7.512385e+001 -5.472769e+001 -7.839317e+001 -7.493454e+001 -6.243999e-002 1.445069e+002
504530011.32503 -2.682854e-001 -1.777937e+002 -7.385674e+001 -8.206616e+001 -7.633205e+001 -7.776633e+001 -6.954960e-002 1.445293e+002
504907512.26878 -2.718205e-001 -1.780120e+002 -7.382024e+001 -7.814206e+001 -7.928735e+001 -7.527657e+001 -7.663871e-002 1.445282e+002
505285013.21253 -2.771290e-001 -1.782023e+002 -7.203485e+001 -7.219881e+001 -7.483301e+001 -7.320719e+001 -8.367993e-002 1.445034e+002
505662514.15629 -2.754953e-001 -1.783739e+002 -7.084567e+001 -7.710876e+001 -7.407140e+001 -8.399149e+001 -9.146585e-002 1.444741e+002
506040015.10004 -2.808801e-001 -1.786242e+002 -7.481087e+001 -8.063204e+001 -7.624435e+001 -8.457419e+001 -1.013709e-001 1.443861e+002
506417516.04379 -2.855445e-001 -1.788232e+002 -7.247977e+001 -1.042828e+002 -7.242933e+001 -8.947442e+001 -1.123291e-001 1.443042e+002
506795016.98754 -2.915388e-001 -1.790360e+002 -7.215634e+001 -9.191233e+001 -7.584039e+001 -8.323336e+001 -1.201626e-001 1.441734e+002
507172517.93129 -2.948501e-001 -1.792368e+002 -7.168623e+001 -9.447831e+001 -7.198563e+001 -7.153705e+001 -1.253429e-001 1.440368e+002
507550018.87505 -2.991547e-001 -1.794380e+002 -7.554553e+001 -6.774476e+001 -7.294970e+001 -1.181258e+002 -1.348564e-001 1.438761e+002
507927519.8188 -3.056139e-001 -1.796314e+002 -7.552833e+001 -8.949501e+001 -7.391355e+001 -8.995331e+001 -1.457482e-001 1.436993e+002
508305020.76255 -3.067552e-001 -1.798694e+002 -7.507816e+001 -7.746068e+001 -7.582063e+001 -8.583688e+001 -1.501827e-001 1.435120e+002
508682521.7063 -3.132322e-001 1.799269e+002 -7.513628e+001 -9.955779e+001 -7.235075e+001 -8.132696e+001 -1.612841e-001 1.432828e+002
509060022.65006 -3.184400e-001 1.797051e+002 -7.508179e+001 -6.418858e+001 -7.622657e+001 -7.733295e+001 -1.639877e-001 1.430303e+002
509437523.59381 -3.208199e-001 1.794893e+002 -7.278046e+001 -8.529175e+001 -7.446755e+001 -8.077697e+001 -1.662068e-001 1.428046e+002
509815024.53756 -3.242561e-001 1.792911e+002 -7.254971e+001 -9.056705e+001 -7.715533e+001 -1.055492e+002 -1.711964e-001 1.425079e+002
510192525.48131 -3.283863e-001 1.790747e+002 -7.324039e+001 -9.415550e+001 -7.457360e+001 -8.801608e+001 -1.751210e-001 1.422265e+002
510570026.42507 -3.339656e-001 1.788526e+002 -7.113628e+001 -9.343298e+001 -7.301217e+001 -6.412640e+001 -1.793716e-001 1.419359e+002
510947527.36882 -3.388860e-001 1.786672e+002 -7.615448e+001 -8.950057e+001 -7.739673e+001 -1.000533e+002 -1.843059e-001 1.416406e+002
511325028.31257 -3.412020e-001 1.784455e+002 -7.414470e+001 -8.443922e+001 -8.171317e+001 -7.280492e+001 -1.838066e-001 1.413383e+002
511702529.25632 -3.457067e-001 1.782499e+002 -7.372734e+001 -8.739032e+001 -7.133492e+001 -9.894596e+001 -1.814989e-001 1.410492e+002
512080030.20008 -3.507003e-001 1.780368e+002 -7.116566e+001 -9.058298e+001 -7.566667e+001 -8.450037e+001 -1.822593e-001 1.407328e+002
512457531.14383 -3.550692e-001 1.778323e+002 -7.286654e+001 -1.013606e+002 -7.337814e+001 -1.054456e+002 -1.794892e-001 1.404578e+002
512835032.08758 -3.565215e-001 1.776169e+002 -7.282393e+001 -1.149949e+002 -7.280478e+001 -8.616421e+001 -1.767243e-001 1.401653e+002
513212533.03133 -3.603199e-001 1.774080e+002 -7.299728e+001 -1.100804e+002 -7.216234e+001 -9.425534e+001 -1.732971e-001 1.398851e+002
513590033.97508 -3.623144e-001 1.772005e+002 -7.004809e+001 -8.787456e+001 -7.396092e+001 -9.576283e+001 -1.672672e-001 1.396230e+002
513967534.91884 -3.669599e-001 1.769759e+002 -7.324512e+001 -9.897050e+001 -7.140774e+001 -1.053987e+002 -1.600480e-001 1.393812e+002
514345035.86259 -3.698895e-001 1.767635e+002 -7.372900e+001 -1.095088e+002 -7.238597e+001 -1.148463e+002 -1.570723e-001 1.391475e+002
514722536.80634 -3.712086e-001 1.765592e+002 -7.103832e+001 -1.008488e+002 -7.197427e+001 -9.193755e+001 -1.489688e-001 1.389525e+002
515100037.75009 -3.723782e-001 1.763492e+002 -7.163864e+001 -1.024354e+002 -7.243340e+001 -8.933270e+001 -1.400972e-001 1.387649e+002
515477538.69385 -3.761917e-001 1.761200e+002 -7.427782e+001 -9.918034e+001 -7.387424e+001 -1.021215e+002 -1.335763e-001 1.385809e+002
515855039.6376 -3.791719e-001 1.759095e+002 -7.364669e+001 -9.752686e+001 -7.192470e+001 -1.075014e+002 -1.230812e-001 1.384544e+002
516232540.58135 -3.844646e-001 1.756854e+002 -7.486356e+001 -1.119517e+002 -7.409386e+001 -1.079458e+002 -1.139371e-001 1.383497e+002
516610041.5251 -3.902603e-001 1.754588e+002 -7.561990e+001 -9.694800e+001 -7.346952e+001 -1.055370e+002 -1.076171e-001 1.382614e+002
516987542.46886 -3.909902e-001 1.752427e+002 -7.053727e+001 -1.083325e+002 -7.011502e+001 -1.150422e+002 -9.707171e-002 1.381994e+002
517365043.41261 -3.972596e-001 1.750219e+002 -7.468671e+001 -1.165849e+002 -7.475702e+001 -1.026555e+002 -8.723351e-002 1.381530e+002
517742544.35636 -4.027872e-001 1.748241e+002 -7.290694e+001 -1.081709e+002 -7.580022e+001 -1.138257e+002 -7.671074e-002 1.381688e+002
518120045.30011 -4.062932e-001 1.745981e+002 -7.123918e+001 -1.151436e+002 -7.199628e+001 -1.172993e+002 -6.933744e-002 1.381929e+002
518497546.24387 -4.134600e-001 1.743904e+002 -7.299577e+001 -1.200685e+002 -7.140952e+001 -1.177590e+002 -5.909907e-002 1.382453e+002
518875047.18762 -4.170838e-001 1.742240e+002 -7.273443e+001 -1.136047e+002 -7.156469e+001 -1.139442e+002 -4.738619e-002 1.383279e+002
519252548.13137 -4.247968e-001 1.739671e+002 -7.275783e+001 -1.228253e+002 -7.184509e+001 -1.203056e+002 -4.166380e-002 1.384246e+002
519630049.07512 -4.321265e-001 1.737433e+002 -7.212775e+001 -1.172380e+002 -7.270473e+001 -1.134219e+002 -3.397519e-002 1.385374e+002
520007550.01888 -4.362898e-001 1.735410e+002 -7.094114e+001 -1.321511e+002 -7.184269e+001 -1.303027e+002 -2.884562e-002 1.386939e+002
520385050.96263 -4.407158e-001 1.733468e+002 -7.298977e+001 -1.078653e+002 -7.243501e+001 -1.256876e+002 -2.306494e-002 1.388364e+002
520762551.90638 -4.455054e-001 1.731442e+002 -7.264978e+001 -1.237869e+002 -7.488811e+001 -1.277530e+002 -1.750673e-002 1.390051e+002
521140052.85013 -4.509401e-001 1.729341e+002 -7.100223e+001 -1.244431e+002 -6.971062e+001 -1.208531e+002 -1.071875e-002 1.391948e+002
521517553.79388 -4.592810e-001 1.727698e+002 -7.186332e+001 -1.322831e+002 -7.429533e+001 -1.375307e+002 -6.954825e-003 1.394047e+002
521895054.73764 -4.631162e-001 1.725169e+002 -7.124430e+001 -1.159351e+002 -7.407473e+001 -1.326335e+002 -8.830869e-003 1.396124e+002
522272555.68139 -4.680755e-001 1.723148e+002 -7.132853e+001 -1.215081e+002 -7.484848e+001 -1.150212e+002 -2.627146e-003 1.398234e+002
522650056.62514 -4.732742e-001 1.721185e+002 -7.581800e+001 -1.480493e+002 -6.989677e+001 -1.322443e+002 -3.067376e-003 1.399964e+002
523027557.56889 -4.779234e-001 1.719263e+002 -7.030314e+001 -1.330215e+002 -7.112297e+001 -1.381007e+002 -3.232251e-003 1.402610e+002
523405058.51265 -4.790138e-001 1.717171e+002 -6.921917e+001 -1.050872e+002 -7.183521e+001 -1.256234e+002 -4.186594e-003 1.405177e+002
523782559.4564 -4.877794e-001 1.715004e+002 -7.410306e+001 -1.331503e+002 -7.142622e+001 -1.290154e+002 -7.665695e-003 1.406581e+002
524160060.40015 -4.926492e-001 1.713075e+002 -7.074586e+001 -1.330121e+002 -6.980090e+001 -1.302726e+002 -9.505918e-003 1.408828e+002
524537561.3439 -4.944648e-001 1.710948e+002 -7.107256e+001 -1.395684e+002 -7.032729e+001 -1.262737e+002 -1.672729e-002 1.410637e+002
524915062.28766 -4.994541e-001 1.708751e+002 -7.211273e+001 -1.375104e+002 -7.256406e+001 -1.214174e+002 -2.000421e-002 1.412684e+002
525292563.23141 -5.070202e-001 1.706522e+002 -7.166431e+001 -1.304593e+002 -7.010857e+001 -1.222440e+002 -2.695766e-002 1.414240e+002
525670064.17516 -5.092975e-001 1.704357e+002 -7.017234e+001 -1.389695e+002 -7.048952e+001 -1.411705e+002 -3.376465e-002 1.415402e+002
526047565.11891 -5.158074e-001 1.702208e+002 -7.049997e+001 -1.410436e+002 -7.123127e+001 -1.397708e+002 -4.585988e-002 1.416744e+002
526425066.06267 -5.235905e-001 1.700110e+002 -7.059421e+001 -1.348647e+002 -7.012133e+001 -1.386614e+002 -5.303782e-002 1.417741e+002
526802567.00642 -5.267717e-001 1.698034e+002 -7.159372e+001 -1.469020e+002 -7.072273e+001 -1.442333e+002 -6.146056e-002 1.418579e+002
527180067.95017 -5.333104e-001 1.695877e+002 -7.013630e+001 -1.531173e+002 -6.996656e+001 -1.295954e+002 -6.909203e-002 1.418880e+002
527557568.89392 -5.350280e-001 1.693829e+002 -6.976144e+001 -1.566561e+002 -7.027610e+001 -1.661735e+002 -7.778069e-002 1.419144e+002
527935069.83767 -5.446527e-001 1.691697e+002 -6.952172e+001 -1.440631e+002 -6.951627e+001 -1.489469e+002 -8.770921e-002 1.419159e+002
528312570.78143 -5.489636e-001 1.689546e+002 -7.082152e+001 -1.496744e+002 -6.935735e+001 -1.500524e+002 -9.684477e-002 1.419048e+002
528690071.72518 -5.507599e-001 1.687359e+002 -7.197186e+001 -1.533863e+002 -6.986000e+001 -1.570558e+002 -1.075566e-001 1.418306e+002
529067572.66893 -5.550134e-001 1.685190e+002 -7.006361e+001 -1.613663e+002 -7.000423e+001 -1.538843e+002 -1.200776e-001 1.417079e+002
529445073.61268 -5.609654e-001 1.683100e+002 -7.118033e+001 -1.611011e+002 -6.918121e+001 -1.508503e+002 -1.302120e-001 1.416715e+002
529822574.55644 -5.636961e-001 1.680921e+002 -6.969910e+001 -1.472987e+002 -7.181164e+001 -1.597818e+002 -1.393669e-001 1.414837e+002
530200075.50019 -5.681162e-001 1.678630e+002 -6.898228e+001 -1.574553e+002 -7.038330e+001 -1.573392e+002 -1.471073e-001 1.413211e+002
530577576.44394 -5.734662e-001 1.676520e+002 -7.184764e+001 -1.553871e+002 -7.241187e+001 -1.533065e+002 -1.590185e-001 1.411183e+002
530955077.38769 -5.784555e-001 1.674091e+002 -7.121954e+001 -1.646591e+002 -7.331380e+001 -1.707844e+002 -1.698620e-001 1.409155e+002
531332578.33145 -5.811979e-001 1.671770e+002 -7.060064e+001 -1.507157e+002 -6.931400e+001 -1.489293e+002 -1.729784e-001 1.406792e+002
531710079.2752 -5.881144e-001 1.669801e+002 -7.095078e+001 -1.640417e+002 -7.210901e+001 -1.536004e+002 -1.848515e-001 1.404047e+002
532087580.21895 -5.922644e-001 1.667402e+002 -7.110148e+001 -1.531898e+002 -6.944833e+001 -1.705335e+002 -1.876814e-001 1.401184e+002
532465081.1627 -5.988517e-001 1.665252e+002 -7.314140e+001 -1.773906e+002 -7.115146e+001 -1.596195e+002 -1.926066e-001 1.397584e+002
532842582.10646 -6.033961e-001 1.663434e+002 -7.553068e+001 -1.689290e+002 -7.082103e+001 -1.724778e+002 -1.999823e-001 1.395113e+002
533220083.05021 -6.085629e-001 1.660922e+002 -7.232113e+001 -1.358430e+002 -7.071913e+001 -1.705939e+002 -2.022395e-001 1.392047e+002
533597583.99396 -6.111053e-001 1.658537e+002 -7.421416e+001 -1.755866e+002 -7.453955e+001 -1.643203e+002 -2.058555e-001 1.389198e+002
533975084.93771 -6.173544e-001 1.656426e+002 -7.146790e+001 -1.612348e+002 -7.215442e+001 -1.657480e+002 -2.088924e-001 1.385266e+002
534352585.88146 -6.244147e-001 1.654733e+002 -7.303773e+001 -1.596661e+002 -7.342118e+001 -1.761782e+002 -2.050859e-001 1.382109e+002
534730086.82522 -6.286108e-001 1.652579e+002 -7.308782e+001 -1.515206e+002 -7.167936e+001 -1.627997e+002 -2.037669e-001 1.379057e+002
535107587.76897 -6.303569e-001 1.649864e+002 -7.213116e+001 -1.600763e+002 -7.285537e+001 -1.606469e+002 -2.046655e-001 1.375554e+002
535485088.71272 -6.351429e-001 1.647891e+002 -7.268115e+001 -1.701668e+002 -7.147182e+001 -1.739036e+002 -1.999968e-001 1.372575e+002
535862589.65647 -6.398088e-001 1.645451e+002 -7.386811e+001 -1.601684e+002 -7.013625e+001 -1.733123e+002 -1.953718e-001 1.369468e+002
536240090.60023 -6.409843e-001 1.643678e+002 -7.072916e+001 -1.783057e+002 -7.119921e+001 -1.623048e+002 -1.915004e-001 1.366611e+002
536617591.54398 -6.489535e-001 1.641001e+002 -7.345374e+001 -1.594331e+002 -7.077947e+001 -1.717700e+002 -1.845438e-001 1.363687e+002
536995092.48773 -6.524311e-001 1.639048e+002 -7.069818e+001 -1.601185e+002 -7.198803e+001 -1.692373e+002 -1.794675e-001 1.361257e+002
537372593.43148 -6.584189e-001 1.636768e+002 -7.226128e+001 -1.702751e+002 -7.151841e+001 -1.597095e+002 -1.683957e-001 1.358906e+002
537750094.37524 -6.599284e-001 1.634444e+002 -7.197699e+001 -1.696376e+002 -7.251079e+001 -1.730806e+002 -1.611913e-001 1.356821e+002
538127595.31899 -6.649842e-001 1.632264e+002 -7.218959e+001 -1.661702e+002 -7.316737e+001 -1.604056e+002 -1.560803e-001 1.354666e+002
538505096.26274 -6.690909e-001 1.630303e+002 -6.962090e+001 -1.642374e+002 -7.388310e+001 -1.552324e+002 -1.427792e-001 1.353382e+002
538882597.20649 -6.726865e-001 1.628060e+002 -7.019152e+001 -1.617982e+002 -7.160713e+001 -1.751446e+002 -1.327098e-001 1.351631e+002
539260098.15025 -6.775317e-001 1.625921e+002 -7.030009e+001 -1.706803e+002 -7.162829e+001 -1.760783e+002 -1.247212e-001 1.350393e+002
539637599.094 -6.828229e-001 1.623934e+002 -7.293279e+001 -1.728813e+002 -6.927721e+001 -1.714574e+002 -1.166821e-001 1.349209e+002
540015100.03775 -6.871886e-001 1.621684e+002 -7.004098e+001 -1.598928e+002 -7.134282e+001 -1.705524e+002 -1.070501e-001 1.349206e+002
540392600.9815 -6.885729e-001 1.619578e+002 -7.031117e+001 -1.657416e+002 -7.146911e+001 1.786786e+002 -9.788709e-002 1.347865e+002
540770101.92525 -6.926299e-001 1.617307e+002 -7.018857e+001 -1.764019e+002 -7.031416e+001 -1.721135e+002 -8.661344e-002 1.347827e+002
541147602.86901 -6.923821e-001 1.615239e+002 -6.868976e+001 -1.743927e+002 -7.015070e+001 1.766430e+002 -7.932412e-002 1.347744e+002
541525103.81276 -6.933804e-001 1.613165e+002 -6.794455e+001 1.759267e+002 -6.944907e+001 1.651962e+002 -7.141572e-002 1.347852e+002
541902604.75651 -6.965588e-001 1.610929e+002 -6.949987e+001 1.691155e+002 -7.142490e+001 -1.786152e+002 -6.452096e-002 1.348182e+002
542280105.70026 -7.013454e-001 1.609122e+002 -6.873770e+001 1.784171e+002 -7.136050e+001 1.785518e+002 -5.331884e-002 1.348801e+002
542657606.64402 -7.026204e-001 1.606347e+002 -6.986504e+001 1.767400e+002 -7.194012e+001 1.621943e+002 -5.227389e-002 1.349429e+002
543035107.58777 -7.021617e-001 1.604599e+002 -7.087935e+001 1.754735e+002 -6.995222e+001 1.759946e+002 -4.388938e-002 1.350395e+002
543412608.53152 -7.095481e-001 1.602548e+002 -6.882512e+001 1.701454e+002 -7.119418e+001 -1.771628e+002 -4.109466e-002 1.351380e+002
543790109.47527 -7.077352e-001 1.600388e+002 -7.060246e+001 1.711878e+002 -7.146629e+001 1.787193e+002 -3.475457e-002 1.352608e+002
544167610.41903 -7.113119e-001 1.598245e+002 -6.994696e+001 1.795083e+002 -7.077939e+001 1.755216e+002 -2.760593e-002 1.353659e+002
544545111.36278 -7.095383e-001 1.595901e+002 -6.865914e+001 -1.731503e+002 -7.012466e+001 1.661984e+002 -2.800745e-002 1.355089e+002
544922612.30653 -7.102280e-001 1.593506e+002 -7.040530e+001 1.527114e+002 -7.227360e+001 1.660365e+002 -2.268305e-002 1.356568e+002
545300113.25028 -7.120076e-001 1.590826e+002 -7.030664e+001 1.650395e+002 -7.273452e+001 1.769253e+002 -2.111562e-002 1.357898e+002
545677614.19404 -7.129073e-001 1.589016e+002 -7.060563e+001 1.626905e+002 -6.971558e+001 1.616094e+002 -2.098006e-002 1.359392e+002
546055115.13779 -7.159011e-001 1.586503e+002 -7.042426e+001 1.676869e+002 -7.001239e+001 1.459029e+002 -2.392225e-002 1.361068e+002
546432616.08154 -7.172163e-001 1.584100e+002 -6.984885e+001 1.647553e+002 -7.053227e+001 1.616251e+002 -2.508212e-002 1.362475e+002
546810117.02529 -7.183321e-001 1.581378e+002 -7.068114e+001 1.577768e+002 -6.950801e+001 1.678078e+002 -2.415145e-002 1.363882e+002
547187617.96904 -7.229118e-001 1.578806e+002 -7.206245e+001 1.417965e+002 -7.153873e+001 1.635947e+002 -2.313101e-002 1.365444e+002
547565118.9128 -7.279703e-001 1.576372e+002 -7.059264e+001 1.545876e+002 -6.995480e+001 1.537050e+002 -2.776566e-002 1.366724e+002
547942619.85655 -7.360830e-001 1.573851e+002 -6.960085e+001 1.603187e+002 -7.029514e+001 1.527952e+002 -2.811718e-002 1.367997e+002
548320120.8003 -7.414632e-001 1.571475e+002 -7.166163e+001 1.652252e+002 -7.120449e+001 1.608468e+002 -3.292796e-002 1.369208e+002
548697621.74405 -7.446970e-001 1.569281e+002 -7.154113e+001 1.666869e+002 -7.102509e+001 1.516826e+002 -3.985473e-002 1.370318e+002
549075122.68781 -7.490667e-001 1.566623e+002 -7.043717e+001 1.418442e+002 -7.186825e+001 1.423374e+002 -4.486037e-002 1.371836e+002
549452623.63156 -7.546833e-001 1.564526e+002 -7.171246e+001 1.624541e+002 -7.241575e+001 1.556692e+002 -5.068733e-002 1.372132e+002
549830124.57531 -7.541842e-001 1.562058e+002 -7.148920e+001 1.430482e+002 -7.176350e+001 1.703868e+002 -5.851466e-002 1.373078e+002
550207625.51906 -7.562724e-001 1.559553e+002 -7.121290e+001 1.553844e+002 -7.175369e+001 1.720865e+002 -6.338439e-002 1.373573e+002
550585126.46282 -7.605316e-001 1.556539e+002 -7.340075e+001 1.684736e+002 -7.179055e+001 1.566182e+002 -6.871763e-002 1.373907e+002
550962627.40657 -7.616304e-001 1.554436e+002 -7.091844e+001 1.523606e+002 -7.128963e+001 1.578135e+002 -7.576686e-002 1.374192e+002
551340128.35032 -7.626340e-001 1.551651e+002 -7.301163e+001 1.603404e+002 -7.426366e+001 1.602773e+002 -8.518191e-002 1.374096e+002
551717629.29407 -7.677908e-001 1.548631e+002 -7.261136e+001 1.629322e+002 -7.347691e+001 1.437351e+002 -9.134998e-002 1.374295e+002
552095130.23783 -7.695874e-001 1.546367e+002 -7.620435e+001 1.399772e+002 -7.351230e+001 1.692690e+002 -9.932718e-002 1.374040e+002
552472631.18158 -7.728177e-001 1.543579e+002 -7.119400e+001 1.613534e+002 -7.097102e+001 1.545765e+002 -1.045681e-001 1.373532e+002
552850132.12533 -7.728448e-001 1.540604e+002 -7.007913e+001 1.620444e+002 -7.066583e+001 1.540377e+002 -1.111486e-001 1.372323e+002
553227633.06908 -7.827067e-001 1.537795e+002 -6.965150e+001 1.632566e+002 -7.047267e+001 1.551767e+002 -1.215344e-001 1.372119e+002
553605134.01284 -7.894517e-001 1.534917e+002 -6.780828e+001 1.663035e+002 -7.078600e+001 1.659388e+002 -1.270102e-001 1.371320e+002
553982634.95659 -7.940888e-001 1.532103e+002 -7.056692e+001 1.440447e+002 -7.146030e+001 1.587139e+002 -1.352258e-001 1.370116e+002
554360135.90034 -8.045951e-001 1.529498e+002 -6.861198e+001 1.686865e+002 -6.944167e+001 1.622533e+002 -1.428125e-001 1.368773e+002
554737636.84409 -8.094231e-001 1.526625e+002 -7.058353e+001 1.578199e+002 -6.970329e+001 1.556004e+002 -1.530887e-001 1.367163e+002
555115137.78784 -8.185401e-001 1.524326e+002 -6.824432e+001 1.554708e+002 -6.979279e+001 1.537797e+002 -1.548682e-001 1.365688e+002
