!Agilent Technologies,E8364B,US42250235,A.06.04.32
!Agilent E8364B: A.06.04.32
!Date: Thursday, October 01, 2020 15:50:29
!Correction: S11(Full 2 Port(1,2)) S21(Full 2 Port(1,2)) S12(Full 2 Port(1,2)) S22(Full 2 Port(1,2)) 
!S2P File: Measurements: S11, S21, S12, S22:
# Hz S  dB   R 50
500000000 -2.558110e-001 -1.752939e+002 -7.635854e+001 -1.012008e+002 -8.279401e+001 -1.249129e+002 1.795607e-004 1.433769e+002
500377500.94375 -2.594455e-001 -1.754786e+002 -7.974732e+001 -1.062588e+002 -7.605253e+001 -1.433684e+002 -7.834255e-004 1.434788e+002
500755001.8875 -2.583466e-001 -1.756468e+002 -7.714123e+001 -1.166397e+002 -7.571775e+001 -1.284926e+002 1.335960e-003 1.436984e+002
501132502.83126 -2.670717e-001 -1.758629e+002 -7.490565e+001 -1.013297e+002 -8.094400e+001 -1.456137e+002 -6.421081e-003 1.438435e+002
501510003.77501 -2.740954e-001 -1.760315e+002 -7.516706e+001 -1.457724e+002 -7.685218e+001 -1.336407e+002 -7.726463e-003 1.439989e+002
501887504.71876 -2.745388e-001 -1.762968e+002 -7.644732e+001 -1.209382e+002 -7.472540e+001 -1.294955e+002 -1.099498e-002 1.441263e+002
502265005.66251 -2.824752e-001 -1.764270e+002 -7.564108e+001 -1.399429e+002 -7.927123e+001 -1.540419e+002 -1.773995e-002 1.442700e+002
502642506.60627 -2.813735e-001 -1.766579e+002 -7.489311e+001 -1.301544e+002 -7.543272e+001 -1.520170e+002 -2.086690e-002 1.443955e+002
503020007.55002 -2.914068e-001 -1.768270e+002 -7.858649e+001 -1.184375e+002 -7.540533e+001 -1.431570e+002 -2.886745e-002 1.444546e+002
503397508.49377 -2.905439e-001 -1.769968e+002 -7.547083e+001 -1.129980e+002 -7.535586e+001 -1.320703e+002 -3.389908e-002 1.445403e+002
503775009.43752 -2.909502e-001 -1.772808e+002 -7.600869e+001 -1.256952e+002 -8.108286e+001 -1.786006e+002 -4.199214e-002 1.445968e+002
504152510.38128 -2.988681e-001 -1.773915e+002 -7.341787e+001 -1.444263e+002 -7.663499e+001 -1.508918e+002 -4.964496e-002 1.446133e+002
504530011.32503 -2.974518e-001 -1.776572e+002 -7.790678e+001 -1.533831e+002 -8.225660e+001 -1.328268e+002 -5.622573e-002 1.446630e+002
504907512.26878 -3.039891e-001 -1.777704e+002 -7.318601e+001 -1.412027e+002 -7.672135e+001 -1.473130e+002 -6.430196e-002 1.446624e+002
505285013.21253 -3.060975e-001 -1.779846e+002 -7.351476e+001 -1.378391e+002 -7.598206e+001 -1.718806e+002 -7.318728e-002 1.446487e+002
505662514.15629 -3.058726e-001 -1.781744e+002 -7.349886e+001 -1.503428e+002 -7.760946e+001 -1.755506e+002 -7.967829e-002 1.446084e+002
506040015.10004 -3.080936e-001 -1.783538e+002 -8.158754e+001 -1.731445e+002 -7.801522e+001 -1.626682e+002 -9.144114e-002 1.445296e+002
506417516.04379 -3.119165e-001 -1.786226e+002 -7.840958e+001 -1.327384e+002 -7.634092e+001 -1.612507e+002 -1.009818e-001 1.444439e+002
506795016.98754 -3.197457e-001 -1.787538e+002 -7.684206e+001 -1.607738e+002 -7.982003e+001 1.391605e+002 -1.077131e-001 1.442996e+002
507172517.93129 -3.203391e-001 -1.789669e+002 -7.616119e+001 -1.187386e+002 -7.731911e+001 -1.417858e+002 -1.155160e-001 1.441963e+002
507550018.87505 -3.225068e-001 -1.791394e+002 -7.437463e+001 -1.499731e+002 -7.738355e+001 -1.756653e+002 -1.248529e-001 1.440019e+002
507927519.8188 -3.274389e-001 -1.793748e+002 -7.325504e+001 -1.381223e+002 -8.010539e+001 1.799838e+002 -1.343185e-001 1.438542e+002
508305020.76255 -3.284007e-001 -1.796113e+002 -7.497797e+001 -1.515082e+002 -7.817237e+001 -1.646149e+002 -1.436717e-001 1.436386e+002
508682521.7063 -3.310616e-001 -1.798018e+002 -7.437681e+001 -1.621234e+002 -7.699613e+001 -1.211719e+002 -1.524142e-001 1.434386e+002
509060022.65006 -3.356765e-001 -1.799689e+002 -7.711764e+001 -1.582507e+002 -7.696318e+001 -1.573677e+002 -1.544722e-001 1.431594e+002
509437523.59381 -3.368243e-001 1.797832e+002 -7.767632e+001 -1.133279e+002 -7.720187e+001 -1.326376e+002 -1.588543e-001 1.429440e+002
509815024.53756 -3.359587e-001 1.796189e+002 -7.990812e+001 -1.474954e+002 -8.087726e+001 -1.174113e+002 -1.633297e-001 1.426594e+002
510192525.48131 -3.416080e-001 1.794257e+002 -7.604272e+001 -1.199514e+002 -7.981501e+001 -1.467455e+002 -1.663099e-001 1.423797e+002
510570026.42507 -3.478398e-001 1.792558e+002 -7.529331e+001 -1.534668e+002 -8.236144e+001 -1.638864e+002 -1.701301e-001 1.420940e+002
510947527.36882 -3.463081e-001 1.790181e+002 -7.949043e+001 -1.342601e+002 -7.686155e+001 -1.569357e+002 -1.718674e-001 1.417924e+002
511325028.31257 -3.511002e-001 1.788625e+002 -7.260617e+001 -1.461185e+002 -7.467363e+001 -1.755433e+002 -1.709057e-001 1.414859e+002
511702529.25632 -3.475606e-001 1.785733e+002 -7.217975e+001 -1.523284e+002 -7.562962e+001 -1.498505e+002 -1.734203e-001 1.412053e+002
512080030.20008 -3.528296e-001 1.783868e+002 -7.445107e+001 -1.513349e+002 -7.452489e+001 -1.576400e+002 -1.723060e-001 1.408889e+002
512457531.14383 -3.548236e-001 1.782058e+002 -7.672499e+001 -1.504621e+002 -7.602307e+001 -1.609643e+002 -1.663210e-001 1.406170e+002
512835032.08758 -3.566561e-001 1.779670e+002 -7.235594e+001 -1.616211e+002 -8.027536e+001 -1.570668e+002 -1.651106e-001 1.403244e+002
513212533.03133 -3.552300e-001 1.777260e+002 -7.422578e+001 -1.665013e+002 -7.692896e+001 -1.607688e+002 -1.620221e-001 1.400200e+002
513590033.97508 -3.579922e-001 1.775086e+002 -7.401952e+001 -1.604067e+002 -7.305103e+001 -1.687610e+002 -1.557787e-001 1.397749e+002
513967534.91884 -3.589502e-001 1.773334e+002 -7.350024e+001 -1.379292e+002 -7.455717e+001 -1.489719e+002 -1.468558e-001 1.394957e+002
514345035.86259 -3.590416e-001 1.770813e+002 -7.458176e+001 -1.658982e+002 -7.314337e+001 -1.584927e+002 -1.451041e-001 1.393066e+002
514722536.80634 -3.654423e-001 1.769033e+002 -7.126439e+001 -1.572845e+002 -7.449606e+001 -1.779899e+002 -1.391709e-001 1.391025e+002
515100037.75009 -3.668210e-001 1.767375e+002 -7.273796e+001 -1.713127e+002 -7.421630e+001 1.515708e+002 -1.261694e-001 1.389228e+002
515477538.69385 -3.693470e-001 1.764288e+002 -7.607333e+001 -1.567691e+002 -7.740134e+001 -1.780921e+002 -1.195763e-001 1.387410e+002
515855039.6376 -3.673120e-001 1.762440e+002 -7.486371e+001 -1.705560e+002 -7.615341e+001 -1.710764e+002 -1.099750e-001 1.386236e+002
516232540.58135 -3.733621e-001 1.760649e+002 -7.304601e+001 1.671690e+002 -7.715473e+001 1.677209e+002 -1.007717e-001 1.385208e+002
516610041.5251 -3.780907e-001 1.758183e+002 -7.215981e+001 -1.794068e+002 -7.547949e+001 1.655480e+002 -9.262992e-002 1.384478e+002
516987542.46886 -3.729385e-001 1.755921e+002 -7.703379e+001 -1.583021e+002 -7.246484e+001 1.718944e+002 -8.471719e-002 1.383814e+002
517365043.41261 -3.809540e-001 1.754438e+002 -7.212135e+001 1.748875e+002 -7.720271e+001 1.429454e+002 -7.470540e-002 1.383316e+002
517742544.35636 -3.809622e-001 1.751472e+002 -7.379223e+001 -1.727580e+002 -7.552171e+001 1.679377e+002 -6.465101e-002 1.383615e+002
518120045.30011 -3.856474e-001 1.750158e+002 -7.448129e+001 1.754440e+002 -7.504000e+001 1.658482e+002 -5.205517e-002 1.383792e+002
518497546.24387 -3.877593e-001 1.748126e+002 -7.198971e+001 -1.695187e+002 -7.525165e+001 1.551495e+002 -4.266574e-002 1.384375e+002
518875047.18762 -3.895615e-001 1.745588e+002 -7.206013e+001 -1.672558e+002 -7.622814e+001 1.382444e+002 -3.337446e-002 1.385247e+002
519252548.13137 -3.955960e-001 1.743803e+002 -7.336617e+001 -1.672021e+002 -7.701019e+001 1.696474e+002 -2.875478e-002 1.386138e+002
519630049.07512 -4.018250e-001 1.741501e+002 -7.408224e+001 1.464808e+002 -7.329391e+001 1.694612e+002 -2.062189e-002 1.387598e+002
520007550.01888 -4.016418e-001 1.738649e+002 -7.545685e+001 1.586665e+002 -7.469924e+001 1.449472e+002 -1.433361e-002 1.388336e+002
520385050.96263 -4.044756e-001 1.737166e+002 -7.626270e+001 1.591186e+002 -7.978157e+001 1.645489e+002 -8.674860e-003 1.390550e+002
520762551.90638 -4.090583e-001 1.735451e+002 -7.532327e+001 -1.743716e+002 -7.568147e+001 1.301525e+002 -2.962474e-003 1.392376e+002
521140052.85013 -4.121296e-001 1.732928e+002 -7.546783e+001 -1.715217e+002 -7.808834e+001 -1.599219e+002 4.138740e-003 1.393980e+002
521517553.79388 -4.144196e-001 1.730951e+002 -7.619241e+001 1.791850e+002 -7.899030e+001 1.598943e+002 6.040960e-003 1.396178e+002
521895054.73764 -4.151480e-001 1.729241e+002 -7.222926e+001 1.652338e+002 -8.062251e+001 -1.696361e+002 5.561783e-003 1.398210e+002
522272555.68139 -4.182957e-001 1.726805e+002 -7.142947e+001 1.726506e+002 -7.624084e+001 -1.645522e+002 9.280033e-003 1.400447e+002
522650056.62514 -4.222915e-001 1.725024e+002 -7.551688e+001 -1.778785e+002 -1.036748e+002 -7.615114e+001 7.588081e-003 1.402535e+002
523027557.56889 -4.269172e-001 1.723106e+002 -7.448212e+001 1.538694e+002 -8.079568e+001 1.595703e+002 5.149732e-003 1.404948e+002
523405058.51265 -4.254524e-001 1.720743e+002 -7.280424e+001 1.712106e+002 -7.621754e+001 1.638567e+002 8.547649e-003 1.407569e+002
523782559.4564 -4.294053e-001 1.718778e+002 -7.612922e+001 1.625087e+002 -7.577577e+001 1.697489e+002 5.398058e-003 1.409084e+002
524160060.40015 -4.316449e-001 1.716264e+002 -7.619419e+001 1.685875e+002 -7.433313e+001 1.533868e+002 2.945874e-003 1.410984e+002
524537561.3439 -4.324193e-001 1.714505e+002 -7.250761e+001 -1.788087e+002 -7.505516e+001 -1.799299e+002 -4.398459e-003 1.412887e+002
524915062.28766 -4.376184e-001 1.711853e+002 -7.291973e+001 1.590703e+002 -7.434378e+001 1.658731e+002 -9.124374e-003 1.414842e+002
525292563.23141 -4.365132e-001 1.708888e+002 -7.253388e+001 1.654160e+002 -7.462745e+001 -1.765122e+002 -1.382370e-002 1.416229e+002
525670064.17516 -4.371903e-001 1.707255e+002 -7.103159e+001 1.728615e+002 -7.505370e+001 1.637914e+002 -2.127947e-002 1.417478e+002
526047565.11891 -4.428477e-001 1.704571e+002 -7.314307e+001 1.691251e+002 -7.906856e+001 -1.687867e+002 -3.200672e-002 1.418703e+002
526425066.06267 -4.461681e-001 1.702168e+002 -7.382049e+001 -1.701349e+002 -7.375027e+001 1.752588e+002 -4.311829e-002 1.419859e+002
526802567.00642 -4.476817e-001 1.700029e+002 -7.321346e+001 1.781299e+002 -7.187364e+001 1.674013e+002 -4.884076e-002 1.420559e+002
527180067.95017 -4.547929e-001 1.698248e+002 -7.106252e+001 1.747068e+002 -7.331639e+001 1.635968e+002 -5.807212e-002 1.421105e+002
527557568.89392 -4.578800e-001 1.695763e+002 -7.339286e+001 1.562696e+002 -7.195354e+001 1.662243e+002 -6.650928e-002 1.421171e+002
527935069.83767 -4.618732e-001 1.693888e+002 -7.214159e+001 1.570946e+002 -7.714286e+001 1.520923e+002 -7.619271e-002 1.421148e+002
528312570.78143 -4.643056e-001 1.691404e+002 -7.082077e+001 1.691452e+002 -7.197970e+001 1.435002e+002 -8.694335e-002 1.420782e+002
528690071.72518 -4.670433e-001 1.689483e+002 -7.279295e+001 1.645260e+002 -7.275595e+001 1.406165e+002 -9.592284e-002 1.420317e+002
529067572.66893 -4.698420e-001 1.686874e+002 -7.058536e+001 1.574187e+002 -7.336392e+001 1.371546e+002 -1.125086e-001 1.419361e+002
529445073.61268 -4.707821e-001 1.684446e+002 -7.264426e+001 1.422249e+002 -7.287879e+001 1.390938e+002 -1.181051e-001 1.418288e+002
529822574.55644 -4.723314e-001 1.682076e+002 -7.214834e+001 1.428954e+002 -7.453188e+001 1.324983e+002 -1.306398e-001 1.416469e+002
530200075.50019 -4.770241e-001 1.678915e+002 -7.293668e+001 1.329240e+002 -7.278926e+001 1.285193e+002 -1.372792e-001 1.414834e+002
530577576.44394 -4.842538e-001 1.676628e+002 -7.403017e+001 1.485607e+002 -7.258525e+001 1.221416e+002 -1.484623e-001 1.413060e+002
530955077.38769 -4.878901e-001 1.674100e+002 -7.247391e+001 1.536308e+002 -7.282030e+001 1.057957e+002 -1.598065e-001 1.410716e+002
531332578.33145 -4.898037e-001 1.672026e+002 -7.219542e+001 1.378085e+002 -7.424158e+001 1.434557e+002 -1.624682e-001 1.408191e+002
531710079.2752 -4.947796e-001 1.669164e+002 -7.127885e+001 1.389207e+002 -7.079176e+001 1.143354e+002 -1.733327e-001 1.405410e+002
532087580.21895 -5.004713e-001 1.667575e+002 -7.420444e+001 1.617085e+002 -7.522899e+001 1.156410e+002 -1.755767e-001 1.402783e+002
532465081.1627 -5.040568e-001 1.664443e+002 -7.460048e+001 1.456643e+002 -7.406276e+001 1.290735e+002 -1.846539e-001 1.399865e+002
532842582.10646 -5.078042e-001 1.662321e+002 -7.249390e+001 1.632782e+002 -7.494894e+001 1.279158e+002 -1.873908e-001 1.396766e+002
533220083.05021 -5.143933e-001 1.659837e+002 -7.185687e+001 1.470709e+002 -7.384887e+001 1.303226e+002 -1.930694e-001 1.393508e+002
533597583.99396 -5.222412e-001 1.657818e+002 -7.204592e+001 1.352634e+002 -7.620406e+001 1.280206e+002 -1.938809e-001 1.390666e+002
533975084.93771 -5.255595e-001 1.654717e+002 -7.176184e+001 1.329174e+002 -7.651490e+001 1.289070e+002 -1.945842e-001 1.387090e+002
534352585.88146 -5.301070e-001 1.652725e+002 -7.152065e+001 1.493811e+002 -7.410604e+001 1.347712e+002 -1.924487e-001 1.383607e+002
534730086.82522 -5.359532e-001 1.650494e+002 -7.176282e+001 1.654601e+002 -7.470405e+001 1.201086e+002 -1.969734e-001 1.380375e+002
535107587.76897 -5.441629e-001 1.648554e+002 -7.089405e+001 1.522990e+002 -7.615623e+001 1.254768e+002 -1.936280e-001 1.377191e+002
535485088.71272 -5.459352e-001 1.645453e+002 -7.404438e+001 1.356074e+002 -7.336824e+001 1.538155e+002 -1.909263e-001 1.374086e+002
535862589.65647 -5.515759e-001 1.643118e+002 -7.030430e+001 1.324718e+002 -7.303256e+001 1.356456e+002 -1.857175e-001 1.370961e+002
536240090.60023 -5.523776e-001 1.641065e+002 -7.165224e+001 1.391564e+002 -7.612596e+001 1.192420e+002 -1.817517e-001 1.368176e+002
536617591.54398 -5.601211e-001 1.638178e+002 -7.277547e+001 1.315659e+002 -7.318203e+001 1.188206e+002 -1.755879e-001 1.365139e+002
536995092.48773 -5.683154e-001 1.636966e+002 -7.247062e+001 1.404347e+002 -7.272473e+001 1.195424e+002 -1.688401e-001 1.362719e+002
537372593.43148 -5.671433e-001 1.633683e+002 -7.238754e+001 1.356935e+002 -7.451411e+001 1.178176e+002 -1.595603e-001 1.360310e+002
537750094.37524 -5.721467e-001 1.631873e+002 -7.256428e+001 1.181960e+002 -7.247414e+001 1.272225e+002 -1.524434e-001 1.358228e+002
538127595.31899 -5.745820e-001 1.629573e+002 -7.338633e+001 1.229992e+002 -7.263097e+001 1.251727e+002 -1.480327e-001 1.356184e+002
538505096.26274 -5.790199e-001 1.627511e+002 -7.314735e+001 1.200595e+002 -7.368160e+001 1.258913e+002 -1.360393e-001 1.354776e+002
538882597.20649 -5.834869e-001 1.625236e+002 -7.194743e+001 1.451651e+002 -7.565845e+001 1.326657e+002 -1.257716e-001 1.352836e+002
539260098.15025 -5.864800e-001 1.622128e+002 -7.287006e+001 1.507897e+002 -7.198170e+001 1.172598e+002 -1.143633e-001 1.351712e+002
539637599.094 -5.913944e-001 1.620043e+002 -7.229119e+001 1.418696e+002 -7.322110e+001 1.313067e+002 -1.095617e-001 1.350555e+002
540015100.03775 -5.969934e-001 1.617716e+002 -6.986603e+001 1.284612e+002 -7.309852e+001 1.231030e+002 -9.572285e-002 1.350385e+002
540392600.9815 -6.010864e-001 1.616086e+002 -6.978638e+001 1.305359e+002 -7.306702e+001 1.363698e+002 -8.749513e-002 1.349032e+002
540770101.92525 -6.084388e-001 1.613299e+002 -7.146513e+001 1.169210e+002 -7.251283e+001 1.043348e+002 -8.014096e-002 1.349158e+002
541147602.86901 -6.089756e-001 1.611209e+002 -7.249915e+001 1.397513e+002 -7.828115e+001 1.186631e+002 -7.617128e-002 1.349012e+002
541525103.81276 -6.074484e-001 1.607938e+002 -7.310117e+001 1.196925e+002 -7.221580e+001 1.262420e+002 -6.500388e-002 1.348982e+002
541902604.75651 -6.166992e-001 1.606067e+002 -7.102456e+001 1.356766e+002 -7.153418e+001 1.143312e+002 -5.944280e-002 1.349514e+002
542280105.70026 -6.255275e-001 1.604092e+002 -6.890881e+001 1.281718e+002 -7.332436e+001 1.099064e+002 -4.843643e-002 1.349870e+002
542657606.64402 -6.217288e-001 1.600939e+002 -7.037405e+001 1.270719e+002 -7.235649e+001 1.313552e+002 -4.697962e-002 1.350693e+002
543035107.58777 -6.312716e-001 1.599473e+002 -7.030751e+001 1.217748e+002 -7.340882e+001 1.011696e+002 -3.887771e-002 1.351468e+002
543412608.53152 -6.306653e-001 1.596286e+002 -7.142155e+001 1.198855e+002 -7.186267e+001 1.093227e+002 -3.534937e-002 1.352503e+002
543790109.47527 -6.347885e-001 1.594428e+002 -7.222369e+001 1.244094e+002 -7.119859e+001 1.054611e+002 -3.072543e-002 1.353461e+002
544167610.41903 -6.429685e-001 1.592427e+002 -6.908372e+001 1.149320e+002 -7.258550e+001 1.257670e+002 -2.563875e-002 1.354745e+002
544545111.36278 -6.382060e-001 1.589791e+002 -7.222933e+001 1.152649e+002 -7.124347e+001 1.121478e+002 -2.382387e-002 1.356188e+002
544922612.30653 -6.422346e-001 1.586720e+002 -6.878111e+001 1.193930e+002 -7.168139e+001 1.186283e+002 -1.774941e-002 1.357501e+002
545300113.25028 -6.463427e-001 1.584223e+002 -7.140357e+001 1.078303e+002 -7.386717e+001 1.017117e+002 -1.611932e-002 1.358935e+002
545677614.19404 -6.463136e-001 1.582021e+002 -6.962004e+001 1.204933e+002 -7.366988e+001 1.169198e+002 -1.798029e-002 1.360258e+002
546055115.13779 -6.526062e-001 1.579904e+002 -7.153850e+001 1.217077e+002 -7.437393e+001 1.022217e+002 -1.635979e-002 1.362008e+002
546432616.08154 -6.580872e-001 1.576694e+002 -6.941660e+001 1.093098e+002 -6.971146e+001 1.070226e+002 -1.681012e-002 1.363424e+002
546810117.02529 -6.629128e-001 1.573694e+002 -6.738036e+001 1.134059e+002 -7.014412e+001 1.022998e+002 -1.862254e-002 1.364784e+002
547187617.96904 -6.661507e-001 1.571562e+002 -6.856197e+001 1.170102e+002 -7.063426e+001 9.792126e+001 -1.898162e-002 1.366243e+002
547565118.9128 -6.745416e-001 1.569184e+002 -6.994724e+001 1.100238e+002 -6.954946e+001 8.227955e+001 -2.077243e-002 1.367583e+002
547942619.85655 -6.837108e-001 1.566251e+002 -7.037192e+001 9.577922e+001 -7.244636e+001 1.006861e+002 -2.038430e-002 1.368924e+002
548320120.8003 -6.917738e-001 1.563562e+002 -6.887047e+001 1.090775e+002 -7.038512e+001 9.168430e+001 -2.689203e-002 1.370071e+002
548697621.74405 -6.972848e-001 1.561504e+002 -7.008357e+001 9.459534e+001 -7.075821e+001 8.680222e+001 -3.125001e-002 1.371254e+002
549075122.68781 -7.026419e-001 1.558512e+002 -6.911143e+001 9.197292e+001 -7.194087e+001 7.646329e+001 -3.731314e-002 1.372818e+002
549452623.63156 -7.144432e-001 1.556524e+002 -7.018639e+001 8.610495e+001 -7.008930e+001 6.663643e+001 -4.252077e-002 1.373186e+002
549830124.57531 -7.175890e-001 1.553900e+002 -6.849819e+001 9.043551e+001 -7.168906e+001 8.660967e+001 -4.594847e-002 1.373946e+002
550207625.51906 -7.241524e-001 1.550906e+002 -6.950708e+001 8.587155e+001 -7.430473e+001 7.939802e+001 -5.487403e-002 1.374458e+002
550585126.46282 -7.286269e-001 1.547800e+002 -6.942033e+001 8.673107e+001 -7.367690e+001 8.285732e+001 -5.997860e-002 1.374811e+002
550962627.40657 -7.327449e-001 1.545281e+002 -7.013988e+001 8.519575e+001 -7.211525e+001 6.477670e+001 -6.679089e-002 1.375162e+002
551340128.35032 -7.406466e-001 1.542939e+002 -7.058175e+001 9.042223e+001 -7.544038e+001 6.694006e+001 -7.583150e-002 1.375323e+002
551717629.29407 -7.489405e-001 1.539596e+002 -7.229845e+001 7.644361e+001 -7.356219e+001 6.547221e+001 -7.999931e-002 1.375223e+002
552095130.23783 -7.526826e-001 1.536829e+002 -7.250675e+001 7.915251e+001 -7.157175e+001 6.960790e+001 -8.755121e-002 1.375056e+002
552472631.18158 -7.584453e-001 1.533939e+002 -7.205641e+001 1.027084e+002 -7.424612e+001 7.081184e+001 -9.561200e-002 1.374461e+002
552850132.12533 -7.640937e-001 1.531815e+002 -7.046193e+001 1.036736e+002 -7.384490e+001 6.466602e+001 -1.035614e-001 1.373640e+002
553227633.06908 -7.729533e-001 1.528154e+002 -7.338425e+001 9.075389e+001 -7.396754e+001 7.620663e+001 -1.100699e-001 1.373124e+002
553605134.01284 -7.784259e-001 1.525633e+002 -7.129681e+001 9.835563e+001 -7.293526e+001 7.749485e+001 -1.146616e-001 1.371597e+002
553982634.95659 -7.948675e-001 1.523127e+002 -6.960339e+001 9.205820e+001 -7.222373e+001 6.856749e+001 -1.286704e-001 1.371227e+002
554360135.90034 -8.049446e-001 1.520271e+002 -7.264561e+001 1.090662e+002 -7.462881e+001 8.459900e+001 -1.320434e-001 1.369685e+002
554737636.84409 -8.130713e-001 1.517034e+002 -7.164322e+001 9.922036e+001 -7.407185e+001 8.199361e+001 -1.412169e-001 1.368322e+002
555115137.78784 -8.212991e-001 1.514156e+002 -7.128192e+001 8.739600e+001 -7.581396e+001 1.010835e+002 -1.464987e-001 1.366724e+002
555492638.7316 -8.328317e-001 1.511110e+002 -6.886746e+001 8.588011e+001 -7.161681e+001 9.917439e+001 -1.487958e-001 1.364536e+002
