!Agilent Technologies,E8364B,US42250235,A.06.04.32
!Agilent E8364B: A.06.04.32
!Date: Thursday, October 01, 2020 15:31:54
!Correction: S11(Full 2 Port(1,2)) S21(Full 2 Port(1,2)) S12(Full 2 Port(1,2)) S22(Full 2 Port(1,2)) 
!S2P File: Measurements: S11, S21, S12, S22:
# Hz S  dB   R 50
500000000 -1.830992e-001 -1.755997e+002 -7.064209e+001 -9.841553e+001 -7.020753e+001 -1.047528e+002 7.700615e-002 1.440238e+002
500377500.94375 -1.821896e-001 -1.758736e+002 -6.895349e+001 -8.274615e+001 -6.934566e+001 -8.724740e+001 7.298007e-002 1.441490e+002
500755001.8875 -1.888692e-001 -1.759887e+002 -7.034402e+001 -9.955693e+001 -7.069891e+001 -9.964028e+001 7.357828e-002 1.442136e+002
501132502.83126 -1.916655e-001 -1.762775e+002 -6.843103e+001 -8.479591e+001 -6.866132e+001 -1.016925e+002 6.494167e-002 1.443090e+002
501510003.77501 -1.939435e-001 -1.764768e+002 -6.974137e+001 -8.480914e+001 -6.941372e+001 -1.054901e+002 6.084615e-002 1.443703e+002
501887504.71876 -1.971425e-001 -1.766750e+002 -6.837457e+001 -9.277186e+001 -6.824493e+001 -9.611137e+001 5.552691e-002 1.444112e+002
502265005.66251 -1.999842e-001 -1.769088e+002 -6.761568e+001 -9.950719e+001 -6.970423e+001 -1.082923e+002 4.799685e-002 1.444622e+002
502642506.60627 -1.984847e-001 -1.770935e+002 -6.892891e+001 -9.578580e+001 -6.740010e+001 -1.049054e+002 4.198621e-002 1.445126e+002
503020007.55002 -2.062736e-001 -1.773677e+002 -6.729697e+001 -9.565517e+001 -6.909357e+001 -9.886119e+001 3.527349e-002 1.444792e+002
503397508.49377 -2.070851e-001 -1.775617e+002 -6.720580e+001 -8.651854e+001 -6.833131e+001 -1.016218e+002 2.935834e-002 1.444530e+002
503775009.43752 -2.051523e-001 -1.778181e+002 -6.820867e+001 -9.461222e+001 -6.925666e+001 -9.698165e+001 2.410829e-002 1.444343e+002
504152510.38128 -2.125895e-001 -1.780145e+002 -6.803756e+001 -1.092770e+002 -6.790206e+001 -1.046476e+002 1.662289e-002 1.443585e+002
504530011.32503 -2.125251e-001 -1.782865e+002 -6.746481e+001 -1.087213e+002 -6.848959e+001 -9.988036e+001 7.954274e-003 1.442917e+002
504907512.26878 -2.181505e-001 -1.784647e+002 -6.836799e+001 -1.201743e+002 -6.897816e+001 -1.151001e+002 2.816708e-003 1.442086e+002
505285013.21253 -2.246236e-001 -1.786308e+002 -6.790115e+001 -9.647031e+001 -6.678503e+001 -1.061040e+002 -3.927749e-003 1.441255e+002
505662514.15629 -2.255455e-001 -1.788909e+002 -6.814053e+001 -1.022694e+002 -6.811626e+001 -1.040628e+002 -1.363478e-002 1.440179e+002
506040015.10004 -2.275454e-001 -1.791447e+002 -6.913971e+001 -1.113394e+002 -6.782142e+001 -1.123476e+002 -1.740590e-002 1.438565e+002
506417516.04379 -2.339229e-001 -1.793966e+002 -6.800636e+001 -1.138968e+002 -6.972589e+001 -1.020677e+002 -2.374472e-002 1.437168e+002
506795016.98754 -2.402909e-001 -1.795813e+002 -6.773836e+001 -1.087703e+002 -6.904028e+001 -1.105574e+002 -2.686430e-002 1.435390e+002
507172517.93129 -2.426523e-001 -1.797637e+002 -6.818233e+001 -1.004052e+002 -6.697964e+001 -1.113173e+002 -3.056252e-002 1.433806e+002
507550018.87505 -2.472368e-001 1.799739e+002 -6.699957e+001 -1.109102e+002 -6.698027e+001 -1.060210e+002 -3.288637e-002 1.431671e+002
507927519.8188 -2.497828e-001 1.797804e+002 -6.615297e+001 -9.429288e+001 -6.773341e+001 -1.046812e+002 -4.053583e-002 1.429934e+002
508305020.76255 -2.525926e-001 1.794773e+002 -6.841866e+001 -1.068135e+002 -6.820499e+001 -1.039053e+002 -4.147198e-002 1.427865e+002
508682521.7063 -2.582346e-001 1.792861e+002 -6.668745e+001 -1.050684e+002 -6.696554e+001 -1.078389e+002 -4.953336e-002 1.425748e+002
509060022.65006 -2.624842e-001 1.790844e+002 -6.704111e+001 -1.064651e+002 -6.863527e+001 -9.906499e+001 -4.936702e-002 1.423184e+002
509437523.59381 -2.642815e-001 1.787775e+002 -6.729534e+001 -1.133245e+002 -6.560623e+001 -1.048392e+002 -4.692416e-002 1.421441e+002
509815024.53756 -2.688628e-001 1.786287e+002 -6.702204e+001 -1.139333e+002 -6.865517e+001 -1.072610e+002 -5.053299e-002 1.418861e+002
510192525.48131 -2.743256e-001 1.783980e+002 -6.600495e+001 -1.151951e+002 -6.638383e+001 -1.055703e+002 -4.790923e-002 1.416805e+002
510570026.42507 -2.812964e-001 1.781151e+002 -6.806548e+001 -1.085756e+002 -6.738967e+001 -1.127806e+002 -4.531018e-002 1.414450e+002
510947527.36882 -2.859774e-001 1.779586e+002 -6.835902e+001 -1.161581e+002 -6.534035e+001 -1.132902e+002 -4.594980e-002 1.412228e+002
511325028.31257 -2.893641e-001 1.776873e+002 -6.674146e+001 -1.093253e+002 -6.646129e+001 -1.148921e+002 -4.415553e-002 1.410070e+002
511702529.25632 -2.920870e-001 1.774499e+002 -6.628522e+001 -9.701678e+001 -6.645525e+001 -1.166903e+002 -4.102727e-002 1.407968e+002
512080030.20008 -3.010965e-001 1.771660e+002 -6.613736e+001 -1.163692e+002 -6.586598e+001 -1.174712e+002 -3.827460e-002 1.406018e+002
512457531.14383 -3.061316e-001 1.769749e+002 -6.710854e+001 -1.147490e+002 -6.634570e+001 -1.170311e+002 -3.141111e-002 1.404196e+002
512835032.08758 -3.081997e-001 1.767794e+002 -6.753687e+001 -1.140984e+002 -6.688303e+001 -1.168040e+002 -2.806194e-002 1.402436e+002
513212533.03133 -3.137839e-001 1.764674e+002 -6.522407e+001 -1.132129e+002 -6.572878e+001 -1.143201e+002 -2.256248e-002 1.400543e+002
513590033.97508 -3.183847e-001 1.762798e+002 -6.567814e+001 -1.178637e+002 -6.754932e+001 -1.202082e+002 -1.524720e-002 1.399383e+002
513967534.91884 -3.266460e-001 1.760849e+002 -6.672419e+001 -1.116972e+002 -6.693431e+001 -1.229466e+002 -8.066211e-003 1.397633e+002
514345035.86259 -3.320494e-001 1.757907e+002 -6.677523e+001 -1.112670e+002 -6.789146e+001 -1.193984e+002 -5.736573e-003 1.396906e+002
514722536.80634 -3.363488e-001 1.756329e+002 -6.651710e+001 -1.082568e+002 -6.686882e+001 -1.143789e+002 -3.366153e-004 1.395866e+002
515100037.75009 -3.386352e-001 1.753641e+002 -6.723305e+001 -1.244222e+002 -6.656750e+001 -1.194138e+002 9.854908e-003 1.395070e+002
515477538.69385 -3.423276e-001 1.751220e+002 -6.570206e+001 -1.207148e+002 -6.571486e+001 -1.213279e+002 1.600375e-002 1.394504e+002
515855039.6376 -3.491223e-001 1.749353e+002 -6.601836e+001 -1.298799e+002 -6.721019e+001 -1.295658e+002 2.317275e-002 1.393997e+002
516232540.58135 -3.562725e-001 1.746409e+002 -6.611012e+001 -1.186773e+002 -6.638976e+001 -1.246946e+002 3.094671e-002 1.393731e+002
516610041.5251 -3.650883e-001 1.744493e+002 -6.517159e+001 -1.198484e+002 -6.570876e+001 -1.089217e+002 3.337374e-002 1.393821e+002
516987542.46886 -3.650233e-001 1.741895e+002 -6.609597e+001 -1.126100e+002 -6.670335e+001 -1.177606e+002 3.793173e-002 1.393804e+002
517365043.41261 -3.738660e-001 1.739504e+002 -6.569549e+001 -1.135498e+002 -6.688879e+001 -1.183022e+002 4.672907e-002 1.393868e+002
517742544.35636 -3.782783e-001 1.736645e+002 -6.594797e+001 -1.203198e+002 -6.566700e+001 -1.224616e+002 5.141723e-002 1.394640e+002
518120045.30011 -3.885601e-001 1.734730e+002 -6.590462e+001 -1.163782e+002 -6.622336e+001 -1.210558e+002 5.928471e-002 1.395188e+002
518497546.24387 -3.936746e-001 1.732476e+002 -6.524525e+001 -1.188096e+002 -6.532743e+001 -1.236777e+002 6.257919e-002 1.396005e+002
518875047.18762 -4.049023e-001 1.730116e+002 -6.492916e+001 -1.270228e+002 -6.532035e+001 -1.259303e+002 6.813215e-002 1.396823e+002
519252548.13137 -4.134393e-001 1.727642e+002 -6.565021e+001 -1.216983e+002 -6.475424e+001 -1.278134e+002 7.009563e-002 1.397908e+002
519630049.07512 -4.229593e-001 1.725526e+002 -6.455325e+001 -1.258602e+002 -6.533340e+001 -1.230405e+002 7.290485e-002 1.399156e+002
520007550.01888 -4.323722e-001 1.722693e+002 -6.519999e+001 -1.307079e+002 -6.609427e+001 -1.212724e+002 7.537784e-002 1.400107e+002
520385050.96263 -4.397708e-001 1.720961e+002 -6.585048e+001 -1.185236e+002 -6.496019e+001 -1.284434e+002 7.644482e-002 1.401365e+002
520762551.90638 -4.456979e-001 1.718038e+002 -6.503432e+001 -1.220802e+002 -6.583900e+001 -1.260449e+002 8.249519e-002 1.402883e+002
521140052.85013 -4.569970e-001 1.715506e+002 -6.465947e+001 -1.281349e+002 -6.495955e+001 -1.212099e+002 8.469374e-002 1.404075e+002
521517553.79388 -4.678782e-001 1.713498e+002 -6.491892e+001 -1.265185e+002 -6.504536e+001 -1.244832e+002 8.327989e-002 1.405835e+002
521895054.73764 -4.791207e-001 1.711008e+002 -6.405654e+001 -1.284620e+002 -6.490442e+001 -1.302166e+002 8.179963e-002 1.407145e+002
522272555.68139 -4.893401e-001 1.709067e+002 -6.517140e+001 -1.231054e+002 -6.475050e+001 -1.281975e+002 8.224331e-002 1.408663e+002
522650056.62514 -5.006981e-001 1.706325e+002 -6.428343e+001 -1.216923e+002 -6.491964e+001 -1.295861e+002 7.881348e-002 1.409885e+002
523027557.56889 -5.146893e-001 1.704193e+002 -6.461947e+001 -1.285202e+002 -6.488354e+001 -1.244493e+002 7.805990e-002 1.411547e+002
523405058.51265 -5.205255e-001 1.702001e+002 -6.409392e+001 -1.262283e+002 -6.462177e+001 -1.281935e+002 7.906615e-002 1.413353e+002
523782559.4564 -5.327251e-001 1.699590e+002 -6.384060e+001 -1.284877e+002 -6.459151e+001 -1.308957e+002 7.202352e-002 1.413873e+002
524160060.40015 -5.408460e-001 1.697220e+002 -6.427682e+001 -1.382148e+002 -6.396800e+001 -1.341083e+002 6.839700e-002 1.415002e+002
524537561.3439 -5.534120e-001 1.695167e+002 -6.536480e+001 -1.247344e+002 -6.397443e+001 -1.257131e+002 6.244906e-002 1.416024e+002
524915062.28766 -5.630938e-001 1.693033e+002 -6.485311e+001 -1.296664e+002 -6.474252e+001 -1.321721e+002 6.090746e-002 1.417193e+002
525292563.23141 -5.726129e-001 1.690284e+002 -6.381006e+001 -1.276254e+002 -6.487165e+001 -1.255949e+002 5.456045e-002 1.417824e+002
525670064.17516 -5.829359e-001 1.688338e+002 -6.436127e+001 -1.291530e+002 -6.367958e+001 -1.307827e+002 4.850205e-002 1.418400e+002
526047565.11891 -5.895167e-001 1.685670e+002 -6.383801e+001 -1.335444e+002 -6.365789e+001 -1.359796e+002 4.124425e-002 1.418805e+002
526425066.06267 -6.053713e-001 1.683051e+002 -6.393581e+001 -1.305334e+002 -6.329670e+001 -1.289475e+002 3.325025e-002 1.419381e+002
526802567.00642 -6.188861e-001 1.680403e+002 -6.382464e+001 -1.292572e+002 -6.255252e+001 -1.326871e+002 2.754370e-002 1.419185e+002
527180067.95017 -6.288680e-001 1.678101e+002 -6.354095e+001 -1.320853e+002 -6.364610e+001 -1.342174e+002 2.167723e-002 1.419442e+002
527557568.89392 -6.433774e-001 1.676274e+002 -6.308295e+001 -1.359322e+002 -6.302831e+001 -1.307097e+002 1.746178e-002 1.419133e+002
527935069.83767 -6.581554e-001 1.673524e+002 -6.285357e+001 -1.386209e+002 -6.353466e+001 -1.325726e+002 8.362219e-003 1.418674e+002
528312570.78143 -6.670584e-001 1.671155e+002 -6.295904e+001 -1.384127e+002 -6.482088e+001 -1.359426e+002 3.088642e-003 1.418098e+002
528690071.72518 -6.811560e-001 1.669441e+002 -6.306049e+001 -1.377610e+002 -6.263136e+001 -1.294574e+002 -1.872869e-003 1.417234e+002
529067572.66893 -6.969711e-001 1.666633e+002 -6.254638e+001 -1.375342e+002 -6.394087e+001 -1.409691e+002 -1.270126e-002 1.416126e+002
529445073.61268 -7.103032e-001 1.665058e+002 -6.317014e+001 -1.312403e+002 -6.317287e+001 -1.353017e+002 -1.990125e-002 1.415198e+002
529822574.55644 -7.225474e-001 1.662112e+002 -6.288329e+001 -1.400825e+002 -6.266219e+001 -1.377014e+002 -2.895525e-002 1.413670e+002
530200075.50019 -7.381810e-001 1.659839e+002 -6.290625e+001 -1.470285e+002 -6.241590e+001 -1.422641e+002 -2.972971e-002 1.411948e+002
530577576.44394 -7.515646e-001 1.657335e+002 -6.217181e+001 -1.416819e+002 -6.293297e+001 -1.382834e+002 -3.846486e-002 1.410256e+002
530955077.38769 -7.691095e-001 1.655294e+002 -6.233512e+001 -1.440336e+002 -6.222372e+001 -1.428018e+002 -4.452969e-002 1.408317e+002
531332578.33145 -7.812775e-001 1.653660e+002 -6.298458e+001 -1.474173e+002 -6.354609e+001 -1.422583e+002 -4.883712e-002 1.406320e+002
531710079.2752 -7.979099e-001 1.650776e+002 -6.200446e+001 -1.419840e+002 -6.184487e+001 -1.462359e+002 -5.531813e-002 1.403844e+002
532087580.21895 -8.123459e-001 1.648958e+002 -6.194000e+001 -1.464173e+002 -6.157792e+001 -1.407258e+002 -5.687338e-002 1.401597e+002
532465081.1627 -8.297523e-001 1.647203e+002 -6.232503e+001 -1.506323e+002 -6.151150e+001 -1.435079e+002 -6.191802e-002 1.399238e+002
532842582.10646 -8.442611e-001 1.645103e+002 -6.213512e+001 -1.471253e+002 -6.167677e+001 -1.466899e+002 -6.151739e-002 1.396826e+002
533220083.05021 -8.580760e-001 1.642667e+002 -6.206153e+001 -1.459859e+002 -6.158064e+001 -1.405577e+002 -6.828666e-002 1.394074e+002
533597583.99396 -8.752015e-001 1.640491e+002 -6.163675e+001 -1.431546e+002 -6.230606e+001 -1.496398e+002 -6.939927e-002 1.391853e+002
533975084.93771 -8.926769e-001 1.638741e+002 -6.167502e+001 -1.434218e+002 -6.107551e+001 -1.468136e+002 -6.864796e-002 1.388978e+002
534352585.88146 -9.095508e-001 1.636887e+002 -6.168856e+001 -1.525123e+002 -6.101880e+001 -1.455069e+002 -6.634145e-002 1.386270e+002
534730086.82522 -9.230029e-001 1.635157e+002 -6.058768e+001 -1.523680e+002 -6.139653e+001 -1.496632e+002 -6.652880e-002 1.383607e+002
535107587.76897 -9.401761e-001 1.633171e+002 -6.147525e+001 -1.535771e+002 -6.146297e+001 -1.530568e+002 -7.041633e-002 1.380960e+002
535485088.71272 -9.501919e-001 1.630813e+002 -6.102980e+001 -1.513898e+002 -6.166256e+001 -1.522229e+002 -6.300190e-002 1.378376e+002
535862589.65647 -9.683195e-001 1.629303e+002 -6.007813e+001 -1.559920e+002 -6.128222e+001 -1.542259e+002 -6.244700e-002 1.375998e+002
536240090.60023 -9.786767e-001 1.627370e+002 -6.202692e+001 -1.569487e+002 -6.053379e+001 -1.543173e+002 -5.877573e-002 1.373631e+002
536617591.54398 -9.961289e-001 1.625202e+002 -6.116095e+001 -1.595290e+002 -6.153079e+001 -1.581030e+002 -5.437134e-002 1.371266e+002
536995092.48773 -1.013866e+000 1.623878e+002 -6.070374e+001 -1.595424e+002 -6.083699e+001 -1.560600e+002 -4.813710e-002 1.369351e+002
537372593.43148 -1.024535e+000 1.621834e+002 -6.094369e+001 -1.621065e+002 -6.132417e+001 -1.604308e+002 -4.271765e-002 1.367476e+002
537750094.37524 -1.033793e+000 1.620065e+002 -6.108386e+001 -1.597958e+002 -6.027641e+001 -1.554226e+002 -3.815212e-002 1.365630e+002
538127595.31899 -1.053273e+000 1.618673e+002 -6.081951e+001 -1.600345e+002 -6.066486e+001 -1.607183e+002 -3.411726e-002 1.364086e+002
538505096.26274 -1.066487e+000 1.617033e+002 -6.070962e+001 -1.646531e+002 -6.108745e+001 -1.562107e+002 -2.740119e-002 1.362900e+002
538882597.20649 -1.077202e+000 1.615389e+002 -6.077802e+001 -1.641973e+002 -6.016992e+001 -1.649691e+002 -1.974101e-002 1.361340e+002
539260098.15025 -1.091959e+000 1.613251e+002 -6.108644e+001 -1.643333e+002 -6.150977e+001 -1.622339e+002 -1.154271e-002 1.360438e+002
539637599.094 -1.108670e+000 1.612042e+002 -6.034538e+001 -1.629408e+002 -6.152759e+001 -1.647802e+002 -6.085205e-003 1.359553e+002
540015100.03775 -1.121139e+000 1.610743e+002 -6.018811e+001 -1.617729e+002 -6.040273e+001 -1.654147e+002 3.378229e-003 1.359633e+002
540392600.9815 -1.133402e+000 1.608905e+002 -5.991994e+001 -1.658837e+002 -6.094281e+001 -1.676539e+002 7.860887e-003 1.358352e+002
540770101.92525 -1.149060e+000 1.606982e+002 -5.996052e+001 -1.637584e+002 -6.006218e+001 -1.671508e+002 1.468589e-002 1.358622e+002
541147602.86901 -1.162551e+000 1.606298e+002 -5.986375e+001 -1.678456e+002 -6.013530e+001 -1.666057e+002 2.032072e-002 1.358638e+002
541525103.81276 -1.171543e+000 1.604600e+002 -5.946836e+001 -1.678806e+002 -6.031302e+001 -1.703854e+002 2.906659e-002 1.358821e+002
541902604.75651 -1.184454e+000 1.603043e+002 -5.992335e+001 -1.654802e+002 -6.016066e+001 -1.649202e+002 3.331150e-002 1.359424e+002
542280105.70026 -1.195013e+000 1.601696e+002 -5.965337e+001 -1.723677e+002 -6.016849e+001 -1.704619e+002 4.334657e-002 1.360000e+002
542657606.64402 -1.205404e+000 1.600686e+002 -6.015984e+001 -1.724051e+002 -6.054892e+001 -1.746464e+002 4.625133e-002 1.360796e+002
543035107.58777 -1.213388e+000 1.599207e+002 -5.993877e+001 -1.700764e+002 -6.008273e+001 -1.730011e+002 5.134989e-002 1.361694e+002
543412608.53152 -1.224798e+000 1.598063e+002 -6.058543e+001 1.778835e+002 -6.002092e+001 -1.694041e+002 5.495833e-002 1.362775e+002
543790109.47527 -1.231478e+000 1.596724e+002 -5.962368e+001 -1.755171e+002 -6.019131e+001 -1.783047e+002 6.039491e-002 1.363892e+002
544167610.41903 -1.242537e+000 1.595320e+002 -5.974664e+001 -1.778633e+002 -6.048095e+001 -1.754929e+002 6.622214e-002 1.365249e+002
544545111.36278 -1.244656e+000 1.594373e+002 -5.952003e+001 1.785646e+002 -6.004343e+001 -1.774198e+002 6.800193e-002 1.366624e+002
544922612.30653 -1.248044e+000 1.592108e+002 -5.972176e+001 -1.781650e+002 -5.997060e+001 -1.771312e+002 7.237533e-002 1.368346e+002
545300113.25028 -1.256444e+000 1.591293e+002 -5.999158e+001 1.784919e+002 -6.082634e+001 -1.772624e+002 7.201055e-002 1.369823e+002
545677614.19404 -1.260074e+000 1.589749e+002 -5.998454e+001 1.754738e+002 -6.079843e+001 1.796044e+002 7.271235e-002 1.371415e+002
546055115.13779 -1.262286e+000 1.588356e+002 -5.938697e+001 1.752594e+002 -6.016180e+001 1.755095e+002 7.371124e-002 1.373294e+002
546432616.08154 -1.266664e+000 1.586533e+002 -5.993435e+001 1.776193e+002 -6.021664e+001 1.781908e+002 7.362142e-002 1.374951e+002
546810117.02529 -1.270676e+000 1.585067e+002 -6.000006e+001 1.748638e+002 -6.021082e+001 1.775876e+002 7.780464e-002 1.376481e+002
547187617.96904 -1.272770e+000 1.583504e+002 -6.009216e+001 1.736431e+002 -6.042141e+001 1.744733e+002 7.438771e-002 1.378378e+002
547565118.9128 -1.279911e+000 1.581632e+002 -6.025261e+001 1.750495e+002 -6.038966e+001 1.723344e+002 7.346866e-002 1.379697e+002
547942619.85655 -1.288859e+000 1.580537e+002 -6.012761e+001 1.745747e+002 -6.022647e+001 1.780480e+002 7.192377e-002 1.381347e+002
548320120.8003 -1.293295e+000 1.578415e+002 -6.000965e+001 1.736547e+002 -6.079750e+001 1.745411e+002 6.596295e-002 1.382862e+002
548697621.74405 -1.295515e+000 1.576928e+002 -6.001463e+001 1.708360e+002 -5.997344e+001 1.738997e+002 6.548587e-002 1.384130e+002
549075122.68781 -1.302744e+000 1.575805e+002 -5.945518e+001 1.705448e+002 -6.036313e+001 1.715908e+002 5.776416e-002 1.386007e+002
549452623.63156 -1.310542e+000 1.573927e+002 -5.997166e+001 1.655548e+002 -6.069339e+001 1.711495e+002 5.495121e-002 1.386410e+002
549830124.57531 -1.312741e+000 1.572328e+002 -6.048819e+001 1.662877e+002 -6.026749e+001 1.731531e+002 4.531554e-002 1.387605e+002
550207625.51906 -1.317121e+000 1.570483e+002 -6.009451e+001 1.698675e+002 -6.000694e+001 1.717276e+002 4.172251e-002 1.388213e+002
550585126.46282 -1.321402e+000 1.568895e+002 -6.000510e+001 1.663434e+002 -6.027128e+001 1.716653e+002 3.393120e-002 1.388852e+002
550962627.40657 -1.322172e+000 1.567164e+002 -5.938275e+001 1.681658e+002 -6.025651e+001 1.690785e+002 2.884564e-002 1.389228e+002
551340128.35032 -1.322272e+000 1.565717e+002 -5.969156e+001 1.671348e+002 -6.011609e+001 1.683808e+002 1.667264e-002 1.389522e+002
551717629.29407 -1.329312e+000 1.563774e+002 -5.985412e+001 1.683317e+002 -6.037410e+001 1.677546e+002 1.312380e-002 1.389542e+002
552095130.23783 -1.332563e+000 1.561647e+002 -5.966002e+001 1.688006e+002 -6.008767e+001 1.718427e+002 4.176668e-003 1.389362e+002
552472631.18158 -1.333749e+000 1.560436e+002 -5.923712e+001 1.616533e+002 -5.968445e+001 1.717938e+002 -3.108869e-003 1.388933e+002
552850132.12533 -1.335511e+000 1.558479e+002 -5.966724e+001 1.680047e+002 -5.955735e+001 1.682083e+002 -1.234941e-002 1.388184e+002
553227633.06908 -1.341688e+000 1.556816e+002 -5.928525e+001 1.631671e+002 -5.954919e+001 1.727894e+002 -2.058080e-002 1.387477e+002
553605134.01284 -1.344748e+000 1.554993e+002 -5.975440e+001 1.683786e+002 -5.889503e+001 1.710683e+002 -2.294091e-002 1.385766e+002
553982634.95659 -1.349193e+000 1.553356e+002 -5.900286e+001 1.645656e+002 -5.932888e+001 1.645145e+002 -3.455370e-002 1.384940e+002
554360135.90034 -1.353113e+000 1.551632e+002 -5.861149e+001 1.653725e+002 -5.884712e+001 1.661450e+002 -4.178511e-002 1.383625e+002
554737636.84409 -1.356309e+000 1.550423e+002 -5.877322e+001 1.625389e+002 -5.886206e+001 1.639134e+002 -5.262535e-002 1.381722e+002
555115137.78784 -1.356795e+000 1.548772e+002 -5.866145e+001 1.604707e+002 -5.870894e+001 1.642179e+002 -5.644422e-002 1.379946e+002
555492638.7316 -1.358907e+000 1.546682e+002 -5.869085e+001 1.575025e+002 -5.869064e+001 1.611618e+002 -5.645337e-002 1.377515e+002
