!Agilent Technologies,E8364B,US42250235,A.06.04.32
!Agilent E8364B: A.06.04.32
!Date: Thursday, October 01, 2020 15:37:05
!Correction: S11(Full 2 Port(1,2)) S21(Full 2 Port(1,2)) S12(Full 2 Port(1,2)) S22(Full 2 Port(1,2)) 
!S2P File: Measurements: S11, S21, S12, S22:
# Hz S  dB   R 50
500000000 -1.992789e-001 -1.756402e+002 -7.375031e+001 -7.478976e+001 -7.215335e+001 -8.296091e+001 6.578419e-002 1.440735e+002
500377500.94375 -2.007951e-001 -1.758373e+002 -7.188827e+001 -9.148173e+001 -7.004230e+001 -9.830472e+001 6.273285e-002 1.442169e+002
500755001.8875 -2.062025e-001 -1.760651e+002 -6.972874e+001 -8.905551e+001 -7.026395e+001 -9.848660e+001 6.481511e-002 1.443147e+002
501132502.83126 -2.102926e-001 -1.762381e+002 -7.066710e+001 -9.074540e+001 -7.113696e+001 -9.082619e+001 5.771060e-002 1.444193e+002
501510003.77501 -2.123037e-001 -1.764824e+002 -7.126144e+001 -7.990626e+001 -7.138839e+001 -1.012264e+002 5.351127e-002 1.445259e+002
501887504.71876 -2.155004e-001 -1.767127e+002 -7.208572e+001 -9.720570e+001 -6.924174e+001 -1.034530e+002 4.972383e-002 1.445721e+002
502265005.66251 -2.184602e-001 -1.769263e+002 -6.977655e+001 -9.295341e+001 -7.079162e+001 -1.150835e+002 4.292050e-002 1.446414e+002
502642506.60627 -2.201926e-001 -1.771450e+002 -6.912704e+001 -9.793214e+001 -7.044121e+001 -1.155028e+002 4.131609e-002 1.447352e+002
503020007.55002 -2.262493e-001 -1.773404e+002 -6.807143e+001 -9.570901e+001 -7.117799e+001 -1.035583e+002 3.224565e-002 1.446993e+002
503397508.49377 -2.252434e-001 -1.775740e+002 -6.866513e+001 -9.559402e+001 -7.079003e+001 -1.192892e+002 2.920019e-002 1.447218e+002
503775009.43752 -2.297390e-001 -1.777895e+002 -7.152383e+001 -1.057581e+002 -7.054746e+001 -1.092562e+002 2.386891e-002 1.447050e+002
504152510.38128 -2.352942e-001 -1.779975e+002 -6.793971e+001 -8.944453e+001 -7.001631e+001 -1.005505e+002 1.416553e-002 1.446559e+002
504530011.32503 -2.381888e-001 -1.782144e+002 -7.084822e+001 -9.744059e+001 -7.149905e+001 -1.110594e+002 7.926040e-003 1.446121e+002
504907512.26878 -2.430462e-001 -1.784381e+002 -7.057861e+001 -1.038577e+002 -6.923938e+001 -1.150005e+002 8.925108e-004 1.445423e+002
505285013.21253 -2.483535e-001 -1.786521e+002 -7.126205e+001 -1.016956e+002 -7.022308e+001 -1.156351e+002 -3.833346e-003 1.444719e+002
505662514.15629 -2.475335e-001 -1.788826e+002 -6.925249e+001 -9.701541e+001 -7.040431e+001 -1.090444e+002 -1.056023e-002 1.443636e+002
506040015.10004 -2.544276e-001 -1.790697e+002 -6.970955e+001 -1.096376e+002 -6.887420e+001 -1.079331e+002 -1.654886e-002 1.442367e+002
506417516.04379 -2.590955e-001 -1.793129e+002 -6.848106e+001 -9.841483e+001 -7.146712e+001 -1.161811e+002 -2.232747e-002 1.441049e+002
506795016.98754 -2.628205e-001 -1.795324e+002 -6.781677e+001 -1.106585e+002 -6.934093e+001 -1.212617e+002 -2.615572e-002 1.439098e+002
507172517.93129 -2.676476e-001 -1.797503e+002 -6.988184e+001 -1.019274e+002 -7.084874e+001 -1.068590e+002 -3.302510e-002 1.437756e+002
507550018.87505 -2.722009e-001 -1.799664e+002 -7.132642e+001 -1.039964e+002 -6.908463e+001 -1.217364e+002 -3.506908e-002 1.435730e+002
507927519.8188 -2.764035e-001 1.797857e+002 -6.772581e+001 -1.070675e+002 -7.065714e+001 -1.073097e+002 -4.482222e-002 1.433763e+002
508305020.76255 -2.817939e-001 1.795659e+002 -7.032582e+001 -8.348147e+001 -6.852724e+001 -1.205068e+002 -4.709414e-002 1.431894e+002
508682521.7063 -2.893524e-001 1.793440e+002 -6.764185e+001 -1.149878e+002 -6.944095e+001 -1.268459e+002 -5.661664e-002 1.429688e+002
509060022.65006 -2.929511e-001 1.791137e+002 -6.952111e+001 -1.063490e+002 -6.946101e+001 -1.131771e+002 -5.279965e-002 1.427061e+002
509437523.59381 -2.955603e-001 1.788937e+002 -6.972675e+001 -1.029584e+002 -6.870462e+001 -1.130662e+002 -5.226752e-002 1.425125e+002
509815024.53756 -3.024313e-001 1.786807e+002 -6.962146e+001 -1.044829e+002 -6.817842e+001 -1.201356e+002 -5.254908e-002 1.422747e+002
510192525.48131 -3.044218e-001 1.784479e+002 -6.849015e+001 -1.110917e+002 -6.774466e+001 -1.237978e+002 -5.242289e-002 1.420324e+002
510570026.42507 -3.109337e-001 1.782152e+002 -6.801964e+001 -1.055392e+002 -6.776201e+001 -1.181372e+002 -5.117864e-002 1.417854e+002
510947527.36882 -3.181062e-001 1.779992e+002 -6.883398e+001 -1.005462e+002 -6.839456e+001 -1.255902e+002 -5.062591e-002 1.415640e+002
511325028.31257 -3.198067e-001 1.777802e+002 -6.901663e+001 -1.171415e+002 -6.707093e+001 -1.200029e+002 -4.816644e-002 1.413363e+002
511702529.25632 -3.245651e-001 1.775116e+002 -6.706880e+001 -1.109798e+002 -6.767020e+001 -1.314189e+002 -4.610283e-002 1.411227e+002
512080030.20008 -3.341018e-001 1.773264e+002 -6.715074e+001 -1.099877e+002 -6.808410e+001 -1.379366e+002 -4.013356e-002 1.408966e+002
512457531.14383 -3.383138e-001 1.770829e+002 -6.720512e+001 -1.109973e+002 -6.593255e+001 -1.250533e+002 -3.607221e-002 1.407062e+002
512835032.08758 -3.445714e-001 1.768505e+002 -6.902854e+001 -1.059338e+002 -6.843829e+001 -1.358455e+002 -3.237455e-002 1.405211e+002
513212533.03133 -3.503354e-001 1.766288e+002 -6.896292e+001 -1.328391e+002 -6.931725e+001 -1.236233e+002 -2.620136e-002 1.403299e+002
513590033.97508 -3.546565e-001 1.763938e+002 -6.662361e+001 -1.028899e+002 -6.606377e+001 -1.243888e+002 -1.857623e-002 1.401891e+002
513967534.91884 -3.628622e-001 1.761729e+002 -6.867316e+001 -1.139432e+002 -6.934930e+001 -1.288093e+002 -1.009406e-002 1.400039e+002
514345035.86259 -3.664615e-001 1.759519e+002 -6.864128e+001 -1.095512e+002 -6.680953e+001 -1.200878e+002 -5.744175e-003 1.399213e+002
514722536.80634 -3.733220e-001 1.757557e+002 -6.988451e+001 -1.099789e+002 -6.814591e+001 -1.341468e+002 -1.357619e-003 1.398110e+002
515100037.75009 -3.751218e-001 1.755096e+002 -6.722760e+001 -1.163770e+002 -6.631072e+001 -1.399158e+002 7.649510e-003 1.397329e+002
515477538.69385 -3.833725e-001 1.752381e+002 -6.768396e+001 -1.167870e+002 -6.756493e+001 -1.412475e+002 1.400704e-002 1.396577e+002
515855039.6376 -3.902055e-001 1.750493e+002 -6.623145e+001 -1.169506e+002 -6.686324e+001 -1.457227e+002 2.424479e-002 1.396136e+002
516232540.58135 -3.980548e-001 1.748286e+002 -6.940750e+001 -1.140965e+002 -6.853911e+001 -1.379852e+002 3.119987e-002 1.396045e+002
516610041.5251 -4.045520e-001 1.746021e+002 -6.792356e+001 -1.151241e+002 -6.796265e+001 -1.455118e+002 3.446113e-002 1.395978e+002
516987542.46886 -4.079504e-001 1.743560e+002 -6.714294e+001 -1.223054e+002 -6.704043e+001 -1.462624e+002 4.019983e-002 1.395939e+002
517365043.41261 -4.165896e-001 1.741422e+002 -6.827171e+001 -1.251719e+002 -6.828350e+001 -1.420719e+002 4.601398e-002 1.395966e+002
517742544.35636 -4.247035e-001 1.739144e+002 -6.838634e+001 -1.310291e+002 -6.682247e+001 -1.448257e+002 5.291115e-002 1.396703e+002
518120045.30011 -4.318102e-001 1.736841e+002 -6.649169e+001 -1.212676e+002 -6.695412e+001 -1.418233e+002 5.961531e-002 1.397244e+002
518497546.24387 -4.370597e-001 1.734461e+002 -6.685780e+001 -1.243063e+002 -6.937154e+001 -1.377006e+002 6.402906e-002 1.398070e+002
518875047.18762 -4.508635e-001 1.732864e+002 -6.772304e+001 -1.223865e+002 -6.873211e+001 -1.413273e+002 7.099655e-002 1.399205e+002
519252548.13137 -4.611484e-001 1.730058e+002 -6.690902e+001 -1.150576e+002 -6.713602e+001 -1.492556e+002 7.141480e-002 1.400206e+002
519630049.07512 -4.700360e-001 1.727705e+002 -6.667625e+001 -1.178193e+002 -6.702433e+001 -1.399824e+002 7.554558e-002 1.401574e+002
520007550.01888 -4.790007e-001 1.725414e+002 -6.812472e+001 -1.134279e+002 -6.798235e+001 -1.431012e+002 7.685796e-002 1.402247e+002
520385050.96263 -4.861940e-001 1.723332e+002 -6.679833e+001 -1.202278e+002 -6.784099e+001 -1.352940e+002 7.572017e-002 1.403890e+002
520762551.90638 -4.955820e-001 1.721026e+002 -6.889156e+001 -1.256144e+002 -6.743657e+001 -1.502574e+002 7.969432e-002 1.405446e+002
521140052.85013 -5.070445e-001 1.718925e+002 -6.588151e+001 -1.283535e+002 -6.773158e+001 -1.502805e+002 8.103110e-002 1.406752e+002
521517553.79388 -5.158654e-001 1.717047e+002 -6.598734e+001 -1.274940e+002 -6.603872e+001 -1.432118e+002 8.114262e-002 1.408543e+002
521895054.73764 -5.256862e-001 1.714423e+002 -6.601389e+001 -1.352088e+002 -6.578934e+001 -1.441176e+002 7.772399e-002 1.409922e+002
522272555.68139 -5.343745e-001 1.712382e+002 -6.609303e+001 -1.361998e+002 -6.623022e+001 -1.449428e+002 7.513317e-002 1.411534e+002
522650056.62514 -5.479884e-001 1.710165e+002 -6.719745e+001 -1.243902e+002 -6.637457e+001 -1.561800e+002 7.172374e-002 1.412722e+002
523027557.56889 -5.577866e-001 1.708278e+002 -6.548348e+001 -1.291010e+002 -6.527279e+001 -1.527367e+002 6.813095e-002 1.414319e+002
523405058.51265 -5.647736e-001 1.705957e+002 -6.581440e+001 -1.278919e+002 -6.642726e+001 -1.531595e+002 6.793638e-002 1.416202e+002
523782559.4564 -5.768853e-001 1.704013e+002 -6.511518e+001 -1.349025e+002 -6.589067e+001 -1.530216e+002 5.857017e-002 1.416852e+002
524160060.40015 -5.844151e-001 1.701851e+002 -6.637210e+001 -1.349320e+002 -6.550302e+001 -1.564041e+002 5.543245e-002 1.417995e+002
524537561.3439 -5.928367e-001 1.699732e+002 -6.600127e+001 -1.261005e+002 -6.670586e+001 -1.523486e+002 4.326640e-002 1.418928e+002
524915062.28766 -6.040623e-001 1.697457e+002 -6.539779e+001 -1.394253e+002 -6.556867e+001 -1.595364e+002 4.035487e-002 1.419946e+002
525292563.23141 -6.144302e-001 1.695307e+002 -6.658533e+001 -1.403172e+002 -6.587271e+001 -1.538758e+002 3.215282e-002 1.420479e+002
525670064.17516 -6.204153e-001 1.693024e+002 -6.615517e+001 -1.314131e+002 -6.455065e+001 -1.545506e+002 2.361392e-002 1.420978e+002
526047565.11891 -6.341416e-001 1.690765e+002 -6.518336e+001 -1.447724e+002 -6.496111e+001 -1.687680e+002 1.447563e-002 1.421269e+002
526425066.06267 -6.431233e-001 1.688494e+002 -6.554562e+001 -1.370607e+002 -6.453522e+001 -1.563400e+002 3.981781e-003 1.421484e+002
526802567.00642 -6.556211e-001 1.686467e+002 -6.455867e+001 -1.323776e+002 -6.491307e+001 -1.604351e+002 -1.990496e-003 1.421454e+002
527180067.95017 -6.666195e-001 1.684211e+002 -6.575604e+001 -1.392542e+002 -6.478746e+001 -1.626086e+002 -1.346237e-002 1.421221e+002
527557568.89392 -6.765106e-001 1.681897e+002 -6.442907e+001 -1.434049e+002 -6.483221e+001 -1.646398e+002 -1.799390e-002 1.420797e+002
527935069.83767 -6.891647e-001 1.679829e+002 -6.483862e+001 -1.381425e+002 -6.331939e+001 -1.631704e+002 -2.961403e-002 1.420013e+002
528312570.78143 -7.027338e-001 1.677756e+002 -6.433690e+001 -1.433643e+002 -6.471286e+001 -1.673528e+002 -3.651461e-002 1.419150e+002
528690071.72518 -7.095741e-001 1.675570e+002 -6.425787e+001 -1.463714e+002 -6.383017e+001 -1.691102e+002 -4.277377e-002 1.417974e+002
529067572.66893 -7.241818e-001 1.673432e+002 -6.470844e+001 -1.537818e+002 -6.401018e+001 -1.704351e+002 -5.878734e-002 1.416636e+002
529445073.61268 -7.348749e-001 1.671489e+002 -6.399048e+001 -1.511694e+002 -6.308739e+001 -1.726224e+002 -6.711454e-002 1.415206e+002
529822574.55644 -7.463915e-001 1.669265e+002 -6.420801e+001 -1.471171e+002 -6.455948e+001 -1.769146e+002 -7.411952e-002 1.413256e+002
530200075.50019 -7.588501e-001 1.667320e+002 -6.586358e+001 -1.407059e+002 -6.437206e+001 -1.738445e+002 -7.942225e-002 1.411368e+002
530577576.44394 -7.733338e-001 1.665352e+002 -6.432243e+001 -1.501112e+002 -6.398281e+001 -1.748811e+002 -8.921391e-002 1.409187e+002
530955077.38769 -7.845786e-001 1.663196e+002 -6.458810e+001 -1.456098e+002 -6.391808e+001 1.794813e+002 -9.478519e-002 1.406949e+002
531332578.33145 -7.947308e-001 1.661174e+002 -6.425201e+001 -1.496492e+002 -6.355732e+001 -1.743098e+002 -1.006645e-001 1.404466e+002
531710079.2752 -8.088196e-001 1.659149e+002 -6.425540e+001 -1.513173e+002 -6.275430e+001 1.798684e+002 -1.098948e-001 1.401457e+002
532087580.21895 -8.220240e-001 1.657235e+002 -6.367270e+001 -1.537709e+002 -6.340864e+001 1.751862e+002 -1.099035e-001 1.398952e+002
532465081.1627 -8.330730e-001 1.655368e+002 -6.367854e+001 -1.577440e+002 -6.359259e+001 -1.760670e+002 -1.158884e-001 1.395961e+002
532842582.10646 -8.476607e-001 1.653437e+002 -6.371769e+001 -1.564121e+002 -6.358134e+001 -1.777539e+002 -1.163522e-001 1.393145e+002
533220083.05021 -8.573520e-001 1.651681e+002 -6.309489e+001 -1.572874e+002 -6.451642e+001 -1.759713e+002 -1.219417e-001 1.390152e+002
533597583.99396 -8.680461e-001 1.649662e+002 -6.279808e+001 -1.639026e+002 -6.318887e+001 1.743035e+002 -1.205265e-001 1.387608e+002
533975084.93771 -8.807687e-001 1.647984e+002 -6.353416e+001 -1.576075e+002 -6.286403e+001 1.741970e+002 -1.214854e-001 1.384312e+002
534352585.88146 -8.913381e-001 1.646167e+002 -6.341663e+001 -1.660219e+002 -6.312312e+001 1.709684e+002 -1.209560e-001 1.381138e+002
534730086.82522 -9.017939e-001 1.644583e+002 -6.341824e+001 -1.641038e+002 -6.317084e+001 1.761216e+002 -1.214378e-001 1.378251e+002
535107587.76897 -9.113623e-001 1.642582e+002 -6.255330e+001 -1.555688e+002 -6.353801e+001 1.645402e+002 -1.199789e-001 1.375523e+002
535485088.71272 -9.187302e-001 1.640788e+002 -6.271505e+001 -1.622280e+002 -6.286362e+001 1.692506e+002 -1.178664e-001 1.372420e+002
535862589.65647 -9.303598e-001 1.638957e+002 -6.332118e+001 -1.596266e+002 -6.396635e+001 1.668117e+002 -1.129721e-001 1.369839e+002
536240090.60023 -9.371129e-001 1.637134e+002 -6.337007e+001 -1.668856e+002 -6.411544e+001 1.667437e+002 -1.079662e-001 1.367117e+002
536617591.54398 -9.483134e-001 1.635278e+002 -6.361575e+001 -1.651225e+002 -6.288743e+001 1.682591e+002 -1.047522e-001 1.364528e+002
536995092.48773 -9.571741e-001 1.633755e+002 -6.277207e+001 -1.726837e+002 -6.244256e+001 1.599740e+002 -9.784713e-002 1.362466e+002
537372593.43148 -9.676571e-001 1.631975e+002 -6.261913e+001 -1.785281e+002 -6.338194e+001 1.582895e+002 -8.957721e-002 1.360317e+002
537750094.37524 -9.731286e-001 1.629995e+002 -6.266621e+001 -1.719309e+002 -6.294337e+001 1.641637e+002 -8.337001e-002 1.358427e+002
538127595.31899 -9.831267e-001 1.628279e+002 -6.278985e+001 -1.744159e+002 -6.236845e+001 1.580172e+002 -7.761817e-002 1.356728e+002
538505096.26274 -9.917387e-001 1.626735e+002 -6.382528e+001 -1.732500e+002 -6.330790e+001 1.605419e+002 -6.812802e-002 1.355397e+002
538882597.20649 -9.969044e-001 1.624874e+002 -6.320620e+001 -1.798781e+002 -6.293283e+001 1.622463e+002 -6.157253e-002 1.353819e+002
539260098.15025 -1.008851e+000 1.623055e+002 -6.237886e+001 -1.797225e+002 -6.257592e+001 1.565412e+002 -5.462926e-002 1.352867e+002
539637599.094 -1.020572e+000 1.621577e+002 -6.389288e+001 1.769842e+002 -6.233177e+001 1.578392e+002 -4.686469e-002 1.351956e+002
540015100.03775 -1.028065e+000 1.619776e+002 -6.208891e+001 1.787182e+002 -6.403329e+001 1.570562e+002 -3.625715e-002 1.351864e+002
540392600.9815 -1.032926e+000 1.618190e+002 -6.244640e+001 -1.796510e+002 -6.283215e+001 1.531068e+002 -2.956332e-002 1.350574e+002
540770101.92525 -1.042248e+000 1.616474e+002 -6.242632e+001 1.766408e+002 -6.302399e+001 1.593773e+002 -1.915947e-002 1.350810e+002
541147602.86901 -1.050443e+000 1.614803e+002 -6.165523e+001 1.760348e+002 -6.282286e+001 1.512901e+002 -1.360293e-002 1.350918e+002
541525103.81276 -1.056769e+000 1.613409e+002 -6.246230e+001 1.676651e+002 -6.297526e+001 1.543306e+002 -6.921304e-003 1.351240e+002
541902604.75651 -1.063022e+000 1.611837e+002 -6.227406e+001 1.747625e+002 -6.268823e+001 1.515603e+002 6.432190e-005 1.351800e+002
542280105.70026 -1.070597e+000 1.610445e+002 -6.281382e+001 1.717248e+002 -6.217190e+001 1.479950e+002 1.023216e-002 1.352523e+002
542657606.64402 -1.075968e+000 1.608781e+002 -6.271914e+001 1.742479e+002 -6.263176e+001 1.511080e+002 1.351358e-002 1.353245e+002
543035107.58777 -1.078973e+000 1.607269e+002 -6.274574e+001 1.672027e+002 -6.269880e+001 1.500309e+002 2.021623e-002 1.354190e+002
543412608.53152 -1.085031e+000 1.605892e+002 -6.236872e+001 1.662101e+002 -6.290083e+001 1.490394e+002 2.160658e-002 1.355460e+002
543790109.47527 -1.087068e+000 1.604303e+002 -6.316975e+001 1.621206e+002 -6.258661e+001 1.479306e+002 3.040272e-002 1.356484e+002
544167610.41903 -1.092380e+000 1.602695e+002 -6.253212e+001 1.644022e+002 -6.279583e+001 1.462111e+002 3.449332e-002 1.358138e+002
544545111.36278 -1.090904e+000 1.600974e+002 -6.249511e+001 1.654381e+002 -6.312777e+001 1.485711e+002 3.837867e-002 1.359638e+002
544922612.30653 -1.096029e+000 1.599273e+002 -6.309928e+001 1.640615e+002 -6.249876e+001 1.431033e+002 4.269750e-002 1.361250e+002
545300113.25028 -1.098928e+000 1.597701e+002 -6.266800e+001 1.620602e+002 -6.303315e+001 1.459508e+002 4.319763e-002 1.362943e+002
545677614.19404 -1.099749e+000 1.595845e+002 -6.233749e+001 1.645257e+002 -6.299762e+001 1.458229e+002 4.387321e-002 1.364594e+002
546055115.13779 -1.100291e+000 1.594274e+002 -6.279294e+001 1.559902e+002 -6.249887e+001 1.465651e+002 4.297040e-002 1.366511e+002
546432616.08154 -1.103356e+000 1.592368e+002 -6.286481e+001 1.573899e+002 -6.284615e+001 1.386225e+002 4.475858e-002 1.368147e+002
546810117.02529 -1.103959e+000 1.590511e+002 -6.327393e+001 1.488448e+002 -6.361993e+001 1.441357e+002 4.520515e-002 1.369791e+002
547187617.96904 -1.105894e+000 1.588808e+002 -6.366717e+001 1.598820e+002 -6.272992e+001 1.406729e+002 4.577037e-002 1.371622e+002
547565118.9128 -1.109449e+000 1.586789e+002 -6.353793e+001 1.587080e+002 -6.235399e+001 1.395337e+002 4.326247e-002 1.373000e+002
547942619.85655 -1.115598e+000 1.584863e+002 -6.335690e+001 1.575820e+002 -6.281046e+001 1.341013e+002 4.361506e-002 1.374520e+002
548320120.8003 -1.117694e+000 1.583001e+002 -6.413812e+001 1.536356e+002 -6.266623e+001 1.401968e+002 3.500249e-002 1.376055e+002
548697621.74405 -1.120290e+000 1.581354e+002 -6.363821e+001 1.555223e+002 -6.253077e+001 1.289076e+002 3.455476e-002 1.377097e+002
549075122.68781 -1.124777e+000 1.579393e+002 -6.342768e+001 1.523233e+002 -6.281385e+001 1.352324e+002 2.813840e-002 1.378988e+002
549452623.63156 -1.127162e+000 1.577613e+002 -6.346079e+001 1.514444e+002 -6.288570e+001 1.338567e+002 2.204417e-002 1.379320e+002
549830124.57531 -1.129200e+000 1.575821e+002 -6.356576e+001 1.547641e+002 -6.264565e+001 1.361608e+002 1.778099e-002 1.380573e+002
550207625.51906 -1.128677e+000 1.573763e+002 -6.421861e+001 1.595911e+002 -6.255336e+001 1.341538e+002 9.085818e-003 1.380845e+002
550585126.46282 -1.133696e+000 1.571960e+002 -6.217128e+001 1.539755e+002 -6.275267e+001 1.343795e+002 1.789042e-003 1.381547e+002
550962627.40657 -1.133946e+000 1.570053e+002 -6.350146e+001 1.563096e+002 -6.215159e+001 1.370135e+002 -2.716798e-003 1.381720e+002
551340128.35032 -1.132415e+000 1.568119e+002 -6.315335e+001 1.550600e+002 -6.199968e+001 1.280918e+002 -1.365383e-002 1.381681e+002
551717629.29407 -1.135792e+000 1.566270e+002 -6.295551e+001 1.552297e+002 -6.268624e+001 1.326819e+002 -1.794010e-002 1.381456e+002
552095130.23783 -1.138022e+000 1.564213e+002 -6.352639e+001 1.508450e+002 -6.233037e+001 1.292203e+002 -2.581362e-002 1.380979e+002
552472631.18158 -1.138056e+000 1.562223e+002 -6.218010e+001 1.485110e+002 -6.237717e+001 1.296648e+002 -3.511085e-002 1.380504e+002
552850132.12533 -1.137004e+000 1.559977e+002 -6.216513e+001 1.508314e+002 -6.162383e+001 1.289668e+002 -4.516230e-002 1.379441e+002
553227633.06908 -1.141482e+000 1.558070e+002 -6.119974e+001 1.538294e+002 -6.116891e+001 1.290122e+002 -5.841084e-002 1.378257e+002
553605134.01284 -1.143532e+000 1.555929e+002 -6.225298e+001 1.458546e+002 -6.106541e+001 1.290813e+002 -5.766112e-002 1.376620e+002
553982634.95659 -1.146623e+000 1.553904e+002 -6.205803e+001 1.557449e+002 -6.164134e+001 1.294866e+002 -7.127748e-002 1.375488e+002
554360135.90034 -1.146648e+000 1.552141e+002 -6.097988e+001 1.490123e+002 -6.120950e+001 1.283214e+002 -7.640769e-002 1.373503e+002
554737636.84409 -1.147175e+000 1.550114e+002 -6.137948e+001 1.439458e+002 -6.152828e+001 1.208211e+002 -8.734209e-002 1.371655e+002
555115137.78784 -1.146479e+000 1.548111e+002 -6.151432e+001 1.434563e+002 -6.094170e+001 1.279330e+002 -9.110777e-002 1.369398e+002
555492638.7316 -1.149137e+000 1.545935e+002 -6.113279e+001 1.412648e+002 -6.088431e+001 1.211735e+002 -9.689272e-002 1.366540e+002
