!Agilent Technologies,E8364B,US42250235,A.06.04.32
!Agilent E8364B: A.06.04.32
!Date: Thursday, October 01, 2020 15:38:52
!Correction: S11(Full 2 Port(1,2)) S21(Full 2 Port(1,2)) S12(Full 2 Port(1,2)) S22(Full 2 Port(1,2)) 
!S2P File: Measurements: S11, S21, S12, S22:
# Hz S  dB   R 50
500000000 -2.352619e-001 -1.748028e+002 -6.728047e+001 1.631503e+002 -6.767905e+001 1.615425e+002 4.446490e-002 1.437913e+002
500377500.94375 -2.374033e-001 -1.750302e+002 -6.678235e+001 1.592279e+002 -6.758618e+001 1.606474e+002 4.553181e-002 1.439265e+002
500755001.8875 -2.364346e-001 -1.751746e+002 -6.995210e+001 1.502886e+002 -6.763451e+001 1.654402e+002 4.455955e-002 1.440284e+002
501132502.83126 -2.422964e-001 -1.753833e+002 -6.629500e+001 1.451977e+002 -6.700175e+001 1.537337e+002 3.938450e-002 1.441330e+002
501510003.77501 -2.422923e-001 -1.755723e+002 -6.732926e+001 1.544353e+002 -6.730987e+001 1.516688e+002 3.444339e-002 1.442278e+002
501887504.71876 -2.464271e-001 -1.757585e+002 -6.720847e+001 1.577474e+002 -6.731989e+001 1.636508e+002 3.311951e-002 1.443034e+002
502265005.66251 -2.485351e-001 -1.759280e+002 -6.611564e+001 1.524456e+002 -6.571301e+001 1.486420e+002 2.711912e-002 1.443803e+002
502642506.60627 -2.486316e-001 -1.761415e+002 -6.659663e+001 1.495183e+002 -6.808276e+001 1.601071e+002 2.220408e-002 1.444560e+002
503020007.55002 -2.544847e-001 -1.763462e+002 -6.764991e+001 1.537917e+002 -6.646509e+001 1.471904e+002 1.398040e-002 1.444436e+002
503397508.49377 -2.488736e-001 -1.765489e+002 -6.492590e+001 1.513568e+002 -6.676273e+001 1.499274e+002 1.172202e-002 1.444577e+002
503775009.43752 -2.503549e-001 -1.767954e+002 -6.814088e+001 1.476705e+002 -6.692492e+001 1.509954e+002 2.140647e-004 1.444630e+002
504152510.38128 -2.538904e-001 -1.769582e+002 -6.764921e+001 1.523202e+002 -6.636642e+001 1.506342e+002 -2.480434e-003 1.444238e+002
504530011.32503 -2.522589e-001 -1.772057e+002 -6.623812e+001 1.469065e+002 -6.603751e+001 1.474226e+002 -1.104985e-002 1.443953e+002
504907512.26878 -2.559498e-001 -1.773540e+002 -6.640515e+001 1.422672e+002 -6.703410e+001 1.552421e+002 -1.892877e-002 1.443328e+002
505285013.21253 -2.613185e-001 -1.775105e+002 -6.684991e+001 1.548948e+002 -6.742882e+001 1.539824e+002 -2.224226e-002 1.442648e+002
505662514.15629 -2.568648e-001 -1.777504e+002 -6.677911e+001 1.333013e+002 -6.668832e+001 1.451212e+002 -2.939632e-002 1.441639e+002
506040015.10004 -2.616867e-001 -1.779838e+002 -6.748302e+001 1.303747e+002 -6.833930e+001 1.399216e+002 -3.440044e-002 1.440481e+002
506417516.04379 -2.599593e-001 -1.781980e+002 -6.693511e+001 1.377882e+002 -6.814912e+001 1.435967e+002 -4.560550e-002 1.439265e+002
506795016.98754 -2.667607e-001 -1.783707e+002 -6.648450e+001 1.357885e+002 -6.598268e+001 1.451674e+002 -4.518114e-002 1.437553e+002
507172517.93129 -2.659910e-001 -1.785374e+002 -6.853609e+001 1.372395e+002 -6.677705e+001 1.335843e+002 -4.942354e-002 1.435999e+002
507550018.87505 -2.641652e-001 -1.787326e+002 -6.733247e+001 1.333956e+002 -6.579856e+001 1.399375e+002 -5.681881e-002 1.434150e+002
507927519.8188 -2.668446e-001 -1.789987e+002 -6.620226e+001 1.369249e+002 -6.603354e+001 1.493669e+002 -6.232692e-002 1.432341e+002
508305020.76255 -2.656802e-001 -1.792338e+002 -6.839919e+001 1.394506e+002 -6.714508e+001 1.402523e+002 -6.802752e-002 1.430210e+002
508682521.7063 -2.655326e-001 -1.794444e+002 -6.774170e+001 1.383485e+002 -6.875421e+001 1.411958e+002 -6.993369e-002 1.428194e+002
509060022.65006 -2.700565e-001 -1.795885e+002 -6.643610e+001 1.473502e+002 -6.613859e+001 1.351000e+002 -7.043096e-002 1.425749e+002
509437523.59381 -2.688024e-001 -1.798921e+002 -6.729985e+001 1.401389e+002 -6.587830e+001 1.445729e+002 -7.209772e-002 1.423719e+002
509815024.53756 -2.696826e-001 1.799851e+002 -6.664347e+001 1.365079e+002 -6.642400e+001 1.390350e+002 -7.112192e-002 1.421240e+002
510192525.48131 -2.701366e-001 1.797785e+002 -6.580152e+001 1.278924e+002 -6.569312e+001 1.404423e+002 -7.139852e-002 1.418794e+002
510570026.42507 -2.771379e-001 1.794940e+002 -6.511780e+001 1.351505e+002 -6.424245e+001 1.337210e+002 -6.982185e-002 1.416419e+002
510947527.36882 -2.745474e-001 1.793652e+002 -6.620501e+001 1.342242e+002 -6.623108e+001 1.278265e+002 -7.205034e-002 1.414111e+002
511325028.31257 -2.786902e-001 1.791453e+002 -6.564309e+001 1.384649e+002 -6.561495e+001 1.336569e+002 -7.079387e-002 1.411795e+002
511702529.25632 -2.745202e-001 1.788985e+002 -6.690141e+001 1.317441e+002 -6.592667e+001 1.340648e+002 -6.639319e-002 1.409506e+002
512080030.20008 -2.828922e-001 1.786378e+002 -6.611396e+001 1.390865e+002 -6.566959e+001 1.379037e+002 -6.350902e-002 1.407253e+002
512457531.14383 -2.826537e-001 1.784654e+002 -6.647810e+001 1.296573e+002 -6.533901e+001 1.332444e+002 -5.916640e-002 1.405352e+002
512835032.08758 -2.835566e-001 1.782864e+002 -6.600442e+001 1.341925e+002 -6.474306e+001 1.252712e+002 -5.466754e-002 1.403133e+002
513212533.03133 -2.824112e-001 1.779982e+002 -6.553424e+001 1.227362e+002 -6.468024e+001 1.285966e+002 -4.778001e-002 1.401258e+002
513590033.97508 -2.824582e-001 1.777790e+002 -6.623171e+001 1.310720e+002 -6.490067e+001 1.302712e+002 -4.090515e-002 1.399604e+002
513967534.91884 -2.869131e-001 1.776460e+002 -6.531458e+001 1.388472e+002 -6.440643e+001 1.289000e+002 -3.357086e-002 1.398177e+002
514345035.86259 -2.879949e-001 1.773672e+002 -6.597929e+001 1.291640e+002 -6.623936e+001 1.317949e+002 -3.116973e-002 1.396752e+002
514722536.80634 -2.883294e-001 1.772109e+002 -6.573344e+001 1.323507e+002 -6.574776e+001 1.311107e+002 -2.306228e-002 1.395619e+002
515100037.75009 -2.880859e-001 1.770048e+002 -6.556735e+001 1.282186e+002 -6.485114e+001 1.200389e+002 -1.599995e-002 1.394525e+002
515477538.69385 -2.894863e-001 1.766979e+002 -6.448040e+001 1.310102e+002 -6.568882e+001 1.204624e+002 -9.112343e-003 1.393653e+002
515855039.6376 -2.890408e-001 1.765577e+002 -6.655353e+001 1.266152e+002 -6.500548e+001 1.199198e+002 -1.191168e-004 1.393090e+002
516232540.58135 -2.933984e-001 1.763081e+002 -6.540305e+001 1.265017e+002 -6.500575e+001 1.216110e+002 8.004350e-003 1.392735e+002
516610041.5251 -2.945589e-001 1.761277e+002 -6.410933e+001 1.184682e+002 -6.624995e+001 1.236709e+002 1.122762e-002 1.392442e+002
516987542.46886 -2.942751e-001 1.759229e+002 -6.525097e+001 1.212403e+002 -6.428497e+001 1.243247e+002 1.625593e-002 1.392540e+002
517365043.41261 -2.972176e-001 1.756495e+002 -6.466866e+001 1.234010e+002 -6.438537e+001 1.192486e+002 2.225957e-002 1.392520e+002
517742544.35636 -2.978981e-001 1.753924e+002 -6.492564e+001 1.207625e+002 -6.448978e+001 1.142931e+002 2.993300e-002 1.392988e+002
518120045.30011 -3.019443e-001 1.752531e+002 -6.399291e+001 1.232432e+002 -6.415421e+001 1.195029e+002 3.721853e-002 1.393508e+002
518497546.24387 -3.004218e-001 1.750119e+002 -6.440202e+001 1.159569e+002 -6.422139e+001 1.160915e+002 4.272952e-002 1.394417e+002
518875047.18762 -3.031707e-001 1.748069e+002 -6.521274e+001 1.190537e+002 -6.525100e+001 1.165250e+002 5.040126e-002 1.395262e+002
519252548.13137 -3.089076e-001 1.745632e+002 -6.503342e+001 1.172451e+002 -6.456853e+001 1.216874e+002 5.276620e-002 1.396187e+002
519630049.07512 -3.107220e-001 1.743661e+002 -6.626324e+001 1.089318e+002 -6.552525e+001 1.106336e+002 5.516426e-002 1.397484e+002
520007550.01888 -3.063911e-001 1.740628e+002 -6.425542e+001 1.171451e+002 -6.439226e+001 1.131558e+002 5.898749e-002 1.398810e+002
520385050.96263 -3.112692e-001 1.739400e+002 -6.307253e+001 1.142327e+002 -6.541222e+001 1.084858e+002 5.980883e-002 1.400005e+002
520762551.90638 -3.142389e-001 1.737015e+002 -6.452015e+001 1.168563e+002 -6.524695e+001 1.194092e+002 6.274620e-002 1.401589e+002
521140052.85013 -3.152134e-001 1.734261e+002 -6.591582e+001 1.141190e+002 -6.579978e+001 1.203017e+002 6.473446e-002 1.403068e+002
521517553.79388 -3.172922e-001 1.732191e+002 -6.532185e+001 1.109073e+002 -6.506360e+001 1.091109e+002 6.270620e-002 1.404827e+002
521895054.73764 -3.188933e-001 1.730179e+002 -6.605282e+001 1.123027e+002 -6.542894e+001 1.134376e+002 6.353447e-002 1.406151e+002
522272555.68139 -3.216276e-001 1.728221e+002 -6.397547e+001 1.099147e+002 -6.533661e+001 1.067444e+002 6.199791e-002 1.408015e+002
522650056.62514 -3.230527e-001 1.725431e+002 -6.537134e+001 1.058443e+002 -6.543736e+001 1.113143e+002 5.930016e-002 1.409070e+002
523027557.56889 -3.293314e-001 1.723266e+002 -6.587254e+001 1.116652e+002 -6.567506e+001 1.087633e+002 5.426711e-002 1.411009e+002
523405058.51265 -3.242858e-001 1.720981e+002 -6.557818e+001 1.020233e+002 -6.506519e+001 1.177355e+002 5.236020e-002 1.413261e+002
523782559.4564 -3.270263e-001 1.718610e+002 -6.537193e+001 1.017168e+002 -6.436047e+001 1.059654e+002 5.001603e-002 1.413859e+002
524160060.40015 -3.309245e-001 1.716150e+002 -6.588634e+001 1.184744e+002 -6.440565e+001 1.099606e+002 4.335485e-002 1.415256e+002
524537561.3439 -3.351856e-001 1.714006e+002 -6.484073e+001 1.156038e+002 -6.441824e+001 1.149726e+002 3.556196e-002 1.416302e+002
524915062.28766 -3.366809e-001 1.711449e+002 -6.417477e+001 1.076278e+002 -6.449395e+001 1.104622e+002 3.121353e-002 1.417760e+002
525292563.23141 -3.385279e-001 1.708567e+002 -6.323437e+001 1.086735e+002 -6.484547e+001 1.096416e+002 1.965940e-002 1.418557e+002
525670064.17516 -3.419409e-001 1.707078e+002 -6.436580e+001 1.088626e+002 -6.441989e+001 1.082150e+002 1.530330e-002 1.419045e+002
526047565.11891 -3.384036e-001 1.704159e+002 -6.396421e+001 1.095958e+002 -6.390984e+001 1.044738e+002 4.553305e-003 1.419639e+002
526425066.06267 -3.489892e-001 1.701989e+002 -6.445294e+001 9.913792e+001 -6.262411e+001 1.074561e+002 -4.534468e-003 1.420124e+002
526802567.00642 -3.517635e-001 1.699214e+002 -6.327258e+001 1.032493e+002 -6.387891e+001 1.044520e+002 -1.270574e-002 1.420080e+002
527180067.95017 -3.505155e-001 1.697011e+002 -6.392542e+001 1.124525e+002 -6.318323e+001 1.008415e+002 -2.190617e-002 1.419874e+002
527557568.89392 -3.565270e-001 1.695158e+002 -6.353118e+001 1.007846e+002 -6.313712e+001 1.092682e+002 -2.490463e-002 1.419019e+002
527935069.83767 -3.640284e-001 1.692337e+002 -6.350815e+001 1.060605e+002 -6.247155e+001 1.017552e+002 -3.733297e-002 1.419054e+002
528312570.78143 -3.620738e-001 1.689875e+002 -6.490618e+001 9.999191e+001 -6.319199e+001 1.034218e+002 -4.686116e-002 1.418457e+002
528690071.72518 -3.673945e-001 1.688115e+002 -6.302542e+001 1.001074e+002 -6.345409e+001 1.011011e+002 -5.301476e-002 1.417023e+002
529067572.66893 -3.712944e-001 1.685061e+002 -6.371813e+001 1.006911e+002 -6.398280e+001 9.993668e+001 -6.640446e-002 1.416346e+002
529445073.61268 -3.759243e-001 1.683446e+002 -6.318891e+001 9.610899e+001 -6.307610e+001 9.751042e+001 -7.187160e-002 1.414891e+002
529822574.55644 -3.764125e-001 1.680968e+002 -6.323743e+001 1.009861e+002 -6.372258e+001 9.138890e+001 -8.342037e-002 1.412902e+002
530200075.50019 -3.816412e-001 1.678051e+002 -6.348552e+001 1.025920e+002 -6.274997e+001 9.192239e+001 -8.716726e-002 1.410988e+002
530577576.44394 -3.858693e-001 1.675310e+002 -6.370119e+001 9.782191e+001 -6.262428e+001 9.350588e+001 -1.039740e-001 1.408764e+002
530955077.38769 -3.885970e-001 1.672957e+002 -6.300395e+001 9.739104e+001 -6.278543e+001 9.046989e+001 -1.083189e-001 1.406595e+002
531332578.33145 -3.930728e-001 1.671130e+002 -6.286034e+001 9.351749e+001 -6.293208e+001 9.371850e+001 -1.125692e-001 1.404135e+002
531710079.2752 -3.946353e-001 1.668084e+002 -6.283659e+001 9.576099e+001 -6.286456e+001 9.143224e+001 -1.229680e-001 1.401240e+002
532087580.21895 -3.987640e-001 1.665868e+002 -6.316136e+001 1.025253e+002 -6.307278e+001 9.383720e+001 -1.253890e-001 1.398307e+002
532465081.1627 -4.047928e-001 1.663670e+002 -6.449019e+001 8.511980e+001 -6.225597e+001 8.794161e+001 -1.297645e-001 1.394809e+002
532842582.10646 -4.075026e-001 1.661354e+002 -6.257056e+001 9.383388e+001 -6.245683e+001 9.106468e+001 -1.358301e-001 1.392403e+002
533220083.05021 -4.102203e-001 1.658576e+002 -6.272010e+001 8.754097e+001 -6.255137e+001 8.834978e+001 -1.377770e-001 1.389429e+002
533597583.99396 -4.166597e-001 1.656302e+002 -6.288995e+001 8.925542e+001 -6.295911e+001 8.892272e+001 -1.395517e-001 1.386626e+002
533975084.93771 -4.189762e-001 1.653554e+002 -6.355309e+001 9.134078e+001 -6.220252e+001 9.293020e+001 -1.446318e-001 1.382920e+002
534352585.88146 -4.241621e-001 1.651123e+002 -6.345087e+001 9.464654e+001 -6.274381e+001 8.685439e+001 -1.432090e-001 1.379928e+002
534730086.82522 -4.264512e-001 1.648904e+002 -6.314568e+001 8.605180e+001 -6.253254e+001 7.931771e+001 -1.355888e-001 1.376407e+002
535107587.76897 -4.306137e-001 1.646349e+002 -6.300777e+001 8.762081e+001 -6.302827e+001 8.699504e+001 -1.392714e-001 1.373827e+002
535485088.71272 -4.323844e-001 1.643382e+002 -6.256698e+001 9.004942e+001 -6.264780e+001 8.577402e+001 -1.369423e-001 1.370524e+002
535862589.65647 -4.394441e-001 1.640789e+002 -6.271295e+001 8.402184e+001 -6.273950e+001 7.758509e+001 -1.334876e-001 1.367693e+002
536240090.60023 -4.377242e-001 1.638784e+002 -6.295997e+001 8.221339e+001 -6.291028e+001 8.296405e+001 -1.300924e-001 1.364993e+002
536617591.54398 -4.444022e-001 1.635820e+002 -6.269099e+001 8.614511e+001 -6.327858e+001 8.382536e+001 -1.259732e-001 1.362152e+002
536995092.48773 -4.509929e-001 1.633897e+002 -6.241478e+001 8.619153e+001 -6.320966e+001 8.595992e+001 -1.167531e-001 1.359906e+002
537372593.43148 -4.504911e-001 1.630955e+002 -6.209600e+001 8.103497e+001 -6.249816e+001 8.397000e+001 -1.085197e-001 1.357837e+002
537750094.37524 -4.507775e-001 1.628364e+002 -6.155144e+001 8.609870e+001 -6.333016e+001 8.053239e+001 -1.001329e-001 1.355695e+002
538127595.31899 -4.602147e-001 1.626225e+002 -6.237727e+001 8.821808e+001 -6.296382e+001 7.887048e+001 -9.503317e-002 1.353911e+002
538505096.26274 -4.592674e-001 1.623941e+002 -6.292830e+001 8.988367e+001 -6.293160e+001 8.214088e+001 -8.215547e-002 1.352641e+002
538882597.20649 -4.639169e-001 1.621422e+002 -6.247405e+001 8.124438e+001 -6.259095e+001 7.577460e+001 -7.337012e-002 1.350931e+002
539260098.15025 -4.701697e-001 1.618438e+002 -6.251149e+001 8.158439e+001 -6.264994e+001 7.557691e+001 -6.290589e-002 1.349967e+002
539637599.094 -4.751370e-001 1.616412e+002 -6.228153e+001 8.198805e+001 -6.248176e+001 8.336650e+001 -5.634142e-002 1.349056e+002
540015100.03775 -4.792044e-001 1.614086e+002 -6.189901e+001 7.850750e+001 -6.227670e+001 7.837318e+001 -4.653057e-002 1.348954e+002
540392600.9815 -4.794869e-001 1.611382e+002 -6.178390e+001 7.826991e+001 -6.266188e+001 7.464117e+001 -4.107928e-002 1.348082e+002
540770101.92525 -4.883091e-001 1.608267e+002 -6.146988e+001 8.447189e+001 -6.182753e+001 7.440816e+001 -3.003542e-002 1.348045e+002
541147602.86901 -4.894534e-001 1.606354e+002 -6.169897e+001 7.811047e+001 -6.242239e+001 7.878957e+001 -2.259335e-002 1.348205e+002
541525103.81276 -4.885909e-001 1.603137e+002 -6.192595e+001 8.039543e+001 -6.215468e+001 7.717138e+001 -1.283424e-002 1.348549e+002
541902604.75651 -4.968558e-001 1.600786e+002 -6.180598e+001 7.766210e+001 -6.119002e+001 7.824193e+001 -7.835342e-003 1.349106e+002
542280105.70026 -5.045044e-001 1.598098e+002 -6.084039e+001 8.017370e+001 -6.158802e+001 7.086058e+001 4.233098e-003 1.350111e+002
542657606.64402 -5.065472e-001 1.595891e+002 -6.151931e+001 8.259174e+001 -6.152760e+001 7.356467e+001 7.270585e-003 1.351080e+002
543035107.58777 -5.119817e-001 1.593633e+002 -6.149603e+001 8.013356e+001 -6.170211e+001 7.220070e+001 1.451655e-002 1.352201e+002
543412608.53152 -5.179209e-001 1.590742e+002 -6.172573e+001 7.822523e+001 -6.103738e+001 7.396357e+001 1.854174e-002 1.353472e+002
543790109.47527 -5.205169e-001 1.588543e+002 -6.134252e+001 7.413821e+001 -6.131853e+001 7.648350e+001 2.433018e-002 1.354943e+002
544167610.41903 -5.287825e-001 1.585661e+002 -6.097028e+001 7.075318e+001 -6.115632e+001 7.106239e+001 3.158825e-002 1.356501e+002
544545111.36278 -5.304705e-001 1.583543e+002 -6.056226e+001 7.505017e+001 -6.126349e+001 6.919968e+001 3.311681e-002 1.358179e+002
544922612.30653 -5.350540e-001 1.579936e+002 -6.113826e+001 7.115458e+001 -6.098037e+001 6.767458e+001 3.908002e-002 1.360030e+002
545300113.25028 -5.420344e-001 1.577793e+002 -6.043813e+001 7.132417e+001 -6.107267e+001 7.065556e+001 3.948477e-002 1.361832e+002
545677614.19404 -5.428760e-001 1.574819e+002 -6.020446e+001 7.056618e+001 -6.055241e+001 6.879474e+001 3.965124e-002 1.363714e+002
546055115.13779 -5.490296e-001 1.572322e+002 -6.028297e+001 6.858999e+001 -6.088609e+001 6.396269e+001 3.849567e-002 1.365751e+002
546432616.08154 -5.547224e-001 1.569426e+002 -6.118890e+001 6.778531e+001 -6.109196e+001 6.482403e+001 4.242776e-002 1.367530e+002
546810117.02529 -5.601422e-001 1.566452e+002 -6.068344e+001 6.849448e+001 -6.079587e+001 6.300082e+001 4.101741e-002 1.369422e+002
547187617.96904 -5.670072e-001 1.564392e+002 -6.053340e+001 6.748254e+001 -6.109860e+001 6.178502e+001 4.306708e-002 1.371198e+002
547565118.9128 -5.736145e-001 1.561243e+002 -6.041737e+001 6.438358e+001 -6.085347e+001 6.379221e+001 3.742476e-002 1.372946e+002
547942619.85655 -5.838982e-001 1.559000e+002 -5.987711e+001 6.191834e+001 -6.042440e+001 5.964830e+001 3.693484e-002 1.374372e+002
548320120.8003 -5.874324e-001 1.556112e+002 -5.947758e+001 6.155076e+001 -6.049812e+001 6.068610e+001 2.933826e-002 1.375985e+002
548697621.74405 -5.933349e-001 1.553037e+002 -6.027608e+001 6.216930e+001 -6.038859e+001 5.692483e+001 2.455489e-002 1.377354e+002
549075122.68781 -6.014701e-001 1.550701e+002 -6.008180e+001 6.622649e+001 -6.012563e+001 5.398596e+001 2.132923e-002 1.379137e+002
549452623.63156 -6.122176e-001 1.547531e+002 -5.948792e+001 6.005153e+001 -6.007480e+001 5.693929e+001 1.275125e-002 1.379592e+002
549830124.57531 -6.166044e-001 1.545159e+002 -6.053734e+001 5.953956e+001 -6.005514e+001 5.816183e+001 5.698550e-003 1.380587e+002
550207625.51906 -6.233206e-001 1.541942e+002 -6.020770e+001 6.361923e+001 -6.067285e+001 5.442500e+001 -1.764025e-003 1.381209e+002
550585126.46282 -6.329124e-001 1.539079e+002 -5.994791e+001 5.614186e+001 -6.011014e+001 5.531960e+001 -1.053027e-002 1.381624e+002
550962627.40657 -6.382357e-001 1.536054e+002 -6.010971e+001 6.413464e+001 -5.993353e+001 5.346270e+001 -1.724573e-002 1.381701e+002
551340128.35032 -6.465805e-001 1.533466e+002 -5.906536e+001 5.928507e+001 -5.995720e+001 4.970998e+001 -2.755437e-002 1.381554e+002
551717629.29407 -6.558307e-001 1.530258e+002 -6.023699e+001 5.283927e+001 -6.020073e+001 5.496965e+001 -3.397691e-002 1.381596e+002
552095130.23783 -6.629422e-001 1.527249e+002 -5.918310e+001 5.836453e+001 -5.970337e+001 5.072979e+001 -4.293658e-002 1.380883e+002
552472631.18158 -6.717331e-001 1.524738e+002 -5.901875e+001 5.172864e+001 -5.983033e+001 5.250239e+001 -5.305975e-002 1.380276e+002
552850132.12533 -6.769156e-001 1.522052e+002 -5.963398e+001 5.182172e+001 -5.938932e+001 5.100843e+001 -6.058382e-002 1.379090e+002
553227633.06908 -6.904812e-001 1.518373e+002 -5.932257e+001 5.090958e+001 -5.916521e+001 4.963453e+001 -7.139397e-002 1.378055e+002
553605134.01284 -6.951604e-001 1.516024e+002 -5.880399e+001 5.205820e+001 -5.874269e+001 4.847367e+001 -7.988986e-002 1.376542e+002
553982634.95659 -7.054114e-001 1.512749e+002 -5.825032e+001 5.076797e+001 -5.945766e+001 4.670010e+001 -8.997522e-002 1.374934e+002
554360135.90034 -7.166126e-001 1.509609e+002 -5.855744e+001 4.949989e+001 -5.873575e+001 4.732461e+001 -9.763473e-002 1.372899e+002
554737636.84409 -7.255291e-001 1.507167e+002 -5.847689e+001 5.349313e+001 -5.876381e+001 4.652549e+001 -1.060714e-001 1.370833e+002
555115137.78784 -7.326004e-001 1.503680e+002 -5.819605e+001 5.016717e+001 -5.866823e+001 3.986501e+001 -1.073821e-001 1.368163e+002
555492638.7316 -7.428651e-001 1.500462e+002 -5.839745e+001 4.976056e+001 -5.890865e+001 3.947588e+001 -1.160161e-001 1.365921e+002
555870139.67535 -7.500194e-001 1.497767e+002 -5.846061e+001 4.582944e+001 -5.882673e+001 3.453293e+001 -1.207664e-001 1.363486e+002
