!Agilent Technologies,E8364B,US42250235,A.06.04.32
!Agilent E8364B: A.06.04.32
!Date: Thursday, October 01, 2020 15:41:46
!Correction: S11(Full 2 Port(1,2)) S21(Full 2 Port(1,2)) S12(Full 2 Port(1,2)) S22(Full 2 Port(1,2)) 
!S2P File: Measurements: S11, S21, S12, S22:
# Hz S  dB   R 50
500000000 -2.045286e-001 -1.751083e+002 -7.335396e+001 4.502163e+001 -6.977552e+001 1.621566e+002 -2.204467e-002 1.436637e+002
500377500.94375 -2.038373e-001 -1.753819e+002 -7.353908e+001 5.953923e+001 -6.900894e+001 1.528482e+002 -2.555733e-002 1.438165e+002
500755001.8875 -2.088762e-001 -1.754926e+002 -7.779959e+001 9.668631e+000 -6.731618e+001 1.452296e+002 -2.505266e-002 1.439020e+002
501132502.83126 -2.103261e-001 -1.757723e+002 -7.320002e+001 4.137600e+001 -6.835452e+001 1.440921e+002 -3.425927e-002 1.440041e+002
501510003.77501 -2.116893e-001 -1.759650e+002 -7.303233e+001 6.572183e+001 -7.060255e+001 1.427478e+002 -3.863026e-002 1.440906e+002
501887504.71876 -2.137438e-001 -1.761741e+002 -7.431684e+001 5.766742e+001 -6.789098e+001 1.406866e+002 -4.135187e-002 1.441420e+002
502265005.66251 -2.200924e-001 -1.763826e+002 -7.410439e+001 3.836427e+001 -6.854996e+001 1.441552e+002 -4.952177e-002 1.442113e+002
502642506.60627 -2.180413e-001 -1.765539e+002 -7.153937e+001 3.356707e+001 -6.961678e+001 1.477006e+002 -5.594074e-002 1.442894e+002
503020007.55002 -2.208824e-001 -1.767927e+002 -7.256099e+001 2.226991e+001 -6.892211e+001 1.362383e+002 -6.410259e-002 1.442519e+002
503397508.49377 -2.229584e-001 -1.769978e+002 -7.361616e+001 2.535789e+001 -6.855811e+001 1.299034e+002 -7.058689e-002 1.442702e+002
503775009.43752 -2.226697e-001 -1.772000e+002 -7.161688e+001 3.804768e+001 -6.840466e+001 1.406954e+002 -7.821818e-002 1.442431e+002
504152510.38128 -2.235452e-001 -1.773892e+002 -7.349662e+001 2.265948e+001 -6.817246e+001 1.307033e+002 -8.826026e-002 1.442041e+002
504530011.32503 -2.250717e-001 -1.776530e+002 -7.143143e+001 3.635926e+001 -6.935128e+001 1.295103e+002 -9.690481e-002 1.441458e+002
504907512.26878 -2.283298e-001 -1.778140e+002 -6.938241e+001 3.430210e+001 -7.043010e+001 1.329507e+002 -1.029474e-001 1.440811e+002
505285013.21253 -2.315517e-001 -1.779739e+002 -7.368531e+001 9.207515e+000 -6.819744e+001 1.356848e+002 -1.111002e-001 1.440110e+002
505662514.15629 -2.288894e-001 -1.782029e+002 -7.295550e+001 2.853775e+001 -6.883757e+001 1.312815e+002 -1.175356e-001 1.439101e+002
506040015.10004 -2.316453e-001 -1.784497e+002 -7.525674e+001 2.148380e+001 -6.843096e+001 1.330557e+002 -1.290656e-001 1.437686e+002
506417516.04379 -2.361719e-001 -1.786889e+002 -7.021228e+001 1.391810e+001 -6.819323e+001 1.334787e+002 -1.353940e-001 1.436191e+002
506795016.98754 -2.403110e-001 -1.788703e+002 -7.149478e+001 2.758077e+001 -6.884412e+001 1.306292e+002 -1.403450e-001 1.434240e+002
507172517.93129 -2.413112e-001 -1.790426e+002 -7.163766e+001 1.779393e+001 -6.950594e+001 1.413360e+002 -1.443939e-001 1.432754e+002
507550018.87505 -2.443034e-001 -1.792854e+002 -7.612153e+001 1.170927e+001 -6.765800e+001 1.298210e+002 -1.525323e-001 1.430530e+002
507927519.8188 -2.437586e-001 -1.794839e+002 -7.474250e+001 2.014039e+001 -6.883147e+001 1.307835e+002 -1.593709e-001 1.428673e+002
508305020.76255 -2.483508e-001 -1.797230e+002 -7.193938e+001 1.243754e+001 -6.819117e+001 1.296414e+002 -1.663109e-001 1.426426e+002
508682521.7063 -2.503045e-001 -1.799411e+002 -7.279944e+001 3.003362e+001 -6.941979e+001 1.326039e+002 -1.734206e-001 1.424383e+002
509060022.65006 -2.532215e-001 1.798380e+002 -7.099288e+001 9.610085e+000 -6.790697e+001 1.388472e+002 -1.718280e-001 1.421551e+002
509437523.59381 -2.525877e-001 1.796055e+002 -7.780641e+001 2.351769e+001 -6.824451e+001 1.288482e+002 -1.731748e-001 1.419398e+002
509815024.53756 -2.546466e-001 1.794305e+002 -7.147161e+001 3.027585e+001 -6.696542e+001 1.306960e+002 -1.731179e-001 1.416803e+002
510192525.48131 -2.555918e-001 1.791720e+002 -7.413421e+001 2.715825e+001 -6.757037e+001 1.325576e+002 -1.740357e-001 1.414262e+002
510570026.42507 -2.618484e-001 1.789458e+002 -7.276722e+001 2.263607e+001 -6.678439e+001 1.385071e+002 -1.762158e-001 1.411622e+002
510947527.36882 -2.636066e-001 1.787526e+002 -7.097838e+001 1.994122e+001 -6.696951e+001 1.285899e+002 -1.781787e-001 1.409313e+002
511325028.31257 -2.685036e-001 1.785236e+002 -7.462242e+001 2.722145e+001 -6.819151e+001 1.265219e+002 -1.754385e-001 1.406650e+002
511702529.25632 -2.682286e-001 1.783079e+002 -7.204426e+001 5.395286e+000 -6.696528e+001 1.332378e+002 -1.730978e-001 1.404372e+002
512080030.20008 -2.737026e-001 1.780370e+002 -7.410471e+001 2.121946e+001 -6.665479e+001 1.269358e+002 -1.713247e-001 1.401896e+002
512457531.14383 -2.774271e-001 1.779086e+002 -7.649133e+001 2.396709e+001 -6.669794e+001 1.300242e+002 -1.629624e-001 1.399956e+002
512835032.08758 -2.780364e-001 1.776483e+002 -7.538604e+001 2.184283e+001 -6.819415e+001 1.247798e+002 -1.613146e-001 1.397782e+002
513212533.03133 -2.807990e-001 1.774123e+002 -7.187128e+001 3.627850e+000 -6.720683e+001 1.358246e+002 -1.563856e-001 1.395485e+002
513590033.97508 -2.824942e-001 1.772029e+002 -7.444402e+001 3.054224e+001 -6.695576e+001 1.326016e+002 -1.473479e-001 1.393747e+002
513967534.91884 -2.862399e-001 1.769879e+002 -7.312945e+001 1.956853e+001 -6.655398e+001 1.216256e+002 -1.429267e-001 1.392295e+002
514345035.86259 -2.864279e-001 1.767595e+002 -7.429516e+001 1.826238e+001 -6.528252e+001 1.219011e+002 -1.364488e-001 1.390642e+002
514722536.80634 -2.884762e-001 1.765784e+002 -7.248119e+001 1.872788e+001 -6.606279e+001 1.185952e+002 -1.315521e-001 1.389448e+002
515100037.75009 -2.882568e-001 1.763240e+002 -7.603906e+001 1.605594e+001 -6.618758e+001 1.260818e+002 -1.221263e-001 1.388317e+002
515477538.69385 -2.895684e-001 1.760960e+002 -7.269048e+001 4.698494e+000 -6.746239e+001 1.212582e+002 -1.154221e-001 1.387104e+002
515855039.6376 -2.906292e-001 1.758738e+002 -7.255220e+001 2.703916e+001 -6.624438e+001 1.234111e+002 -1.068762e-001 1.386643e+002
516232540.58135 -2.943128e-001 1.756525e+002 -7.396750e+001 2.902294e+001 -6.718244e+001 1.140370e+002 -9.992860e-002 1.386179e+002
516610041.5251 -2.974287e-001 1.754144e+002 -7.415740e+001 6.890490e+000 -6.737424e+001 1.175959e+002 -9.326095e-002 1.385823e+002
516987542.46886 -2.990952e-001 1.751895e+002 -7.328744e+001 2.974365e+001 -6.614027e+001 1.123761e+002 -8.790709e-002 1.385638e+002
517365043.41261 -3.055615e-001 1.749723e+002 -7.150974e+001 3.148579e+001 -6.558201e+001 1.165477e+002 -8.085700e-002 1.385549e+002
517742544.35636 -3.040137e-001 1.746878e+002 -7.200072e+001 7.040087e+000 -6.653050e+001 1.164230e+002 -7.170917e-002 1.386197e+002
518120045.30011 -3.103941e-001 1.745098e+002 -7.187666e+001 1.051358e+001 -6.643342e+001 1.048295e+002 -6.585465e-002 1.386535e+002
518497546.24387 -3.131187e-001 1.742964e+002 -7.354434e+001 1.564213e+001 -6.658559e+001 9.525544e+001 -5.980670e-002 1.387363e+002
518875047.18762 -3.169529e-001 1.740523e+002 -7.287061e+001 3.196352e+000 -6.644920e+001 1.114502e+002 -5.296396e-002 1.388172e+002
519252548.13137 -3.220916e-001 1.738170e+002 -6.990192e+001 2.197440e+001 -6.661566e+001 1.134953e+002 -5.022336e-002 1.389137e+002
519630049.07512 -3.284578e-001 1.735771e+002 -6.895414e+001 8.470456e+000 -6.596036e+001 1.011192e+002 -4.336883e-002 1.389995e+002
520007550.01888 -3.267038e-001 1.733530e+002 -6.977293e+001 6.680313e+000 -6.641048e+001 1.026877e+002 -4.659681e-002 1.391699e+002
520385050.96263 -3.302134e-001 1.731702e+002 -7.131740e+001 -5.304994e+000 -6.652675e+001 9.879071e+001 -4.130114e-002 1.392813e+002
520762551.90638 -3.343653e-001 1.728967e+002 -7.249767e+001 1.659010e+001 -6.644879e+001 1.024927e+002 -3.639759e-002 1.394220e+002
521140052.85013 -3.373481e-001 1.726575e+002 -7.072430e+001 -1.608892e+000 -6.514808e+001 1.015697e+002 -3.510943e-002 1.395535e+002
521517553.79388 -3.427162e-001 1.724378e+002 -7.129841e+001 1.237702e+001 -6.524011e+001 1.074532e+002 -3.301506e-002 1.397506e+002
521895054.73764 -3.466862e-001 1.722003e+002 -6.971380e+001 7.616707e+000 -6.566812e+001 1.087898e+002 -3.314902e-002 1.399017e+002
522272555.68139 -3.499002e-001 1.719706e+002 -6.949966e+001 1.561696e+000 -6.649648e+001 1.031621e+002 -3.506310e-002 1.400628e+002
522650056.62514 -3.536589e-001 1.717287e+002 -7.187449e+001 -8.570603e+000 -6.561158e+001 1.051289e+002 -3.976545e-002 1.402091e+002
523027557.56889 -3.623721e-001 1.715110e+002 -6.911755e+001 -4.703133e+000 -6.593653e+001 1.034844e+002 -3.764873e-002 1.403720e+002
523405058.51265 -3.650670e-001 1.712564e+002 -6.920705e+001 -5.107275e+000 -6.478468e+001 1.068968e+002 -3.836263e-002 1.405714e+002
523782559.4564 -3.710719e-001 1.710291e+002 -6.999916e+001 -2.878819e-001 -6.672835e+001 1.008276e+002 -4.474527e-002 1.406799e+002
524160060.40015 -3.752536e-001 1.707844e+002 -7.062982e+001 -1.553354e+000 -6.539321e+001 1.061352e+002 -4.635622e-002 1.408111e+002
524537561.3439 -3.792355e-001 1.705588e+002 -6.927726e+001 -4.300802e+000 -6.564670e+001 9.418642e+001 -5.620808e-002 1.409313e+002
524915062.28766 -3.852672e-001 1.703385e+002 -6.969619e+001 -6.524730e+000 -6.522289e+001 1.038010e+002 -5.934263e-002 1.410586e+002
525292563.23141 -3.921697e-001 1.700521e+002 -7.243968e+001 -1.465399e+001 -6.509387e+001 9.961736e+001 -6.771352e-002 1.411219e+002
525670064.17516 -3.952823e-001 1.698569e+002 -7.247878e+001 -9.598435e-001 -6.545711e+001 1.032999e+002 -7.758770e-002 1.412010e+002
526047565.11891 -3.990851e-001 1.695751e+002 -7.345412e+001 -2.160279e+001 -6.601875e+001 9.972032e+001 -8.417515e-002 1.412585e+002
526425066.06267 -4.086696e-001 1.693246e+002 -6.923866e+001 -4.258274e+000 -6.529203e+001 9.201859e+001 -9.361322e-002 1.413049e+002
526802567.00642 -4.127338e-001 1.690549e+002 -7.011069e+001 -1.164329e+001 -6.439901e+001 9.716895e+001 -1.005993e-001 1.412949e+002
527180067.95017 -4.170168e-001 1.688321e+002 -6.877284e+001 -3.294559e+000 -6.570812e+001 1.019218e+002 -1.084690e-001 1.412950e+002
527557568.89392 -4.258589e-001 1.686342e+002 -7.006601e+001 -8.992341e+000 -6.401009e+001 9.462298e+001 -1.130591e-001 1.412831e+002
527935069.83767 -4.352473e-001 1.683365e+002 -7.105173e+001 2.022578e+001 -6.485508e+001 9.677028e+001 -1.268197e-001 1.412231e+002
528312570.78143 -4.369007e-001 1.681031e+002 -6.993988e+001 1.342572e+000 -6.359292e+001 9.235079e+001 -1.338836e-001 1.411539e+002
528690071.72518 -4.428587e-001 1.679201e+002 -6.911127e+001 -1.149587e+001 -6.434341e+001 9.087041e+001 -1.392310e-001 1.410624e+002
529067572.66893 -4.521603e-001 1.676161e+002 -6.666235e+001 -9.750429e+000 -6.454392e+001 8.966921e+001 -1.541744e-001 1.409369e+002
529445073.61268 -4.581034e-001 1.674453e+002 -6.822942e+001 -9.170049e+000 -6.353707e+001 8.857626e+001 -1.622867e-001 1.408007e+002
529822574.55644 -4.643810e-001 1.671794e+002 -6.821017e+001 -6.376137e+000 -6.363823e+001 8.654375e+001 -1.690468e-001 1.406044e+002
530200075.50019 -4.716757e-001 1.668950e+002 -6.769642e+001 -6.892359e+000 -6.466611e+001 8.187582e+001 -1.732426e-001 1.404156e+002
530577576.44394 -4.756918e-001 1.666151e+002 -6.732164e+001 -1.603250e+001 -6.449486e+001 9.075283e+001 -1.836897e-001 1.402121e+002
530955077.38769 -4.838925e-001 1.663908e+002 -6.653396e+001 -1.024498e+001 -6.348405e+001 8.467112e+001 -1.885323e-001 1.400006e+002
531332578.33145 -4.928191e-001 1.661889e+002 -6.682271e+001 -7.166556e+000 -6.278063e+001 8.862523e+001 -1.958141e-001 1.397501e+002
531710079.2752 -4.998981e-001 1.658848e+002 -6.906956e+001 -3.817907e+000 -6.314475e+001 8.152593e+001 -2.026886e-001 1.394605e+002
532087580.21895 -5.062745e-001 1.656573e+002 -6.582333e+001 -9.356503e+000 -6.377922e+001 8.257318e+001 -2.050253e-001 1.391868e+002
532465081.1627 -5.145479e-001 1.654417e+002 -6.726379e+001 -1.576481e+001 -6.435609e+001 8.076185e+001 -2.091322e-001 1.388927e+002
532842582.10646 -5.240855e-001 1.651693e+002 -6.700626e+001 -3.700999e-001 -6.397915e+001 8.458350e+001 -2.093311e-001 1.385457e+002
533220083.05021 -5.320473e-001 1.649288e+002 -6.781380e+001 -1.051598e+001 -6.292531e+001 7.903789e+001 -2.148026e-001 1.382881e+002
533597583.99396 -5.401082e-001 1.647137e+002 -6.865442e+001 -1.017745e+001 -6.310849e+001 7.210519e+001 -2.124780e-001 1.380046e+002
533975084.93771 -5.481934e-001 1.644423e+002 -6.769933e+001 -1.169563e+001 -6.298947e+001 8.065595e+001 -2.170721e-001 1.376691e+002
534352585.88146 -5.559641e-001 1.641866e+002 -6.868626e+001 -1.824338e+001 -6.343862e+001 7.760946e+001 -2.144028e-001 1.373383e+002
534730086.82522 -5.667025e-001 1.639743e+002 -6.821108e+001 -9.542142e+000 -6.330515e+001 7.566097e+001 -2.128409e-001 1.370449e+002
535107587.76897 -5.727426e-001 1.637404e+002 -6.713113e+001 -1.905493e+000 -6.351927e+001 7.341457e+001 -2.144153e-001 1.366976e+002
535485088.71272 -5.773293e-001 1.634546e+002 -6.748013e+001 -5.397748e+000 -6.379024e+001 7.332718e+001 -2.054667e-001 1.364224e+002
535862589.65647 -5.875982e-001 1.632470e+002 -6.720490e+001 -2.274130e+000 -6.245562e+001 7.584200e+001 -2.006692e-001 1.361416e+002
536240090.60023 -5.902032e-001 1.630037e+002 -6.725441e+001 -4.634903e+000 -6.293053e+001 7.247038e+001 -1.981963e-001 1.358628e+002
536617591.54398 -5.992003e-001 1.627146e+002 -6.733293e+001 -7.402059e+000 -6.308562e+001 7.765471e+001 -1.902183e-001 1.355963e+002
536995092.48773 -6.083714e-001 1.625260e+002 -6.749930e+001 -4.992640e+000 -6.275975e+001 7.240199e+001 -1.835026e-001 1.353596e+002
537372593.43148 -6.187458e-001 1.622369e+002 -6.800048e+001 -2.038011e+001 -6.297372e+001 7.184736e+001 -1.723009e-001 1.351323e+002
537750094.37524 -6.208375e-001 1.619995e+002 -6.773587e+001 1.538662e+000 -6.218348e+001 7.051041e+001 -1.644045e-001 1.349353e+002
538127595.31899 -6.346558e-001 1.617729e+002 -6.925863e+001 -4.648096e+000 -6.286188e+001 7.201356e+001 -1.574965e-001 1.347553e+002
538505096.26274 -6.434150e-001 1.615517e+002 -6.716055e+001 -9.957480e+000 -6.315852e+001 6.582975e+001 -1.466243e-001 1.346291e+002
538882597.20649 -6.496270e-001 1.613115e+002 -6.696244e+001 -7.846857e+000 -6.298828e+001 7.178779e+001 -1.360779e-001 1.344465e+002
539260098.15025 -6.595542e-001 1.610303e+002 -6.810062e+001 -6.845512e+000 -6.217508e+001 7.026488e+001 -1.279515e-001 1.343615e+002
539637599.094 -6.697347e-001 1.608445e+002 -6.622633e+001 -4.723652e+000 -6.218542e+001 6.913745e+001 -1.206519e-001 1.342720e+002
540015100.03775 -6.779414e-001 1.606295e+002 -6.654812e+001 -9.187473e+000 -6.233236e+001 6.656211e+001 -1.101374e-001 1.342615e+002
540392600.9815 -6.881422e-001 1.603579e+002 -6.802984e+001 -4.890701e-001 -6.209398e+001 6.914177e+001 -1.016824e-001 1.341733e+002
540770101.92525 -6.981445e-001 1.600793e+002 -6.806462e+001 -8.082746e+000 -6.161725e+001 6.765117e+001 -9.185550e-002 1.341797e+002
541147602.86901 -7.049940e-001 1.599076e+002 -6.617986e+001 -5.856540e-001 -6.198558e+001 6.642242e+001 -8.597676e-002 1.342051e+002
541525103.81276 -7.089987e-001 1.595951e+002 -6.677334e+001 -2.424860e+000 -6.180433e+001 6.648820e+001 -7.731708e-002 1.342355e+002
541902604.75651 -7.216345e-001 1.593822e+002 -6.771088e+001 -1.186029e+001 -6.139606e+001 6.864260e+001 -7.170951e-002 1.342830e+002
542280105.70026 -7.346569e-001 1.591525e+002 -6.713927e+001 -8.421597e+000 -6.213349e+001 6.244807e+001 -6.041973e-002 1.343647e+002
542657606.64402 -7.433923e-001 1.589358e+002 -6.668451e+001 -1.411865e+001 -6.094984e+001 6.476792e+001 -5.511657e-002 1.344664e+002
543035107.58777 -7.548149e-001 1.587269e+002 -6.696276e+001 -9.945910e+000 -6.110067e+001 6.222543e+001 -4.911074e-002 1.345790e+002
543412608.53152 -7.632282e-001 1.584654e+002 -6.605286e+001 -6.544124e+000 -6.110556e+001 6.660406e+001 -4.519334e-002 1.347055e+002
543790109.47527 -7.733075e-001 1.582752e+002 -6.605632e+001 -1.844100e+001 -6.154657e+001 5.974369e+001 -3.928478e-002 1.348476e+002
544167610.41903 -7.879618e-001 1.579760e+002 -6.641621e+001 -1.381382e+001 -6.110320e+001 6.048163e+001 -3.274159e-002 1.350057e+002
544545111.36278 -7.918605e-001 1.578058e+002 -6.531010e+001 -9.625998e+000 -6.096183e+001 6.093713e+001 -3.041198e-002 1.351838e+002
544922612.30653 -8.038346e-001 1.574844e+002 -6.525668e+001 -1.200475e+001 -6.141197e+001 5.868190e+001 -2.713385e-002 1.353668e+002
545300113.25028 -8.146291e-001 1.572929e+002 -6.561061e+001 -1.272856e+001 -6.083530e+001 5.463390e+001 -2.543210e-002 1.355447e+002
545677614.19404 -8.246817e-001 1.570454e+002 -6.546326e+001 -1.182106e+001 -6.092807e+001 5.446692e+001 -2.485860e-002 1.357222e+002
546055115.13779 -8.364236e-001 1.568215e+002 -6.591503e+001 -1.940896e+001 -6.086591e+001 5.153486e+001 -2.700068e-002 1.359356e+002
546432616.08154 -8.466222e-001 1.565692e+002 -6.530189e+001 -2.104345e+001 -6.069572e+001 5.015652e+001 -2.769542e-002 1.360946e+002
546810117.02529 -8.546729e-001 1.563075e+002 -6.439426e+001 -2.204187e+001 -6.022181e+001 5.440396e+001 -2.758320e-002 1.362856e+002
547187617.96904 -8.664629e-001 1.561181e+002 -6.432620e+001 -2.911665e+001 -5.979485e+001 5.203121e+001 -2.761516e-002 1.364697e+002
547565118.9128 -8.813958e-001 1.559054e+002 -6.424532e+001 -2.737276e+001 -6.063151e+001 4.929863e+001 -3.243943e-002 1.366253e+002
547942619.85655 -8.944601e-001 1.556354e+002 -6.472160e+001 -2.265542e+001 -6.073822e+001 4.932271e+001 -3.352241e-002 1.367915e+002
548320120.8003 -9.055509e-001 1.554318e+002 -6.428447e+001 -2.492522e+001 -5.980961e+001 5.084204e+001 -4.167286e-002 1.369238e+002
548697621.74405 -9.161971e-001 1.551577e+002 -6.358650e+001 -3.212038e+001 -6.002334e+001 4.490689e+001 -4.490377e-002 1.370565e+002
549075122.68781 -9.273698e-001 1.549803e+002 -6.386011e+001 -2.968438e+001 -5.993331e+001 4.692798e+001 -5.478885e-002 1.372393e+002
549452623.63156 -9.445645e-001 1.547323e+002 -6.314983e+001 -3.200343e+001 -6.006301e+001 4.623901e+001 -6.204052e-002 1.372775e+002
549830124.57531 -9.556156e-001 1.545047e+002 -6.351315e+001 -4.135677e+001 -6.027088e+001 4.865890e+001 -7.027768e-002 1.373638e+002
550207625.51906 -9.670376e-001 1.542641e+002 -6.299189e+001 -3.755820e+001 -5.991762e+001 4.200260e+001 -8.046761e-002 1.374075e+002
550585126.46282 -9.753950e-001 1.540471e+002 -6.377360e+001 -4.771810e+001 -5.987459e+001 4.757482e+001 -8.785027e-002 1.374524e+002
550962627.40657 -9.877374e-001 1.538476e+002 -6.296669e+001 -4.169717e+001 -5.984307e+001 4.212403e+001 -9.661438e-002 1.374771e+002
551340128.35032 -9.952232e-001 1.536122e+002 -6.341990e+001 -4.278179e+001 -5.993433e+001 4.349171e+001 -1.064492e-001 1.374627e+002
551717629.29407 -1.009522e+000 1.533542e+002 -6.331896e+001 -4.987960e+001 -5.909683e+001 4.193926e+001 -1.183731e-001 1.374213e+002
552095130.23783 -1.021539e+000 1.530812e+002 -6.298925e+001 -4.366020e+001 -5.896559e+001 4.196083e+001 -1.259477e-001 1.373772e+002
552472631.18158 -1.030146e+000 1.528566e+002 -6.259766e+001 -5.221934e+001 -5.911333e+001 3.884504e+001 -1.401106e-001 1.372767e+002
552850132.12533 -1.039514e+000 1.526657e+002 -6.296827e+001 -4.509414e+001 -5.926625e+001 3.960487e+001 -1.483227e-001 1.371717e+002
553227633.06908 -1.054620e+000 1.523500e+002 -6.217311e+001 -4.893908e+001 -5.832603e+001 3.737357e+001 -1.605630e-001 1.370413e+002
553605134.01284 -1.062636e+000 1.521534e+002 -6.209837e+001 -5.583448e+001 -5.875464e+001 3.335238e+001 -1.646766e-001 1.368753e+002
553982634.95659 -1.076923e+000 1.518956e+002 -6.200185e+001 -5.720023e+001 -5.882982e+001 3.301876e+001 -1.791026e-001 1.367138e+002
554360135.90034 -1.091049e+000 1.516683e+002 -6.139330e+001 -5.312092e+001 -5.812806e+001 3.371884e+001 -1.883118e-001 1.364886e+002
554737636.84409 -1.102763e+000 1.514566e+002 -6.028707e+001 -5.305231e+001 -5.807863e+001 3.122480e+001 -1.994922e-001 1.362897e+002
555115137.78784 -1.116266e+000 1.512250e+002 -6.083198e+001 -5.749477e+001 -5.768033e+001 2.975821e+001 -2.027158e-001 1.360331e+002
555492638.7316 -1.131711e+000 1.509265e+002 -6.102631e+001 -6.795383e+001 -5.794326e+001 3.063260e+001 -2.096019e-001 1.357132e+002
