!Agilent Technologies,E8364B,US42250235,A.06.04.32
!Agilent E8364B: A.06.04.32
!Date: Thursday, October 01, 2020 15:42:13
!Correction: S11(Full 2 Port(1,2)) S21(Full 2 Port(1,2)) S12(Full 2 Port(1,2)) S22(Full 2 Port(1,2)) 
!S2P File: Measurements: S11, S21, S12, S22:
# Hz S  dB   R 50
500000000 -2.299218e-001 -1.754920e+002 -7.395969e+001 8.736873e+001 -7.420737e+001 8.062778e+001 -2.624811e-002 1.436463e+002
500377500.94375 -2.300580e-001 -1.756784e+002 -7.137405e+001 7.882845e+001 -7.387846e+001 8.009915e+001 -2.692539e-002 1.437769e+002
500755001.8875 -2.329211e-001 -1.758873e+002 -7.411091e+001 9.177306e+001 -7.057974e+001 8.747403e+001 -2.414562e-002 1.438768e+002
501132502.83126 -2.414564e-001 -1.760544e+002 -7.079453e+001 8.601128e+001 -7.034097e+001 6.167325e+001 -3.191360e-002 1.439742e+002
501510003.77501 -2.401609e-001 -1.762589e+002 -6.911134e+001 6.909574e+001 -7.270376e+001 7.918600e+001 -3.596122e-002 1.440759e+002
501887504.71876 -2.438549e-001 -1.765416e+002 -7.099335e+001 8.814360e+001 -7.199007e+001 8.692877e+001 -3.909779e-002 1.441519e+002
502265005.66251 -2.486465e-001 -1.767259e+002 -7.145264e+001 8.032155e+001 -7.004077e+001 7.775967e+001 -4.222021e-002 1.442323e+002
502642506.60627 -2.522899e-001 -1.769329e+002 -7.516313e+001 7.457344e+001 -7.109661e+001 6.930569e+001 -4.598293e-002 1.443182e+002
503020007.55002 -2.581856e-001 -1.771422e+002 -6.928902e+001 6.716595e+001 -7.061018e+001 6.415189e+001 -5.510479e-002 1.443158e+002
503397508.49377 -2.585410e-001 -1.773033e+002 -7.126216e+001 7.986501e+001 -6.889146e+001 7.720753e+001 -5.669061e-002 1.443606e+002
503775009.43752 -2.640091e-001 -1.776085e+002 -7.097124e+001 6.852796e+001 -7.127697e+001 5.913541e+001 -6.638615e-002 1.443827e+002
504152510.38128 -2.670463e-001 -1.777522e+002 -7.109406e+001 5.717603e+001 -6.964478e+001 5.600803e+001 -7.110676e-002 1.443789e+002
504530011.32503 -2.710425e-001 -1.779824e+002 -7.047053e+001 6.468748e+001 -7.301611e+001 5.100290e+001 -8.225799e-002 1.443546e+002
504907512.26878 -2.773914e-001 -1.781788e+002 -6.948661e+001 6.753037e+001 -7.090527e+001 4.725578e+001 -8.760215e-002 1.443242e+002
505285013.21253 -2.808138e-001 -1.783851e+002 -6.832793e+001 6.591180e+001 -7.091873e+001 5.496223e+001 -9.309591e-002 1.442979e+002
505662514.15629 -2.813378e-001 -1.785998e+002 -7.004185e+001 6.474117e+001 -7.130412e+001 6.721661e+001 -9.982267e-002 1.442067e+002
506040015.10004 -2.880951e-001 -1.787758e+002 -7.103117e+001 5.268518e+001 -7.318243e+001 5.443583e+001 -1.081791e-001 1.441186e+002
506417516.04379 -2.913927e-001 -1.790148e+002 -6.992043e+001 6.054203e+001 -7.120255e+001 5.458318e+001 -1.152261e-001 1.440067e+002
506795016.98754 -3.007723e-001 -1.791873e+002 -6.994168e+001 6.449396e+001 -6.969115e+001 5.296519e+001 -1.204125e-001 1.438679e+002
507172517.93129 -3.025981e-001 -1.794393e+002 -7.042464e+001 5.723402e+001 -6.947801e+001 5.473732e+001 -1.235233e-001 1.437319e+002
507550018.87505 -3.054895e-001 -1.796466e+002 -7.027115e+001 6.772224e+001 -7.345784e+001 6.596870e+001 -1.344188e-001 1.435651e+002
507927519.8188 -3.115120e-001 -1.798262e+002 -7.058511e+001 5.106834e+001 -7.127396e+001 5.204574e+001 -1.412888e-001 1.433647e+002
508305020.76255 -3.113135e-001 1.798947e+002 -6.946288e+001 5.347800e+001 -7.124978e+001 4.264513e+001 -1.464221e-001 1.431676e+002
508682521.7063 -3.188320e-001 1.796844e+002 -7.096654e+001 6.273279e+001 -7.248842e+001 3.988084e+001 -1.558129e-001 1.429691e+002
509060022.65006 -3.238153e-001 1.794786e+002 -7.016368e+001 5.490378e+001 -7.008102e+001 5.607977e+001 -1.557660e-001 1.427192e+002
509437523.59381 -3.296733e-001 1.792464e+002 -7.173182e+001 4.596618e+001 -7.069639e+001 5.919860e+001 -1.599942e-001 1.424920e+002
509815024.53756 -3.325168e-001 1.790730e+002 -7.145631e+001 5.147698e+001 -7.130118e+001 6.309243e+001 -1.631439e-001 1.422318e+002
510192525.48131 -3.394395e-001 1.788572e+002 -6.817689e+001 6.107326e+001 -7.052048e+001 6.015038e+001 -1.625996e-001 1.419760e+002
510570026.42507 -3.471493e-001 1.786873e+002 -6.957489e+001 5.468925e+001 -6.970668e+001 4.795566e+001 -1.664445e-001 1.417168e+002
510947527.36882 -3.489206e-001 1.784403e+002 -6.825387e+001 5.986464e+001 -7.046254e+001 5.830527e+001 -1.645872e-001 1.414501e+002
511325028.31257 -3.549437e-001 1.782868e+002 -6.940193e+001 5.069442e+001 -6.857767e+001 4.585096e+001 -1.657463e-001 1.411769e+002
511702529.25632 -3.573315e-001 1.779807e+002 -7.105930e+001 4.885529e+001 -6.958218e+001 5.057341e+001 -1.653211e-001 1.409106e+002
512080030.20008 -3.650335e-001 1.778226e+002 -7.115314e+001 4.487564e+001 -6.977230e+001 5.188428e+001 -1.632927e-001 1.406414e+002
512457531.14383 -3.694409e-001 1.776006e+002 -6.952576e+001 4.006860e+001 -7.123479e+001 5.054166e+001 -1.612770e-001 1.404051e+002
512835032.08758 -3.757346e-001 1.773763e+002 -7.021469e+001 4.357035e+001 -6.906502e+001 4.395270e+001 -1.590180e-001 1.401453e+002
513212533.03133 -3.782894e-001 1.771416e+002 -6.766963e+001 5.672128e+001 -6.969599e+001 3.967844e+001 -1.543017e-001 1.399063e+002
513590033.97508 -3.843994e-001 1.769334e+002 -6.793392e+001 4.664075e+001 -6.901288e+001 4.596636e+001 -1.451643e-001 1.396875e+002
513967534.91884 -3.836935e-001 1.767536e+002 -7.131070e+001 4.903013e+001 -6.844560e+001 4.873026e+001 -1.392491e-001 1.395115e+002
514345035.86259 -3.881554e-001 1.765137e+002 -7.272546e+001 4.768472e+001 -6.992799e+001 4.915297e+001 -1.346994e-001 1.393130e+002
514722536.80634 -3.941889e-001 1.763381e+002 -6.925343e+001 4.100478e+001 -6.847179e+001 4.432413e+001 -1.280927e-001 1.391589e+002
515100037.75009 -3.967182e-001 1.761543e+002 -6.960954e+001 5.015440e+001 -7.003783e+001 3.995835e+001 -1.199954e-001 1.390207e+002
515477538.69385 -3.997817e-001 1.758437e+002 -6.920800e+001 5.308488e+001 -6.880137e+001 4.450620e+001 -1.141319e-001 1.388775e+002
515855039.6376 -4.074066e-001 1.756687e+002 -6.907040e+001 4.207933e+001 -6.867071e+001 4.322924e+001 -1.034481e-001 1.387893e+002
516232540.58135 -4.130421e-001 1.754729e+002 -7.036901e+001 4.285549e+001 -6.756287e+001 3.478860e+001 -9.507976e-002 1.387259e+002
516610041.5251 -4.197819e-001 1.752382e+002 -6.879307e+001 4.683137e+001 -6.814410e+001 4.622192e+001 -8.583867e-002 1.386754e+002
516987542.46886 -4.184640e-001 1.750101e+002 -6.847361e+001 4.866309e+001 -7.011022e+001 4.234814e+001 -8.210665e-002 1.386544e+002
517365043.41261 -4.276654e-001 1.748671e+002 -6.842622e+001 4.573639e+001 -6.966782e+001 4.034141e+001 -7.249010e-002 1.386245e+002
517742544.35636 -4.345934e-001 1.746002e+002 -6.898449e+001 4.575785e+001 -6.783752e+001 4.132003e+001 -6.115279e-002 1.386738e+002
518120045.30011 -4.382066e-001 1.743797e+002 -6.760311e+001 3.629032e+001 -6.735812e+001 4.025723e+001 -5.424146e-002 1.387225e+002
518497546.24387 -4.442129e-001 1.742256e+002 -6.728941e+001 4.067202e+001 -6.843227e+001 2.705310e+001 -4.560907e-002 1.388113e+002
518875047.18762 -4.525726e-001 1.739780e+002 -6.610420e+001 4.146649e+001 -6.659063e+001 4.140787e+001 -3.538454e-002 1.388961e+002
519252548.13137 -4.605845e-001 1.738037e+002 -6.666200e+001 3.695445e+001 -6.806765e+001 3.488688e+001 -3.236461e-002 1.390144e+002
519630049.07512 -4.690744e-001 1.735440e+002 -6.788679e+001 2.670453e+001 -6.830820e+001 3.366587e+001 -2.821973e-002 1.391645e+002
520007550.01888 -4.729225e-001 1.732874e+002 -6.714114e+001 3.746598e+001 -6.685687e+001 3.617736e+001 -2.239237e-002 1.393306e+002
520385050.96263 -4.790756e-001 1.731341e+002 -6.718141e+001 4.062613e+001 -6.763754e+001 2.511999e+001 -1.759032e-002 1.394811e+002
520762551.90638 -4.864927e-001 1.729248e+002 -6.685479e+001 2.073702e+001 -6.793751e+001 2.688623e+001 -1.485166e-002 1.396426e+002
521140052.85013 -4.935478e-001 1.727304e+002 -6.753574e+001 2.245361e+001 -6.760355e+001 3.179248e+001 -1.015312e-002 1.398342e+002
521517553.79388 -5.024599e-001 1.725464e+002 -6.654883e+001 2.979386e+001 -6.684321e+001 1.987617e+001 -7.628195e-003 1.400285e+002
521895054.73764 -5.088634e-001 1.723344e+002 -6.815304e+001 2.681252e+001 -6.650322e+001 2.379330e+001 -7.905782e-003 1.402162e+002
522272555.68139 -5.148184e-001 1.721180e+002 -6.836802e+001 2.069884e+001 -6.723243e+001 3.350749e+001 -8.709713e-003 1.404166e+002
522650056.62514 -5.237339e-001 1.719355e+002 -6.631128e+001 2.987692e+001 -6.736159e+001 2.336517e+001 -1.234811e-002 1.405645e+002
523027557.56889 -5.334979e-001 1.717574e+002 -6.782861e+001 1.421980e+001 -6.674986e+001 1.515346e+001 -1.452343e-002 1.408053e+002
523405058.51265 -5.363488e-001 1.714789e+002 -6.820081e+001 2.192047e+001 -6.790910e+001 1.833434e+001 -1.508300e-002 1.410359e+002
523782559.4564 -5.431063e-001 1.713458e+002 -6.580381e+001 1.894683e+001 -6.759595e+001 1.579297e+001 -2.057505e-002 1.411748e+002
524160060.40015 -5.514815e-001 1.711029e+002 -6.661795e+001 9.883382e+000 -6.744833e+001 1.384608e+001 -2.468176e-002 1.413380e+002
524537561.3439 -5.540201e-001 1.709390e+002 -6.718314e+001 1.020474e+001 -6.655376e+001 1.965050e+001 -3.130776e-002 1.414700e+002
524915062.28766 -5.610110e-001 1.706870e+002 -6.867124e+001 1.756584e+001 -6.599696e+001 1.644810e+001 -3.817371e-002 1.416371e+002
525292563.23141 -5.677500e-001 1.704120e+002 -6.767848e+001 1.311842e+001 -6.771516e+001 1.048818e+001 -4.543333e-002 1.417257e+002
525670064.17516 -5.702887e-001 1.702703e+002 -6.711858e+001 8.030839e+000 -6.784808e+001 1.794202e+001 -5.442206e-002 1.418273e+002
526047565.11891 -5.797261e-001 1.700266e+002 -6.668505e+001 1.181540e+001 -6.575344e+001 1.722620e+001 -6.608056e-002 1.418853e+002
526425066.06267 -5.871071e-001 1.697903e+002 -6.857531e+001 7.437417e+000 -6.693900e+001 1.203105e+001 -7.846232e-002 1.419385e+002
526802567.00642 -5.940710e-001 1.696279e+002 -6.636503e+001 3.747123e+000 -6.694173e+001 1.171856e+001 -8.523273e-002 1.419459e+002
527180067.95017 -6.023338e-001 1.694255e+002 -6.666373e+001 2.149943e+001 -6.627905e+001 1.780196e+001 -9.497637e-002 1.419307e+002
527557568.89392 -6.072583e-001 1.692025e+002 -6.755820e+001 9.081506e+000 -6.797765e+001 1.273669e+001 -1.061275e-001 1.419141e+002
527935069.83767 -6.179785e-001 1.690506e+002 -6.603861e+001 3.692640e+000 -6.731903e+001 7.282650e+000 -1.164941e-001 1.418589e+002
528312570.78143 -6.250123e-001 1.688273e+002 -6.655787e+001 5.030726e+000 -6.673646e+001 3.938448e+000 -1.260584e-001 1.417706e+002
528690071.72518 -6.254450e-001 1.685999e+002 -6.558487e+001 5.817561e+000 -6.553613e+001 1.892303e+000 -1.334018e-001 1.416388e+002
529067572.66893 -6.355118e-001 1.683884e+002 -6.620075e+001 9.157982e+000 -6.570502e+001 7.718251e+000 -1.520242e-001 1.414685e+002
529445073.61268 -6.384254e-001 1.682092e+002 -6.597752e+001 1.799882e+000 -6.606928e+001 -5.437783e+000 -1.589864e-001 1.413550e+002
529822574.55644 -6.450025e-001 1.679868e+002 -6.586088e+001 -2.659888e+000 -6.559508e+001 1.801843e+000 -1.705197e-001 1.411116e+002
530200075.50019 -6.539829e-001 1.677399e+002 -6.522653e+001 -3.736736e+000 -6.558419e+001 3.642405e+000 -1.767135e-001 1.408844e+002
530577576.44394 -6.628131e-001 1.675851e+002 -6.624239e+001 7.579653e+000 -6.600806e+001 -4.336617e+000 -1.832767e-001 1.406445e+002
530955077.38769 -6.686952e-001 1.673294e+002 -6.571870e+001 4.326107e+000 -6.497760e+001 -3.281733e+000 -1.944558e-001 1.403895e+002
531332578.33145 -6.739999e-001 1.671684e+002 -6.566976e+001 -8.241283e+000 -6.608024e+001 -1.379031e+000 -1.984924e-001 1.400962e+002
531710079.2752 -6.790366e-001 1.669303e+002 -6.506580e+001 -8.733168e+000 -6.648717e+001 -2.947188e+000 -2.101864e-001 1.397677e+002
532087580.21895 -6.855530e-001 1.668305e+002 -6.618323e+001 -1.660626e+001 -6.383790e+001 -2.388343e+000 -2.080753e-001 1.394556e+002
532465081.1627 -6.913144e-001 1.665561e+002 -6.593822e+001 -8.959681e+000 -6.487094e+001 -6.051054e+000 -2.121827e-001 1.391308e+002
532842582.10646 -6.937110e-001 1.663795e+002 -6.540363e+001 -1.262801e+001 -6.506531e+001 -1.482691e+001 -2.152393e-001 1.387321e+002
533220083.05021 -7.020776e-001 1.662358e+002 -6.421292e+001 -8.192394e+000 -6.676025e+001 -1.246220e+001 -2.187724e-001 1.384686e+002
533597583.99396 -7.062418e-001 1.659620e+002 -6.530740e+001 -2.539560e+001 -6.633916e+001 -1.361801e+001 -2.165390e-001 1.381439e+002
533975084.93771 -7.124700e-001 1.657430e+002 -6.626126e+001 -7.335711e+000 -6.597823e+001 -1.197881e+001 -2.168731e-001 1.377473e+002
534352585.88146 -7.207007e-001 1.656430e+002 -6.591010e+001 -1.098933e+001 -6.663160e+001 -1.619237e+001 -2.140052e-001 1.374254e+002
534730086.82522 -7.224405e-001 1.654179e+002 -6.573805e+001 -2.448950e+001 -6.570158e+001 -2.253358e+001 -2.094812e-001 1.371098e+002
535107587.76897 -7.267236e-001 1.652588e+002 -6.489579e+001 -1.491531e+001 -6.643207e+001 -2.155586e+001 -2.078429e-001 1.367766e+002
535485088.71272 -7.270161e-001 1.649835e+002 -6.705116e+001 -2.133704e+001 -6.645070e+001 -2.429798e+001 -2.008396e-001 1.364815e+002
535862589.65647 -7.343349e-001 1.647953e+002 -6.520573e+001 -2.317690e+001 -6.519248e+001 -2.384140e+001 -1.939697e-001 1.361970e+002
536240090.60023 -7.335421e-001 1.646640e+002 -6.555447e+001 -1.841956e+001 -6.579147e+001 -1.873995e+001 -1.879459e-001 1.359027e+002
536617591.54398 -7.400963e-001 1.643929e+002 -6.479429e+001 -3.074070e+001 -6.462687e+001 -2.272038e+001 -1.751880e-001 1.356490e+002
536995092.48773 -7.436188e-001 1.642973e+002 -6.566362e+001 -2.143324e+001 -6.502390e+001 -3.491329e+001 -1.682236e-001 1.354339e+002
537372593.43148 -7.429470e-001 1.640088e+002 -6.616683e+001 -2.589501e+001 -6.567043e+001 -3.114823e+001 -1.557049e-001 1.352398e+002
537750094.37524 -7.444668e-001 1.638611e+002 -6.604386e+001 -2.602263e+001 -6.606406e+001 -2.000610e+001 -1.464620e-001 1.350818e+002
538127595.31899 -7.479805e-001 1.636839e+002 -6.569844e+001 -3.638548e+001 -6.573126e+001 -2.628344e+001 -1.392078e-001 1.349207e+002
538505096.26274 -7.472664e-001 1.634485e+002 -6.677802e+001 -3.107458e+001 -6.649876e+001 -3.383909e+001 -1.269038e-001 1.348400e+002
538882597.20649 -7.511278e-001 1.632771e+002 -6.595931e+001 -2.729355e+001 -6.622208e+001 -3.794003e+001 -1.166817e-001 1.347059e+002
539260098.15025 -7.507608e-001 1.629941e+002 -6.579150e+001 -3.841538e+001 -6.673862e+001 -3.420605e+001 -1.069139e-001 1.346379e+002
539637599.094 -7.539889e-001 1.627992e+002 -6.673167e+001 -2.794213e+001 -6.621782e+001 -4.243676e+001 -9.695993e-002 1.345797e+002
540015100.03775 -7.613869e-001 1.626139e+002 -6.636730e+001 -3.275248e+001 -6.657287e+001 -3.096502e+001 -8.538740e-002 1.346199e+002
540392600.9815 -7.586936e-001 1.624260e+002 -6.658158e+001 -2.732790e+001 -6.572593e+001 -2.683484e+001 -7.635357e-002 1.345661e+002
540770101.92525 -7.675667e-001 1.622287e+002 -6.631270e+001 -3.024921e+001 -6.548277e+001 -3.233895e+001 -6.564198e-002 1.346101e+002
541147602.86901 -7.634214e-001 1.619947e+002 -6.629353e+001 -3.248668e+001 -6.668084e+001 -3.055270e+001 -5.840910e-002 1.346551e+002
541525103.81276 -7.675155e-001 1.617567e+002 -6.590686e+001 -2.319857e+001 -6.646110e+001 -3.305999e+001 -5.136047e-002 1.347294e+002
541902604.75651 -7.709624e-001 1.616251e+002 -6.548479e+001 -2.994950e+001 -6.638445e+001 -3.135557e+001 -4.531565e-002 1.348169e+002
542280105.70026 -7.742993e-001 1.613920e+002 -6.561816e+001 -3.846793e+001 -6.607337e+001 -3.427240e+001 -3.557934e-002 1.349276e+002
542657606.64402 -7.680510e-001 1.611228e+002 -6.580653e+001 -3.316051e+001 -6.622616e+001 -3.688326e+001 -3.351122e-002 1.350521e+002
543035107.58777 -7.710614e-001 1.609736e+002 -6.501975e+001 -3.062721e+001 -6.584309e+001 -3.931213e+001 -2.650265e-002 1.351889e+002
543412608.53152 -7.762042e-001 1.607085e+002 -6.426263e+001 -3.511724e+001 -6.666433e+001 -4.180107e+001 -2.574319e-002 1.353377e+002
543790109.47527 -7.739326e-001 1.605463e+002 -6.531249e+001 -3.567298e+001 -6.468825e+001 -4.161041e+001 -2.339313e-002 1.354860e+002
544167610.41903 -7.814879e-001 1.603851e+002 -6.451468e+001 -3.865030e+001 -6.544534e+001 -3.674572e+001 -1.910258e-002 1.356528e+002
544545111.36278 -7.728858e-001 1.601370e+002 -6.536655e+001 -4.119107e+001 -6.507316e+001 -4.029133e+001 -1.884513e-002 1.358213e+002
544922612.30653 -7.742700e-001 1.598652e+002 -6.442768e+001 -3.983216e+001 -6.505138e+001 -3.815059e+001 -1.448253e-002 1.359939e+002
545300113.25028 -7.770464e-001 1.596614e+002 -6.444083e+001 -4.189391e+001 -6.429635e+001 -3.987179e+001 -1.721391e-002 1.361680e+002
545677614.19404 -7.773166e-001 1.594995e+002 -6.402501e+001 -4.350087e+001 -6.505437e+001 -4.050143e+001 -1.959663e-002 1.363388e+002
546055115.13779 -7.740388e-001 1.592910e+002 -6.421185e+001 -3.636392e+001 -6.471074e+001 -4.789370e+001 -2.221499e-002 1.365363e+002
546432616.08154 -7.757331e-001 1.590356e+002 -6.390910e+001 -4.736702e+001 -6.488131e+001 -4.329652e+001 -2.443173e-002 1.366791e+002
546810117.02529 -7.766734e-001 1.587257e+002 -6.404006e+001 -5.212960e+001 -6.458567e+001 -5.499453e+001 -2.652031e-002 1.368396e+002
547187617.96904 -7.746390e-001 1.585809e+002 -6.370663e+001 -5.166829e+001 -6.556386e+001 -5.052175e+001 -2.935480e-002 1.369959e+002
547565118.9128 -7.756617e-001 1.582900e+002 -6.435939e+001 -4.613710e+001 -6.447204e+001 -5.166271e+001 -3.505294e-002 1.371278e+002
547942619.85655 -7.821901e-001 1.580468e+002 -6.401037e+001 -4.755706e+001 -6.426019e+001 -4.143757e+001 -3.896869e-002 1.372474e+002
548320120.8003 -7.860765e-001 1.578009e+002 -6.402747e+001 -5.566066e+001 -6.435587e+001 -6.079651e+001 -4.919955e-002 1.373628e+002
548697621.74405 -7.872095e-001 1.576161e+002 -6.351469e+001 -6.029876e+001 -6.393362e+001 -6.038925e+001 -5.423902e-002 1.374505e+002
549075122.68781 -7.879226e-001 1.573349e+002 -6.371905e+001 -4.769284e+001 -6.444601e+001 -5.532648e+001 -6.000486e-002 1.375822e+002
549452623.63156 -7.941138e-001 1.571233e+002 -6.455241e+001 -5.629587e+001 -6.432377e+001 -6.066175e+001 -6.765286e-002 1.375993e+002
549830124.57531 -7.937092e-001 1.569093e+002 -6.391687e+001 -5.232990e+001 -6.451291e+001 -6.197493e+001 -7.749858e-002 1.376415e+002
550207625.51906 -7.912921e-001 1.566082e+002 -6.549613e+001 -6.087622e+001 -6.369395e+001 -5.946245e+001 -8.432525e-002 1.376811e+002
550585126.46282 -7.957958e-001 1.563297e+002 -6.482111e+001 -5.597095e+001 -6.527603e+001 -6.273732e+001 -9.075334e-002 1.376754e+002
550962627.40657 -7.973808e-001 1.560898e+002 -6.593493e+001 -5.870806e+001 -6.495906e+001 -5.881456e+001 -9.996022e-002 1.376487e+002
551340128.35032 -8.009631e-001 1.558409e+002 -6.480936e+001 -6.455872e+001 -6.531959e+001 -5.885155e+001 -1.099617e-001 1.375911e+002
551717629.29407 -8.081642e-001 1.555595e+002 -6.526095e+001 -6.282367e+001 -6.544280e+001 -6.456945e+001 -1.201629e-001 1.375720e+002
552095130.23783 -8.099174e-001 1.553379e+002 -6.576827e+001 -7.006045e+001 -6.505201e+001 -6.202239e+001 -1.261480e-001 1.374906e+002
552472631.18158 -8.123294e-001 1.550495e+002 -6.478469e+001 -6.301706e+001 -6.521856e+001 -5.975933e+001 -1.356952e-001 1.374003e+002
552850132.12533 -8.166274e-001 1.548159e+002 -6.458346e+001 -6.835758e+001 -6.553424e+001 -6.130365e+001 -1.405190e-001 1.372943e+002
553227633.06908 -8.198184e-001 1.545441e+002 -6.392175e+001 -6.125796e+001 -6.542789e+001 -6.002717e+001 -1.531627e-001 1.371629e+002
553605134.01284 -8.254737e-001 1.542961e+002 -6.553144e+001 -6.982787e+001 -6.534930e+001 -5.841425e+001 -1.563280e-001 1.370051e+002
553982634.95659 -8.353305e-001 1.540624e+002 -6.415149e+001 -6.576390e+001 -6.486675e+001 -7.215384e+001 -1.671959e-001 1.368488e+002
554360135.90034 -8.414004e-001 1.538299e+002 -6.499105e+001 -5.706454e+001 -6.523010e+001 -6.565798e+001 -1.711838e-001 1.366561e+002
554737636.84409 -8.455561e-001 1.535945e+002 -6.396727e+001 -6.317661e+001 -6.574699e+001 -6.370665e+001 -1.773833e-001 1.364683e+002
555115137.78784 -8.483770e-001 1.533375e+002 -6.378536e+001 -5.972377e+001 -6.397358e+001 -5.580364e+001 -1.807201e-001 1.362379e+002
555492638.7316 -8.543168e-001 1.531107e+002 -6.453114e+001 -5.893825e+001 -6.435389e+001 -6.640841e+001 -1.838640e-001 1.359806e+002
