!Agilent Technologies,E8364B,US42250235,A.06.04.32
!Agilent E8364B: A.06.04.32
!Date: Thursday, October 01, 2020 15:44:59
!Correction: S11(Full 2 Port(1,2)) S21(Full 2 Port(1,2)) S12(Full 2 Port(1,2)) S22(Full 2 Port(1,2)) 
!S2P File: Measurements: S11, S21, S12, S22:
# Hz S  dB   R 50
500000000 -2.494577e-001 -1.750238e+002 -8.433162e+001 -2.559502e+000 -7.328378e+001 1.924314e+001 3.079313e-002 1.437801e+002
500377500.94375 -2.476621e-001 -1.752112e+002 -7.793127e+001 1.407261e+001 -7.695145e+001 2.122328e+001 2.844734e-002 1.438984e+002
500755001.8875 -2.529989e-001 -1.754126e+002 -8.137514e+001 3.119350e+001 -7.775654e+001 1.958379e+001 3.152146e-002 1.441018e+002
501132502.83126 -2.563517e-001 -1.756150e+002 -7.799843e+001 3.581610e+001 -7.459070e+001 -4.917934e+000 2.302774e-002 1.442463e+002
501510003.77501 -2.566118e-001 -1.758062e+002 -7.612339e+001 1.396221e+001 -8.423502e+001 1.049535e+001 2.035880e-002 1.443974e+002
501887504.71876 -2.584377e-001 -1.760094e+002 -7.899984e+001 1.947089e+001 -7.726348e+001 -1.063656e+000 1.907571e-002 1.445131e+002
502265005.66251 -2.617216e-001 -1.762022e+002 -7.560749e+001 -6.421460e-001 -7.679015e+001 6.280455e+001 1.366752e-002 1.446465e+002
502642506.60627 -2.632570e-001 -1.764060e+002 -8.276719e+001 8.329183e+000 -7.866830e+001 -2.400544e+001 6.254072e-003 1.448008e+002
503020007.55002 -2.650476e-001 -1.765972e+002 -7.435847e+001 3.870580e+000 -7.904472e+001 2.772051e+000 -1.160122e-003 1.448447e+002
503397508.49377 -2.663166e-001 -1.767875e+002 -7.568044e+001 8.416676e+000 -7.626279e+001 1.221396e+001 -4.912074e-003 1.449228e+002
503775009.43752 -2.696591e-001 -1.769801e+002 -7.738055e+001 -2.867610e+000 -7.865239e+001 2.826084e+001 -1.235068e-002 1.449800e+002
504152510.38128 -2.700437e-001 -1.771846e+002 -7.936250e+001 8.611313e+000 -7.978576e+001 1.393602e+001 -2.128558e-002 1.450237e+002
504530011.32503 -2.704789e-001 -1.773796e+002 -7.695152e+001 -5.756774e+000 -7.882055e+001 1.228697e+001 -2.808703e-002 1.450524e+002
504907512.26878 -2.713474e-001 -1.775802e+002 -8.181522e+001 1.301912e+001 -7.507359e+001 -1.261993e+001 -3.553753e-002 1.450511e+002
505285013.21253 -2.765736e-001 -1.777775e+002 -7.923343e+001 -4.367476e+001 -7.452254e+001 -2.658825e+001 -4.446591e-002 1.450274e+002
505662514.15629 -2.785096e-001 -1.779403e+002 -7.782800e+001 -1.007650e+001 -7.627672e+001 1.010457e+001 -5.130116e-002 1.449947e+002
506040015.10004 -2.823688e-001 -1.781785e+002 -9.108780e+001 -2.013975e+001 -8.044370e+001 1.740265e+001 -5.897889e-002 1.449226e+002
506417516.04379 -2.819518e-001 -1.783879e+002 -7.396613e+001 5.814048e+000 -7.990796e+001 -6.872635e+001 -6.925524e-002 1.448363e+002
506795016.98754 -2.848296e-001 -1.785750e+002 -7.477525e+001 -1.532944e+001 -8.066444e+001 -1.801026e+001 -7.415100e-002 1.447064e+002
507172517.93129 -2.878600e-001 -1.787872e+002 -7.638680e+001 -3.438872e+001 -7.853809e+001 -6.983153e+000 -8.202244e-002 1.445878e+002
507550018.87505 -2.908364e-001 -1.789843e+002 -8.357075e+001 -8.543972e+000 -7.761479e+001 -2.360290e+001 -8.998552e-002 1.444046e+002
507927519.8188 -2.912236e-001 -1.792014e+002 -7.703163e+001 -2.212600e+001 -7.811615e+001 -2.637428e+001 -9.948973e-002 1.442468e+002
508305020.76255 -2.930686e-001 -1.793957e+002 -7.565326e+001 -4.430212e+001 -8.068475e+001 -1.457028e+001 -1.068845e-001 1.440483e+002
508682521.7063 -2.932650e-001 -1.796009e+002 -7.840105e+001 2.029832e+001 -8.181790e+001 -5.929192e+001 -1.195418e-001 1.438501e+002
509060022.65006 -2.974771e-001 -1.798160e+002 -7.670082e+001 1.888847e+001 -7.849967e+001 9.809937e+000 -1.220411e-001 1.435766e+002
509437523.59381 -2.976488e-001 1.799708e+002 -7.615041e+001 -6.141747e+000 -8.091604e+001 -3.090259e+001 -1.239170e-001 1.433589e+002
509815024.53756 -2.991493e-001 1.797579e+002 -7.807356e+001 -1.169174e+001 -8.198804e+001 2.526657e+001 -1.272792e-001 1.430666e+002
510192525.48131 -2.994720e-001 1.795538e+002 -7.930672e+001 1.950050e+001 -7.789504e+001 6.706426e+000 -1.302745e-001 1.428036e+002
510570026.42507 -3.022530e-001 1.793192e+002 -7.667297e+001 -6.650137e+000 -7.905173e+001 -2.966878e+001 -1.322744e-001 1.425041e+002
510947527.36882 -3.053543e-001 1.791258e+002 -7.697699e+001 -1.584457e+001 -7.972116e+001 7.689531e+000 -1.368601e-001 1.422132e+002
511325028.31257 -3.057717e-001 1.789216e+002 -7.651433e+001 -3.399046e-001 -7.701521e+001 -1.331276e+001 -1.377914e-001 1.419005e+002
511702529.25632 -3.072389e-001 1.787001e+002 -7.355371e+001 -2.026391e+001 -7.578151e+001 -2.898799e+001 -1.411086e-001 1.416067e+002
512080030.20008 -3.111352e-001 1.784860e+002 -7.877767e+001 -2.011143e+001 -7.754066e+001 -3.858621e+000 -1.380728e-001 1.413040e+002
512457531.14383 -3.114179e-001 1.782824e+002 -7.578773e+001 6.401569e+000 -7.755592e+001 -2.035657e+001 -1.324195e-001 1.410290e+002
512835032.08758 -3.148603e-001 1.780432e+002 -7.397143e+001 2.251095e+001 -7.490726e+001 -2.036289e+001 -1.341963e-001 1.407276e+002
513212533.03133 -3.158810e-001 1.778291e+002 -7.657986e+001 2.895322e+001 -7.396046e+001 7.971411e+000 -1.257194e-001 1.404337e+002
513590033.97508 -3.177489e-001 1.776252e+002 -7.611300e+001 -1.925068e+000 -8.419428e+001 1.817505e+001 -1.235539e-001 1.401892e+002
513967534.91884 -3.238579e-001 1.774030e+002 -7.509930e+001 -4.199864e+001 -7.436522e+001 -2.482385e+001 -1.123122e-001 1.399105e+002
514345035.86259 -3.190635e-001 1.771839e+002 -7.449167e+001 -2.880323e+001 -7.650145e+001 1.670412e+001 -1.103152e-001 1.397061e+002
514722536.80634 -3.236085e-001 1.769827e+002 -7.986373e+001 8.065198e-001 -7.469016e+001 -7.987224e+000 -1.047516e-001 1.394965e+002
515100037.75009 -3.212342e-001 1.767627e+002 -7.583928e+001 -2.305167e+001 -7.979498e+001 -4.175037e+001 -9.374305e-002 1.393123e+002
515477538.69385 -3.255544e-001 1.764895e+002 -7.806390e+001 -7.261847e+000 -7.700735e+001 3.561049e+001 -8.830875e-002 1.391388e+002
515855039.6376 -3.279681e-001 1.763151e+002 -7.518278e+001 -1.200152e+001 -7.683911e+001 -3.598854e+001 -7.564922e-002 1.390111e+002
516232540.58135 -3.285560e-001 1.760961e+002 -7.290135e+001 -3.101043e+001 -7.744161e+001 1.154722e+001 -6.723099e-002 1.388914e+002
516610041.5251 -3.299690e-001 1.758749e+002 -7.656866e+001 -4.383496e+001 -7.873659e+001 -1.296593e+001 -5.974492e-002 1.388257e+002
516987542.46886 -3.323206e-001 1.756478e+002 -7.594564e+001 2.236576e+001 -7.424203e+001 -2.148048e+001 -5.242346e-002 1.387576e+002
517365043.41261 -3.358892e-001 1.754304e+002 -7.883436e+001 -1.836358e+001 -7.579105e+001 -8.139874e-001 -4.308889e-002 1.386978e+002
517742544.35636 -3.385823e-001 1.752145e+002 -7.761111e+001 -5.867195e+000 -7.445473e+001 -1.083092e+001 -3.425112e-002 1.387130e+002
518120045.30011 -3.419003e-001 1.750036e+002 -7.810643e+001 1.409045e+000 -7.546620e+001 -1.637797e+001 -2.357226e-002 1.387248e+002
518497546.24387 -3.406522e-001 1.747746e+002 -7.569257e+001 -1.400869e+001 -7.563122e+001 -2.736868e+001 -1.531017e-002 1.387747e+002
518875047.18762 -3.451746e-001 1.746066e+002 -7.549310e+001 -2.075576e+001 -7.635332e+001 -2.667119e+001 -4.434907e-003 1.388535e+002
519252548.13137 -3.517314e-001 1.743323e+002 -7.277776e+001 -1.928049e+001 -7.412850e+001 -1.410845e+001 1.756289e-003 1.389498e+002
519630049.07512 -3.549211e-001 1.741084e+002 -7.630049e+001 -3.771387e+001 -7.568616e+001 -1.853909e+001 7.883517e-003 1.390831e+002
520007550.01888 -3.560655e-001 1.738968e+002 -7.909212e+001 -1.278188e+001 -7.302198e+001 -2.337542e+001 1.622748e-002 1.391715e+002
520385050.96263 -3.586962e-001 1.736888e+002 -7.299988e+001 -2.038297e+001 -7.627980e+001 -3.501710e+001 1.860577e-002 1.393589e+002
520762551.90638 -3.603493e-001 1.734736e+002 -7.544563e+001 -4.025042e+001 -7.888648e+001 -5.330209e+001 2.771351e-002 1.395415e+002
521140052.85013 -3.620141e-001 1.732394e+002 -7.411841e+001 -2.034106e+001 -7.700732e+001 -2.729707e+001 3.039613e-002 1.397046e+002
521517553.79388 -3.671272e-001 1.730769e+002 -7.783694e+001 -4.427636e+001 -7.672054e+001 -2.918613e+001 3.675411e-002 1.399291e+002
521895054.73764 -3.673055e-001 1.728052e+002 -7.620687e+001 -1.874880e+001 -7.726698e+001 -2.622577e+000 3.595959e-002 1.401336e+002
522272555.68139 -3.711099e-001 1.725949e+002 -7.599842e+001 -4.016991e+001 -7.674694e+001 -2.358484e+001 4.055840e-002 1.403513e+002
522650056.62514 -3.742360e-001 1.723613e+002 -7.567448e+001 -4.539117e+001 -7.537006e+001 -2.986343e+001 4.040504e-002 1.404995e+002
523027557.56889 -3.772299e-001 1.721620e+002 -7.568206e+001 -4.526602e+001 -7.925429e+001 -4.327677e+001 3.882558e-002 1.407948e+002
523405058.51265 -3.772478e-001 1.719234e+002 -7.732261e+001 -3.646278e+001 -7.595162e+001 -4.316670e+001 3.743871e-002 1.410602e+002
523782559.4564 -3.829120e-001 1.717047e+002 -7.208775e+001 -3.870011e+001 -7.399639e+001 -2.940279e+001 3.333042e-002 1.411940e+002
524160060.40015 -3.837695e-001 1.714656e+002 -7.332865e+001 -8.927136e+000 -7.696530e+001 -3.778859e+001 3.256269e-002 1.414267e+002
524537561.3439 -3.864685e-001 1.712480e+002 -7.570221e+001 -2.580937e+001 -7.411794e+001 -2.778791e+001 2.516027e-002 1.416183e+002
524915062.28766 -3.913692e-001 1.710164e+002 -7.625822e+001 -1.844241e+001 -7.691685e+001 -2.456035e+001 2.322826e-002 1.417998e+002
525292563.23141 -3.955790e-001 1.707750e+002 -7.684966e+001 -3.394552e+001 -7.369313e+001 -4.184850e+001 1.379562e-002 1.419650e+002
525670064.17516 -3.960601e-001 1.705434e+002 -7.509416e+001 -2.376096e+001 -7.641093e+001 -1.797105e+001 9.128167e-003 1.421027e+002
526047565.11891 -4.014938e-001 1.702892e+002 -7.191038e+001 -2.067922e+001 -7.533241e+001 -3.626423e+001 -8.531806e-004 1.422321e+002
526425066.06267 -4.070831e-001 1.700322e+002 -7.582977e+001 -3.949791e+001 -7.418060e+001 -4.135268e+001 -9.175441e-003 1.423452e+002
526802567.00642 -4.108461e-001 1.698261e+002 -7.089116e+001 -3.772140e+001 -7.340857e+001 -1.356825e+001 -1.879156e-002 1.424041e+002
527180067.95017 -4.150686e-001 1.695896e+002 -7.110931e+001 -2.436205e+001 -7.145455e+001 -3.451733e+001 -2.821314e-002 1.424725e+002
527557568.89392 -4.169898e-001 1.693627e+002 -7.189910e+001 -3.075757e+001 -7.270419e+001 -2.957288e+001 -3.561598e-002 1.424457e+002
527935069.83767 -4.222425e-001 1.691311e+002 -7.246737e+001 -5.101849e+001 -7.078606e+001 -4.139219e+001 -4.774129e-002 1.425124e+002
528312570.78143 -4.286593e-001 1.689016e+002 -7.056673e+001 -5.016652e+001 -7.114513e+001 -2.737739e+001 -5.407902e-002 1.424795e+002
528690071.72518 -4.271515e-001 1.686557e+002 -7.353769e+001 -5.792215e+001 -7.397699e+001 -4.373132e+001 -6.216085e-002 1.424299e+002
529067572.66893 -4.323591e-001 1.684187e+002 -7.331300e+001 -3.921866e+001 -7.251456e+001 -6.050413e+001 -7.916907e-002 1.423453e+002
529445073.61268 -4.376090e-001 1.681980e+002 -6.995107e+001 -3.305961e+001 -7.081256e+001 -5.032149e+001 -8.697208e-002 1.422408e+002
529822574.55644 -4.408659e-001 1.679458e+002 -7.484236e+001 -5.235458e+001 -7.135992e+001 -6.036219e+001 -9.973840e-002 1.420805e+002
530200075.50019 -4.453712e-001 1.676572e+002 -7.331612e+001 -6.767413e+001 -7.228103e+001 -3.342156e+001 -1.070659e-001 1.419170e+002
530577576.44394 -4.539373e-001 1.674691e+002 -7.112225e+001 -3.588807e+001 -7.101401e+001 -4.357576e+001 -1.195711e-001 1.417245e+002
530955077.38769 -4.587159e-001 1.672173e+002 -7.345061e+001 -6.375542e+001 -7.435452e+001 -6.217353e+001 -1.250521e-001 1.415231e+002
531332578.33145 -4.603114e-001 1.669770e+002 -7.319592e+001 -4.738653e+001 -7.388345e+001 -5.604469e+001 -1.351105e-001 1.412769e+002
531710079.2752 -4.660195e-001 1.667398e+002 -7.411028e+001 -5.541377e+001 -7.205828e+001 -5.925196e+001 -1.453387e-001 1.410003e+002
532087580.21895 -4.707184e-001 1.664940e+002 -7.354192e+001 -6.218567e+001 -7.613716e+001 -3.646416e+001 -1.467978e-001 1.407292e+002
532465081.1627 -4.759827e-001 1.662369e+002 -7.524191e+001 -4.745522e+001 -7.094991e+001 -5.356664e+001 -1.575919e-001 1.404325e+002
532842582.10646 -4.796561e-001 1.659991e+002 -7.338307e+001 -5.908004e+001 -7.471213e+001 -4.511163e+001 -1.597690e-001 1.401292e+002
533220083.05021 -4.862151e-001 1.657632e+002 -7.209785e+001 -4.852424e+001 -7.361520e+001 -5.389645e+001 -1.679338e-001 1.397906e+002
533597583.99396 -4.931372e-001 1.655034e+002 -7.347363e+001 -3.786869e+001 -7.595425e+001 -6.676702e+001 -1.668781e-001 1.395103e+002
533975084.93771 -4.958265e-001 1.652304e+002 -7.441093e+001 -6.423214e+001 -7.659937e+001 -6.262851e+001 -1.704876e-001 1.391516e+002
534352585.88146 -5.046278e-001 1.650752e+002 -7.125816e+001 -6.871897e+001 -7.331277e+001 -5.980222e+001 -1.678005e-001 1.388081e+002
534730086.82522 -5.075771e-001 1.648080e+002 -7.196887e+001 -5.901096e+001 -7.138688e+001 -6.513580e+001 -1.709477e-001 1.384793e+002
535107587.76897 -5.129049e-001 1.645499e+002 -7.339342e+001 -4.849049e+001 -7.164481e+001 -5.559598e+001 -1.672667e-001 1.381494e+002
535485088.71272 -5.148953e-001 1.643274e+002 -7.379602e+001 -5.554217e+001 -7.286268e+001 -7.619403e+001 -1.645274e-001 1.378217e+002
535862589.65647 -5.216424e-001 1.640773e+002 -7.317876e+001 -7.237604e+001 -7.203365e+001 -6.355005e+001 -1.611018e-001 1.375080e+002
536240090.60023 -5.226271e-001 1.638787e+002 -7.090768e+001 -6.740491e+001 -7.182819e+001 -7.750581e+001 -1.571057e-001 1.372281e+002
536617591.54398 -5.298888e-001 1.635979e+002 -7.235981e+001 -6.087864e+001 -7.158736e+001 -6.771052e+001 -1.501020e-001 1.369160e+002
536995092.48773 -5.344231e-001 1.633543e+002 -7.357739e+001 -7.590469e+001 -7.093107e+001 -7.090436e+001 -1.433578e-001 1.366752e+002
537372593.43148 -5.377095e-001 1.631158e+002 -6.973215e+001 -7.363284e+001 -7.310886e+001 -6.299647e+001 -1.334007e-001 1.364271e+002
537750094.37524 -5.386509e-001 1.628430e+002 -7.121548e+001 -6.671537e+001 -7.212666e+001 -8.067301e+001 -1.277226e-001 1.361980e+002
538127595.31899 -5.467734e-001 1.626036e+002 -7.353805e+001 -7.415489e+001 -7.145831e+001 -7.291909e+001 -1.208814e-001 1.360038e+002
538505096.26274 -5.497818e-001 1.623858e+002 -7.186825e+001 -7.598996e+001 -7.245988e+001 -8.970538e+001 -1.095470e-001 1.358454e+002
538882597.20649 -5.542445e-001 1.621242e+002 -7.166980e+001 -8.154972e+001 -7.145145e+001 -8.241109e+001 -9.974015e-002 1.356592e+002
539260098.15025 -5.598990e-001 1.618798e+002 -7.549132e+001 -8.061015e+001 -7.249000e+001 -8.793921e+001 -9.006039e-002 1.355391e+002
539637599.094 -5.672541e-001 1.616482e+002 -7.442781e+001 -6.013416e+001 -7.253896e+001 -7.339919e+001 -8.517053e-002 1.354077e+002
540015100.03775 -5.729550e-001 1.613929e+002 -6.963807e+001 -8.409573e+001 -7.147626e+001 -6.301834e+001 -7.171148e-002 1.353999e+002
540392600.9815 -5.763968e-001 1.611656e+002 -7.430466e+001 -8.029020e+001 -7.195506e+001 -8.461656e+001 -6.220691e-002 1.352440e+002
540770101.92525 -5.848456e-001 1.608874e+002 -7.041225e+001 -8.644061e+001 -7.087173e+001 -7.064716e+001 -5.565262e-002 1.352641e+002
541147602.86901 -5.890044e-001 1.606538e+002 -7.341888e+001 -6.489837e+001 -7.327271e+001 -7.434592e+001 -4.670854e-002 1.352456e+002
541525103.81276 -5.947475e-001 1.604142e+002 -7.305257e+001 -7.185304e+001 -7.085181e+001 -6.714086e+001 -3.778103e-002 1.352561e+002
541902604.75651 -5.994444e-001 1.601533e+002 -7.181948e+001 -8.345605e+001 -7.302245e+001 -9.586842e+001 -3.453922e-002 1.352832e+002
542280105.70026 -6.110131e-001 1.599211e+002 -7.034979e+001 -8.330614e+001 -7.221786e+001 -8.273254e+001 -2.153729e-002 1.353383e+002
542657606.64402 -6.158391e-001 1.596295e+002 -7.084344e+001 -8.644153e+001 -7.383167e+001 -8.892049e+001 -2.134724e-002 1.354081e+002
543035107.58777 -6.197293e-001 1.594369e+002 -7.200350e+001 -9.254509e+001 -7.238541e+001 -8.393005e+001 -1.236181e-002 1.354818e+002
543412608.53152 -6.295733e-001 1.592173e+002 -7.099467e+001 -8.589158e+001 -7.272744e+001 -7.261113e+001 -1.045173e-002 1.355905e+002
543790109.47527 -6.351264e-001 1.589866e+002 -6.995368e+001 -9.327720e+001 -7.283153e+001 -7.098805e+001 -3.314717e-003 1.356949e+002
544167610.41903 -6.408300e-001 1.587413e+002 -7.109734e+001 -7.547769e+001 -7.147951e+001 -8.577277e+001 2.266227e-003 1.358107e+002
544545111.36278 -6.456132e-001 1.585105e+002 -7.206487e+001 -9.335573e+001 -7.064004e+001 -9.063957e+001 3.022481e-003 1.359363e+002
544922612.30653 -6.514267e-001 1.582623e+002 -7.271566e+001 -7.158576e+001 -7.223213e+001 -8.307205e+001 8.331738e-003 1.361011e+002
545300113.25028 -6.545300e-001 1.579887e+002 -7.128876e+001 -8.781336e+001 -7.171586e+001 -8.534962e+001 8.516847e-003 1.362281e+002
545677614.19404 -6.603678e-001 1.577900e+002 -7.057445e+001 -8.913876e+001 -7.227140e+001 -9.569071e+001 1.019746e-002 1.363730e+002
546055115.13779 -6.649288e-001 1.575053e+002 -7.056033e+001 -9.359270e+001 -6.975625e+001 -8.607766e+001 8.108991e-003 1.365518e+002
546432616.08154 -6.741948e-001 1.572877e+002 -7.080862e+001 -8.584690e+001 -7.228715e+001 -9.669989e+001 8.025827e-003 1.366987e+002
546810117.02529 -6.774505e-001 1.569761e+002 -6.994235e+001 -8.456126e+001 -7.228979e+001 -1.027874e+002 7.432092e-003 1.368391e+002
547187617.96904 -6.841868e-001 1.567342e+002 -7.065321e+001 -9.279037e+001 -7.244672e+001 -9.754446e+001 3.741477e-003 1.369944e+002
547565118.9128 -6.936031e-001 1.564636e+002 -7.221291e+001 -8.967617e+001 -7.368214e+001 -8.418291e+001 3.272885e-003 1.371075e+002
547942619.85655 -7.028418e-001 1.562001e+002 -7.053013e+001 -9.953819e+001 -7.084163e+001 -8.990651e+001 2.436097e-003 1.372487e+002
548320120.8003 -7.103771e-001 1.559468e+002 -7.344164e+001 -1.068127e+002 -7.075932e+001 -8.965482e+001 -3.287632e-003 1.373865e+002
548697621.74405 -7.173802e-001 1.556839e+002 -7.162689e+001 -9.919967e+001 -6.968415e+001 -8.985500e+001 -6.168076e-003 1.374805e+002
549075122.68781 -7.275177e-001 1.554345e+002 -7.419124e+001 -8.412038e+001 -6.985021e+001 -1.028752e+002 -1.241642e-002 1.376485e+002
549452623.63156 -7.353326e-001 1.551908e+002 -7.163589e+001 -1.225502e+002 -7.119811e+001 -1.026020e+002 -1.907947e-002 1.376738e+002
549830124.57531 -7.436582e-001 1.549042e+002 -6.987201e+001 -1.021307e+002 -7.079288e+001 -1.050012e+002 -2.279491e-002 1.377605e+002
550207625.51906 -7.525038e-001 1.546860e+002 -7.276591e+001 -9.803526e+001 -7.089374e+001 -1.034047e+002 -2.967557e-002 1.378236e+002
550585126.46282 -7.610250e-001 1.543216e+002 -7.316748e+001 -9.159599e+001 -7.232301e+001 -1.103879e+002 -3.892439e-002 1.378621e+002
550962627.40657 -7.704443e-001 1.541113e+002 -7.339539e+001 -9.599841e+001 -6.948809e+001 -1.096023e+002 -4.352577e-002 1.378829e+002
551340128.35032 -7.783147e-001 1.538388e+002 -7.391296e+001 -9.647210e+001 -7.149863e+001 -9.328823e+001 -5.024646e-002 1.378933e+002
551717629.29407 -7.895184e-001 1.535521e+002 -7.518809e+001 -1.091125e+002 -7.274024e+001 -9.694949e+001 -5.442465e-002 1.378947e+002
552095130.23783 -7.974038e-001 1.533172e+002 -7.127763e+001 -1.081239e+002 -7.072872e+001 -1.025169e+002 -6.164646e-002 1.378756e+002
552472631.18158 -8.076760e-001 1.530078e+002 -7.119217e+001 -9.071783e+001 -7.261164e+001 -9.704262e+001 -7.136401e-002 1.378298e+002
552850132.12533 -8.147643e-001 1.527544e+002 -7.577568e+001 -1.212992e+002 -7.292002e+001 -1.039477e+002 -7.728989e-002 1.377592e+002
553227633.06908 -8.266242e-001 1.524938e+002 -7.556371e+001 -9.905551e+001 -6.901675e+001 -9.372200e+001 -8.696228e-002 1.376825e+002
553605134.01284 -8.355327e-001 1.522143e+002 -7.224342e+001 -1.049966e+002 -7.175089e+001 -9.539014e+001 -8.793415e-002 1.375494e+002
553982634.95659 -8.476308e-001 1.519533e+002 -6.994398e+001 -9.708615e+001 -7.237688e+001 -9.620779e+001 -1.012253e-001 1.375006e+002
554360135.90034 -8.578834e-001 1.516909e+002 -7.058507e+001 -1.030348e+002 -7.301292e+001 -9.430977e+001 -1.055257e-001 1.373710e+002
554737636.84409 -8.679292e-001 1.514209e+002 -6.957816e+001 -1.021439e+002 -7.164047e+001 -8.739010e+001 -1.126963e-001 1.372414e+002
555115137.78784 -8.766269e-001 1.511831e+002 -7.073979e+001 -9.238646e+001 -6.878461e+001 -9.545007e+001 -1.149042e-001 1.370723e+002
