!Agilent Technologies,E8364B,US42250235,A.06.04.32
!Agilent E8364B: A.06.04.32
!Date: Thursday, October 01, 2020 15:46:54
!Correction: S11(Full 2 Port(1,2)) S21(Full 2 Port(1,2)) S12(Full 2 Port(1,2)) S22(Full 2 Port(1,2)) 
!S2P File: Measurements: S11, S21, S12, S22:
# Hz S  dB   R 50
500000000 -2.230988e-001 -1.750255e+002 -7.282493e+001 -6.910218e+000 -7.389111e+001 -2.834534e+001 4.199805e-002 1.437352e+002
500377500.94375 -2.258528e-001 -1.751971e+002 -7.356573e+001 -1.939059e+001 -7.196354e+001 -1.535593e+001 3.836500e-002 1.439020e+002
500755001.8875 -2.238890e-001 -1.754023e+002 -7.139690e+001 -2.049988e+001 -7.083961e+001 3.691215e+000 4.189155e-002 1.440484e+002
501132502.83126 -2.282220e-001 -1.755959e+002 -7.117604e+001 -2.901062e+001 -7.303674e+001 -2.807284e+001 3.699947e-002 1.442048e+002
501510003.77501 -2.332206e-001 -1.757663e+002 -7.332321e+001 -3.291335e+001 -7.293407e+001 -1.270240e+001 3.225412e-002 1.443403e+002
501887504.71876 -2.311468e-001 -1.760369e+002 -7.179951e+001 -3.003292e+001 -7.664149e+001 -5.021022e+001 2.830557e-002 1.444602e+002
502265005.66251 -2.393820e-001 -1.761703e+002 -7.047084e+001 -1.982753e+001 -7.415896e+001 -2.908873e+001 2.086741e-002 1.445936e+002
502642506.60627 -2.361047e-001 -1.764176e+002 -7.002358e+001 -2.523559e+001 -7.352834e+001 -2.725486e+001 1.642019e-002 1.447358e+002
503020007.55002 -2.455652e-001 -1.766254e+002 -7.202610e+001 -1.293710e+001 -7.436846e+001 -1.717473e+001 1.161708e-002 1.447728e+002
503397508.49377 -2.403921e-001 -1.767617e+002 -7.278981e+001 -2.691694e+001 -7.189465e+001 -3.529972e+001 6.363889e-003 1.448417e+002
503775009.43752 -2.440626e-001 -1.770492e+002 -7.438460e+001 1.740906e+000 -7.599580e+001 -2.265445e+001 -9.899257e-004 1.449159e+002
504152510.38128 -2.463587e-001 -1.771992e+002 -7.455173e+001 -7.356991e+000 -7.326160e+001 -1.435929e+001 -1.151613e-002 1.449232e+002
504530011.32503 -2.451860e-001 -1.774151e+002 -7.258513e+001 -3.481317e+001 -7.841221e+001 -3.603204e+001 -1.675854e-002 1.449552e+002
504907512.26878 -2.491221e-001 -1.776212e+002 -7.303493e+001 -4.975307e+001 -7.221307e+001 -3.493204e+001 -2.489591e-002 1.449566e+002
505285013.21253 -2.537915e-001 -1.778111e+002 -7.292911e+001 -3.882010e+001 -7.386411e+001 -3.837626e+001 -3.754661e-002 1.449627e+002
505662514.15629 -2.512830e-001 -1.780100e+002 -7.103819e+001 -1.067530e+001 -7.653783e+001 -3.481920e+001 -4.444860e-002 1.448912e+002
506040015.10004 -2.558011e-001 -1.781935e+002 -7.178695e+001 -2.033863e+001 -7.680629e+001 -3.728504e+001 -4.939927e-002 1.448271e+002
506417516.04379 -2.575827e-001 -1.784358e+002 -7.251407e+001 -3.272351e+001 -7.651388e+001 -1.737625e+001 -5.998801e-002 1.447399e+002
506795016.98754 -2.611637e-001 -1.786017e+002 -7.618726e+001 -3.807983e+001 -7.359481e+001 -3.637513e+001 -6.571952e-002 1.445983e+002
507172517.93129 -2.622813e-001 -1.788235e+002 -7.355994e+001 -3.433360e+001 -7.117639e+001 -3.157929e+001 -7.582138e-002 1.444806e+002
507550018.87505 -2.639329e-001 -1.790333e+002 -7.133018e+001 -2.992518e+001 -7.466879e+001 -4.023101e+001 -8.240747e-002 1.443020e+002
507927519.8188 -2.654683e-001 -1.792426e+002 -7.351648e+001 -3.866333e+001 -7.268126e+001 -3.303488e+001 -9.262276e-002 1.441575e+002
508305020.76255 -2.651480e-001 -1.794879e+002 -7.876146e+001 -7.790565e+001 -7.292442e+001 -3.524003e+001 -9.992622e-002 1.439454e+002
508682521.7063 -2.691486e-001 -1.797106e+002 -7.778383e+001 -3.432056e+001 -7.693663e+001 -2.163313e+001 -1.116247e-001 1.437339e+002
509060022.65006 -2.739581e-001 -1.799000e+002 -7.475712e+001 -3.945934e+001 -7.331589e+001 -3.565770e+001 -1.123753e-001 1.434538e+002
509437523.59381 -2.729652e-001 1.798593e+002 -7.212827e+001 -2.863861e+001 -7.388519e+001 -4.349192e+001 -1.175592e-001 1.432392e+002
509815024.53756 -2.738906e-001 1.796740e+002 -7.645348e+001 -3.398720e+001 -7.348033e+001 -4.439109e+001 -1.199946e-001 1.429580e+002
510192525.48131 -2.789229e-001 1.794749e+002 -7.260609e+001 -3.312613e+001 -7.227216e+001 -4.514552e+001 -1.244989e-001 1.426757e+002
510570026.42507 -2.820952e-001 1.792805e+002 -7.152269e+001 -4.685208e+001 -7.380952e+001 -3.885046e+001 -1.284277e-001 1.423802e+002
510947527.36882 -2.836511e-001 1.790347e+002 -7.101214e+001 -2.830087e+001 -7.101028e+001 -4.885208e+001 -1.302041e-001 1.421005e+002
511325028.31257 -2.864929e-001 1.788720e+002 -7.352980e+001 -2.074312e+001 -7.404838e+001 -4.299759e+001 -1.308921e-001 1.417893e+002
511702529.25632 -2.826092e-001 1.785683e+002 -7.124098e+001 -4.633134e+001 -6.995409e+001 -3.953343e+001 -1.303262e-001 1.414967e+002
512080030.20008 -2.899607e-001 1.783987e+002 -7.316633e+001 -5.889056e+001 -7.362638e+001 -4.276077e+001 -1.290037e-001 1.411820e+002
512457531.14383 -2.883922e-001 1.781835e+002 -7.401309e+001 -5.412529e+001 -7.192259e+001 -4.900795e+001 -1.255059e-001 1.409034e+002
512835032.08758 -2.937224e-001 1.779371e+002 -7.365958e+001 -2.463040e+001 -7.090100e+001 -5.622416e+001 -1.229137e-001 1.406208e+002
513212533.03133 -2.921651e-001 1.776884e+002 -7.194957e+001 -5.469844e+001 -7.040714e+001 -4.714197e+001 -1.222550e-001 1.403117e+002
513590033.97508 -2.934210e-001 1.774716e+002 -6.971264e+001 -4.899228e+001 -7.054445e+001 -5.087129e+001 -1.145444e-001 1.400704e+002
513967534.91884 -2.973452e-001 1.772909e+002 -7.252840e+001 -4.761126e+001 -7.287292e+001 -5.702296e+001 -1.072441e-001 1.397844e+002
514345035.86259 -2.928837e-001 1.770318e+002 -7.286217e+001 -4.244954e+001 -6.901649e+001 -5.211048e+001 -1.025636e-001 1.395891e+002
514722536.80634 -2.980149e-001 1.768479e+002 -7.106410e+001 -6.731437e+001 -7.277117e+001 -4.105201e+001 -9.546705e-002 1.393728e+002
515100037.75009 -2.965075e-001 1.766469e+002 -7.375658e+001 -5.670478e+001 -7.399339e+001 -4.915673e+001 -8.798364e-002 1.392046e+002
515477538.69385 -3.027714e-001 1.763562e+002 -7.452836e+001 -5.279427e+001 -7.400462e+001 -5.609303e+001 -7.903612e-002 1.390213e+002
515855039.6376 -3.021199e-001 1.761570e+002 -7.406699e+001 -6.890105e+001 -7.121319e+001 -4.640183e+001 -6.705412e-002 1.388923e+002
516232540.58135 -3.067418e-001 1.759457e+002 -7.334170e+001 -4.262911e+001 -7.147688e+001 -5.795552e+001 -5.961279e-002 1.387706e+002
516610041.5251 -3.096329e-001 1.757188e+002 -6.957822e+001 -6.286204e+001 -7.158740e+001 -5.256901e+001 -5.403182e-002 1.386945e+002
516987542.46886 -3.057612e-001 1.754825e+002 -7.037898e+001 -5.560708e+001 -7.349359e+001 -5.257985e+001 -4.520187e-002 1.386354e+002
517365043.41261 -3.131194e-001 1.753220e+002 -7.161816e+001 -4.750816e+001 -7.239723e+001 -7.136178e+001 -3.503769e-002 1.385705e+002
517742544.35636 -3.144842e-001 1.750355e+002 -7.325971e+001 -2.869391e+001 -7.157613e+001 -7.099786e+001 -2.632098e-002 1.385944e+002
518120045.30011 -3.167461e-001 1.748258e+002 -7.088274e+001 -6.431017e+001 -7.115279e+001 -4.659648e+001 -1.658676e-002 1.386107e+002
518497546.24387 -3.189581e-001 1.746313e+002 -7.146026e+001 -6.844821e+001 -7.029142e+001 -7.421125e+001 -5.301538e-003 1.386564e+002
518875047.18762 -3.218726e-001 1.743802e+002 -6.883097e+001 -4.854742e+001 -7.263825e+001 -7.539269e+001 1.882637e-003 1.387449e+002
519252548.13137 -3.314839e-001 1.741914e+002 -7.052045e+001 -5.108709e+001 -6.985461e+001 -6.989870e+001 7.951764e-003 1.388224e+002
519630049.07512 -3.330943e-001 1.739226e+002 -7.136179e+001 -4.803721e+001 -7.644559e+001 -5.863458e+001 1.606625e-002 1.389670e+002
520007550.01888 -3.340912e-001 1.736570e+002 -7.234120e+001 -5.713880e+001 -7.097931e+001 -4.580473e+001 2.165598e-002 1.391024e+002
520385050.96263 -3.381940e-001 1.734902e+002 -7.007402e+001 -5.146602e+001 -6.964503e+001 -5.980377e+001 2.622425e-002 1.392552e+002
520762551.90638 -3.397173e-001 1.732683e+002 -7.141122e+001 -6.378550e+001 -7.082101e+001 -6.005142e+001 3.544290e-002 1.394280e+002
521140052.85013 -3.460755e-001 1.730755e+002 -7.327910e+001 -7.643859e+001 -7.139993e+001 -4.958627e+001 3.919045e-002 1.395881e+002
521517553.79388 -3.470174e-001 1.728617e+002 -6.999513e+001 -7.372162e+001 -7.009499e+001 -5.539257e+001 4.123611e-002 1.398226e+002
521895054.73764 -3.514968e-001 1.726058e+002 -7.109087e+001 -6.279447e+001 -7.280488e+001 -6.582510e+001 4.367205e-002 1.400038e+002
522272555.68139 -3.536301e-001 1.723941e+002 -7.178058e+001 -6.156373e+001 -7.211410e+001 -6.173746e+001 4.483601e-002 1.402290e+002
522650056.62514 -3.584967e-001 1.722022e+002 -6.835471e+001 -6.140425e+001 -7.085223e+001 -6.695345e+001 4.465348e-002 1.404300e+002
523027557.56889 -3.635685e-001 1.719784e+002 -7.033916e+001 -7.257946e+001 -7.071912e+001 -5.706793e+001 4.516808e-002 1.406805e+002
523405058.51265 -3.636321e-001 1.716919e+002 -7.006006e+001 -6.514548e+001 -7.175094e+001 -8.214065e+001 4.674112e-002 1.409317e+002
523782559.4564 -3.668277e-001 1.715202e+002 -7.239710e+001 -7.001846e+001 -6.968056e+001 -8.519851e+001 4.255471e-002 1.410831e+002
524160060.40015 -3.720537e-001 1.712523e+002 -6.917665e+001 -6.375032e+001 -7.021427e+001 -7.710718e+001 3.937945e-002 1.412873e+002
524537561.3439 -3.731315e-001 1.710627e+002 -7.076460e+001 -6.763594e+001 -7.169910e+001 -6.686226e+001 3.362990e-002 1.414788e+002
524915062.28766 -3.774080e-001 1.707913e+002 -6.925223e+001 -8.348114e+001 -7.083295e+001 -7.230116e+001 3.112019e-002 1.416662e+002
525292563.23141 -3.819381e-001 1.704717e+002 -7.052480e+001 -6.826425e+001 -7.095679e+001 -6.460429e+001 2.385849e-002 1.418145e+002
525670064.17516 -3.815404e-001 1.702968e+002 -7.024446e+001 -5.651735e+001 -6.989973e+001 -7.017733e+001 1.634434e-002 1.419642e+002
526047565.11891 -3.892511e-001 1.700450e+002 -6.978258e+001 -6.572120e+001 -6.937935e+001 -6.766910e+001 9.853869e-003 1.420785e+002
526425066.06267 -3.930915e-001 1.697872e+002 -7.104871e+001 -6.459789e+001 -7.220225e+001 -6.309746e+001 -4.227165e-004 1.421858e+002
526802567.00642 -3.960351e-001 1.695809e+002 -7.177631e+001 -7.930369e+001 -7.008095e+001 -7.297469e+001 -9.362020e-003 1.422557e+002
527180067.95017 -4.026177e-001 1.693626e+002 -6.789530e+001 -7.210790e+001 -6.889752e+001 -7.354558e+001 -1.840740e-002 1.423212e+002
527557568.89392 -4.053943e-001 1.690982e+002 -6.895411e+001 -7.917892e+001 -7.005048e+001 -7.515280e+001 -2.429167e-002 1.422935e+002
527935069.83767 -4.141816e-001 1.689110e+002 -6.753808e+001 -7.723186e+001 -6.946444e+001 -8.859206e+001 -3.591452e-002 1.423405e+002
528312570.78143 -4.188123e-001 1.686448e+002 -6.924051e+001 -8.598004e+001 -6.890437e+001 -8.946863e+001 -4.676299e-002 1.423203e+002
528690071.72518 -4.129379e-001 1.683830e+002 -6.891345e+001 -7.291088e+001 -6.812884e+001 -8.907057e+001 -5.720256e-002 1.422500e+002
529067572.66893 -4.220878e-001 1.681478e+002 -6.923949e+001 -8.411510e+001 -6.871060e+001 -9.111913e+001 -7.265103e-002 1.421786e+002
529445073.61268 -4.266664e-001 1.679002e+002 -6.740238e+001 -1.021032e+002 -6.938209e+001 -9.287700e+001 -8.107901e-002 1.420827e+002
529822574.55644 -4.300041e-001 1.676152e+002 -6.861401e+001 -9.747443e+001 -6.749921e+001 -9.267999e+001 -9.164391e-002 1.419085e+002
530200075.50019 -4.369006e-001 1.673427e+002 -6.789019e+001 -9.500272e+001 -6.864153e+001 -9.799557e+001 -9.945186e-002 1.417516e+002
530577576.44394 -4.447983e-001 1.671354e+002 -6.858115e+001 -9.658586e+001 -7.009941e+001 -1.069847e+002 -1.132109e-001 1.415393e+002
530955077.38769 -4.497238e-001 1.668344e+002 -6.904713e+001 -1.048682e+002 -6.899940e+001 -9.446378e+001 -1.201212e-001 1.413421e+002
531332578.33145 -4.516572e-001 1.666191e+002 -7.199750e+001 -9.212338e+001 -7.155868e+001 -8.080794e+001 -1.267243e-001 1.411037e+002
531710079.2752 -4.614981e-001 1.663149e+002 -7.073260e+001 -8.992807e+001 -7.051733e+001 -1.061466e+002 -1.366504e-001 1.408091e+002
532087580.21895 -4.686385e-001 1.661551e+002 -6.994196e+001 -9.982393e+001 -6.996123e+001 -1.044683e+002 -1.373398e-001 1.405491e+002
532465081.1627 -4.765367e-001 1.658476e+002 -7.119382e+001 -9.566564e+001 -6.820785e+001 -1.021392e+002 -1.484479e-001 1.402407e+002
532842582.10646 -4.808877e-001 1.656165e+002 -6.774998e+001 -1.022076e+002 -6.841856e+001 -9.580733e+001 -1.522207e-001 1.399313e+002
533220083.05021 -4.883668e-001 1.654143e+002 -6.912200e+001 -1.035671e+002 -6.803133e+001 -9.828802e+001 -1.550507e-001 1.396275e+002
533597583.99396 -4.945473e-001 1.651169e+002 -6.979982e+001 -1.008699e+002 -6.870531e+001 -1.013425e+002 -1.572604e-001 1.393315e+002
533975084.93771 -5.031620e-001 1.648434e+002 -6.944577e+001 -9.613433e+001 -6.895852e+001 -1.081370e+002 -1.608919e-001 1.389562e+002
534352585.88146 -5.117327e-001 1.646806e+002 -7.026864e+001 -9.851239e+001 -6.788615e+001 -1.076078e+002 -1.587976e-001 1.386367e+002
534730086.82522 -5.191545e-001 1.643952e+002 -6.934457e+001 -1.048615e+002 -6.967325e+001 -9.746793e+001 -1.573369e-001 1.382505e+002
535107587.76897 -5.257187e-001 1.641858e+002 -7.112481e+001 -1.111283e+002 -7.048792e+001 -1.034281e+002 -1.585285e-001 1.379893e+002
535485088.71272 -5.272555e-001 1.638866e+002 -6.901322e+001 -1.005341e+002 -6.749208e+001 -9.680686e+001 -1.554196e-001 1.376655e+002
535862589.65647 -5.342572e-001 1.636398e+002 -6.982571e+001 -9.803428e+001 -6.882645e+001 -1.104762e+002 -1.530929e-001 1.373536e+002
536240090.60023 -5.397167e-001 1.634708e+002 -6.790279e+001 -1.093756e+002 -6.782162e+001 -1.059944e+002 -1.492231e-001 1.370612e+002
536617591.54398 -5.460219e-001 1.631486e+002 -6.943263e+001 -9.002103e+001 -6.835013e+001 -9.811408e+001 -1.421453e-001 1.367699e+002
536995092.48773 -5.557182e-001 1.629867e+002 -7.020590e+001 -1.050596e+002 -6.877083e+001 -1.168337e+002 -1.360602e-001 1.365218e+002
537372593.43148 -5.590984e-001 1.626958e+002 -6.644469e+001 -1.021715e+002 -6.802106e+001 -1.101418e+002 -1.254945e-001 1.362911e+002
537750094.37524 -5.661874e-001 1.624517e+002 -6.763471e+001 -1.118009e+002 -6.861515e+001 -1.170015e+002 -1.192332e-001 1.360631e+002
538127595.31899 -5.717729e-001 1.622287e+002 -6.912088e+001 -1.130572e+002 -6.808241e+001 -1.138290e+002 -1.119467e-001 1.358705e+002
538505096.26274 -5.762660e-001 1.619632e+002 -6.770391e+001 -1.102664e+002 -6.843491e+001 -1.161836e+002 -1.028016e-001 1.357210e+002
538882597.20649 -5.812995e-001 1.617491e+002 -6.878095e+001 -1.078323e+002 -6.726618e+001 -1.078979e+002 -9.261006e-002 1.355316e+002
539260098.15025 -5.901937e-001 1.614143e+002 -6.781387e+001 -1.095513e+002 -6.711769e+001 -1.140940e+002 -8.570735e-002 1.354049e+002
539637599.094 -5.979733e-001 1.611827e+002 -6.804521e+001 -1.191202e+002 -6.840950e+001 -1.104849e+002 -7.833890e-002 1.352924e+002
540015100.03775 -6.072474e-001 1.609388e+002 -6.725475e+001 -1.108846e+002 -6.794690e+001 -1.176288e+002 -6.371632e-002 1.352859e+002
540392600.9815 -6.139117e-001 1.607110e+002 -6.725265e+001 -1.187767e+002 -6.677550e+001 -1.228633e+002 -5.880444e-002 1.351254e+002
540770101.92525 -6.272793e-001 1.604738e+002 -6.763279e+001 -1.172843e+002 -6.718779e+001 -1.220004e+002 -4.853696e-002 1.351401e+002
541147602.86901 -6.272910e-001 1.601974e+002 -6.721770e+001 -1.156223e+002 -6.651719e+001 -1.243924e+002 -3.977514e-002 1.351406e+002
541525103.81276 -6.397193e-001 1.598902e+002 -6.692171e+001 -1.219005e+002 -6.753832e+001 -1.212802e+002 -3.378886e-002 1.351251e+002
541902604.75651 -6.501604e-001 1.597410e+002 -6.780296e+001 -1.236812e+002 -6.665239e+001 -1.304398e+002 -2.856282e-002 1.351808e+002
542280105.70026 -6.662571e-001 1.594693e+002 -6.730972e+001 -1.291847e+002 -6.816302e+001 -1.215034e+002 -1.673925e-002 1.352290e+002
542657606.64402 -6.690298e-001 1.591885e+002 -6.663451e+001 -1.294636e+002 -6.662162e+001 -1.381182e+002 -1.516650e-002 1.352943e+002
543035107.58777 -6.809416e-001 1.590166e+002 -6.649023e+001 -1.282706e+002 -6.708702e+001 -1.388076e+002 -7.825815e-003 1.353762e+002
543412608.53152 -6.911755e-001 1.587416e+002 -6.686740e+001 -1.290541e+002 -6.635024e+001 -1.280882e+002 -3.418408e-003 1.354786e+002
543790109.47527 -6.974967e-001 1.585619e+002 -6.576880e+001 -1.288044e+002 -6.666798e+001 -1.443877e+002 2.412426e-003 1.355741e+002
544167610.41903 -7.089092e-001 1.583781e+002 -6.718251e+001 -1.270455e+002 -6.727821e+001 -1.401568e+002 8.354013e-003 1.357069e+002
544545111.36278 -7.081207e-001 1.581078e+002 -6.595979e+001 -1.258099e+002 -6.623381e+001 -1.350662e+002 9.119689e-003 1.358312e+002
544922612.30653 -7.178017e-001 1.578370e+002 -6.649422e+001 -1.363637e+002 -6.815063e+001 -1.461020e+002 1.264908e-002 1.359777e+002
545300113.25028 -7.241307e-001 1.576087e+002 -6.683090e+001 -1.379123e+002 -6.545818e+001 -1.319406e+002 1.390880e-002 1.361261e+002
545677614.19404 -7.331740e-001 1.573719e+002 -6.616781e+001 -1.318445e+002 -6.652408e+001 -1.440220e+002 1.518545e-002 1.362574e+002
546055115.13779 -7.428551e-001 1.571971e+002 -6.554995e+001 -1.408058e+002 -6.671809e+001 -1.345010e+002 1.703683e-002 1.364318e+002
546432616.08154 -7.507282e-001 1.569157e+002 -6.674797e+001 -1.440589e+002 -6.715851e+001 -1.420635e+002 1.401587e-002 1.365797e+002
546810117.02529 -7.572764e-001 1.566033e+002 -6.642603e+001 -1.334626e+002 -6.702278e+001 -1.373456e+002 1.510769e-002 1.367243e+002
547187617.96904 -7.674984e-001 1.564372e+002 -6.716747e+001 -1.324856e+002 -6.660419e+001 -1.364131e+002 1.571365e-002 1.368698e+002
547565118.9128 -7.774569e-001 1.561396e+002 -6.625974e+001 -1.384880e+002 -6.680549e+001 -1.380988e+002 1.097800e-002 1.370019e+002
547942619.85655 -7.904582e-001 1.558935e+002 -6.623653e+001 -1.375188e+002 -6.672579e+001 -1.353481e+002 1.059575e-002 1.371334e+002
548320120.8003 -7.987152e-001 1.556363e+002 -6.526241e+001 -1.453103e+002 -6.730122e+001 -1.477532e+002 5.083563e-003 1.372763e+002
548697621.74405 -8.102089e-001 1.554477e+002 -6.509203e+001 -1.380839e+002 -6.645754e+001 -1.415503e+002 3.546131e-003 1.373654e+002
549075122.68781 -8.181450e-001 1.551568e+002 -6.744022e+001 -1.451603e+002 -6.617997e+001 -1.361332e+002 -3.149413e-003 1.375343e+002
549452623.63156 -8.309559e-001 1.549601e+002 -6.706883e+001 -1.468045e+002 -6.520222e+001 -1.439735e+002 -6.903650e-003 1.375738e+002
549830124.57531 -8.386106e-001 1.547087e+002 -6.555070e+001 -1.380654e+002 -6.601991e+001 -1.471623e+002 -1.280574e-002 1.376629e+002
550207625.51906 -8.455306e-001 1.544106e+002 -6.630295e+001 -1.511406e+002 -6.588596e+001 -1.490492e+002 -2.356480e-002 1.377155e+002
550585126.46282 -8.596202e-001 1.541208e+002 -6.624847e+001 -1.549221e+002 -6.489947e+001 -1.422650e+002 -2.977147e-002 1.377593e+002
550962627.40657 -8.673387e-001 1.538872e+002 -6.610468e+001 -1.529106e+002 -6.735866e+001 -1.415957e+002 -3.351665e-002 1.377997e+002
551340128.35032 -8.764371e-001 1.536370e+002 -6.542802e+001 -1.431352e+002 -6.651186e+001 -1.509700e+002 -3.980963e-002 1.377876e+002
551717629.29407 -8.905948e-001 1.533607e+002 -6.475310e+001 -1.446383e+002 -6.568294e+001 -1.496975e+002 -4.584558e-002 1.377910e+002
552095130.23783 -8.988438e-001 1.531098e+002 -6.643953e+001 -1.498609e+002 -6.676629e+001 -1.510643e+002 -5.428935e-002 1.377706e+002
552472631.18158 -9.090334e-001 1.528311e+002 -6.655614e+001 -1.505501e+002 -6.652187e+001 -1.545415e+002 -5.899990e-002 1.377364e+002
552850132.12533 -9.158092e-001 1.526149e+002 -6.584102e+001 -1.551901e+002 -6.755727e+001 -1.526896e+002 -6.872209e-002 1.376770e+002
553227633.06908 -9.295810e-001 1.523296e+002 -6.470880e+001 -1.523120e+002 -6.645113e+001 -1.617759e+002 -7.760825e-002 1.376039e+002
553605134.01284 -9.387669e-001 1.520635e+002 -6.588229e+001 -1.570410e+002 -6.601298e+001 -1.503866e+002 -8.126604e-002 1.375093e+002
553982634.95659 -9.491014e-001 1.518125e+002 -6.564310e+001 -1.485131e+002 -6.603825e+001 -1.531293e+002 -8.948880e-002 1.373947e+002
554360135.90034 -9.655176e-001 1.515826e+002 -6.476089e+001 -1.546393e+002 -6.493792e+001 -1.555172e+002 -9.798185e-002 1.372765e+002
554737636.84409 -9.780986e-001 1.512677e+002 -6.669679e+001 -1.565322e+002 -6.577718e+001 -1.565544e+002 -1.023100e-001 1.371470e+002
555115137.78784 -9.886819e-001 1.509909e+002 -6.520173e+001 -1.495078e+002 -6.480456e+001 -1.594436e+002 -1.026994e-001 1.369733e+002
