!Agilent Technologies,E8364B,US42250235,A.06.04.32
!Agilent E8364B: A.06.04.32
!Date: Thursday, October 01, 2020 15:52:10
!Correction: S11(Full 2 Port(1,2)) S21(Full 2 Port(1,2)) S12(Full 2 Port(1,2)) S22(Full 2 Port(1,2)) 
!S2P File: Measurements: S11, S21, S12, S22:
# Hz S  dB   R 50
500000000 -1.976264e-001 -1.752681e+002 -7.742289e+001 -1.775891e+002 -8.168436e+001 -9.203934e+001 -2.340191e-004 1.432991e+002
500377500.94375 -1.958238e-001 -1.754572e+002 -7.976015e+001 -1.626438e+002 -8.087426e+001 -1.588632e+002 2.975666e-004 1.434516e+002
500755001.8875 -1.965425e-001 -1.756830e+002 -7.669147e+001 -1.473892e+002 -7.578684e+001 -1.409445e+002 1.519299e-003 1.435774e+002
501132502.83126 -2.001821e-001 -1.758302e+002 -7.626354e+001 -1.430382e+002 -8.103960e+001 -1.480908e+002 -3.023589e-003 1.437098e+002
501510003.77501 -2.001896e-001 -1.760844e+002 -8.640491e+001 -1.123104e+002 -8.270496e+001 -1.186827e+002 -3.305409e-003 1.438242e+002
501887504.71876 -2.058752e-001 -1.763225e+002 -7.816763e+001 -1.217220e+002 -8.078999e+001 -1.520103e+002 -6.508805e-003 1.439271e+002
502265005.66251 -2.085687e-001 -1.765153e+002 -7.901850e+001 -1.344700e+002 -8.634970e+001 -1.519160e+002 -1.010295e-002 1.440302e+002
502642506.60627 -2.089793e-001 -1.767300e+002 -7.677688e+001 -1.470929e+002 -7.862394e+001 -9.492947e+001 -1.559794e-002 1.441552e+002
503020007.55002 -2.149466e-001 -1.769305e+002 -7.956115e+001 -1.241521e+002 -8.568271e+001 -1.529480e+002 -2.031765e-002 1.441950e+002
503397508.49377 -2.129657e-001 -1.771440e+002 -8.081632e+001 -1.226631e+002 -8.583775e+001 -1.307674e+002 -2.129894e-002 1.442435e+002
503775009.43752 -2.168667e-001 -1.773425e+002 -8.711848e+001 -1.507374e+002 -7.672252e+001 -1.545925e+002 -2.895219e-002 1.443010e+002
504152510.38128 -2.218699e-001 -1.775552e+002 -8.064326e+001 -1.262240e+002 -8.845993e+001 -1.285328e+002 -3.327938e-002 1.443113e+002
504530011.32503 -2.212945e-001 -1.777578e+002 -9.983829e+001 -7.782581e+001 -7.825996e+001 -1.196204e+002 -4.033381e-002 1.443410e+002
504907512.26878 -2.253751e-001 -1.779769e+002 -8.606873e+001 1.135830e+002 -8.427222e+001 -1.192243e+002 -4.865688e-002 1.443398e+002
505285013.21253 -2.289258e-001 -1.781676e+002 -8.109440e+001 -1.158805e+002 -8.413905e+001 -5.323782e+001 -5.400788e-002 1.443328e+002
505662514.15629 -2.281951e-001 -1.783936e+002 -8.952173e+001 -4.583539e+001 -8.716082e+001 -6.310056e+001 -5.780924e-002 1.442923e+002
506040015.10004 -2.340964e-001 -1.785609e+002 -8.753635e+001 -1.190553e+002 -8.311764e+001 -3.172474e+001 -6.643143e-002 1.442293e+002
506417516.04379 -2.359010e-001 -1.788039e+002 -7.999754e+001 -1.103028e+002 -8.845210e+001 -2.415965e+001 -7.439274e-002 1.441467e+002
506795016.98754 -2.396087e-001 -1.790181e+002 -7.934240e+001 -1.252185e+002 -8.023034e+001 -1.632629e+001 -7.793345e-002 1.440231e+002
507172517.93129 -2.414435e-001 -1.792314e+002 -8.193587e+001 -8.216357e+001 -8.070568e+001 -9.695605e+001 -8.430357e-002 1.439350e+002
507550018.87505 -2.413824e-001 -1.794337e+002 -7.812093e+001 -1.083354e+002 -8.113683e+001 -9.508492e+001 -9.591891e-002 1.437642e+002
507927519.8188 -2.471495e-001 -1.796615e+002 -8.388524e+001 -1.040699e+002 -7.655724e+001 -1.131904e+002 -1.033856e-001 1.436404e+002
508305020.76255 -2.487186e-001 -1.798669e+002 -7.985602e+001 -1.077977e+002 -8.280002e+001 -6.403999e+001 -1.080783e-001 1.434878e+002
508682521.7063 -2.487684e-001 1.798675e+002 -8.231762e+001 -1.111412e+002 -8.497010e+001 -1.019214e+002 -1.178318e-001 1.433029e+002
509060022.65006 -2.558586e-001 1.797018e+002 -7.870538e+001 -1.054846e+002 -7.793170e+001 -9.878190e+001 -1.202068e-001 1.430756e+002
509437523.59381 -2.559043e-001 1.794441e+002 -7.632238e+001 -9.184396e+001 -7.988779e+001 -8.068739e+001 -1.222807e-001 1.428909e+002
509815024.53756 -2.590308e-001 1.792613e+002 -8.382200e+001 -1.116120e+002 -8.392781e+001 -1.307894e+002 -1.254401e-001 1.426513e+002
510192525.48131 -2.597110e-001 1.790338e+002 -7.990156e+001 -1.311253e+002 -7.925702e+001 -1.254473e+002 -1.278623e-001 1.424232e+002
510570026.42507 -2.658783e-001 1.788327e+002 -7.607050e+001 -1.066570e+002 -7.408350e+001 -1.211025e+002 -1.328657e-001 1.421798e+002
510947527.36882 -2.678398e-001 1.786341e+002 -8.084139e+001 -8.856935e+001 -7.930365e+001 -9.090647e+001 -1.356651e-001 1.419405e+002
511325028.31257 -2.670807e-001 1.783775e+002 -8.841826e+001 -1.209382e+002 -9.131573e+001 -7.713821e+001 -1.373539e-001 1.416815e+002
511702529.25632 -2.698563e-001 1.780907e+002 -7.807505e+001 -8.420781e+001 -7.619214e+001 -9.661600e+001 -1.350072e-001 1.414515e+002
512080030.20008 -2.760599e-001 1.779092e+002 -7.729822e+001 -9.621169e+001 -7.581557e+001 -1.369906e+002 -1.366426e-001 1.411827e+002
512457531.14383 -2.814609e-001 1.776787e+002 -7.852346e+001 -1.317204e+002 -8.053984e+001 -1.310758e+002 -1.306863e-001 1.409582e+002
512835032.08758 -2.853916e-001 1.774417e+002 -8.583725e+001 -1.250648e+002 -7.490785e+001 -1.142077e+002 -1.295335e-001 1.407207e+002
513212533.03133 -2.831082e-001 1.771768e+002 -7.977668e+001 -1.153515e+002 -7.673876e+001 -1.112301e+002 -1.273021e-001 1.404626e+002
513590033.97508 -2.916304e-001 1.769548e+002 -7.751055e+001 -1.113676e+002 -7.649234e+001 -1.199528e+002 -1.210567e-001 1.402556e+002
513967534.91884 -2.928187e-001 1.767770e+002 -7.643113e+001 -1.236666e+002 -7.382388e+001 -1.188518e+002 -1.140016e-001 1.400548e+002
514345035.86259 -2.934107e-001 1.765197e+002 -7.518812e+001 -1.452033e+002 -7.541040e+001 -1.457885e+002 -1.100251e-001 1.398621e+002
514722536.80634 -3.000892e-001 1.763479e+002 -7.677696e+001 -1.057511e+002 -7.988660e+001 -1.238615e+002 -1.060459e-001 1.396692e+002
515100037.75009 -2.977980e-001 1.761311e+002 -8.067299e+001 -1.159597e+002 -7.410983e+001 -1.161156e+002 -9.726058e-002 1.395237e+002
515477538.69385 -3.022020e-001 1.758483e+002 -7.733916e+001 -1.246740e+002 -7.456343e+001 -1.164947e+002 -8.937218e-002 1.393577e+002
515855039.6376 -3.049807e-001 1.756690e+002 -7.484077e+001 -1.424343e+002 -7.801752e+001 -1.070602e+002 -8.102184e-002 1.392441e+002
516232540.58135 -3.102746e-001 1.754443e+002 -7.587177e+001 -1.413774e+002 -7.940828e+001 -1.146750e+002 -7.504226e-002 1.391556e+002
516610041.5251 -3.139879e-001 1.752105e+002 -7.719243e+001 -1.584378e+002 -7.800005e+001 -1.470019e+002 -6.729423e-002 1.390787e+002
516987542.46886 -3.126020e-001 1.749785e+002 -7.611294e+001 -1.424741e+002 -7.534212e+001 -1.069621e+002 -6.161245e-002 1.390138e+002
517365043.41261 -3.183450e-001 1.747498e+002 -7.340301e+001 -1.006889e+002 -7.692567e+001 -1.290706e+002 -5.268978e-002 1.389433e+002
517742544.35636 -3.204449e-001 1.745254e+002 -7.421001e+001 -9.561614e+001 -7.934807e+001 -1.355378e+002 -4.556748e-002 1.389715e+002
518120045.30011 -3.231348e-001 1.742981e+002 -7.677524e+001 -1.189795e+002 -7.290204e+001 -1.303674e+002 -3.589147e-002 1.389708e+002
518497546.24387 -3.269571e-001 1.741120e+002 -7.425280e+001 -1.216585e+002 -7.796214e+001 -1.138097e+002 -2.639219e-002 1.389445e+002
518875047.18762 -3.330316e-001 1.738424e+002 -7.330914e+001 -9.838819e+001 -7.522378e+001 -1.326671e+002 -2.097199e-002 1.390593e+002
519252548.13137 -3.386632e-001 1.736345e+002 -7.426170e+001 -9.503249e+001 -7.570273e+001 -1.100001e+002 -1.634108e-002 1.391228e+002
519630049.07512 -3.428839e-001 1.733627e+002 -7.583763e+001 -1.113776e+002 -7.676836e+001 -1.025100e+002 -7.545059e-003 1.391784e+002
520007550.01888 -3.484451e-001 1.730877e+002 -7.223318e+001 -1.231873e+002 -7.728831e+001 -1.269088e+002 -8.343196e-003 1.393242e+002
520385050.96263 -3.520956e-001 1.729195e+002 -7.097601e+001 -1.396845e+002 -7.235646e+001 -1.174850e+002 -4.702567e-003 1.394362e+002
520762551.90638 -3.597619e-001 1.726797e+002 -7.001661e+001 -1.358354e+002 -7.276978e+001 -1.253302e+002 1.177413e-003 1.395660e+002
521140052.85013 -3.649925e-001 1.724913e+002 -7.194901e+001 -1.348592e+002 -7.244398e+001 -1.342978e+002 4.480217e-003 1.396958e+002
521517553.79388 -3.695149e-001 1.722651e+002 -7.086029e+001 -1.395547e+002 -7.333042e+001 -1.394326e+002 9.051212e-003 1.398840e+002
521895054.73764 -3.758143e-001 1.719958e+002 -7.059373e+001 -1.367882e+002 -7.225704e+001 -1.367753e+002 5.947841e-003 1.400318e+002
522272555.68139 -3.805861e-001 1.717806e+002 -7.135706e+001 -1.563980e+002 -7.304144e+001 -1.326698e+002 6.695348e-003 1.402013e+002
522650056.62514 -3.881958e-001 1.715517e+002 -7.042142e+001 -1.370721e+002 -7.041705e+001 -1.417523e+002 5.205862e-003 1.403494e+002
523027557.56889 -3.966149e-001 1.713826e+002 -7.102972e+001 -1.540101e+002 -7.279406e+001 -1.400359e+002 5.143715e-003 1.405471e+002
523405058.51265 -3.994414e-001 1.710875e+002 -7.202269e+001 -1.392630e+002 -7.405856e+001 -1.504766e+002 4.121722e-003 1.407694e+002
523782559.4564 -4.082803e-001 1.709226e+002 -6.943072e+001 -1.508762e+002 -7.294731e+001 -1.338243e+002 3.523653e-004 1.408888e+002
524160060.40015 -4.168181e-001 1.706478e+002 -7.139684e+001 -1.563143e+002 -7.211786e+001 -1.500183e+002 -3.465614e-003 1.410284e+002
524537561.3439 -4.170136e-001 1.704827e+002 -7.326340e+001 -1.574957e+002 -7.230772e+001 -1.364734e+002 -1.412595e-002 1.411803e+002
524915062.28766 -4.248468e-001 1.702535e+002 -7.107196e+001 -1.660134e+002 -7.221293e+001 -1.669844e+002 -1.876179e-002 1.413429e+002
525292563.23141 -4.282416e-001 1.699258e+002 -7.152122e+001 -1.588978e+002 -7.180514e+001 -1.464146e+002 -2.415631e-002 1.414538e+002
525670064.17516 -4.303120e-001 1.697480e+002 -7.296577e+001 -1.532651e+002 -7.211347e+001 -1.602030e+002 -3.272730e-002 1.415738e+002
526047565.11891 -4.400195e-001 1.695167e+002 -7.212347e+001 -1.658615e+002 -7.070825e+001 -1.526245e+002 -4.087333e-002 1.416607e+002
526425066.06267 -4.446009e-001 1.692499e+002 -7.080621e+001 -1.544940e+002 -7.235715e+001 -1.473802e+002 -5.009733e-002 1.417505e+002
526802567.00642 -4.495013e-001 1.690698e+002 -7.371237e+001 -1.542079e+002 -7.464266e+001 -1.747866e+002 -5.455790e-002 1.418159e+002
527180067.95017 -4.555397e-001 1.688440e+002 -7.482406e+001 -1.629172e+002 -7.388674e+001 -1.598529e+002 -6.490844e-002 1.418570e+002
527557568.89392 -4.553324e-001 1.685976e+002 -7.462287e+001 -1.535921e+002 -7.494887e+001 -1.667465e+002 -7.083846e-002 1.418835e+002
527935069.83767 -4.650841e-001 1.684065e+002 -7.417713e+001 -1.468000e+002 -7.330129e+001 -1.741472e+002 -8.148520e-002 1.418880e+002
528312570.78143 -4.692126e-001 1.681339e+002 -7.308855e+001 -1.746044e+002 -7.188090e+001 -1.608484e+002 -9.211872e-002 1.418693e+002
528690071.72518 -4.656177e-001 1.678904e+002 -7.486560e+001 -1.331710e+002 -7.221178e+001 -1.554890e+002 -9.875605e-002 1.418065e+002
529067572.66893 -4.744662e-001 1.676492e+002 -7.428990e+001 -1.627076e+002 -7.345334e+001 -1.638272e+002 -1.108532e-001 1.417686e+002
529445073.61268 -4.745576e-001 1.674021e+002 -7.296439e+001 -1.592710e+002 -7.436689e+001 -1.519043e+002 -1.212556e-001 1.416849e+002
529822574.55644 -4.785739e-001 1.671161e+002 -7.287338e+001 -1.421094e+002 -7.246638e+001 -1.647873e+002 -1.302604e-001 1.415517e+002
530200075.50019 -4.865475e-001 1.668151e+002 -7.106229e+001 -1.601113e+002 -7.165408e+001 -1.737688e+002 -1.335711e-001 1.414076e+002
530577576.44394 -4.935767e-001 1.666042e+002 -7.415371e+001 -1.634819e+002 -7.280534e+001 -1.684289e+002 -1.451857e-001 1.412549e+002
530955077.38769 -5.023654e-001 1.662766e+002 -7.609051e+001 1.733670e+002 -7.297374e+001 -1.782375e+002 -1.528621e-001 1.410801e+002
531332578.33145 -5.068038e-001 1.660637e+002 -7.483767e+001 -1.765389e+002 -7.208797e+001 -1.661660e+002 -1.604301e-001 1.408866e+002
531710079.2752 -5.177751e-001 1.657500e+002 -7.650182e+001 -1.621093e+002 -7.447427e+001 -1.785277e+002 -1.654586e-001 1.406458e+002
532087580.21895 -5.264966e-001 1.655706e+002 -7.362270e+001 -1.614352e+002 -7.728631e+001 -1.608366e+002 -1.660914e-001 1.404209e+002
532465081.1627 -5.342325e-001 1.652521e+002 -7.142803e+001 -1.682499e+002 -7.260551e+001 1.737720e+002 -1.731747e-001 1.401812e+002
532842582.10646 -5.408245e-001 1.650061e+002 -7.477491e+001 -1.582874e+002 -7.234104e+001 -1.506238e+002 -1.763462e-001 1.399312e+002
533220083.05021 -5.531440e-001 1.647984e+002 -7.456399e+001 -1.451303e+002 -7.394926e+001 -1.628350e+002 -1.813019e-001 1.396629e+002
533597583.99396 -5.609431e-001 1.644677e+002 -7.402765e+001 -1.617519e+002 -7.257167e+001 -1.741483e+002 -1.807515e-001 1.394173e+002
533975084.93771 -5.710529e-001 1.642043e+002 -7.283089e+001 -1.756978e+002 -7.158320e+001 -1.753138e+002 -1.832719e-001 1.391078e+002
534352585.88146 -5.858150e-001 1.640323e+002 -7.395410e+001 -1.751013e+002 -7.388602e+001 -1.785118e+002 -1.830479e-001 1.388064e+002
534730086.82522 -5.963981e-001 1.637591e+002 -7.234475e+001 -1.700024e+002 -7.532908e+001 -1.481658e+002 -1.856056e-001 1.385472e+002
535107587.76897 -6.092873e-001 1.635405e+002 -7.361958e+001 -1.680612e+002 -7.447087e+001 -1.676439e+002 -1.845524e-001 1.382552e+002
535485088.71272 -6.174451e-001 1.632311e+002 -7.588157e+001 -1.600684e+002 -7.363245e+001 -1.625881e+002 -1.796610e-001 1.379393e+002
535862589.65647 -6.285266e-001 1.629912e+002 -7.111742e+001 -1.598670e+002 -7.372659e+001 -1.704772e+002 -1.786491e-001 1.376766e+002
536240090.60023 -6.355265e-001 1.628271e+002 -7.229450e+001 -1.535016e+002 -7.429057e+001 -1.636944e+002 -1.739394e-001 1.373962e+002
536617591.54398 -6.487060e-001 1.625132e+002 -7.127498e+001 -1.650855e+002 -7.645232e+001 -1.716414e+002 -1.710046e-001 1.371261e+002
536995092.48773 -6.601951e-001 1.623646e+002 -6.980802e+001 -1.469481e+002 -7.220531e+001 -1.696178e+002 -1.666493e-001 1.369022e+002
537372593.43148 -6.667665e-001 1.620429e+002 -6.989584e+001 -1.591059e+002 -7.459427e+001 -1.548810e+002 -1.593659e-001 1.366526e+002
537750094.37524 -6.790802e-001 1.618773e+002 -7.274013e+001 -1.631330e+002 -7.136562e+001 -1.359860e+002 -1.541982e-001 1.364533e+002
538127595.31899 -6.907931e-001 1.616717e+002 -7.083187e+001 -1.389500e+002 -7.153378e+001 -1.564968e+002 -1.503049e-001 1.362478e+002
538505096.26274 -6.995860e-001 1.614232e+002 -7.085564e+001 -1.625080e+002 -7.142093e+001 -1.571258e+002 -1.426354e-001 1.360841e+002
538882597.20649 -7.101856e-001 1.612190e+002 -7.157182e+001 -1.528932e+002 -7.096616e+001 -1.426523e+002 -1.351436e-001 1.358859e+002
539260098.15025 -7.179965e-001 1.609349e+002 -6.923891e+001 -1.677615e+002 -7.087406e+001 -1.654869e+002 -1.257512e-001 1.357383e+002
539637599.094 -7.268350e-001 1.607146e+002 -6.934082e+001 -1.677000e+002 -7.162193e+001 -1.519753e+002 -1.235325e-001 1.356024e+002
540015100.03775 -7.383605e-001 1.605112e+002 -6.930235e+001 -1.597908e+002 -6.989738e+001 -1.526846e+002 -1.123823e-001 1.355578e+002
540392600.9815 -7.441548e-001 1.603055e+002 -6.860910e+001 -1.608223e+002 -6.907788e+001 -1.563417e+002 -1.086907e-001 1.354193e+002
540770101.92525 -7.561739e-001 1.600920e+002 -6.949963e+001 -1.595190e+002 -6.959669e+001 -1.562959e+002 -9.835728e-002 1.353565e+002
541147602.86901 -7.584544e-001 1.598346e+002 -6.903861e+001 -1.738388e+002 -6.886626e+001 -1.668693e+002 -9.082192e-002 1.353004e+002
541525103.81276 -7.649552e-001 1.595670e+002 -6.989873e+001 -1.788194e+002 -7.031390e+001 -1.637365e+002 -8.570727e-002 1.352720e+002
541902604.75651 -7.772756e-001 1.594236e+002 -6.974661e+001 -1.735447e+002 -6.950504e+001 -1.577146e+002 -8.221989e-002 1.352498e+002
542280105.70026 -7.897371e-001 1.591505e+002 -7.154545e+001 -1.677105e+002 -6.846114e+001 -1.678633e+002 -7.105419e-002 1.352698e+002
542657606.64402 -7.913606e-001 1.588501e+002 -6.823916e+001 1.791011e+002 -6.916045e+001 1.757211e+002 -6.799661e-002 1.352971e+002
543035107.58777 -7.992444e-001 1.586557e+002 -6.934005e+001 -1.683413e+002 -6.900515e+001 -1.655780e+002 -6.168993e-002 1.353249e+002
543412608.53152 -8.121977e-001 1.583947e+002 -7.022156e+001 1.792647e+002 -6.914517e+001 -1.710347e+002 -5.826572e-002 1.353784e+002
543790109.47527 -8.188201e-001 1.581839e+002 -7.046548e+001 -1.705028e+002 -7.087936e+001 -1.724170e+002 -5.248101e-002 1.354339e+002
544167610.41903 -8.331134e-001 1.579916e+002 -7.126903e+001 -1.796720e+002 -7.110331e+001 -1.738124e+002 -4.355219e-002 1.355255e+002
544545111.36278 -8.340489e-001 1.577181e+002 -6.882991e+001 -1.673707e+002 -7.067486e+001 -1.750948e+002 -4.209333e-002 1.356185e+002
544922612.30653 -8.496729e-001 1.574052e+002 -6.900768e+001 -1.603481e+002 -6.885674e+001 1.788339e+002 -3.812432e-002 1.357245e+002
545300113.25028 -8.604638e-001 1.571747e+002 -7.002306e+001 -1.578846e+002 -6.829317e+001 1.770085e+002 -3.624229e-002 1.358354e+002
545677614.19404 -8.720117e-001 1.569416e+002 -6.914199e+001 -1.630125e+002 -6.977999e+001 -1.663072e+002 -3.552023e-002 1.359382e+002
546055115.13779 -8.843402e-001 1.567463e+002 -6.901603e+001 -1.651615e+002 -6.895676e+001 -1.699177e+002 -3.356318e-002 1.360935e+002
546432616.08154 -8.996788e-001 1.564753e+002 -6.889137e+001 1.741723e+002 -6.992220e+001 -1.771872e+002 -3.077255e-002 1.362013e+002
546810117.02529 -9.094568e-001 1.561579e+002 -6.869309e+001 -1.736657e+002 -6.849553e+001 -1.676773e+002 -2.909666e-002 1.363283e+002
547187617.96904 -9.279495e-001 1.559966e+002 -6.745727e+001 -1.661235e+002 -6.741506e+001 -1.655572e+002 -2.482104e-002 1.364791e+002
547565118.9128 -9.442921e-001 1.557160e+002 -6.592230e+001 -1.653240e+002 -6.856117e+001 -1.703489e+002 -2.699636e-002 1.365894e+002
547942619.85655 -9.654660e-001 1.554674e+002 -6.647883e+001 1.764241e+002 -6.617934e+001 -1.725384e+002 -2.580770e-002 1.367242e+002
548320120.8003 -9.843693e-001 1.552451e+002 -6.569352e+001 -1.697253e+002 -6.629791e+001 -1.760300e+002 -2.802579e-002 1.368432e+002
548697621.74405 -1.001427e+000 1.550641e+002 -6.501794e+001 -1.715518e+002 -6.565237e+001 -1.735462e+002 -2.464902e-002 1.369565e+002
549075122.68781 -1.019183e+000 1.548461e+002 -6.500051e+001 1.718317e+002 -6.519369e+001 1.769433e+002 -2.850598e-002 1.371415e+002
549452623.63156 -1.038131e+000 1.547109e+002 -6.493448e+001 1.756253e+002 -6.585440e+001 -1.780243e+002 -3.437005e-002 1.371906e+002
549830124.57531 -1.048391e+000 1.544949e+002 -6.466399e+001 1.750276e+002 -6.555563e+001 1.797335e+002 -3.562499e-002 1.372710e+002
550207625.51906 -1.062038e+000 1.543112e+002 -6.458247e+001 1.641982e+002 -6.473760e+001 1.706621e+002 -3.983003e-002 1.373666e+002
550585126.46282 -1.071620e+000 1.540837e+002 -6.418972e+001 1.559238e+002 -6.572320e+001 1.625348e+002 -4.388311e-002 1.374467e+002
550962627.40657 -1.081120e+000 1.539170e+002 -6.468632e+001 1.608072e+002 -6.567999e+001 1.628105e+002 -4.694890e-002 1.375093e+002
551340128.35032 -1.089543e+000 1.537338e+002 -6.572247e+001 1.542464e+002 -6.404180e+001 1.590458e+002 -5.335640e-002 1.375335e+002
551717629.29407 -1.095996e+000 1.534967e+002 -6.476149e+001 1.560893e+002 -6.505804e+001 1.607133e+002 -5.789310e-002 1.375716e+002
552095130.23783 -1.100332e+000 1.532977e+002 -6.589902e+001 1.536326e+002 -6.523400e+001 1.648215e+002 -6.390870e-002 1.375948e+002
552472631.18158 -1.107791e+000 1.530598e+002 -6.546999e+001 1.453954e+002 -6.612064e+001 1.531793e+002 -7.095572e-002 1.375899e+002
552850132.12533 -1.108437e+000 1.528403e+002 -6.519750e+001 1.532862e+002 -6.651820e+001 1.623425e+002 -7.682613e-002 1.375761e+002
553227633.06908 -1.114673e+000 1.525535e+002 -6.542389e+001 1.531752e+002 -6.682128e+001 1.561246e+002 -8.712849e-002 1.375460e+002
553605134.01284 -1.125725e+000 1.523000e+002 -6.654186e+001 1.539252e+002 -6.684573e+001 1.525006e+002 -8.538770e-002 1.374375e+002
553982634.95659 -1.136548e+000 1.520296e+002 -6.680478e+001 1.518110e+002 -6.533435e+001 1.519277e+002 -1.005236e-001 1.374224e+002
554360135.90034 -1.150627e+000 1.518030e+002 -6.642663e+001 1.544046e+002 -6.732407e+001 1.523003e+002 -1.075829e-001 1.373447e+002
554737636.84409 -1.159930e+000 1.514833e+002 -6.598299e+001 1.551411e+002 -6.682378e+001 1.616393e+002 -1.137984e-001 1.372474e+002
555115137.78784 -1.174356e+000 1.512130e+002 -6.639845e+001 1.576139e+002 -6.680919e+001 1.599839e+002 -1.188998e-001 1.371228e+002
