!Agilent Technologies,E8364B,US42250235,A.06.04.32
!Agilent E8364B: A.06.04.32
!Date: Thursday, October 01, 2020 15:56:30
!Correction: S11(Full 2 Port(1,2)) S21(Full 2 Port(1,2)) S12(Full 2 Port(1,2)) S22(Full 2 Port(1,2)) 
!S2P File: Measurements: S11, S21, S12, S22:
# Hz S  dB   R 50
500000000 -2.625922e-001 -1.749396e+002 -7.079856e+001 1.139618e+002 -7.228150e+001 1.051836e+002 -8.605798e-002 1.422711e+002
500377500.94375 -2.632990e-001 -1.751200e+002 -6.907746e+001 1.268218e+002 -7.081046e+001 1.317269e+002 -8.643948e-002 1.424371e+002
500755001.8875 -2.654598e-001 -1.753210e+002 -7.455582e+001 1.316496e+002 -7.454184e+001 1.249686e+002 -8.454123e-002 1.425640e+002
501132502.83126 -2.656446e-001 -1.755164e+002 -7.170987e+001 1.348881e+002 -7.236658e+001 1.124368e+002 -9.232058e-002 1.426974e+002
501510003.77501 -2.700939e-001 -1.756810e+002 -7.283678e+001 1.089351e+002 -7.031808e+001 1.104837e+002 -9.519556e-002 1.428412e+002
501887504.71876 -2.692558e-001 -1.759354e+002 -7.365375e+001 1.382715e+002 -6.985001e+001 1.148075e+002 -9.911098e-002 1.429366e+002
502265005.66251 -2.788839e-001 -1.760742e+002 -7.562143e+001 1.314016e+002 -7.284952e+001 1.250604e+002 -1.026154e-001 1.430607e+002
502642506.60627 -2.759377e-001 -1.763157e+002 -7.302199e+001 1.107036e+002 -7.290530e+001 1.144377e+002 -1.081538e-001 1.431864e+002
503020007.55002 -2.846082e-001 -1.765320e+002 -6.844976e+001 1.281602e+002 -7.215473e+001 1.189242e+002 -1.136935e-001 1.432241e+002
503397508.49377 -2.821774e-001 -1.766699e+002 -7.291595e+001 1.067277e+002 -7.284052e+001 1.201947e+002 -1.181676e-001 1.432986e+002
503775009.43752 -2.843887e-001 -1.769602e+002 -7.157800e+001 1.313243e+002 -7.277636e+001 1.202338e+002 -1.258884e-001 1.433441e+002
504152510.38128 -2.898455e-001 -1.771096e+002 -7.170193e+001 1.190341e+002 -7.213660e+001 1.116077e+002 -1.318180e-001 1.433698e+002
504530011.32503 -2.908255e-001 -1.773058e+002 -7.381979e+001 1.312244e+002 -7.306393e+001 1.091159e+002 -1.409812e-001 1.433969e+002
504907512.26878 -2.949400e-001 -1.774610e+002 -7.260964e+001 1.069607e+002 -7.155054e+001 1.004755e+002 -1.455831e-001 1.433959e+002
505285013.21253 -2.975509e-001 -1.776609e+002 -6.865534e+001 1.189876e+002 -7.103860e+001 1.121554e+002 -1.542130e-001 1.433825e+002
505662514.15629 -2.954311e-001 -1.778631e+002 -7.088110e+001 8.965231e+001 -7.321082e+001 1.108629e+002 -1.600094e-001 1.433614e+002
506040015.10004 -3.006313e-001 -1.780328e+002 -7.048180e+001 1.009438e+002 -7.098476e+001 1.005238e+002 -1.671285e-001 1.432759e+002
506417516.04379 -3.008849e-001 -1.782679e+002 -7.303242e+001 1.031674e+002 -7.171978e+001 1.046983e+002 -1.773741e-001 1.432173e+002
506795016.98754 -3.051192e-001 -1.784204e+002 -7.193828e+001 1.105153e+002 -7.029032e+001 1.041992e+002 -1.794330e-001 1.430941e+002
507172517.93129 -3.048125e-001 -1.786568e+002 -7.127302e+001 1.238765e+002 -7.171696e+001 1.012043e+002 -1.863697e-001 1.430017e+002
507550018.87505 -3.028969e-001 -1.788514e+002 -7.143095e+001 1.073070e+002 -7.184484e+001 1.178360e+002 -1.949614e-001 1.428509e+002
507927519.8188 -3.099446e-001 -1.790713e+002 -7.085156e+001 1.170102e+002 -7.213116e+001 1.008427e+002 -1.998595e-001 1.426974e+002
508305020.76255 -3.074813e-001 -1.793029e+002 -7.269862e+001 1.085829e+002 -7.134727e+001 1.079088e+002 -2.070179e-001 1.425424e+002
508682521.7063 -3.100275e-001 -1.795162e+002 -7.014320e+001 1.138285e+002 -7.403699e+001 1.167009e+002 -2.166835e-001 1.423539e+002
509060022.65006 -3.123088e-001 -1.796869e+002 -7.191423e+001 9.293657e+001 -7.128242e+001 1.026166e+002 -2.171405e-001 1.421384e+002
509437523.59381 -3.120144e-001 -1.799357e+002 -7.354209e+001 1.115012e+002 -7.111761e+001 1.000392e+002 -2.181356e-001 1.419575e+002
509815024.53756 -3.143321e-001 1.798916e+002 -7.127473e+001 1.027665e+002 -7.105168e+001 1.059421e+002 -2.188891e-001 1.417153e+002
510192525.48131 -3.164471e-001 1.796818e+002 -7.288536e+001 1.062210e+002 -7.185513e+001 9.481554e+001 -2.212709e-001 1.414939e+002
510570026.42507 -3.218320e-001 1.794944e+002 -7.102636e+001 9.988758e+001 -6.983555e+001 1.106749e+002 -2.254987e-001 1.412320e+002
510947527.36882 -3.226402e-001 1.793015e+002 -7.079165e+001 1.189642e+002 -7.231629e+001 1.033574e+002 -2.289907e-001 1.409893e+002
511325028.31257 -3.233399e-001 1.790775e+002 -7.265530e+001 1.139574e+002 -7.241434e+001 1.195773e+002 -2.267911e-001 1.407290e+002
511702529.25632 -3.226575e-001 1.787879e+002 -6.973983e+001 1.040979e+002 -6.989408e+001 1.090415e+002 -2.281812e-001 1.405069e+002
512080030.20008 -3.302958e-001 1.786250e+002 -6.993501e+001 9.367834e+001 -7.110087e+001 9.228514e+001 -2.241588e-001 1.402433e+002
512457531.14383 -3.280303e-001 1.784137e+002 -7.239227e+001 8.708284e+001 -6.899015e+001 1.030223e+002 -2.246633e-001 1.400046e+002
512835032.08758 -3.359692e-001 1.781686e+002 -7.052409e+001 1.098518e+002 -7.027296e+001 1.002582e+002 -2.242545e-001 1.397706e+002
513212533.03133 -3.337962e-001 1.779382e+002 -7.201823e+001 8.025244e+001 -6.953594e+001 1.033432e+002 -2.180076e-001 1.395326e+002
513590033.97508 -3.383728e-001 1.777439e+002 -6.917336e+001 1.035853e+002 -7.167223e+001 9.995658e+001 -2.125743e-001 1.393355e+002
513967534.91884 -3.412389e-001 1.775555e+002 -7.213766e+001 1.060381e+002 -6.944878e+001 9.035293e+001 -2.071240e-001 1.391408e+002
514345035.86259 -3.387215e-001 1.773053e+002 -7.110444e+001 8.667628e+001 -6.993188e+001 8.602834e+001 -2.055231e-001 1.389431e+002
514722536.80634 -3.474500e-001 1.771440e+002 -6.965558e+001 9.304144e+001 -7.186086e+001 1.098469e+002 -2.011130e-001 1.387693e+002
515100037.75009 -3.391182e-001 1.769361e+002 -7.119549e+001 9.547065e+001 -6.958972e+001 7.765429e+001 -1.919842e-001 1.386303e+002
515477538.69385 -3.451016e-001 1.766797e+002 -7.332642e+001 9.531689e+001 -7.141445e+001 9.094342e+001 -1.858201e-001 1.384709e+002
515855039.6376 -3.450996e-001 1.764834e+002 -7.069105e+001 9.879781e+001 -6.981409e+001 9.956150e+001 -1.781166e-001 1.383835e+002
516232540.58135 -3.522662e-001 1.762856e+002 -7.137859e+001 9.161564e+001 -7.145236e+001 8.809072e+001 -1.707171e-001 1.383082e+002
516610041.5251 -3.514155e-001 1.760742e+002 -7.293252e+001 7.401608e+001 -7.110947e+001 9.496046e+001 -1.643054e-001 1.382388e+002
516987542.46886 -3.506198e-001 1.758492e+002 -7.195699e+001 1.112902e+002 -7.074459e+001 9.092744e+001 -1.594959e-001 1.381939e+002
517365043.41261 -3.544672e-001 1.756386e+002 -7.024001e+001 9.905538e+001 -6.952247e+001 8.351376e+001 -1.502578e-001 1.381323e+002
517742544.35636 -3.587521e-001 1.754315e+002 -6.977273e+001 8.356986e+001 -7.016496e+001 9.728197e+001 -1.462169e-001 1.381869e+002
518120045.30011 -3.586343e-001 1.752201e+002 -7.005641e+001 9.362054e+001 -6.847815e+001 7.386025e+001 -1.374945e-001 1.381942e+002
518497546.24387 -3.603137e-001 1.750511e+002 -6.870016e+001 8.309477e+001 -7.015243e+001 7.563081e+001 -1.285141e-001 1.382058e+002
518875047.18762 -3.623447e-001 1.747950e+002 -7.041460e+001 7.810126e+001 -7.120121e+001 9.351561e+001 -1.211393e-001 1.383222e+002
519252548.13137 -3.684588e-001 1.746234e+002 -6.962228e+001 7.907359e+001 -6.982076e+001 7.607858e+001 -1.176252e-001 1.384158e+002
519630049.07512 -3.740021e-001 1.743599e+002 -7.185320e+001 8.250775e+001 -6.930148e+001 8.497396e+001 -1.090938e-001 1.384972e+002
520007550.01888 -3.720849e-001 1.741025e+002 -7.049457e+001 7.545885e+001 -7.020789e+001 8.114602e+001 -1.086943e-001 1.386483e+002
520385050.96263 -3.776945e-001 1.739514e+002 -6.989586e+001 8.236919e+001 -7.002006e+001 8.835329e+001 -1.059901e-001 1.387666e+002
520762551.90638 -3.807682e-001 1.737319e+002 -7.040808e+001 7.244675e+001 -7.064545e+001 8.199887e+001 -1.008554e-001 1.389327e+002
521140052.85013 -3.838312e-001 1.735492e+002 -7.013736e+001 7.554518e+001 -6.927856e+001 7.619666e+001 -9.897298e-002 1.390805e+002
521517553.79388 -3.856828e-001 1.733567e+002 -7.026208e+001 7.134582e+001 -6.835796e+001 8.289114e+001 -9.416562e-002 1.392878e+002
521895054.73764 -3.881242e-001 1.731395e+002 -6.915582e+001 6.594304e+001 -7.058615e+001 7.941763e+001 -9.390108e-002 1.394474e+002
522272555.68139 -3.905838e-001 1.728961e+002 -6.959044e+001 8.776850e+001 -6.986108e+001 7.685844e+001 -9.499576e-002 1.396479e+002
522650056.62514 -3.971766e-001 1.727029e+002 -6.788518e+001 6.988489e+001 -7.124142e+001 8.417378e+001 -9.541520e-002 1.398251e+002
523027557.56889 -3.983223e-001 1.725132e+002 -7.072243e+001 7.408803e+001 -6.943503e+001 7.589211e+001 -9.462816e-002 1.400357e+002
523405058.51265 -3.991699e-001 1.722199e+002 -7.102183e+001 8.785954e+001 -6.898768e+001 8.103519e+001 -9.627370e-002 1.402681e+002
523782559.4564 -4.045145e-001 1.720661e+002 -6.960552e+001 7.603281e+001 -6.985851e+001 7.142839e+001 -1.028397e-001 1.403987e+002
524160060.40015 -4.053169e-001 1.718073e+002 -6.995129e+001 7.655916e+001 -6.964899e+001 8.784280e+001 -1.028543e-001 1.405764e+002
524537561.3439 -4.087979e-001 1.716472e+002 -7.134365e+001 7.684923e+001 -6.832565e+001 7.483906e+001 -1.136993e-001 1.407455e+002
524915062.28766 -4.108644e-001 1.713997e+002 -7.123483e+001 5.401263e+001 -6.858333e+001 6.434008e+001 -1.146931e-001 1.409182e+002
525292563.23141 -4.141039e-001 1.711072e+002 -6.812647e+001 7.245834e+001 -6.989770e+001 7.622916e+001 -1.227952e-001 1.410511e+002
525670064.17516 -4.156103e-001 1.709313e+002 -7.072065e+001 7.106055e+001 -6.760458e+001 8.323762e+001 -1.294801e-001 1.411691e+002
526047565.11891 -4.179113e-001 1.706669e+002 -6.886335e+001 7.374433e+001 -6.741655e+001 7.459821e+001 -1.366052e-001 1.412729e+002
526425066.06267 -4.205195e-001 1.704377e+002 -6.946772e+001 5.863743e+001 -6.969038e+001 6.446348e+001 -1.466438e-001 1.413866e+002
526802567.00642 -4.220552e-001 1.702293e+002 -7.003004e+001 6.031435e+001 -6.860862e+001 7.190878e+001 -1.529342e-001 1.414646e+002
527180067.95017 -4.280192e-001 1.700524e+002 -7.034753e+001 7.293871e+001 -6.874073e+001 5.142085e+001 -1.639198e-001 1.414894e+002
527557568.89392 -4.293399e-001 1.697964e+002 -6.910085e+001 5.474224e+001 -6.878631e+001 5.950476e+001 -1.682041e-001 1.414800e+002
527935069.83767 -4.347835e-001 1.696205e+002 -6.990231e+001 5.308173e+001 -6.808525e+001 5.973043e+001 -1.770974e-001 1.415377e+002
528312570.78143 -4.380929e-001 1.693568e+002 -6.904275e+001 5.171909e+001 -6.824484e+001 5.333429e+001 -1.834284e-001 1.415351e+002
528690071.72518 -4.323773e-001 1.691298e+002 -6.900611e+001 4.605087e+001 -6.808949e+001 6.116935e+001 -1.943523e-001 1.414782e+002
529067572.66893 -4.376839e-001 1.688995e+002 -6.918207e+001 6.490840e+001 -6.986771e+001 5.563451e+001 -2.066960e-001 1.414451e+002
529445073.61268 -4.374881e-001 1.686601e+002 -7.054671e+001 5.382217e+001 -6.842343e+001 5.743816e+001 -2.166735e-001 1.413461e+002
529822574.55644 -4.399555e-001 1.683975e+002 -7.017465e+001 6.319463e+001 -6.942751e+001 5.863011e+001 -2.301892e-001 1.412032e+002
530200075.50019 -4.471454e-001 1.681177e+002 -6.994026e+001 5.792213e+001 -6.967274e+001 6.690118e+001 -2.358338e-001 1.410745e+002
530577576.44394 -4.495846e-001 1.678911e+002 -7.240732e+001 3.793129e+001 -6.824102e+001 6.164937e+001 -2.459613e-001 1.409123e+002
530955077.38769 -4.523691e-001 1.676339e+002 -7.241785e+001 5.544589e+001 -6.722610e+001 6.213746e+001 -2.502063e-001 1.407422e+002
531332578.33145 -4.553178e-001 1.674435e+002 -7.072662e+001 5.802986e+001 -6.985320e+001 6.235893e+001 -2.617169e-001 1.405461e+002
531710079.2752 -4.601793e-001 1.671663e+002 -7.248078e+001 6.962102e+001 -6.886118e+001 5.106902e+001 -2.714165e-001 1.402945e+002
532087580.21895 -4.633778e-001 1.670084e+002 -7.124034e+001 5.008457e+001 -6.991855e+001 6.059817e+001 -2.728169e-001 1.400695e+002
532465081.1627 -4.644975e-001 1.666960e+002 -7.045482e+001 6.055745e+001 -7.013515e+001 5.581958e+001 -2.787443e-001 1.397513e+002
532842582.10646 -4.669349e-001 1.664653e+002 -7.003885e+001 4.650960e+001 -6.894415e+001 5.755523e+001 -2.854943e-001 1.395541e+002
533220083.05021 -4.737070e-001 1.662792e+002 -7.034205e+001 5.337741e+001 -6.811720e+001 5.694699e+001 -2.895214e-001 1.392861e+002
533597583.99396 -4.759251e-001 1.660059e+002 -6.875111e+001 6.045779e+001 -6.865977e+001 5.418730e+001 -2.941635e-001 1.390406e+002
533975084.93771 -4.832355e-001 1.656965e+002 -7.125270e+001 3.799143e+001 -6.817004e+001 5.686856e+001 -2.949222e-001 1.386992e+002
534352585.88146 -4.872980e-001 1.654883e+002 -6.917637e+001 4.974856e+001 -6.931709e+001 4.870456e+001 -2.939404e-001 1.384323e+002
534730086.82522 -4.959606e-001 1.652562e+002 -7.115245e+001 4.116644e+001 -6.846828e+001 4.026647e+001 -2.928570e-001 1.381380e+002
535107587.76897 -5.005569e-001 1.650667e+002 -7.099666e+001 4.090766e+001 -6.827286e+001 5.121052e+001 -2.914186e-001 1.378549e+002
535485088.71272 -5.025306e-001 1.647602e+002 -7.014484e+001 2.750557e+001 -6.879889e+001 5.243209e+001 -2.903809e-001 1.375573e+002
535862589.65647 -5.084664e-001 1.645408e+002 -6.806844e+001 4.462268e+001 -6.871085e+001 4.258106e+001 -2.892582e-001 1.372732e+002
536240090.60023 -5.082394e-001 1.643806e+002 -6.976223e+001 4.938305e+001 -6.877470e+001 3.913856e+001 -2.856574e-001 1.370054e+002
536617591.54398 -5.166417e-001 1.640665e+002 -7.037756e+001 3.870411e+001 -7.129033e+001 4.492664e+001 -2.774699e-001 1.367164e+002
536995092.48773 -5.210009e-001 1.639326e+002 -7.058133e+001 3.603257e+001 -6.923479e+001 3.898972e+001 -2.745989e-001 1.365102e+002
537372593.43148 -5.215496e-001 1.636065e+002 -7.084879e+001 4.689864e+001 -6.946774e+001 5.699706e+001 -2.651587e-001 1.362811e+002
537750094.37524 -5.278040e-001 1.634270e+002 -7.159115e+001 3.689517e+001 -6.792968e+001 4.996127e+001 -2.594742e-001 1.360714e+002
538127595.31899 -5.276123e-001 1.632001e+002 -7.130503e+001 2.209583e+001 -6.844781e+001 4.589922e+001 -2.523118e-001 1.358733e+002
538505096.26274 -5.301459e-001 1.629842e+002 -7.160846e+001 3.732296e+001 -6.719002e+001 4.636232e+001 -2.401012e-001 1.357371e+002
538882597.20649 -5.314521e-001 1.627314e+002 -7.050079e+001 5.133147e+001 -6.923295e+001 5.204091e+001 -2.336835e-001 1.355248e+002
539260098.15025 -5.332702e-001 1.624130e+002 -6.999625e+001 5.410980e+001 -6.770126e+001 4.617448e+001 -2.247081e-001 1.353936e+002
539637599.094 -5.398521e-001 1.621810e+002 -7.003898e+001 4.302825e+001 -6.801682e+001 4.649298e+001 -2.173187e-001 1.352628e+002
540015100.03775 -5.435106e-001 1.619591e+002 -7.225900e+001 5.412132e+001 -6.856383e+001 4.723870e+001 -2.045237e-001 1.352429e+002
540392600.9815 -5.472766e-001 1.617979e+002 -7.097254e+001 5.085879e+001 -6.731068e+001 3.698211e+001 -1.997282e-001 1.351068e+002
540770101.92525 -5.543135e-001 1.615249e+002 -6.901071e+001 4.460074e+001 -6.737991e+001 4.447840e+001 -1.876894e-001 1.350573e+002
541147602.86901 -5.545407e-001 1.612552e+002 -6.736911e+001 4.391359e+001 -6.684252e+001 4.414835e+001 -1.798208e-001 1.350137e+002
541525103.81276 -5.557472e-001 1.609766e+002 -6.873885e+001 3.589175e+001 -6.729195e+001 3.770440e+001 -1.707472e-001 1.350051e+002
541902604.75651 -5.601933e-001 1.608138e+002 -6.912399e+001 3.327694e+001 -6.719016e+001 4.125376e+001 -1.662061e-001 1.350092e+002
542280105.70026 -5.687985e-001 1.605702e+002 -6.827485e+001 2.981184e+001 -6.807501e+001 3.997451e+001 -1.532993e-001 1.350206e+002
542657606.64402 -5.648969e-001 1.602367e+002 -6.969096e+001 3.947196e+001 -6.682888e+001 3.628662e+001 -1.492776e-001 1.350567e+002
543035107.58777 -5.717144e-001 1.600461e+002 -6.870499e+001 2.863606e+001 -6.561322e+001 2.854471e+001 -1.415571e-001 1.351134e+002
543412608.53152 -5.742368e-001 1.597555e+002 -6.819404e+001 2.512977e+001 -6.754292e+001 2.901717e+001 -1.375873e-001 1.351873e+002
543790109.47527 -5.793410e-001 1.595705e+002 -6.854202e+001 3.164701e+001 -6.680064e+001 2.739587e+001 -1.290667e-001 1.352014e+002
544167610.41903 -5.898039e-001 1.593569e+002 -6.881612e+001 1.367676e+001 -6.613521e+001 2.485085e+001 -1.235842e-001 1.353389e+002
544545111.36278 -5.833332e-001 1.590933e+002 -6.761360e+001 1.877488e+001 -6.666684e+001 1.838188e+001 -1.218904e-001 1.354539e+002
544922612.30653 -5.908424e-001 1.587902e+002 -6.960367e+001 1.386109e+001 -6.707676e+001 2.728733e+001 -1.149525e-001 1.355610e+002
545300113.25028 -5.946087e-001 1.585549e+002 -6.858085e+001 1.112588e+001 -6.800766e+001 2.787144e+001 -1.132814e-001 1.356807e+002
545677614.19404 -5.994736e-001 1.583113e+002 -6.967098e+001 6.859313e+000 -6.675867e+001 1.652082e+001 -1.110882e-001 1.357993e+002
546055115.13779 -6.036820e-001 1.581229e+002 -6.863428e+001 1.393047e+001 -6.689128e+001 2.741910e+001 -1.107974e-001 1.359378e+002
546432616.08154 -6.088155e-001 1.578122e+002 -7.036773e+001 -1.338557e+000 -6.886407e+001 1.430038e+001 -1.097048e-001 1.360272e+002
546810117.02529 -6.111891e-001 1.575210e+002 -6.963850e+001 1.074877e+001 -7.015924e+001 8.581664e+000 -1.099897e-001 1.362063e+002
547187617.96904 -6.175007e-001 1.573528e+002 -6.904336e+001 1.083043e+001 -6.865092e+001 2.578418e+001 -1.064617e-001 1.363311e+002
547565118.9128 -6.249456e-001 1.570517e+002 -7.059670e+001 2.760614e+000 -6.911385e+001 1.608836e+001 -1.107728e-001 1.364589e+002
547942619.85655 -6.326302e-001 1.567868e+002 -7.038300e+001 3.190111e+000 -6.972931e+001 9.648837e+000 -1.076623e-001 1.365677e+002
548320120.8003 -6.373873e-001 1.565180e+002 -7.165441e+001 8.174311e+000 -6.975823e+001 8.758533e+000 -1.153333e-001 1.367024e+002
548697621.74405 -6.428083e-001 1.563066e+002 -7.062390e+001 7.444730e+000 -6.891322e+001 1.165311e+001 -1.182232e-001 1.368022e+002
549075122.68781 -6.461264e-001 1.560223e+002 -7.039124e+001 1.664557e+001 -6.839759e+001 1.730507e+001 -1.184116e-001 1.369750e+002
549452623.63156 -6.612215e-001 1.558209e+002 -7.067314e+001 -1.348287e+000 -6.958307e+001 2.493599e+001 -1.254099e-001 1.370139e+002
549830124.57531 -6.658359e-001 1.555380e+002 -6.966183e+001 1.438351e+001 -6.748090e+001 2.002174e+001 -1.283077e-001 1.371193e+002
550207625.51906 -6.718467e-001 1.552772e+002 -7.118670e+001 3.263912e+000 -6.963773e+001 2.112766e+001 -1.345611e-001 1.371864e+002
550585126.46282 -6.786983e-001 1.549741e+002 -7.188895e+001 1.386109e+001 -6.960873e+001 8.425518e+000 -1.411003e-001 1.372491e+002
550962627.40657 -6.833388e-001 1.547422e+002 -7.024268e+001 1.268760e+001 -6.763844e+001 7.961257e+000 -1.440535e-001 1.372878e+002
551340128.35032 -6.861969e-001 1.544693e+002 -7.049078e+001 1.468667e+001 -6.912981e+001 2.225414e+001 -1.528124e-001 1.372907e+002
551717629.29407 -6.965593e-001 1.541934e+002 -6.946538e+001 8.636662e+000 -6.906037e+001 9.923209e+000 -1.594218e-001 1.373559e+002
552095130.23783 -6.986200e-001 1.539474e+002 -7.397395e+001 3.317182e+001 -6.917323e+001 1.957922e+001 -1.664812e-001 1.373372e+002
552472631.18158 -7.051927e-001 1.536490e+002 -7.134119e+001 8.679488e+000 -6.886761e+001 1.597834e+001 -1.735191e-001 1.373397e+002
552850132.12533 -7.065351e-001 1.534058e+002 -7.206615e+001 1.411594e+001 -6.948531e+001 1.528134e+001 -1.827650e-001 1.373086e+002
553227633.06908 -7.172437e-001 1.531073e+002 -7.047179e+001 -2.631691e+000 -6.891589e+001 1.967710e+001 -1.907743e-001 1.372596e+002
553605134.01284 -7.232355e-001 1.528512e+002 -6.913329e+001 -1.701743e+000 -6.683793e+001 2.152988e+001 -1.965529e-001 1.371936e+002
553982634.95659 -7.346637e-001 1.525774e+002 -6.830766e+001 -1.348529e+000 -6.877453e+001 9.987461e+000 -2.063171e-001 1.371237e+002
554360135.90034 -7.457072e-001 1.523334e+002 -7.037454e+001 6.478832e+000 -6.915176e+001 9.454849e+000 -2.150201e-001 1.370047e+002
554737636.84409 -7.521688e-001 1.520211e+002 -7.042701e+001 6.793911e+000 -6.763869e+001 1.390037e+001 -2.230773e-001 1.368947e+002
555115137.78784 -7.595082e-001 1.517595e+002 -6.888430e+001 -1.050823e+001 -6.818813e+001 1.141474e+001 -2.265944e-001 1.367508e+002
555492638.7316 -7.712539e-001 1.515055e+002 -7.380253e+001 -6.784473e+000 -6.813324e+001 9.440867e+000 -2.334471e-001 1.366125e+002
555870139.67535 -7.729996e-001 1.511862e+002 -7.112205e+001 5.642358e+000 -6.782018e+001 -1.605618e+000 -2.407043e-001 1.364843e+002
