!Agilent Technologies,E8364B,US42250235,A.06.04.32
!Agilent E8364B: A.06.04.32
!Date: Thursday, October 01, 2020 16:00:49
!Correction: S11(Full 2 Port(1,2)) S21(Full 2 Port(1,2)) S12(Full 2 Port(1,2)) S22(Full 2 Port(1,2)) 
!S2P File: Measurements: S11, S21, S12, S22:
# Hz S  dB   R 50
500000000 -2.009032e-001 -1.751341e+002 -7.616408e+001 9.247262e+001 -6.990134e+001 8.539194e+001 -5.990613e-002 1.430101e+002
500377500.94375 -2.032681e-001 -1.753168e+002 -7.421405e+001 9.688264e+001 -6.742277e+001 8.359318e+001 -6.248783e-002 1.432051e+002
500755001.8875 -2.053675e-001 -1.754974e+002 -7.343760e+001 9.033098e+001 -6.979471e+001 8.048655e+001 -6.400894e-002 1.433350e+002
501132502.83126 -2.098548e-001 -1.756929e+002 -7.314259e+001 8.823298e+001 -6.665340e+001 8.203207e+001 -6.837812e-002 1.435000e+002
501510003.77501 -2.093411e-001 -1.759020e+002 -7.223399e+001 1.095855e+002 -6.710970e+001 8.990279e+001 -7.133193e-002 1.436502e+002
501887504.71876 -2.107819e-001 -1.761221e+002 -7.488869e+001 8.382970e+001 -6.849358e+001 7.739660e+001 -7.476324e-002 1.437595e+002
502265005.66251 -2.159630e-001 -1.763270e+002 -7.217594e+001 9.387112e+001 -6.949043e+001 8.674216e+001 -8.104081e-002 1.439007e+002
502642506.60627 -2.155973e-001 -1.765742e+002 -7.476050e+001 7.210104e+001 -6.960964e+001 8.148833e+001 -8.606149e-002 1.440511e+002
503020007.55002 -2.233471e-001 -1.767460e+002 -7.233504e+001 9.704858e+001 -6.913592e+001 6.935876e+001 -9.586901e-002 1.440859e+002
503397508.49377 -2.215785e-001 -1.769400e+002 -7.618412e+001 9.554787e+001 -6.627647e+001 7.221938e+001 -9.942417e-002 1.441658e+002
503775009.43752 -2.232356e-001 -1.772426e+002 -7.252117e+001 7.752595e+001 -6.793209e+001 7.516232e+001 -1.114422e-001 1.442185e+002
504152510.38128 -2.283017e-001 -1.773885e+002 -7.155070e+001 8.948746e+001 -6.744920e+001 7.821893e+001 -1.164798e-001 1.442432e+002
504530011.32503 -2.257477e-001 -1.776552e+002 -7.363700e+001 7.839526e+001 -6.880413e+001 6.780904e+001 -1.277306e-001 1.442668e+002
504907512.26878 -2.339089e-001 -1.777657e+002 -7.490554e+001 7.768362e+001 -6.878546e+001 7.065755e+001 -1.350742e-001 1.442667e+002
505285013.21253 -2.373153e-001 -1.780041e+002 -7.535571e+001 9.952724e+001 -6.680041e+001 6.688943e+001 -1.442705e-001 1.442630e+002
505662514.15629 -2.345221e-001 -1.782068e+002 -7.740257e+001 8.052654e+001 -6.670020e+001 7.337196e+001 -1.520289e-001 1.442238e+002
506040015.10004 -2.397329e-001 -1.784324e+002 -7.371968e+001 8.534428e+001 -6.842091e+001 7.562737e+001 -1.636244e-001 1.441373e+002
506417516.04379 -2.396469e-001 -1.786560e+002 -7.119085e+001 9.315405e+001 -6.865453e+001 7.960345e+001 -1.695224e-001 1.440707e+002
506795016.98754 -2.457381e-001 -1.788204e+002 -7.776886e+001 7.497545e+001 -6.782902e+001 6.953345e+001 -1.784591e-001 1.439355e+002
507172517.93129 -2.470766e-001 -1.789906e+002 -7.478071e+001 8.671200e+001 -6.696114e+001 6.966826e+001 -1.861533e-001 1.438177e+002
507550018.87505 -2.489576e-001 -1.792040e+002 -7.648180e+001 9.188316e+001 -6.759875e+001 5.519922e+001 -1.953315e-001 1.436595e+002
507927519.8188 -2.522213e-001 -1.794608e+002 -7.727635e+001 8.452208e+001 -6.814731e+001 6.810709e+001 -2.069703e-001 1.434945e+002
508305020.76255 -2.516592e-001 -1.797081e+002 -7.056659e+001 8.510347e+001 -6.648524e+001 6.644441e+001 -2.140387e-001 1.433038e+002
508682521.7063 -2.526644e-001 -1.799118e+002 -7.071671e+001 8.408766e+001 -6.644163e+001 5.766270e+001 -2.226185e-001 1.430690e+002
509060022.65006 -2.584217e-001 1.799295e+002 -7.113766e+001 1.010166e+002 -6.746258e+001 5.888099e+001 -2.252997e-001 1.428511e+002
509437523.59381 -2.569795e-001 1.796252e+002 -7.569614e+001 6.907761e+001 -6.696613e+001 6.502538e+001 -2.286998e-001 1.426493e+002
509815024.53756 -2.572726e-001 1.794379e+002 -7.300452e+001 9.336570e+001 -6.528609e+001 6.850231e+001 -2.342686e-001 1.423671e+002
510192525.48131 -2.621503e-001 1.792583e+002 -7.432010e+001 9.857971e+001 -6.713439e+001 6.451761e+001 -2.364390e-001 1.421026e+002
510570026.42507 -2.691544e-001 1.789789e+002 -7.112060e+001 8.633805e+001 -6.563123e+001 6.143540e+001 -2.397598e-001 1.418473e+002
510947527.36882 -2.659451e-001 1.788217e+002 -7.376582e+001 8.206310e+001 -6.721754e+001 5.490031e+001 -2.408105e-001 1.415734e+002
511325028.31257 -2.724351e-001 1.786012e+002 -7.237816e+001 9.376802e+001 -6.574460e+001 5.308002e+001 -2.433265e-001 1.412879e+002
511702529.25632 -2.696105e-001 1.782964e+002 -7.097281e+001 8.557725e+001 -6.654578e+001 5.438948e+001 -2.421151e-001 1.410008e+002
512080030.20008 -2.795412e-001 1.780639e+002 -6.989383e+001 8.286664e+001 -6.577905e+001 6.176188e+001 -2.415917e-001 1.407323e+002
512457531.14383 -2.813588e-001 1.778836e+002 -6.969543e+001 7.132841e+001 -6.585989e+001 5.484809e+001 -2.394335e-001 1.404779e+002
512835032.08758 -2.820448e-001 1.776260e+002 -7.076398e+001 7.540883e+001 -6.672072e+001 4.882189e+001 -2.387977e-001 1.402237e+002
513212533.03133 -2.860111e-001 1.773848e+002 -7.056248e+001 8.061706e+001 -6.594683e+001 5.285189e+001 -2.342937e-001 1.399447e+002
513590033.97508 -2.906545e-001 1.771501e+002 -7.277306e+001 7.151225e+001 -6.573930e+001 5.422874e+001 -2.260918e-001 1.397266e+002
513967534.91884 -2.960088e-001 1.770279e+002 -7.166769e+001 6.422683e+001 -6.584126e+001 5.001053e+001 -2.229045e-001 1.395066e+002
514345035.86259 -2.946141e-001 1.767310e+002 -7.081459e+001 6.521690e+001 -6.726776e+001 4.917034e+001 -2.172337e-001 1.393012e+002
514722536.80634 -3.000847e-001 1.765910e+002 -7.268406e+001 6.935365e+001 -6.527119e+001 4.989112e+001 -2.145055e-001 1.391118e+002
515100037.75009 -2.999041e-001 1.763706e+002 -7.007671e+001 7.514907e+001 -6.602597e+001 4.252791e+001 -2.046721e-001 1.389503e+002
515477538.69385 -3.016212e-001 1.760583e+002 -7.099728e+001 6.939850e+001 -6.556309e+001 4.471551e+001 -1.955683e-001 1.387737e+002
515855039.6376 -3.038647e-001 1.759123e+002 -7.177444e+001 6.794789e+001 -6.521969e+001 4.164568e+001 -1.881446e-001 1.386872e+002
516232540.58135 -3.077188e-001 1.756891e+002 -7.204608e+001 8.282054e+001 -6.593109e+001 4.476249e+001 -1.783004e-001 1.385979e+002
516610041.5251 -3.121553e-001 1.754049e+002 -7.126458e+001 5.654139e+001 -6.540302e+001 3.883689e+001 -1.697902e-001 1.385147e+002
516987542.46886 -3.124032e-001 1.752303e+002 -7.058707e+001 5.741962e+001 -6.535493e+001 4.209342e+001 -1.641663e-001 1.384712e+002
517365043.41261 -3.157789e-001 1.749718e+002 -7.008244e+001 7.361425e+001 -6.543027e+001 4.204763e+001 -1.602304e-001 1.384125e+002
517742544.35636 -3.201167e-001 1.746868e+002 -7.189350e+001 5.832611e+001 -6.641551e+001 3.128409e+001 -1.466984e-001 1.384630e+002
518120045.30011 -3.250588e-001 1.745520e+002 -6.946908e+001 6.192562e+001 -6.511027e+001 4.276411e+001 -1.383567e-001 1.384742e+002
518497546.24387 -3.259258e-001 1.742924e+002 -6.916648e+001 6.470292e+001 -6.460260e+001 3.257650e+001 -1.304735e-001 1.385343e+002
518875047.18762 -3.326779e-001 1.740923e+002 -6.969688e+001 6.444430e+001 -6.493217e+001 3.667347e+001 -1.184995e-001 1.386144e+002
519252548.13137 -3.389578e-001 1.738461e+002 -7.059541e+001 5.325745e+001 -6.541940e+001 2.838374e+001 -1.159168e-001 1.387020e+002
519630049.07512 -3.474356e-001 1.736461e+002 -7.199721e+001 5.915802e+001 -6.576588e+001 3.321138e+001 -1.031442e-001 1.387724e+002
520007550.01888 -3.485056e-001 1.733444e+002 -6.894346e+001 6.614125e+001 -6.514017e+001 2.907096e+001 -1.054839e-001 1.389888e+002
520385050.96263 -3.508967e-001 1.731790e+002 -7.187116e+001 6.809034e+001 -6.546535e+001 2.705840e+001 -9.803721e-002 1.391129e+002
520762551.90638 -3.568076e-001 1.729923e+002 -7.153760e+001 5.264048e+001 -6.425372e+001 3.193505e+001 -9.089234e-002 1.392686e+002
521140052.85013 -3.618099e-001 1.727147e+002 -7.266080e+001 5.755203e+001 -6.458176e+001 2.826713e+001 -8.971171e-002 1.394605e+002
521517553.79388 -3.664193e-001 1.725040e+002 -7.175768e+001 5.429589e+001 -6.380462e+001 2.493547e+001 -8.619446e-002 1.396562e+002
521895054.73764 -3.707071e-001 1.722781e+002 -7.309451e+001 4.693451e+001 -6.500739e+001 2.162176e+001 -8.557141e-002 1.398396e+002
522272555.68139 -3.777983e-001 1.720988e+002 -7.288620e+001 6.945515e+001 -6.545011e+001 2.246542e+001 -8.621976e-002 1.400427e+002
522650056.62514 -3.833239e-001 1.718733e+002 -6.852464e+001 6.297996e+001 -6.493855e+001 2.566883e+001 -8.642454e-002 1.402201e+002
523027557.56889 -3.897180e-001 1.716570e+002 -7.051882e+001 3.732901e+001 -6.409483e+001 1.744759e+001 -8.537163e-002 1.404614e+002
523405058.51265 -3.883486e-001 1.714118e+002 -7.284251e+001 5.818692e+001 -6.312059e+001 2.419003e+001 -8.446112e-002 1.406942e+002
523782559.4564 -3.989216e-001 1.711752e+002 -7.102060e+001 7.120802e+001 -6.392556e+001 1.791782e+001 -9.153093e-002 1.408412e+002
524160060.40015 -4.037383e-001 1.709722e+002 -7.000540e+001 7.036488e+001 -6.395362e+001 1.673343e+001 -9.325225e-002 1.410238e+002
524537561.3439 -4.062414e-001 1.707333e+002 -7.127012e+001 6.524795e+001 -6.442740e+001 1.422417e+001 -9.891491e-002 1.412009e+002
524915062.28766 -4.107878e-001 1.704903e+002 -6.930830e+001 5.047330e+001 -6.421069e+001 1.602904e+001 -1.027263e-001 1.413843e+002
525292563.23141 -4.160005e-001 1.702141e+002 -7.069749e+001 5.199081e+001 -6.394793e+001 1.243481e+001 -1.081975e-001 1.415158e+002
525670064.17516 -4.184394e-001 1.700610e+002 -6.908038e+001 4.177969e+001 -6.505063e+001 1.172315e+001 -1.172111e-001 1.416485e+002
526047565.11891 -4.205237e-001 1.698157e+002 -6.874226e+001 6.497068e+001 -6.383213e+001 1.547336e+001 -1.233558e-001 1.417719e+002
526425066.06267 -4.289414e-001 1.695204e+002 -7.167413e+001 5.486548e+001 -6.372021e+001 1.649806e+001 -1.361333e-001 1.418699e+002
526802567.00642 -4.356306e-001 1.692943e+002 -6.937444e+001 5.145251e+001 -6.375417e+001 1.053498e+001 -1.420060e-001 1.419532e+002
527180067.95017 -4.368849e-001 1.690591e+002 -6.885883e+001 4.143758e+001 -6.365600e+001 6.301672e+000 -1.522299e-001 1.419948e+002
527557568.89392 -4.425257e-001 1.688788e+002 -6.760361e+001 6.100608e+001 -6.308232e+001 1.362217e+001 -1.595013e-001 1.420213e+002
527935069.83767 -4.512462e-001 1.686454e+002 -6.784596e+001 4.764751e+001 -6.282721e+001 2.295104e-001 -1.686801e-001 1.420256e+002
528312570.78143 -4.533454e-001 1.683309e+002 -6.796835e+001 5.047473e+001 -6.317088e+001 7.998344e+000 -1.809879e-001 1.420072e+002
528690071.72518 -4.588480e-001 1.681756e+002 -6.792274e+001 5.017434e+001 -6.315525e+001 7.353040e+000 -1.849391e-001 1.419576e+002
529067572.66893 -4.632993e-001 1.678696e+002 -6.822148e+001 4.716763e+001 -6.309943e+001 5.215318e+000 -2.006203e-001 1.418940e+002
529445073.61268 -4.687744e-001 1.676988e+002 -6.924136e+001 3.742741e+001 -6.257503e+001 3.979642e+000 -2.083095e-001 1.418009e+002
529822574.55644 -4.725241e-001 1.674287e+002 -6.928625e+001 3.573592e+001 -6.360608e+001 -4.895574e+000 -2.205194e-001 1.416675e+002
530200075.50019 -4.801202e-001 1.671292e+002 -6.991436e+001 3.624775e+001 -6.290866e+001 -3.566446e+000 -2.296822e-001 1.415130e+002
530577576.44394 -4.882587e-001 1.668309e+002 -6.875254e+001 3.671352e+001 -6.298511e+001 -5.474500e+000 -2.395974e-001 1.413496e+002
530955077.38769 -4.920704e-001 1.665795e+002 -6.919381e+001 4.138940e+001 -6.312239e+001 -4.690191e+000 -2.467165e-001 1.411596e+002
531332578.33145 -5.002926e-001 1.664169e+002 -6.979393e+001 3.874163e+001 -6.319180e+001 6.296727e-001 -2.562052e-001 1.409352e+002
531710079.2752 -5.045335e-001 1.660969e+002 -6.720034e+001 3.210765e+001 -6.372224e+001 -5.570024e-002 -2.668774e-001 1.406995e+002
532087580.21895 -5.137499e-001 1.658701e+002 -6.865054e+001 4.231739e+001 -6.388183e+001 -8.465069e+000 -2.680751e-001 1.404558e+002
532465081.1627 -5.228666e-001 1.656501e+002 -6.865558e+001 3.444316e+001 -6.284406e+001 -8.619668e+000 -2.749097e-001 1.401847e+002
532842582.10646 -5.286804e-001 1.653809e+002 -6.964615e+001 5.511668e+001 -6.303056e+001 -1.209421e+001 -2.792171e-001 1.399070e+002
533220083.05021 -5.388956e-001 1.651361e+002 -6.874397e+001 2.130023e+001 -6.358821e+001 -1.561850e+001 -2.849835e-001 1.396119e+002
533597583.99396 -5.475300e-001 1.649006e+002 -6.688676e+001 4.207829e+001 -6.343405e+001 -1.338093e+001 -2.884227e-001 1.393734e+002
533975084.93771 -5.558199e-001 1.645937e+002 -6.902022e+001 2.997972e+001 -6.346565e+001 -1.468764e+001 -2.906434e-001 1.390261e+002
534352585.88146 -5.644333e-001 1.643946e+002 -6.854945e+001 4.228477e+001 -6.328178e+001 -1.602823e+001 -2.882509e-001 1.387319e+002
534730086.82522 -5.740643e-001 1.641746e+002 -6.987257e+001 3.293510e+001 -6.345822e+001 -1.982347e+001 -2.910844e-001 1.383774e+002
535107587.76897 -5.839097e-001 1.639403e+002 -6.755310e+001 3.660117e+001 -6.316475e+001 -2.132529e+001 -2.929692e-001 1.381112e+002
535485088.71272 -5.888868e-001 1.636638e+002 -6.900113e+001 3.612293e+001 -6.378380e+001 -1.988073e+001 -2.926090e-001 1.378008e+002
535862589.65647 -5.987681e-001 1.634169e+002 -6.809900e+001 3.793572e+001 -6.346000e+001 -2.553803e+001 -2.885754e-001 1.375334e+002
536240090.60023 -6.017845e-001 1.632249e+002 -6.776003e+001 2.745695e+001 -6.344637e+001 -2.517917e+001 -2.870686e-001 1.372395e+002
536617591.54398 -6.120290e-001 1.629240e+002 -6.695471e+001 3.617305e+001 -6.317857e+001 -2.869489e+001 -2.839346e-001 1.369427e+002
536995092.48773 -6.228432e-001 1.627446e+002 -6.656013e+001 3.171871e+001 -6.332286e+001 -2.769582e+001 -2.765124e-001 1.367072e+002
537372593.43148 -6.273860e-001 1.624695e+002 -6.907504e+001 5.496649e+001 -6.355312e+001 -2.311025e+001 -2.701957e-001 1.364687e+002
537750094.37524 -6.350359e-001 1.622132e+002 -6.702472e+001 3.141715e+001 -6.464851e+001 -3.168762e+001 -2.653827e-001 1.362351e+002
538127595.31899 -6.444123e-001 1.620217e+002 -6.713211e+001 2.970897e+001 -6.329093e+001 -3.125675e+001 -2.599857e-001 1.360239e+002
538505096.26274 -6.535683e-001 1.618372e+002 -6.933019e+001 1.859675e+001 -6.437148e+001 -3.693169e+001 -2.504593e-001 1.358577e+002
538882597.20649 -6.615517e-001 1.615597e+002 -6.764638e+001 3.720449e+001 -6.483653e+001 -3.448236e+001 -2.434162e-001 1.356533e+002
539260098.15025 -6.703598e-001 1.612916e+002 -6.914960e+001 3.293547e+001 -6.391079e+001 -3.217638e+001 -2.358233e-001 1.355113e+002
539637599.094 -6.826336e-001 1.610795e+002 -6.696703e+001 2.485448e+001 -6.336881e+001 -3.909393e+001 -2.294419e-001 1.353558e+002
540015100.03775 -6.904644e-001 1.608918e+002 -6.658498e+001 2.941746e+001 -6.357454e+001 -4.226019e+001 -2.191055e-001 1.353064e+002
540392600.9815 -6.985478e-001 1.606811e+002 -6.705074e+001 2.844284e+001 -6.426466e+001 -3.607861e+001 -2.150456e-001 1.351608e+002
540770101.92525 -7.092187e-001 1.603538e+002 -6.680018e+001 3.077593e+001 -6.353296e+001 -4.089339e+001 -2.052193e-001 1.350927e+002
541147602.86901 -7.156444e-001 1.602116e+002 -6.542909e+001 2.716027e+001 -6.374848e+001 -4.121216e+001 -1.982889e-001 1.350338e+002
541525103.81276 -7.180349e-001 1.599047e+002 -6.534187e+001 2.886429e+001 -6.373964e+001 -3.717036e+001 -1.897401e-001 1.349819e+002
541902604.75651 -7.307098e-001 1.596964e+002 -6.605582e+001 3.038309e+001 -6.401102e+001 -4.545794e+001 -1.860128e-001 1.349763e+002
542280105.70026 -7.439233e-001 1.594672e+002 -6.497021e+001 3.276123e+001 -6.519160e+001 -4.418040e+001 -1.746692e-001 1.349680e+002
542657606.64402 -7.462686e-001 1.592614e+002 -6.588204e+001 3.279952e+001 -6.460065e+001 -4.532426e+001 -1.727359e-001 1.349937e+002
543035107.58777 -7.579578e-001 1.590688e+002 -6.585390e+001 1.972436e+001 -6.358458e+001 -4.609616e+001 -1.622937e-001 1.350314e+002
543412608.53152 -7.619488e-001 1.587622e+002 -6.633262e+001 2.165884e+001 -6.509948e+001 -4.465165e+001 -1.596633e-001 1.350726e+002
543790109.47527 -7.704306e-001 1.586180e+002 -6.623457e+001 2.459653e+001 -6.547607e+001 -4.979795e+001 -1.548557e-001 1.351170e+002
544167610.41903 -7.855446e-001 1.583389e+002 -6.644226e+001 1.891077e+001 -6.502389e+001 -5.299634e+001 -1.489344e-001 1.351956e+002
544545111.36278 -7.883459e-001 1.581626e+002 -6.491093e+001 2.775176e+001 -6.477406e+001 -5.072752e+001 -1.463112e-001 1.352885e+002
544922612.30653 -7.981689e-001 1.578220e+002 -6.519485e+001 2.759594e+001 -6.587696e+001 -4.526378e+001 -1.382513e-001 1.353733e+002
545300113.25028 -8.105332e-001 1.576450e+002 -6.585622e+001 1.896079e+001 -6.536977e+001 -5.899501e+001 -1.375569e-001 1.354685e+002
545677614.19404 -8.196181e-001 1.574072e+002 -6.594746e+001 2.514618e+001 -6.577001e+001 -5.215977e+001 -1.349473e-001 1.355663e+002
546055115.13779 -8.273735e-001 1.571848e+002 -6.531152e+001 2.538064e+001 -6.586340e+001 -4.809510e+001 -1.345899e-001 1.356933e+002
546432616.08154 -8.384968e-001 1.569218e+002 -6.456405e+001 1.594695e+001 -6.497823e+001 -5.677370e+001 -1.338220e-001 1.358002e+002
546810117.02529 -8.450919e-001 1.566597e+002 -6.480666e+001 1.476497e+001 -6.592870e+001 -4.959201e+001 -1.313704e-001 1.359268e+002
547187617.96904 -8.567638e-001 1.564763e+002 -6.506313e+001 2.181637e+001 -6.568753e+001 -4.645404e+001 -1.304825e-001 1.360391e+002
547565118.9128 -8.695237e-001 1.562554e+002 -6.481734e+001 1.706384e+001 -6.591671e+001 -5.085916e+001 -1.314243e-001 1.361510e+002
547942619.85655 -8.815740e-001 1.560229e+002 -6.436201e+001 1.925232e+001 -6.493039e+001 -5.556101e+001 -1.326548e-001 1.362621e+002
548320120.8003 -8.933471e-001 1.557678e+002 -6.494514e+001 1.387979e+001 -6.602740e+001 -6.279512e+001 -1.372144e-001 1.363850e+002
548697621.74405 -9.029378e-001 1.555115e+002 -6.400778e+001 9.079565e+000 -6.652139e+001 -5.581368e+001 -1.370432e-001 1.364765e+002
549075122.68781 -9.160580e-001 1.552989e+002 -6.370798e+001 1.257715e+001 -6.585131e+001 -5.538105e+001 -1.403124e-001 1.366281e+002
549452623.63156 -9.316744e-001 1.550601e+002 -6.481454e+001 6.259317e+000 -6.610590e+001 -4.693881e+001 -1.431118e-001 1.366754e+002
549830124.57531 -9.431067e-001 1.548771e+002 -6.366751e+001 1.097122e+001 -6.639020e+001 -5.022849e+001 -1.460544e-001 1.367638e+002
550207625.51906 -9.560198e-001 1.546149e+002 -6.279516e+001 6.201478e+000 -6.680486e+001 -5.740565e+001 -1.527685e-001 1.368335e+002
550585126.46282 -9.653082e-001 1.543900e+002 -6.294172e+001 1.437554e+001 -6.614881e+001 -5.009057e+001 -1.561567e-001 1.368908e+002
550962627.40657 -9.733306e-001 1.541459e+002 -6.385484e+001 1.017686e+001 -6.673187e+001 -5.642141e+001 -1.589437e-001 1.369374e+002
551340128.35032 -9.864626e-001 1.539630e+002 -6.451041e+001 1.757453e+000 -6.592155e+001 -5.584805e+001 -1.667131e-001 1.369834e+002
551717629.29407 -9.985198e-001 1.537011e+002 -6.516441e+001 2.160563e+000 -6.763895e+001 -6.098563e+001 -1.701342e-001 1.370132e+002
552095130.23783 -1.008343e+000 1.534444e+002 -6.238892e+001 5.615758e+000 -6.644523e+001 -5.782157e+001 -1.727284e-001 1.370315e+002
552472631.18158 -1.016304e+000 1.532148e+002 -6.220625e+001 5.411621e+000 -6.716357e+001 -5.266187e+001 -1.806100e-001 1.370139e+002
552850132.12533 -1.025128e+000 1.530366e+002 -6.318758e+001 1.144860e-001 -6.603979e+001 -5.230972e+001 -1.871566e-001 1.369846e+002
553227633.06908 -1.039914e+000 1.527155e+002 -6.312807e+001 2.246068e+000 -6.694271e+001 -5.642762e+001 -1.986032e-001 1.369695e+002
553605134.01284 -1.049488e+000 1.525449e+002 -6.271689e+001 -3.617005e+000 -6.637036e+001 -5.410987e+001 -2.005661e-001 1.369203e+002
553982634.95659 -1.064833e+000 1.522516e+002 -6.348858e+001 -5.633245e+000 -6.681765e+001 -5.939620e+001 -2.113763e-001 1.368525e+002
554360135.90034 -1.079108e+000 1.519952e+002 -6.279254e+001 -7.499982e+000 -6.671982e+001 -6.021215e+001 -2.174213e-001 1.367619e+002
554737636.84409 -1.093035e+000 1.518031e+002 -6.294264e+001 -6.251446e+000 -6.700311e+001 -5.681831e+001 -2.262266e-001 1.366625e+002
555115137.78784 -1.109524e+000 1.515385e+002 -6.260556e+001 -5.417575e+000 -6.614974e+001 -5.098495e+001 -2.269083e-001 1.365285e+002
555492638.7316 -1.121783e+000 1.512941e+002 -6.312300e+001 -8.659873e+000 -6.562066e+001 -5.739073e+001 -2.374044e-001 1.364218e+002
