!Agilent Technologies,E8364B,US42250235,A.06.04.32
!Agilent E8364B: A.06.04.32
!Date: Thursday, October 01, 2020 16:02:21
!Correction: S11(Full 2 Port(1,2)) S21(Full 2 Port(1,2)) S12(Full 2 Port(1,2)) S22(Full 2 Port(1,2)) 
!S2P File: Measurements: S11, S21, S12, S22:
# Hz S  dB   R 50
500000000 -2.459198e-001 -1.751033e+002 -7.476984e+001 -5.591330e-001 -7.281080e+001 -2.700745e-001 -4.742943e-002 1.433042e+002
500377500.94375 -2.481645e-001 -1.752929e+002 -7.331036e+001 -2.677137e+001 -7.273241e+001 -9.189299e+000 -4.771838e-002 1.434870e+002
500755001.8875 -2.481852e-001 -1.754653e+002 -7.004691e+001 1.058751e+000 -7.354689e+001 6.215271e+000 -4.579974e-002 1.436364e+002
501132502.83126 -2.552338e-001 -1.756844e+002 -7.340744e+001 4.708870e+000 -7.384127e+001 2.821351e+000 -5.153686e-002 1.437807e+002
501510003.77501 -2.590212e-001 -1.758345e+002 -7.376549e+001 1.261765e+001 -7.125776e+001 1.895195e+000 -5.605104e-002 1.439439e+002
501887504.71876 -2.578632e-001 -1.760982e+002 -6.858807e+001 -2.085346e+001 -6.953197e+001 -2.272016e+001 -5.972717e-002 1.440662e+002
502265005.66251 -2.677901e-001 -1.762309e+002 -6.941802e+001 3.210809e+000 -6.991546e+001 -1.346545e+001 -6.419152e-002 1.442052e+002
502642506.60627 -2.646841e-001 -1.764696e+002 -6.867461e+001 -1.857340e+001 -7.072000e+001 -5.926226e+000 -7.105855e-002 1.443424e+002
503020007.55002 -2.737015e-001 -1.766476e+002 -7.307080e+001 -1.669559e+001 -7.097639e+001 -1.415346e+001 -8.008532e-002 1.443754e+002
503397508.49377 -2.725132e-001 -1.768221e+002 -7.183202e+001 -1.827561e+001 -7.008776e+001 -7.569971e+000 -8.382731e-002 1.444701e+002
503775009.43752 -2.766239e-001 -1.770981e+002 -7.150206e+001 -2.340421e+001 -7.330170e+001 -2.062226e+001 -9.318188e-002 1.445114e+002
504152510.38128 -2.833571e-001 -1.772201e+002 -7.035671e+001 -1.964293e+001 -7.235911e+001 -2.237040e+001 -1.014161e-001 1.445510e+002
504530011.32503 -2.815705e-001 -1.774884e+002 -7.277926e+001 -2.878967e+001 -7.066567e+001 -3.500305e+001 -1.112431e-001 1.445922e+002
504907512.26878 -2.857156e-001 -1.775975e+002 -7.125907e+001 -2.806273e+001 -7.291365e+001 -2.042582e+001 -1.187776e-001 1.446046e+002
505285013.21253 -2.895585e-001 -1.778145e+002 -7.031175e+001 -2.419007e+001 -7.241112e+001 -3.062129e+001 -1.240063e-001 1.445896e+002
505662514.15629 -2.877018e-001 -1.780069e+002 -7.186675e+001 -1.003559e+001 -7.044360e+001 -3.007615e+001 -1.333595e-001 1.445336e+002
506040015.10004 -2.900982e-001 -1.781713e+002 -7.211190e+001 -2.753845e+001 -7.126229e+001 -2.642412e+001 -1.434550e-001 1.444658e+002
506417516.04379 -2.910876e-001 -1.784570e+002 -7.259781e+001 -4.672770e+001 -7.094485e+001 -2.768788e+001 -1.529395e-001 1.443842e+002
506795016.98754 -2.955253e-001 -1.785631e+002 -7.036666e+001 -2.138801e+001 -7.016935e+001 -2.327621e+001 -1.592436e-001 1.442640e+002
507172517.93129 -2.945089e-001 -1.788059e+002 -6.882536e+001 -3.623006e+001 -6.960271e+001 -2.168847e+001 -1.624385e-001 1.441443e+002
507550018.87505 -2.947765e-001 -1.789712e+002 -7.254377e+001 -2.962987e+001 -7.152718e+001 -3.167097e+001 -1.757521e-001 1.439835e+002
507927519.8188 -2.976427e-001 -1.792086e+002 -7.343212e+001 -4.662031e+001 -7.126718e+001 -3.600412e+001 -1.825417e-001 1.438200e+002
508305020.76255 -2.974843e-001 -1.794566e+002 -7.338599e+001 -3.682338e+001 -7.181598e+001 -2.044847e+001 -1.912798e-001 1.436328e+002
508682521.7063 -2.980538e-001 -1.796680e+002 -7.380746e+001 -3.803052e+001 -7.322271e+001 -3.182533e+001 -2.008504e-001 1.433850e+002
509060022.65006 -2.993742e-001 -1.798562e+002 -7.350708e+001 -5.967966e+001 -7.157137e+001 -1.700732e+001 -2.063780e-001 1.431782e+002
509437523.59381 -3.019316e-001 1.798892e+002 -7.410091e+001 -1.586796e+001 -7.291739e+001 -2.448234e+001 -2.067595e-001 1.429597e+002
509815024.53756 -2.991595e-001 1.796963e+002 -7.852281e+001 -2.859820e+001 -6.949393e+001 -2.401617e+001 -2.132220e-001 1.426941e+002
510192525.48131 -3.043333e-001 1.794897e+002 -7.217947e+001 -3.673737e+001 -6.926292e+001 -2.440171e+001 -2.140987e-001 1.424309e+002
510570026.42507 -3.108557e-001 1.792901e+002 -7.152539e+001 -4.175706e+001 -7.080284e+001 -3.365366e+001 -2.197760e-001 1.421475e+002
510947527.36882 -3.085807e-001 1.790652e+002 -7.058572e+001 -3.806483e+001 -7.166698e+001 -3.629799e+001 -2.198611e-001 1.418739e+002
511325028.31257 -3.157918e-001 1.788979e+002 -7.118196e+001 -3.145450e+001 -6.884052e+001 -3.909241e+001 -2.218948e-001 1.415827e+002
511702529.25632 -3.146818e-001 1.785772e+002 -7.145668e+001 -3.994417e+001 -6.960212e+001 -2.430017e+001 -2.211061e-001 1.413239e+002
512080030.20008 -3.220928e-001 1.783713e+002 -7.325308e+001 -4.902837e+001 -7.098033e+001 -3.676017e+001 -2.183148e-001 1.410352e+002
512457531.14383 -3.231626e-001 1.782391e+002 -7.212419e+001 -4.520348e+001 -7.070487e+001 -3.134264e+001 -2.166760e-001 1.407671e+002
512835032.08758 -3.270524e-001 1.779486e+002 -7.099844e+001 -3.946175e+001 -7.257646e+001 -1.515413e+001 -2.150963e-001 1.404892e+002
513212533.03133 -3.290746e-001 1.777171e+002 -7.176736e+001 -3.422111e+001 -7.087968e+001 -4.224093e+001 -2.103293e-001 1.402252e+002
513590033.97508 -3.314834e-001 1.775054e+002 -7.138428e+001 -3.603074e+001 -7.143016e+001 -2.130085e+001 -2.032805e-001 1.399845e+002
513967534.91884 -3.361573e-001 1.773847e+002 -7.222339e+001 -4.546226e+001 -7.252868e+001 -3.485495e+001 -1.984085e-001 1.397720e+002
514345035.86259 -3.347335e-001 1.771100e+002 -6.834653e+001 -3.924951e+001 -7.384759e+001 -2.854217e+001 -1.967536e-001 1.395500e+002
514722536.80634 -3.392085e-001 1.769047e+002 -6.965436e+001 -5.028155e+001 -7.199493e+001 -3.163121e+001 -1.878890e-001 1.393561e+002
515100037.75009 -3.382023e-001 1.767534e+002 -7.091544e+001 -3.296624e+001 -7.120296e+001 -3.244235e+001 -1.802672e-001 1.391853e+002
515477538.69385 -3.395202e-001 1.764380e+002 -7.037862e+001 -4.446387e+001 -6.819589e+001 -4.174336e+001 -1.732716e-001 1.390098e+002
515855039.6376 -3.441121e-001 1.763049e+002 -7.063670e+001 -2.548117e+001 -7.128658e+001 -3.900402e+001 -1.619560e-001 1.388927e+002
516232540.58135 -3.470694e-001 1.760827e+002 -6.926540e+001 -4.516774e+001 -6.839952e+001 -2.325933e+001 -1.536902e-001 1.388121e+002
516610041.5251 -3.518174e-001 1.758202e+002 -6.983652e+001 -5.677558e+001 -6.852500e+001 -4.889414e+001 -1.457617e-001 1.387199e+002
516987542.46886 -3.484341e-001 1.756561e+002 -7.075343e+001 -4.988549e+001 -7.086476e+001 -4.863363e+001 -1.413632e-001 1.386760e+002
517365043.41261 -3.531045e-001 1.754455e+002 -7.032427e+001 -2.872994e+001 -7.010629e+001 -4.571732e+001 -1.336701e-001 1.386056e+002
517742544.35636 -3.572434e-001 1.751402e+002 -6.834215e+001 -4.712110e+001 -7.017783e+001 -5.683657e+001 -1.221709e-001 1.386300e+002
518120045.30011 -3.577423e-001 1.750168e+002 -6.830511e+001 -4.028673e+001 -6.857981e+001 -5.529668e+001 -1.148008e-001 1.386522e+002
518497546.24387 -3.606460e-001 1.747672e+002 -6.683030e+001 -4.003768e+001 -6.837854e+001 -5.693774e+001 -1.058563e-001 1.386873e+002
518875047.18762 -3.646373e-001 1.745748e+002 -6.930354e+001 -4.135032e+001 -6.927081e+001 -4.864088e+001 -9.522408e-002 1.387688e+002
519252548.13137 -3.700321e-001 1.743944e+002 -6.769805e+001 -5.200103e+001 -6.838128e+001 -5.550962e+001 -9.090901e-002 1.388619e+002
519630049.07512 -3.739035e-001 1.741535e+002 -6.829040e+001 -5.793878e+001 -6.743327e+001 -5.237381e+001 -8.437051e-002 1.389739e+002
520007550.01888 -3.745130e-001 1.738725e+002 -6.822797e+001 -4.598251e+001 -6.941914e+001 -6.767793e+001 -8.378133e-002 1.391175e+002
520385050.96263 -3.792585e-001 1.737068e+002 -6.886643e+001 -5.921316e+001 -6.842747e+001 -5.132339e+001 -7.561194e-002 1.392370e+002
520762551.90638 -3.811385e-001 1.735211e+002 -6.950674e+001 -6.502754e+001 -6.961754e+001 -6.081152e+001 -7.136261e-002 1.393982e+002
521140052.85013 -3.863918e-001 1.732524e+002 -6.976929e+001 -6.150483e+001 -6.957768e+001 -6.935567e+001 -6.477638e-002 1.395609e+002
521517553.79388 -3.886626e-001 1.730588e+002 -6.759504e+001 -6.324548e+001 -6.783514e+001 -5.244588e+001 -6.022959e-002 1.397784e+002
521895054.73764 -3.886418e-001 1.728849e+002 -6.875984e+001 -6.501540e+001 -6.969640e+001 -6.144741e+001 -5.926705e-002 1.399539e+002
522272555.68139 -3.903286e-001 1.726390e+002 -6.843621e+001 -6.926670e+001 -7.004044e+001 -6.081896e+001 -5.789126e-002 1.401476e+002
522650056.62514 -3.988685e-001 1.724433e+002 -6.804854e+001 -6.346703e+001 -6.940047e+001 -6.914821e+001 -6.248070e-002 1.403242e+002
523027557.56889 -4.028385e-001 1.722467e+002 -6.924033e+001 -6.606539e+001 -6.731348e+001 -6.044677e+001 -5.805591e-002 1.405414e+002
523405058.51265 -4.023095e-001 1.719963e+002 -6.941990e+001 -8.575466e+001 -7.001048e+001 -6.155580e+001 -6.106576e-002 1.407736e+002
523782559.4564 -4.033296e-001 1.717696e+002 -6.873973e+001 -6.948598e+001 -6.857932e+001 -7.240903e+001 -6.443729e-002 1.409198e+002
524160060.40015 -4.103700e-001 1.715283e+002 -6.966397e+001 -8.195359e+001 -6.836833e+001 -7.793082e+001 -7.067785e-002 1.411123e+002
524537561.3439 -4.092833e-001 1.713672e+002 -6.998724e+001 -7.743025e+001 -6.799160e+001 -7.113570e+001 -7.439975e-002 1.412857e+002
524915062.28766 -4.126891e-001 1.711145e+002 -6.923874e+001 -8.568725e+001 -6.838374e+001 -7.339600e+001 -7.737627e-002 1.414515e+002
525292563.23141 -4.138641e-001 1.708016e+002 -6.940355e+001 -8.672541e+001 -6.839394e+001 -6.798330e+001 -8.499935e-002 1.415915e+002
525670064.17516 -4.174010e-001 1.706227e+002 -6.825710e+001 -7.210651e+001 -6.840791e+001 -7.679459e+001 -9.223245e-002 1.417150e+002
526047565.11891 -4.189339e-001 1.703755e+002 -7.061331e+001 -8.232687e+001 -6.846195e+001 -7.903892e+001 -1.014519e-001 1.418246e+002
526425066.06267 -4.227948e-001 1.701265e+002 -7.008607e+001 -6.987363e+001 -6.852624e+001 -8.312159e+001 -1.103510e-001 1.419117e+002
526802567.00642 -4.279169e-001 1.698952e+002 -6.859738e+001 -6.890543e+001 -6.747938e+001 -7.311953e+001 -1.175142e-001 1.419835e+002
527180067.95017 -4.338283e-001 1.697157e+002 -6.925861e+001 -7.416070e+001 -6.927497e+001 -5.929293e+001 -1.250172e-001 1.420377e+002
527557568.89392 -4.342820e-001 1.694550e+002 -6.816384e+001 -7.501601e+001 -6.719740e+001 -6.962872e+001 -1.355441e-001 1.420680e+002
527935069.83767 -4.415440e-001 1.692725e+002 -6.972230e+001 -7.349289e+001 -6.779769e+001 -7.022509e+001 -1.453644e-001 1.420563e+002
528312570.78143 -4.438739e-001 1.690041e+002 -6.826059e+001 -7.613146e+001 -6.804270e+001 -8.221730e+001 -1.506115e-001 1.420290e+002
528690071.72518 -4.414774e-001 1.687864e+002 -6.846529e+001 -7.742124e+001 -6.755659e+001 -7.976425e+001 -1.589583e-001 1.419762e+002
529067572.66893 -4.481724e-001 1.685270e+002 -6.742609e+001 -8.105887e+001 -6.869142e+001 -8.734509e+001 -1.752626e-001 1.419148e+002
529445073.61268 -4.480467e-001 1.683265e+002 -6.737695e+001 -8.622734e+001 -6.815052e+001 -7.858358e+001 -1.813575e-001 1.418347e+002
529822574.55644 -4.538238e-001 1.680446e+002 -6.821656e+001 -7.712462e+001 -6.762312e+001 -7.361043e+001 -1.926486e-001 1.416783e+002
530200075.50019 -4.607071e-001 1.677504e+002 -6.714588e+001 -8.671747e+001 -6.802359e+001 -8.821260e+001 -2.004805e-001 1.415215e+002
530577576.44394 -4.669915e-001 1.675322e+002 -6.798383e+001 -7.781014e+001 -6.852129e+001 -8.096706e+001 -2.102911e-001 1.413436e+002
530955077.38769 -4.700575e-001 1.672767e+002 -7.053099e+001 -8.503437e+001 -6.699738e+001 -8.127643e+001 -2.169231e-001 1.411508e+002
531332578.33145 -4.761002e-001 1.670918e+002 -6.844822e+001 -9.126917e+001 -6.705805e+001 -8.748459e+001 -2.264571e-001 1.409348e+002
531710079.2752 -4.779887e-001 1.667953e+002 -6.843213e+001 -8.719086e+001 -6.771509e+001 -8.498663e+001 -2.347208e-001 1.406678e+002
532087580.21895 -4.844395e-001 1.666420e+002 -6.968433e+001 -8.854362e+001 -6.762879e+001 -9.121023e+001 -2.363766e-001 1.404396e+002
532465081.1627 -4.849682e-001 1.663272e+002 -6.814223e+001 -9.259060e+001 -6.652804e+001 -9.653296e+001 -2.428236e-001 1.401736e+002
532842582.10646 -4.892683e-001 1.660903e+002 -6.826995e+001 -8.906843e+001 -6.634809e+001 -9.263092e+001 -2.483340e-001 1.398734e+002
533220083.05021 -4.958322e-001 1.658838e+002 -6.763481e+001 -9.712479e+001 -6.762962e+001 -8.993839e+001 -2.517565e-001 1.395937e+002
533597583.99396 -5.034906e-001 1.656236e+002 -6.726578e+001 -8.671428e+001 -6.728021e+001 -9.447289e+001 -2.529729e-001 1.393264e+002
533975084.93771 -5.089656e-001 1.653189e+002 -6.698044e+001 -1.090723e+002 -6.725663e+001 -9.112238e+001 -2.574817e-001 1.389861e+002
534352585.88146 -5.179458e-001 1.650982e+002 -6.760343e+001 -9.721091e+001 -6.693059e+001 -9.540063e+001 -2.555985e-001 1.386762e+002
534730086.82522 -5.239164e-001 1.648806e+002 -6.785773e+001 -9.271986e+001 -6.733263e+001 -9.692912e+001 -2.577251e-001 1.383863e+002
535107587.76897 -5.309662e-001 1.646888e+002 -6.722163e+001 -1.058199e+002 -6.689178e+001 -9.984087e+001 -2.568760e-001 1.380793e+002
535485088.71272 -5.374212e-001 1.643854e+002 -6.648332e+001 -9.954704e+001 -6.699403e+001 -1.007875e+002 -2.557637e-001 1.377691e+002
535862589.65647 -5.415027e-001 1.641712e+002 -6.735583e+001 -1.032404e+002 -6.657890e+001 -1.026784e+002 -2.507823e-001 1.374825e+002
536240090.60023 -5.446051e-001 1.639703e+002 -6.724674e+001 -1.015471e+002 -6.635381e+001 -1.064830e+002 -2.468277e-001 1.371889e+002
536617591.54398 -5.517427e-001 1.636852e+002 -6.724841e+001 -1.017055e+002 -6.678263e+001 -9.825776e+001 -2.457160e-001 1.369072e+002
536995092.48773 -5.557837e-001 1.635668e+002 -6.710589e+001 -1.026814e+002 -6.723646e+001 -1.107520e+002 -2.383002e-001 1.366809e+002
537372593.43148 -5.541934e-001 1.632285e+002 -6.671526e+001 -1.016264e+002 -6.745733e+001 -1.030627e+002 -2.286580e-001 1.364297e+002
537750094.37524 -5.627616e-001 1.630446e+002 -6.685073e+001 -1.044614e+002 -6.759078e+001 -1.088474e+002 -2.235126e-001 1.362066e+002
538127595.31899 -5.675137e-001 1.628365e+002 -6.758723e+001 -1.086117e+002 -6.589407e+001 -9.900082e+001 -2.167161e-001 1.360057e+002
538505096.26274 -5.697330e-001 1.626045e+002 -6.660180e+001 -1.175293e+002 -6.736035e+001 -1.028167e+002 -2.077415e-001 1.358319e+002
538882597.20649 -5.753097e-001 1.623662e+002 -6.825150e+001 -1.081865e+002 -6.705567e+001 -1.020785e+002 -2.000956e-001 1.356203e+002
539260098.15025 -5.784689e-001 1.620493e+002 -6.870979e+001 -1.128467e+002 -6.737323e+001 -1.134071e+002 -1.914924e-001 1.354830e+002
539637599.094 -5.868182e-001 1.618252e+002 -6.610098e+001 -1.101809e+002 -6.665960e+001 -1.190895e+002 -1.862862e-001 1.353334e+002
540015100.03775 -5.893498e-001 1.616011e+002 -6.690252e+001 -1.120538e+002 -6.638961e+001 -1.165190e+002 -1.755847e-001 1.352890e+002
540392600.9815 -5.939855e-001 1.614293e+002 -6.751133e+001 -1.102122e+002 -6.812525e+001 -1.053098e+002 -1.699075e-001 1.351410e+002
540770101.92525 -6.039793e-001 1.611552e+002 -6.729101e+001 -1.104133e+002 -6.604829e+001 -1.126219e+002 -1.599918e-001 1.350833e+002
541147602.86901 -6.008778e-001 1.608878e+002 -6.653479e+001 -1.121134e+002 -6.534632e+001 -1.092935e+002 -1.525679e-001 1.350392e+002
541525103.81276 -6.059629e-001 1.605980e+002 -6.665257e+001 -1.152434e+002 -6.580070e+001 -1.088879e+002 -1.475740e-001 1.349911e+002
541902604.75651 -6.120743e-001 1.604466e+002 -6.666945e+001 -1.162985e+002 -6.634430e+001 -1.155463e+002 -1.405112e-001 1.349723e+002
542280105.70026 -6.213393e-001 1.602062e+002 -6.743871e+001 -1.166315e+002 -6.554073e+001 -1.144485e+002 -1.320062e-001 1.349730e+002
542657606.64402 -6.183296e-001 1.598928e+002 -6.504781e+001 -1.079850e+002 -6.579581e+001 -1.148010e+002 -1.283252e-001 1.349939e+002
543035107.58777 -6.256094e-001 1.597193e+002 -6.635567e+001 -1.104796e+002 -6.591353e+001 -1.211990e+002 -1.198979e-001 1.350217e+002
543412608.53152 -6.300343e-001 1.594010e+002 -6.576277e+001 -1.226731e+002 -6.654086e+001 -1.138402e+002 -1.164487e-001 1.350936e+002
543790109.47527 -6.351627e-001 1.592010e+002 -6.555313e+001 -1.140487e+002 -6.532792e+001 -1.184771e+002 -1.110815e-001 1.351428e+002
544167610.41903 -6.451012e-001 1.590064e+002 -6.647623e+001 -1.188464e+002 -6.556405e+001 -1.233758e+002 -1.045877e-001 1.351984e+002
544545111.36278 -6.421046e-001 1.587277e+002 -6.549914e+001 -1.177799e+002 -6.603846e+001 -1.291329e+002 -1.057895e-001 1.352914e+002
544922612.30653 -6.479629e-001 1.584268e+002 -6.516891e+001 -1.144198e+002 -6.585714e+001 -1.220169e+002 -9.698058e-002 1.353886e+002
545300113.25028 -6.554304e-001 1.581759e+002 -6.611260e+001 -1.264461e+002 -6.477135e+001 -1.153230e+002 -9.628169e-002 1.354777e+002
545677614.19404 -6.581674e-001 1.579366e+002 -6.645100e+001 -1.206178e+002 -6.585300e+001 -1.220543e+002 -9.459931e-002 1.355657e+002
546055115.13779 -6.643791e-001 1.577359e+002 -6.634930e+001 -1.278691e+002 -6.570316e+001 -1.252986e+002 -9.393670e-002 1.357122e+002
546432616.08154 -6.699998e-001 1.574106e+002 -6.623509e+001 -1.310163e+002 -6.551306e+001 -1.312976e+002 -9.138599e-002 1.357961e+002
546810117.02529 -6.748474e-001 1.571177e+002 -6.584086e+001 -1.292420e+002 -6.594463e+001 -1.304118e+002 -8.948665e-002 1.359217e+002
547187617.96904 -6.836379e-001 1.569115e+002 -6.625701e+001 -1.240457e+002 -6.692123e+001 -1.282048e+002 -8.850840e-002 1.360354e+002
547565118.9128 -6.931252e-001 1.566382e+002 -6.681586e+001 -1.294472e+002 -6.668032e+001 -1.376664e+002 -9.240778e-002 1.361405e+002
547942619.85655 -7.057983e-001 1.563736e+002 -6.540873e+001 -1.298527e+002 -6.566408e+001 -1.295651e+002 -9.015129e-002 1.362484e+002
548320120.8003 -7.120298e-001 1.560934e+002 -6.757524e+001 -1.347928e+002 -6.641663e+001 -1.330616e+002 -9.557735e-002 1.363650e+002
548697621.74405 -7.251394e-001 1.558832e+002 -6.578429e+001 -1.343346e+002 -6.557994e+001 -1.391607e+002 -9.726123e-002 1.364559e+002
549075122.68781 -7.338645e-001 1.555922e+002 -6.539426e+001 -1.355511e+002 -6.599153e+001 -1.376658e+002 -1.004675e-001 1.365983e+002
549452623.63156 -7.471904e-001 1.554014e+002 -6.553547e+001 -1.366362e+002 -6.592773e+001 -1.311398e+002 -1.032984e-001 1.366308e+002
549830124.57531 -7.554884e-001 1.551380e+002 -6.740919e+001 -1.454081e+002 -6.584068e+001 -1.371036e+002 -1.080394e-001 1.367182e+002
550207625.51906 -7.651185e-001 1.548600e+002 -6.561082e+001 -1.269936e+002 -6.648911e+001 -1.328499e+002 -1.112472e-001 1.367906e+002
550585126.46282 -7.734299e-001 1.545764e+002 -6.511960e+001 -1.410377e+002 -6.636809e+001 -1.351871e+002 -1.151958e-001 1.368349e+002
550962627.40657 -7.806681e-001 1.543544e+002 -6.643559e+001 -1.374785e+002 -6.526083e+001 -1.409209e+002 -1.200751e-001 1.368867e+002
551340128.35032 -7.868679e-001 1.541380e+002 -6.480540e+001 -1.375867e+002 -6.519908e+001 -1.353428e+002 -1.290746e-001 1.369204e+002
551717629.29407 -7.961982e-001 1.538163e+002 -6.584985e+001 -1.407975e+002 -6.634424e+001 -1.407551e+002 -1.321954e-001 1.369649e+002
552095130.23783 -8.034221e-001 1.535678e+002 -6.619493e+001 -1.336063e+002 -6.664130e+001 -1.403143e+002 -1.396052e-001 1.369621e+002
552472631.18158 -8.101284e-001 1.533053e+002 -6.593481e+001 -1.337605e+002 -6.527288e+001 -1.298675e+002 -1.440558e-001 1.369571e+002
552850132.12533 -8.158258e-001 1.530546e+002 -6.473415e+001 -1.406909e+002 -6.478329e+001 -1.400989e+002 -1.513271e-001 1.369482e+002
553227633.06908 -8.268360e-001 1.527561e+002 -6.517892e+001 -1.436800e+002 -6.396046e+001 -1.421396e+002 -1.594976e-001 1.368947e+002
553605134.01284 -8.363718e-001 1.525022e+002 -6.536696e+001 -1.509133e+002 -6.486132e+001 -1.370455e+002 -1.635773e-001 1.368460e+002
553982634.95659 -8.502494e-001 1.522240e+002 -6.470238e+001 -1.392149e+002 -6.466398e+001 -1.373302e+002 -1.722123e-001 1.367913e+002
554360135.90034 -8.642939e-001 1.520151e+002 -6.405417e+001 -1.458739e+002 -6.470821e+001 -1.470713e+002 -1.797594e-001 1.367110e+002
554737636.84409 -8.727198e-001 1.517014e+002 -6.480005e+001 -1.495269e+002 -6.449081e+001 -1.454260e+002 -1.895909e-001 1.366177e+002
555115137.78784 -8.847861e-001 1.514575e+002 -6.455032e+001 -1.504755e+002 -6.462669e+001 -1.437851e+002 -1.924617e-001 1.364984e+002
