!Agilent Technologies,E8364B,US42250235,A.06.04.32
!Agilent E8364B: A.06.04.32
!Date: Thursday, October 01, 2020 16:04:45
!Correction: S11(Full 2 Port(1,2)) S21(Full 2 Port(1,2)) S12(Full 2 Port(1,2)) S22(Full 2 Port(1,2)) 
!S2P File: Measurements: S11, S21, S12, S22:
# Hz S  dB   R 50
500000000 -2.323840e-001 -1.752904e+002 -7.267152e+001 -1.013291e+002 -7.248241e+001 -8.596082e+001 -2.589525e-002 1.434875e+002
500377500.94375 -2.340340e-001 -1.754687e+002 -7.243236e+001 -8.445270e+001 -7.489133e+001 -1.153253e+002 -2.961935e-002 1.436687e+002
500755001.8875 -2.338831e-001 -1.756656e+002 -6.872379e+001 -8.186460e+001 -7.275993e+001 -8.040780e+001 -2.892232e-002 1.438091e+002
501132502.83126 -2.402623e-001 -1.758842e+002 -7.465970e+001 -9.951928e+001 -7.029787e+001 -1.019553e+002 -3.593592e-002 1.439724e+002
501510003.77501 -2.438323e-001 -1.760494e+002 -7.156809e+001 -8.036826e+001 -7.350773e+001 -1.003475e+002 -3.945197e-002 1.441290e+002
501887504.71876 -2.467177e-001 -1.763161e+002 -7.069623e+001 -1.012103e+002 -7.141349e+001 -9.734617e+001 -4.273168e-002 1.442323e+002
502265005.66251 -2.534225e-001 -1.764589e+002 -7.324846e+001 -9.179733e+001 -7.561554e+001 -1.094649e+002 -4.976749e-002 1.443735e+002
502642506.60627 -2.544320e-001 -1.767200e+002 -7.210075e+001 -7.943356e+001 -7.490333e+001 -8.689013e+001 -5.245119e-002 1.445157e+002
503020007.55002 -2.638320e-001 -1.769075e+002 -7.084634e+001 -1.066011e+002 -7.291217e+001 -1.110482e+002 -5.926424e-002 1.445603e+002
503397508.49377 -2.670163e-001 -1.770706e+002 -7.268339e+001 -9.821518e+001 -7.315775e+001 -1.209974e+002 -6.573706e-002 1.446390e+002
503775009.43752 -2.705826e-001 -1.773383e+002 -7.309630e+001 -1.155005e+002 -7.477953e+001 -9.810661e+001 -7.644836e-002 1.446851e+002
504152510.38128 -2.747842e-001 -1.774469e+002 -7.345917e+001 -1.005011e+002 -7.250740e+001 -1.082150e+002 -8.480339e-002 1.447175e+002
504530011.32503 -2.754446e-001 -1.776739e+002 -7.204846e+001 -9.220222e+001 -7.485035e+001 -1.214469e+002 -9.237757e-002 1.447356e+002
504907512.26878 -2.815768e-001 -1.778327e+002 -7.140708e+001 -1.178095e+002 -6.995515e+001 -1.112131e+002 -9.997252e-002 1.447365e+002
505285013.21253 -2.834349e-001 -1.780454e+002 -7.360172e+001 -1.086253e+002 -7.374273e+001 -1.151311e+002 -1.084839e-001 1.447359e+002
505662514.15629 -2.822582e-001 -1.782642e+002 -7.548289e+001 -1.293110e+002 -7.250191e+001 -1.042549e+002 -1.126213e-001 1.446891e+002
506040015.10004 -2.876355e-001 -1.784329e+002 -7.337133e+001 -1.005329e+002 -7.141715e+001 -9.851975e+001 -1.230259e-001 1.445993e+002
506417516.04379 -2.900633e-001 -1.786741e+002 -7.280266e+001 -1.103702e+002 -7.441560e+001 -1.030928e+002 -1.344381e-001 1.445019e+002
506795016.98754 -2.927926e-001 -1.788254e+002 -7.073842e+001 -1.193229e+002 -7.071057e+001 -1.076969e+002 -1.414565e-001 1.443856e+002
507172517.93129 -2.950780e-001 -1.790794e+002 -7.593954e+001 -1.114956e+002 -7.061629e+001 -1.174212e+002 -1.489105e-001 1.442856e+002
507550018.87505 -2.946451e-001 -1.792744e+002 -7.171871e+001 -1.135287e+002 -7.347561e+001 -1.171058e+002 -1.595989e-001 1.441055e+002
507927519.8188 -2.984416e-001 -1.794951e+002 -7.038546e+001 -1.114711e+002 -7.113760e+001 -1.084182e+002 -1.674155e-001 1.439434e+002
508305020.76255 -3.001406e-001 -1.797323e+002 -7.012027e+001 -9.265125e+001 -7.043239e+001 -1.084544e+002 -1.743169e-001 1.437539e+002
508682521.7063 -3.002050e-001 -1.799612e+002 -7.181371e+001 -1.067804e+002 -6.958316e+001 -1.161019e+002 -1.832779e-001 1.435621e+002
509060022.65006 -3.051630e-001 1.798603e+002 -7.083128e+001 -1.084962e+002 -7.333078e+001 -1.006514e+002 -1.854763e-001 1.432904e+002
509437523.59381 -3.078422e-001 1.796031e+002 -6.890915e+001 -1.099527e+002 -7.080293e+001 -1.142446e+002 -1.878384e-001 1.430824e+002
509815024.53756 -3.081417e-001 1.794208e+002 -7.045700e+001 -1.259464e+002 -7.063897e+001 -1.024110e+002 -1.904109e-001 1.428004e+002
510192525.48131 -3.153028e-001 1.792314e+002 -6.946021e+001 -1.129302e+002 -7.187545e+001 -1.361362e+002 -1.956178e-001 1.425499e+002
510570026.42507 -3.199614e-001 1.790142e+002 -6.937627e+001 -1.059460e+002 -6.868599e+001 -1.219304e+002 -1.967674e-001 1.422546e+002
510947527.36882 -3.212995e-001 1.788133e+002 -6.818224e+001 -1.198633e+002 -7.009382e+001 -1.080644e+002 -2.009833e-001 1.419927e+002
511325028.31257 -3.256948e-001 1.785781e+002 -6.855280e+001 -1.066017e+002 -7.230920e+001 -1.181338e+002 -1.988701e-001 1.417027e+002
511702529.25632 -3.293068e-001 1.782993e+002 -6.764661e+001 -1.116066e+002 -7.194732e+001 -1.331472e+002 -1.996734e-001 1.414294e+002
512080030.20008 -3.360111e-001 1.781244e+002 -6.936031e+001 -1.366581e+002 -7.022223e+001 -1.332311e+002 -1.981665e-001 1.411405e+002
512457531.14383 -3.390447e-001 1.779065e+002 -6.896059e+001 -1.238946e+002 -6.968314e+001 -1.298287e+002 -1.984619e-001 1.408694e+002
512835032.08758 -3.448958e-001 1.776628e+002 -7.111148e+001 -1.193699e+002 -6.850960e+001 -1.221819e+002 -1.940085e-001 1.406004e+002
513212533.03133 -3.449122e-001 1.774408e+002 -6.785715e+001 -1.190226e+002 -6.786450e+001 -1.346859e+002 -1.898268e-001 1.403236e+002
513590033.97508 -3.510394e-001 1.772262e+002 -7.013148e+001 -1.333115e+002 -6.914482e+001 -1.281222e+002 -1.806518e-001 1.400933e+002
513967534.91884 -3.582555e-001 1.770434e+002 -6.903990e+001 -1.313444e+002 -6.835249e+001 -1.468636e+002 -1.749956e-001 1.398685e+002
514345035.86259 -3.571908e-001 1.768057e+002 -6.914307e+001 -1.338113e+002 -6.974531e+001 -1.393578e+002 -1.705654e-001 1.396406e+002
514722536.80634 -3.626099e-001 1.766351e+002 -6.965466e+001 -1.240229e+002 -6.847543e+001 -1.404998e+002 -1.661061e-001 1.394551e+002
515100037.75009 -3.618532e-001 1.764402e+002 -6.894685e+001 -1.403318e+002 -6.875166e+001 -1.355618e+002 -1.571108e-001 1.392809e+002
515477538.69385 -3.671219e-001 1.761565e+002 -6.863964e+001 -1.190519e+002 -7.076629e+001 -1.407710e+002 -1.509532e-001 1.391133e+002
515855039.6376 -3.691246e-001 1.759860e+002 -7.100892e+001 -1.293006e+002 -6.845590e+001 -1.388383e+002 -1.409285e-001 1.389995e+002
516232540.58135 -3.765338e-001 1.757641e+002 -6.787215e+001 -1.356954e+002 -6.853400e+001 -1.311490e+002 -1.331105e-001 1.388966e+002
516610041.5251 -3.831053e-001 1.755845e+002 -6.878110e+001 -1.367541e+002 -6.931051e+001 -1.440850e+002 -1.250781e-001 1.388236e+002
516987542.46886 -3.813190e-001 1.753085e+002 -6.902689e+001 -1.326079e+002 -6.928088e+001 -1.383694e+002 -1.164058e-001 1.387650e+002
517365043.41261 -3.892769e-001 1.751701e+002 -6.842742e+001 -1.382829e+002 -6.852976e+001 -1.387544e+002 -1.089492e-001 1.387058e+002
517742544.35636 -3.945415e-001 1.749006e+002 -6.839262e+001 -1.407780e+002 -6.866786e+001 -1.472914e+002 -9.954559e-002 1.387292e+002
518120045.30011 -3.955523e-001 1.746934e+002 -6.955004e+001 -1.330591e+002 -6.862509e+001 -1.376871e+002 -9.187097e-002 1.387328e+002
518497546.24387 -4.008568e-001 1.745321e+002 -6.858285e+001 -1.478762e+002 -6.812032e+001 -1.334326e+002 -8.325689e-002 1.387893e+002
518875047.18762 -4.084616e-001 1.742975e+002 -6.788470e+001 -1.417031e+002 -6.832659e+001 -1.527760e+002 -7.151237e-002 1.388684e+002
519252548.13137 -4.144394e-001 1.741196e+002 -6.801904e+001 -1.416307e+002 -6.722984e+001 -1.447612e+002 -6.794398e-002 1.389440e+002
519630049.07512 -4.217397e-001 1.738715e+002 -6.673260e+001 -1.470677e+002 -6.668941e+001 -1.494573e+002 -5.988004e-002 1.390263e+002
520007550.01888 -4.233285e-001 1.736160e+002 -6.642323e+001 -1.473515e+002 -6.886051e+001 -1.453241e+002 -5.762320e-002 1.391897e+002
520385050.96263 -4.278180e-001 1.734754e+002 -6.674886e+001 -1.462077e+002 -6.852169e+001 -1.522474e+002 -5.581434e-002 1.393153e+002
520762551.90638 -4.346635e-001 1.732545e+002 -6.877238e+001 -1.562312e+002 -6.843478e+001 -1.609356e+002 -4.686305e-002 1.394666e+002
521140052.85013 -4.382772e-001 1.730819e+002 -6.983501e+001 -1.512887e+002 -6.768196e+001 -1.586548e+002 -4.115287e-002 1.396296e+002
521517553.79388 -4.436620e-001 1.728913e+002 -6.618050e+001 -1.479287e+002 -6.943262e+001 -1.550887e+002 -3.940159e-002 1.398409e+002
521895054.73764 -4.481553e-001 1.726722e+002 -6.778008e+001 -1.610668e+002 -6.872204e+001 -1.547903e+002 -3.889780e-002 1.400025e+002
522272555.68139 -4.514334e-001 1.724450e+002 -6.801582e+001 -1.607897e+002 -6.998192e+001 -1.516307e+002 -3.886674e-002 1.402167e+002
522650056.62514 -4.575566e-001 1.722747e+002 -6.685873e+001 -1.636992e+002 -6.817422e+001 -1.738382e+002 -3.925894e-002 1.403809e+002
523027557.56889 -4.608903e-001 1.720889e+002 -6.759550e+001 -1.532282e+002 -6.580900e+001 -1.614519e+002 -3.927109e-002 1.406018e+002
523405058.51265 -4.615242e-001 1.718168e+002 -6.751991e+001 -1.610304e+002 -6.717340e+001 -1.674640e+002 -3.845872e-002 1.408496e+002
523782559.4564 -4.660236e-001 1.716701e+002 -6.624377e+001 -1.568072e+002 -6.628376e+001 -1.630905e+002 -4.650421e-002 1.409790e+002
524160060.40015 -4.695746e-001 1.714182e+002 -6.697168e+001 -1.593614e+002 -6.692570e+001 -1.693547e+002 -4.397552e-002 1.411602e+002
524537561.3439 -4.706230e-001 1.712594e+002 -6.705869e+001 -1.615393e+002 -6.679427e+001 -1.705333e+002 -5.307219e-002 1.413272e+002
524915062.28766 -4.758457e-001 1.710014e+002 -6.716584e+001 -1.772446e+002 -6.957001e+001 -1.724935e+002 -5.364050e-002 1.414986e+002
525292563.23141 -4.816384e-001 1.707203e+002 -6.661522e+001 -1.697770e+002 -6.679184e+001 -1.683257e+002 -6.511791e-002 1.416317e+002
525670064.17516 -4.803370e-001 1.705859e+002 -6.723157e+001 -1.713376e+002 -6.759941e+001 -1.673090e+002 -6.998391e-002 1.417684e+002
526047565.11891 -4.854168e-001 1.702958e+002 -6.718053e+001 -1.739617e+002 -6.765292e+001 -1.638643e+002 -7.665463e-002 1.418652e+002
526425066.06267 -4.875330e-001 1.700692e+002 -6.535445e+001 -1.710817e+002 -6.729318e+001 1.771193e+002 -8.836825e-002 1.419537e+002
526802567.00642 -4.933871e-001 1.698533e+002 -6.583896e+001 -1.690249e+002 -6.744691e+001 -1.766874e+002 -9.142265e-002 1.420310e+002
527180067.95017 -4.975522e-001 1.696768e+002 -6.718797e+001 -1.786124e+002 -6.672917e+001 -1.690549e+002 -1.036141e-001 1.420800e+002
527557568.89392 -5.018455e-001 1.694228e+002 -6.599777e+001 -1.725793e+002 -6.726731e+001 1.799452e+002 -1.104065e-001 1.420636e+002
527935069.83767 -5.065888e-001 1.692553e+002 -6.714701e+001 -1.784115e+002 -6.630279e+001 -1.699543e+002 -1.173613e-001 1.421063e+002
528312570.78143 -5.100930e-001 1.689958e+002 -6.856286e+001 1.770425e+002 -6.602032e+001 -1.758449e+002 -1.238781e-001 1.420919e+002
528690071.72518 -5.072036e-001 1.687624e+002 -6.661200e+001 -1.713036e+002 -6.756388e+001 1.787921e+002 -1.340690e-001 1.420285e+002
529067572.66893 -5.174561e-001 1.685441e+002 -6.683717e+001 1.725918e+002 -6.722714e+001 1.749044e+002 -1.462304e-001 1.419703e+002
529445073.61268 -5.166949e-001 1.683090e+002 -6.855243e+001 -1.760920e+002 -6.631304e+001 1.769500e+002 -1.547458e-001 1.418695e+002
529822574.55644 -5.207860e-001 1.680586e+002 -6.698141e+001 1.776971e+002 -6.729483e+001 1.735862e+002 -1.662872e-001 1.417210e+002
530200075.50019 -5.287862e-001 1.677572e+002 -6.773325e+001 1.715470e+002 -6.712853e+001 1.698966e+002 -1.700851e-001 1.415760e+002
530577576.44394 -5.375026e-001 1.675410e+002 -6.697621e+001 1.658949e+002 -6.771166e+001 1.709265e+002 -1.828645e-001 1.413951e+002
530955077.38769 -5.439629e-001 1.673027e+002 -6.755093e+001 1.711851e+002 -6.665742e+001 1.729896e+002 -1.905191e-001 1.412126e+002
531332578.33145 -5.488192e-001 1.671200e+002 -6.658122e+001 1.799005e+002 -6.763592e+001 1.790095e+002 -1.990394e-001 1.410109e+002
531710079.2752 -5.542609e-001 1.668474e+002 -6.598984e+001 1.746540e+002 -6.754008e+001 1.726242e+002 -2.089898e-001 1.407342e+002
532087580.21895 -5.645512e-001 1.667179e+002 -6.719526e+001 1.750187e+002 -6.683579e+001 1.731068e+002 -2.116501e-001 1.404849e+002
532465081.1627 -5.677770e-001 1.664198e+002 -6.681747e+001 -1.788291e+002 -6.626071e+001 1.638579e+002 -2.139796e-001 1.401702e+002
532842582.10646 -5.715929e-001 1.662265e+002 -6.836830e+001 1.787037e+002 -6.956034e+001 1.674138e+002 -2.211752e-001 1.399467e+002
533220083.05021 -5.764335e-001 1.660466e+002 -6.755297e+001 1.666280e+002 -6.652120e+001 1.664084e+002 -2.262047e-001 1.396562e+002
533597583.99396 -5.831909e-001 1.657596e+002 -6.693384e+001 1.726440e+002 -6.658376e+001 1.559401e+002 -2.261255e-001 1.394076e+002
533975084.93771 -5.906974e-001 1.655106e+002 -6.705243e+001 1.632664e+002 -6.585394e+001 1.710410e+002 -2.322903e-001 1.390530e+002
534352585.88146 -5.986928e-001 1.653652e+002 -6.590456e+001 1.602142e+002 -6.708002e+001 1.642462e+002 -2.286432e-001 1.387565e+002
534730086.82522 -6.038451e-001 1.651122e+002 -6.631105e+001 1.740223e+002 -6.685822e+001 1.682991e+002 -2.302904e-001 1.383974e+002
535107587.76897 -6.106200e-001 1.649408e+002 -6.580170e+001 1.695446e+002 -6.553751e+001 1.653545e+002 -2.289287e-001 1.381326e+002
535485088.71272 -6.104208e-001 1.646473e+002 -6.554724e+001 1.633870e+002 -6.610440e+001 1.599305e+002 -2.290132e-001 1.378348e+002
535862589.65647 -6.191067e-001 1.644346e+002 -6.662252e+001 1.612581e+002 -6.657092e+001 1.595067e+002 -2.274473e-001 1.375453e+002
536240090.60023 -6.195913e-001 1.642848e+002 -6.594047e+001 1.643581e+002 -6.568848e+001 1.561470e+002 -2.231861e-001 1.372664e+002
536617591.54398 -6.254081e-001 1.639946e+002 -6.527755e+001 1.619259e+002 -6.696507e+001 1.603935e+002 -2.192253e-001 1.369647e+002
536995092.48773 -6.312369e-001 1.638641e+002 -6.490308e+001 1.658232e+002 -6.576385e+001 1.524098e+002 -2.144417e-001 1.367352e+002
537372593.43148 -6.294923e-001 1.635561e+002 -6.447435e+001 1.604362e+002 -6.466403e+001 1.607573e+002 -2.047921e-001 1.364824e+002
537750094.37524 -6.364313e-001 1.633935e+002 -6.544601e+001 1.696676e+002 -6.527010e+001 1.544434e+002 -1.987931e-001 1.362514e+002
538127595.31899 -6.380529e-001 1.631826e+002 -6.507677e+001 1.603960e+002 -6.573844e+001 1.584218e+002 -1.960054e-001 1.360466e+002
538505096.26274 -6.425231e-001 1.629820e+002 -6.657062e+001 1.504622e+002 -6.562027e+001 1.498042e+002 -1.854382e-001 1.358891e+002
538882597.20649 -6.445441e-001 1.627593e+002 -6.574725e+001 1.546490e+002 -6.609269e+001 1.490911e+002 -1.761148e-001 1.356852e+002
539260098.15025 -6.481818e-001 1.624493e+002 -6.437877e+001 1.547313e+002 -6.533496e+001 1.504094e+002 -1.702852e-001 1.355370e+002
539637599.094 -6.526328e-001 1.622546e+002 -6.552029e+001 1.557868e+002 -6.559570e+001 1.497292e+002 -1.642124e-001 1.353960e+002
540015100.03775 -6.595217e-001 1.620475e+002 -6.563934e+001 1.503018e+002 -6.490934e+001 1.532805e+002 -1.551158e-001 1.353467e+002
540392600.9815 -6.604522e-001 1.619085e+002 -6.617528e+001 1.585317e+002 -6.534244e+001 1.412933e+002 -1.503861e-001 1.352112e+002
540770101.92525 -6.690131e-001 1.616542e+002 -6.475984e+001 1.460143e+002 -6.464299e+001 1.484735e+002 -1.366085e-001 1.351319e+002
541147602.86901 -6.627462e-001 1.614050e+002 -6.614980e+001 1.458608e+002 -6.519357e+001 1.470889e+002 -1.316623e-001 1.350887e+002
541525103.81276 -6.658385e-001 1.611312e+002 -6.472964e+001 1.406880e+002 -6.532453e+001 1.438746e+002 -1.231038e-001 1.350531e+002
541902604.75651 -6.705974e-001 1.610097e+002 -6.430719e+001 1.425834e+002 -6.558981e+001 1.488603e+002 -1.174179e-001 1.350510e+002
542280105.70026 -6.757947e-001 1.607531e+002 -6.592161e+001 1.459124e+002 -6.556763e+001 1.423452e+002 -1.074518e-001 1.350498e+002
542657606.64402 -6.688182e-001 1.604681e+002 -6.488783e+001 1.519143e+002 -6.522813e+001 1.408939e+002 -1.058205e-001 1.350659e+002
543035107.58777 -6.728674e-001 1.602838e+002 -6.536295e+001 1.428530e+002 -6.626228e+001 1.377581e+002 -9.600007e-002 1.350966e+002
543412608.53152 -6.759456e-001 1.600086e+002 -6.399229e+001 1.476846e+002 -6.467374e+001 1.354297e+002 -9.236348e-002 1.351569e+002
543790109.47527 -6.768358e-001 1.598016e+002 -6.509364e+001 1.413720e+002 -6.579908e+001 1.355811e+002 -8.877386e-002 1.352074e+002
544167610.41903 -6.816249e-001 1.596157e+002 -6.531458e+001 1.308154e+002 -6.467057e+001 1.363616e+002 -8.086745e-002 1.352752e+002
544545111.36278 -6.753804e-001 1.593421e+002 -6.417461e+001 1.336844e+002 -6.461260e+001 1.299399e+002 -7.615389e-002 1.353680e+002
544922612.30653 -6.806217e-001 1.590270e+002 -6.459290e+001 1.412637e+002 -6.615128e+001 1.327074e+002 -7.209527e-002 1.354699e+002
545300113.25028 -6.835403e-001 1.588156e+002 -6.428926e+001 1.405180e+002 -6.486513e+001 1.344617e+002 -6.974696e-002 1.355659e+002
545677614.19404 -6.852906e-001 1.585774e+002 -6.519713e+001 1.371532e+002 -6.588123e+001 1.233538e+002 -6.832831e-002 1.356715e+002
546055115.13779 -6.902907e-001 1.583858e+002 -6.557520e+001 1.339767e+002 -6.473685e+001 1.289122e+002 -6.773996e-002 1.357953e+002
546432616.08154 -6.951821e-001 1.580972e+002 -6.488778e+001 1.331921e+002 -6.537531e+001 1.350385e+002 -6.902909e-002 1.359118e+002
546810117.02529 -6.961032e-001 1.577667e+002 -6.580622e+001 1.381879e+002 -6.579327e+001 1.284197e+002 -6.514164e-002 1.360361e+002
547187617.96904 -7.023262e-001 1.575775e+002 -6.530018e+001 1.315568e+002 -6.468024e+001 1.307175e+002 -6.321495e-002 1.361480e+002
547565118.9128 -7.074307e-001 1.572572e+002 -6.449123e+001 1.384735e+002 -6.469276e+001 1.337664e+002 -6.591298e-002 1.362503e+002
547942619.85655 -7.184565e-001 1.569913e+002 -6.604560e+001 1.305298e+002 -6.429244e+001 1.264294e+002 -6.604697e-002 1.363664e+002
548320120.8003 -7.273947e-001 1.567332e+002 -6.555485e+001 1.374337e+002 -6.553632e+001 1.355244e+002 -7.142875e-002 1.364963e+002
548697621.74405 -7.363874e-001 1.565321e+002 -6.361595e+001 1.316230e+002 -6.396879e+001 1.330406e+002 -7.115291e-002 1.365767e+002
549075122.68781 -7.446403e-001 1.562330e+002 -6.504736e+001 1.268301e+002 -6.418224e+001 1.290297e+002 -7.167251e-002 1.367334e+002
549452623.63156 -7.571450e-001 1.560489e+002 -6.484418e+001 1.334838e+002 -6.393681e+001 1.237387e+002 -7.806808e-002 1.367642e+002
549830124.57531 -7.622078e-001 1.557949e+002 -6.333619e+001 1.187893e+002 -6.428118e+001 1.258986e+002 -8.274499e-002 1.368677e+002
550207625.51906 -7.684799e-001 1.555316e+002 -6.336481e+001 1.268952e+002 -6.381361e+001 1.255937e+002 -9.001747e-002 1.369358e+002
550585126.46282 -7.732629e-001 1.552446e+002 -6.389601e+001 1.225025e+002 -6.429043e+001 1.197650e+002 -9.154200e-002 1.370025e+002
550962627.40657 -7.797366e-001 1.550090e+002 -6.320525e+001 1.203878e+002 -6.399698e+001 1.195199e+002 -9.933063e-002 1.370567e+002
551340128.35032 -7.848604e-001 1.547517e+002 -6.297671e+001 1.219052e+002 -6.454789e+001 1.167019e+002 -1.066818e-001 1.370016e+002
551717629.29407 -7.944065e-001 1.544803e+002 -6.459495e+001 1.236397e+002 -6.487325e+001 1.139191e+002 -1.052324e-001 1.371201e+002
552095130.23783 -7.979254e-001 1.542514e+002 -6.385524e+001 1.190926e+002 -6.218288e+001 1.138055e+002 -1.134365e-001 1.371230e+002
552472631.18158 -8.053107e-001 1.539721e+002 -6.378891e+001 1.139381e+002 -6.321509e+001 1.149600e+002 -1.199235e-001 1.371138e+002
552850132.12533 -8.072913e-001 1.537399e+002 -6.400626e+001 1.214342e+002 -6.325971e+001 1.120744e+002 -1.275647e-001 1.371031e+002
553227633.06908 -8.162703e-001 1.534392e+002 -6.350431e+001 1.147038e+002 -6.340175e+001 1.170649e+002 -1.368947e-001 1.370603e+002
553605134.01284 -8.253939e-001 1.532430e+002 -6.283178e+001 1.087214e+002 -6.306316e+001 1.104153e+002 -1.373007e-001 1.370247e+002
553982634.95659 -8.357239e-001 1.529433e+002 -6.348623e+001 1.152991e+002 -6.338377e+001 1.106436e+002 -1.496166e-001 1.369545e+002
554360135.90034 -8.467194e-001 1.527308e+002 -6.262957e+001 1.040048e+002 -6.354769e+001 1.107576e+002 -1.548969e-001 1.368776e+002
554737636.84409 -8.525842e-001 1.524220e+002 -6.327715e+001 1.060864e+002 -6.316420e+001 1.032797e+002 -1.646149e-001 1.367803e+002
555115137.78784 -8.607506e-001 1.521728e+002 -6.272174e+001 1.106970e+002 -6.309550e+001 1.045788e+002 -1.673276e-001 1.366644e+002
555492638.7316 -8.718442e-001 1.519500e+002 -6.272937e+001 1.037724e+002 -6.281398e+001 1.051997e+002 -1.758243e-001 1.365545e+002
