!Agilent Technologies,E8364B,US42250235,A.06.04.32
!Agilent E8364B: A.06.04.32
!Date: Thursday, October 01, 2020 16:07:38
!Correction: S11(Full 2 Port(1,2)) S21(Full 2 Port(1,2)) S12(Full 2 Port(1,2)) S22(Full 2 Port(1,2)) 
!S2P File: Measurements: S11, S21, S12, S22:
# Hz S  dB   R 50
500000000 -2.366992e-001 -1.750519e+002 -7.047071e+001 -1.625419e+002 -7.832833e+001 -1.732332e+002 -5.734735e-002 1.430556e+002
500377500.94375 -2.356846e-001 -1.753177e+002 -7.137399e+001 -1.675297e+002 -7.261761e+001 -1.607115e+002 -5.875859e-002 1.432498e+002
500755001.8875 -2.417581e-001 -1.754277e+002 -7.132945e+001 -1.400848e+002 -7.801804e+001 -1.779860e+002 -5.747928e-002 1.433827e+002
501132502.83126 -2.430429e-001 -1.756889e+002 -7.117080e+001 -1.581320e+002 -7.538428e+001 1.674223e+002 -6.473780e-002 1.435307e+002
501510003.77501 -2.469324e-001 -1.758759e+002 -7.097623e+001 -1.661518e+002 -7.481113e+001 -1.777971e+002 -6.762205e-002 1.436927e+002
501887504.71876 -2.503731e-001 -1.760907e+002 -7.229427e+001 -1.540616e+002 -7.587951e+001 -1.463425e+002 -6.993716e-002 1.437971e+002
502265005.66251 -2.548574e-001 -1.762837e+002 -7.260408e+001 -1.654427e+002 -7.152339e+001 -1.690761e+002 -7.611719e-002 1.439243e+002
502642506.60627 -2.561028e-001 -1.764455e+002 -7.432263e+001 -1.635958e+002 -7.205706e+001 -1.708194e+002 -8.168805e-002 1.440740e+002
503020007.55002 -2.560242e-001 -1.766827e+002 -7.189021e+001 -1.563128e+002 -7.554684e+001 -1.567151e+002 -8.745056e-002 1.441061e+002
503397508.49377 -2.599119e-001 -1.768729e+002 -7.158725e+001 -1.704905e+002 -7.275713e+001 -1.743823e+002 -9.367523e-002 1.441963e+002
503775009.43752 -2.617443e-001 -1.771033e+002 -7.057423e+001 -1.712845e+002 -7.490611e+001 1.720317e+002 -1.061517e-001 1.442290e+002
504152510.38128 -2.674256e-001 -1.772723e+002 -7.328236e+001 -1.680914e+002 -7.329308e+001 1.657477e+002 -1.144216e-001 1.442644e+002
504530011.32503 -2.636115e-001 -1.775002e+002 -7.042407e+001 -1.799064e+002 -7.336694e+001 1.799594e+002 -1.233014e-001 1.442838e+002
504907512.26878 -2.683830e-001 -1.776593e+002 -6.940069e+001 -1.771038e+002 -7.632315e+001 1.612800e+002 -1.308099e-001 1.442823e+002
505285013.21253 -2.737847e-001 -1.777961e+002 -7.119291e+001 1.796433e+002 -7.584116e+001 1.621342e+002 -1.385819e-001 1.442669e+002
505662514.15629 -2.710418e-001 -1.780069e+002 -6.994057e+001 1.748260e+002 -7.333472e+001 1.739051e+002 -1.475008e-001 1.442270e+002
506040015.10004 -2.711763e-001 -1.782551e+002 -7.616223e+001 1.591819e+002 -7.203712e+001 1.733164e+002 -1.586502e-001 1.441428e+002
506417516.04379 -2.722094e-001 -1.784918e+002 -7.555007e+001 1.629293e+002 -7.320782e+001 1.664711e+002 -1.680785e-001 1.440516e+002
506795016.98754 -2.763997e-001 -1.786477e+002 -7.408656e+001 1.775144e+002 -7.371075e+001 1.774762e+002 -1.774035e-001 1.439177e+002
507172517.93129 -2.799035e-001 -1.788196e+002 -7.117184e+001 1.640123e+002 -7.377383e+001 1.513024e+002 -1.803928e-001 1.438002e+002
507550018.87505 -2.801719e-001 -1.790563e+002 -7.421831e+001 -1.738367e+002 -7.540046e+001 1.440051e+002 -1.931213e-001 1.436292e+002
507927519.8188 -2.811000e-001 -1.792473e+002 -7.129644e+001 1.706218e+002 -7.749146e+001 1.770237e+002 -2.024035e-001 1.434476e+002
508305020.76255 -2.809423e-001 -1.794984e+002 -7.402953e+001 1.722238e+002 -7.583240e+001 1.544272e+002 -2.072743e-001 1.432575e+002
508682521.7063 -2.842440e-001 -1.796996e+002 -7.360218e+001 1.663875e+002 -7.437218e+001 1.538803e+002 -2.193873e-001 1.430606e+002
509060022.65006 -2.871238e-001 -1.799130e+002 -7.590630e+001 1.481698e+002 -7.704768e+001 1.165610e+002 -2.234056e-001 1.428058e+002
509437523.59381 -2.869690e-001 1.798508e+002 -6.982555e+001 1.671537e+002 -7.280861e+001 1.335403e+002 -2.264231e-001 1.425663e+002
509815024.53756 -2.881149e-001 1.796678e+002 -7.338245e+001 1.677727e+002 -7.362971e+001 -1.737009e+002 -2.286165e-001 1.422991e+002
510192525.48131 -2.863531e-001 1.794095e+002 -7.103015e+001 -1.742016e+002 -7.357166e+001 1.550741e+002 -2.335331e-001 1.420222e+002
510570026.42507 -2.939216e-001 1.791738e+002 -7.292723e+001 1.658492e+002 -7.450980e+001 1.716519e+002 -2.387943e-001 1.417465e+002
510947527.36882 -2.989312e-001 1.789859e+002 -7.596594e+001 -1.361450e+002 -7.409348e+001 1.389299e+002 -2.392440e-001 1.414794e+002
511325028.31257 -2.998715e-001 1.787503e+002 -7.242498e+001 1.567235e+002 -7.581173e+001 1.368705e+002 -2.404321e-001 1.411786e+002
511702529.25632 -2.990859e-001 1.785399e+002 -7.561988e+001 1.719513e+002 -7.505488e+001 1.403934e+002 -2.392746e-001 1.408974e+002
512080030.20008 -3.053572e-001 1.782762e+002 -7.131554e+001 1.706690e+002 -7.514347e+001 1.375244e+002 -2.392288e-001 1.405950e+002
512457531.14383 -3.118143e-001 1.781428e+002 -7.149567e+001 -1.739089e+002 -7.833818e+001 1.522428e+002 -2.398162e-001 1.403270e+002
512835032.08758 -3.155569e-001 1.778888e+002 -7.389833e+001 1.611082e+002 -7.386627e+001 1.757860e+002 -2.392859e-001 1.400530e+002
513212533.03133 -3.177190e-001 1.776688e+002 -7.125303e+001 1.687826e+002 -7.445246e+001 1.582016e+002 -2.314253e-001 1.397780e+002
513590033.97508 -3.188145e-001 1.774540e+002 -7.257346e+001 -1.792873e+002 -7.335336e+001 1.572754e+002 -2.233326e-001 1.395423e+002
513967534.91884 -3.235208e-001 1.772424e+002 -7.199020e+001 1.789030e+002 -7.459161e+001 1.605406e+002 -2.193184e-001 1.393191e+002
514345035.86259 -3.270282e-001 1.770259e+002 -7.117133e+001 1.609410e+002 -7.414155e+001 1.481470e+002 -2.141550e-001 1.390983e+002
514722536.80634 -3.295895e-001 1.768670e+002 -7.290666e+001 1.559645e+002 -7.350121e+001 1.536984e+002 -2.088478e-001 1.388969e+002
515100037.75009 -3.271238e-001 1.766012e+002 -7.354388e+001 1.693029e+002 -7.639400e+001 1.542550e+002 -1.992555e-001 1.387214e+002
515477538.69385 -3.310906e-001 1.763742e+002 -7.114183e+001 1.566925e+002 -7.496823e+001 1.411006e+002 -1.902764e-001 1.385621e+002
515855039.6376 -3.308314e-001 1.761716e+002 -7.117446e+001 1.576965e+002 -7.260038e+001 1.358834e+002 -1.819842e-001 1.384343e+002
516232540.58135 -3.346901e-001 1.759393e+002 -7.038841e+001 1.468326e+002 -7.535986e+001 1.328572e+002 -1.733527e-001 1.383478e+002
516610041.5251 -3.381254e-001 1.757207e+002 -7.272620e+001 1.489419e+002 -7.397534e+001 1.453953e+002 -1.649523e-001 1.382686e+002
516987542.46886 -3.411714e-001 1.755108e+002 -7.143865e+001 1.611891e+002 -7.275699e+001 1.440171e+002 -1.589378e-001 1.382148e+002
517365043.41261 -3.428797e-001 1.753042e+002 -7.123312e+001 1.553267e+002 -7.450267e+001 1.531906e+002 -1.504279e-001 1.381589e+002
517742544.35636 -3.472320e-001 1.750388e+002 -7.095150e+001 1.685140e+002 -7.092535e+001 1.501603e+002 -1.402084e-001 1.381958e+002
518120045.30011 -3.502434e-001 1.748490e+002 -6.991926e+001 1.616433e+002 -7.262862e+001 1.413998e+002 -1.299064e-001 1.381962e+002
518497546.24387 -3.534131e-001 1.746598e+002 -6.927708e+001 1.529761e+002 -7.492211e+001 1.230554e+002 -1.216570e-001 1.382557e+002
518875047.18762 -3.558688e-001 1.744709e+002 -6.883881e+001 1.575029e+002 -7.404818e+001 1.374723e+002 -1.142242e-001 1.383195e+002
519252548.13137 -3.609032e-001 1.742134e+002 -6.996587e+001 1.682413e+002 -7.279375e+001 1.413690e+002 -1.068529e-001 1.384213e+002
519630049.07512 -3.658651e-001 1.739767e+002 -6.900254e+001 1.387809e+002 -7.140485e+001 1.453481e+002 -9.667331e-002 1.384997e+002
520007550.01888 -3.674940e-001 1.737691e+002 -6.995882e+001 1.467885e+002 -7.436790e+001 1.467928e+002 -1.001410e-001 1.386675e+002
520385050.96263 -3.712769e-001 1.735995e+002 -7.006168e+001 1.536406e+002 -7.213217e+001 1.327518e+002 -9.192544e-002 1.388077e+002
520762551.90638 -3.716823e-001 1.733455e+002 -7.069716e+001 1.465025e+002 -7.138194e+001 1.265339e+002 -8.380935e-002 1.389619e+002
521140052.85013 -3.757403e-001 1.731111e+002 -7.118684e+001 1.561591e+002 -7.265827e+001 1.334113e+002 -8.309161e-002 1.391220e+002
521517553.79388 -3.783642e-001 1.728991e+002 -6.876299e+001 1.540517e+002 -7.126794e+001 1.415893e+002 -7.744088e-002 1.393362e+002
521895054.73764 -3.812563e-001 1.726737e+002 -7.029987e+001 1.368856e+002 -7.104964e+001 1.307566e+002 -7.842353e-002 1.395269e+002
522272555.68139 -3.867669e-001 1.724605e+002 -7.149696e+001 1.314662e+002 -7.200037e+001 1.196625e+002 -7.746216e-002 1.397125e+002
522650056.62514 -3.897786e-001 1.722176e+002 -7.010557e+001 1.434936e+002 -7.027730e+001 1.273331e+002 -7.860901e-002 1.399122e+002
523027557.56889 -3.944508e-001 1.720253e+002 -6.907604e+001 1.338540e+002 -7.105965e+001 1.139318e+002 -7.781125e-002 1.401136e+002
523405058.51265 -3.969255e-001 1.718046e+002 -6.781946e+001 1.467517e+002 -7.011144e+001 1.203438e+002 -7.534347e-002 1.403499e+002
523782559.4564 -3.999592e-001 1.715751e+002 -6.886458e+001 1.404859e+002 -7.252338e+001 1.378496e+002 -8.258697e-002 1.404971e+002
524160060.40015 -4.014290e-001 1.713419e+002 -6.804017e+001 1.321074e+002 -7.016736e+001 1.320521e+002 -8.436566e-002 1.406990e+002
524537561.3439 -4.066297e-001 1.711342e+002 -6.869081e+001 1.240678e+002 -7.156137e+001 1.127431e+002 -9.308442e-002 1.408444e+002
524915062.28766 -4.113553e-001 1.708840e+002 -7.023663e+001 1.229291e+002 -7.099322e+001 1.178120e+002 -9.582441e-002 1.410336e+002
525292563.23141 -4.164369e-001 1.706566e+002 -6.969196e+001 1.261729e+002 -7.108329e+001 1.161768e+002 -1.023876e-001 1.411571e+002
525670064.17516 -4.166732e-001 1.704184e+002 -6.877010e+001 1.206524e+002 -7.099040e+001 1.221387e+002 -1.089496e-001 1.412869e+002
526047565.11891 -4.196087e-001 1.702099e+002 -6.847051e+001 1.263791e+002 -7.317445e+001 9.528539e+001 -1.165274e-001 1.413996e+002
526425066.06267 -4.255416e-001 1.699467e+002 -6.767762e+001 1.306743e+002 -6.957999e+001 1.096703e+002 -1.256794e-001 1.414894e+002
526802567.00642 -4.291297e-001 1.697120e+002 -6.823157e+001 1.304586e+002 -7.215770e+001 1.121314e+002 -1.312783e-001 1.415672e+002
527180067.95017 -4.320045e-001 1.694552e+002 -6.976480e+001 1.244623e+002 -6.989220e+001 1.136768e+002 -1.437918e-001 1.416030e+002
527557568.89392 -4.384161e-001 1.692350e+002 -6.966331e+001 1.237972e+002 -6.985857e+001 9.863562e+001 -1.509165e-001 1.415745e+002
527935069.83767 -4.445098e-001 1.689996e+002 -6.803080e+001 1.173662e+002 -7.188773e+001 1.033761e+002 -1.550534e-001 1.416333e+002
528312570.78143 -4.484962e-001 1.687501e+002 -7.085059e+001 1.125623e+002 -7.109022e+001 1.081477e+002 -1.654710e-001 1.416089e+002
528690071.72518 -4.483202e-001 1.685147e+002 -6.827463e+001 1.166983e+002 -7.148195e+001 9.305369e+001 -1.750766e-001 1.415470e+002
529067572.66893 -4.554314e-001 1.682583e+002 -7.128226e+001 1.238374e+002 -7.142961e+001 1.138630e+002 -1.869430e-001 1.414887e+002
529445073.61268 -4.634204e-001 1.680476e+002 -6.871228e+001 1.196092e+002 -7.143983e+001 1.002118e+002 -1.959684e-001 1.414100e+002
529822574.55644 -4.673328e-001 1.677810e+002 -6.911567e+001 9.848492e+001 -7.063322e+001 1.067573e+002 -2.042437e-001 1.412481e+002
530200075.50019 -4.724058e-001 1.675511e+002 -7.063396e+001 1.267896e+002 -7.052575e+001 8.849996e+001 -2.116986e-001 1.410878e+002
530577576.44394 -4.807909e-001 1.673113e+002 -7.045250e+001 1.179924e+002 -7.076804e+001 9.605774e+001 -2.231068e-001 1.409113e+002
530955077.38769 -4.877597e-001 1.670606e+002 -6.933820e+001 1.061591e+002 -7.119272e+001 8.984085e+001 -2.299677e-001 1.407277e+002
531332578.33145 -4.921838e-001 1.668248e+002 -7.262401e+001 1.006382e+002 -7.364252e+001 9.620039e+001 -2.371282e-001 1.404996e+002
531710079.2752 -4.986232e-001 1.665859e+002 -7.157589e+001 1.061291e+002 -7.135209e+001 9.814725e+001 -2.523649e-001 1.402581e+002
532087580.21895 -5.016195e-001 1.663416e+002 -7.084926e+001 9.933723e+001 -7.143733e+001 1.095234e+002 -2.476720e-001 1.400069e+002
532465081.1627 -5.068737e-001 1.660907e+002 -6.980142e+001 1.222698e+002 -7.197269e+001 1.104073e+002 -2.571159e-001 1.396651e+002
532842582.10646 -5.140660e-001 1.658873e+002 -6.858597e+001 1.134364e+002 -7.467033e+001 9.722598e+001 -2.619624e-001 1.394472e+002
533220083.05021 -5.211218e-001 1.656203e+002 -6.858971e+001 1.183590e+002 -7.106864e+001 1.068922e+002 -2.649637e-001 1.391606e+002
533597583.99396 -5.293995e-001 1.653474e+002 -6.794420e+001 1.161063e+002 -7.129277e+001 9.398118e+001 -2.661243e-001 1.389079e+002
533975084.93771 -5.378908e-001 1.651158e+002 -6.864525e+001 1.075051e+002 -7.352497e+001 8.850608e+001 -2.707921e-001 1.385503e+002
534352585.88146 -5.436660e-001 1.648819e+002 -6.935286e+001 1.079469e+002 -7.063540e+001 1.161361e+002 -2.667451e-001 1.382720e+002
534730086.82522 -5.546508e-001 1.647012e+002 -6.992133e+001 1.149080e+002 -7.012520e+001 8.019263e+001 -2.652694e-001 1.379009e+002
535107587.76897 -5.613433e-001 1.644314e+002 -7.024927e+001 1.084623e+002 -7.047551e+001 7.829591e+001 -2.683691e-001 1.376620e+002
535485088.71272 -5.663654e-001 1.641723e+002 -6.977468e+001 1.106962e+002 -7.139605e+001 8.968179e+001 -2.655929e-001 1.373291e+002
535862589.65647 -5.740647e-001 1.639834e+002 -7.032431e+001 9.811655e+001 -6.832623e+001 1.007646e+002 -2.638360e-001 1.370514e+002
536240090.60023 -5.725273e-001 1.637470e+002 -6.829511e+001 9.932038e+001 -7.017977e+001 8.709247e+001 -2.601023e-001 1.367605e+002
536617591.54398 -5.830046e-001 1.635176e+002 -6.778616e+001 1.055831e+002 -7.077448e+001 8.711496e+001 -2.551528e-001 1.364863e+002
536995092.48773 -5.879868e-001 1.632945e+002 -6.763245e+001 1.042730e+002 -7.110641e+001 1.038323e+002 -2.518655e-001 1.362342e+002
537372593.43148 -5.928934e-001 1.630228e+002 -6.863583e+001 1.086427e+002 -7.022527e+001 1.026254e+002 -2.410239e-001 1.360112e+002
537750094.37524 -5.941288e-001 1.628005e+002 -6.795138e+001 1.091367e+002 -6.989962e+001 9.545892e+001 -2.367892e-001 1.357705e+002
538127595.31899 -6.040855e-001 1.625611e+002 -6.673235e+001 1.091335e+002 -6.888977e+001 8.715857e+001 -2.325761e-001 1.355519e+002
538505096.26274 -6.123162e-001 1.623642e+002 -6.768605e+001 9.439943e+001 -6.891644e+001 8.304790e+001 -2.217331e-001 1.354117e+002
538882597.20649 -6.151027e-001 1.621343e+002 -6.823858e+001 8.483033e+001 -6.941727e+001 9.391416e+001 -2.152267e-001 1.351858e+002
539260098.15025 -6.209292e-001 1.618583e+002 -6.745891e+001 9.357655e+001 -7.042361e+001 8.737520e+001 -2.070626e-001 1.350480e+002
539637599.094 -6.268954e-001 1.616738e+002 -6.721046e+001 9.196760e+001 -6.885587e+001 8.615462e+001 -2.005876e-001 1.348933e+002
540015100.03775 -6.330668e-001 1.614776e+002 -6.668250e+001 9.828870e+001 -6.781043e+001 7.559083e+001 -1.880569e-001 1.348730e+002
540392600.9815 -6.377783e-001 1.612045e+002 -6.880085e+001 9.809278e+001 -6.863667e+001 8.410362e+001 -1.839426e-001 1.347168e+002
540770101.92525 -6.440520e-001 1.609343e+002 -6.823134e+001 9.370251e+001 -7.031664e+001 8.264793e+001 -1.748111e-001 1.346624e+002
541147602.86901 -6.476717e-001 1.607223e+002 -6.707935e+001 9.553314e+001 -6.867683e+001 7.559444e+001 -1.673989e-001 1.346122e+002
541525103.81276 -6.530228e-001 1.605012e+002 -6.982039e+001 9.399088e+001 -6.706424e+001 7.587363e+001 -1.594251e-001 1.345784e+002
541902604.75651 -6.554332e-001 1.602440e+002 -6.642648e+001 9.651889e+001 -6.941569e+001 7.404200e+001 -1.554406e-001 1.345584e+002
542280105.70026 -6.620471e-001 1.600273e+002 -6.635942e+001 8.179919e+001 -6.926508e+001 7.499300e+001 -1.442180e-001 1.345662e+002
542657606.64402 -6.690726e-001 1.597789e+002 -6.752827e+001 8.896165e+001 -6.777931e+001 7.969588e+001 -1.416721e-001 1.345784e+002
543035107.58777 -6.722997e-001 1.595491e+002 -6.685642e+001 9.066594e+001 -6.831363e+001 6.903941e+001 -1.335406e-001 1.346230e+002
543412608.53152 -6.812642e-001 1.593129e+002 -6.737039e+001 8.672938e+001 -6.719825e+001 7.912321e+001 -1.293659e-001 1.346715e+002
543790109.47527 -6.846951e-001 1.590778e+002 -6.628721e+001 8.664059e+001 -6.773685e+001 8.075074e+001 -1.237686e-001 1.346731e+002
544167610.41903 -6.904716e-001 1.588232e+002 -6.720493e+001 8.721871e+001 -6.822601e+001 7.109948e+001 -1.176119e-001 1.347960e+002
544545111.36278 -6.934488e-001 1.586023e+002 -6.724384e+001 8.390370e+001 -6.848343e+001 7.145276e+001 -1.188606e-001 1.348784e+002
544922612.30653 -7.013713e-001 1.583292e+002 -6.560522e+001 8.347762e+001 -6.725900e+001 6.685354e+001 -1.096198e-001 1.349910e+002
545300113.25028 -7.103782e-001 1.581024e+002 -6.632925e+001 7.902566e+001 -6.745563e+001 6.657149e+001 -1.090163e-001 1.350750e+002
545677614.19404 -7.117065e-001 1.578427e+002 -6.642953e+001 7.026693e+001 -6.639731e+001 6.448248e+001 -1.065621e-001 1.351734e+002
546055115.13779 -7.205487e-001 1.575726e+002 -6.625558e+001 6.949442e+001 -6.662624e+001 5.982804e+001 -1.082247e-001 1.353038e+002
546432616.08154 -7.267144e-001 1.573085e+002 -6.661543e+001 6.982468e+001 -6.668140e+001 5.328512e+001 -1.048428e-001 1.353682e+002
546810117.02529 -7.365077e-001 1.570385e+002 -6.529374e+001 6.747860e+001 -6.700280e+001 5.945865e+001 -1.050727e-001 1.355349e+002
547187617.96904 -7.459578e-001 1.567925e+002 -6.499622e+001 6.749957e+001 -6.631388e+001 5.455153e+001 -1.035325e-001 1.356452e+002
547565118.9128 -7.559845e-001 1.565147e+002 -6.625267e+001 7.990718e+001 -6.629185e+001 5.849326e+001 -1.066374e-001 1.357551e+002
547942619.85655 -7.681026e-001 1.562967e+002 -6.556544e+001 6.957541e+001 -6.583950e+001 5.597251e+001 -1.096288e-001 1.358549e+002
548320120.8003 -7.793881e-001 1.560026e+002 -6.670751e+001 6.573705e+001 -6.715093e+001 4.885775e+001 -1.116471e-001 1.359676e+002
548697621.74405 -7.896557e-001 1.557596e+002 -6.767338e+001 5.892186e+001 -6.714264e+001 4.059204e+001 -1.139605e-001 1.360608e+002
549075122.68781 -8.041418e-001 1.555138e+002 -6.669540e+001 5.998633e+001 -6.655019e+001 4.956095e+001 -1.162150e-001 1.362150e+002
549452623.63156 -8.178511e-001 1.552848e+002 -6.621577e+001 6.011436e+001 -6.588783e+001 4.827315e+001 -1.225313e-001 1.362415e+002
549830124.57531 -8.261716e-001 1.550542e+002 -6.525614e+001 6.182134e+001 -6.622725e+001 4.339206e+001 -1.268452e-001 1.363358e+002
550207625.51906 -8.379158e-001 1.547938e+002 -6.482622e+001 5.748563e+001 -6.627771e+001 4.155323e+001 -1.316026e-001 1.364134e+002
550585126.46282 -8.507813e-001 1.545742e+002 -6.638954e+001 6.152294e+001 -6.718855e+001 4.711261e+001 -1.371198e-001 1.364599e+002
550962627.40657 -8.588237e-001 1.543208e+002 -6.679629e+001 6.203125e+001 -6.846238e+001 3.828524e+001 -1.451096e-001 1.365022e+002
551340128.35032 -8.643078e-001 1.540865e+002 -6.473280e+001 6.265056e+001 -6.609192e+001 5.019949e+001 -1.525683e-001 1.365098e+002
551717629.29407 -8.791629e-001 1.538490e+002 -6.606586e+001 6.727843e+001 -6.641936e+001 3.880412e+001 -1.558141e-001 1.365633e+002
552095130.23783 -8.900187e-001 1.536036e+002 -6.538830e+001 5.427222e+001 -6.652845e+001 5.078529e+001 -1.606719e-001 1.365667e+002
552472631.18158 -8.976330e-001 1.533545e+002 -6.545922e+001 5.733017e+001 -6.716605e+001 3.393203e+001 -1.678744e-001 1.365675e+002
552850132.12533 -9.063793e-001 1.530808e+002 -6.639615e+001 5.327953e+001 -6.517416e+001 4.371437e+001 -1.775878e-001 1.365326e+002
553227633.06908 -9.202943e-001 1.528261e+002 -6.564816e+001 5.029288e+001 -6.637583e+001 3.327468e+001 -1.857526e-001 1.364993e+002
553605134.01284 -9.323124e-001 1.525766e+002 -6.527988e+001 5.047626e+001 -6.603768e+001 4.405371e+001 -1.904275e-001 1.364324e+002
553982634.95659 -9.440148e-001 1.523105e+002 -6.500841e+001 5.111150e+001 -6.597049e+001 3.841585e+001 -2.015787e-001 1.363920e+002
554360135.90034 -9.572309e-001 1.520777e+002 -6.414214e+001 4.387529e+001 -6.564479e+001 3.969097e+001 -2.097942e-001 1.363041e+002
554737636.84409 -9.703372e-001 1.518453e+002 -6.480932e+001 4.376071e+001 -6.519490e+001 3.617032e+001 -2.166555e-001 1.362040e+002
555115137.78784 -9.850700e-001 1.516513e+002 -6.413277e+001 3.861849e+001 -6.515468e+001 3.275383e+001 -2.224636e-001 1.360646e+002
555492638.7316 -9.963511e-001 1.513755e+002 -6.486739e+001 4.362822e+001 -6.553663e+001 2.747190e+001 -2.292162e-001 1.359544e+002
555870139.67535 -1.003286e+000 1.511451e+002 -6.543198e+001 4.229826e+001 -6.465836e+001 3.593075e+001 -2.341657e-001 1.358314e+002
