!Agilent Technologies,E8364B,US42250235,A.06.04.32
!Agilent E8364B: A.06.04.32
!Date: Thursday, October 01, 2020 15:52:48
!Correction: S11(Full 2 Port(1,2)) S21(Full 2 Port(1,2)) S12(Full 2 Port(1,2)) S22(Full 2 Port(1,2)) 
!S2P File: Measurements: S11, S21, S12, S22:
# Hz S  dB   R 50
500000000 -1.706939e-001 -1.753459e+002 -7.286757e+001 -5.074442e+001 -7.748049e+001 -3.928043e+001 4.165452e-002 1.436171e+002
500377500.94375 -1.699246e-001 -1.755506e+002 -7.620674e+001 -2.131278e+001 -7.421895e+001 -3.111802e+001 3.925667e-002 1.437996e+002
500755001.8875 -1.721506e-001 -1.757687e+002 -7.253125e+001 -4.300616e+001 -7.647285e+001 -3.664617e+001 4.269030e-002 1.438994e+002
501132502.83126 -1.762750e-001 -1.759195e+002 -7.225637e+001 -4.468423e+001 -7.594128e+001 -4.039508e+001 3.849477e-002 1.440394e+002
501510003.77501 -1.763925e-001 -1.761354e+002 -7.608472e+001 -1.898338e+001 -7.955276e+001 -1.376599e+001 3.486708e-002 1.441578e+002
501887504.71876 -1.774694e-001 -1.764276e+002 -7.261263e+001 -3.018445e+001 -7.275782e+001 -4.395004e+001 3.240970e-002 1.442549e+002
502265005.66251 -1.794402e-001 -1.766144e+002 -7.272308e+001 -4.208300e+001 -7.395524e+001 -2.045439e+001 2.944462e-002 1.443752e+002
502642506.60627 -1.784423e-001 -1.768384e+002 -7.044485e+001 -4.776930e+001 -7.259446e+001 -4.777971e+001 2.375212e-002 1.444812e+002
503020007.55002 -1.850148e-001 -1.770459e+002 -7.358579e+001 -4.105783e+001 -7.535491e+001 -3.903761e+001 1.963758e-002 1.445173e+002
503397508.49377 -1.833998e-001 -1.772548e+002 -7.595934e+001 -4.080114e+001 -7.673524e+001 -3.357691e+001 1.747733e-002 1.445698e+002
503775009.43752 -1.871935e-001 -1.774615e+002 -7.398599e+001 -3.974903e+001 -7.560123e+001 -3.339634e+001 9.603462e-003 1.446234e+002
504152510.38128 -1.891693e-001 -1.776712e+002 -7.325957e+001 -4.365061e+001 -7.418697e+001 -3.885991e+001 2.186133e-003 1.446378e+002
504530011.32503 -1.898366e-001 -1.778890e+002 -7.227965e+001 -3.167166e+001 -7.244698e+001 -4.214838e+001 -6.198732e-003 1.446764e+002
504907512.26878 -1.964490e-001 -1.781046e+002 -7.183077e+001 -4.643414e+001 -7.859443e+001 -2.595980e+001 -1.122199e-002 1.446732e+002
505285013.21253 -1.983429e-001 -1.782910e+002 -7.298383e+001 -4.694211e+001 -7.720071e+001 -4.929251e+001 -1.419743e-002 1.446701e+002
505662514.15629 -1.958874e-001 -1.785145e+002 -7.084712e+001 -3.898322e+001 -7.452563e+001 -4.089825e+001 -2.022647e-002 1.446234e+002
506040015.10004 -2.024431e-001 -1.787093e+002 -7.109280e+001 -4.404179e+001 -7.117715e+001 -4.374784e+001 -2.871565e-002 1.445567e+002
506417516.04379 -2.039095e-001 -1.789492e+002 -7.320100e+001 -4.077220e+001 -7.366666e+001 -3.370122e+001 -3.647658e-002 1.444816e+002
506795016.98754 -2.093687e-001 -1.791281e+002 -7.244326e+001 -4.884114e+001 -7.411567e+001 -4.534880e+001 -4.263672e-002 1.443685e+002
507172517.93129 -2.097742e-001 -1.793797e+002 -7.119269e+001 -4.166065e+001 -7.266631e+001 -3.085536e+001 -4.308009e-002 1.442734e+002
507550018.87505 -2.108380e-001 -1.795965e+002 -7.113998e+001 -3.885668e+001 -7.576533e+001 -3.449400e+001 -5.438518e-002 1.441580e+002
507927519.8188 -2.160572e-001 -1.797854e+002 -7.298313e+001 -4.302956e+001 -7.484044e+001 -3.748088e+001 -6.034989e-002 1.440075e+002
508305020.76255 -2.173339e-001 1.799575e+002 -6.966500e+001 -4.705182e+001 -7.298362e+001 -4.435949e+001 -6.353820e-002 1.438213e+002
508682521.7063 -2.182377e-001 1.797002e+002 -7.171803e+001 -4.085515e+001 -7.354384e+001 -3.987286e+001 -7.182530e-002 1.436118e+002
509060022.65006 -2.251434e-001 1.795029e+002 -7.053324e+001 -4.214867e+001 -7.344510e+001 -4.773492e+001 -7.664984e-002 1.434354e+002
509437523.59381 -2.261654e-001 1.792539e+002 -7.033813e+001 -3.790567e+001 -7.160841e+001 -4.197296e+001 -7.747106e-002 1.432308e+002
509815024.53756 -2.282376e-001 1.790520e+002 -7.092462e+001 -3.534470e+001 -7.245413e+001 -6.563377e+001 -8.095282e-002 1.429934e+002
510192525.48131 -2.281788e-001 1.788289e+002 -7.007677e+001 -5.214822e+001 -7.109677e+001 -4.593697e+001 -8.080144e-002 1.427729e+002
510570026.42507 -2.364290e-001 1.786291e+002 -6.878152e+001 -4.578133e+001 -7.069186e+001 -4.790459e+001 -8.499663e-002 1.425251e+002
510947527.36882 -2.351283e-001 1.783758e+002 -6.884447e+001 -5.011046e+001 -7.179456e+001 -5.853469e+001 -8.777056e-002 1.422940e+002
511325028.31257 -2.385282e-001 1.781618e+002 -7.022305e+001 -5.529976e+001 -7.053895e+001 -5.283153e+001 -8.873945e-002 1.420364e+002
511702529.25632 -2.383599e-001 1.778807e+002 -7.169582e+001 -5.210442e+001 -7.180809e+001 -4.400146e+001 -8.750080e-002 1.417886e+002
512080030.20008 -2.445765e-001 1.777000e+002 -7.070309e+001 -6.420449e+001 -7.503500e+001 -6.199835e+001 -8.726197e-002 1.415223e+002
512457531.14383 -2.500300e-001 1.774564e+002 -7.073746e+001 -6.583232e+001 -7.300629e+001 -5.937550e+001 -8.597615e-002 1.412865e+002
512835032.08758 -2.544611e-001 1.772069e+002 -7.120154e+001 -6.892161e+001 -7.205368e+001 -5.712715e+001 -8.340967e-002 1.410280e+002
513212533.03133 -2.520170e-001 1.769557e+002 -6.884278e+001 -6.497978e+001 -6.957542e+001 -6.314639e+001 -8.051610e-002 1.407692e+002
513590033.97508 -2.591395e-001 1.767225e+002 -6.918341e+001 -6.542388e+001 -7.133395e+001 -6.241817e+001 -7.720933e-002 1.405701e+002
513967534.91884 -2.644309e-001 1.765231e+002 -7.058360e+001 -6.087358e+001 -6.978991e+001 -6.256242e+001 -7.020504e-002 1.403516e+002
514345035.86259 -2.622626e-001 1.762299e+002 -6.866977e+001 -6.462789e+001 -7.139574e+001 -4.467459e+001 -6.697789e-002 1.401425e+002
514722536.80634 -2.690946e-001 1.760658e+002 -6.908175e+001 -6.499897e+001 -7.312835e+001 -6.142103e+001 -6.248610e-002 1.399655e+002
515100037.75009 -2.645547e-001 1.758511e+002 -6.770905e+001 -5.861509e+001 -7.173878e+001 -4.786324e+001 -5.570858e-002 1.397953e+002
515477538.69385 -2.724351e-001 1.755860e+002 -6.858852e+001 -7.454932e+001 -7.017683e+001 -5.870824e+001 -5.058631e-002 1.396441e+002
515855039.6376 -2.752841e-001 1.753668e+002 -6.847884e+001 -6.427686e+001 -7.109216e+001 -7.622230e+001 -4.146514e-002 1.395302e+002
516232540.58135 -2.782182e-001 1.751478e+002 -7.030112e+001 -7.644929e+001 -7.005537e+001 -6.051891e+001 -3.521936e-002 1.394187e+002
516610041.5251 -2.850586e-001 1.749122e+002 -6.915964e+001 -5.795707e+001 -6.932625e+001 -6.598255e+001 -2.993194e-002 1.393448e+002
516987542.46886 -2.844381e-001 1.746527e+002 -6.748651e+001 -6.598529e+001 -7.087209e+001 -7.316370e+001 -2.434451e-002 1.392697e+002
517365043.41261 -2.884642e-001 1.744469e+002 -6.729167e+001 -6.492516e+001 -7.177827e+001 -7.085892e+001 -1.748320e-002 1.391894e+002
517742544.35636 -2.927988e-001 1.742003e+002 -6.906110e+001 -7.923370e+001 -7.057984e+001 -6.622784e+001 -8.718897e-003 1.392096e+002
518120045.30011 -2.975523e-001 1.739635e+002 -6.668627e+001 -8.011254e+001 -6.964480e+001 -7.626486e+001 -9.841601e-004 1.392030e+002
518497546.24387 -2.985289e-001 1.737753e+002 -6.923254e+001 -7.196337e+001 -7.033391e+001 -6.603017e+001 7.983507e-003 1.392425e+002
518875047.18762 -3.049009e-001 1.734956e+002 -6.800768e+001 -7.801775e+001 -7.143531e+001 -6.329003e+001 1.647734e-002 1.392914e+002
519252548.13137 -3.119046e-001 1.733023e+002 -6.761781e+001 -6.900127e+001 -7.072529e+001 -5.976911e+001 1.980906e-002 1.393527e+002
519630049.07512 -3.169609e-001 1.730079e+002 -6.855148e+001 -7.587302e+001 -6.961040e+001 -6.838841e+001 2.549123e-002 1.394395e+002
520007550.01888 -3.215431e-001 1.727346e+002 -6.698166e+001 -8.491151e+001 -7.109225e+001 -7.108238e+001 2.725812e-002 1.395667e+002
520385050.96263 -3.258029e-001 1.725580e+002 -6.727329e+001 -6.835726e+001 -6.965508e+001 -8.211077e+001 3.249811e-002 1.396696e+002
520762551.90638 -3.308827e-001 1.723078e+002 -6.879042e+001 -6.857652e+001 -6.966539e+001 -7.721561e+001 3.980674e-002 1.398092e+002
521140052.85013 -3.386903e-001 1.720975e+002 -6.589513e+001 -8.049679e+001 -7.356291e+001 -7.689343e+001 4.262285e-002 1.399330e+002
521517553.79388 -3.455897e-001 1.718743e+002 -6.576981e+001 -8.275213e+001 -6.956030e+001 -7.048917e+001 4.780615e-002 1.401215e+002
521895054.73764 -3.446380e-001 1.715888e+002 -6.769748e+001 -8.521009e+001 -6.997080e+001 -7.166717e+001 4.624620e-002 1.402797e+002
522272555.68139 -3.537243e-001 1.713598e+002 -6.796712e+001 -7.538001e+001 -6.797347e+001 -8.666889e+001 4.596294e-002 1.404468e+002
522650056.62514 -3.620273e-001 1.711217e+002 -6.798041e+001 -7.865994e+001 -6.924982e+001 -7.522339e+001 4.465754e-002 1.406200e+002
523027557.56889 -3.693716e-001 1.709335e+002 -6.751537e+001 -7.897334e+001 -7.044022e+001 -7.693613e+001 4.524877e-002 1.408181e+002
523405058.51265 -3.704042e-001 1.706282e+002 -6.811015e+001 -7.103461e+001 -6.982636e+001 -7.506119e+001 4.398033e-002 1.410427e+002
523782559.4564 -3.790349e-001 1.704088e+002 -6.686884e+001 -8.459698e+001 -6.937131e+001 -8.112223e+001 4.228998e-002 1.411674e+002
524160060.40015 -3.859641e-001 1.701628e+002 -6.679983e+001 -9.448564e+001 -6.662669e+001 -8.466819e+001 4.172393e-002 1.413289e+002
524537561.3439 -3.898152e-001 1.699353e+002 -6.453019e+001 -8.242901e+001 -7.045128e+001 -8.399610e+001 3.568307e-002 1.415017e+002
524915062.28766 -3.994722e-001 1.697150e+002 -6.608874e+001 -8.767863e+001 -6.685828e+001 -8.218196e+001 3.465696e-002 1.416654e+002
525292563.23141 -4.060930e-001 1.693891e+002 -6.674767e+001 -9.660892e+001 -6.611143e+001 -8.436349e+001 2.673360e-002 1.417931e+002
525670064.17516 -4.080870e-001 1.691885e+002 -6.494879e+001 -8.891314e+001 -6.703355e+001 -9.031281e+001 2.312540e-002 1.419059e+002
526047565.11891 -4.174936e-001 1.689230e+002 -6.564044e+001 -8.039153e+001 -6.806697e+001 -9.599959e+001 1.414532e-002 1.420134e+002
526425066.06267 -4.266663e-001 1.686581e+002 -6.507138e+001 -8.851662e+001 -6.855221e+001 -8.715888e+001 2.269158e-003 1.421022e+002
526802567.00642 -4.314432e-001 1.684399e+002 -6.572102e+001 -9.264164e+001 -6.726929e+001 -8.224355e+001 -3.443970e-003 1.421840e+002
527180067.95017 -4.416745e-001 1.681772e+002 -6.613126e+001 -9.817584e+001 -6.933533e+001 -9.525111e+001 -1.062626e-002 1.422271e+002
527557568.89392 -4.451068e-001 1.679319e+002 -6.547939e+001 -9.104716e+001 -6.597681e+001 -8.795200e+001 -1.766771e-002 1.422315e+002
527935069.83767 -4.546518e-001 1.677021e+002 -6.435195e+001 -9.604132e+001 -6.788445e+001 -9.585643e+001 -2.590516e-002 1.422591e+002
528312570.78143 -4.649315e-001 1.674634e+002 -6.628644e+001 -1.022437e+002 -6.757920e+001 -8.800789e+001 -3.717259e-002 1.422382e+002
528690071.72518 -4.650629e-001 1.672059e+002 -6.398303e+001 -9.292963e+001 -6.615260e+001 -9.123370e+001 -4.082086e-002 1.422054e+002
529067572.66893 -4.757158e-001 1.669374e+002 -6.480685e+001 -1.028272e+002 -6.614635e+001 -9.584978e+001 -5.319902e-002 1.421013e+002
529445073.61268 -4.797502e-001 1.666930e+002 -6.495758e+001 -9.821320e+001 -6.704279e+001 -9.793584e+001 -6.121856e-002 1.420708e+002
529822574.55644 -4.866386e-001 1.664220e+002 -6.554500e+001 -1.089135e+002 -6.665723e+001 -9.368079e+001 -7.193269e-002 1.419262e+002
530200075.50019 -4.954317e-001 1.661167e+002 -6.573957e+001 -9.602217e+001 -6.669773e+001 -9.993911e+001 -7.640700e-002 1.417946e+002
530577576.44394 -5.091755e-001 1.659033e+002 -6.477451e+001 -9.684380e+001 -6.663696e+001 -9.607160e+001 -8.870427e-002 1.416198e+002
530955077.38769 -5.174733e-001 1.655867e+002 -6.513485e+001 -1.055020e+002 -6.621093e+001 -9.385445e+001 -9.781517e-002 1.414525e+002
531332578.33145 -5.244634e-001 1.653568e+002 -6.484374e+001 -1.007341e+002 -6.661762e+001 -9.733463e+001 -1.039419e-001 1.412570e+002
531710079.2752 -5.350543e-001 1.650564e+002 -6.507526e+001 -1.074127e+002 -6.700143e+001 -1.034917e+002 -1.160136e-001 1.410171e+002
532087580.21895 -5.452269e-001 1.648420e+002 -6.486385e+001 -1.097398e+002 -6.668591e+001 -9.778186e+001 -1.156074e-001 1.407883e+002
532465081.1627 -5.578040e-001 1.645579e+002 -6.444080e+001 -1.134749e+002 -6.633430e+001 -1.001178e+002 -1.200996e-001 1.404861e+002
532842582.10646 -5.667049e-001 1.643119e+002 -6.454850e+001 -1.066209e+002 -6.644471e+001 -9.649289e+001 -1.287437e-001 1.402663e+002
533220083.05021 -5.798095e-001 1.640995e+002 -6.377211e+001 -1.036086e+002 -6.545856e+001 -9.874350e+001 -1.320521e-001 1.399990e+002
533597583.99396 -5.894930e-001 1.637839e+002 -6.404461e+001 -1.065172e+002 -6.554018e+001 -1.015996e+002 -1.343014e-001 1.397584e+002
533975084.93771 -6.029130e-001 1.634963e+002 -6.469736e+001 -1.151122e+002 -6.674802e+001 -1.047253e+002 -1.357748e-001 1.394271e+002
534352585.88146 -6.172467e-001 1.633285e+002 -6.326309e+001 -1.077502e+002 -6.582214e+001 -1.073160e+002 -1.374310e-001 1.391436e+002
534730086.82522 -6.296469e-001 1.630363e+002 -6.425230e+001 -1.113841e+002 -6.494061e+001 -1.064222e+002 -1.378954e-001 1.388543e+002
535107587.76897 -6.400217e-001 1.628278e+002 -6.357513e+001 -1.124758e+002 -6.586788e+001 -1.043616e+002 -1.405482e-001 1.385627e+002
535485088.71272 -6.506787e-001 1.625320e+002 -6.336634e+001 -1.172232e+002 -6.557280e+001 -1.069572e+002 -1.380430e-001 1.382741e+002
535862589.65647 -6.637843e-001 1.622447e+002 -6.349393e+001 -1.108130e+002 -6.584257e+001 -1.080880e+002 -1.344171e-001 1.379780e+002
536240090.60023 -6.750091e-001 1.620703e+002 -6.374706e+001 -1.219485e+002 -6.550957e+001 -1.096666e+002 -1.321633e-001 1.377142e+002
536617591.54398 -6.879530e-001 1.617769e+002 -6.346344e+001 -1.219143e+002 -6.530388e+001 -1.169517e+002 -1.261663e-001 1.374200e+002
536995092.48773 -7.053668e-001 1.615833e+002 -6.438232e+001 -1.206373e+002 -6.498321e+001 -1.058487e+002 -1.216075e-001 1.372022e+002
537372593.43148 -7.159226e-001 1.612873e+002 -6.327134e+001 -1.141227e+002 -6.527613e+001 -1.134197e+002 -1.145856e-001 1.369627e+002
537750094.37524 -7.257174e-001 1.610336e+002 -6.350726e+001 -1.110691e+002 -6.506810e+001 -1.143416e+002 -1.095337e-001 1.367583e+002
538127595.31899 -7.396257e-001 1.608406e+002 -6.356107e+001 -1.220481e+002 -6.623910e+001 -1.195404e+002 -1.039694e-001 1.365464e+002
538505096.26274 -7.505536e-001 1.605662e+002 -6.292962e+001 -1.176410e+002 -6.417078e+001 -1.163111e+002 -9.345584e-002 1.364085e+002
538882597.20649 -7.663543e-001 1.603623e+002 -6.333647e+001 -1.198787e+002 -6.541074e+001 -1.148354e+002 -8.551217e-002 1.362079e+002
539260098.15025 -7.814091e-001 1.600904e+002 -6.183171e+001 -1.179609e+002 -6.435664e+001 -1.202208e+002 -7.712670e-002 1.360766e+002
539637599.094 -7.953483e-001 1.598110e+002 -6.333770e+001 -1.275926e+002 -6.466255e+001 -1.200030e+002 -7.373033e-002 1.359301e+002
540015100.03775 -8.108656e-001 1.596159e+002 -6.299582e+001 -1.257922e+002 -6.447409e+001 -1.174386e+002 -6.247655e-002 1.359091e+002
540392600.9815 -8.208027e-001 1.593933e+002 -6.244318e+001 -1.268817e+002 -6.430348e+001 -1.236600e+002 -5.691608e-002 1.357519e+002
540770101.92525 -8.402861e-001 1.591419e+002 -6.247218e+001 -1.235311e+002 -6.473507e+001 -1.213402e+002 -4.622452e-002 1.357025e+002
541147602.86901 -8.483261e-001 1.589103e+002 -6.162697e+001 -1.297328e+002 -6.469930e+001 -1.238674e+002 -3.931585e-002 1.356564e+002
541525103.81276 -8.618036e-001 1.586547e+002 -6.266204e+001 -1.289440e+002 -6.445664e+001 -1.259090e+002 -3.188165e-002 1.356486e+002
541902604.75651 -8.796681e-001 1.585085e+002 -6.188533e+001 -1.295452e+002 -6.448023e+001 -1.274215e+002 -2.713713e-002 1.356407e+002
542280105.70026 -8.962887e-001 1.582580e+002 -6.229133e+001 -1.317826e+002 -6.471111e+001 -1.298217e+002 -1.466928e-002 1.356416e+002
542657606.64402 -9.085702e-001 1.579712e+002 -6.211854e+001 -1.350600e+002 -6.441100e+001 -1.293514e+002 -1.339245e-002 1.356869e+002
543035107.58777 -9.198070e-001 1.577904e+002 -6.137300e+001 -1.342231e+002 -6.416159e+001 -1.287333e+002 -5.841273e-003 1.357406e+002
543412608.53152 -9.370454e-001 1.575435e+002 -6.171671e+001 -1.400935e+002 -6.454062e+001 -1.347846e+002 -5.942038e-004 1.357835e+002
543790109.47527 -9.500420e-001 1.573494e+002 -6.179011e+001 -1.361575e+002 -6.404866e+001 -1.278008e+002 3.512800e-003 1.358533e+002
544167610.41903 -9.696616e-001 1.571411e+002 -6.157633e+001 -1.378536e+002 -6.494052e+001 -1.263472e+002 1.124418e-002 1.359512e+002
544545111.36278 -9.775431e-001 1.569129e+002 -6.169688e+001 -1.365690e+002 -6.474274e+001 -1.358975e+002 1.205795e-002 1.360503e+002
544922612.30653 -9.982230e-001 1.566871e+002 -6.131776e+001 -1.385453e+002 -6.433882e+001 -1.321299e+002 2.033525e-002 1.361601e+002
545300113.25028 -1.011393e+000 1.564270e+002 -6.144199e+001 -1.396101e+002 -6.540665e+001 -1.286492e+002 2.103885e-002 1.362691e+002
545677614.19404 -1.028297e+000 1.562717e+002 -6.077218e+001 -1.399297e+002 -6.440869e+001 -1.254964e+002 2.138284e-002 1.363867e+002
546055115.13779 -1.042848e+000 1.560316e+002 -6.151288e+001 -1.392985e+002 -6.376830e+001 -1.273889e+002 2.267971e-002 1.365443e+002
546432616.08154 -1.060373e+000 1.558189e+002 -6.105408e+001 -1.355251e+002 -6.337362e+001 -1.251664e+002 2.351106e-002 1.366564e+002
546810117.02529 -1.073648e+000 1.555328e+002 -6.115707e+001 -1.333937e+002 -6.363948e+001 -1.308289e+002 2.602445e-002 1.368044e+002
547187617.96904 -1.092316e+000 1.553954e+002 -6.033359e+001 -1.385369e+002 -6.366921e+001 -1.254237e+002 2.992408e-002 1.369251e+002
547565118.9128 -1.110204e+000 1.551297e+002 -6.081115e+001 -1.412320e+002 -6.318037e+001 -1.295492e+002 2.661396e-002 1.370491e+002
547942619.85655 -1.132476e+000 1.549004e+002 -6.093542e+001 -1.411902e+002 -6.260289e+001 -1.265394e+002 2.785498e-002 1.371814e+002
548320120.8003 -1.153392e+000 1.546902e+002 -5.998248e+001 -1.448424e+002 -6.175274e+001 -1.306768e+002 2.544332e-002 1.373072e+002
548697621.74405 -1.171685e+000 1.544963e+002 -6.052306e+001 -1.468211e+002 -6.213313e+001 -1.327158e+002 2.191609e-002 1.373463e+002
549075122.68781 -1.192902e+000 1.542976e+002 -6.001829e+001 -1.444534e+002 -6.156657e+001 -1.388477e+002 2.005591e-002 1.375814e+002
549452623.63156 -1.213438e+000 1.541322e+002 -5.950422e+001 -1.471966e+002 -6.146717e+001 -1.370051e+002 1.396145e-002 1.376231e+002
549830124.57531 -1.231357e+000 1.539390e+002 -5.957957e+001 -1.507497e+002 -6.188355e+001 -1.351868e+002 9.212021e-003 1.377346e+002
550207625.51906 -1.245093e+000 1.537596e+002 -5.931428e+001 -1.488747e+002 -6.132193e+001 -1.370936e+002 5.878220e-003 1.378083e+002
550585126.46282 -1.263181e+000 1.535436e+002 -5.962794e+001 -1.535176e+002 -6.146766e+001 -1.423431e+002 2.760173e-004 1.378869e+002
550962627.40657 -1.278356e+000 1.533979e+002 -5.878335e+001 -1.523954e+002 -6.124307e+001 -1.434311e+002 -4.046810e-003 1.379264e+002
551340128.35032 -1.292060e+000 1.532122e+002 -5.847277e+001 -1.568735e+002 -6.048821e+001 -1.462830e+002 -1.120233e-002 1.379463e+002
551717629.29407 -1.308724e+000 1.530116e+002 -5.926780e+001 -1.564412e+002 -6.088759e+001 -1.452582e+002 -1.673544e-002 1.380080e+002
552095130.23783 -1.317819e+000 1.528686e+002 -5.898489e+001 -1.596616e+002 -6.109010e+001 -1.466472e+002 -2.308229e-002 1.380140e+002
552472631.18158 -1.328691e+000 1.526396e+002 -5.893916e+001 -1.638312e+002 -6.058488e+001 -1.526681e+002 -3.109380e-002 1.380092e+002
552850132.12533 -1.338585e+000 1.524648e+002 -5.899902e+001 -1.627959e+002 -6.094497e+001 -1.526907e+002 -3.561196e-002 1.379897e+002
553227633.06908 -1.353455e+000 1.522658e+002 -5.866716e+001 -1.673261e+002 -6.075705e+001 -1.559466e+002 -4.539484e-002 1.379754e+002
553605134.01284 -1.364480e+000 1.520285e+002 -5.907020e+001 -1.686314e+002 -6.070127e+001 -1.575035e+002 -4.894519e-002 1.378903e+002
553982634.95659 -1.377728e+000 1.518338e+002 -5.844597e+001 -1.712336e+002 -6.053897e+001 -1.562331e+002 -5.866997e-002 1.378534e+002
554360135.90034 -1.391971e+000 1.516313e+002 -5.881290e+001 -1.724907e+002 -6.078424e+001 -1.600003e+002 -6.358335e-002 1.377756e+002
554737636.84409 -1.405066e+000 1.513863e+002 -5.855217e+001 -1.717000e+002 -6.090249e+001 -1.547111e+002 -7.023444e-002 1.376589e+002
555115137.78784 -1.419166e+000 1.511706e+002 -5.996268e+001 -1.713396e+002 -6.080836e+001 -1.627493e+002 -7.480662e-002 1.374730e+002
