!Agilent Technologies,E8364B,US42250235,A.06.04.32
!Agilent E8364B: A.06.04.32
!Date: Thursday, October 01, 2020 15:56:59
!Correction: S11(Full 2 Port(1,2)) S21(Full 2 Port(1,2)) S12(Full 2 Port(1,2)) S22(Full 2 Port(1,2)) 
!S2P File: Measurements: S11, S21, S12, S22:
# Hz S  dB   R 50
500000000 -3.125257e-001 -1.751000e+002 -6.621886e+001 -1.475076e+002 -6.608376e+001 -1.547206e+002 -4.668232e-002 1.423259e+002
500377500.94375 -3.155145e-001 -1.753669e+002 -6.686861e+001 -1.577595e+002 -6.545879e+001 -1.626048e+002 -4.599497e-002 1.425112e+002
500755001.8875 -3.202977e-001 -1.754543e+002 -6.684871e+001 -1.611380e+002 -6.670975e+001 -1.673362e+002 -4.560133e-002 1.426609e+002
501132502.83126 -3.240165e-001 -1.757056e+002 -6.534348e+001 -1.637723e+002 -6.599254e+001 -1.642518e+002 -5.187492e-002 1.427951e+002
501510003.77501 -3.291238e-001 -1.758794e+002 -6.645572e+001 -1.562183e+002 -6.558497e+001 -1.567424e+002 -5.606029e-002 1.429355e+002
501887504.71876 -3.330754e-001 -1.760538e+002 -6.793539e+001 -1.669601e+002 -6.580369e+001 -1.589141e+002 -5.800597e-002 1.430432e+002
502265005.66251 -3.355475e-001 -1.762667e+002 -6.637270e+001 -1.634000e+002 -6.549847e+001 -1.665113e+002 -6.184350e-002 1.431776e+002
502642506.60627 -3.371183e-001 -1.764166e+002 -6.637585e+001 -1.699878e+002 -6.481219e+001 -1.627896e+002 -6.930969e-002 1.433190e+002
503020007.55002 -3.416485e-001 -1.766595e+002 -6.664695e+001 -1.759046e+002 -6.411465e+001 -1.675065e+002 -7.352237e-002 1.433546e+002
503397508.49377 -3.460237e-001 -1.768239e+002 -6.571423e+001 -1.626226e+002 -6.530532e+001 -1.638133e+002 -7.523089e-002 1.434254e+002
503775009.43752 -3.432585e-001 -1.770499e+002 -6.622688e+001 -1.669484e+002 -6.497766e+001 -1.682483e+002 -8.666272e-002 1.434660e+002
504152510.38128 -3.511443e-001 -1.771986e+002 -6.680439e+001 -1.691321e+002 -6.514301e+001 -1.697903e+002 -9.373435e-002 1.434916e+002
504530011.32503 -3.520147e-001 -1.774355e+002 -6.699773e+001 -1.717345e+002 -6.495118e+001 -1.734962e+002 -1.024253e-001 1.435369e+002
504907512.26878 -3.582585e-001 -1.775738e+002 -6.632328e+001 -1.652833e+002 -6.528988e+001 -1.671221e+002 -1.089733e-001 1.435326e+002
505285013.21253 -3.636051e-001 -1.777013e+002 -6.563885e+001 -1.762683e+002 -6.506925e+001 -1.731579e+002 -1.181118e-001 1.435306e+002
505662514.15629 -3.610292e-001 -1.779247e+002 -6.526118e+001 -1.719070e+002 -6.475021e+001 -1.664245e+002 -1.217549e-001 1.435007e+002
506040015.10004 -3.652733e-001 -1.781245e+002 -6.567023e+001 1.789307e+002 -6.444359e+001 -1.690843e+002 -1.307155e-001 1.434325e+002
506417516.04379 -3.672452e-001 -1.783537e+002 -6.590539e+001 -1.799876e+002 -6.514780e+001 -1.728989e+002 -1.384940e-001 1.433457e+002
506795016.98754 -3.726883e-001 -1.784958e+002 -6.539080e+001 -1.784225e+002 -6.466454e+001 -1.704870e+002 -1.461601e-001 1.432309e+002
507172517.93129 -3.752168e-001 -1.786463e+002 -6.491418e+001 -1.749877e+002 -6.540392e+001 -1.778764e+002 -1.464438e-001 1.431333e+002
507550018.87505 -3.764870e-001 -1.788646e+002 -6.607453e+001 1.785291e+002 -6.416642e+001 -1.719670e+002 -1.588658e-001 1.429929e+002
507927519.8188 -3.813570e-001 -1.790351e+002 -6.533891e+001 -1.788077e+002 -6.415079e+001 -1.788813e+002 -1.666585e-001 1.428179e+002
508305020.76255 -3.796762e-001 -1.792873e+002 -6.657370e+001 1.793978e+002 -6.425002e+001 -1.734989e+002 -1.721286e-001 1.426600e+002
508682521.7063 -3.836007e-001 -1.794525e+002 -6.442558e+001 1.725516e+002 -6.412377e+001 1.726265e+002 -1.743027e-001 1.424295e+002
509060022.65006 -3.854951e-001 -1.796035e+002 -6.606145e+001 1.740164e+002 -6.468034e+001 -1.750737e+002 -1.816831e-001 1.422471e+002
509437523.59381 -3.873720e-001 -1.798463e+002 -6.643372e+001 1.716255e+002 -6.423860e+001 1.793586e+002 -1.816095e-001 1.420299e+002
509815024.53756 -3.870429e-001 1.799857e+002 -6.414390e+001 1.749748e+002 -6.413034e+001 1.716591e+002 -1.859256e-001 1.417943e+002
510192525.48131 -3.890853e-001 1.797937e+002 -6.417585e+001 1.722884e+002 -6.343979e+001 1.719549e+002 -1.889209e-001 1.415481e+002
510570026.42507 -3.928771e-001 1.795331e+002 -6.422086e+001 1.719202e+002 -6.380251e+001 1.735706e+002 -1.940224e-001 1.413149e+002
510947527.36882 -3.942347e-001 1.793710e+002 -6.491151e+001 1.662627e+002 -6.347662e+001 1.733476e+002 -1.934924e-001 1.410587e+002
511325028.31257 -3.997255e-001 1.791638e+002 -6.413454e+001 1.666688e+002 -6.396453e+001 1.658203e+002 -1.916348e-001 1.407912e+002
511702529.25632 -3.973205e-001 1.789657e+002 -6.453117e+001 1.727450e+002 -6.292950e+001 1.657632e+002 -1.957157e-001 1.405486e+002
512080030.20008 -4.009297e-001 1.787338e+002 -6.368830e+001 1.543239e+002 -6.434254e+001 1.707982e+002 -1.927532e-001 1.402908e+002
512457531.14383 -4.041842e-001 1.786220e+002 -6.438125e+001 1.632972e+002 -6.425446e+001 1.695857e+002 -1.897351e-001 1.400427e+002
512835032.08758 -4.062218e-001 1.784045e+002 -6.370624e+001 1.617038e+002 -6.303296e+001 1.674935e+002 -1.875716e-001 1.398053e+002
513212533.03133 -4.068136e-001 1.781138e+002 -6.416662e+001 1.550861e+002 -6.289998e+001 1.614122e+002 -1.829709e-001 1.395627e+002
513590033.97508 -4.071157e-001 1.779818e+002 -6.540971e+001 1.596371e+002 -6.280556e+001 1.599132e+002 -1.770131e-001 1.393541e+002
513967534.91884 -4.113216e-001 1.778163e+002 -6.388142e+001 1.557581e+002 -6.254020e+001 1.600589e+002 -1.701831e-001 1.391739e+002
514345035.86259 -4.081800e-001 1.775641e+002 -6.560786e+001 1.523832e+002 -6.399040e+001 1.554644e+002 -1.664572e-001 1.389677e+002
514722536.80634 -4.114980e-001 1.774198e+002 -6.536512e+001 1.541059e+002 -6.289079e+001 1.580062e+002 -1.620692e-001 1.387993e+002
515100037.75009 -4.110001e-001 1.771701e+002 -6.484756e+001 1.586256e+002 -6.310395e+001 1.563615e+002 -1.537092e-001 1.386652e+002
515477538.69385 -4.098778e-001 1.769495e+002 -6.426735e+001 1.528200e+002 -6.306090e+001 1.543009e+002 -1.468845e-001 1.385055e+002
515855039.6376 -4.151574e-001 1.767900e+002 -6.470229e+001 1.470242e+002 -6.316366e+001 1.470072e+002 -1.411050e-001 1.384139e+002
516232540.58135 -4.144351e-001 1.765405e+002 -6.410820e+001 1.547795e+002 -6.290817e+001 1.477286e+002 -1.324549e-001 1.383485e+002
516610041.5251 -4.183964e-001 1.763726e+002 -6.435091e+001 1.523540e+002 -6.291392e+001 1.500844e+002 -1.266748e-001 1.382726e+002
516987542.46886 -4.158317e-001 1.761381e+002 -6.361596e+001 1.471568e+002 -6.316101e+001 1.515523e+002 -1.217874e-001 1.382297e+002
517365043.41261 -4.186392e-001 1.759398e+002 -6.391581e+001 1.506822e+002 -6.270586e+001 1.512872e+002 -1.139761e-001 1.381900e+002
517742544.35636 -4.185691e-001 1.756823e+002 -6.421057e+001 1.474664e+002 -6.336711e+001 1.422453e+002 -1.062152e-001 1.382320e+002
518120045.30011 -4.223029e-001 1.755304e+002 -6.288688e+001 1.417302e+002 -6.316886e+001 1.472787e+002 -9.789271e-002 1.382650e+002
518497546.24387 -4.249176e-001 1.753157e+002 -6.444006e+001 1.447861e+002 -6.264832e+001 1.456598e+002 -9.052096e-002 1.383191e+002
518875047.18762 -4.293098e-001 1.751301e+002 -6.421229e+001 1.458970e+002 -6.304417e+001 1.432644e+002 -8.228725e-002 1.384085e+002
519252548.13137 -4.325882e-001 1.749156e+002 -6.378902e+001 1.440961e+002 -6.277810e+001 1.414237e+002 -7.760903e-002 1.385031e+002
519630049.07512 -4.337111e-001 1.747484e+002 -6.418879e+001 1.536366e+002 -6.395501e+001 1.420176e+002 -7.147852e-002 1.385626e+002
520007550.01888 -4.334973e-001 1.744815e+002 -6.322258e+001 1.426679e+002 -6.370337e+001 1.460208e+002 -7.008070e-002 1.387566e+002
520385050.96263 -4.355930e-001 1.743488e+002 -6.317805e+001 1.450049e+002 -6.391579e+001 1.436718e+002 -6.702380e-002 1.389025e+002
520762551.90638 -4.373839e-001 1.740942e+002 -6.498536e+001 1.312549e+002 -6.405025e+001 1.404687e+002 -6.167543e-002 1.390518e+002
521140052.85013 -4.367815e-001 1.738811e+002 -6.405424e+001 1.346524e+002 -6.313396e+001 1.390359e+002 -5.957641e-002 1.392256e+002
521517553.79388 -4.420859e-001 1.736692e+002 -6.351674e+001 1.312313e+002 -6.292295e+001 1.412420e+002 -5.576675e-002 1.394362e+002
521895054.73764 -4.420311e-001 1.734781e+002 -6.331304e+001 1.307074e+002 -6.341557e+001 1.378874e+002 -5.902280e-002 1.396069e+002
522272555.68139 -4.434101e-001 1.733200e+002 -6.349763e+001 1.279032e+002 -6.340962e+001 1.382476e+002 -5.440538e-002 1.398092e+002
522650056.62514 -4.458382e-001 1.730643e+002 -6.554651e+001 1.391148e+002 -6.329748e+001 1.376017e+002 -5.916939e-002 1.399756e+002
523027557.56889 -4.540127e-001 1.728706e+002 -6.452012e+001 1.289024e+002 -6.363340e+001 1.391574e+002 -5.714474e-002 1.402020e+002
523405058.51265 -4.472101e-001 1.726385e+002 -6.423688e+001 1.309296e+002 -6.372533e+001 1.346210e+002 -5.967682e-002 1.404267e+002
523782559.4564 -4.533585e-001 1.724599e+002 -6.514165e+001 1.338628e+002 -6.236036e+001 1.417271e+002 -6.443583e-002 1.405658e+002
524160060.40015 -4.556165e-001 1.722114e+002 -6.310800e+001 1.302282e+002 -6.299765e+001 1.292521e+002 -6.653181e-002 1.407516e+002
524537561.3439 -4.545604e-001 1.720200e+002 -6.347241e+001 1.297078e+002 -6.265511e+001 1.325690e+002 -7.588034e-002 1.409153e+002
524915062.28766 -4.619224e-001 1.717946e+002 -6.454195e+001 1.355503e+002 -6.297303e+001 1.320886e+002 -7.835359e-002 1.410737e+002
525292563.23141 -4.627642e-001 1.715746e+002 -6.389364e+001 1.345725e+002 -6.278157e+001 1.328068e+002 -8.591044e-002 1.412137e+002
525670064.17516 -4.636126e-001 1.713988e+002 -6.320715e+001 1.240927e+002 -6.237305e+001 1.325143e+002 -9.537778e-002 1.413492e+002
526047565.11891 -4.632453e-001 1.711720e+002 -6.346860e+001 1.225163e+002 -6.267047e+001 1.325798e+002 -1.009180e-001 1.414379e+002
526425066.06267 -4.689369e-001 1.709294e+002 -6.364605e+001 1.196016e+002 -6.222731e+001 1.261562e+002 -1.150809e-001 1.415513e+002
526802567.00642 -4.684671e-001 1.706683e+002 -6.291102e+001 1.277860e+002 -6.281868e+001 1.256748e+002 -1.201022e-001 1.416037e+002
527180067.95017 -4.712654e-001 1.704713e+002 -6.403065e+001 1.234186e+002 -6.180768e+001 1.286929e+002 -1.269872e-001 1.416461e+002
527557568.89392 -4.755297e-001 1.703111e+002 -6.428712e+001 1.218867e+002 -6.207951e+001 1.269457e+002 -1.329842e-001 1.416888e+002
527935069.83767 -4.800754e-001 1.700479e+002 -6.399879e+001 1.168038e+002 -6.185024e+001 1.234408e+002 -1.419534e-001 1.416842e+002
528312570.78143 -4.760152e-001 1.698206e+002 -6.331060e+001 1.145515e+002 -6.196716e+001 1.189726e+002 -1.516235e-001 1.416604e+002
528690071.72518 -4.810116e-001 1.696058e+002 -6.355016e+001 1.172384e+002 -6.229729e+001 1.227535e+002 -1.619930e-001 1.416095e+002
529067572.66893 -4.848615e-001 1.693713e+002 -6.346848e+001 1.188010e+002 -6.192581e+001 1.151373e+002 -1.734935e-001 1.415487e+002
529445073.61268 -4.838452e-001 1.692361e+002 -6.334282e+001 1.064957e+002 -6.189417e+001 1.172803e+002 -1.818975e-001 1.414491e+002
529822574.55644 -4.871042e-001 1.689296e+002 -6.366101e+001 1.085696e+002 -6.251396e+001 1.147904e+002 -1.939033e-001 1.413265e+002
530200075.50019 -4.870800e-001 1.687075e+002 -6.389046e+001 1.056707e+002 -6.190189e+001 1.132425e+002 -1.975717e-001 1.411715e+002
530577576.44394 -4.916572e-001 1.684409e+002 -6.328227e+001 1.133300e+002 -6.198829e+001 1.156618e+002 -2.108609e-001 1.410126e+002
530955077.38769 -4.929583e-001 1.682522e+002 -6.433802e+001 1.114198e+002 -6.230167e+001 1.139649e+002 -2.170905e-001 1.408363e+002
531332578.33145 -4.958169e-001 1.680761e+002 -6.375953e+001 1.121921e+002 -6.232027e+001 1.144594e+002 -2.238689e-001 1.406140e+002
531710079.2752 -4.993148e-001 1.677944e+002 -6.449214e+001 1.108441e+002 -6.234089e+001 1.138693e+002 -2.353421e-001 1.403736e+002
532087580.21895 -4.990429e-001 1.675803e+002 -6.399748e+001 1.139461e+002 -6.280511e+001 1.152312e+002 -2.352281e-001 1.401345e+002
532465081.1627 -5.016783e-001 1.673876e+002 -6.410713e+001 1.108686e+002 -6.213524e+001 1.107628e+002 -2.431041e-001 1.398277e+002
532842582.10646 -5.032703e-001 1.671571e+002 -6.432837e+001 1.061202e+002 -6.286208e+001 1.086031e+002 -2.446656e-001 1.396310e+002
533220083.05021 -5.047687e-001 1.668893e+002 -6.413593e+001 1.065311e+002 -6.246559e+001 1.115490e+002 -2.487145e-001 1.393362e+002
533597583.99396 -5.076126e-001 1.666462e+002 -6.353259e+001 1.008716e+002 -6.174302e+001 1.064101e+002 -2.501090e-001 1.391030e+002
533975084.93771 -5.114984e-001 1.664203e+002 -6.381789e+001 9.990036e+001 -6.205405e+001 1.119897e+002 -2.546972e-001 1.387844e+002
534352585.88146 -5.145654e-001 1.661889e+002 -6.508498e+001 9.694783e+001 -6.201857e+001 1.074773e+002 -2.514735e-001 1.384909e+002
534730086.82522 -5.202472e-001 1.659724e+002 -6.350681e+001 1.041438e+002 -6.201157e+001 1.026171e+002 -2.517329e-001 1.381458e+002
535107587.76897 -5.216375e-001 1.657329e+002 -6.352161e+001 1.111124e+002 -6.148817e+001 1.047809e+002 -2.508105e-001 1.379239e+002
535485088.71272 -5.199482e-001 1.654597e+002 -6.345534e+001 1.079687e+002 -6.259040e+001 1.063385e+002 -2.485742e-001 1.376227e+002
535862589.65647 -5.266487e-001 1.652794e+002 -6.271900e+001 1.017786e+002 -6.241600e+001 1.044909e+002 -2.462848e-001 1.373563e+002
536240090.60023 -5.249772e-001 1.650515e+002 -6.390158e+001 9.609229e+001 -6.144669e+001 1.050955e+002 -2.426534e-001 1.371062e+002
536617591.54398 -5.298160e-001 1.647874e+002 -6.427597e+001 1.026636e+002 -6.206060e+001 9.784118e+001 -2.384736e-001 1.368301e+002
536995092.48773 -5.305847e-001 1.646018e+002 -6.390360e+001 9.370516e+001 -6.189885e+001 1.016511e+002 -2.309454e-001 1.366095e+002
537372593.43148 -5.348585e-001 1.643481e+002 -6.311069e+001 9.620106e+001 -6.193297e+001 9.973402e+001 -2.210527e-001 1.363893e+002
537750094.37524 -5.298837e-001 1.641064e+002 -6.270043e+001 9.718360e+001 -6.167307e+001 9.813423e+001 -2.157999e-001 1.361857e+002
538127595.31899 -5.373676e-001 1.638899e+002 -6.309644e+001 9.540334e+001 -6.169555e+001 9.244547e+001 -2.109879e-001 1.359870e+002
538505096.26274 -5.382805e-001 1.637011e+002 -6.362986e+001 9.735334e+001 -6.166930e+001 9.426306e+001 -2.011895e-001 1.358552e+002
538882597.20649 -5.373207e-001 1.634652e+002 -6.287838e+001 9.309860e+001 -6.179901e+001 9.492462e+001 -1.933410e-001 1.356563e+002
539260098.15025 -5.390127e-001 1.631921e+002 -6.337924e+001 9.026069e+001 -6.219273e+001 9.311974e+001 -1.829764e-001 1.355347e+002
539637599.094 -5.457407e-001 1.630239e+002 -6.321311e+001 8.993702e+001 -6.119244e+001 9.119115e+001 -1.784125e-001 1.354026e+002
540015100.03775 -5.494789e-001 1.628096e+002 -6.304136e+001 9.175361e+001 -6.171781e+001 9.004749e+001 -1.654703e-001 1.353783e+002
540392600.9815 -5.456495e-001 1.625728e+002 -6.442987e+001 8.939746e+001 -6.194231e+001 8.966264e+001 -1.621287e-001 1.352528e+002
540770101.92525 -5.443822e-001 1.622842e+002 -6.413171e+001 8.884585e+001 -6.194613e+001 8.828211e+001 -1.516110e-001 1.352056e+002
541147602.86901 -5.440156e-001 1.621227e+002 -6.357925e+001 9.213386e+001 -6.201674e+001 8.900702e+001 -1.438583e-001 1.351629e+002
541525103.81276 -5.424920e-001 1.618458e+002 -6.417747e+001 8.297674e+001 -6.207985e+001 8.518551e+001 -1.355684e-001 1.351508e+002
541902604.75651 -5.446308e-001 1.615905e+002 -6.331834e+001 8.861304e+001 -6.189522e+001 8.724728e+001 -1.327494e-001 1.351510e+002
542280105.70026 -5.472550e-001 1.613415e+002 -6.263954e+001 8.603873e+001 -6.212253e+001 8.504121e+001 -1.186861e-001 1.351648e+002
542657606.64402 -5.472902e-001 1.611159e+002 -6.313773e+001 8.039800e+001 -6.181341e+001 8.265243e+001 -1.161064e-001 1.352037e+002
543035107.58777 -5.500520e-001 1.608633e+002 -6.321368e+001 8.470347e+001 -6.094918e+001 8.700309e+001 -1.092335e-001 1.352496e+002
543412608.53152 -5.506737e-001 1.606290e+002 -6.259405e+001 8.363716e+001 -6.157178e+001 8.079654e+001 -1.047392e-001 1.353148e+002
543790109.47527 -5.514299e-001 1.604183e+002 -6.334248e+001 8.129520e+001 -6.132034e+001 8.708317e+001 -9.758493e-002 1.353793e+002
544167610.41903 -5.559660e-001 1.601306e+002 -6.326168e+001 7.828918e+001 -6.135022e+001 7.899074e+001 -9.098987e-002 1.354700e+002
544545111.36278 -5.543644e-001 1.599380e+002 -6.358460e+001 7.831805e+001 -6.136057e+001 7.702561e+001 -9.023988e-002 1.355696e+002
544922612.30653 -5.577530e-001 1.596085e+002 -6.278784e+001 8.209718e+001 -6.189095e+001 7.866360e+001 -8.391615e-002 1.356839e+002
545300113.25028 -5.598505e-001 1.594016e+002 -6.221260e+001 7.745660e+001 -6.202690e+001 7.349432e+001 -8.041333e-002 1.358029e+002
545677614.19404 -5.603873e-001 1.591311e+002 -6.216937e+001 7.407011e+001 -6.161000e+001 7.593168e+001 -8.231741e-002 1.358922e+002
546055115.13779 -5.636598e-001 1.588888e+002 -6.366698e+001 7.112669e+001 -6.127411e+001 7.684519e+001 -7.996804e-002 1.360313e+002
546432616.08154 -5.643498e-001 1.586239e+002 -6.340308e+001 7.122982e+001 -6.163486e+001 7.723288e+001 -7.857046e-002 1.361494e+002
546810117.02529 -5.678770e-001 1.583401e+002 -6.363135e+001 7.352200e+001 -6.138902e+001 7.349775e+001 -7.624999e-002 1.362784e+002
547187617.96904 -5.693128e-001 1.581364e+002 -6.244609e+001 6.445297e+001 -6.118682e+001 7.008341e+001 -7.568418e-002 1.363995e+002
547565118.9128 -5.764749e-001 1.578710e+002 -6.321476e+001 6.325480e+001 -6.150952e+001 7.037069e+001 -7.675412e-002 1.365094e+002
547942619.85655 -5.795811e-001 1.576580e+002 -6.238495e+001 6.544533e+001 -6.176450e+001 7.066757e+001 -7.696029e-002 1.366302e+002
548320120.8003 -5.850442e-001 1.573930e+002 -6.372228e+001 5.984239e+001 -6.130518e+001 6.728410e+001 -8.239272e-002 1.367564e+002
548697621.74405 -5.875897e-001 1.571005e+002 -6.371568e+001 6.621032e+001 -6.183478e+001 6.602353e+001 -8.403788e-002 1.368484e+002
549075122.68781 -5.900835e-001 1.568799e+002 -6.366264e+001 6.349600e+001 -6.152391e+001 6.725573e+001 -8.628018e-002 1.370032e+002
549452623.63156 -5.970452e-001 1.566017e+002 -6.274884e+001 6.294707e+001 -6.169558e+001 6.399949e+001 -9.171074e-002 1.370374e+002
549830124.57531 -5.994793e-001 1.563445e+002 -6.435551e+001 6.089085e+001 -6.170533e+001 6.775961e+001 -9.565085e-002 1.371422e+002
550207625.51906 -6.022530e-001 1.560618e+002 -6.437209e+001 6.155310e+001 -6.166781e+001 6.758534e+001 -9.890732e-002 1.371935e+002
550585126.46282 -6.085063e-001 1.558097e+002 -6.381902e+001 6.014794e+001 -6.121254e+001 6.415072e+001 -1.049842e-001 1.372561e+002
550962627.40657 -6.104555e-001 1.555744e+002 -6.419837e+001 6.970806e+001 -6.169128e+001 6.529473e+001 -1.097922e-001 1.372850e+002
551340128.35032 -6.129637e-001 1.552811e+002 -6.432967e+001 6.089954e+001 -6.244830e+001 6.199667e+001 -1.224193e-001 1.373237e+002
551717629.29407 -6.214676e-001 1.550140e+002 -6.400139e+001 6.257517e+001 -6.196384e+001 6.269315e+001 -1.242081e-001 1.373457e+002
552095130.23783 -6.231537e-001 1.546960e+002 -6.332981e+001 5.720963e+001 -6.180454e+001 6.338427e+001 -1.300641e-001 1.373533e+002
552472631.18158 -6.292102e-001 1.544838e+002 -6.342436e+001 4.935035e+001 -6.148464e+001 6.235656e+001 -1.394846e-001 1.373316e+002
552850132.12533 -6.274861e-001 1.542304e+002 -6.310739e+001 5.998726e+001 -6.105361e+001 6.124405e+001 -1.466568e-001 1.372829e+002
553227633.06908 -6.373389e-001 1.538754e+002 -6.375357e+001 5.582011e+001 -6.074909e+001 5.852324e+001 -1.543063e-001 1.372605e+002
553605134.01284 -6.399685e-001 1.536404e+002 -6.262350e+001 5.305282e+001 -6.076719e+001 6.388931e+001 -1.606525e-001 1.371973e+002
553982634.95659 -6.444842e-001 1.533597e+002 -6.357418e+001 6.174209e+001 -6.086436e+001 6.026135e+001 -1.694658e-001 1.371361e+002
554360135.90034 -6.512685e-001 1.530712e+002 -6.353817e+001 5.112821e+001 -6.085130e+001 5.582985e+001 -1.764821e-001 1.370249e+002
554737636.84409 -6.557258e-001 1.528388e+002 -6.338897e+001 5.179821e+001 -6.093561e+001 5.464084e+001 -1.848255e-001 1.369158e+002
555115137.78784 -6.618006e-001 1.525700e+002 -6.305367e+001 4.889325e+001 -6.092696e+001 5.133501e+001 -1.908567e-001 1.367697e+002
555492638.7316 -6.669798e-001 1.522289e+002 -6.329016e+001 4.880463e+001 -6.029953e+001 5.302658e+001 -1.998812e-001 1.366419e+002
