!Agilent Technologies,E8364B,US42250235,A.06.04.32
!Agilent E8364B: A.06.04.32
!Date: Thursday, October 01, 2020 16:01:09
!Correction: S11(Full 2 Port(1,2)) S21(Full 2 Port(1,2)) S12(Full 2 Port(1,2)) S22(Full 2 Port(1,2)) 
!S2P File: Measurements: S11, S21, S12, S22:
# Hz S  dB   R 50
500000000 -2.077258e-001 -1.750003e+002 -7.086558e+001 1.333081e+002 -6.967200e+001 1.146945e+002 5.121227e-003 1.434153e+002
500377500.94375 -2.119761e-001 -1.752410e+002 -7.256750e+001 1.393989e+002 -7.097685e+001 1.232382e+002 2.892780e-003 1.435905e+002
500755001.8875 -2.150136e-001 -1.753482e+002 -6.835519e+001 1.393047e+002 -7.129662e+001 1.255558e+002 3.904349e-003 1.437389e+002
501132502.83126 -2.130970e-001 -1.756090e+002 -7.123063e+001 1.210517e+002 -7.316264e+001 1.330440e+002 -1.099489e-003 1.438913e+002
501510003.77501 -2.156809e-001 -1.758036e+002 -6.939241e+001 1.304304e+002 -7.142304e+001 1.080031e+002 -4.169926e-003 1.440450e+002
501887504.71876 -2.171160e-001 -1.760115e+002 -7.026768e+001 1.263545e+002 -6.966743e+001 1.105082e+002 -8.462531e-003 1.441634e+002
502265005.66251 -2.225824e-001 -1.762196e+002 -7.130098e+001 1.171942e+002 -7.275426e+001 1.071872e+002 -1.258107e-002 1.443029e+002
502642506.60627 -2.216143e-001 -1.763869e+002 -6.947297e+001 1.123426e+002 -7.254160e+001 1.170084e+002 -1.939159e-002 1.444450e+002
503020007.55002 -2.264622e-001 -1.766305e+002 -7.213451e+001 1.266516e+002 -7.292593e+001 1.081576e+002 -2.731678e-002 1.444939e+002
503397508.49377 -2.266451e-001 -1.768297e+002 -7.237629e+001 1.271254e+002 -6.935632e+001 1.182241e+002 -3.008773e-002 1.445681e+002
503775009.43752 -2.268290e-001 -1.770199e+002 -7.038245e+001 1.161571e+002 -6.998036e+001 1.115428e+002 -3.894278e-002 1.446466e+002
504152510.38128 -2.296226e-001 -1.772372e+002 -7.183755e+001 1.233202e+002 -6.994358e+001 1.164470e+002 -4.762720e-002 1.446641e+002
504530011.32503 -2.267000e-001 -1.774717e+002 -7.172102e+001 1.170015e+002 -6.974519e+001 1.128175e+002 -5.436983e-002 1.447129e+002
504907512.26878 -2.347396e-001 -1.776345e+002 -6.961750e+001 1.105003e+002 -7.146229e+001 1.123786e+002 -6.151087e-002 1.447121e+002
505285013.21253 -2.364762e-001 -1.778364e+002 -7.455760e+001 1.019769e+002 -7.270936e+001 1.056040e+002 -7.054839e-002 1.447096e+002
505662514.15629 -2.361020e-001 -1.780067e+002 -7.260928e+001 1.162247e+002 -7.073639e+001 1.047701e+002 -7.942893e-002 1.446624e+002
506040015.10004 -2.386498e-001 -1.782557e+002 -6.929743e+001 1.121185e+002 -6.940363e+001 1.126242e+002 -8.871840e-002 1.445961e+002
506417516.04379 -2.392099e-001 -1.784578e+002 -7.110173e+001 1.082236e+002 -7.068838e+001 1.141734e+002 -9.661588e-002 1.445076e+002
506795016.98754 -2.431238e-001 -1.786671e+002 -7.001153e+001 9.863086e+001 -7.315146e+001 1.194667e+002 -9.895910e-002 1.444002e+002
507172517.93129 -2.453755e-001 -1.788598e+002 -6.799991e+001 1.009802e+002 -7.241743e+001 1.238181e+002 -1.089291e-001 1.442889e+002
507550018.87505 -2.478362e-001 -1.790744e+002 -7.060599e+001 1.090534e+002 -7.207405e+001 1.171913e+002 -1.206347e-001 1.441192e+002
507927519.8188 -2.506636e-001 -1.793026e+002 -6.799809e+001 1.147523e+002 -7.437911e+001 1.248209e+002 -1.298312e-001 1.439660e+002
508305020.76255 -2.510545e-001 -1.794962e+002 -7.026893e+001 1.051919e+002 -7.109017e+001 1.199120e+002 -1.343558e-001 1.437778e+002
508682521.7063 -2.518596e-001 -1.797095e+002 -6.899483e+001 9.858742e+001 -6.975498e+001 1.050538e+002 -1.471848e-001 1.435941e+002
509060022.65006 -2.550043e-001 -1.799279e+002 -7.208662e+001 1.192552e+002 -7.162051e+001 1.119471e+002 -1.454243e-001 1.433216e+002
509437523.59381 -2.541216e-001 1.798386e+002 -7.023543e+001 1.157270e+002 -7.090990e+001 1.200350e+002 -1.521102e-001 1.431329e+002
509815024.53756 -2.534683e-001 1.796320e+002 -6.980280e+001 1.038336e+002 -7.065739e+001 1.175824e+002 -1.541498e-001 1.428776e+002
510192525.48131 -2.566716e-001 1.794075e+002 -7.067757e+001 1.145303e+002 -6.984489e+001 9.811687e+001 -1.577783e-001 1.426082e+002
510570026.42507 -2.604356e-001 1.791848e+002 -6.944951e+001 1.199610e+002 -7.057316e+001 1.257291e+002 -1.620775e-001 1.423437e+002
510947527.36882 -2.633643e-001 1.789966e+002 -6.886022e+001 1.039847e+002 -7.016479e+001 1.155758e+002 -1.611766e-001 1.420880e+002
511325028.31257 -2.626164e-001 1.787580e+002 -6.916499e+001 1.219323e+002 -7.042534e+001 1.121334e+002 -1.610040e-001 1.417955e+002
511702529.25632 -2.642559e-001 1.785402e+002 -6.715936e+001 1.045871e+002 -6.985403e+001 1.082308e+002 -1.628156e-001 1.415273e+002
512080030.20008 -2.692932e-001 1.783147e+002 -7.040962e+001 9.676777e+001 -7.062009e+001 1.173815e+002 -1.597718e-001 1.412362e+002
512457531.14383 -2.728650e-001 1.781024e+002 -6.867632e+001 1.025901e+002 -6.763175e+001 1.042039e+002 -1.567878e-001 1.409894e+002
512835032.08758 -2.766887e-001 1.778718e+002 -6.882091e+001 1.050662e+002 -6.868876e+001 1.085174e+002 -1.570283e-001 1.407163e+002
513212533.03133 -2.756904e-001 1.776415e+002 -6.821479e+001 1.125283e+002 -6.866402e+001 1.024426e+002 -1.485294e-001 1.404458e+002
513590033.97508 -2.777137e-001 1.774322e+002 -6.909456e+001 9.101667e+001 -6.888287e+001 8.890051e+001 -1.439775e-001 1.402227e+002
513967534.91884 -2.833928e-001 1.772112e+002 -6.703344e+001 1.040046e+002 -6.982024e+001 1.038719e+002 -1.399743e-001 1.399542e+002
514345035.86259 -2.837681e-001 1.769725e+002 -6.642469e+001 1.032056e+002 -6.825173e+001 1.136557e+002 -1.355320e-001 1.397973e+002
514722536.80634 -2.827813e-001 1.767624e+002 -6.801648e+001 1.016729e+002 -6.969447e+001 1.138392e+002 -1.273621e-001 1.396024e+002
515100037.75009 -2.813125e-001 1.765439e+002 -6.700813e+001 1.078396e+002 -6.896172e+001 9.399783e+001 -1.194093e-001 1.394430e+002
515477538.69385 -2.844228e-001 1.763189e+002 -6.787392e+001 8.814687e+001 -6.899094e+001 9.609631e+001 -1.127162e-001 1.392740e+002
515855039.6376 -2.844507e-001 1.760985e+002 -6.671788e+001 9.589805e+001 -6.857756e+001 9.607933e+001 -1.025394e-001 1.391655e+002
516232540.58135 -2.887740e-001 1.758668e+002 -6.926304e+001 1.056848e+002 -6.752564e+001 9.666861e+001 -9.496299e-002 1.390777e+002
516610041.5251 -2.921042e-001 1.756376e+002 -6.730589e+001 9.158287e+001 -6.922887e+001 8.932464e+001 -8.908935e-002 1.389962e+002
516987542.46886 -2.924897e-001 1.754117e+002 -6.607330e+001 8.468056e+001 -6.762165e+001 9.256197e+001 -8.188199e-002 1.389344e+002
517365043.41261 -2.975275e-001 1.752013e+002 -6.722848e+001 9.477467e+001 -6.731998e+001 9.346810e+001 -7.231259e-002 1.388912e+002
517742544.35636 -3.003879e-001 1.749655e+002 -6.901602e+001 8.833058e+001 -6.988020e+001 9.328719e+001 -6.590057e-002 1.389158e+002
518120045.30011 -3.032320e-001 1.747314e+002 -6.801158e+001 9.286497e+001 -6.842918e+001 9.119272e+001 -5.534489e-002 1.389625e+002
518497546.24387 -3.044570e-001 1.745102e+002 -6.692222e+001 8.952283e+001 -6.761137e+001 8.715268e+001 -4.587578e-002 1.389945e+002
518875047.18762 -3.064466e-001 1.743333e+002 -6.951448e+001 1.020800e+002 -6.788521e+001 7.561472e+001 -3.712405e-002 1.390747e+002
519252548.13137 -3.108131e-001 1.740531e+002 -6.782751e+001 8.021297e+001 -6.830556e+001 8.062003e+001 -3.326615e-002 1.391686e+002
519630049.07512 -3.177805e-001 1.738110e+002 -6.801875e+001 7.868804e+001 -6.792437e+001 8.562067e+001 -2.947173e-002 1.392880e+002
520007550.01888 -3.168875e-001 1.735910e+002 -6.875081e+001 8.773359e+001 -6.824266e+001 8.555664e+001 -2.050402e-002 1.394292e+002
520385050.96263 -3.200960e-001 1.733859e+002 -6.861919e+001 7.964487e+001 -6.788810e+001 8.507387e+001 -1.796990e-002 1.395575e+002
520762551.90638 -3.208981e-001 1.731624e+002 -6.734534e+001 7.775497e+001 -6.810203e+001 8.752737e+001 -1.079900e-002 1.397269e+002
521140052.85013 -3.271892e-001 1.729028e+002 -6.820518e+001 9.783689e+001 -6.830719e+001 8.543541e+001 -8.081422e-003 1.398916e+002
521517553.79388 -3.310966e-001 1.726855e+002 -6.822066e+001 8.645319e+001 -6.991592e+001 8.295910e+001 -5.279193e-003 1.400766e+002
521895054.73764 -3.334051e-001 1.724538e+002 -6.676652e+001 8.450949e+001 -6.846903e+001 9.223444e+001 -5.637556e-003 1.402814e+002
522272555.68139 -3.390062e-001 1.722229e+002 -7.060193e+001 9.816508e+001 -6.880347e+001 8.210822e+001 -1.825521e-003 1.404733e+002
522650056.62514 -3.416246e-001 1.720004e+002 -6.837884e+001 8.749317e+001 -7.050040e+001 9.201737e+001 -1.299401e-003 1.406268e+002
523027557.56889 -3.487646e-001 1.717823e+002 -6.823701e+001 9.352139e+001 -6.928164e+001 7.752578e+001 -4.527716e-003 1.408789e+002
523405058.51265 -3.488775e-001 1.715265e+002 -6.954253e+001 9.014217e+001 -6.740890e+001 7.769839e+001 -5.160477e-003 1.411302e+002
523782559.4564 -3.549404e-001 1.713062e+002 -6.720373e+001 9.268156e+001 -6.862234e+001 8.897223e+001 -8.860569e-003 1.412581e+002
524160060.40015 -3.596550e-001 1.710721e+002 -6.719061e+001 8.662411e+001 -6.894159e+001 7.952983e+001 -1.153651e-002 1.414484e+002
524537561.3439 -3.640973e-001 1.708385e+002 -6.831785e+001 7.750867e+001 -6.743319e+001 8.894666e+001 -1.845255e-002 1.416211e+002
524915062.28766 -3.677240e-001 1.706037e+002 -6.715661e+001 8.378255e+001 -6.717601e+001 8.350376e+001 -2.116699e-002 1.418027e+002
525292563.23141 -3.746728e-001 1.703700e+002 -6.671024e+001 7.538215e+001 -6.566468e+001 9.448209e+001 -3.048563e-002 1.419444e+002
525670064.17516 -3.784822e-001 1.701282e+002 -6.704068e+001 8.703402e+001 -6.719670e+001 8.765762e+001 -3.384870e-002 1.420657e+002
526047565.11891 -3.815681e-001 1.699235e+002 -6.833272e+001 7.482616e+001 -6.711466e+001 8.130627e+001 -4.248230e-002 1.421851e+002
526425066.06267 -3.902402e-001 1.696521e+002 -6.661194e+001 8.769888e+001 -6.593487e+001 8.448959e+001 -5.549858e-002 1.422766e+002
526802567.00642 -3.935169e-001 1.694174e+002 -6.624377e+001 8.387957e+001 -6.749828e+001 8.552119e+001 -6.072713e-002 1.423485e+002
527180067.95017 -3.981194e-001 1.691784e+002 -6.667243e+001 8.222258e+001 -6.578358e+001 7.813239e+001 -6.804746e-002 1.423840e+002
527557568.89392 -4.026781e-001 1.689396e+002 -6.709846e+001 8.220902e+001 -6.737796e+001 8.992000e+001 -7.483353e-002 1.424376e+002
527935069.83767 -4.084946e-001 1.686905e+002 -6.807374e+001 8.033480e+001 -6.649532e+001 8.290996e+001 -8.661732e-002 1.424368e+002
528312570.78143 -4.120837e-001 1.684625e+002 -6.617314e+001 7.612911e+001 -6.542495e+001 7.110251e+001 -9.729344e-002 1.424109e+002
528690071.72518 -4.168457e-001 1.682136e+002 -6.575591e+001 7.875511e+001 -6.563971e+001 7.795006e+001 -1.025637e-001 1.423615e+002
529067572.66893 -4.213002e-001 1.679719e+002 -6.772346e+001 7.231715e+001 -6.665084e+001 7.452686e+001 -1.196264e-001 1.422785e+002
529445073.61268 -4.268835e-001 1.677457e+002 -6.613888e+001 7.199561e+001 -6.612765e+001 8.072991e+001 -1.276823e-001 1.422173e+002
529822574.55644 -4.320245e-001 1.674886e+002 -6.554544e+001 7.459141e+001 -6.646281e+001 8.002576e+001 -1.384642e-001 1.420634e+002
530200075.50019 -4.366002e-001 1.672464e+002 -6.702311e+001 7.479337e+001 -6.610802e+001 7.407754e+001 -1.426621e-001 1.419013e+002
530577576.44394 -4.458566e-001 1.670083e+002 -6.478116e+001 6.989658e+001 -6.486797e+001 7.671465e+001 -1.548635e-001 1.417455e+002
530955077.38769 -4.499093e-001 1.667572e+002 -6.579024e+001 7.536862e+001 -6.633326e+001 7.410849e+001 -1.634253e-001 1.415583e+002
531332578.33145 -4.521434e-001 1.664954e+002 -6.555126e+001 7.057734e+001 -6.546881e+001 6.639200e+001 -1.722633e-001 1.413483e+002
531710079.2752 -4.618797e-001 1.662463e+002 -6.562940e+001 7.038620e+001 -6.526196e+001 7.056911e+001 -1.821044e-001 1.410939e+002
532087580.21895 -4.629456e-001 1.660086e+002 -6.572378e+001 7.682730e+001 -6.597112e+001 6.389069e+001 -1.856077e-001 1.408310e+002
532465081.1627 -4.695099e-001 1.657485e+002 -6.487746e+001 8.031570e+001 -6.452809e+001 7.225031e+001 -1.906792e-001 1.405615e+002
532842582.10646 -4.749855e-001 1.655433e+002 -6.495740e+001 7.124587e+001 -6.672090e+001 7.072860e+001 -1.951472e-001 1.402475e+002
533220083.05021 -4.816829e-001 1.652534e+002 -6.574678e+001 6.427818e+001 -6.469865e+001 7.440398e+001 -2.024699e-001 1.400019e+002
533597583.99396 -4.886001e-001 1.649851e+002 -6.532675e+001 6.873387e+001 -6.421665e+001 6.571708e+001 -2.036362e-001 1.397534e+002
533975084.93771 -4.979309e-001 1.647485e+002 -6.631239e+001 7.039941e+001 -6.493147e+001 6.770831e+001 -2.088807e-001 1.394005e+002
534352585.88146 -5.058438e-001 1.644947e+002 -6.416203e+001 6.494216e+001 -6.446787e+001 6.083706e+001 -2.092100e-001 1.391015e+002
534730086.82522 -5.145620e-001 1.643075e+002 -6.430722e+001 6.848785e+001 -6.441395e+001 6.543330e+001 -2.094187e-001 1.388129e+002
535107587.76897 -5.204695e-001 1.640234e+002 -6.428062e+001 7.266453e+001 -6.439629e+001 6.675755e+001 -2.130746e-001 1.385103e+002
535485088.71272 -5.247169e-001 1.637364e+002 -6.453472e+001 6.593186e+001 -6.370628e+001 5.770330e+001 -2.112858e-001 1.381862e+002
535862589.65647 -5.345072e-001 1.635428e+002 -6.431253e+001 6.489357e+001 -6.346101e+001 5.871173e+001 -2.075310e-001 1.378931e+002
536240090.60023 -5.329734e-001 1.632724e+002 -6.488232e+001 6.349073e+001 -6.338568e+001 6.010645e+001 -2.045761e-001 1.376023e+002
536617591.54398 -5.451875e-001 1.630346e+002 -6.474668e+001 6.514851e+001 -6.329425e+001 6.152254e+001 -2.012004e-001 1.373196e+002
536995092.48773 -5.509997e-001 1.628109e+002 -6.572128e+001 6.162607e+001 -6.261397e+001 5.286384e+001 -1.947550e-001 1.370634e+002
537372593.43148 -5.578311e-001 1.625125e+002 -6.483172e+001 6.037280e+001 -6.318140e+001 5.450782e+001 -1.895880e-001 1.368132e+002
537750094.37524 -5.618623e-001 1.622998e+002 -6.426730e+001 5.497766e+001 -6.274861e+001 5.049868e+001 -1.839311e-001 1.365916e+002
538127595.31899 -5.712941e-001 1.620429e+002 -6.421175e+001 5.998938e+001 -6.312956e+001 4.771952e+001 -1.805827e-001 1.363719e+002
538505096.26274 -5.769556e-001 1.618234e+002 -6.451238e+001 5.778008e+001 -6.327979e+001 5.500545e+001 -1.734406e-001 1.361947e+002
538882597.20649 -5.839083e-001 1.615818e+002 -6.427695e+001 5.802096e+001 -6.289017e+001 5.169168e+001 -1.671473e-001 1.359854e+002
539260098.15025 -5.885856e-001 1.613286e+002 -6.420712e+001 5.462768e+001 -6.357937e+001 5.100408e+001 -1.598120e-001 1.358386e+002
539637599.094 -5.990270e-001 1.610883e+002 -6.344565e+001 6.206957e+001 -6.337821e+001 5.529543e+001 -1.527846e-001 1.356651e+002
540015100.03775 -6.032628e-001 1.608400e+002 -6.476158e+001 5.185410e+001 -6.377756e+001 4.843508e+001 -1.412820e-001 1.356199e+002
540392600.9815 -6.086911e-001 1.605942e+002 -6.504601e+001 5.763913e+001 -6.309745e+001 4.721475e+001 -1.357157e-001 1.354587e+002
540770101.92525 -6.184285e-001 1.603260e+002 -6.367080e+001 5.548849e+001 -6.245084e+001 4.923239e+001 -1.275921e-001 1.353842e+002
541147602.86901 -6.239640e-001 1.600777e+002 -6.413541e+001 5.959433e+001 -6.195418e+001 4.520552e+001 -1.212887e-001 1.353235e+002
541525103.81276 -6.290146e-001 1.598433e+002 -6.278386e+001 5.498600e+001 -6.326084e+001 4.162212e+001 -1.146280e-001 1.352767e+002
541902604.75651 -6.390157e-001 1.595805e+002 -6.394751e+001 5.080490e+001 -6.184711e+001 4.266500e+001 -1.082300e-001 1.352726e+002
542280105.70026 -6.481721e-001 1.593522e+002 -6.360361e+001 4.880794e+001 -6.248024e+001 4.252900e+001 -9.955163e-002 1.352583e+002
542657606.64402 -6.553759e-001 1.590999e+002 -6.307555e+001 4.977824e+001 -6.223509e+001 4.085810e+001 -9.551642e-002 1.352586e+002
543035107.58777 -6.623189e-001 1.588543e+002 -6.368661e+001 4.999384e+001 -6.211244e+001 4.290603e+001 -8.787826e-002 1.352941e+002
543412608.53152 -6.738373e-001 1.586170e+002 -6.235565e+001 4.936322e+001 -6.191926e+001 4.323924e+001 -8.604900e-002 1.353179e+002
543790109.47527 -6.822044e-001 1.583791e+002 -6.225042e+001 4.953965e+001 -6.192435e+001 3.946151e+001 -7.792498e-002 1.353832e+002
544167610.41903 -6.902844e-001 1.581332e+002 -6.290298e+001 4.866645e+001 -6.218712e+001 4.169065e+001 -7.199872e-002 1.354372e+002
544545111.36278 -6.954910e-001 1.578924e+002 -6.183928e+001 4.808747e+001 -6.246837e+001 3.530022e+001 -7.043409e-002 1.355099e+002
544922612.30653 -7.053870e-001 1.576255e+002 -6.275760e+001 4.477518e+001 -6.248225e+001 3.484648e+001 -6.382801e-002 1.356014e+002
545300113.25028 -7.163758e-001 1.573780e+002 -6.134403e+001 3.796765e+001 -6.201268e+001 3.522745e+001 -6.282262e-002 1.356871e+002
545677614.19404 -7.222531e-001 1.571124e+002 -6.327388e+001 4.299336e+001 -6.209863e+001 3.577043e+001 -6.153640e-002 1.357894e+002
546055115.13779 -7.329517e-001 1.568740e+002 -6.270399e+001 4.360952e+001 -6.207475e+001 3.219442e+001 -6.056133e-002 1.359145e+002
546432616.08154 -7.439259e-001 1.566265e+002 -6.243278e+001 4.059425e+001 -6.168722e+001 3.770294e+001 -6.093316e-002 1.359871e+002
546810117.02529 -7.516186e-001 1.563644e+002 -6.267106e+001 4.221873e+001 -6.244970e+001 2.658131e+001 -5.599024e-002 1.361072e+002
547187617.96904 -7.612178e-001 1.561192e+002 -6.255253e+001 3.662198e+001 -6.235458e+001 3.413592e+001 -5.483984e-002 1.362373e+002
547565118.9128 -7.681945e-001 1.558494e+002 -6.255626e+001 3.479878e+001 -6.181434e+001 2.802249e+001 -5.604017e-002 1.363162e+002
547942619.85655 -7.833841e-001 1.556057e+002 -6.169094e+001 3.486187e+001 -6.140060e+001 3.419131e+001 -5.441820e-002 1.364241e+002
548320120.8003 -7.917342e-001 1.553420e+002 -6.176085e+001 3.624794e+001 -6.123659e+001 3.333372e+001 -5.967578e-002 1.365158e+002
548697621.74405 -8.048407e-001 1.550974e+002 -6.217486e+001 3.317165e+001 -6.082959e+001 2.706805e+001 -5.986227e-002 1.366156e+002
549075122.68781 -8.176501e-001 1.548377e+002 -6.222819e+001 3.580735e+001 -6.082897e+001 2.956260e+001 -6.474756e-002 1.367793e+002
549452623.63156 -8.303240e-001 1.545993e+002 -6.210036e+001 3.624185e+001 -6.033968e+001 3.073142e+001 -6.740953e-002 1.368082e+002
549830124.57531 -8.404270e-001 1.543431e+002 -6.146523e+001 3.241074e+001 -6.124009e+001 2.886353e+001 -7.191996e-002 1.369012e+002
550207625.51906 -8.527923e-001 1.541162e+002 -6.122583e+001 2.975849e+001 -6.099062e+001 2.610836e+001 -7.563338e-002 1.369480e+002
550585126.46282 -8.649297e-001 1.538396e+002 -6.159968e+001 3.099969e+001 -6.035141e+001 2.399302e+001 -7.929573e-002 1.370121e+002
550962627.40657 -8.746767e-001 1.535843e+002 -6.223455e+001 2.886060e+001 -6.072271e+001 2.237222e+001 -8.097052e-002 1.370722e+002
551340128.35032 -8.823718e-001 1.533231e+002 -6.235680e+001 2.997656e+001 -6.058152e+001 2.658638e+001 -8.775152e-002 1.370792e+002
551717629.29407 -8.996328e-001 1.530262e+002 -6.139843e+001 2.363219e+001 -6.005624e+001 2.252007e+001 -9.046800e-002 1.371164e+002
552095130.23783 -9.080413e-001 1.528072e+002 -6.117619e+001 2.197610e+001 -5.989446e+001 2.100256e+001 -9.781786e-002 1.371166e+002
552472631.18158 -9.179364e-001 1.525470e+002 -6.106368e+001 2.751854e+001 -5.946151e+001 1.912690e+001 -1.064539e-001 1.371066e+002
552850132.12533 -9.288135e-001 1.522591e+002 -6.116138e+001 2.225169e+001 -6.013380e+001 1.318281e+001 -1.124275e-001 1.370842e+002
553227633.06908 -9.413597e-001 1.519948e+002 -6.141161e+001 2.516093e+001 -5.990892e+001 1.621190e+001 -1.203708e-001 1.370437e+002
553605134.01284 -9.532787e-001 1.517132e+002 -6.084020e+001 1.908034e+001 -5.996970e+001 1.330444e+001 -1.242530e-001 1.369911e+002
553982634.95659 -9.669846e-001 1.514517e+002 -6.132374e+001 2.123195e+001 -5.971021e+001 1.672578e+001 -1.340131e-001 1.369170e+002
554360135.90034 -9.805018e-001 1.511823e+002 -6.152185e+001 1.929366e+001 -5.953998e+001 1.183930e+001 -1.396192e-001 1.368067e+002
554737636.84409 -9.949046e-001 1.508989e+002 -6.025592e+001 1.890876e+001 -5.942298e+001 1.511623e+001 -1.473349e-001 1.367171e+002
555115137.78784 -1.010493e+000 1.506611e+002 -6.078497e+001 1.387377e+001 -5.887313e+001 9.316155e+000 -1.489474e-001 1.366054e+002
555492638.7316 -1.026879e+000 1.503473e+002 -6.055154e+001 1.852486e+001 -5.869696e+001 1.064882e+001 -1.547849e-001 1.364524e+002
555870139.67535 -1.040115e+000 1.500675e+002 -6.013038e+001 1.846964e+001 -5.926275e+001 9.105081e+000 -1.627927e-001 1.363355e+002
