!Agilent Technologies,E8364B,US42250235,A.06.04.32
!Agilent E8364B: A.06.04.32
!Date: Thursday, October 01, 2020 16:03:05
!Correction: S11(Full 2 Port(1,2)) S21(Full 2 Port(1,2)) S12(Full 2 Port(1,2)) S22(Full 2 Port(1,2)) 
!S2P File: Measurements: S11, S21, S12, S22:
# Hz S  dB   R 50
500000000 -2.600444e-001 -1.750645e+002 -6.747387e+001 2.236562e+001 -6.847472e+001 3.094301e+001 -2.519959e-002 1.434826e+002
500377500.94375 -2.566059e-001 -1.753487e+002 -6.999942e+001 2.824990e+001 -7.011965e+001 3.312773e+001 -2.579844e-002 1.436703e+002
500755001.8875 -2.615769e-001 -1.754383e+002 -6.753313e+001 3.114570e+001 -6.820583e+001 3.812842e+001 -2.655143e-002 1.438048e+002
501132502.83126 -2.677907e-001 -1.757142e+002 -6.797063e+001 3.070291e+001 -6.953719e+001 1.746676e+001 -3.017292e-002 1.439618e+002
501510003.77501 -2.685255e-001 -1.759023e+002 -6.716484e+001 3.833562e+001 -6.831638e+001 2.748330e+001 -3.373591e-002 1.441167e+002
501887504.71876 -2.752250e-001 -1.760733e+002 -6.941386e+001 3.034472e+001 -6.806308e+001 2.559981e+001 -3.757955e-002 1.442353e+002
502265005.66251 -2.806027e-001 -1.762995e+002 -6.829531e+001 2.338943e+001 -6.920136e+001 1.957509e+001 -4.416919e-002 1.443852e+002
502642506.60627 -2.798670e-001 -1.764526e+002 -6.840819e+001 1.588685e+001 -6.805689e+001 2.617791e+001 -5.043812e-002 1.445227e+002
503020007.55002 -2.841940e-001 -1.767060e+002 -6.648366e+001 2.028546e+001 -6.897974e+001 2.362376e+001 -5.713286e-002 1.445799e+002
503397508.49377 -2.863877e-001 -1.768759e+002 -6.697623e+001 2.407595e+001 -6.641985e+001 2.239183e+001 -5.806204e-002 1.446681e+002
503775009.43752 -2.862230e-001 -1.771124e+002 -6.682659e+001 2.380653e+001 -6.883290e+001 2.675422e+001 -7.042433e-002 1.447139e+002
504152510.38128 -2.938768e-001 -1.772688e+002 -6.888367e+001 2.104382e+001 -6.898019e+001 1.820354e+001 -7.495578e-002 1.447500e+002
504530011.32503 -2.937323e-001 -1.774909e+002 -6.762120e+001 6.802812e+000 -6.909190e+001 2.409076e+001 -8.859244e-002 1.447867e+002
504907512.26878 -2.971873e-001 -1.776543e+002 -6.544877e+001 2.177042e+001 -6.825006e+001 2.232335e+001 -9.336745e-002 1.447678e+002
505285013.21253 -3.039997e-001 -1.777833e+002 -6.715713e+001 1.445860e+001 -6.886610e+001 1.431691e+001 -1.014797e-001 1.447646e+002
505662514.15629 -3.032309e-001 -1.780152e+002 -6.762127e+001 1.342846e+001 -6.785564e+001 8.295622e+000 -1.098516e-001 1.447397e+002
506040015.10004 -3.018264e-001 -1.782146e+002 -6.785088e+001 1.488438e+001 -6.848463e+001 1.040561e+001 -1.192309e-001 1.446682e+002
506417516.04379 -3.053305e-001 -1.784520e+002 -6.741547e+001 2.178830e+001 -6.694501e+001 2.341100e+001 -1.277068e-001 1.445869e+002
506795016.98754 -3.097559e-001 -1.785985e+002 -6.644298e+001 8.269435e+000 -6.744057e+001 2.038582e-001 -1.342843e-001 1.444478e+002
507172517.93129 -3.116629e-001 -1.787561e+002 -6.720054e+001 4.218745e+000 -6.790366e+001 3.231557e+000 -1.400772e-001 1.443539e+002
507550018.87505 -3.110782e-001 -1.789952e+002 -6.641048e+001 7.733526e+000 -6.786758e+001 -5.360171e+000 -1.512689e-001 1.441888e+002
507927519.8188 -3.126584e-001 -1.791651e+002 -6.759045e+001 6.131339e+000 -6.763386e+001 5.282175e+000 -1.622030e-001 1.440271e+002
508305020.76255 -3.130994e-001 -1.794322e+002 -6.679332e+001 7.892177e+000 -6.806065e+001 1.503432e-002 -1.665822e-001 1.438351e+002
508682521.7063 -3.149943e-001 -1.796014e+002 -6.701827e+001 8.899156e+000 -6.737922e+001 4.390598e+000 -1.755795e-001 1.435835e+002
509060022.65006 -3.209231e-001 -1.797762e+002 -6.914441e+001 3.443559e-001 -6.918060e+001 1.007855e+001 -1.771589e-001 1.433920e+002
509437523.59381 -3.185100e-001 1.799660e+002 -6.622029e+001 4.691139e+000 -6.875240e+001 8.379972e+000 -1.811555e-001 1.431720e+002
509815024.53756 -3.179683e-001 1.798063e+002 -6.625340e+001 6.567765e+000 -6.941441e+001 -1.077377e+001 -1.859685e-001 1.428980e+002
510192525.48131 -3.196164e-001 1.795518e+002 -6.777444e+001 6.770839e+000 -6.753048e+001 5.628306e+000 -1.885268e-001 1.426390e+002
510570026.42507 -3.254628e-001 1.793185e+002 -6.642844e+001 2.592088e+000 -6.737343e+001 -3.990979e-003 -1.918055e-001 1.423573e+002
510947527.36882 -3.255486e-001 1.791538e+002 -6.703635e+001 -6.315246e+000 -6.786436e+001 8.216578e-001 -1.954904e-001 1.420869e+002
511325028.31257 -3.288327e-001 1.789165e+002 -6.852171e+001 -6.152009e+000 -6.635557e+001 -5.479376e+000 -1.951822e-001 1.417918e+002
511702529.25632 -3.313894e-001 1.787052e+002 -6.714481e+001 -5.382597e+000 -6.617918e+001 -5.381341e+000 -1.960885e-001 1.415133e+002
512080030.20008 -3.350687e-001 1.784594e+002 -6.668523e+001 -1.772268e+000 -6.607037e+001 -4.462837e+000 -1.939663e-001 1.412407e+002
512457531.14383 -3.395304e-001 1.783320e+002 -6.685695e+001 -1.554196e+001 -6.636404e+001 -3.791346e+000 -1.922929e-001 1.409756e+002
512835032.08758 -3.382720e-001 1.781048e+002 -6.830783e+001 -8.611768e+000 -6.787384e+001 4.449178e-001 -1.894840e-001 1.406939e+002
513212533.03133 -3.395896e-001 1.778552e+002 -6.532253e+001 -7.953880e+000 -6.684358e+001 -1.283134e+001 -1.863832e-001 1.404247e+002
513590033.97508 -3.414888e-001 1.776599e+002 -6.685410e+001 -1.322771e+001 -6.707131e+001 -5.645592e-001 -1.796861e-001 1.401986e+002
513967534.91884 -3.441932e-001 1.774487e+002 -6.641336e+001 -2.539301e+000 -6.659035e+001 -1.628347e+001 -1.770585e-001 1.399812e+002
514345035.86259 -3.446577e-001 1.772233e+002 -6.649028e+001 -1.376772e+001 -6.695800e+001 -8.461114e+000 -1.703943e-001 1.397548e+002
514722536.80634 -3.449350e-001 1.770570e+002 -6.573634e+001 -7.999091e+000 -6.789171e+001 -4.640580e+000 -1.671608e-001 1.395667e+002
515100037.75009 -3.448865e-001 1.767944e+002 -6.812805e+001 -1.317573e+001 -6.777711e+001 -1.205275e+001 -1.552754e-001 1.393797e+002
515477538.69385 -3.459837e-001 1.765683e+002 -6.725230e+001 -5.168787e+000 -6.624724e+001 -1.962137e+001 -1.463648e-001 1.392184e+002
515855039.6376 -3.451105e-001 1.763617e+002 -6.639195e+001 -1.203448e+001 -6.602067e+001 -2.081906e+001 -1.394902e-001 1.391044e+002
516232540.58135 -3.503687e-001 1.761471e+002 -6.533270e+001 -1.346997e+001 -6.660098e+001 -1.166253e+001 -1.307514e-001 1.390103e+002
516610041.5251 -3.584215e-001 1.759641e+002 -6.572679e+001 -1.487246e+001 -6.667070e+001 -1.688871e+001 -1.230271e-001 1.389423e+002
516987542.46886 -3.542227e-001 1.757238e+002 -6.611469e+001 -1.529533e+001 -6.741767e+001 -2.061814e+001 -1.156065e-001 1.388686e+002
517365043.41261 -3.617852e-001 1.755467e+002 -6.616022e+001 -1.489384e+001 -6.786068e+001 -2.421386e+001 -1.081717e-001 1.388126e+002
517742544.35636 -3.623527e-001 1.752480e+002 -6.539349e+001 -1.973488e+001 -6.593906e+001 -2.119089e+001 -9.979963e-002 1.388398e+002
518120045.30011 -3.647410e-001 1.750599e+002 -6.529981e+001 -1.864931e+001 -6.552793e+001 -2.536066e+001 -8.931271e-002 1.388443e+002
518497546.24387 -3.667881e-001 1.748638e+002 -6.633668e+001 -1.743849e+001 -6.645766e+001 -1.951395e+001 -8.058047e-002 1.389086e+002
518875047.18762 -3.729914e-001 1.746594e+002 -6.546391e+001 -2.351798e+001 -6.656476e+001 -2.020214e+001 -7.352520e-002 1.389711e+002
519252548.13137 -3.770609e-001 1.744305e+002 -6.462021e+001 -2.075956e+001 -6.707684e+001 -2.082594e+001 -6.563742e-002 1.390645e+002
519630049.07512 -3.799998e-001 1.742093e+002 -6.548244e+001 -2.422153e+001 -6.647202e+001 -2.315436e+001 -5.571099e-002 1.391510e+002
520007550.01888 -3.808729e-001 1.740017e+002 -6.639471e+001 -1.499849e+001 -6.687379e+001 -2.674998e+001 -5.751745e-002 1.393244e+002
520385050.96263 -3.848516e-001 1.738404e+002 -6.632885e+001 -2.912991e+001 -6.653950e+001 -3.530011e+001 -5.230320e-002 1.394569e+002
520762551.90638 -3.859357e-001 1.735676e+002 -6.626844e+001 -2.550060e+001 -6.674263e+001 -2.568786e+001 -4.617923e-002 1.396039e+002
521140052.85013 -3.907360e-001 1.733698e+002 -6.522958e+001 -2.636253e+001 -6.532118e+001 -3.708966e+001 -4.158792e-002 1.397735e+002
521517553.79388 -3.934825e-001 1.731554e+002 -6.543047e+001 -3.282667e+001 -6.623487e+001 -2.692196e+001 -3.895141e-002 1.399769e+002
521895054.73764 -3.974231e-001 1.729823e+002 -6.478600e+001 -2.883766e+001 -6.633977e+001 -3.667130e+001 -3.806965e-002 1.401703e+002
522272555.68139 -3.999161e-001 1.727330e+002 -6.669688e+001 -2.068881e+001 -6.546766e+001 -3.322115e+001 -3.681483e-002 1.403605e+002
522650056.62514 -4.046691e-001 1.725175e+002 -6.702108e+001 -3.102408e+001 -6.713622e+001 -3.076362e+001 -3.930270e-002 1.405301e+002
523027557.56889 -4.089541e-001 1.723004e+002 -6.599988e+001 -3.260261e+001 -6.668299e+001 -3.411780e+001 -3.906045e-002 1.407617e+002
523405058.51265 -4.045381e-001 1.720777e+002 -6.556130e+001 -2.958955e+001 -6.646655e+001 -2.920769e+001 -3.560223e-002 1.410056e+002
523782559.4564 -4.109452e-001 1.718767e+002 -6.585085e+001 -3.031079e+001 -6.604994e+001 -3.042435e+001 -4.467272e-002 1.411337e+002
524160060.40015 -4.131449e-001 1.716517e+002 -6.623555e+001 -3.555457e+001 -6.528198e+001 -2.885969e+001 -4.549182e-002 1.413052e+002
524537561.3439 -4.169487e-001 1.714419e+002 -6.542782e+001 -3.228598e+001 -6.669011e+001 -3.842193e+001 -5.374626e-002 1.414747e+002
524915062.28766 -4.203588e-001 1.712108e+002 -6.620144e+001 -3.598043e+001 -6.518510e+001 -3.876351e+001 -5.595616e-002 1.416633e+002
525292563.23141 -4.214783e-001 1.709829e+002 -6.531406e+001 -3.525734e+001 -6.472034e+001 -3.684007e+001 -6.193413e-002 1.418047e+002
525670064.17516 -4.230821e-001 1.707998e+002 -6.661179e+001 -3.808048e+001 -6.552245e+001 -4.146730e+001 -7.185471e-002 1.419143e+002
526047565.11891 -4.244396e-001 1.705627e+002 -6.529980e+001 -4.066335e+001 -6.543079e+001 -4.077954e+001 -8.084093e-002 1.420270e+002
526425066.06267 -4.327411e-001 1.703040e+002 -6.481422e+001 -3.638372e+001 -6.613152e+001 -3.615691e+001 -8.980861e-002 1.421268e+002
526802567.00642 -4.342074e-001 1.700245e+002 -6.475081e+001 -4.022296e+001 -6.628060e+001 -3.868449e+001 -9.479167e-002 1.421800e+002
527180067.95017 -4.345909e-001 1.698310e+002 -6.541380e+001 -4.092236e+001 -6.459502e+001 -3.828073e+001 -1.057996e-001 1.422257e+002
527557568.89392 -4.386330e-001 1.696477e+002 -6.500159e+001 -4.238744e+001 -6.553095e+001 -3.828593e+001 -1.099075e-001 1.422144e+002
527935069.83767 -4.440790e-001 1.693764e+002 -6.573278e+001 -3.437127e+001 -6.617956e+001 -4.415839e+001 -1.252105e-001 1.422519e+002
528312570.78143 -4.455427e-001 1.691416e+002 -6.486555e+001 -4.217688e+001 -6.521502e+001 -5.301427e+001 -1.300941e-001 1.422438e+002
528690071.72518 -4.490669e-001 1.689222e+002 -6.534137e+001 -4.132139e+001 -6.596305e+001 -3.488100e+001 -1.389802e-001 1.421832e+002
529067572.66893 -4.495587e-001 1.686707e+002 -6.373304e+001 -4.610913e+001 -6.541776e+001 -4.262190e+001 -1.534207e-001 1.421119e+002
529445073.61268 -4.552777e-001 1.684977e+002 -6.596411e+001 -4.436587e+001 -6.426901e+001 -5.083514e+001 -1.623209e-001 1.420408e+002
529822574.55644 -4.591736e-001 1.682226e+002 -6.497636e+001 -4.267395e+001 -6.465262e+001 -4.725861e+001 -1.722166e-001 1.419047e+002
530200075.50019 -4.603715e-001 1.679777e+002 -6.512946e+001 -4.995446e+001 -6.544823e+001 -4.134037e+001 -1.782411e-001 1.417365e+002
530577576.44394 -4.667230e-001 1.677023e+002 -6.605457e+001 -3.607198e+001 -6.422872e+001 -4.674551e+001 -1.896373e-001 1.415580e+002
530955077.38769 -4.725925e-001 1.674944e+002 -6.416132e+001 -5.454416e+001 -6.483762e+001 -5.245826e+001 -1.967939e-001 1.413790e+002
531332578.33145 -4.740846e-001 1.673018e+002 -6.493086e+001 -4.863762e+001 -6.345448e+001 -5.346640e+001 -2.057150e-001 1.411588e+002
531710079.2752 -4.779776e-001 1.670063e+002 -6.516829e+001 -5.012127e+001 -6.459245e+001 -5.353279e+001 -2.175948e-001 1.408988e+002
532087580.21895 -4.813946e-001 1.667803e+002 -6.383090e+001 -3.812601e+001 -6.544945e+001 -5.471288e+001 -2.158614e-001 1.406572e+002
532465081.1627 -4.852531e-001 1.665786e+002 -6.381927e+001 -4.829001e+001 -6.420850e+001 -5.106491e+001 -2.238451e-001 1.403433e+002
532842582.10646 -4.875644e-001 1.663358e+002 -6.347889e+001 -5.566146e+001 -6.482293e+001 -5.756492e+001 -2.295377e-001 1.401069e+002
533220083.05021 -4.935949e-001 1.660627e+002 -6.445287e+001 -5.166970e+001 -6.528362e+001 -5.085826e+001 -2.323799e-001 1.398192e+002
533597583.99396 -4.962790e-001 1.657934e+002 -6.451905e+001 -4.588982e+001 -6.426898e+001 -4.772815e+001 -2.358081e-001 1.395647e+002
533975084.93771 -5.000750e-001 1.655582e+002 -6.352842e+001 -5.957981e+001 -6.440614e+001 -5.816224e+001 -2.370527e-001 1.392279e+002
534352585.88146 -5.075667e-001 1.653219e+002 -6.445200e+001 -5.215162e+001 -6.413986e+001 -5.738760e+001 -2.361279e-001 1.389214e+002
534730086.82522 -5.144169e-001 1.651362e+002 -6.396798e+001 -5.365181e+001 -6.363603e+001 -5.269674e+001 -2.370211e-001 1.385720e+002
535107587.76897 -5.201647e-001 1.648665e+002 -6.324842e+001 -5.839472e+001 -6.441254e+001 -5.784840e+001 -2.351005e-001 1.383185e+002
535485088.71272 -5.204219e-001 1.645890e+002 -6.479424e+001 -6.055610e+001 -6.364582e+001 -5.200362e+001 -2.364837e-001 1.379936e+002
535862589.65647 -5.290394e-001 1.643987e+002 -6.367340e+001 -5.237864e+001 -6.341071e+001 -5.988985e+001 -2.318536e-001 1.377102e+002
536240090.60023 -5.302979e-001 1.641426e+002 -6.447525e+001 -5.391043e+001 -6.361826e+001 -6.108188e+001 -2.294495e-001 1.374423e+002
536617591.54398 -5.351828e-001 1.638717e+002 -6.329460e+001 -5.831187e+001 -6.350878e+001 -6.102823e+001 -2.242455e-001 1.371392e+002
536995092.48773 -5.402934e-001 1.636952e+002 -6.333115e+001 -6.666663e+001 -6.288696e+001 -6.326804e+001 -2.191013e-001 1.369087e+002
537372593.43148 -5.434975e-001 1.634077e+002 -6.355616e+001 -7.050171e+001 -6.330471e+001 -6.847512e+001 -2.096326e-001 1.366665e+002
537750094.37524 -5.429105e-001 1.631898e+002 -6.317237e+001 -6.480556e+001 -6.306718e+001 -6.485516e+001 -2.052281e-001 1.364410e+002
538127595.31899 -5.526000e-001 1.629659e+002 -6.287898e+001 -6.119108e+001 -6.366373e+001 -6.961273e+001 -2.008859e-001 1.362347e+002
538505096.26274 -5.539511e-001 1.627414e+002 -6.318037e+001 -6.168507e+001 -6.430000e+001 -6.526321e+001 -1.904143e-001 1.360620e+002
538882597.20649 -5.555982e-001 1.625005e+002 -6.337310e+001 -6.208357e+001 -6.382188e+001 -7.034078e+001 -1.834266e-001 1.358547e+002
539260098.15025 -5.638550e-001 1.622214e+002 -6.360940e+001 -6.562882e+001 -6.336673e+001 -7.234267e+001 -1.756033e-001 1.357149e+002
539637599.094 -5.707300e-001 1.620376e+002 -6.356583e+001 -6.345092e+001 -6.308149e+001 -7.383662e+001 -1.689450e-001 1.355629e+002
540015100.03775 -5.743187e-001 1.618405e+002 -6.330666e+001 -7.406348e+001 -6.293070e+001 -7.018179e+001 -1.562734e-001 1.355270e+002
540392600.9815 -5.766634e-001 1.615741e+002 -6.379055e+001 -7.756464e+001 -6.256447e+001 -7.365524e+001 -1.548801e-001 1.353876e+002
540770101.92525 -5.822828e-001 1.612944e+002 -6.261098e+001 -7.315630e+001 -6.308440e+001 -7.535699e+001 -1.452754e-001 1.352997e+002
541147602.86901 -5.853028e-001 1.610931e+002 -6.242229e+001 -7.532532e+001 -6.278278e+001 -7.422490e+001 -1.375663e-001 1.352479e+002
541525103.81276 -5.854729e-001 1.608620e+002 -6.284545e+001 -7.761620e+001 -6.352057e+001 -7.855316e+001 -1.290369e-001 1.352234e+002
541902604.75651 -5.873339e-001 1.606072e+002 -6.329905e+001 -7.405853e+001 -6.289175e+001 -7.775923e+001 -1.253615e-001 1.352090e+002
542280105.70026 -5.940993e-001 1.603676e+002 -6.286388e+001 -7.341574e+001 -6.315503e+001 -8.022921e+001 -1.130090e-001 1.352017e+002
542657606.64402 -5.971109e-001 1.601432e+002 -6.278727e+001 -8.195599e+001 -6.268645e+001 -7.967313e+001 -1.127245e-001 1.352209e+002
543035107.58777 -5.971701e-001 1.599003e+002 -6.302469e+001 -8.568129e+001 -6.270409e+001 -7.903904e+001 -1.022874e-001 1.352623e+002
543412608.53152 -6.053987e-001 1.596684e+002 -6.244239e+001 -7.998337e+001 -6.274171e+001 -8.303980e+001 -9.920649e-002 1.352986e+002
543790109.47527 -6.089395e-001 1.594749e+002 -6.255814e+001 -8.125460e+001 -6.323299e+001 -8.513419e+001 -9.121355e-002 1.353556e+002
544167610.41903 -6.107264e-001 1.591747e+002 -6.218253e+001 -8.259483e+001 -6.265210e+001 -8.353618e+001 -8.625856e-002 1.354268e+002
544545111.36278 -6.107987e-001 1.589899e+002 -6.300417e+001 -8.543641e+001 -6.278720e+001 -8.710280e+001 -8.653617e-002 1.355128e+002
544922612.30653 -6.156045e-001 1.586429e+002 -6.190349e+001 -8.406082e+001 -6.222563e+001 -8.556966e+001 -7.867717e-002 1.355987e+002
545300113.25028 -6.216057e-001 1.584436e+002 -6.111652e+001 -8.540866e+001 -6.262012e+001 -8.345065e+001 -7.824343e-002 1.357063e+002
545677614.19404 -6.204998e-001 1.581615e+002 -6.169802e+001 -8.507319e+001 -6.210053e+001 -9.504935e+001 -7.552925e-002 1.357924e+002
546055115.13779 -6.245031e-001 1.579158e+002 -6.142233e+001 -8.609000e+001 -6.186613e+001 -8.969350e+001 -7.435542e-002 1.359337e+002
546432616.08154 -6.285458e-001 1.576317e+002 -6.183323e+001 -9.265128e+001 -6.288374e+001 -9.229494e+001 -7.432188e-002 1.360319e+002
546810117.02529 -6.317910e-001 1.573401e+002 -6.122339e+001 -8.530023e+001 -6.364519e+001 -9.973184e+001 -7.127941e-002 1.361503e+002
547187617.96904 -6.393786e-001 1.571225e+002 -6.238948e+001 -8.764722e+001 -6.240966e+001 -9.781327e+001 -6.932348e-002 1.362675e+002
547565118.9128 -6.441845e-001 1.568727e+002 -6.138960e+001 -9.379848e+001 -6.230397e+001 -9.376969e+001 -7.170987e-002 1.363553e+002
547942619.85655 -6.539531e-001 1.565946e+002 -6.191460e+001 -9.406815e+001 -6.253726e+001 -9.751335e+001 -7.198386e-002 1.364842e+002
548320120.8003 -6.617876e-001 1.563208e+002 -6.180664e+001 -9.050314e+001 -6.212213e+001 -9.977419e+001 -7.431763e-002 1.365910e+002
548697621.74405 -6.682184e-001 1.560176e+002 -6.232502e+001 -9.881049e+001 -6.210123e+001 -9.803848e+001 -7.499798e-002 1.366868e+002
549075122.68781 -6.748864e-001 1.557935e+002 -6.160987e+001 -9.995863e+001 -6.349950e+001 -1.011668e+002 -7.763848e-002 1.368305e+002
549452623.63156 -6.850950e-001 1.555074e+002 -6.234321e+001 -1.038370e+002 -6.355043e+001 -1.060731e+002 -8.532725e-002 1.368729e+002
549830124.57531 -6.932007e-001 1.552392e+002 -6.233174e+001 -1.044754e+002 -6.279218e+001 -1.011980e+002 -8.710816e-002 1.369597e+002
550207625.51906 -7.003825e-001 1.549465e+002 -6.171720e+001 -1.032033e+002 -6.306938e+001 -1.021779e+002 -9.151747e-002 1.370299e+002
550585126.46282 -7.110044e-001 1.546945e+002 -6.191946e+001 -1.020229e+002 -6.278283e+001 -1.004567e+002 -9.478598e-002 1.370898e+002
550962627.40657 -7.156831e-001 1.544556e+002 -6.204565e+001 -1.037679e+002 -6.219274e+001 -1.008794e+002 -1.003250e-001 1.371154e+002
551340128.35032 -7.235339e-001 1.541879e+002 -6.251709e+001 -1.047549e+002 -6.223697e+001 -1.080759e+002 -1.058787e-001 1.371513e+002
551717629.29407 -7.355737e-001 1.538975e+002 -6.319736e+001 -1.082344e+002 -6.221992e+001 -1.034256e+002 -1.128502e-001 1.371988e+002
552095130.23783 -7.435151e-001 1.535998e+002 -6.266100e+001 -1.039850e+002 -6.235431e+001 -1.060612e+002 -1.160492e-001 1.371941e+002
552472631.18158 -7.495303e-001 1.533598e+002 -6.215361e+001 -1.020649e+002 -6.239071e+001 -1.054010e+002 -1.243633e-001 1.372074e+002
552850132.12533 -7.559363e-001 1.531090e+002 -6.249259e+001 -1.058499e+002 -6.239065e+001 -1.024749e+002 -1.322877e-001 1.371803e+002
553227633.06908 -7.666220e-001 1.527514e+002 -6.349086e+001 -1.086208e+002 -6.256371e+001 -1.045483e+002 -1.390378e-001 1.371365e+002
553605134.01284 -7.740982e-001 1.525375e+002 -6.148773e+001 -1.030742e+002 -6.367389e+001 -1.072600e+002 -1.447940e-001 1.370965e+002
553982634.95659 -7.848793e-001 1.522183e+002 -6.190868e+001 -1.075773e+002 -6.277719e+001 -1.086504e+002 -1.524243e-001 1.370222e+002
554360135.90034 -7.967387e-001 1.519408e+002 -6.175246e+001 -1.079318e+002 -6.164461e+001 -1.106512e+002 -1.582466e-001 1.369572e+002
554737636.84409 -8.051589e-001 1.517141e+002 -6.160141e+001 -1.106823e+002 -6.229428e+001 -1.065945e+002 -1.678863e-001 1.368542e+002
555115137.78784 -8.148674e-001 1.513978e+002 -6.246299e+001 -1.062363e+002 -6.074098e+001 -1.122918e+002 -1.692377e-001 1.367267e+002
