!Agilent Technologies,E8364B,US42250235,A.06.04.32
!Agilent E8364B: A.06.04.32
!Date: Thursday, October 01, 2020 16:07:53
!Correction: S11(Full 2 Port(1,2)) S21(Full 2 Port(1,2)) S12(Full 2 Port(1,2)) S22(Full 2 Port(1,2)) 
!S2P File: Measurements: S11, S21, S12, S22:
# Hz S  dB   R 50
500000000 -2.338495e-001 -1.750905e+002 -7.317277e+001 -1.654083e+002 -7.599196e+001 -1.701105e+002 -2.841687e-002 1.434001e+002
500377500.94375 -2.370283e-001 -1.752714e+002 -7.212464e+001 1.755387e+002 -7.113715e+001 -1.581334e+002 -2.952787e-002 1.435285e+002
500755001.8875 -2.341955e-001 -1.754505e+002 -7.425280e+001 -1.640015e+002 -7.285941e+001 -1.724886e+002 -2.900658e-002 1.437199e+002
501132502.83126 -2.422337e-001 -1.756351e+002 -7.526324e+001 1.723153e+002 -7.290348e+001 -1.500188e+002 -3.785396e-002 1.438713e+002
501510003.77501 -2.430336e-001 -1.758374e+002 -7.127531e+001 -1.617388e+002 -7.496377e+001 -1.532402e+002 -3.924271e-002 1.440094e+002
501887504.71876 -2.424821e-001 -1.760927e+002 -7.355461e+001 -1.671631e+002 -6.930495e+001 -1.768362e+002 -4.180238e-002 1.441337e+002
502265005.66251 -2.517855e-001 -1.762356e+002 -7.706165e+001 1.695680e+002 -7.232634e+001 -1.605190e+002 -5.080555e-002 1.442687e+002
502642506.60627 -2.494899e-001 -1.764803e+002 -7.156049e+001 -1.773876e+002 -7.334409e+001 -1.620003e+002 -5.484046e-002 1.444057e+002
503020007.55002 -2.577519e-001 -1.766423e+002 -7.466006e+001 -1.792322e+002 -7.220612e+001 -1.758821e+002 -6.302777e-002 1.444591e+002
503397508.49377 -2.573383e-001 -1.768264e+002 -7.067403e+001 1.770449e+002 -7.142391e+001 -1.744704e+002 -6.855293e-002 1.445317e+002
503775009.43752 -2.579666e-001 -1.771151e+002 -6.993789e+001 -1.664022e+002 -7.046088e+001 1.720689e+002 -7.528284e-002 1.445889e+002
504152510.38128 -2.631111e-001 -1.772678e+002 -7.186682e+001 -1.746318e+002 -7.190518e+001 -1.691163e+002 -8.415776e-002 1.446064e+002
504530011.32503 -2.627231e-001 -1.775013e+002 -7.371947e+001 1.756226e+002 -7.546696e+001 1.711507e+002 -9.096807e-002 1.446307e+002
504907512.26878 -2.669461e-001 -1.776212e+002 -6.904522e+001 -1.731785e+002 -6.987086e+001 -1.691090e+002 -1.001581e-001 1.446293e+002
505285013.21253 -2.688402e-001 -1.778377e+002 -7.106745e+001 1.665161e+002 -7.076044e+001 -1.737581e+002 -1.125946e-001 1.446165e+002
505662514.15629 -2.638897e-001 -1.780343e+002 -7.096781e+001 1.618213e+002 -6.973066e+001 -1.696385e+002 -1.208209e-001 1.445903e+002
506040015.10004 -2.717118e-001 -1.782167e+002 -7.081049e+001 1.794511e+002 -7.129777e+001 -1.755641e+002 -1.260415e-001 1.444936e+002
506417516.04379 -2.699122e-001 -1.784867e+002 -7.254979e+001 1.792544e+002 -7.053257e+001 1.630159e+002 -1.384241e-001 1.444009e+002
506795016.98754 -2.755283e-001 -1.786073e+002 -7.147217e+001 1.524929e+002 -7.356490e+001 1.726452e+002 -1.428294e-001 1.442888e+002
507172517.93129 -2.755316e-001 -1.788755e+002 -7.402112e+001 1.586358e+002 -7.120201e+001 1.737682e+002 -1.516660e-001 1.441620e+002
507550018.87505 -2.751052e-001 -1.790291e+002 -7.130466e+001 1.639766e+002 -7.288918e+001 1.641021e+002 -1.617178e-001 1.439811e+002
507927519.8188 -2.775051e-001 -1.792992e+002 -7.135885e+001 1.695372e+002 -7.224472e+001 1.752144e+002 -1.700558e-001 1.438292e+002
508305020.76255 -2.784120e-001 -1.795325e+002 -6.950257e+001 1.634635e+002 -7.055036e+001 1.739890e+002 -1.765656e-001 1.436341e+002
508682521.7063 -2.796736e-001 -1.797362e+002 -7.556509e+001 1.610084e+002 -7.169907e+001 1.680885e+002 -1.880271e-001 1.434348e+002
509060022.65006 -2.821155e-001 -1.799285e+002 -7.212117e+001 1.581342e+002 -7.242085e+001 1.787295e+002 -1.910112e-001 1.431684e+002
509437523.59381 -2.853616e-001 1.798178e+002 -7.428440e+001 1.531509e+002 -7.257375e+001 -1.748141e+002 -1.916794e-001 1.429511e+002
509815024.53756 -2.844842e-001 1.796357e+002 -7.529791e+001 1.454534e+002 -7.073717e+001 1.578660e+002 -1.945166e-001 1.426724e+002
510192525.48131 -2.874824e-001 1.794538e+002 -7.122108e+001 1.638029e+002 -7.100903e+001 1.657034e+002 -2.016252e-001 1.424211e+002
510570026.42507 -2.930583e-001 1.792314e+002 -7.318351e+001 1.366817e+002 -7.358334e+001 1.542527e+002 -2.059540e-001 1.421348e+002
510947527.36882 -2.915277e-001 1.789768e+002 -7.323873e+001 1.574768e+002 -7.119870e+001 1.668344e+002 -2.057544e-001 1.418564e+002
511325028.31257 -2.980431e-001 1.788150e+002 -7.297844e+001 1.480542e+002 -7.171677e+001 1.688259e+002 -2.075399e-001 1.415591e+002
511702529.25632 -2.940121e-001 1.785078e+002 -7.175568e+001 1.604273e+002 -7.312541e+001 1.739624e+002 -2.075348e-001 1.412760e+002
512080030.20008 -3.047014e-001 1.782941e+002 -7.361061e+001 1.443344e+002 -7.029358e+001 1.540334e+002 -2.081570e-001 1.409861e+002
512457531.14383 -3.049867e-001 1.781466e+002 -7.227316e+001 1.560372e+002 -7.185323e+001 1.547180e+002 -2.036146e-001 1.407211e+002
512835032.08758 -3.078809e-001 1.778633e+002 -7.149548e+001 1.624888e+002 -7.195660e+001 1.649250e+002 -2.020189e-001 1.404314e+002
513212533.03133 -3.102671e-001 1.776295e+002 -7.348246e+001 1.699613e+002 -7.360143e+001 1.495585e+002 -1.982055e-001 1.401678e+002
513590033.97508 -3.136595e-001 1.774210e+002 -7.072539e+001 1.680615e+002 -7.050897e+001 1.655028e+002 -1.929425e-001 1.399209e+002
513967534.91884 -3.209906e-001 1.772752e+002 -7.311387e+001 1.575532e+002 -7.338418e+001 1.617600e+002 -1.860037e-001 1.396557e+002
514345035.86259 -3.171173e-001 1.769905e+002 -7.165546e+001 1.408369e+002 -7.145538e+001 1.643726e+002 -1.842399e-001 1.394801e+002
514722536.80634 -3.201011e-001 1.767963e+002 -7.086838e+001 1.491725e+002 -7.061327e+001 1.702318e+002 -1.750217e-001 1.392820e+002
515100037.75009 -3.211150e-001 1.766546e+002 -7.208193e+001 1.463451e+002 -7.328769e+001 1.530105e+002 -1.660034e-001 1.391142e+002
515477538.69385 -3.216656e-001 1.763212e+002 -7.130104e+001 1.467358e+002 -7.365105e+001 1.575948e+002 -1.631647e-001 1.389409e+002
515855039.6376 -3.245837e-001 1.762025e+002 -7.093341e+001 1.433535e+002 -7.172512e+001 1.485264e+002 -1.492077e-001 1.388208e+002
516232540.58135 -3.295259e-001 1.759745e+002 -7.000574e+001 1.533383e+002 -7.206805e+001 1.499830e+002 -1.418541e-001 1.387185e+002
516610041.5251 -3.307413e-001 1.757092e+002 -6.979650e+001 1.564383e+002 -7.324061e+001 1.579308e+002 -1.357628e-001 1.386447e+002
516987542.46886 -3.299369e-001 1.755334e+002 -7.357437e+001 1.559931e+002 -7.339861e+001 1.404846e+002 -1.275359e-001 1.385768e+002
517365043.41261 -3.359238e-001 1.752942e+002 -7.185404e+001 1.408918e+002 -7.198456e+001 1.395361e+002 -1.185283e-001 1.385182e+002
517742544.35636 -3.388243e-001 1.750222e+002 -7.134012e+001 1.464847e+002 -7.022572e+001 1.436142e+002 -1.113611e-001 1.385383e+002
518120045.30011 -3.443691e-001 1.748796e+002 -7.177767e+001 1.487740e+002 -7.223043e+001 1.315331e+002 -1.008218e-001 1.385640e+002
518497546.24387 -3.428690e-001 1.746345e+002 -7.106076e+001 1.437436e+002 -6.930866e+001 1.475286e+002 -9.235813e-002 1.386022e+002
518875047.18762 -3.488491e-001 1.744029e+002 -6.954391e+001 1.442855e+002 -6.998893e+001 1.555673e+002 -8.382636e-002 1.386772e+002
519252548.13137 -3.533783e-001 1.742103e+002 -6.872547e+001 1.456466e+002 -7.080015e+001 1.515487e+002 -8.082527e-002 1.387557e+002
519630049.07512 -3.583060e-001 1.739820e+002 -6.983249e+001 1.346627e+002 -7.025586e+001 1.493926e+002 -7.394376e-002 1.388794e+002
520007550.01888 -3.578244e-001 1.736987e+002 -7.068506e+001 1.393557e+002 -7.162489e+001 1.362322e+002 -6.632319e-002 1.389451e+002
520385050.96263 -3.611144e-001 1.735292e+002 -6.906994e+001 1.433117e+002 -7.046880e+001 1.315966e+002 -6.210031e-002 1.391243e+002
520762551.90638 -3.659603e-001 1.733288e+002 -7.001392e+001 1.265136e+002 -7.005517e+001 1.376093e+002 -5.426103e-002 1.392976e+002
521140052.85013 -3.707232e-001 1.730575e+002 -7.277109e+001 1.271799e+002 -6.909921e+001 1.407430e+002 -5.137257e-002 1.394584e+002
521517553.79388 -3.732879e-001 1.728730e+002 -6.953172e+001 1.386789e+002 -7.191576e+001 1.372474e+002 -5.010016e-002 1.396596e+002
521895054.73764 -3.755713e-001 1.726815e+002 -7.218647e+001 1.316367e+002 -6.961263e+001 1.400804e+002 -4.767973e-002 1.398206e+002
522272555.68139 -3.814566e-001 1.724558e+002 -6.869699e+001 1.278706e+002 -7.005608e+001 1.330314e+002 -4.572332e-002 1.400342e+002
522650056.62514 -3.845715e-001 1.722294e+002 -7.006063e+001 1.317667e+002 -6.988215e+001 1.510068e+002 -4.428513e-002 1.401802e+002
523027557.56889 -3.922138e-001 1.720314e+002 -6.831361e+001 1.297073e+002 -6.987702e+001 1.462083e+002 -4.862430e-002 1.404382e+002
523405058.51265 -3.893821e-001 1.717793e+002 -6.911687e+001 1.242045e+002 -6.964977e+001 1.543654e+002 -4.764336e-002 1.406798e+002
523782559.4564 -3.949640e-001 1.715360e+002 -6.973972e+001 1.368196e+002 -6.948306e+001 1.436860e+002 -5.091137e-002 1.408079e+002
524160060.40015 -3.981937e-001 1.713002e+002 -6.843797e+001 1.216318e+002 -6.891540e+001 1.428476e+002 -5.286688e-002 1.409955e+002
524537561.3439 -4.003658e-001 1.711322e+002 -6.940181e+001 1.284269e+002 -6.906377e+001 1.412455e+002 -5.903296e-002 1.411629e+002
524915062.28766 -4.030050e-001 1.708536e+002 -6.924395e+001 1.319353e+002 -6.965485e+001 1.348201e+002 -6.512551e-002 1.413475e+002
525292563.23141 -4.078664e-001 1.705521e+002 -6.875960e+001 1.187423e+002 -6.809091e+001 1.318065e+002 -7.052493e-002 1.414724e+002
525670064.17516 -4.077071e-001 1.703662e+002 -6.864904e+001 1.269139e+002 -6.714261e+001 1.292182e+002 -7.513701e-002 1.416022e+002
526047565.11891 -4.141345e-001 1.701431e+002 -6.742841e+001 1.320270e+002 -6.807507e+001 1.302861e+002 -8.528819e-002 1.417083e+002
526425066.06267 -4.195872e-001 1.698525e+002 -6.964045e+001 1.219986e+002 -6.941536e+001 1.276192e+002 -9.248539e-002 1.418180e+002
526802567.00642 -4.228027e-001 1.696240e+002 -6.830499e+001 1.206574e+002 -6.962886e+001 1.303006e+002 -1.013614e-001 1.418719e+002
527180067.95017 -4.308015e-001 1.694241e+002 -6.880037e+001 1.291700e+002 -6.934299e+001 1.151668e+002 -1.091283e-001 1.418942e+002
527557568.89392 -4.319108e-001 1.691561e+002 -6.855202e+001 1.221784e+002 -6.845440e+001 1.286647e+002 -1.156808e-001 1.419418e+002
527935069.83767 -4.423605e-001 1.689766e+002 -6.802483e+001 1.061345e+002 -6.857653e+001 1.182677e+002 -1.253319e-001 1.419423e+002
528312570.78143 -4.430639e-001 1.686625e+002 -6.734990e+001 1.217575e+002 -6.766592e+001 1.288765e+002 -1.325234e-001 1.419080e+002
528690071.72518 -4.467709e-001 1.685009e+002 -7.145126e+001 1.091885e+002 -6.712291e+001 1.209554e+002 -1.375252e-001 1.418602e+002
529067572.66893 -4.509694e-001 1.682221e+002 -6.809645e+001 1.220708e+002 -6.875246e+001 1.312420e+002 -1.570314e-001 1.417904e+002
529445073.61268 -4.590715e-001 1.680393e+002 -6.873688e+001 9.657427e+001 -6.836589e+001 1.168425e+002 -1.617403e-001 1.416977e+002
529822574.55644 -4.625551e-001 1.677626e+002 -7.113390e+001 1.164718e+002 -7.074182e+001 1.110759e+002 -1.726779e-001 1.415555e+002
530200075.50019 -4.691242e-001 1.674258e+002 -7.073544e+001 1.245700e+002 -6.786523e+001 1.145448e+002 -1.767276e-001 1.413961e+002
530577576.44394 -4.764087e-001 1.671930e+002 -6.714885e+001 9.316660e+001 -6.802745e+001 1.153376e+002 -1.916472e-001 1.412257e+002
530955077.38769 -4.808053e-001 1.669465e+002 -7.110394e+001 1.173375e+002 -6.864084e+001 1.278969e+002 -1.981714e-001 1.410184e+002
531332578.33145 -4.877027e-001 1.667437e+002 -6.664217e+001 1.047180e+002 -6.752789e+001 1.115137e+002 -2.010279e-001 1.408177e+002
531710079.2752 -4.943047e-001 1.664433e+002 -6.772474e+001 1.124826e+002 -6.825039e+001 1.058651e+002 -2.128285e-001 1.405485e+002
532087580.21895 -5.025669e-001 1.662791e+002 -6.806263e+001 9.958824e+001 -6.819708e+001 1.043282e+002 -2.157804e-001 1.403051e+002
532465081.1627 -5.075380e-001 1.660200e+002 -6.985961e+001 1.053907e+002 -6.807732e+001 9.689697e+001 -2.209629e-001 1.400204e+002
532842582.10646 -5.157325e-001 1.657266e+002 -6.928259e+001 1.167358e+002 -6.827334e+001 1.080671e+002 -2.225863e-001 1.397132e+002
533220083.05021 -5.227661e-001 1.655022e+002 -6.571587e+001 1.051329e+002 -6.730961e+001 1.054134e+002 -2.276449e-001 1.394743e+002
533597583.99396 -5.306888e-001 1.652737e+002 -6.655437e+001 9.622528e+001 -6.731992e+001 1.163018e+002 -2.321363e-001 1.392114e+002
533975084.93771 -5.397846e-001 1.649582e+002 -6.762987e+001 8.998795e+001 -6.781140e+001 1.049406e+002 -2.352574e-001 1.388534e+002
534352585.88146 -5.493217e-001 1.647844e+002 -6.845358e+001 1.045212e+002 -6.784454e+001 1.041237e+002 -2.360663e-001 1.385639e+002
534730086.82522 -5.596351e-001 1.645569e+002 -6.840916e+001 9.854018e+001 -6.749403e+001 1.059107e+002 -2.324563e-001 1.382526e+002
535107587.76897 -5.678174e-001 1.643510e+002 -6.713554e+001 1.011313e+002 -6.730859e+001 9.942870e+001 -2.375108e-001 1.379562e+002
535485088.71272 -5.721266e-001 1.640436e+002 -6.742397e+001 9.920985e+001 -6.743198e+001 9.480715e+001 -2.304190e-001 1.376502e+002
535862589.65647 -5.809954e-001 1.638253e+002 -6.744332e+001 9.867155e+001 -6.836709e+001 9.952699e+001 -2.288386e-001 1.373241e+002
536240090.60023 -5.823649e-001 1.636194e+002 -6.812118e+001 9.560807e+001 -6.691631e+001 9.341325e+001 -2.263848e-001 1.370735e+002
536617591.54398 -5.938809e-001 1.633394e+002 -6.589845e+001 9.502742e+001 -6.598248e+001 9.712980e+001 -2.207811e-001 1.367708e+002
536995092.48773 -6.039118e-001 1.631625e+002 -6.678950e+001 8.467621e+001 -6.710481e+001 8.746336e+001 -2.156623e-001 1.365228e+002
537372593.43148 -6.070857e-001 1.628894e+002 -6.705598e+001 8.853587e+001 -6.785350e+001 8.909650e+001 -2.090494e-001 1.362993e+002
537750094.37524 -6.149321e-001 1.627103e+002 -6.738592e+001 8.340777e+001 -6.657249e+001 9.300630e+001 -2.011242e-001 1.360671e+002
538127595.31899 -6.195875e-001 1.624755e+002 -6.737151e+001 8.958210e+001 -6.741744e+001 9.020206e+001 -1.970961e-001 1.358514e+002
538505096.26274 -6.294464e-001 1.622847e+002 -6.615208e+001 9.025433e+001 -6.777586e+001 8.763663e+001 -1.880210e-001 1.357123e+002
538882597.20649 -6.335600e-001 1.620185e+002 -6.573553e+001 7.924306e+001 -6.859019e+001 8.236752e+001 -1.799459e-001 1.354954e+002
539260098.15025 -6.404839e-001 1.617601e+002 -6.761205e+001 8.712584e+001 -6.727628e+001 9.386192e+001 -1.719257e-001 1.353579e+002
539637599.094 -6.478636e-001 1.615433e+002 -6.640914e+001 7.800142e+001 -6.662099e+001 8.752338e+001 -1.656296e-001 1.352073e+002
540015100.03775 -6.572688e-001 1.613465e+002 -6.591292e+001 8.154670e+001 -6.838476e+001 9.276099e+001 -1.559653e-001 1.351532e+002
540392600.9815 -6.616629e-001 1.611775e+002 -6.770486e+001 8.692776e+001 -6.764135e+001 8.683957e+001 -1.514168e-001 1.350092e+002
540770101.92525 -6.763834e-001 1.608652e+002 -6.591996e+001 7.735725e+001 -6.770091e+001 8.478582e+001 -1.388550e-001 1.349426e+002
541147602.86901 -6.766243e-001 1.607133e+002 -6.755307e+001 7.012106e+001 -6.841030e+001 8.759080e+001 -1.325054e-001 1.349071e+002
541525103.81276 -6.781372e-001 1.603987e+002 -6.634453e+001 8.291631e+001 -6.788253e+001 8.080946e+001 -1.258224e-001 1.348739e+002
541902604.75651 -6.876249e-001 1.602417e+002 -6.599950e+001 7.446661e+001 -6.676855e+001 8.068921e+001 -1.184697e-001 1.348541e+002
542280105.70026 -6.948449e-001 1.600350e+002 -6.733046e+001 7.696841e+001 -6.838133e+001 8.717034e+001 -1.059814e-001 1.348597e+002
542657606.64402 -6.936952e-001 1.597502e+002 -6.627391e+001 7.322163e+001 -6.648829e+001 8.289775e+001 -1.057485e-001 1.348931e+002
543035107.58777 -7.027220e-001 1.596153e+002 -6.590821e+001 7.374924e+001 -6.716990e+001 8.257034e+001 -9.705336e-002 1.349272e+002
543412608.53152 -7.035936e-001 1.593012e+002 -6.682117e+001 7.398174e+001 -6.695059e+001 8.602026e+001 -9.617160e-002 1.349712e+002
543790109.47527 -7.061111e-001 1.591230e+002 -6.508493e+001 7.559583e+001 -6.629834e+001 7.697943e+001 -8.648381e-002 1.350208e+002
544167610.41903 -7.200572e-001 1.589185e+002 -6.537935e+001 7.130083e+001 -6.644905e+001 7.737590e+001 -8.107151e-002 1.351003e+002
544545111.36278 -7.141250e-001 1.586738e+002 -6.592068e+001 7.273302e+001 -6.632789e+001 8.090304e+001 -8.053249e-002 1.351867e+002
544922612.30653 -7.199644e-001 1.583455e+002 -6.438667e+001 7.305438e+001 -6.664851e+001 8.516312e+001 -7.320417e-002 1.352828e+002
545300113.25028 -7.296356e-001 1.581119e+002 -6.529211e+001 7.582789e+001 -6.535302e+001 8.133676e+001 -7.339484e-002 1.353940e+002
545677614.19404 -7.303867e-001 1.578765e+002 -6.390556e+001 6.820825e+001 -6.593885e+001 8.114978e+001 -7.164075e-002 1.354884e+002
546055115.13779 -7.416461e-001 1.576766e+002 -6.448968e+001 6.841582e+001 -6.561071e+001 7.311997e+001 -7.067843e-002 1.356209e+002
546432616.08154 -7.468784e-001 1.573672e+002 -6.402116e+001 6.915129e+001 -6.465746e+001 6.949585e+001 -6.814278e-002 1.357182e+002
546810117.02529 -7.513148e-001 1.570762e+002 -6.459692e+001 6.274748e+001 -6.480211e+001 6.555582e+001 -6.723133e-002 1.358257e+002
547187617.96904 -7.618173e-001 1.568703e+002 -6.297499e+001 6.121181e+001 -6.498405e+001 6.688721e+001 -6.823166e-002 1.359519e+002
547565118.9128 -7.724835e-001 1.566251e+002 -6.419550e+001 6.857172e+001 -6.514976e+001 6.667252e+001 -6.511829e-002 1.360456e+002
547942619.85655 -7.843994e-001 1.563299e+002 -6.338196e+001 5.147301e+001 -6.516843e+001 6.389258e+001 -6.795339e-002 1.361729e+002
548320120.8003 -7.942224e-001 1.560750e+002 -6.400638e+001 5.378596e+001 -6.530021e+001 6.176822e+001 -7.633036e-002 1.362706e+002
548697621.74405 -8.044184e-001 1.558623e+002 -6.393755e+001 5.373616e+001 -6.441871e+001 5.790781e+001 -7.368000e-002 1.363625e+002
549075122.68781 -8.183545e-001 1.556154e+002 -6.348536e+001 5.156288e+001 -6.476765e+001 5.449590e+001 -7.875268e-002 1.365291e+002
549452623.63156 -8.344824e-001 1.553879e+002 -6.388481e+001 5.509327e+001 -6.571473e+001 5.713242e+001 -8.384091e-002 1.365550e+002
549830124.57531 -8.409632e-001 1.551524e+002 -6.366285e+001 4.285051e+001 -6.585417e+001 5.186336e+001 -8.764698e-002 1.366478e+002
550207625.51906 -8.523813e-001 1.548773e+002 -6.462338e+001 3.887305e+001 -6.550011e+001 5.267215e+001 -9.535039e-002 1.367056e+002
550585126.46282 -8.630776e-001 1.546171e+002 -6.395432e+001 4.489245e+001 -6.504736e+001 4.787171e+001 -1.007450e-001 1.367683e+002
550962627.40657 -8.688662e-001 1.543957e+002 -6.421574e+001 5.099908e+001 -6.543920e+001 5.011948e+001 -1.039546e-001 1.368132e+002
551340128.35032 -8.807442e-001 1.542002e+002 -6.397977e+001 4.131627e+001 -6.546052e+001 4.914755e+001 -1.089107e-001 1.368388e+002
551717629.29407 -8.895077e-001 1.538834e+002 -6.488368e+001 4.016416e+001 -6.479205e+001 5.318805e+001 -1.182444e-001 1.368669e+002
552095130.23783 -8.977637e-001 1.536477e+002 -6.567633e+001 3.054572e+001 -6.549824e+001 4.818504e+001 -1.209844e-001 1.368652e+002
552472631.18158 -9.056163e-001 1.534028e+002 -6.484583e+001 3.895074e+001 -6.599520e+001 4.915515e+001 -1.308143e-001 1.368686e+002
552850132.12533 -9.123943e-001 1.532077e+002 -6.491431e+001 3.242322e+001 -6.494424e+001 4.784754e+001 -1.359589e-001 1.368472e+002
553227633.06908 -9.264664e-001 1.528740e+002 -6.456947e+001 4.057013e+001 -6.549750e+001 4.485939e+001 -1.477648e-001 1.368065e+002
553605134.01284 -9.336259e-001 1.526447e+002 -6.462903e+001 4.084166e+001 -6.502422e+001 4.620577e+001 -1.504689e-001 1.367599e+002
553982634.95659 -9.509318e-001 1.523812e+002 -6.475573e+001 3.410134e+001 -6.434829e+001 4.409375e+001 -1.617320e-001 1.367000e+002
554360135.90034 -9.625960e-001 1.521657e+002 -6.446458e+001 4.234401e+001 -6.493400e+001 5.017172e+001 -1.661564e-001 1.366151e+002
554737636.84409 -9.773549e-001 1.519034e+002 -6.367795e+001 3.675649e+001 -6.389573e+001 4.305768e+001 -1.776188e-001 1.365212e+002
555115137.78784 -9.898781e-001 1.516347e+002 -6.468090e+001 3.848433e+001 -6.465617e+001 4.399523e+001 -1.763650e-001 1.364006e+002
555492638.7316 -1.005395e+000 1.513828e+002 -6.476783e+001 3.204622e+001 -6.500471e+001 3.950196e+001 -1.872925e-001 1.362643e+002
555870139.67535 -1.012616e+000 1.511740e+002 -6.404929e+001 4.004369e+001 -6.431068e+001 4.606554e+001 -1.934521e-001 1.361523e+002
