!Agilent Technologies,E8364B,US42250235,A.06.04.32
!Agilent E8364B: A.06.04.32
!Date: Thursday, October 01, 2020 15:53:08
!Correction: S11(Full 2 Port(1,2)) S21(Full 2 Port(1,2)) S12(Full 2 Port(1,2)) S22(Full 2 Port(1,2)) 
!S2P File: Measurements: S11, S21, S12, S22:
# Hz S  dB   R 50
500000000 -1.508802e-001 -1.751862e+002 -6.651100e+001 -8.400873e+001 -6.637629e+001 -7.790179e+001 5.640603e-002 1.424415e+002
500377500.94375 -1.509724e-001 -1.754674e+002 -6.500287e+001 -7.808736e+001 -6.719668e+001 -7.363247e+001 5.590323e-002 1.426057e+002
500755001.8875 -1.518568e-001 -1.755848e+002 -6.650983e+001 -8.155601e+001 -6.649296e+001 -6.994191e+001 5.640884e-002 1.427274e+002
501132502.83126 -1.547046e-001 -1.758617e+002 -6.549360e+001 -8.335955e+001 -6.838653e+001 -7.663769e+001 5.217583e-002 1.428513e+002
501510003.77501 -1.554640e-001 -1.760546e+002 -6.664477e+001 -8.415038e+001 -6.622937e+001 -7.336340e+001 4.871793e-002 1.429727e+002
501887504.71876 -1.555531e-001 -1.762474e+002 -6.766371e+001 -8.714854e+001 -6.677597e+001 -8.187564e+001 4.758143e-002 1.430652e+002
502265005.66251 -1.598948e-001 -1.764662e+002 -6.528058e+001 -8.705872e+001 -6.858567e+001 -7.344569e+001 4.341769e-002 1.431805e+002
502642506.60627 -1.576829e-001 -1.766574e+002 -6.607946e+001 -8.103217e+001 -6.647917e+001 -7.806889e+001 3.845533e-002 1.432919e+002
503020007.55002 -1.602124e-001 -1.769156e+002 -6.593920e+001 -8.771529e+001 -6.664327e+001 -7.362222e+001 3.427901e-002 1.433168e+002
503397508.49377 -1.626309e-001 -1.771046e+002 -6.612251e+001 -9.410651e+001 -6.747186e+001 -8.650079e+001 3.356913e-002 1.433818e+002
503775009.43752 -1.612242e-001 -1.773537e+002 -6.626888e+001 -8.321819e+001 -6.572231e+001 -8.058339e+001 2.167733e-002 1.434327e+002
504152510.38128 -1.638242e-001 -1.775442e+002 -6.558286e+001 -8.468209e+001 -6.755589e+001 -9.069138e+001 1.816582e-002 1.434593e+002
504530011.32503 -1.639372e-001 -1.777968e+002 -6.645325e+001 -8.628432e+001 -6.783694e+001 -8.141711e+001 8.979199e-003 1.434768e+002
504907512.26878 -1.656878e-001 -1.779711e+002 -6.524154e+001 -8.892191e+001 -6.818694e+001 -8.881577e+001 4.401382e-003 1.434762e+002
505285013.21253 -1.750993e-001 -1.781452e+002 -6.542629e+001 -8.426731e+001 -6.710809e+001 -8.198287e+001 -5.677784e-004 1.434553e+002
505662514.15629 -1.698215e-001 -1.784035e+002 -6.451542e+001 -9.797594e+001 -6.627670e+001 -7.715993e+001 -8.869250e-003 1.433993e+002
506040015.10004 -1.726406e-001 -1.786332e+002 -6.614168e+001 -8.535293e+001 -6.703925e+001 -7.538686e+001 -1.463708e-002 1.433405e+002
506417516.04379 -1.720584e-001 -1.788721e+002 -6.459602e+001 -8.859436e+001 -6.601321e+001 -8.378117e+001 -2.108577e-002 1.432699e+002
506795016.98754 -1.767996e-001 -1.790620e+002 -6.482522e+001 -9.421814e+001 -6.496059e+001 -9.137398e+001 -2.599077e-002 1.431698e+002
507172517.93129 -1.794706e-001 -1.792193e+002 -6.527592e+001 -8.872377e+001 -6.642477e+001 -8.293592e+001 -2.851150e-002 1.430664e+002
507550018.87505 -1.808358e-001 -1.794811e+002 -6.514295e+001 -9.204174e+001 -6.517228e+001 -8.592433e+001 -3.727346e-002 1.429150e+002
507927519.8188 -1.840412e-001 -1.796770e+002 -6.491952e+001 -8.659395e+001 -6.550269e+001 -8.731726e+001 -4.809631e-002 1.427602e+002
508305020.76255 -1.817660e-001 -1.799787e+002 -6.478216e+001 -9.125489e+001 -6.594633e+001 -8.266523e+001 -5.143899e-002 1.425851e+002
508682521.7063 -1.849422e-001 1.798447e+002 -6.468388e+001 -9.990898e+001 -6.554010e+001 -8.512075e+001 -6.156965e-002 1.423790e+002
509060022.65006 -1.884424e-001 1.796483e+002 -6.429755e+001 -9.415361e+001 -6.529422e+001 -8.222280e+001 -6.090407e-002 1.421947e+002
509437523.59381 -1.890270e-001 1.793796e+002 -6.544006e+001 -9.481220e+001 -6.362406e+001 -8.885938e+001 -6.579796e-002 1.419983e+002
509815024.53756 -1.887548e-001 1.791968e+002 -6.394114e+001 -9.098437e+001 -6.470103e+001 -8.782186e+001 -6.913147e-002 1.417581e+002
510192525.48131 -1.902669e-001 1.789590e+002 -6.443738e+001 -9.674945e+001 -6.642091e+001 -8.587248e+001 -7.050067e-002 1.415361e+002
510570026.42507 -1.974872e-001 1.786829e+002 -6.390934e+001 -1.063395e+002 -6.563351e+001 -7.997711e+001 -7.489712e-002 1.412942e+002
510947527.36882 -1.944592e-001 1.784977e+002 -6.426482e+001 -9.894430e+001 -6.463825e+001 -9.262141e+001 -7.535344e-002 1.410612e+002
511325028.31257 -2.010784e-001 1.782515e+002 -6.401833e+001 -9.712657e+001 -6.414710e+001 -8.879037e+001 -7.630317e-002 1.407899e+002
511702529.25632 -1.987868e-001 1.780103e+002 -6.448980e+001 -9.523473e+001 -6.453746e+001 -9.282418e+001 -7.571515e-002 1.405474e+002
512080030.20008 -2.047791e-001 1.777486e+002 -6.447865e+001 -9.860098e+001 -6.481549e+001 -8.743980e+001 -7.556193e-002 1.402893e+002
512457531.14383 -2.059365e-001 1.775965e+002 -6.445975e+001 -9.303999e+001 -6.456176e+001 -9.552441e+001 -7.298363e-002 1.400574e+002
512835032.08758 -2.096981e-001 1.773533e+002 -6.461344e+001 -1.044215e+002 -6.471318e+001 -9.180123e+001 -7.139948e-002 1.398122e+002
513212533.03133 -2.099822e-001 1.770396e+002 -6.489471e+001 -9.944608e+001 -6.461092e+001 -9.117736e+001 -6.949616e-002 1.395632e+002
513590033.97508 -2.121220e-001 1.768447e+002 -6.290925e+001 -1.051546e+002 -6.444118e+001 -9.171102e+001 -6.494276e-002 1.393511e+002
513967534.91884 -2.180113e-001 1.766644e+002 -6.401736e+001 -1.005833e+002 -6.404075e+001 -8.675781e+001 -5.943559e-002 1.391581e+002
514345035.86259 -2.174019e-001 1.763820e+002 -6.411033e+001 -1.033249e+002 -6.510257e+001 -8.791672e+001 -5.827419e-002 1.389594e+002
514722536.80634 -2.206482e-001 1.761953e+002 -6.403212e+001 -1.032754e+002 -6.467949e+001 -1.000517e+002 -5.341629e-002 1.387805e+002
515100037.75009 -2.198905e-001 1.759286e+002 -6.458987e+001 -1.064385e+002 -6.327703e+001 -9.564211e+001 -4.391157e-002 1.386261e+002
515477538.69385 -2.218150e-001 1.756790e+002 -6.300231e+001 -9.802077e+001 -6.364564e+001 -9.601663e+001 -4.014410e-002 1.384631e+002
515855039.6376 -2.248562e-001 1.754988e+002 -6.369076e+001 -1.012950e+002 -6.470747e+001 -9.958706e+001 -3.086100e-002 1.383638e+002
516232540.58135 -2.259501e-001 1.752068e+002 -6.448435e+001 -1.058522e+002 -6.361689e+001 -9.707267e+001 -2.337498e-002 1.382778e+002
516610041.5251 -2.318405e-001 1.750163e+002 -6.392678e+001 -9.934856e+001 -6.401907e+001 -9.751462e+001 -1.924907e-002 1.381905e+002
516987542.46886 -2.294775e-001 1.747410e+002 -6.281791e+001 -1.059917e+002 -6.459042e+001 -9.534155e+001 -1.573221e-002 1.381389e+002
517365043.41261 -2.352432e-001 1.745170e+002 -6.277328e+001 -1.019485e+002 -6.417918e+001 -9.189981e+001 -6.963926e-003 1.380836e+002
517742544.35636 -2.365309e-001 1.742170e+002 -6.244114e+001 -1.028084e+002 -6.421252e+001 -9.298728e+001 1.371529e-003 1.381055e+002
518120045.30011 -2.392613e-001 1.740346e+002 -6.339939e+001 -1.042214e+002 -6.409329e+001 -9.114454e+001 9.682532e-003 1.381151e+002
518497546.24387 -2.444906e-001 1.738038e+002 -6.247330e+001 -1.066505e+002 -6.457798e+001 -9.597283e+001 1.613702e-002 1.381485e+002
518875047.18762 -2.464008e-001 1.735525e+002 -6.342378e+001 -1.052237e+002 -6.302979e+001 -1.035425e+002 2.752154e-002 1.382219e+002
519252548.13137 -2.507132e-001 1.733088e+002 -6.332294e+001 -1.051232e+002 -6.368606e+001 -9.606934e+001 2.963470e-002 1.383064e+002
519630049.07512 -2.559453e-001 1.730993e+002 -6.235468e+001 -1.083701e+002 -6.308944e+001 -9.557764e+001 3.588889e-002 1.384054e+002
520007550.01888 -2.582000e-001 1.728218e+002 -6.304359e+001 -1.099220e+002 -6.317463e+001 -1.004685e+002 3.751957e-002 1.385499e+002
520385050.96263 -2.601907e-001 1.726361e+002 -6.315332e+001 -1.090751e+002 -6.257800e+001 -9.678848e+001 4.340829e-002 1.386678e+002
520762551.90638 -2.611379e-001 1.723390e+002 -6.288462e+001 -1.096941e+002 -6.360578e+001 -1.030574e+002 4.861517e-002 1.388020e+002
521140052.85013 -2.648742e-001 1.721014e+002 -6.342001e+001 -1.083321e+002 -6.252945e+001 -1.040916e+002 5.415757e-002 1.389560e+002
521517553.79388 -2.697887e-001 1.718500e+002 -6.283784e+001 -1.110624e+002 -6.284929e+001 -1.011854e+002 5.469366e-002 1.391576e+002
521895054.73764 -2.760468e-001 1.716058e+002 -6.216149e+001 -1.064074e+002 -6.307943e+001 -1.050707e+002 5.504094e-002 1.393078e+002
522272555.68139 -2.818982e-001 1.714016e+002 -6.228896e+001 -1.160762e+002 -6.287477e+001 -1.026679e+002 5.500276e-002 1.395090e+002
522650056.62514 -2.878174e-001 1.711175e+002 -6.213988e+001 -1.146611e+002 -6.231338e+001 -1.004885e+002 5.329499e-002 1.396746e+002
523027557.56889 -2.917228e-001 1.708841e+002 -6.260138e+001 -1.118579e+002 -6.260191e+001 -1.014016e+002 5.623782e-002 1.398868e+002
523405058.51265 -2.932704e-001 1.706276e+002 -6.213834e+001 -1.126889e+002 -6.188784e+001 -1.016374e+002 5.459245e-002 1.401124e+002
523782559.4564 -3.003172e-001 1.703817e+002 -6.140104e+001 -1.106360e+002 -6.249678e+001 -1.035071e+002 4.938728e-002 1.402414e+002
524160060.40015 -3.059570e-001 1.701215e+002 -6.285093e+001 -1.143682e+002 -6.219724e+001 -1.012062e+002 4.840769e-002 1.404301e+002
524537561.3439 -3.098322e-001 1.698879e+002 -6.174381e+001 -1.125420e+002 -6.277703e+001 -1.032084e+002 4.266921e-002 1.406147e+002
524915062.28766 -3.167431e-001 1.696588e+002 -6.150855e+001 -1.178737e+002 -6.240886e+001 -1.063965e+002 3.983663e-002 1.407775e+002
525292563.23141 -3.185327e-001 1.693645e+002 -6.075870e+001 -1.163951e+002 -6.210253e+001 -1.031159e+002 3.317026e-002 1.409167e+002
525670064.17516 -3.231679e-001 1.691485e+002 -6.185207e+001 -1.159729e+002 -6.111059e+001 -1.093615e+002 2.781062e-002 1.410507e+002
526047565.11891 -3.271114e-001 1.688889e+002 -6.207710e+001 -1.187433e+002 -6.157075e+001 -1.093465e+002 2.139385e-002 1.411712e+002
526425066.06267 -3.347577e-001 1.685858e+002 -6.215062e+001 -1.183886e+002 -6.156048e+001 -1.072047e+002 9.988345e-003 1.412768e+002
526802567.00642 -3.406950e-001 1.682856e+002 -6.158678e+001 -1.188516e+002 -6.211602e+001 -1.076083e+002 5.109346e-003 1.413427e+002
527180067.95017 -3.441230e-001 1.680551e+002 -6.127608e+001 -1.197994e+002 -6.076348e+001 -1.147983e+002 -5.138744e-003 1.413969e+002
527557568.89392 -3.507465e-001 1.678363e+002 -6.025816e+001 -1.175218e+002 -6.133464e+001 -1.102645e+002 -1.000389e-002 1.414552e+002
527935069.83767 -3.591752e-001 1.675303e+002 -6.109888e+001 -1.217041e+002 -6.065960e+001 -1.124622e+002 -1.706405e-002 1.414691e+002
528312570.78143 -3.629526e-001 1.672652e+002 -6.115711e+001 -1.168644e+002 -6.074984e+001 -1.068451e+002 -2.605907e-002 1.414459e+002
528690071.72518 -3.704921e-001 1.670108e+002 -6.144802e+001 -1.271661e+002 -6.063759e+001 -1.126429e+002 -3.495425e-002 1.414234e+002
529067572.66893 -3.742830e-001 1.667158e+002 -6.111207e+001 -1.221055e+002 -6.004544e+001 -1.092716e+002 -4.802801e-002 1.413809e+002
529445073.61268 -3.829678e-001 1.665276e+002 -6.080652e+001 -1.224698e+002 -6.107684e+001 -1.129840e+002 -5.386961e-002 1.413230e+002
529822574.55644 -3.867176e-001 1.662078e+002 -6.138391e+001 -1.221087e+002 -6.079324e+001 -1.122146e+002 -6.517661e-002 1.411935e+002
530200075.50019 -3.950175e-001 1.659215e+002 -6.132624e+001 -1.214907e+002 -6.117554e+001 -1.114627e+002 -7.025130e-002 1.410559e+002
530577576.44394 -4.004067e-001 1.656219e+002 -6.090686e+001 -1.271955e+002 -6.026908e+001 -1.146759e+002 -7.810337e-002 1.409024e+002
530955077.38769 -4.114586e-001 1.653755e+002 -5.991751e+001 -1.204340e+002 -5.954225e+001 -1.162684e+002 -8.685010e-002 1.407603e+002
531332578.33145 -4.190708e-001 1.651336e+002 -6.133842e+001 -1.238698e+002 -5.984443e+001 -1.151862e+002 -9.563852e-002 1.405729e+002
531710079.2752 -4.267318e-001 1.647922e+002 -6.026226e+001 -1.225354e+002 -6.007342e+001 -1.163823e+002 -1.014991e-001 1.403433e+002
532087580.21895 -4.337724e-001 1.645419e+002 -6.057430e+001 -1.261128e+002 -6.021939e+001 -1.197481e+002 -1.039278e-001 1.401295e+002
532465081.1627 -4.434865e-001 1.642971e+002 -6.016560e+001 -1.255890e+002 -5.991932e+001 -1.171195e+002 -1.124306e-001 1.398958e+002
532842582.10646 -4.509277e-001 1.640165e+002 -5.997777e+001 -1.267321e+002 -5.956675e+001 -1.192870e+002 -1.151356e-001 1.396640e+002
533220083.05021 -4.594999e-001 1.637145e+002 -5.997523e+001 -1.264724e+002 -5.961420e+001 -1.186543e+002 -1.207299e-001 1.394029e+002
533597583.99396 -4.701215e-001 1.634177e+002 -5.966850e+001 -1.318772e+002 -5.950597e+001 -1.224500e+002 -1.211301e-001 1.391586e+002
533975084.93771 -4.794595e-001 1.631463e+002 -5.995776e+001 -1.313794e+002 -5.887911e+001 -1.199482e+002 -1.247836e-001 1.388603e+002
534352585.88146 -4.892507e-001 1.628642e+002 -5.936781e+001 -1.326482e+002 -5.947792e+001 -1.243151e+002 -1.239996e-001 1.385738e+002
534730086.82522 -5.012397e-001 1.626026e+002 -5.913844e+001 -1.323310e+002 -5.914613e+001 -1.202007e+002 -1.259765e-001 1.382982e+002
535107587.76897 -5.101171e-001 1.623212e+002 -5.930748e+001 -1.285455e+002 -5.889814e+001 -1.271021e+002 -1.251220e-001 1.380265e+002
535485088.71272 -5.162652e-001 1.619850e+002 -5.913381e+001 -1.327060e+002 -5.926622e+001 -1.242718e+002 -1.220329e-001 1.377533e+002
535862589.65647 -5.314764e-001 1.617451e+002 -5.953864e+001 -1.358048e+002 -5.950705e+001 -1.283911e+002 -1.207622e-001 1.375002e+002
536240090.60023 -5.334951e-001 1.614579e+002 -5.907049e+001 -1.333661e+002 -5.890073e+001 -1.273430e+002 -1.189065e-001 1.372460e+002
536617591.54398 -5.484553e-001 1.611269e+002 -5.902846e+001 -1.328971e+002 -5.903431e+001 -1.289194e+002 -1.132114e-001 1.369737e+002
536995092.48773 -5.631829e-001 1.609064e+002 -5.941683e+001 -1.402054e+002 -5.903804e+001 -1.296575e+002 -1.055236e-001 1.367691e+002
537372593.43148 -5.745780e-001 1.605775e+002 -5.853320e+001 -1.322817e+002 -5.848495e+001 -1.325849e+002 -1.004274e-001 1.365357e+002
537750094.37524 -5.803326e-001 1.603033e+002 -5.874696e+001 -1.387809e+002 -5.818692e+001 -1.300121e+002 -9.568965e-002 1.363401e+002
538127595.31899 -5.964658e-001 1.600403e+002 -5.943785e+001 -1.375256e+002 -5.791864e+001 -1.316552e+002 -9.033746e-002 1.361663e+002
538505096.26274 -6.087482e-001 1.597752e+002 -5.868540e+001 -1.368362e+002 -5.804969e+001 -1.317247e+002 -7.971542e-002 1.360264e+002
538882597.20649 -6.191349e-001 1.594893e+002 -5.840895e+001 -1.352925e+002 -5.832375e+001 -1.349074e+002 -7.388615e-002 1.358448e+002
539260098.15025 -6.361184e-001 1.591822e+002 -5.810972e+001 -1.408198e+002 -5.808310e+001 -1.293106e+002 -6.647473e-002 1.357282e+002
539637599.094 -6.531791e-001 1.589294e+002 -5.800692e+001 -1.399865e+002 -5.756801e+001 -1.314038e+002 -6.225546e-002 1.356102e+002
540015100.03775 -6.635264e-001 1.586811e+002 -5.849004e+001 -1.422463e+002 -5.731463e+001 -1.364773e+002 -5.205905e-002 1.355787e+002
540392600.9815 -6.763133e-001 1.583807e+002 -5.847271e+001 -1.454581e+002 -5.755090e+001 -1.353266e+002 -4.669827e-002 1.354669e+002
540770101.92525 -6.934100e-001 1.580385e+002 -5.792165e+001 -1.432142e+002 -5.713399e+001 -1.363349e+002 -3.645485e-002 1.354225e+002
541147602.86901 -7.083542e-001 1.578190e+002 -5.774963e+001 -1.452267e+002 -5.741692e+001 -1.376028e+002 -3.088165e-002 1.353934e+002
541525103.81276 -7.220041e-001 1.575067e+002 -5.850927e+001 -1.487027e+002 -5.735477e+001 -1.343527e+002 -2.458450e-002 1.353765e+002
541902604.75651 -7.391605e-001 1.572105e+002 -5.749957e+001 -1.460567e+002 -5.730156e+001 -1.380785e+002 -1.984184e-002 1.353937e+002
542280105.70026 -7.567722e-001 1.569286e+002 -5.751213e+001 -1.460063e+002 -5.715457e+001 -1.402053e+002 -8.075262e-003 1.354263e+002
542657606.64402 -7.756283e-001 1.566590e+002 -5.765559e+001 -1.499634e+002 -5.757221e+001 -1.410187e+002 -6.677063e-003 1.354707e+002
543035107.58777 -7.915889e-001 1.563728e+002 -5.749856e+001 -1.478589e+002 -5.703759e+001 -1.424143e+002 8.450405e-004 1.355413e+002
543412608.53152 -8.132577e-001 1.561119e+002 -5.744084e+001 -1.484977e+002 -5.746282e+001 -1.418540e+002 5.734405e-003 1.356175e+002
543790109.47527 -8.307235e-001 1.558859e+002 -5.736738e+001 -1.528125e+002 -5.702489e+001 -1.472907e+002 1.074111e-002 1.356879e+002
544167610.41903 -8.545787e-001 1.555654e+002 -5.743763e+001 -1.546792e+002 -5.691083e+001 -1.441107e+002 1.692793e-002 1.358145e+002
544545111.36278 -8.727589e-001 1.553486e+002 -5.784311e+001 -1.524767e+002 -5.662635e+001 -1.449638e+002 1.874883e-002 1.359277e+002
544922612.30653 -8.921624e-001 1.549929e+002 -5.715297e+001 -1.544110e+002 -5.707067e+001 -1.466355e+002 2.423493e-002 1.360520e+002
545300113.25028 -9.169627e-001 1.547816e+002 -5.728432e+001 -1.560768e+002 -5.685789e+001 -1.471146e+002 2.761100e-002 1.361783e+002
545677614.19404 -9.353787e-001 1.544773e+002 -5.724934e+001 -1.588552e+002 -5.705840e+001 -1.494792e+002 2.943875e-002 1.363031e+002
546055115.13779 -9.570346e-001 1.542455e+002 -5.690929e+001 -1.604384e+002 -5.656808e+001 -1.487697e+002 2.876967e-002 1.364779e+002
546432616.08154 -9.774117e-001 1.539861e+002 -5.712252e+001 -1.584270e+002 -5.666998e+001 -1.487447e+002 3.107886e-002 1.366109e+002
546810117.02529 -1.002324e+000 1.537365e+002 -5.718093e+001 -1.595543e+002 -5.661158e+001 -1.502640e+002 3.301357e-002 1.367565e+002
547187617.96904 -1.023446e+000 1.534807e+002 -5.666610e+001 -1.607613e+002 -5.644000e+001 -1.509081e+002 3.327659e-002 1.369019e+002
547565118.9128 -1.045685e+000 1.532024e+002 -5.674892e+001 -1.641657e+002 -5.628070e+001 -1.518363e+002 3.250109e-002 1.370386e+002
547942619.85655 -1.073362e+000 1.529960e+002 -5.682647e+001 -1.646061e+002 -5.602150e+001 -1.528719e+002 3.270883e-002 1.371889e+002
548320120.8003 -1.094583e+000 1.526914e+002 -5.680403e+001 -1.656007e+002 -5.614037e+001 -1.562056e+002 2.776256e-002 1.373401e+002
548697621.74405 -1.120187e+000 1.524396e+002 -5.680988e+001 -1.679427e+002 -5.585403e+001 -1.550438e+002 3.008249e-002 1.374619e+002
549075122.68781 -1.145723e+000 1.522259e+002 -5.670850e+001 -1.691360e+002 -5.578780e+001 -1.556192e+002 2.572017e-002 1.376369e+002
549452623.63156 -1.173545e+000 1.519655e+002 -5.663832e+001 -1.701586e+002 -5.592657e+001 -1.566727e+002 2.097263e-002 1.377098e+002
549830124.57531 -1.201479e+000 1.517130e+002 -5.643413e+001 -1.688501e+002 -5.568012e+001 -1.604497e+002 1.575201e-002 1.378338e+002
550207625.51906 -1.226784e+000 1.514545e+002 -5.652878e+001 -1.676331e+002 -5.531887e+001 -1.591608e+002 1.127501e-002 1.379194e+002
550585126.46282 -1.255286e+000 1.512161e+002 -5.642848e+001 -1.713739e+002 -5.542144e+001 -1.575819e+002 7.491002e-003 1.380103e+002
550962627.40657 -1.281280e+000 1.509856e+002 -5.656825e+001 -1.714638e+002 -5.532861e+001 -1.603162e+002 6.667380e-004 1.380692e+002
551340128.35032 -1.308547e+000 1.507363e+002 -5.646839e+001 -1.732263e+002 -5.569825e+001 -1.600494e+002 -9.305106e-003 1.381338e+002
551717629.29407 -1.338918e+000 1.505266e+002 -5.669118e+001 -1.736398e+002 -5.552330e+001 -1.615975e+002 -1.126567e-002 1.381970e+002
552095130.23783 -1.365358e+000 1.502611e+002 -5.661495e+001 -1.749057e+002 -5.536641e+001 -1.633204e+002 -1.625595e-002 1.382128e+002
552472631.18158 -1.393776e+000 1.500725e+002 -5.627189e+001 -1.765553e+002 -5.543643e+001 -1.635214e+002 -2.509782e-002 1.382103e+002
552850132.12533 -1.419713e+000 1.498285e+002 -5.613865e+001 -1.780958e+002 -5.520608e+001 -1.638361e+002 -3.351041e-002 1.382194e+002
553227633.06908 -1.450728e+000 1.495936e+002 -5.659414e+001 -1.770080e+002 -5.489732e+001 -1.652006e+002 -4.031085e-002 1.382033e+002
553605134.01284 -1.481917e+000 1.493761e+002 -5.651072e+001 -1.774369e+002 -5.492721e+001 -1.651650e+002 -4.692787e-002 1.381505e+002
553982634.95659 -1.514110e+000 1.491604e+002 -5.631483e+001 1.795920e+002 -5.463917e+001 -1.685198e+002 -5.606913e-002 1.381287e+002
554360135.90034 -1.545141e+000 1.489586e+002 -5.594795e+001 -1.789224e+002 -5.436298e+001 -1.692413e+002 -6.168925e-002 1.380337e+002
554737636.84409 -1.578192e+000 1.487923e+002 -5.605322e+001 1.782273e+002 -5.475611e+001 -1.715040e+002 -6.997448e-002 1.379568e+002
555115137.78784 -1.608476e+000 1.485965e+002 -5.579795e+001 1.752193e+002 -5.462986e+001 -1.695497e+002 -7.341124e-002 1.378333e+002
