!Agilent Technologies,E8364B,US42250235,A.06.04.32
!Agilent E8364B: A.06.04.32
!Date: Thursday, October 01, 2020 16:03:33
!Correction: S11(Full 2 Port(1,2)) S21(Full 2 Port(1,2)) S12(Full 2 Port(1,2)) S22(Full 2 Port(1,2)) 
!S2P File: Measurements: S11, S21, S12, S22:
# Hz S  dB   R 50
500000000 -2.528529e-001 -1.753494e+002 -7.094344e+001 5.726054e+001 -7.133221e+001 5.317256e+001 -1.774070e-002 1.434935e+002
500377500.94375 -2.541632e-001 -1.755361e+002 -6.874202e+001 5.032594e+001 -6.921490e+001 6.296991e+001 -1.767571e-002 1.436624e+002
500755001.8875 -2.602742e-001 -1.757435e+002 -6.866858e+001 5.277169e+001 -6.893153e+001 5.852273e+001 -1.578973e-002 1.438204e+002
501132502.83126 -2.641378e-001 -1.759068e+002 -6.969860e+001 5.562360e+001 -6.835856e+001 3.818085e+001 -2.457053e-002 1.439839e+002
501510003.77501 -2.676635e-001 -1.761399e+002 -6.855278e+001 5.791684e+001 -6.848641e+001 5.061229e+001 -2.784771e-002 1.441320e+002
501887504.71876 -2.699095e-001 -1.763582e+002 -6.793561e+001 5.816272e+001 -6.796072e+001 5.754299e+001 -3.212841e-002 1.442553e+002
502265005.66251 -2.764717e-001 -1.765465e+002 -6.807230e+001 4.898561e+001 -6.798512e+001 3.660860e+001 -3.426369e-002 1.443845e+002
502642506.60627 -2.764914e-001 -1.767525e+002 -6.804146e+001 5.369516e+001 -6.889832e+001 4.080482e+001 -4.123239e-002 1.445310e+002
503020007.55002 -2.860844e-001 -1.769380e+002 -6.773353e+001 5.550912e+001 -6.770013e+001 4.893393e+001 -4.874802e-002 1.445826e+002
503397508.49377 -2.851738e-001 -1.771348e+002 -6.654604e+001 3.340432e+001 -6.747456e+001 2.888807e+001 -5.250158e-002 1.446590e+002
503775009.43752 -2.901229e-001 -1.773265e+002 -6.885291e+001 4.270278e+001 -6.789158e+001 3.790655e+001 -6.174265e-002 1.447237e+002
504152510.38128 -2.931716e-001 -1.775280e+002 -6.829552e+001 4.335054e+001 -6.792361e+001 4.513944e+001 -7.048505e-002 1.447519e+002
504530011.32503 -2.959714e-001 -1.777330e+002 -6.730393e+001 4.050708e+001 -6.880791e+001 3.532019e+001 -7.991768e-002 1.447975e+002
504907512.26878 -3.017881e-001 -1.779186e+002 -6.693921e+001 3.404271e+001 -6.714701e+001 3.693385e+001 -8.579807e-002 1.447955e+002
505285013.21253 -3.049848e-001 -1.781186e+002 -6.529617e+001 4.028224e+001 -6.806536e+001 3.746247e+001 -9.371649e-002 1.447707e+002
505662514.15629 -3.065637e-001 -1.783370e+002 -6.800710e+001 3.358149e+001 -6.785535e+001 2.815459e+001 -1.026171e-001 1.447527e+002
506040015.10004 -3.129481e-001 -1.785331e+002 -6.966898e+001 2.964143e+001 -6.940668e+001 3.768069e+001 -1.122768e-001 1.446920e+002
506417516.04379 -3.115445e-001 -1.787259e+002 -6.638370e+001 3.556242e+001 -6.949609e+001 2.575636e+001 -1.193526e-001 1.446074e+002
506795016.98754 -3.201168e-001 -1.789337e+002 -6.609011e+001 3.257929e+001 -6.755436e+001 1.842569e+001 -1.258002e-001 1.444723e+002
507172517.93129 -3.222993e-001 -1.791316e+002 -6.828645e+001 2.838130e+001 -6.805695e+001 2.836094e+001 -1.301918e-001 1.443640e+002
507550018.87505 -3.255995e-001 -1.793365e+002 -6.753412e+001 3.350664e+001 -6.775805e+001 4.639429e+001 -1.403798e-001 1.442112e+002
507927519.8188 -3.304520e-001 -1.795437e+002 -6.727534e+001 3.274892e+001 -6.789127e+001 3.877403e+001 -1.490847e-001 1.440480e+002
508305020.76255 -3.360143e-001 -1.797411e+002 -6.831825e+001 3.808681e+001 -6.841865e+001 2.871939e+001 -1.576928e-001 1.438607e+002
508682521.7063 -3.382274e-001 -1.799837e+002 -6.814747e+001 3.851894e+001 -6.732056e+001 2.827859e+001 -1.668689e-001 1.436741e+002
509060022.65006 -3.443142e-001 1.798508e+002 -6.707764e+001 2.420072e+001 -6.806930e+001 1.983375e+001 -1.678628e-001 1.434172e+002
509437523.59381 -3.458675e-001 1.796326e+002 -6.697206e+001 3.096276e+001 -6.837173e+001 3.308596e+001 -1.697115e-001 1.432127e+002
509815024.53756 -3.498136e-001 1.794467e+002 -6.742966e+001 2.795954e+001 -6.746654e+001 3.337038e+001 -1.753181e-001 1.429411e+002
510192525.48131 -3.519799e-001 1.792391e+002 -6.715542e+001 3.063125e+001 -6.733551e+001 2.798602e+001 -1.765473e-001 1.426775e+002
510570026.42507 -3.589395e-001 1.790197e+002 -6.875537e+001 1.462027e+001 -6.699029e+001 2.487470e+001 -1.793486e-001 1.424194e+002
510947527.36882 -3.623102e-001 1.788134e+002 -6.701153e+001 2.640030e+001 -6.854523e+001 2.826053e+001 -1.816238e-001 1.421471e+002
511325028.31257 -3.642371e-001 1.786413e+002 -6.586751e+001 2.365964e+001 -6.546794e+001 1.872524e+001 -1.823089e-001 1.418487e+002
511702529.25632 -3.660323e-001 1.783769e+002 -6.768680e+001 2.559341e+001 -6.710843e+001 2.895099e+001 -1.826425e-001 1.415835e+002
512080030.20008 -3.729750e-001 1.782145e+002 -6.688170e+001 3.094641e+001 -6.682043e+001 2.674006e+001 -1.813098e-001 1.412984e+002
512457531.14383 -3.769482e-001 1.780153e+002 -6.744493e+001 2.371997e+001 -6.762675e+001 2.896492e+001 -1.779344e-001 1.410464e+002
512835032.08758 -3.784657e-001 1.778010e+002 -6.694717e+001 1.343989e+001 -6.651260e+001 2.344494e+001 -1.768413e-001 1.407835e+002
513212533.03133 -3.807715e-001 1.775915e+002 -6.644075e+001 1.217118e+001 -6.737141e+001 1.617141e+001 -1.718551e-001 1.405101e+002
513590033.97508 -3.855202e-001 1.773559e+002 -6.689363e+001 2.326321e+001 -6.718115e+001 1.748222e+001 -1.651682e-001 1.402743e+002
513967534.91884 -3.897887e-001 1.771853e+002 -6.616608e+001 1.537007e+001 -6.564525e+001 7.953492e+000 -1.598339e-001 1.400549e+002
514345035.86259 -3.911335e-001 1.769632e+002 -6.734309e+001 5.029205e+000 -6.690086e+001 4.815406e+000 -1.532657e-001 1.398452e+002
514722536.80634 -3.934101e-001 1.767824e+002 -6.573893e+001 1.242799e+001 -6.615150e+001 1.269853e+001 -1.465300e-001 1.396644e+002
515100037.75009 -3.902000e-001 1.765544e+002 -6.674866e+001 2.049796e+001 -6.625803e+001 1.028252e+001 -1.396187e-001 1.394957e+002
515477538.69385 -3.957857e-001 1.762884e+002 -6.704706e+001 1.781356e+001 -6.707973e+001 1.107519e+001 -1.333708e-001 1.393231e+002
515855039.6376 -4.007778e-001 1.761135e+002 -6.686078e+001 1.594400e+001 -6.636740e+001 2.383641e+001 -1.239704e-001 1.392243e+002
516232540.58135 -4.060492e-001 1.759147e+002 -6.667239e+001 1.020472e+001 -6.643700e+001 2.071891e+001 -1.158508e-001 1.391229e+002
516610041.5251 -4.100981e-001 1.756920e+002 -6.487206e+001 1.651594e+001 -6.636242e+001 1.341817e+001 -1.079874e-001 1.390500e+002
516987542.46886 -4.093993e-001 1.754739e+002 -6.510146e+001 1.309768e+001 -6.720613e+001 8.286785e+000 -1.038091e-001 1.389951e+002
517365043.41261 -4.149334e-001 1.752700e+002 -6.639620e+001 1.601916e+001 -6.684933e+001 1.101294e+001 -9.433192e-002 1.389461e+002
517742544.35636 -4.200436e-001 1.750688e+002 -6.584779e+001 1.356208e+001 -6.507755e+001 4.525976e+000 -8.513860e-002 1.389581e+002
518120045.30011 -4.233252e-001 1.748539e+002 -6.592008e+001 8.699121e+000 -6.603532e+001 9.411656e+000 -7.623235e-002 1.389790e+002
518497546.24387 -4.271183e-001 1.746872e+002 -6.489949e+001 6.227093e+000 -6.683368e+001 8.034908e+000 -6.934474e-002 1.390362e+002
518875047.18762 -4.321437e-001 1.744907e+002 -6.500317e+001 4.630188e+000 -6.516650e+001 -1.467334e-002 -5.782688e-002 1.390998e+002
519252548.13137 -4.376557e-001 1.742345e+002 -6.767122e+001 1.418006e+001 -6.630602e+001 4.526939e+000 -5.405860e-002 1.391849e+002
519630049.07512 -4.441274e-001 1.740192e+002 -6.467929e+001 9.279053e+000 -6.498705e+001 1.119632e+001 -4.648862e-002 1.392983e+002
520007550.01888 -4.468808e-001 1.738130e+002 -6.649233e+001 5.627546e-001 -6.716476e+001 7.246118e+000 -4.197617e-002 1.394452e+002
520385050.96263 -4.530283e-001 1.736281e+002 -6.528105e+001 4.681395e+000 -6.510725e+001 2.762533e+000 -3.740638e-002 1.395762e+002
520762551.90638 -4.565267e-001 1.734198e+002 -6.502860e+001 8.212459e+000 -6.538886e+001 -5.529424e+000 -3.480006e-002 1.397277e+002
521140052.85013 -4.617872e-001 1.732110e+002 -6.585729e+001 3.803639e+000 -6.595857e+001 3.580639e+000 -2.988626e-002 1.399174e+002
521517553.79388 -4.646664e-001 1.730548e+002 -6.566711e+001 -8.813456e-001 -6.578944e+001 4.788256e+000 -2.231965e-002 1.401005e+002
521895054.73764 -4.683959e-001 1.728236e+002 -6.454716e+001 -6.092637e+000 -6.596619e+001 1.724497e-001 -2.314745e-002 1.402798e+002
522272555.68139 -4.729050e-001 1.726241e+002 -6.555303e+001 -6.456513e+000 -6.548218e+001 -4.518208e+000 -2.384130e-002 1.404857e+002
522650056.62514 -4.779472e-001 1.724175e+002 -6.558071e+001 -1.202513e+001 -6.544273e+001 -9.193479e+000 -2.574703e-002 1.406811e+002
523027557.56889 -4.809351e-001 1.722341e+002 -6.365466e+001 -4.200716e+000 -6.608900e+001 -5.445050e+000 -2.607457e-002 1.408873e+002
523405058.51265 -4.812908e-001 1.720057e+002 -6.539792e+001 -1.773523e+001 -6.645049e+001 -6.701231e+000 -2.613677e-002 1.411304e+002
523782559.4564 -4.878740e-001 1.718081e+002 -6.539397e+001 -7.817345e+000 -6.464622e+001 -7.283355e+000 -3.002985e-002 1.412810e+002
524160060.40015 -4.913039e-001 1.716353e+002 -6.543446e+001 -3.032252e-001 -6.498052e+001 -1.106981e+001 -2.864779e-002 1.414676e+002
524537561.3439 -4.901702e-001 1.714016e+002 -6.488081e+001 -6.364719e+000 -6.506134e+001 -5.908008e+000 -3.866925e-002 1.416352e+002
524915062.28766 -4.981245e-001 1.712119e+002 -6.532954e+001 -1.627916e+001 -6.521835e+001 -1.300477e+001 -4.091046e-002 1.418208e+002
525292563.23141 -5.009373e-001 1.708991e+002 -6.520282e+001 4.599877e-002 -6.477675e+001 -1.066055e+001 -4.921331e-002 1.419394e+002
525670064.17516 -5.048940e-001 1.707352e+002 -6.557402e+001 -1.537397e+001 -6.584196e+001 5.723416e+000 -5.464511e-002 1.420662e+002
526047565.11891 -5.080826e-001 1.705157e+002 -6.440585e+001 -9.879907e+000 -6.549475e+001 -7.333931e+000 -6.035228e-002 1.421963e+002
526425066.06267 -5.118748e-001 1.702574e+002 -6.457030e+001 -1.003614e+001 -6.458341e+001 -4.933073e+000 -7.021533e-002 1.422943e+002
526802567.00642 -5.178928e-001 1.700975e+002 -6.372631e+001 -1.665841e+001 -6.431921e+001 -9.789750e+000 -8.025168e-002 1.423586e+002
527180067.95017 -5.218524e-001 1.698589e+002 -6.485542e+001 -1.141549e+001 -6.507864e+001 -9.858694e+000 -8.905252e-002 1.424042e+002
527557568.89392 -5.245015e-001 1.696583e+002 -6.428684e+001 -1.217775e+001 -6.338789e+001 -1.442166e+001 -9.431711e-002 1.424371e+002
527935069.83767 -5.303881e-001 1.694691e+002 -6.435903e+001 -1.770448e+001 -6.448631e+001 -1.899011e+001 -1.042659e-001 1.424620e+002
528312570.78143 -5.392321e-001 1.692603e+002 -6.312679e+001 -1.463071e+001 -6.460899e+001 -1.726128e+001 -1.109238e-001 1.424327e+002
528690071.72518 -5.335157e-001 1.690196e+002 -6.405013e+001 -1.544999e+001 -6.443327e+001 -2.462629e+001 -1.230597e-001 1.423781e+002
529067572.66893 -5.404099e-001 1.687732e+002 -6.423288e+001 -2.056228e+001 -6.372441e+001 -1.953725e+001 -1.374037e-001 1.423196e+002
529445073.61268 -5.439819e-001 1.686007e+002 -6.437395e+001 -2.430269e+001 -6.450579e+001 -2.253737e+001 -1.447946e-001 1.422291e+002
529822574.55644 -5.472065e-001 1.683524e+002 -6.343447e+001 -2.819624e+001 -6.396022e+001 -2.024132e+001 -1.534277e-001 1.420887e+002
530200075.50019 -5.522724e-001 1.680891e+002 -6.437782e+001 -1.977662e+001 -6.329427e+001 -2.486607e+001 -1.608578e-001 1.419197e+002
530577576.44394 -5.587532e-001 1.679358e+002 -6.321630e+001 -3.022410e+001 -6.347393e+001 -2.567434e+001 -1.719086e-001 1.417464e+002
530955077.38769 -5.618976e-001 1.676522e+002 -6.407525e+001 -2.787627e+001 -6.437450e+001 -2.674043e+001 -1.769478e-001 1.415682e+002
531332578.33145 -5.653164e-001 1.674841e+002 -6.315115e+001 -2.336810e+001 -6.419966e+001 -2.193635e+001 -1.886581e-001 1.413608e+002
531710079.2752 -5.717835e-001 1.672697e+002 -6.352827e+001 -2.758049e+001 -6.350528e+001 -3.259826e+001 -1.967847e-001 1.411078e+002
532087580.21895 -5.720116e-001 1.670603e+002 -6.444107e+001 -2.420262e+001 -6.494712e+001 -2.017852e+001 -1.986995e-001 1.408582e+002
532465081.1627 -5.769913e-001 1.668201e+002 -6.336994e+001 -2.959625e+001 -6.497062e+001 -3.524306e+001 -2.064048e-001 1.405929e+002
532842582.10646 -5.802944e-001 1.666095e+002 -6.355421e+001 -3.250433e+001 -6.376882e+001 -3.540871e+001 -2.096966e-001 1.403190e+002
533220083.05021 -5.844821e-001 1.664397e+002 -6.293548e+001 -2.924238e+001 -6.334418e+001 -3.104480e+001 -2.190204e-001 1.400365e+002
533597583.99396 -5.868744e-001 1.661620e+002 -6.296400e+001 -3.708428e+001 -6.379105e+001 -2.865176e+001 -2.193944e-001 1.397779e+002
533975084.93771 -5.909473e-001 1.659134e+002 -6.417294e+001 -3.677512e+001 -6.357627e+001 -3.861924e+001 -2.216057e-001 1.394299e+002
534352585.88146 -5.968531e-001 1.657775e+002 -6.355357e+001 -3.558132e+001 -6.338958e+001 -2.414348e+001 -2.205762e-001 1.391133e+002
534730086.82522 -5.999238e-001 1.655100e+002 -6.300386e+001 -3.098630e+001 -6.363349e+001 -3.965337e+001 -2.213125e-001 1.388205e+002
535107587.76897 -6.040797e-001 1.653454e+002 -6.357777e+001 -3.386008e+001 -6.452551e+001 -3.711514e+001 -2.205855e-001 1.385191e+002
535485088.71272 -6.037998e-001 1.650822e+002 -6.437416e+001 -4.328704e+001 -6.367780e+001 -4.266461e+001 -2.213804e-001 1.381905e+002
535862589.65647 -6.070331e-001 1.648165e+002 -6.347422e+001 -4.070353e+001 -6.406616e+001 -3.819550e+001 -2.154882e-001 1.379038e+002
536240090.60023 -6.088999e-001 1.646731e+002 -6.269517e+001 -4.025033e+001 -6.469836e+001 -3.798603e+001 -2.143436e-001 1.376337e+002
536617591.54398 -6.140760e-001 1.644206e+002 -6.438674e+001 -4.296429e+001 -6.283104e+001 -4.311819e+001 -2.097022e-001 1.373386e+002
536995092.48773 -6.154179e-001 1.642457e+002 -6.379798e+001 -5.012675e+001 -6.409789e+001 -4.504966e+001 -2.042240e-001 1.370978e+002
537372593.43148 -6.174675e-001 1.639698e+002 -6.302962e+001 -4.691242e+001 -6.375150e+001 -4.511288e+001 -1.954420e-001 1.368523e+002
537750094.37524 -6.161958e-001 1.637309e+002 -6.326765e+001 -4.875814e+001 -6.408635e+001 -4.159810e+001 -1.889084e-001 1.366340e+002
538127595.31899 -6.203329e-001 1.635509e+002 -6.367920e+001 -4.699735e+001 -6.400005e+001 -4.697368e+001 -1.845926e-001 1.364158e+002
538505096.26274 -6.215843e-001 1.632926e+002 -6.351455e+001 -4.559452e+001 -6.357143e+001 -4.506152e+001 -1.765060e-001 1.362417e+002
538882597.20649 -6.225700e-001 1.630692e+002 -6.490338e+001 -4.878437e+001 -6.352377e+001 -5.034780e+001 -1.686947e-001 1.360437e+002
539260098.15025 -6.263137e-001 1.628349e+002 -6.322006e+001 -4.747342e+001 -6.416543e+001 -4.997546e+001 -1.600838e-001 1.359030e+002
539637599.094 -6.319974e-001 1.625707e+002 -6.433749e+001 -4.408871e+001 -6.411209e+001 -5.063585e+001 -1.567772e-001 1.357502e+002
540015100.03775 -6.348450e-001 1.623786e+002 -6.406269e+001 -4.769655e+001 -6.386307e+001 -4.749451e+001 -1.457281e-001 1.357022e+002
540392600.9815 -6.330957e-001 1.621604e+002 -6.416837e+001 -5.133188e+001 -6.405830e+001 -5.148389e+001 -1.386449e-001 1.355563e+002
540770101.92525 -6.385252e-001 1.619308e+002 -6.401025e+001 -4.943274e+001 -6.473058e+001 -4.777407e+001 -1.296784e-001 1.354961e+002
541147602.86901 -6.389875e-001 1.616914e+002 -6.339434e+001 -5.246273e+001 -6.462657e+001 -5.299762e+001 -1.235416e-001 1.354401e+002
541525103.81276 -6.400256e-001 1.614196e+002 -6.424991e+001 -5.821287e+001 -6.403132e+001 -5.347095e+001 -1.149286e-001 1.353959e+002
541902604.75651 -6.462730e-001 1.612838e+002 -6.347879e+001 -4.514094e+001 -6.422541e+001 -5.434993e+001 -1.081792e-001 1.353785e+002
542280105.70026 -6.503313e-001 1.610288e+002 -6.337980e+001 -5.727538e+001 -6.478200e+001 -5.089741e+001 -9.743503e-002 1.353873e+002
542657606.64402 -6.479912e-001 1.607308e+002 -6.493589e+001 -5.091008e+001 -6.349689e+001 -5.254484e+001 -9.483195e-002 1.354149e+002
543035107.58777 -6.491877e-001 1.605587e+002 -6.351585e+001 -5.211051e+001 -6.412769e+001 -5.374343e+001 -9.000418e-002 1.354297e+002
543412608.53152 -6.539740e-001 1.602966e+002 -6.445353e+001 -5.559442e+001 -6.421864e+001 -4.913467e+001 -8.249635e-002 1.354778e+002
543790109.47527 -6.582204e-001 1.601074e+002 -6.390376e+001 -5.118149e+001 -6.384046e+001 -5.025724e+001 -7.540961e-002 1.355314e+002
544167610.41903 -6.648014e-001 1.598952e+002 -6.295412e+001 -4.994602e+001 -6.317454e+001 -5.099342e+001 -7.021274e-002 1.355985e+002
544545111.36278 -6.571279e-001 1.596648e+002 -6.223056e+001 -5.666621e+001 -6.373334e+001 -4.866514e+001 -6.981750e-002 1.356703e+002
544922612.30653 -6.613245e-001 1.594116e+002 -6.390879e+001 -5.784435e+001 -6.367484e+001 -5.222688e+001 -6.291358e-002 1.357840e+002
545300113.25028 -6.616255e-001 1.591459e+002 -6.337258e+001 -6.063149e+001 -6.335451e+001 -5.286886e+001 -6.041250e-002 1.358777e+002
545677614.19404 -6.655205e-001 1.589645e+002 -6.301310e+001 -6.172635e+001 -6.324837e+001 -5.595978e+001 -5.888516e-002 1.359748e+002
546055115.13779 -6.680456e-001 1.587400e+002 -6.320919e+001 -5.356778e+001 -6.369748e+001 -5.558077e+001 -5.810327e-002 1.360882e+002
546432616.08154 -6.720410e-001 1.584724e+002 -6.265853e+001 -5.742895e+001 -6.241152e+001 -5.498557e+001 -5.632349e-002 1.361975e+002
546810117.02529 -6.723932e-001 1.581479e+002 -6.234461e+001 -5.822755e+001 -6.310918e+001 -5.915229e+001 -5.489359e-002 1.363040e+002
547187617.96904 -6.753066e-001 1.579776e+002 -6.222250e+001 -6.084665e+001 -6.331718e+001 -5.940730e+001 -5.243198e-002 1.364296e+002
547565118.9128 -6.797741e-001 1.576794e+002 -6.196440e+001 -6.134931e+001 -6.248943e+001 -5.867241e+001 -5.568300e-002 1.365297e+002
547942619.85655 -6.860687e-001 1.574137e+002 -6.318921e+001 -6.469884e+001 -6.293417e+001 -6.182705e+001 -5.563214e-002 1.366525e+002
548320120.8003 -6.922307e-001 1.571567e+002 -6.300838e+001 -6.280555e+001 -6.233693e+001 -6.072695e+001 -5.740310e-002 1.367637e+002
548697621.74405 -6.961954e-001 1.569214e+002 -6.248782e+001 -7.171929e+001 -6.312119e+001 -6.063145e+001 -5.994218e-002 1.368411e+002
549075122.68781 -6.971784e-001 1.566683e+002 -6.195740e+001 -6.278314e+001 -6.280329e+001 -6.473260e+001 -6.405240e-002 1.369875e+002
549452623.63156 -7.031050e-001 1.564432e+002 -6.211848e+001 -6.857695e+001 -6.285777e+001 -6.572210e+001 -6.652436e-002 1.370193e+002
549830124.57531 -7.045087e-001 1.561672e+002 -6.257341e+001 -6.775554e+001 -6.226611e+001 -7.046234e+001 -7.218357e-002 1.371159e+002
550207625.51906 -7.101365e-001 1.558999e+002 -6.180059e+001 -6.384351e+001 -6.248649e+001 -6.549957e+001 -7.729299e-002 1.371719e+002
550585126.46282 -7.145243e-001 1.556029e+002 -6.228355e+001 -7.306599e+001 -6.248667e+001 -6.532799e+001 -8.151800e-002 1.372402e+002
550962627.40657 -7.186075e-001 1.553677e+002 -6.325854e+001 -7.257626e+001 -6.368470e+001 -6.712064e+001 -8.405059e-002 1.372708e+002
551340128.35032 -7.261117e-001 1.550962e+002 -6.213084e+001 -7.507521e+001 -6.283549e+001 -7.443636e+001 -9.435138e-002 1.373072e+002
551717629.29407 -7.322562e-001 1.547928e+002 -6.275220e+001 -7.807831e+001 -6.363989e+001 -7.349625e+001 -9.443654e-002 1.373301e+002
552095130.23783 -7.379116e-001 1.545821e+002 -6.247665e+001 -7.363326e+001 -6.274016e+001 -7.461260e+001 -1.016932e-001 1.373422e+002
552472631.18158 -7.439901e-001 1.542778e+002 -6.296949e+001 -7.428688e+001 -6.238165e+001 -7.042133e+001 -1.079007e-001 1.373429e+002
552850132.12533 -7.476202e-001 1.540345e+002 -6.297658e+001 -7.581352e+001 -6.242361e+001 -7.009217e+001 -1.146275e-001 1.373080e+002
553227633.06908 -7.558138e-001 1.537314e+002 -6.384224e+001 -7.429458e+001 -6.313052e+001 -7.249949e+001 -1.239186e-001 1.372723e+002
553605134.01284 -7.627180e-001 1.534851e+002 -6.216890e+001 -7.711765e+001 -6.238205e+001 -7.212862e+001 -1.265893e-001 1.372236e+002
553982634.95659 -7.691956e-001 1.532393e+002 -6.267546e+001 -7.474011e+001 -6.288464e+001 -7.432272e+001 -1.383646e-001 1.371596e+002
554360135.90034 -7.782099e-001 1.530037e+002 -6.259847e+001 -7.689879e+001 -6.229962e+001 -7.601425e+001 -1.403956e-001 1.370888e+002
554737636.84409 -7.836797e-001 1.527144e+002 -6.239682e+001 -7.201315e+001 -6.298456e+001 -7.245029e+001 -1.491957e-001 1.369662e+002
555115137.78784 -7.860530e-001 1.524621e+002 -6.132091e+001 -8.052842e+001 -6.169237e+001 -7.262403e+001 -1.520014e-001 1.368491e+002
