!Agilent Technologies,E8364B,US42250235,A.06.04.32
!Agilent E8364B: A.06.04.32
!Date: Thursday, October 01, 2020 16:05:58
!Correction: S11(Full 2 Port(1,2)) S21(Full 2 Port(1,2)) S12(Full 2 Port(1,2)) S22(Full 2 Port(1,2)) 
!S2P File: Measurements: S11, S21, S12, S22:
# Hz S  dB   R 50
500000000 -2.107655e-001 -1.752869e+002 -7.353925e+001 -5.943147e+001 -7.546471e+001 -7.250839e+001 -3.599273e-002 1.431604e+002
500377500.94375 -2.133821e-001 -1.755285e+002 -7.234425e+001 -5.070350e+001 -7.396654e+001 -6.200981e+001 -3.769935e-002 1.433479e+002
500755001.8875 -2.171651e-001 -1.756387e+002 -7.138432e+001 -4.949425e+001 -7.133183e+001 -5.910312e+001 -3.757720e-002 1.435057e+002
501132502.83126 -2.215939e-001 -1.758438e+002 -7.101212e+001 -4.861087e+001 -7.586211e+001 -5.833554e+001 -4.205254e-002 1.436516e+002
501510003.77501 -2.238728e-001 -1.760822e+002 -7.095589e+001 -5.843232e+001 -7.280307e+001 -7.789658e+001 -4.485448e-002 1.438010e+002
501887504.71876 -2.269634e-001 -1.762781e+002 -7.081816e+001 -6.556694e+001 -7.167587e+001 -7.879956e+001 -4.886891e-002 1.439375e+002
502265005.66251 -2.331656e-001 -1.764571e+002 -7.116568e+001 -5.191993e+001 -7.379527e+001 -7.517823e+001 -5.353318e-002 1.440694e+002
502642506.60627 -2.320043e-001 -1.766652e+002 -7.152972e+001 -6.336371e+001 -7.292936e+001 -6.408864e+001 -6.080441e-002 1.442079e+002
503020007.55002 -2.390462e-001 -1.768870e+002 -7.184090e+001 -7.696587e+001 -7.363972e+001 -5.422920e+001 -6.732727e-002 1.442594e+002
503397508.49377 -2.386409e-001 -1.771049e+002 -7.157835e+001 -5.350125e+001 -7.190609e+001 -6.553127e+001 -7.265753e-002 1.443445e+002
503775009.43752 -2.390213e-001 -1.773600e+002 -6.910613e+001 -7.482427e+001 -7.163995e+001 -6.741913e+001 -8.140731e-002 1.444121e+002
504152510.38128 -2.471863e-001 -1.775340e+002 -7.187646e+001 -7.373381e+001 -7.378683e+001 -8.307452e+001 -8.846706e-002 1.444306e+002
504530011.32503 -2.468795e-001 -1.777868e+002 -6.775207e+001 -7.293600e+001 -7.068903e+001 -7.689113e+001 -1.003551e-001 1.444816e+002
504907512.26878 -2.530141e-001 -1.779439e+002 -7.151342e+001 -7.849679e+001 -7.461359e+001 -6.985764e+001 -1.052926e-001 1.444810e+002
505285013.21253 -2.598453e-001 -1.781019e+002 -6.918965e+001 -6.738390e+001 -7.006101e+001 -6.355670e+001 -1.130408e-001 1.444632e+002
505662514.15629 -2.564423e-001 -1.783442e+002 -7.061920e+001 -8.519831e+001 -7.281301e+001 -6.633642e+001 -1.201728e-001 1.444060e+002
506040015.10004 -2.610635e-001 -1.785778e+002 -7.186148e+001 -8.839120e+001 -7.408507e+001 -9.160384e+001 -1.310004e-001 1.443415e+002
506417516.04379 -2.622257e-001 -1.788075e+002 -7.107388e+001 -7.867628e+001 -7.210458e+001 -8.755276e+001 -1.414728e-001 1.442554e+002
506795016.98754 -2.679906e-001 -1.789789e+002 -7.162208e+001 -8.305196e+001 -7.032278e+001 -9.182275e+001 -1.448895e-001 1.441502e+002
507172517.93129 -2.700767e-001 -1.791469e+002 -7.179145e+001 -7.804153e+001 -7.223134e+001 -7.009036e+001 -1.540113e-001 1.440256e+002
507550018.87505 -2.721714e-001 -1.793541e+002 -7.029452e+001 -9.317828e+001 -7.398274e+001 -8.376078e+001 -1.633589e-001 1.438565e+002
507927519.8188 -2.802478e-001 -1.796153e+002 -6.814172e+001 -8.478240e+001 -7.066620e+001 -6.678087e+001 -1.737339e-001 1.436906e+002
508305020.76255 -2.805425e-001 -1.798634e+002 -6.948528e+001 -8.866344e+001 -7.197840e+001 -7.543186e+001 -1.810472e-001 1.434919e+002
508682521.7063 -2.826071e-001 1.799186e+002 -7.008089e+001 -8.244997e+001 -7.111602e+001 -7.445947e+001 -1.928598e-001 1.433061e+002
509060022.65006 -2.874069e-001 1.797719e+002 -7.098132e+001 -7.491625e+001 -7.053511e+001 -7.918549e+001 -1.911006e-001 1.430316e+002
509437523.59381 -2.908488e-001 1.794704e+002 -6.905146e+001 -9.533005e+001 -6.940013e+001 -7.583911e+001 -1.969615e-001 1.428268e+002
509815024.53756 -2.941050e-001 1.793370e+002 -6.867544e+001 -8.093333e+001 -7.173006e+001 -9.903459e+001 -2.037476e-001 1.425421e+002
510192525.48131 -2.992634e-001 1.791100e+002 -6.977409e+001 -9.437327e+001 -6.842310e+001 -8.487318e+001 -2.074526e-001 1.422718e+002
510570026.42507 -3.070517e-001 1.788310e+002 -6.981470e+001 -7.230443e+001 -6.979964e+001 -8.688759e+001 -2.103257e-001 1.419972e+002
510947527.36882 -3.078883e-001 1.786853e+002 -6.983838e+001 -8.278251e+001 -6.949142e+001 -8.978931e+001 -2.130798e-001 1.417257e+002
511325028.31257 -3.147594e-001 1.784722e+002 -7.039712e+001 -9.391136e+001 -7.057349e+001 -8.177708e+001 -2.120467e-001 1.414368e+002
511702529.25632 -3.128525e-001 1.782169e+002 -6.785030e+001 -8.931329e+001 -7.323101e+001 -1.018150e+002 -2.125471e-001 1.411327e+002
512080030.20008 -3.215159e-001 1.779672e+002 -6.887955e+001 -9.083578e+001 -6.877304e+001 -8.485101e+001 -2.125609e-001 1.408556e+002
512457531.14383 -3.230471e-001 1.777842e+002 -6.946711e+001 -8.255987e+001 -7.066969e+001 -9.028121e+001 -2.084195e-001 1.405798e+002
512835032.08758 -3.252161e-001 1.775895e+002 -6.816388e+001 -8.782625e+001 -6.863995e+001 -8.627464e+001 -2.063014e-001 1.403098e+002
513212533.03133 -3.305796e-001 1.773049e+002 -6.886233e+001 -9.267933e+001 -6.805602e+001 -9.141073e+001 -2.011778e-001 1.400422e+002
513590033.97508 -3.320148e-001 1.770881e+002 -6.853833e+001 -9.095870e+001 -6.864539e+001 -9.834890e+001 -1.948437e-001 1.398045e+002
513967534.91884 -3.388245e-001 1.769581e+002 -6.841469e+001 -8.739780e+001 -6.991821e+001 -9.824039e+001 -1.897426e-001 1.395782e+002
514345035.86259 -3.395360e-001 1.766775e+002 -6.828162e+001 -9.916708e+001 -6.998936e+001 -8.670992e+001 -1.831022e-001 1.393507e+002
514722536.80634 -3.443706e-001 1.765166e+002 -6.736990e+001 -9.525128e+001 -6.887770e+001 -9.592486e+001 -1.782335e-001 1.391653e+002
515100037.75009 -3.458351e-001 1.763123e+002 -6.777332e+001 -1.056180e+002 -6.860543e+001 -9.514333e+001 -1.690367e-001 1.389940e+002
515477538.69385 -3.486567e-001 1.759617e+002 -6.847656e+001 -1.012092e+002 -6.859244e+001 -9.684405e+001 -1.651785e-001 1.388355e+002
515855039.6376 -3.526475e-001 1.758350e+002 -6.782736e+001 -1.039042e+002 -6.835472e+001 -1.081407e+002 -1.527182e-001 1.387109e+002
516232540.58135 -3.580925e-001 1.755528e+002 -6.883803e+001 -9.857260e+001 -6.972474e+001 -1.118339e+002 -1.445961e-001 1.386149e+002
516610041.5251 -3.634998e-001 1.753907e+002 -6.872089e+001 -1.036048e+002 -6.928540e+001 -1.045649e+002 -1.391434e-001 1.385414e+002
516987542.46886 -3.658181e-001 1.751721e+002 -6.690155e+001 -9.948627e+001 -6.948891e+001 -1.133073e+002 -1.322031e-001 1.384745e+002
517365043.41261 -3.713373e-001 1.749121e+002 -6.916520e+001 -1.029354e+002 -6.867352e+001 -1.241633e+002 -1.241543e-001 1.384303e+002
517742544.35636 -3.756197e-001 1.746348e+002 -6.720137e+001 -1.074411e+002 -6.793889e+001 -1.110897e+002 -1.150283e-001 1.384491e+002
518120045.30011 -3.790979e-001 1.744748e+002 -6.722662e+001 -1.182869e+002 -6.970301e+001 -1.172361e+002 -1.028664e-001 1.384843e+002
518497546.24387 -3.839654e-001 1.742690e+002 -6.776783e+001 -1.190337e+002 -6.808861e+001 -1.217327e+002 -9.470101e-002 1.385213e+002
518875047.18762 -3.953990e-001 1.740514e+002 -6.893440e+001 -1.188438e+002 -6.928453e+001 -1.074940e+002 -8.867512e-002 1.385838e+002
519252548.13137 -3.992378e-001 1.738300e+002 -6.866924e+001 -1.176784e+002 -6.789193e+001 -1.149234e+002 -8.161254e-002 1.386777e+002
519630049.07512 -4.088596e-001 1.736296e+002 -6.781861e+001 -1.154370e+002 -6.869877e+001 -1.219475e+002 -7.517818e-002 1.387863e+002
520007550.01888 -4.104235e-001 1.733388e+002 -6.764184e+001 -1.151199e+002 -7.041698e+001 -1.222025e+002 -7.361445e-002 1.389409e+002
520385050.96263 -4.194878e-001 1.732220e+002 -6.871973e+001 -1.215755e+002 -6.792776e+001 -1.228702e+002 -6.605367e-002 1.390642e+002
520762551.90638 -4.241838e-001 1.730113e+002 -6.706278e+001 -1.211791e+002 -6.826256e+001 -1.193935e+002 -6.098923e-002 1.392270e+002
521140052.85013 -4.280678e-001 1.727348e+002 -6.930198e+001 -1.165687e+002 -6.928761e+001 -1.229253e+002 -5.616941e-002 1.393941e+002
521517553.79388 -4.351557e-001 1.725418e+002 -6.710354e+001 -1.101570e+002 -6.901167e+001 -1.214004e+002 -5.421682e-002 1.395969e+002
521895054.73764 -4.390654e-001 1.723267e+002 -6.809299e+001 -1.123598e+002 -6.704412e+001 -1.192203e+002 -5.525165e-002 1.397660e+002
522272555.68139 -4.461934e-001 1.721629e+002 -6.828003e+001 -1.290402e+002 -6.933227e+001 -1.082198e+002 -5.356567e-002 1.399689e+002
522650056.62514 -4.498325e-001 1.719178e+002 -6.758732e+001 -1.180341e+002 -6.922121e+001 -1.195898e+002 -5.773740e-002 1.401511e+002
523027557.56889 -4.590628e-001 1.717475e+002 -6.842345e+001 -1.212127e+002 -6.790913e+001 -1.201057e+002 -5.377226e-002 1.403466e+002
523405058.51265 -4.576669e-001 1.715042e+002 -6.719424e+001 -1.223739e+002 -6.866902e+001 -1.243158e+002 -5.717838e-002 1.405902e+002
523782559.4564 -4.690976e-001 1.713148e+002 -6.764388e+001 -1.282558e+002 -6.811520e+001 -1.311969e+002 -6.001197e-002 1.407290e+002
524160060.40015 -4.731568e-001 1.710357e+002 -6.607377e+001 -1.216921e+002 -6.932951e+001 -1.245551e+002 -6.449175e-002 1.409079e+002
524537561.3439 -4.772129e-001 1.708396e+002 -6.606664e+001 -1.245419e+002 -6.782745e+001 -1.227143e+002 -6.909714e-002 1.410686e+002
524915062.28766 -4.846948e-001 1.706193e+002 -6.633868e+001 -1.230127e+002 -6.766685e+001 -1.253536e+002 -7.416519e-002 1.412485e+002
525292563.23141 -4.896603e-001 1.703445e+002 -6.747036e+001 -1.195339e+002 -6.711282e+001 -1.254989e+002 -8.138111e-002 1.413725e+002
525670064.17516 -4.932484e-001 1.701866e+002 -6.746465e+001 -1.256885e+002 -6.749560e+001 -1.275686e+002 -8.699796e-002 1.414899e+002
526047565.11891 -4.998459e-001 1.699158e+002 -6.583038e+001 -1.378788e+002 -6.806718e+001 -1.282251e+002 -9.535830e-002 1.415919e+002
526425066.06267 -5.103002e-001 1.697055e+002 -6.557274e+001 -1.259627e+002 -6.621180e+001 -1.241912e+002 -1.082601e-001 1.416890e+002
526802567.00642 -5.176631e-001 1.694558e+002 -6.621405e+001 -1.354474e+002 -6.813215e+001 -1.290778e+002 -1.182336e-001 1.417538e+002
527180067.95017 -5.207568e-001 1.692540e+002 -6.586156e+001 -1.332231e+002 -6.782997e+001 -1.263217e+002 -1.226616e-001 1.417960e+002
527557568.89392 -5.281003e-001 1.690765e+002 -6.454778e+001 -1.322096e+002 -6.614788e+001 -1.363925e+002 -1.315562e-001 1.418098e+002
527935069.83767 -5.390437e-001 1.688199e+002 -6.585852e+001 -1.390573e+002 -6.621938e+001 -1.299938e+002 -1.413643e-001 1.418100e+002
528312570.78143 -5.421112e-001 1.685795e+002 -6.487128e+001 -1.432109e+002 -6.643366e+001 -1.361987e+002 -1.501450e-001 1.417952e+002
528690071.72518 -5.474734e-001 1.684390e+002 -6.540329e+001 -1.422567e+002 -6.508501e+001 -1.412146e+002 -1.567550e-001 1.417241e+002
529067572.66893 -5.555633e-001 1.681406e+002 -6.540707e+001 -1.372088e+002 -6.649803e+001 -1.348247e+002 -1.720111e-001 1.416381e+002
529445073.61268 -5.648047e-001 1.680149e+002 -6.575314e+001 -1.486009e+002 -6.553773e+001 -1.469247e+002 -1.766030e-001 1.414770e+002
529822574.55644 -5.704852e-001 1.677345e+002 -6.638850e+001 -1.442915e+002 -6.508344e+001 -1.427412e+002 -1.888663e-001 1.413940e+002
530200075.50019 -5.777577e-001 1.674940e+002 -6.497018e+001 -1.560706e+002 -6.561615e+001 -1.510173e+002 -1.973140e-001 1.412279e+002
530577576.44394 -5.867742e-001 1.672474e+002 -6.547563e+001 -1.571063e+002 -6.609676e+001 -1.522122e+002 -2.073333e-001 1.410500e+002
530955077.38769 -5.932961e-001 1.670351e+002 -6.496885e+001 -1.464523e+002 -6.571043e+001 -1.560828e+002 -2.155172e-001 1.408667e+002
531332578.33145 -5.996512e-001 1.668884e+002 -6.578202e+001 -1.563674e+002 -6.555242e+001 -1.599900e+002 -2.233748e-001 1.406381e+002
531710079.2752 -6.057191e-001 1.666071e+002 -6.608709e+001 -1.538873e+002 -6.601389e+001 -1.534660e+002 -2.290425e-001 1.403845e+002
532087580.21895 -6.156852e-001 1.664240e+002 -6.516245e+001 -1.545186e+002 -6.618642e+001 -1.553429e+002 -2.351701e-001 1.401310e+002
532465081.1627 -6.181300e-001 1.662310e+002 -6.594922e+001 -1.480591e+002 -6.658762e+001 -1.527362e+002 -2.415010e-001 1.398411e+002
532842582.10646 -6.267284e-001 1.659911e+002 -6.627026e+001 -1.617016e+002 -6.554961e+001 -1.578143e+002 -2.460795e-001 1.395710e+002
533220083.05021 -6.301790e-001 1.657774e+002 -6.513453e+001 -1.587129e+002 -6.667133e+001 -1.619417e+002 -2.522026e-001 1.393009e+002
533597583.99396 -6.384212e-001 1.655838e+002 -6.563966e+001 -1.514974e+002 -6.671818e+001 -1.601196e+002 -2.527892e-001 1.390245e+002
533975084.93771 -6.428000e-001 1.652914e+002 -6.589106e+001 -1.605132e+002 -6.582495e+001 -1.625936e+002 -2.518458e-001 1.386718e+002
534352585.88146 -6.519709e-001 1.651214e+002 -6.641692e+001 -1.592088e+002 -6.530895e+001 -1.652733e+002 -2.531526e-001 1.383564e+002
534730086.82522 -6.574722e-001 1.649142e+002 -6.585442e+001 -1.634935e+002 -6.570321e+001 -1.579634e+002 -2.561202e-001 1.380702e+002
535107587.76897 -6.646971e-001 1.647028e+002 -6.525905e+001 -1.683977e+002 -6.478857e+001 -1.632757e+002 -2.575895e-001 1.377613e+002
535485088.71272 -6.675105e-001 1.644468e+002 -6.602140e+001 -1.645379e+002 -6.580544e+001 -1.638157e+002 -2.509356e-001 1.374387e+002
535862589.65647 -6.745593e-001 1.642071e+002 -6.567620e+001 -1.677539e+002 -6.639617e+001 -1.709131e+002 -2.482354e-001 1.371497e+002
536240090.60023 -6.770024e-001 1.640277e+002 -6.480657e+001 -1.678552e+002 -6.476096e+001 -1.672998e+002 -2.469062e-001 1.368690e+002
536617591.54398 -6.854834e-001 1.637594e+002 -6.658567e+001 -1.666629e+002 -6.564261e+001 -1.595918e+002 -2.433566e-001 1.365767e+002
536995092.48773 -6.942698e-001 1.636045e+002 -6.474007e+001 -1.670650e+002 -6.555614e+001 -1.644788e+002 -2.334804e-001 1.363416e+002
537372593.43148 -6.956794e-001 1.633705e+002 -6.470692e+001 -1.723198e+002 -6.572538e+001 -1.721897e+002 -2.277536e-001 1.360781e+002
537750094.37524 -7.015627e-001 1.631210e+002 -6.503502e+001 -1.749742e+002 -6.514195e+001 -1.662563e+002 -2.234493e-001 1.358634e+002
538127595.31899 -7.112177e-001 1.629722e+002 -6.502583e+001 -1.716581e+002 -6.525800e+001 -1.762992e+002 -2.175376e-001 1.356499e+002
538505096.26274 -7.169993e-001 1.628051e+002 -6.486730e+001 -1.761704e+002 -6.547157e+001 -1.685139e+002 -2.076571e-001 1.354878e+002
538882597.20649 -7.220926e-001 1.625496e+002 -6.523505e+001 -1.700481e+002 -6.514742e+001 -1.678434e+002 -2.004555e-001 1.352825e+002
539260098.15025 -7.262654e-001 1.623082e+002 -6.494366e+001 -1.652462e+002 -6.554611e+001 -1.633056e+002 -1.932929e-001 1.351396e+002
539637599.094 -7.375137e-001 1.621082e+002 -6.532634e+001 -1.697151e+002 -6.478692e+001 -1.700939e+002 -1.857255e-001 1.349919e+002
540015100.03775 -7.449130e-001 1.619719e+002 -6.447891e+001 -1.754149e+002 -6.482112e+001 -1.695378e+002 -1.753184e-001 1.349425e+002
540392600.9815 -7.491918e-001 1.617928e+002 -6.468482e+001 -1.772249e+002 -6.477504e+001 -1.753842e+002 -1.704823e-001 1.347939e+002
540770101.92525 -7.571979e-001 1.615025e+002 -6.322867e+001 -1.760954e+002 -6.475560e+001 -1.745592e+002 -1.592975e-001 1.347176e+002
541147602.86901 -7.597490e-001 1.613724e+002 -6.330632e+001 -1.787567e+002 -6.454327e+001 -1.791004e+002 -1.560832e-001 1.346798e+002
541525103.81276 -7.595662e-001 1.611021e+002 -6.370871e+001 1.788423e+002 -6.514697e+001 -1.748654e+002 -1.448195e-001 1.346341e+002
541902604.75651 -7.684901e-001 1.609462e+002 -6.302616e+001 1.772304e+002 -6.428147e+001 1.747630e+002 -1.396332e-001 1.346225e+002
542280105.70026 -7.742416e-001 1.607363e+002 -6.317979e+001 1.685264e+002 -6.493835e+001 1.750136e+002 -1.278791e-001 1.346190e+002
542657606.64402 -7.733105e-001 1.605737e+002 -6.372581e+001 1.738211e+002 -6.447742e+001 1.781726e+002 -1.272970e-001 1.346322e+002
543035107.58777 -7.766666e-001 1.604172e+002 -6.324435e+001 1.677410e+002 -6.441183e+001 1.673460e+002 -1.180800e-001 1.346730e+002
543412608.53152 -7.754983e-001 1.601410e+002 -6.498402e+001 1.704118e+002 -6.358403e+001 1.654471e+002 -1.137990e-001 1.347203e+002
543790109.47527 -7.774034e-001 1.600247e+002 -6.399514e+001 1.697604e+002 -6.458053e+001 1.690671e+002 -1.076012e-001 1.347794e+002
544167610.41903 -7.829890e-001 1.597722e+002 -6.361610e+001 1.588465e+002 -6.479067e+001 1.710439e+002 -1.019862e-001 1.348424e+002
544545111.36278 -7.808501e-001 1.596172e+002 -6.429722e+001 1.649740e+002 -6.446131e+001 1.632488e+002 -9.969296e-002 1.349202e+002
544922612.30653 -7.810041e-001 1.593194e+002 -6.427035e+001 1.590088e+002 -6.517949e+001 1.670312e+002 -9.366218e-002 1.350251e+002
545300113.25028 -7.821988e-001 1.591360e+002 -6.431303e+001 1.685763e+002 -6.504424e+001 1.678700e+002 -9.281503e-002 1.351178e+002
545677614.19404 -7.795801e-001 1.589189e+002 -6.447833e+001 1.568262e+002 -6.454971e+001 1.658077e+002 -9.042810e-002 1.352023e+002
546055115.13779 -7.824641e-001 1.586863e+002 -6.390643e+001 1.628915e+002 -6.510051e+001 1.663379e+002 -8.969364e-002 1.353285e+002
546432616.08154 -7.843130e-001 1.584161e+002 -6.442177e+001 1.610446e+002 -6.511420e+001 1.648409e+002 -8.535705e-002 1.354455e+002
546810117.02529 -7.812697e-001 1.581567e+002 -6.417181e+001 1.636214e+002 -6.462102e+001 1.594606e+002 -8.516617e-002 1.355719e+002
547187617.96904 -7.863095e-001 1.579746e+002 -6.405370e+001 1.627361e+002 -6.587531e+001 1.589028e+002 -8.409409e-002 1.356832e+002
547565118.9128 -7.918716e-001 1.577485e+002 -6.458897e+001 1.594029e+002 -6.476366e+001 1.574798e+002 -8.237156e-002 1.357766e+002
547942619.85655 -7.962319e-001 1.574997e+002 -6.342237e+001 1.631786e+002 -6.484390e+001 1.589455e+002 -8.363353e-002 1.358846e+002
548320120.8003 -8.008084e-001 1.572580e+002 -6.378290e+001 1.563212e+002 -6.589075e+001 1.574129e+002 -8.646715e-002 1.359972e+002
548697621.74405 -8.020433e-001 1.569908e+002 -6.364518e+001 1.533360e+002 -6.471151e+001 1.594898e+002 -8.886530e-002 1.360919e+002
549075122.68781 -8.093140e-001 1.567867e+002 -6.490286e+001 1.578834e+002 -6.478474e+001 1.558546e+002 -9.344294e-002 1.362386e+002
549452623.63156 -8.162320e-001 1.565225e+002 -6.462256e+001 1.510817e+002 -6.412304e+001 1.537767e+002 -9.614622e-002 1.362805e+002
549830124.57531 -8.179060e-001 1.563271e+002 -6.429163e+001 1.526162e+002 -6.412804e+001 1.527976e+002 -1.005920e-001 1.363624e+002
550207625.51906 -8.203525e-001 1.560424e+002 -6.472881e+001 1.582388e+002 -6.518297e+001 1.515468e+002 -1.053200e-001 1.364156e+002
550585126.46282 -8.237031e-001 1.558043e+002 -6.430509e+001 1.482418e+002 -6.500315e+001 1.477092e+002 -1.096768e-001 1.364810e+002
550962627.40657 -8.251087e-001 1.555708e+002 -6.301506e+001 1.500337e+002 -6.539884e+001 1.617710e+002 -1.147127e-001 1.365288e+002
551340128.35032 -8.288676e-001 1.553174e+002 -6.486373e+001 1.463121e+002 -6.429639e+001 1.521875e+002 -1.201219e-001 1.365628e+002
551717629.29407 -8.363976e-001 1.550348e+002 -6.360321e+001 1.451566e+002 -6.614379e+001 1.582340e+002 -1.240795e-001 1.365857e+002
552095130.23783 -8.374891e-001 1.547493e+002 -6.485446e+001 1.435605e+002 -6.385035e+001 1.542494e+002 -1.318433e-001 1.365928e+002
552472631.18158 -8.414684e-001 1.545038e+002 -6.389352e+001 1.455970e+002 -6.481001e+001 1.541995e+002 -1.377084e-001 1.365772e+002
552850132.12533 -8.447983e-001 1.542867e+002 -6.418385e+001 1.504227e+002 -6.374094e+001 1.517899e+002 -1.459599e-001 1.365573e+002
553227633.06908 -8.538262e-001 1.539477e+002 -6.365707e+001 1.435827e+002 -6.425584e+001 1.486481e+002 -1.563465e-001 1.365059e+002
553605134.01284 -8.586859e-001 1.537463e+002 -6.397392e+001 1.546241e+002 -6.494827e+001 1.466685e+002 -1.590815e-001 1.364679e+002
553982634.95659 -8.677642e-001 1.534429e+002 -6.361359e+001 1.490095e+002 -6.372058e+001 1.487107e+002 -1.704700e-001 1.364204e+002
554360135.90034 -8.774419e-001 1.531837e+002 -6.392191e+001 1.400779e+002 -6.326234e+001 1.493838e+002 -1.743823e-001 1.362973e+002
554737636.84409 -8.806072e-001 1.529587e+002 -6.323138e+001 1.420286e+002 -6.420881e+001 1.392017e+002 -1.845189e-001 1.362083e+002
555115137.78784 -8.891400e-001 1.526714e+002 -6.267012e+001 1.401866e+002 -6.372755e+001 1.424829e+002 -1.880771e-001 1.360924e+002
