!Agilent Technologies,E8364B,US42250235,A.06.04.32
!Agilent E8364B: A.06.04.32
!Date: Thursday, October 01, 2020 16:08:50
!Correction: S11(Full 2 Port(1,2)) S21(Full 2 Port(1,2)) S12(Full 2 Port(1,2)) S22(Full 2 Port(1,2)) 
!S2P File: Measurements: S11, S21, S12, S22:
# Hz S  dB   R 50
500000000 -2.437364e-001 -1.750827e+002 -7.508201e+001 -1.590329e+002 -7.315114e+001 -1.469365e+002 -2.834493e-002 1.431745e+002
500377500.94375 -2.462877e-001 -1.752531e+002 -7.556040e+001 -1.604859e+002 -7.486024e+001 -1.717355e+002 -3.066744e-002 1.433710e+002
500755001.8875 -2.437753e-001 -1.754505e+002 -7.185300e+001 -1.323745e+002 -7.303758e+001 -1.541532e+002 -3.079963e-002 1.435076e+002
501132502.83126 -2.503931e-001 -1.756518e+002 -7.377618e+001 -1.471484e+002 -7.089800e+001 -1.599438e+002 -3.625615e-002 1.436568e+002
501510003.77501 -2.530585e-001 -1.758019e+002 -7.127983e+001 -1.643152e+002 -7.486105e+001 -1.381888e+002 -4.019886e-002 1.438057e+002
501887504.71876 -2.544975e-001 -1.760904e+002 -7.200118e+001 -1.550482e+002 -7.364912e+001 -1.717957e+002 -4.209922e-002 1.439169e+002
502265005.66251 -2.624188e-001 -1.762119e+002 -7.416895e+001 1.792784e+002 -7.098917e+001 -1.657026e+002 -4.679802e-002 1.440610e+002
502642506.60627 -2.605620e-001 -1.764410e+002 -7.186984e+001 -1.525571e+002 -7.374060e+001 -1.496843e+002 -5.485743e-002 1.441985e+002
503020007.55002 -2.680576e-001 -1.766374e+002 -6.950396e+001 -1.681850e+002 -7.409323e+001 -1.783850e+002 -6.176677e-002 1.442487e+002
503397508.49377 -2.659149e-001 -1.767903e+002 -7.057541e+001 -1.700419e+002 -7.277777e+001 -1.626282e+002 -6.803911e-002 1.443283e+002
503775009.43752 -2.679868e-001 -1.770750e+002 -7.146530e+001 -1.747408e+002 -7.295450e+001 -1.636499e+002 -7.427830e-002 1.443787e+002
504152510.38128 -2.702966e-001 -1.772354e+002 -7.253928e+001 -1.613979e+002 -7.275661e+001 -1.562963e+002 -8.369049e-002 1.443980e+002
504530011.32503 -2.716710e-001 -1.774356e+002 -7.357150e+001 -1.706195e+002 -7.314827e+001 -1.666623e+002 -8.893935e-002 1.444333e+002
504907512.26878 -2.748640e-001 -1.775814e+002 -7.086822e+001 -1.589050e+002 -7.192992e+001 -1.762888e+002 -1.003360e-001 1.444241e+002
505285013.21253 -2.776673e-001 -1.778169e+002 -7.084991e+001 -1.778746e+002 -7.362412e+001 -1.662442e+002 -1.109699e-001 1.444040e+002
505662514.15629 -2.774884e-001 -1.780215e+002 -7.222366e+001 -1.707243e+002 -7.088680e+001 1.772494e+002 -1.149042e-001 1.443611e+002
506040015.10004 -2.797870e-001 -1.781905e+002 -7.074966e+001 -1.740606e+002 -7.222119e+001 -1.661830e+002 -1.227288e-001 1.443040e+002
506417516.04379 -2.820440e-001 -1.784324e+002 -7.238012e+001 1.708036e+002 -6.991376e+001 -1.758250e+002 -1.325765e-001 1.442067e+002
506795016.98754 -2.861664e-001 -1.785803e+002 -7.340281e+001 1.644729e+002 -7.124769e+001 -1.644378e+002 -1.378178e-001 1.440816e+002
507172517.93129 -2.854473e-001 -1.788217e+002 -6.951207e+001 -1.738289e+002 -7.101967e+001 1.747751e+002 -1.460096e-001 1.439655e+002
507550018.87505 -2.861252e-001 -1.790150e+002 -6.912175e+001 1.779299e+002 -7.132533e+001 -1.689600e+002 -1.584291e-001 1.437867e+002
507927519.8188 -2.919977e-001 -1.792328e+002 -7.310119e+001 1.682791e+002 -7.065010e+001 1.795840e+002 -1.628996e-001 1.436323e+002
508305020.76255 -2.910728e-001 -1.794652e+002 -6.949442e+001 -1.765085e+002 -7.078210e+001 -1.783104e+002 -1.712113e-001 1.434487e+002
508682521.7063 -2.928057e-001 -1.796882e+002 -7.158580e+001 -1.643246e+002 -7.153456e+001 -1.696433e+002 -1.814313e-001 1.432378e+002
509060022.65006 -2.936137e-001 -1.798631e+002 -6.926917e+001 1.694376e+002 -7.061438e+001 -1.792605e+002 -1.824487e-001 1.429837e+002
509437523.59381 -2.956718e-001 1.798868e+002 -7.223586e+001 1.574867e+002 -7.554564e+001 -1.694612e+002 -1.866686e-001 1.427726e+002
509815024.53756 -2.923537e-001 1.797189e+002 -7.097436e+001 1.666512e+002 -6.952780e+001 -1.765106e+002 -1.918370e-001 1.425051e+002
510192525.48131 -2.986368e-001 1.795140e+002 -7.149141e+001 -1.671331e+002 -7.063358e+001 -1.791135e+002 -1.923721e-001 1.422261e+002
510570026.42507 -3.025174e-001 1.793195e+002 -7.117023e+001 -1.654492e+002 -6.887220e+001 1.785643e+002 -1.932974e-001 1.419589e+002
510947527.36882 -3.022510e-001 1.791287e+002 -7.060605e+001 -1.719240e+002 -7.019778e+001 -1.681196e+002 -1.967776e-001 1.416705e+002
511325028.31257 -3.044342e-001 1.789221e+002 -6.979987e+001 1.731911e+002 -6.940765e+001 -1.789969e+002 -1.986408e-001 1.413833e+002
511702529.25632 -3.029863e-001 1.786056e+002 -7.144267e+001 1.714549e+002 -6.971794e+001 -1.785575e+002 -1.992381e-001 1.411067e+002
512080030.20008 -3.099106e-001 1.784423e+002 -7.054104e+001 1.731769e+002 -6.935890e+001 1.673244e+002 -1.986070e-001 1.408273e+002
512457531.14383 -3.119140e-001 1.782347e+002 -7.028232e+001 1.562696e+002 -6.932322e+001 1.557873e+002 -1.941908e-001 1.405558e+002
512835032.08758 -3.127248e-001 1.779811e+002 -6.991965e+001 1.729245e+002 -6.908273e+001 1.537733e+002 -1.927109e-001 1.402747e+002
513212533.03133 -3.139826e-001 1.777411e+002 -6.928644e+001 1.747780e+002 -7.075708e+001 1.710956e+002 -1.896453e-001 1.399883e+002
513590033.97508 -3.159050e-001 1.775367e+002 -6.917059e+001 1.621504e+002 -7.023394e+001 1.734063e+002 -1.823785e-001 1.397594e+002
513967534.91884 -3.193786e-001 1.773418e+002 -7.124926e+001 1.695675e+002 -6.995082e+001 1.560892e+002 -1.771774e-001 1.394860e+002
514345035.86259 -3.155729e-001 1.770897e+002 -6.898257e+001 1.547792e+002 -7.128548e+001 1.518387e+002 -1.715580e-001 1.393130e+002
514722536.80634 -3.194360e-001 1.769055e+002 -6.879602e+001 1.504457e+002 -6.929471e+001 1.513784e+002 -1.674364e-001 1.391109e+002
515100037.75009 -3.188617e-001 1.767020e+002 -7.017930e+001 1.739020e+002 -7.100206e+001 1.635583e+002 -1.591857e-001 1.389532e+002
515477538.69385 -3.222826e-001 1.764259e+002 -7.053482e+001 1.547157e+002 -6.995896e+001 1.536933e+002 -1.520851e-001 1.387793e+002
515855039.6376 -3.243199e-001 1.762365e+002 -7.133097e+001 1.527819e+002 -7.173408e+001 1.547901e+002 -1.409743e-001 1.386567e+002
516232540.58135 -3.293670e-001 1.760336e+002 -7.006379e+001 1.588428e+002 -7.054893e+001 1.456491e+002 -1.331697e-001 1.385517e+002
516610041.5251 -3.319649e-001 1.758103e+002 -6.958813e+001 1.536992e+002 -7.116901e+001 1.609087e+002 -1.274485e-001 1.384681e+002
516987542.46886 -3.311065e-001 1.755754e+002 -7.186520e+001 1.624936e+002 -6.963719e+001 1.597930e+002 -1.196200e-001 1.384128e+002
517365043.41261 -3.346072e-001 1.754165e+002 -7.050082e+001 1.498919e+002 -7.085664e+001 1.618421e+002 -1.097798e-001 1.383518e+002
517742544.35636 -3.363991e-001 1.751398e+002 -6.950616e+001 1.505328e+002 -6.968120e+001 1.539520e+002 -1.018709e-001 1.383797e+002
518120045.30011 -3.397861e-001 1.749653e+002 -7.125385e+001 1.527661e+002 -7.131669e+001 1.455525e+002 -9.240313e-002 1.383997e+002
518497546.24387 -3.400015e-001 1.747540e+002 -6.938207e+001 1.462188e+002 -6.942752e+001 1.479728e+002 -8.343352e-002 1.384452e+002
518875047.18762 -3.450819e-001 1.744929e+002 -7.224249e+001 1.554155e+002 -7.052644e+001 1.403032e+002 -7.460716e-002 1.385095e+002
519252548.13137 -3.510773e-001 1.743123e+002 -6.810323e+001 1.375684e+002 -7.073391e+001 1.412699e+002 -7.211947e-002 1.386113e+002
519630049.07512 -3.563841e-001 1.740354e+002 -6.918517e+001 1.409637e+002 -6.947036e+001 1.480731e+002 -6.500684e-002 1.387307e+002
520007550.01888 -3.581870e-001 1.737826e+002 -7.037147e+001 1.470177e+002 -7.100728e+001 1.469685e+002 -5.915148e-002 1.388026e+002
520385050.96263 -3.619037e-001 1.736201e+002 -7.030139e+001 1.419303e+002 -7.233353e+001 1.298488e+002 -5.593675e-002 1.389823e+002
520762551.90638 -3.636619e-001 1.733815e+002 -6.896047e+001 1.430348e+002 -7.171319e+001 1.269202e+002 -4.709344e-002 1.391525e+002
521140052.85013 -3.661210e-001 1.732047e+002 -6.823869e+001 1.453085e+002 -7.055821e+001 1.433937e+002 -4.364408e-002 1.392941e+002
521517553.79388 -3.683437e-001 1.729988e+002 -7.065079e+001 1.436604e+002 -6.963144e+001 1.377221e+002 -4.090061e-002 1.395042e+002
521895054.73764 -3.731567e-001 1.727599e+002 -7.067918e+001 1.417757e+002 -7.270084e+001 1.435566e+002 -3.895814e-002 1.396896e+002
522272555.68139 -3.759508e-001 1.725257e+002 -7.086629e+001 1.395041e+002 -7.016279e+001 1.397192e+002 -3.861546e-002 1.398920e+002
522650056.62514 -3.795136e-001 1.723396e+002 -7.111150e+001 1.282475e+002 -6.945008e+001 1.396925e+002 -3.620588e-002 1.400196e+002
523027557.56889 -3.835314e-001 1.721283e+002 -7.289688e+001 1.566391e+002 -6.956619e+001 1.279687e+002 -3.920631e-002 1.402787e+002
523405058.51265 -3.835440e-001 1.718452e+002 -6.946902e+001 1.438708e+002 -7.116856e+001 1.420856e+002 -3.607301e-002 1.405320e+002
523782559.4564 -3.872591e-001 1.716762e+002 -6.954958e+001 1.380806e+002 -7.175259e+001 1.398034e+002 -4.544898e-002 1.406480e+002
524160060.40015 -3.916359e-001 1.714009e+002 -6.849265e+001 1.217590e+002 -7.035707e+001 1.426438e+002 -4.568326e-002 1.408437e+002
524537561.3439 -3.918783e-001 1.712220e+002 -7.174518e+001 1.512717e+002 -6.986246e+001 1.412954e+002 -5.002036e-002 1.410170e+002
524915062.28766 -3.951642e-001 1.709645e+002 -6.999600e+001 1.460600e+002 -7.002879e+001 1.442973e+002 -5.206803e-002 1.411825e+002
525292563.23141 -3.982059e-001 1.706387e+002 -7.056934e+001 1.431223e+002 -7.038998e+001 1.496968e+002 -5.904303e-002 1.413248e+002
525670064.17516 -4.004702e-001 1.704504e+002 -6.908077e+001 1.352888e+002 -6.998048e+001 1.348603e+002 -6.757120e-002 1.414343e+002
526047565.11891 -4.035130e-001 1.701902e+002 -6.764772e+001 1.328529e+002 -6.951205e+001 1.410018e+002 -7.629586e-002 1.415414e+002
526425066.06267 -4.084193e-001 1.699385e+002 -7.103053e+001 1.427364e+002 -6.810201e+001 1.385632e+002 -8.695562e-002 1.416509e+002
526802567.00642 -4.141606e-001 1.697133e+002 -6.864205e+001 1.337139e+002 -6.598277e+001 1.336023e+002 -9.187654e-002 1.417174e+002
527180067.95017 -4.201757e-001 1.695231e+002 -6.906116e+001 1.305843e+002 -6.750176e+001 1.403640e+002 -1.015648e-001 1.417393e+002
527557568.89392 -4.208690e-001 1.692628e+002 -7.073672e+001 1.380265e+002 -6.826552e+001 1.426955e+002 -1.087410e-001 1.417218e+002
527935069.83767 -4.312587e-001 1.690653e+002 -6.908612e+001 1.201332e+002 -6.916528e+001 1.341536e+002 -1.162363e-001 1.417708e+002
528312570.78143 -4.357026e-001 1.687937e+002 -6.907354e+001 1.413779e+002 -6.963132e+001 1.333072e+002 -1.274091e-001 1.417425e+002
528690071.72518 -4.333102e-001 1.685612e+002 -6.779315e+001 1.276109e+002 -6.920390e+001 1.346649e+002 -1.352355e-001 1.416921e+002
529067572.66893 -4.429742e-001 1.683240e+002 -6.744635e+001 1.312147e+002 -6.802745e+001 1.333925e+002 -1.505667e-001 1.416170e+002
529445073.61268 -4.409407e-001 1.680854e+002 -6.880552e+001 1.223863e+002 -6.849731e+001 1.351967e+002 -1.542823e-001 1.415122e+002
529822574.55644 -4.461061e-001 1.678041e+002 -6.702883e+001 1.170530e+002 -6.850600e+001 1.301102e+002 -1.646115e-001 1.413692e+002
530200075.50019 -4.529486e-001 1.675213e+002 -6.833955e+001 1.256960e+002 -6.716917e+001 1.258552e+002 -1.726886e-001 1.412083e+002
530577576.44394 -4.639435e-001 1.673382e+002 -6.728411e+001 1.250280e+002 -6.964457e+001 1.263427e+002 -1.858521e-001 1.410261e+002
530955077.38769 -4.651534e-001 1.670310e+002 -6.916882e+001 1.098698e+002 -6.727525e+001 1.196920e+002 -1.928599e-001 1.408360e+002
531332578.33145 -4.703628e-001 1.668283e+002 -6.706244e+001 1.145321e+002 -6.722661e+001 1.152478e+002 -1.983924e-001 1.406183e+002
531710079.2752 -4.764636e-001 1.665305e+002 -6.844671e+001 1.316759e+002 -6.778793e+001 1.176879e+002 -2.096653e-001 1.403628e+002
532087580.21895 -4.826772e-001 1.663659e+002 -6.840391e+001 1.030834e+002 -6.745641e+001 1.191958e+002 -2.144149e-001 1.400910e+002
532465081.1627 -4.905218e-001 1.660665e+002 -6.667609e+001 1.203514e+002 -6.769071e+001 1.119914e+002 -2.182993e-001 1.398196e+002
532842582.10646 -4.969353e-001 1.658293e+002 -6.673530e+001 1.209126e+002 -6.782078e+001 1.173063e+002 -2.235289e-001 1.394777e+002
533220083.05021 -5.052106e-001 1.656287e+002 -6.657829e+001 1.183656e+002 -6.710823e+001 1.085634e+002 -2.282409e-001 1.392437e+002
533597583.99396 -5.109107e-001 1.653269e+002 -6.747232e+001 1.094970e+002 -6.640490e+001 1.145341e+002 -2.284525e-001 1.389846e+002
533975084.93771 -5.176907e-001 1.650496e+002 -6.821075e+001 1.111606e+002 -6.820364e+001 1.187925e+002 -2.375280e-001 1.386127e+002
534352585.88146 -5.302622e-001 1.649035e+002 -6.797113e+001 1.139116e+002 -6.886005e+001 1.147999e+002 -2.375630e-001 1.383198e+002
534730086.82522 -5.354744e-001 1.646221e+002 -6.736795e+001 1.154924e+002 -6.706564e+001 1.123206e+002 -2.343643e-001 1.380193e+002
535107587.76897 -5.412194e-001 1.644339e+002 -6.601482e+001 1.092238e+002 -6.651079e+001 1.220425e+002 -2.352941e-001 1.377164e+002
535485088.71272 -5.432294e-001 1.641257e+002 -6.723582e+001 1.163769e+002 -6.705871e+001 1.127749e+002 -2.337288e-001 1.373903e+002
535862589.65647 -5.505425e-001 1.638806e+002 -6.673722e+001 1.119819e+002 -6.674100e+001 1.033819e+002 -2.331717e-001 1.370963e+002
536240090.60023 -5.540266e-001 1.637263e+002 -6.719000e+001 1.166739e+002 -6.561787e+001 1.106810e+002 -2.307669e-001 1.368059e+002
536617591.54398 -5.638399e-001 1.634026e+002 -6.725847e+001 1.122848e+002 -6.729057e+001 1.130273e+002 -2.242713e-001 1.365072e+002
536995092.48773 -5.700681e-001 1.632519e+002 -6.624617e+001 1.175394e+002 -6.577863e+001 9.507265e+001 -2.215653e-001 1.362604e+002
537372593.43148 -5.742128e-001 1.629535e+002 -6.583531e+001 1.027235e+002 -6.713027e+001 1.036095e+002 -2.125899e-001 1.360347e+002
537750094.37524 -5.816671e-001 1.627260e+002 -6.694048e+001 1.032161e+002 -6.630836e+001 1.009376e+002 -2.058430e-001 1.357900e+002
538127595.31899 -5.902422e-001 1.625047e+002 -6.628613e+001 1.067468e+002 -6.766586e+001 9.713585e+001 -1.980511e-001 1.355772e+002
538505096.26274 -5.940958e-001 1.622420e+002 -6.576291e+001 1.035696e+002 -6.628532e+001 1.053401e+002 -1.908650e-001 1.354366e+002
538882597.20649 -5.994532e-001 1.620349e+002 -6.673006e+001 1.031234e+002 -6.656569e+001 9.998016e+001 -1.822362e-001 1.351965e+002
539260098.15025 -6.066160e-001 1.617140e+002 -6.677325e+001 1.008389e+002 -6.617558e+001 9.533527e+001 -1.744298e-001 1.350664e+002
539637599.094 -6.148654e-001 1.614917e+002 -6.743340e+001 1.073627e+002 -6.602892e+001 9.798961e+001 -1.677697e-001 1.349315e+002
540015100.03775 -6.240935e-001 1.612600e+002 -6.654836e+001 9.772815e+001 -6.778031e+001 9.947091e+001 -1.562058e-001 1.348733e+002
540392600.9815 -6.284302e-001 1.610591e+002 -6.663254e+001 1.009065e+002 -6.619274e+001 9.692247e+001 -1.517953e-001 1.347257e+002
540770101.92525 -6.437966e-001 1.608415e+002 -6.659089e+001 1.012627e+002 -6.612300e+001 9.732621e+001 -1.404559e-001 1.346578e+002
541147602.86901 -6.437654e-001 1.605818e+002 -6.628200e+001 1.011535e+002 -6.573514e+001 9.517410e+001 -1.334768e-001 1.346198e+002
541525103.81276 -6.524442e-001 1.603123e+002 -6.603646e+001 9.613957e+001 -6.543056e+001 9.801653e+001 -1.271188e-001 1.345876e+002
541902604.75651 -6.596678e-001 1.601585e+002 -6.569355e+001 9.176196e+001 -6.496887e+001 9.158727e+001 -1.208918e-001 1.345612e+002
542280105.70026 -6.734079e-001 1.599041e+002 -6.428157e+001 8.899850e+001 -6.479488e+001 8.664651e+001 -1.110148e-001 1.345645e+002
542657606.64402 -6.723077e-001 1.596243e+002 -6.530448e+001 9.091427e+001 -6.590949e+001 8.667281e+001 -1.084121e-001 1.345798e+002
543035107.58777 -6.812829e-001 1.594623e+002 -6.511188e+001 8.422008e+001 -6.553266e+001 8.913178e+001 -9.971775e-002 1.346098e+002
543412608.53152 -6.920890e-001 1.591894e+002 -6.447211e+001 8.322589e+001 -6.549605e+001 8.856579e+001 -9.557880e-002 1.346578e+002
543790109.47527 -6.952648e-001 1.590164e+002 -6.608949e+001 8.771613e+001 -6.462720e+001 8.786084e+001 -9.212948e-002 1.347068e+002
544167610.41903 -7.055335e-001 1.588441e+002 -6.480326e+001 9.207874e+001 -6.497982e+001 8.085287e+001 -8.300173e-002 1.347777e+002
544545111.36278 -7.019812e-001 1.585923e+002 -6.535632e+001 9.080991e+001 -6.452625e+001 8.719971e+001 -8.395112e-002 1.348588e+002
544922612.30653 -7.114786e-001 1.583018e+002 -6.471421e+001 8.251405e+001 -6.565009e+001 8.415326e+001 -7.792187e-002 1.349751e+002
545300113.25028 -7.154683e-001 1.580767e+002 -6.570922e+001 8.305709e+001 -6.348536e+001 8.268276e+001 -7.615234e-002 1.350508e+002
545677614.19404 -7.186930e-001 1.578462e+002 -6.546333e+001 8.403144e+001 -6.530639e+001 8.420891e+001 -7.529956e-002 1.351480e+002
546055115.13779 -7.232438e-001 1.576611e+002 -6.512903e+001 7.224812e+001 -6.458391e+001 8.861375e+001 -7.274858e-002 1.352799e+002
546432616.08154 -7.311506e-001 1.573907e+002 -6.477299e+001 8.370802e+001 -6.481142e+001 7.674941e+001 -7.322371e-002 1.353186e+002
546810117.02529 -7.335786e-001 1.570536e+002 -6.466096e+001 7.684900e+001 -6.400127e+001 7.549068e+001 -7.380561e-002 1.354901e+002
547187617.96904 -7.438905e-001 1.568988e+002 -6.415178e+001 7.476545e+001 -6.454265e+001 7.782810e+001 -6.797373e-002 1.355978e+002
547565118.9128 -7.509593e-001 1.565810e+002 -6.369414e+001 7.557791e+001 -6.433625e+001 7.667073e+001 -7.507370e-002 1.357039e+002
547942619.85655 -7.630954e-001 1.563300e+002 -6.364032e+001 6.662402e+001 -6.312749e+001 6.981539e+001 -7.092859e-002 1.358108e+002
548320120.8003 -7.685253e-001 1.560669e+002 -6.321952e+001 6.796617e+001 -6.399318e+001 7.814494e+001 -7.733929e-002 1.359159e+002
548697621.74405 -7.776410e-001 1.558573e+002 -6.251099e+001 6.790857e+001 -6.354639e+001 6.769279e+001 -7.858244e-002 1.359869e+002
549075122.68781 -7.837143e-001 1.555787e+002 -6.343479e+001 6.630830e+001 -6.377487e+001 6.790875e+001 -8.291234e-002 1.361716e+002
549452623.63156 -8.000287e-001 1.553769e+002 -6.220694e+001 5.865558e+001 -6.304554e+001 6.448581e+001 -8.626635e-002 1.361809e+002
549830124.57531 -8.043826e-001 1.551204e+002 -6.241064e+001 6.433807e+001 -6.335243e+001 6.539529e+001 -8.895349e-002 1.362791e+002
550207625.51906 -8.111205e-001 1.548389e+002 -6.343586e+001 6.321942e+001 -6.403390e+001 6.139785e+001 -9.858153e-002 1.363389e+002
550585126.46282 -8.189552e-001 1.545496e+002 -6.208378e+001 5.695301e+001 -6.321883e+001 5.972804e+001 -1.011456e-001 1.363943e+002
550962627.40657 -8.283696e-001 1.543044e+002 -6.276908e+001 5.568282e+001 -6.458206e+001 5.610083e+001 -1.055387e-001 1.364272e+002
551340128.35032 -8.348706e-001 1.540628e+002 -6.317659e+001 5.666304e+001 -6.304123e+001 5.596888e+001 -1.115780e-001 1.364564e+002
551717629.29407 -8.472236e-001 1.537822e+002 -6.270182e+001 5.452420e+001 -6.362055e+001 5.039916e+001 -1.186505e-001 1.364732e+002
552095130.23783 -8.550124e-001 1.535269e+002 -6.424994e+001 4.492381e+001 -6.344667e+001 4.759399e+001 -1.224741e-001 1.365032e+002
552472631.18158 -8.605472e-001 1.532449e+002 -6.337166e+001 4.745063e+001 -6.405873e+001 4.817870e+001 -1.291646e-001 1.364860e+002
552850132.12533 -8.656689e-001 1.529986e+002 -6.445503e+001 4.478057e+001 -6.403630e+001 4.975265e+001 -1.368325e-001 1.364574e+002
553227633.06908 -8.780215e-001 1.526967e+002 -6.433868e+001 4.444601e+001 -6.352489e+001 4.966371e+001 -1.450766e-001 1.364337e+002
553605134.01284 -8.872324e-001 1.524266e+002 -6.420198e+001 5.055416e+001 -6.327283e+001 4.523145e+001 -1.507607e-001 1.363773e+002
553982634.95659 -9.023915e-001 1.521508e+002 -6.459018e+001 4.295846e+001 -6.499023e+001 4.997057e+001 -1.587138e-001 1.363150e+002
554360135.90034 -9.161253e-001 1.519281e+002 -6.473336e+001 4.885388e+001 -6.479150e+001 4.603115e+001 -1.643869e-001 1.362228e+002
554737636.84409 -9.269732e-001 1.515974e+002 -6.380342e+001 4.825802e+001 -6.498342e+001 4.447227e+001 -1.709668e-001 1.361260e+002
555115137.78784 -9.407474e-001 1.513280e+002 -6.409441e+001 4.843715e+001 -6.475820e+001 4.969856e+001 -1.743564e-001 1.360068e+002
555492638.7316 -9.573719e-001 1.510948e+002 -6.366839e+001 4.102795e+001 -6.439799e+001 4.511808e+001 -1.826986e-001 1.358960e+002
