!Agilent Technologies,E8364B,US42250235,A.06.04.32
!Agilent E8364B: A.06.04.32
!Date: Thursday, October 01, 2020 15:54:20
!Correction: S11(Full 2 Port(1,2)) S21(Full 2 Port(1,2)) S12(Full 2 Port(1,2)) S22(Full 2 Port(1,2)) 
!S2P File: Measurements: S11, S21, S12, S22:
# Hz S  dB   R 50
500000000 -1.518395e-001 -1.748442e+002 -7.235771e+001 -1.073448e+002 -7.231860e+001 -1.374153e+002 5.987294e-003 1.423418e+002
500377500.94375 -1.513951e-001 -1.751270e+002 -7.086004e+001 -1.205677e+002 -7.269796e+001 -1.161862e+002 5.203693e-003 1.424931e+002
500755001.8875 -1.525749e-001 -1.752178e+002 -7.116247e+001 -1.090078e+002 -6.874236e+001 -1.180106e+002 7.052036e-003 1.426238e+002
501132502.83126 -1.564486e-001 -1.754816e+002 -7.135484e+001 -1.174219e+002 -6.997502e+001 -1.148450e+002 2.041597e-003 1.427430e+002
501510003.77501 -1.543785e-001 -1.757039e+002 -7.190533e+001 -1.106573e+002 -7.013110e+001 -1.227563e+002 3.749153e-004 1.428574e+002
501887504.71876 -1.572226e-001 -1.758650e+002 -7.069397e+001 -1.135116e+002 -7.013870e+001 -1.118776e+002 -1.560717e-003 1.429626e+002
502265005.66251 -1.617901e-001 -1.760956e+002 -7.119296e+001 -1.253407e+002 -7.358556e+001 -1.198026e+002 -5.326147e-003 1.430769e+002
502642506.60627 -1.566885e-001 -1.762739e+002 -7.061858e+001 -1.041624e+002 -6.875347e+001 -1.106755e+002 -1.115390e-002 1.432007e+002
503020007.55002 -1.597302e-001 -1.765242e+002 -7.095161e+001 -1.069195e+002 -6.946638e+001 -1.243351e+002 -1.662773e-002 1.432070e+002
503397508.49377 -1.608461e-001 -1.767091e+002 -6.940648e+001 -1.295693e+002 -6.964046e+001 -1.221745e+002 -1.998277e-002 1.432834e+002
503775009.43752 -1.567280e-001 -1.769538e+002 -7.090993e+001 -1.327334e+002 -6.909535e+001 -1.237799e+002 -2.839071e-002 1.433289e+002
504152510.38128 -1.627365e-001 -1.771388e+002 -7.078516e+001 -1.365968e+002 -6.874004e+001 -1.294356e+002 -3.272301e-002 1.433369e+002
504530011.32503 -1.593063e-001 -1.773938e+002 -7.035223e+001 -1.237253e+002 -6.902692e+001 -1.350518e+002 -4.389834e-002 1.433757e+002
504907512.26878 -1.635645e-001 -1.775531e+002 -7.105543e+001 -1.251786e+002 -7.058772e+001 -1.256645e+002 -4.690317e-002 1.433673e+002
505285013.21253 -1.675557e-001 -1.777138e+002 -7.094946e+001 -1.349404e+002 -7.229247e+001 -1.061946e+002 -5.563602e-002 1.433624e+002
505662514.15629 -1.654681e-001 -1.779669e+002 -7.203345e+001 -1.343442e+002 -6.876766e+001 -1.284991e+002 -5.984113e-002 1.433310e+002
506040015.10004 -1.670163e-001 -1.782129e+002 -7.360609e+001 -1.273781e+002 -6.894091e+001 -1.225319e+002 -6.690185e-002 1.432567e+002
506417516.04379 -1.689382e-001 -1.784432e+002 -6.964845e+001 -1.327242e+002 -7.089468e+001 -1.287609e+002 -7.667924e-002 1.431947e+002
506795016.98754 -1.731387e-001 -1.786281e+002 -6.891138e+001 -1.252456e+002 -7.030753e+001 -1.232092e+002 -8.022065e-002 1.430881e+002
507172517.93129 -1.734353e-001 -1.787874e+002 -7.025528e+001 -1.213468e+002 -6.855502e+001 -1.287178e+002 -7.956716e-002 1.429772e+002
507550018.87505 -1.720052e-001 -1.790415e+002 -7.043665e+001 -1.128342e+002 -6.868832e+001 -1.336141e+002 -9.083967e-002 1.428591e+002
507927519.8188 -1.774848e-001 -1.792344e+002 -6.929079e+001 -1.403812e+002 -6.871646e+001 -1.407895e+002 -9.626187e-002 1.427042e+002
508305020.76255 -1.770298e-001 -1.795210e+002 -6.993324e+001 -1.360113e+002 -7.003773e+001 -1.347305e+002 -1.030616e-001 1.425513e+002
508682521.7063 -1.777825e-001 -1.796969e+002 -6.893621e+001 -1.210837e+002 -7.016489e+001 -1.290261e+002 -1.098191e-001 1.423749e+002
509060022.65006 -1.823716e-001 -1.798739e+002 -6.911579e+001 -1.463108e+002 -6.816112e+001 -1.415000e+002 -1.113589e-001 1.421576e+002
509437523.59381 -1.795784e-001 1.798161e+002 -6.880293e+001 -1.389568e+002 -6.857038e+001 -1.317180e+002 -1.154262e-001 1.419534e+002
509815024.53756 -1.820436e-001 1.796745e+002 -6.899151e+001 -1.420621e+002 -6.802142e+001 -1.319984e+002 -1.182724e-001 1.417210e+002
510192525.48131 -1.830991e-001 1.794577e+002 -6.851228e+001 -1.439476e+002 -6.818859e+001 -1.448218e+002 -1.181630e-001 1.415143e+002
510570026.42507 -1.863529e-001 1.791723e+002 -7.114826e+001 -1.386079e+002 -6.834552e+001 -1.274789e+002 -1.236519e-001 1.412554e+002
510947527.36882 -1.873486e-001 1.790317e+002 -6.927663e+001 -1.306284e+002 -6.799761e+001 -1.235480e+002 -1.254992e-001 1.410183e+002
511325028.31257 -1.914233e-001 1.787650e+002 -6.989162e+001 -1.279643e+002 -6.763057e+001 -1.367390e+002 -1.275627e-001 1.407625e+002
511702529.25632 -1.892636e-001 1.785370e+002 -6.975376e+001 -1.439726e+002 -6.775917e+001 -1.375915e+002 -1.249736e-001 1.405157e+002
512080030.20008 -1.917691e-001 1.782616e+002 -6.851396e+001 -1.455957e+002 -6.777122e+001 -1.349720e+002 -1.247916e-001 1.402708e+002
512457531.14383 -1.941713e-001 1.781317e+002 -6.931935e+001 -1.397141e+002 -6.782488e+001 -1.397209e+002 -1.224559e-001 1.400343e+002
512835032.08758 -1.957935e-001 1.778882e+002 -7.123232e+001 -1.323043e+002 -6.737865e+001 -1.442339e+002 -1.198474e-001 1.398023e+002
513212533.03133 -1.978053e-001 1.775886e+002 -6.802435e+001 -1.494682e+002 -6.649359e+001 -1.499464e+002 -1.166000e-001 1.395376e+002
513590033.97508 -1.964844e-001 1.774058e+002 -6.829395e+001 -1.363586e+002 -6.807301e+001 -1.526695e+002 -1.105071e-001 1.393329e+002
513967534.91884 -2.018155e-001 1.772270e+002 -6.939271e+001 -1.518715e+002 -6.738558e+001 -1.446974e+002 -1.055261e-001 1.391329e+002
514345035.86259 -2.016072e-001 1.769485e+002 -6.868391e+001 -1.509088e+002 -6.729967e+001 -1.375479e+002 -1.027863e-001 1.389312e+002
514722536.80634 -2.032646e-001 1.767746e+002 -6.780387e+001 -1.473733e+002 -6.636574e+001 -1.444925e+002 -9.654967e-002 1.387606e+002
515100037.75009 -2.022263e-001 1.765077e+002 -6.965895e+001 -1.419725e+002 -6.822398e+001 -1.486974e+002 -9.022359e-002 1.386145e+002
515477538.69385 -2.044728e-001 1.762781e+002 -6.854166e+001 -1.403340e+002 -6.852880e+001 -1.442889e+002 -8.606944e-002 1.384568e+002
515855039.6376 -2.043637e-001 1.760977e+002 -7.134925e+001 -1.556836e+002 -6.864636e+001 -1.460484e+002 -7.699112e-002 1.383460e+002
516232540.58135 -2.059913e-001 1.758125e+002 -6.787943e+001 -1.447343e+002 -6.602338e+001 -1.480016e+002 -6.895115e-002 1.382578e+002
516610041.5251 -2.126267e-001 1.756286e+002 -6.931453e+001 -1.522096e+002 -6.793237e+001 -1.590219e+002 -6.400499e-002 1.381704e+002
516987542.46886 -2.083729e-001 1.753588e+002 -6.836029e+001 -1.521304e+002 -6.803027e+001 -1.454319e+002 -5.701549e-002 1.381241e+002
517365043.41261 -2.122744e-001 1.751527e+002 -6.812527e+001 -1.523032e+002 -6.692112e+001 -1.617098e+002 -5.134096e-002 1.380777e+002
517742544.35636 -2.118969e-001 1.748832e+002 -6.832627e+001 -1.372593e+002 -6.899506e+001 -1.525731e+002 -4.190968e-002 1.380752e+002
518120045.30011 -2.165445e-001 1.746813e+002 -6.746927e+001 -1.433030e+002 -6.588390e+001 -1.455419e+002 -3.578763e-002 1.381042e+002
518497546.24387 -2.168129e-001 1.744891e+002 -6.799903e+001 -1.562475e+002 -6.780891e+001 -1.495712e+002 -2.685999e-002 1.381318e+002
518875047.18762 -2.205378e-001 1.742492e+002 -6.847553e+001 -1.434089e+002 -6.846850e+001 -1.466435e+002 -1.821341e-002 1.382192e+002
519252548.13137 -2.223649e-001 1.740053e+002 -6.835311e+001 -1.450154e+002 -6.801634e+001 -1.603587e+002 -1.400887e-002 1.382774e+002
519630049.07512 -2.266383e-001 1.738113e+002 -6.731734e+001 -1.535672e+002 -6.785070e+001 -1.588011e+002 -8.433947e-003 1.383791e+002
520007550.01888 -2.275071e-001 1.735504e+002 -6.919899e+001 -1.609108e+002 -6.523531e+001 -1.556492e+002 -6.426539e-003 1.385140e+002
520385050.96263 -2.310043e-001 1.733681e+002 -6.802932e+001 -1.492330e+002 -6.843997e+001 -1.534199e+002 -1.261422e-003 1.386382e+002
520762551.90638 -2.316660e-001 1.730875e+002 -6.862627e+001 -1.591134e+002 -6.691707e+001 -1.604832e+002 2.867374e-003 1.387788e+002
521140052.85013 -2.323952e-001 1.728490e+002 -6.813538e+001 -1.587176e+002 -6.737109e+001 -1.581012e+002 5.499071e-003 1.389265e+002
521517553.79388 -2.334522e-001 1.726231e+002 -6.825893e+001 -1.553342e+002 -6.570992e+001 -1.619396e+002 1.092551e-002 1.391243e+002
521895054.73764 -2.376516e-001 1.724022e+002 -6.649796e+001 -1.553322e+002 -6.758528e+001 -1.636627e+002 1.206798e-002 1.392777e+002
522272555.68139 -2.396538e-001 1.722056e+002 -6.905013e+001 -1.640827e+002 -6.715205e+001 -1.519750e+002 1.321745e-002 1.394739e+002
522650056.62514 -2.422258e-001 1.719295e+002 -6.819083e+001 -1.604405e+002 -6.660970e+001 -1.551576e+002 1.066129e-002 1.396351e+002
523027557.56889 -2.488210e-001 1.717022e+002 -6.766351e+001 -1.627357e+002 -6.709773e+001 -1.644186e+002 1.089932e-002 1.398600e+002
523405058.51265 -2.427691e-001 1.714648e+002 -6.716985e+001 -1.557586e+002 -6.775932e+001 -1.697481e+002 1.171884e-002 1.400890e+002
523782559.4564 -2.490047e-001 1.712280e+002 -6.891028e+001 -1.529655e+002 -6.681683e+001 -1.699198e+002 6.515984e-003 1.402016e+002
524160060.40015 -2.524571e-001 1.709686e+002 -6.758875e+001 -1.579604e+002 -6.668367e+001 -1.676967e+002 7.089430e-003 1.403934e+002
524537561.3439 -2.554514e-001 1.707484e+002 -6.865521e+001 -1.548023e+002 -6.555358e+001 -1.663920e+002 1.106962e-003 1.405447e+002
524915062.28766 -2.603796e-001 1.705310e+002 -6.723882e+001 -1.635810e+002 -6.716979e+001 -1.560136e+002 -6.085011e-003 1.407133e+002
525292563.23141 -2.611283e-001 1.702438e+002 -6.856839e+001 -1.557611e+002 -6.741373e+001 -1.682796e+002 -1.249544e-002 1.408549e+002
525670064.17516 -2.634940e-001 1.700475e+002 -6.686010e+001 -1.554806e+002 -6.540179e+001 -1.694945e+002 -1.916889e-002 1.409692e+002
526047565.11891 -2.645420e-001 1.697909e+002 -6.727999e+001 -1.511506e+002 -6.537432e+001 -1.696698e+002 -2.676118e-002 1.410790e+002
526425066.06267 -2.677070e-001 1.695182e+002 -6.724894e+001 -1.602364e+002 -6.533186e+001 -1.596106e+002 -3.695946e-002 1.411738e+002
526802567.00642 -2.701969e-001 1.692174e+002 -6.630330e+001 -1.599833e+002 -6.413790e+001 -1.657887e+002 -4.472031e-002 1.412259e+002
527180067.95017 -2.716137e-001 1.690038e+002 -6.590853e+001 -1.572856e+002 -6.655706e+001 -1.720647e+002 -5.366034e-002 1.412764e+002
527557568.89392 -2.782883e-001 1.687918e+002 -6.720665e+001 -1.641625e+002 -6.532584e+001 -1.690820e+002 -5.963217e-002 1.413098e+002
527935069.83767 -2.835222e-001 1.685070e+002 -6.607131e+001 -1.666992e+002 -6.621255e+001 -1.608444e+002 -6.961295e-002 1.413076e+002
528312570.78143 -2.821494e-001 1.682445e+002 -6.812947e+001 -1.641047e+002 -6.435617e+001 -1.750191e+002 -8.006685e-002 1.412886e+002
528690071.72518 -2.862877e-001 1.680513e+002 -6.721935e+001 -1.622374e+002 -6.704369e+001 -1.608108e+002 -8.963329e-002 1.412318e+002
529067572.66893 -2.904201e-001 1.677488e+002 -6.769692e+001 -1.671217e+002 -6.505957e+001 -1.713969e+002 -1.035750e-001 1.411661e+002
529445073.61268 -2.935882e-001 1.675685e+002 -6.623398e+001 -1.644934e+002 -6.436951e+001 -1.661308e+002 -1.123327e-001 1.410894e+002
529822574.55644 -2.966792e-001 1.672849e+002 -6.842795e+001 -1.663320e+002 -6.464204e+001 -1.750708e+002 -1.199635e-001 1.409508e+002
530200075.50019 -3.014878e-001 1.669778e+002 -6.544778e+001 -1.652760e+002 -6.477049e+001 -1.691383e+002 -1.295046e-001 1.407983e+002
530577576.44394 -3.049554e-001 1.666814e+002 -6.638552e+001 -1.669942e+002 -6.511678e+001 -1.709766e+002 -1.421072e-001 1.406353e+002
530955077.38769 -3.079534e-001 1.664179e+002 -6.637926e+001 -1.645936e+002 -6.502985e+001 -1.735892e+002 -1.505070e-001 1.404624e+002
531332578.33145 -3.112850e-001 1.662403e+002 -6.529710e+001 -1.631467e+002 -6.396143e+001 -1.763022e+002 -1.566675e-001 1.402448e+002
531710079.2752 -3.155027e-001 1.659216e+002 -6.684260e+001 -1.798721e+002 -6.465266e+001 -1.746348e+002 -1.684688e-001 1.399990e+002
532087580.21895 -3.187749e-001 1.656718e+002 -6.655811e+001 -1.752097e+002 -6.342197e+001 1.769888e+002 -1.707472e-001 1.397499e+002
532465081.1627 -3.233404e-001 1.654440e+002 -6.623821e+001 -1.679438e+002 -6.405828e+001 -1.773178e+002 -1.796065e-001 1.394831e+002
532842582.10646 -3.277043e-001 1.651980e+002 -6.548238e+001 -1.742942e+002 -6.355712e+001 1.771525e+002 -1.856429e-001 1.392121e+002
533220083.05021 -3.324352e-001 1.648904e+002 -6.566026e+001 -1.705979e+002 -6.324959e+001 -1.778428e+002 -1.907222e-001 1.389388e+002
533597583.99396 -3.367618e-001 1.646435e+002 -6.616186e+001 -1.698445e+002 -6.339030e+001 1.696691e+002 -1.924946e-001 1.386741e+002
533975084.93771 -3.422387e-001 1.643495e+002 -6.486958e+001 -1.759444e+002 -6.336353e+001 1.737794e+002 -1.977149e-001 1.383540e+002
534352585.88146 -3.456894e-001 1.640757e+002 -6.665069e+001 -1.735649e+002 -6.362639e+001 -1.787789e+002 -1.982757e-001 1.380377e+002
534730086.82522 -3.529317e-001 1.638297e+002 -6.439999e+001 1.794567e+002 -6.338791e+001 1.739984e+002 -2.001751e-001 1.377483e+002
535107587.76897 -3.549036e-001 1.635408e+002 -6.540630e+001 -1.742834e+002 -6.379978e+001 1.715016e+002 -2.045884e-001 1.374502e+002
535485088.71272 -3.565148e-001 1.632304e+002 -6.434106e+001 -1.765842e+002 -6.353450e+001 1.719957e+002 -2.027453e-001 1.371500e+002
535862589.65647 -3.674338e-001 1.629499e+002 -6.399054e+001 -1.751150e+002 -6.268410e+001 1.717408e+002 -1.973472e-001 1.368683e+002
536240090.60023 -3.666203e-001 1.627148e+002 -6.406696e+001 1.781565e+002 -6.332345e+001 1.722935e+002 -1.947325e-001 1.366040e+002
536617591.54398 -3.752953e-001 1.624044e+002 -6.493743e+001 1.744794e+002 -6.266028e+001 1.715905e+002 -1.906501e-001 1.363129e+002
536995092.48773 -3.825117e-001 1.621763e+002 -6.328442e+001 1.734238e+002 -6.296494e+001 1.702366e+002 -1.868916e-001 1.360821e+002
537372593.43148 -3.849843e-001 1.618740e+002 -6.462016e+001 1.747672e+002 -6.281825e+001 1.713212e+002 -1.787302e-001 1.358480e+002
537750094.37524 -3.879544e-001 1.615860e+002 -6.349533e+001 -1.793072e+002 -6.220433e+001 1.655649e+002 -1.740602e-001 1.356317e+002
538127595.31899 -3.981767e-001 1.613479e+002 -6.402753e+001 -1.790174e+002 -6.203034e+001 1.648368e+002 -1.702011e-001 1.354229e+002
538505096.26274 -4.041412e-001 1.610892e+002 -6.436703e+001 1.741243e+002 -6.375198e+001 1.645732e+002 -1.614982e-001 1.352698e+002
538882597.20649 -4.082930e-001 1.608290e+002 -6.396791e+001 1.721225e+002 -6.232047e+001 1.641644e+002 -1.524443e-001 1.350697e+002
539260098.15025 -4.157192e-001 1.605069e+002 -6.352857e+001 1.700362e+002 -6.245282e+001 1.637505e+002 -1.438722e-001 1.349476e+002
539637599.094 -4.221655e-001 1.602389e+002 -6.392168e+001 1.659339e+002 -6.221108e+001 1.585625e+002 -1.398771e-001 1.348102e+002
540015100.03775 -4.293419e-001 1.600235e+002 -6.302236e+001 1.714035e+002 -6.187726e+001 1.583452e+002 -1.284015e-001 1.347842e+002
540392600.9815 -4.375848e-001 1.597265e+002 -6.374353e+001 1.754983e+002 -6.236365e+001 1.613721e+002 -1.233822e-001 1.346565e+002
540770101.92525 -4.466302e-001 1.593813e+002 -6.340447e+001 1.718245e+002 -6.174921e+001 1.531015e+002 -1.139238e-001 1.346025e+002
541147602.86901 -4.523007e-001 1.591857e+002 -6.382925e+001 1.728912e+002 -6.179156e+001 1.556599e+002 -1.055914e-001 1.345881e+002
541525103.81276 -4.541204e-001 1.588324e+002 -6.354695e+001 1.769670e+002 -6.261267e+001 1.629463e+002 -9.783900e-002 1.345444e+002
541902604.75651 -4.650545e-001 1.585804e+002 -6.291747e+001 1.712727e+002 -6.142255e+001 1.576897e+002 -9.330186e-002 1.345575e+002
542280105.70026 -4.742345e-001 1.582985e+002 -6.380376e+001 1.719653e+002 -6.203397e+001 1.553990e+002 -7.993774e-002 1.345784e+002
542657606.64402 -4.785135e-001 1.580473e+002 -6.311843e+001 1.743251e+002 -6.138113e+001 1.520710e+002 -7.625496e-002 1.346266e+002
543035107.58777 -4.897814e-001 1.578043e+002 -6.291906e+001 1.707382e+002 -6.132577e+001 1.568384e+002 -7.068243e-002 1.346718e+002
543412608.53152 -4.981971e-001 1.575029e+002 -6.246677e+001 1.707564e+002 -6.164581e+001 1.554067e+002 -6.394383e-002 1.347493e+002
543790109.47527 -5.059730e-001 1.572582e+002 -6.251908e+001 1.700880e+002 -6.158171e+001 1.489306e+002 -5.986741e-002 1.348167e+002
544167610.41903 -5.193834e-001 1.569440e+002 -6.155306e+001 1.693810e+002 -6.096839e+001 1.485677e+002 -5.234745e-002 1.349149e+002
544545111.36278 -5.242409e-001 1.567300e+002 -6.178988e+001 1.635848e+002 -6.090197e+001 1.468770e+002 -4.780722e-002 1.350229e+002
544922612.30653 -5.332673e-001 1.563436e+002 -6.119416e+001 1.657642e+002 -6.085193e+001 1.455865e+002 -4.520645e-002 1.351457e+002
545300113.25028 -5.485773e-001 1.561302e+002 -6.166417e+001 1.613320e+002 -6.116866e+001 1.483283e+002 -4.115387e-002 1.352613e+002
545677614.19404 -5.538040e-001 1.558344e+002 -6.155632e+001 1.640191e+002 -6.029960e+001 1.462717e+002 -3.994402e-002 1.353743e+002
546055115.13779 -5.634905e-001 1.555644e+002 -6.051565e+001 1.584040e+002 -6.047292e+001 1.443301e+002 -3.827764e-002 1.355284e+002
546432616.08154 -5.733199e-001 1.552785e+002 -6.056403e+001 1.588315e+002 -6.031970e+001 1.432399e+002 -3.664486e-002 1.356322e+002
546810117.02529 -5.824744e-001 1.549530e+002 -6.124076e+001 1.564803e+002 -6.052705e+001 1.419386e+002 -3.564245e-002 1.357826e+002
547187617.96904 -5.916949e-001 1.547360e+002 -6.057170e+001 1.570284e+002 -5.970675e+001 1.435063e+002 -3.613884e-002 1.359197e+002
547565118.9128 -6.034024e-001 1.544344e+002 -6.139602e+001 1.569007e+002 -6.094170e+001 1.419764e+002 -3.434788e-002 1.360457e+002
547942619.85655 -6.163831e-001 1.541880e+002 -6.076940e+001 1.493091e+002 -6.033042e+001 1.392148e+002 -3.466289e-002 1.361541e+002
548320120.8003 -6.268731e-001 1.538973e+002 -6.091180e+001 1.537126e+002 -5.977950e+001 1.385546e+002 -3.800640e-002 1.362992e+002
548697621.74405 -6.346664e-001 1.535836e+002 -6.000213e+001 1.499944e+002 -5.956931e+001 1.342845e+002 -3.875540e-002 1.364004e+002
549075122.68781 -6.451613e-001 1.533308e+002 -6.083428e+001 1.573336e+002 -5.987209e+001 1.354851e+002 -4.329333e-002 1.365640e+002
549452623.63156 -6.586599e-001 1.530026e+002 -6.007330e+001 1.478331e+002 -5.956252e+001 1.343156e+002 -4.788006e-002 1.365986e+002
549830124.57531 -6.675888e-001 1.527231e+002 -6.031147e+001 1.475226e+002 -6.022329e+001 1.364216e+002 -5.283479e-002 1.366857e+002
550207625.51906 -6.823067e-001 1.524066e+002 -6.068817e+001 1.491487e+002 -5.954477e+001 1.311366e+002 -5.821433e-002 1.367434e+002
550585126.46282 -6.954627e-001 1.521142e+002 -6.060777e+001 1.482513e+002 -5.967418e+001 1.320343e+002 -6.127356e-002 1.368096e+002
550962627.40657 -7.036626e-001 1.518261e+002 -5.950002e+001 1.437779e+002 -5.918243e+001 1.310217e+002 -6.603581e-002 1.368704e+002
551340128.35032 -7.159032e-001 1.515270e+002 -6.052968e+001 1.440449e+002 -5.938411e+001 1.268611e+002 -7.280163e-002 1.368887e+002
551717629.29407 -7.330737e-001 1.512090e+002 -6.031911e+001 1.419581e+002 -5.905122e+001 1.324604e+002 -7.525399e-002 1.369065e+002
552095130.23783 -7.453772e-001 1.508856e+002 -6.041526e+001 1.376827e+002 -5.941218e+001 1.269554e+002 -8.067666e-002 1.369344e+002
552472631.18158 -7.593030e-001 1.506139e+002 -6.041426e+001 1.405837e+002 -5.869839e+001 1.235159e+002 -8.706008e-002 1.369049e+002
552850132.12533 -7.682224e-001 1.503372e+002 -6.017872e+001 1.401517e+002 -5.908804e+001 1.228834e+002 -9.256850e-002 1.368770e+002
553227633.06908 -7.897199e-001 1.499512e+002 -6.048664e+001 1.366024e+002 -5.935629e+001 1.236311e+002 -1.016006e-001 1.368394e+002
553605134.01284 -8.020933e-001 1.497098e+002 -6.097100e+001 1.379951e+002 -5.908408e+001 1.247266e+002 -1.055877e-001 1.367846e+002
553982634.95659 -8.166885e-001 1.493732e+002 -5.937267e+001 1.371985e+002 -5.896873e+001 1.196462e+002 -1.137002e-001 1.367199e+002
554360135.90034 -8.343903e-001 1.490719e+002 -5.996165e+001 1.348228e+002 -5.939902e+001 1.196088e+002 -1.192032e-001 1.366095e+002
554737636.84409 -8.495128e-001 1.487969e+002 -5.979402e+001 1.362258e+002 -5.875216e+001 1.214905e+002 -1.266127e-001 1.364942e+002
555115137.78784 -8.659271e-001 1.484885e+002 -5.956097e+001 1.322419e+002 -5.891317e+001 1.166906e+002 -1.309344e-001 1.363528e+002
555492638.7316 -8.814343e-001 1.481343e+002 -6.007653e+001 1.312483e+002 -5.876869e+001 1.185078e+002 -1.350400e-001 1.362165e+002
