!Agilent Technologies,E8364B,US42250235,A.06.04.32
!Agilent E8364B: A.06.04.32
!Date: Thursday, October 01, 2020 15:59:01
!Correction: S11(Full 2 Port(1,2)) S21(Full 2 Port(1,2)) S12(Full 2 Port(1,2)) S22(Full 2 Port(1,2)) 
!S2P File: Measurements: S11, S21, S12, S22:
# Hz S  dB   R 50
500000000 -2.119123e-001 -1.756251e+002 -6.602553e+001 -1.030003e+002 -6.721065e+001 -9.176900e+001 -1.459311e-002 1.431218e+002
500377500.94375 -2.121791e-001 -1.758233e+002 -6.603287e+001 -1.073082e+002 -7.105531e+001 -9.401717e+001 -1.283716e-002 1.433456e+002
500755001.8875 -2.151684e-001 -1.760433e+002 -6.527858e+001 -1.047694e+002 -6.880207e+001 -9.154295e+001 -5.672011e-003 1.435378e+002
501132502.83126 -2.223492e-001 -1.762107e+002 -6.543105e+001 -1.002709e+002 -6.910474e+001 -8.093946e+001 -1.845091e-002 1.436282e+002
501510003.77501 -2.221404e-001 -1.764227e+002 -6.406534e+001 -9.216090e+001 -6.975356e+001 -9.950964e+001 -2.722797e-002 1.437027e+002
501887504.71876 -2.242385e-001 -1.766906e+002 -6.538590e+001 -1.040264e+002 -6.743549e+001 -9.810239e+001 -3.349695e-002 1.437713e+002
502265005.66251 -2.299728e-001 -1.768732e+002 -6.482947e+001 -9.915257e+001 -6.787914e+001 -9.990872e+001 -4.100808e-002 1.438191e+002
502642506.60627 -2.296455e-001 -1.771132e+002 -6.492535e+001 -1.009452e+002 -6.649180e+001 -9.772717e+001 -4.626191e-002 1.439218e+002
503020007.55002 -2.377309e-001 -1.773121e+002 -6.579739e+001 -1.095319e+002 -6.737981e+001 -1.011314e+002 -5.658490e-002 1.439410e+002
503397508.49377 -2.371940e-001 -1.774749e+002 -6.496211e+001 -1.007985e+002 -6.892261e+001 -8.896466e+001 -5.725805e-002 1.440466e+002
503775009.43752 -2.420784e-001 -1.777852e+002 -6.477231e+001 -1.076849e+002 -6.700555e+001 -1.029200e+002 -7.055917e-002 1.440164e+002
504152510.38128 -2.448321e-001 -1.779588e+002 -6.537811e+001 -1.053408e+002 -6.714515e+001 -9.138790e+001 -7.789595e-002 1.440829e+002
504530011.32503 -2.460540e-001 -1.781789e+002 -6.478536e+001 -1.087680e+002 -6.643581e+001 -1.030004e+002 -8.932097e-002 1.441177e+002
504907512.26878 -2.514527e-001 -1.783912e+002 -6.411023e+001 -1.085034e+002 -6.722282e+001 -1.078699e+002 -9.335758e-002 1.441844e+002
505285013.21253 -2.565136e-001 -1.785950e+002 -6.388925e+001 -1.134720e+002 -6.618700e+001 -1.004185e+002 -9.962166e-002 1.440933e+002
505662514.15629 -2.585512e-001 -1.788227e+002 -6.475698e+001 -1.053092e+002 -6.800477e+001 -9.732969e+001 -1.076570e-001 1.440578e+002
506040015.10004 -2.653005e-001 -1.790202e+002 -6.317144e+001 -1.135774e+002 -6.721098e+001 -9.369186e+001 -1.186689e-001 1.439713e+002
506417516.04379 -2.695877e-001 -1.792724e+002 -6.418211e+001 -1.098779e+002 -6.656895e+001 -1.071011e+002 -1.271695e-001 1.438275e+002
506795016.98754 -2.742218e-001 -1.794887e+002 -6.396930e+001 -1.148194e+002 -6.848335e+001 -9.511681e+001 -1.344580e-001 1.437276e+002
507172517.93129 -2.796924e-001 -1.797046e+002 -6.446497e+001 -1.110468e+002 -6.639315e+001 -1.133977e+002 -1.393029e-001 1.436503e+002
507550018.87505 -2.822410e-001 -1.799197e+002 -6.391982e+001 -1.144568e+002 -6.828394e+001 -1.002788e+002 -1.532832e-001 1.435355e+002
507927519.8188 -2.870125e-001 1.798499e+002 -6.400408e+001 -1.135631e+002 -6.776569e+001 -1.064205e+002 -1.613647e-001 1.433674e+002
508305020.76255 -2.933316e-001 1.796361e+002 -6.377406e+001 -1.202516e+002 -6.773264e+001 -1.020597e+002 -1.720423e-001 1.432159e+002
508682521.7063 -2.985776e-001 1.793769e+002 -6.408556e+001 -1.096940e+002 -6.653430e+001 -1.135515e+002 -1.817039e-001 1.429162e+002
509060022.65006 -3.075210e-001 1.791751e+002 -6.380407e+001 -1.114910e+002 -6.622962e+001 -1.074204e+002 -1.864278e-001 1.426512e+002
509437523.59381 -3.111800e-001 1.789322e+002 -6.425012e+001 -1.172618e+002 -6.580042e+001 -1.067255e+002 -1.966258e-001 1.424152e+002
509815024.53756 -3.150170e-001 1.787461e+002 -6.309960e+001 -1.202489e+002 -6.667271e+001 -1.028049e+002 -2.010175e-001 1.422151e+002
510192525.48131 -3.201424e-001 1.785329e+002 -6.343539e+001 -1.148687e+002 -6.762645e+001 -1.136311e+002 -2.029847e-001 1.420358e+002
510570026.42507 -3.291010e-001 1.783197e+002 -6.311303e+001 -1.122985e+002 -6.662472e+001 -1.145209e+002 -2.027058e-001 1.417345e+002
510947527.36882 -3.319364e-001 1.781225e+002 -6.376496e+001 -1.198055e+002 -6.541812e+001 -1.050147e+002 -2.065337e-001 1.415044e+002
511325028.31257 -3.362033e-001 1.778777e+002 -6.339639e+001 -1.238124e+002 -6.636621e+001 -1.101532e+002 -2.082361e-001 1.412061e+002
511702529.25632 -3.373983e-001 1.775908e+002 -6.393428e+001 -1.155849e+002 -6.625871e+001 -1.057283e+002 -2.049010e-001 1.409926e+002
512080030.20008 -3.485571e-001 1.774148e+002 -6.212881e+001 -1.169976e+002 -6.647143e+001 -1.070640e+002 -2.034898e-001 1.406695e+002
512457531.14383 -3.553666e-001 1.772046e+002 -6.250861e+001 -1.178368e+002 -6.560767e+001 -1.085768e+002 -2.035711e-001 1.403488e+002
512835032.08758 -3.620321e-001 1.769532e+002 -6.246308e+001 -1.237198e+002 -6.421115e+001 -1.098096e+002 -1.971999e-001 1.400240e+002
513212533.03133 -3.617333e-001 1.766875e+002 -6.207971e+001 -1.136992e+002 -6.556309e+001 -1.069675e+002 -1.933619e-001 1.397808e+002
513590033.97508 -3.696177e-001 1.764703e+002 -6.255412e+001 -1.200686e+002 -6.557438e+001 -1.164225e+002 -1.839959e-001 1.395698e+002
513967534.91884 -3.770781e-001 1.762818e+002 -6.217655e+001 -1.219826e+002 -6.524915e+001 -1.188254e+002 -1.766486e-001 1.393478e+002
514345035.86259 -3.801796e-001 1.760090e+002 -6.175850e+001 -1.202997e+002 -6.497584e+001 -1.184199e+002 -1.732355e-001 1.391301e+002
514722536.80634 -3.861012e-001 1.758383e+002 -6.251273e+001 -1.183521e+002 -6.491065e+001 -1.217919e+002 -1.653367e-001 1.389699e+002
515100037.75009 -3.906209e-001 1.756170e+002 -6.292472e+001 -1.190020e+002 -6.623774e+001 -1.161017e+002 -1.533189e-001 1.388454e+002
515477538.69385 -3.955681e-001 1.753294e+002 -6.207740e+001 -1.163164e+002 -6.557288e+001 -1.148177e+002 -1.389426e-001 1.386786e+002
515855039.6376 -4.029200e-001 1.751443e+002 -6.170736e+001 -1.202253e+002 -6.491127e+001 -1.173810e+002 -1.256389e-001 1.385795e+002
516232540.58135 -4.131581e-001 1.749279e+002 -6.167519e+001 -1.214122e+002 -6.447863e+001 -1.161800e+002 -1.160989e-001 1.385350e+002
516610041.5251 -4.183766e-001 1.747016e+002 -6.226593e+001 -1.232833e+002 -6.448251e+001 -1.065453e+002 -1.063713e-001 1.385184e+002
516987542.46886 -4.198746e-001 1.744558e+002 -6.105101e+001 -1.208805e+002 -6.522707e+001 -1.180133e+002 -9.817301e-002 1.384696e+002
517365043.41261 -4.289465e-001 1.742427e+002 -6.074578e+001 -1.228471e+002 -6.463085e+001 -1.083893e+002 -8.950669e-002 1.384505e+002
517742544.35636 -4.376436e-001 1.740266e+002 -6.134096e+001 -1.246414e+002 -6.451644e+001 -1.166627e+002 -7.817962e-002 1.384376e+002
518120045.30011 -4.423085e-001 1.738073e+002 -6.029138e+001 -1.255198e+002 -6.419458e+001 -1.118803e+002 -6.853975e-002 1.385049e+002
518497546.24387 -4.518931e-001 1.736183e+002 -6.138661e+001 -1.207642e+002 -6.442278e+001 -1.100043e+002 -6.159277e-002 1.386266e+002
518875047.18762 -4.584365e-001 1.733733e+002 -6.135751e+001 -1.233292e+002 -6.385642e+001 -1.128763e+002 -5.080160e-002 1.386969e+002
519252548.13137 -4.707060e-001 1.731831e+002 -6.036105e+001 -1.328344e+002 -6.411483e+001 -1.116689e+002 -4.608657e-002 1.388099e+002
519630049.07512 -4.767354e-001 1.729160e+002 -6.060599e+001 -1.271561e+002 -6.413983e+001 -1.115624e+002 -3.776426e-002 1.389338e+002
520007550.01888 -4.836184e-001 1.726565e+002 -6.008408e+001 -1.295295e+002 -6.389379e+001 -1.216582e+002 -3.347513e-002 1.391774e+002
520385050.96263 -4.926972e-001 1.724845e+002 -6.034819e+001 -1.303204e+002 -6.383051e+001 -1.136858e+002 -3.033659e-002 1.393166e+002
520762551.90638 -4.994838e-001 1.722510e+002 -6.083487e+001 -1.291028e+002 -6.403821e+001 -1.163139e+002 -2.478085e-002 1.395243e+002
521140052.85013 -5.115420e-001 1.720666e+002 -6.020135e+001 -1.319478e+002 -6.389521e+001 -1.165195e+002 -1.959411e-002 1.397336e+002
521517553.79388 -5.215366e-001 1.718601e+002 -6.052339e+001 -1.283190e+002 -6.423807e+001 -1.166712e+002 -1.348464e-002 1.400105e+002
521895054.73764 -5.263839e-001 1.715996e+002 -6.022408e+001 -1.367705e+002 -6.333454e+001 -1.192764e+002 -1.260197e-002 1.402014e+002
522272555.68139 -5.385909e-001 1.713895e+002 -5.995853e+001 -1.361759e+002 -6.413125e+001 -1.240016e+002 -1.047711e-002 1.404047e+002
522650056.62514 -5.502003e-001 1.712051e+002 -6.040769e+001 -1.352340e+002 -6.361277e+001 -1.224762e+002 -1.467900e-002 1.405622e+002
523027557.56889 -5.622571e-001 1.710020e+002 -6.001512e+001 -1.318516e+002 -6.391213e+001 -1.189864e+002 -1.419376e-002 1.407967e+002
523405058.51265 -5.681012e-001 1.707342e+002 -5.945925e+001 -1.385600e+002 -6.415132e+001 -1.283237e+002 -9.959848e-003 1.410510e+002
523782559.4564 -5.807995e-001 1.705822e+002 -6.042977e+001 -1.382066e+002 -6.402017e+001 -1.230480e+002 -1.377077e-002 1.412384e+002
524160060.40015 -5.890194e-001 1.703366e+002 -5.937403e+001 -1.388624e+002 -6.393182e+001 -1.229019e+002 -1.762970e-002 1.413924e+002
524537561.3439 -5.982066e-001 1.701781e+002 -6.019603e+001 -1.424618e+002 -6.291770e+001 -1.256238e+002 -2.630393e-002 1.415701e+002
524915062.28766 -6.103400e-001 1.699346e+002 -5.949881e+001 -1.391267e+002 -6.321608e+001 -1.235485e+002 -2.853687e-002 1.417762e+002
525292563.23141 -6.202695e-001 1.696346e+002 -5.947878e+001 -1.419016e+002 -6.315934e+001 -1.225706e+002 -3.498440e-002 1.419107e+002
525670064.17516 -6.263262e-001 1.695010e+002 -5.899080e+001 -1.431926e+002 -6.305591e+001 -1.261402e+002 -4.114692e-002 1.420235e+002
526047565.11891 -6.372885e-001 1.692693e+002 -5.934634e+001 -1.431966e+002 -6.231298e+001 -1.262079e+002 -5.421769e-002 1.421599e+002
526425066.06267 -6.457819e-001 1.690288e+002 -5.988586e+001 -1.443083e+002 -6.239959e+001 -1.251950e+002 -6.199573e-002 1.422758e+002
526802567.00642 -6.564898e-001 1.688363e+002 -5.914216e+001 -1.432652e+002 -6.259771e+001 -1.238601e+002 -6.988545e-002 1.423200e+002
527180067.95017 -6.676548e-001 1.686839e+002 -5.910919e+001 -1.452533e+002 -6.241717e+001 -1.216230e+002 -7.632064e-002 1.424258e+002
527557568.89392 -6.762037e-001 1.684482e+002 -5.940151e+001 -1.429768e+002 -6.293766e+001 -1.267260e+002 -7.999191e-002 1.424864e+002
527935069.83767 -6.892612e-001 1.682875e+002 -5.871342e+001 -1.453010e+002 -6.206845e+001 -1.247914e+002 -9.467922e-002 1.424569e+002
528312570.78143 -6.982644e-001 1.680629e+002 -5.949635e+001 -1.441665e+002 -6.123038e+001 -1.316805e+002 -1.042791e-001 1.424510e+002
528690071.72518 -7.001039e-001 1.678528e+002 -5.826641e+001 -1.477703e+002 -6.158588e+001 -1.308411e+002 -1.160251e-001 1.423674e+002
529067572.66893 -7.164198e-001 1.676428e+002 -5.898027e+001 -1.485203e+002 -6.155622e+001 -1.348757e+002 -1.331906e-001 1.422178e+002
529445073.61268 -7.220925e-001 1.674385e+002 -5.853331e+001 -1.504450e+002 -6.110556e+001 -1.319175e+002 -1.427582e-001 1.420807e+002
529822574.55644 -7.296327e-001 1.672092e+002 -5.902752e+001 -1.523021e+002 -6.108602e+001 -1.386064e+002 -1.535897e-001 1.419274e+002
530200075.50019 -7.440774e-001 1.669494e+002 -5.807304e+001 -1.502082e+002 -6.227995e+001 -1.381670e+002 -1.607568e-001 1.417521e+002
530577576.44394 -7.550428e-001 1.667448e+002 -5.925978e+001 -1.521856e+002 -6.086870e+001 -1.351082e+002 -1.737853e-001 1.415960e+002
530955077.38769 -7.645770e-001 1.665128e+002 -5.836755e+001 -1.539718e+002 -6.121434e+001 -1.395376e+002 -1.842892e-001 1.413890e+002
531332578.33145 -7.740573e-001 1.663653e+002 -5.858613e+001 -1.522348e+002 -6.038077e+001 -1.373063e+002 -1.933060e-001 1.411130e+002
531710079.2752 -7.832732e-001 1.660981e+002 -5.916626e+001 -1.544463e+002 -6.123342e+001 -1.406877e+002 -1.985951e-001 1.407430e+002
532087580.21895 -7.947758e-001 1.659907e+002 -5.825239e+001 -1.526491e+002 -6.063071e+001 -1.438773e+002 -1.971832e-001 1.404263e+002
532465081.1627 -8.068488e-001 1.657316e+002 -5.893121e+001 -1.535329e+002 -6.008500e+001 -1.404753e+002 -2.112026e-001 1.401148e+002
532842582.10646 -8.166659e-001 1.655280e+002 -5.831176e+001 -1.554304e+002 -6.069062e+001 -1.388149e+002 -2.133666e-001 1.398758e+002
533220083.05021 -8.287972e-001 1.653734e+002 -5.826126e+001 -1.547013e+002 -5.923268e+001 -1.439055e+002 -2.162672e-001 1.395573e+002
533597583.99396 -8.363156e-001 1.651155e+002 -5.842398e+001 -1.570759e+002 -5.965067e+001 -1.414906e+002 -2.161815e-001 1.392648e+002
533975084.93771 -8.495168e-001 1.648878e+002 -5.797948e+001 -1.574717e+002 -5.974698e+001 -1.430053e+002 -2.238085e-001 1.389378e+002
534352585.88146 -8.631554e-001 1.647818e+002 -5.801903e+001 -1.573474e+002 -5.931837e+001 -1.448762e+002 -2.227453e-001 1.386235e+002
534730086.82522 -8.694351e-001 1.645459e+002 -5.837737e+001 -1.558284e+002 -5.939566e+001 -1.422234e+002 -2.215542e-001 1.382414e+002
535107587.76897 -8.804700e-001 1.643987e+002 -5.780030e+001 -1.619228e+002 -5.952989e+001 -1.487500e+002 -2.278378e-001 1.380135e+002
535485088.71272 -8.862057e-001 1.641422e+002 -5.799764e+001 -1.576781e+002 -5.914946e+001 -1.462079e+002 -2.236135e-001 1.376741e+002
535862589.65647 -8.998847e-001 1.639438e+002 -5.818450e+001 -1.644403e+002 -5.925066e+001 -1.460313e+002 -2.198342e-001 1.373857e+002
536240090.60023 -9.052184e-001 1.638217e+002 -5.773461e+001 -1.619407e+002 -5.957521e+001 -1.488758e+002 -2.192422e-001 1.371050e+002
536617591.54398 -9.215445e-001 1.635489e+002 -5.807060e+001 -1.618875e+002 -5.906849e+001 -1.444438e+002 -2.191431e-001 1.368094e+002
536995092.48773 -9.306306e-001 1.634510e+002 -5.768130e+001 -1.614739e+002 -5.934071e+001 -1.503327e+002 -2.137429e-001 1.365861e+002
537372593.43148 -9.365343e-001 1.631922e+002 -5.732006e+001 -1.636044e+002 -5.950396e+001 -1.517572e+002 -2.083064e-001 1.363425e+002
537750094.37524 -9.477810e-001 1.630746e+002 -5.758405e+001 -1.641181e+002 -5.879458e+001 -1.519593e+002 -2.048598e-001 1.361035e+002
538127595.31899 -9.586997e-001 1.629090e+002 -5.763616e+001 -1.681353e+002 -5.875486e+001 -1.480557e+002 -1.983115e-001 1.358412e+002
538505096.26274 -9.652147e-001 1.627467e+002 -5.740358e+001 -1.647782e+002 -5.880256e+001 -1.513571e+002 -1.843641e-001 1.356112e+002
538882597.20649 -9.741407e-001 1.625692e+002 -5.734190e+001 -1.680714e+002 -5.851146e+001 -1.520196e+002 -1.757527e-001 1.353280e+002
539260098.15025 -9.819694e-001 1.623090e+002 -5.745502e+001 -1.649793e+002 -5.810463e+001 -1.539863e+002 -1.696029e-001 1.351587e+002
539637599.094 -9.905428e-001 1.621479e+002 -5.721964e+001 -1.704109e+002 -5.843964e+001 -1.527767e+002 -1.743443e-001 1.349879e+002
540015100.03775 -1.001780e+000 1.619985e+002 -5.745378e+001 -1.686496e+002 -5.874373e+001 -1.566885e+002 -1.703487e-001 1.349358e+002
540392600.9815 -1.008816e+000 1.618819e+002 -5.717923e+001 -1.663365e+002 -5.830362e+001 -1.547169e+002 -1.715820e-001 1.347622e+002
540770101.92525 -1.022958e+000 1.616927e+002 -5.706406e+001 -1.693647e+002 -5.813153e+001 -1.605010e+002 -1.642231e-001 1.346654e+002
541147602.86901 -1.027643e+000 1.614977e+002 -5.676251e+001 -1.722648e+002 -5.842282e+001 -1.579002e+002 -1.603756e-001 1.346032e+002
541525103.81276 -1.034027e+000 1.612915e+002 -5.667657e+001 -1.697862e+002 -5.817794e+001 -1.602906e+002 -1.550563e-001 1.345464e+002
541902604.75651 -1.043599e+000 1.612329e+002 -5.693760e+001 -1.718525e+002 -5.772338e+001 -1.609070e+002 -1.520019e-001 1.345267e+002
542280105.70026 -1.055513e+000 1.610507e+002 -5.648259e+001 -1.726515e+002 -5.803157e+001 -1.623826e+002 -1.316141e-001 1.345069e+002
542657606.64402 -1.055530e+000 1.608459e+002 -5.655669e+001 -1.755503e+002 -5.851508e+001 -1.613162e+002 -1.325500e-001 1.347075e+002
543035107.58777 -1.062693e+000 1.607437e+002 -5.664469e+001 -1.760318e+002 -5.821752e+001 -1.591866e+002 -1.297024e-001 1.348601e+002
543412608.53152 -1.069383e+000 1.605646e+002 -5.695385e+001 -1.757522e+002 -5.840310e+001 -1.580008e+002 -1.268663e-001 1.350053e+002
543790109.47527 -1.073639e+000 1.604488e+002 -5.626809e+001 -1.747799e+002 -5.843193e+001 -1.582987e+002 -1.193682e-001 1.351554e+002
544167610.41903 -1.082556e+000 1.603495e+002 -5.641555e+001 -1.774718e+002 -5.824568e+001 -1.580047e+002 -1.115866e-001 1.352844e+002
544545111.36278 -1.075698e+000 1.601814e+002 -5.577238e+001 -1.785898e+002 -5.822093e+001 -1.571146e+002 -1.076982e-001 1.353511e+002
544922612.30653 -1.080342e+000 1.599728e+002 -5.604635e+001 -1.765482e+002 -5.905525e+001 -1.595838e+002 -9.731939e-002 1.355805e+002
545300113.25028 -1.081631e+000 1.598326e+002 -5.574411e+001 -1.787416e+002 -5.858025e+001 -1.573869e+002 -9.083679e-002 1.357496e+002
545677614.19404 -1.081329e+000 1.596700e+002 -5.565176e+001 -1.793901e+002 -5.816911e+001 -1.579075e+002 -8.639231e-002 1.358824e+002
546055115.13779 -1.081442e+000 1.595786e+002 -5.592503e+001 -1.788930e+002 -5.794282e+001 -1.582260e+002 -8.395743e-002 1.360292e+002
546432616.08154 -1.082182e+000 1.593684e+002 -5.546521e+001 1.784120e+002 -5.809568e+001 -1.566276e+002 -7.857362e-002 1.361582e+002
546810117.02529 -1.078688e+000 1.591449e+002 -5.569919e+001 1.777563e+002 -5.816671e+001 -1.587500e+002 -7.816797e-002 1.362647e+002
547187617.96904 -1.079525e+000 1.590416e+002 -5.566736e+001 1.757514e+002 -5.781807e+001 -1.604775e+002 -8.031387e-002 1.363635e+002
547565118.9128 -1.077502e+000 1.587994e+002 -5.580543e+001 1.738708e+002 -5.794098e+001 -1.606111e+002 -8.531942e-002 1.364532e+002
547942619.85655 -1.082818e+000 1.586003e+002 -5.523738e+001 1.753759e+002 -5.800322e+001 -1.628957e+002 -9.018267e-002 1.365219e+002
548320120.8003 -1.081379e+000 1.584059e+002 -5.564261e+001 1.725558e+002 -5.812390e+001 -1.641205e+002 -8.760097e-002 1.366516e+002
548697621.74405 -1.084686e+000 1.582453e+002 -5.545840e+001 1.692019e+002 -5.760703e+001 -1.658734e+002 -8.253174e-002 1.367744e+002
549075122.68781 -1.083894e+000 1.580307e+002 -5.554843e+001 1.680145e+002 -5.794169e+001 -1.660517e+002 -9.328333e-002 1.368590e+002
549452623.63156 -1.084987e+000 1.578383e+002 -5.539155e+001 1.700340e+002 -5.763070e+001 -1.665719e+002 -1.033326e-001 1.368549e+002
549830124.57531 -1.086815e+000 1.576700e+002 -5.549248e+001 1.692001e+002 -5.768153e+001 -1.699219e+002 -1.129365e-001 1.369057e+002
550207625.51906 -1.088571e+000 1.574201e+002 -5.524048e+001 1.651222e+002 -5.768115e+001 -1.713524e+002 -1.224419e-001 1.369341e+002
550585126.46282 -1.087193e+000 1.571783e+002 -5.532366e+001 1.658710e+002 -5.780069e+001 -1.703374e+002 -1.258153e-001 1.369773e+002
550962627.40657 -1.091257e+000 1.569944e+002 -5.575259e+001 1.665604e+002 -5.787157e+001 -1.723909e+002 -1.271682e-001 1.370825e+002
551340128.35032 -1.091987e+000 1.567900e+002 -5.582611e+001 1.639830e+002 -5.786661e+001 -1.736175e+002 -1.411463e-001 1.370166e+002
551717629.29407 -1.094386e+000 1.565378e+002 -5.534487e+001 1.662792e+002 -5.768932e+001 -1.745526e+002 -1.461309e-001 1.370156e+002
552095130.23783 -1.095882e+000 1.563689e+002 -5.502568e+001 1.638734e+002 -5.749590e+001 -1.747108e+002 -1.479942e-001 1.371377e+002
552472631.18158 -1.098373e+000 1.561114e+002 -5.532977e+001 1.665236e+002 -5.810009e+001 -1.696539e+002 -1.480493e-001 1.371967e+002
552850132.12533 -1.095237e+000 1.559099e+002 -5.523850e+001 1.633899e+002 -5.747371e+001 -1.727672e+002 -1.564859e-001 1.371252e+002
553227633.06908 -1.100529e+000 1.556752e+002 -5.524304e+001 1.671007e+002 -5.732645e+001 -1.723643e+002 -1.608065e-001 1.371087e+002
553605134.01284 -1.104929e+000 1.554669e+002 -5.482936e+001 1.645872e+002 -5.794842e+001 -1.756002e+002 -1.617480e-001 1.370740e+002
553982634.95659 -1.111563e+000 1.552590e+002 -5.507471e+001 1.630774e+002 -5.762289e+001 -1.748180e+002 -1.773140e-001 1.369443e+002
554360135.90034 -1.116504e+000 1.550883e+002 -5.496992e+001 1.590919e+002 -5.772694e+001 -1.741948e+002 -1.902747e-001 1.367859e+002
554737636.84409 -1.118514e+000 1.548392e+002 -5.471994e+001 1.611155e+002 -5.706418e+001 1.797552e+002 -2.029392e-001 1.367798e+002
555115137.78784 -1.120330e+000 1.546121e+002 -5.489656e+001 1.585509e+002 -5.715903e+001 1.790912e+002 -2.110042e-001 1.367302e+002
