!Agilent Technologies,E8364B,US42250235,A.06.04.32
!Agilent E8364B: A.06.04.32
!Date: Thursday, October 01, 2020 16:01:38
!Correction: S11(Full 2 Port(1,2)) S21(Full 2 Port(1,2)) S12(Full 2 Port(1,2)) S22(Full 2 Port(1,2)) 
!S2P File: Measurements: S11, S21, S12, S22:
# Hz S  dB   R 50
500000000 -2.293046e-001 -1.749100e+002 -7.143523e+001 1.777510e+002 -7.191819e+001 1.618697e+002 3.551749e-002 1.435985e+002
500377500.94375 -2.287012e-001 -1.751420e+002 -7.226530e+001 1.659628e+002 -7.172957e+001 1.527271e+002 3.513005e-002 1.437697e+002
500755001.8875 -2.361142e-001 -1.752989e+002 -7.084259e+001 1.643554e+002 -7.248093e+001 -1.767893e+002 3.620159e-002 1.439299e+002
501132502.83126 -2.382053e-001 -1.755081e+002 -7.074792e+001 1.666195e+002 -7.117105e+001 1.643359e+002 3.147890e-002 1.440698e+002
501510003.77501 -2.370077e-001 -1.757062e+002 -7.129588e+001 1.616396e+002 -7.188343e+001 1.644442e+002 2.941063e-002 1.442526e+002
501887504.71876 -2.400903e-001 -1.759218e+002 -7.003806e+001 1.602222e+002 -6.942580e+001 1.722844e+002 2.500450e-002 1.443693e+002
502265005.66251 -2.427533e-001 -1.761009e+002 -7.076253e+001 1.719338e+002 -7.312354e+001 1.745346e+002 2.186435e-002 1.444964e+002
502642506.60627 -2.431195e-001 -1.762988e+002 -7.013367e+001 1.711677e+002 -6.824979e+001 1.664199e+002 1.658267e-002 1.446403e+002
503020007.55002 -2.466751e-001 -1.765020e+002 -7.047044e+001 1.567425e+002 -6.924488e+001 1.587548e+002 8.199229e-003 1.447014e+002
503397508.49377 -2.457678e-001 -1.766985e+002 -7.256023e+001 1.799717e+002 -7.071650e+001 1.665609e+002 5.738029e-003 1.447733e+002
503775009.43752 -2.471738e-001 -1.768773e+002 -7.077135e+001 1.565212e+002 -6.870757e+001 1.652136e+002 -2.665390e-003 1.448560e+002
504152510.38128 -2.495915e-001 -1.770916e+002 -7.130808e+001 1.434474e+002 -6.994093e+001 1.563550e+002 -8.156420e-003 1.448817e+002
504530011.32503 -2.482539e-001 -1.772931e+002 -7.208590e+001 1.411129e+002 -7.007417e+001 1.515714e+002 -1.536257e-002 1.449312e+002
504907512.26878 -2.519281e-001 -1.774801e+002 -6.893370e+001 1.513175e+002 -6.908285e+001 1.605015e+002 -2.378406e-002 1.449512e+002
505285013.21253 -2.545960e-001 -1.776788e+002 -7.233253e+001 1.544901e+002 -6.859628e+001 1.572022e+002 -3.110735e-002 1.449288e+002
505662514.15629 -2.540108e-001 -1.778498e+002 -7.012109e+001 1.647990e+002 -6.898359e+001 1.593745e+002 -4.286910e-002 1.449035e+002
506040015.10004 -2.572298e-001 -1.780816e+002 -7.013300e+001 1.589994e+002 -7.070118e+001 1.571563e+002 -4.493299e-002 1.448516e+002
506417516.04379 -2.560634e-001 -1.782919e+002 -7.092821e+001 1.496191e+002 -6.970635e+001 1.563009e+002 -5.522133e-002 1.447686e+002
506795016.98754 -2.610197e-001 -1.784926e+002 -6.864168e+001 1.489149e+002 -6.872990e+001 1.555808e+002 -5.660676e-002 1.446405e+002
507172517.93129 -2.604295e-001 -1.786990e+002 -6.795632e+001 1.476569e+002 -6.835336e+001 1.551783e+002 -6.492957e-002 1.445396e+002
507550018.87505 -2.609084e-001 -1.789042e+002 -7.057482e+001 1.454338e+002 -6.934180e+001 1.544434e+002 -7.103770e-002 1.443725e+002
507927519.8188 -2.643459e-001 -1.791154e+002 -7.000616e+001 1.514683e+002 -6.946054e+001 1.573678e+002 -8.169006e-002 1.442323e+002
508305020.76255 -2.629061e-001 -1.793196e+002 -6.930029e+001 1.511516e+002 -6.882930e+001 1.506965e+002 -8.912241e-002 1.440469e+002
508682521.7063 -2.656263e-001 -1.795307e+002 -7.302865e+001 1.502124e+002 -6.957513e+001 1.560046e+002 -9.820917e-002 1.438611e+002
509060022.65006 -2.680095e-001 -1.797468e+002 -6.977998e+001 1.631526e+002 -6.996159e+001 1.486357e+002 -9.804675e-002 1.436072e+002
509437523.59381 -2.678182e-001 -1.799786e+002 -7.061447e+001 1.537222e+002 -6.951875e+001 1.527217e+002 -1.027815e-001 1.433910e+002
509815024.53756 -2.683129e-001 1.798142e+002 -6.793676e+001 1.387398e+002 -6.801911e+001 1.515771e+002 -1.059090e-001 1.431438e+002
510192525.48131 -2.699510e-001 1.796172e+002 -7.012184e+001 1.592551e+002 -6.891483e+001 1.492246e+002 -1.078176e-001 1.428827e+002
510570026.42507 -2.734147e-001 1.793771e+002 -7.023105e+001 1.379638e+002 -6.769975e+001 1.558075e+002 -1.121455e-001 1.426258e+002
510947527.36882 -2.761886e-001 1.791826e+002 -6.751781e+001 1.401650e+002 -6.782397e+001 1.496481e+002 -1.141827e-001 1.423679e+002
511325028.31257 -2.769665e-001 1.789565e+002 -6.861929e+001 1.441812e+002 -6.803417e+001 1.503214e+002 -1.125624e-001 1.420720e+002
511702529.25632 -2.769006e-001 1.787365e+002 -6.799506e+001 1.359736e+002 -6.800476e+001 1.466559e+002 -1.144349e-001 1.418120e+002
512080030.20008 -2.835599e-001 1.785222e+002 -6.655752e+001 1.407202e+002 -6.834472e+001 1.429318e+002 -1.131754e-001 1.415262e+002
512457531.14383 -2.841146e-001 1.783076e+002 -6.907897e+001 1.425491e+002 -6.758796e+001 1.457776e+002 -1.082569e-001 1.412834e+002
512835032.08758 -2.889766e-001 1.780919e+002 -6.838992e+001 1.441467e+002 -6.788200e+001 1.330209e+002 -1.069895e-001 1.410133e+002
513212533.03133 -2.884003e-001 1.778561e+002 -6.885042e+001 1.339445e+002 -6.862127e+001 1.432196e+002 -1.008037e-001 1.407484e+002
513590033.97508 -2.922229e-001 1.776541e+002 -7.043282e+001 1.282777e+002 -6.813167e+001 1.379816e+002 -9.586347e-002 1.405175e+002
513967534.91884 -2.921142e-001 1.774371e+002 -6.773090e+001 1.338383e+002 -6.677857e+001 1.342083e+002 -8.782417e-002 1.402730e+002
514345035.86259 -2.913918e-001 1.772035e+002 -6.817566e+001 1.308793e+002 -6.883641e+001 1.396623e+002 -8.605982e-002 1.401034e+002
514722536.80634 -2.930607e-001 1.769993e+002 -6.915091e+001 1.417994e+002 -6.895101e+001 1.281003e+002 -7.787263e-002 1.399201e+002
515100037.75009 -2.928346e-001 1.767711e+002 -6.902807e+001 1.326319e+002 -6.631683e+001 1.316970e+002 -7.000607e-002 1.397574e+002
515477538.69385 -2.956118e-001 1.765512e+002 -6.862573e+001 1.366550e+002 -6.655994e+001 1.370958e+002 -6.386162e-002 1.396058e+002
515855039.6376 -2.970087e-001 1.763468e+002 -6.768449e+001 1.280684e+002 -6.818044e+001 1.350326e+002 -5.381629e-002 1.394872e+002
516232540.58135 -3.004183e-001 1.761320e+002 -6.802653e+001 1.331501e+002 -6.669975e+001 1.304153e+002 -4.357604e-002 1.393965e+002
516610041.5251 -3.021444e-001 1.758876e+002 -6.928541e+001 1.416401e+002 -6.904064e+001 1.329418e+002 -3.950373e-002 1.393114e+002
516987542.46886 -3.031769e-001 1.756709e+002 -6.694709e+001 1.291787e+002 -6.713490e+001 1.329532e+002 -3.016253e-002 1.392787e+002
517365043.41261 -3.055444e-001 1.754789e+002 -6.840255e+001 1.292621e+002 -6.677329e+001 1.279770e+002 -2.048172e-002 1.392444e+002
517742544.35636 -3.092211e-001 1.752433e+002 -6.713983e+001 1.263760e+002 -6.804787e+001 1.240310e+002 -1.498441e-002 1.392724e+002
518120045.30011 -3.104468e-001 1.750361e+002 -6.904688e+001 1.341597e+002 -6.601627e+001 1.207892e+002 -4.830284e-003 1.392946e+002
518497546.24387 -3.101423e-001 1.748222e+002 -6.809917e+001 1.300593e+002 -6.559732e+001 1.230864e+002 5.675580e-003 1.393524e+002
518875047.18762 -3.171152e-001 1.746462e+002 -6.721339e+001 1.196912e+002 -6.621844e+001 1.295991e+002 1.367859e-002 1.394255e+002
519252548.13137 -3.201785e-001 1.743632e+002 -6.652803e+001 1.112013e+002 -6.662254e+001 1.174202e+002 1.640672e-002 1.395022e+002
519630049.07512 -3.249138e-001 1.741423e+002 -6.905675e+001 1.163867e+002 -6.717080e+001 1.226393e+002 2.294676e-002 1.396253e+002
520007550.01888 -3.229378e-001 1.739367e+002 -6.846363e+001 1.195093e+002 -6.729852e+001 1.178450e+002 2.791226e-002 1.397605e+002
520385050.96263 -3.220516e-001 1.737323e+002 -6.914162e+001 1.139845e+002 -6.825187e+001 1.194390e+002 3.336126e-002 1.399043e+002
520762551.90638 -3.271884e-001 1.735161e+002 -6.763371e+001 1.198727e+002 -6.543469e+001 1.189257e+002 3.849199e-002 1.400687e+002
521140052.85013 -3.274408e-001 1.732845e+002 -6.731917e+001 1.134960e+002 -6.716314e+001 1.183292e+002 4.022872e-002 1.402367e+002
521517553.79388 -3.308667e-001 1.731139e+002 -6.552669e+001 1.120292e+002 -6.675045e+001 1.061371e+002 4.443601e-002 1.404327e+002
521895054.73764 -3.313684e-001 1.728500e+002 -6.932687e+001 9.449702e+001 -6.626683e+001 1.088805e+002 4.543315e-002 1.406150e+002
522272555.68139 -3.330524e-001 1.726200e+002 -6.705148e+001 1.051320e+002 -6.811252e+001 1.080784e+002 4.532339e-002 1.408296e+002
522650056.62514 -3.380523e-001 1.723820e+002 -6.670094e+001 1.050698e+002 -6.754819e+001 1.005187e+002 4.599153e-002 1.409814e+002
523027557.56889 -3.392643e-001 1.721781e+002 -6.669364e+001 1.159684e+002 -6.863612e+001 1.031048e+002 4.212250e-002 1.412423e+002
523405058.51265 -3.405322e-001 1.719434e+002 -6.775805e+001 1.149995e+002 -6.693858e+001 1.126786e+002 4.519498e-002 1.414842e+002
523782559.4564 -3.430644e-001 1.717142e+002 -6.797731e+001 1.164320e+002 -6.671504e+001 1.088589e+002 4.184050e-002 1.416268e+002
524160060.40015 -3.475406e-001 1.715161e+002 -6.977718e+001 1.059617e+002 -6.735366e+001 1.092634e+002 3.972575e-002 1.418161e+002
524537561.3439 -3.466487e-001 1.712625e+002 -6.675748e+001 1.092107e+002 -6.728535e+001 1.104510e+002 3.572016e-002 1.419913e+002
524915062.28766 -3.539287e-001 1.710708e+002 -6.656764e+001 1.060502e+002 -6.602110e+001 1.036652e+002 2.720476e-002 1.421738e+002
525292563.23141 -3.561774e-001 1.707696e+002 -6.779780e+001 1.072810e+002 -6.561694e+001 1.128064e+002 2.159781e-002 1.423132e+002
525670064.17516 -3.542831e-001 1.705599e+002 -6.920660e+001 1.319173e+002 -6.660213e+001 1.042813e+002 1.640993e-002 1.424346e+002
526047565.11891 -3.586383e-001 1.703370e+002 -6.675832e+001 1.066835e+002 -6.651712e+001 1.121854e+002 5.740957e-003 1.425636e+002
526425066.06267 -3.644021e-001 1.700409e+002 -6.806687e+001 1.093691e+002 -6.698438e+001 1.102923e+002 -5.745347e-003 1.426432e+002
526802567.00642 -3.661388e-001 1.698353e+002 -6.651093e+001 1.100441e+002 -6.756212e+001 1.048475e+002 -1.183681e-002 1.427290e+002
527180067.95017 -3.712329e-001 1.695937e+002 -6.647715e+001 1.009681e+002 -6.584729e+001 1.134736e+002 -1.439455e-002 1.427831e+002
527557568.89392 -3.704755e-001 1.693483e+002 -6.711306e+001 1.050923e+002 -6.580593e+001 1.017978e+002 -2.611484e-002 1.428150e+002
527935069.83767 -3.782499e-001 1.691081e+002 -6.741068e+001 1.058196e+002 -6.469963e+001 1.041638e+002 -3.548552e-002 1.428198e+002
528312570.78143 -3.818368e-001 1.688649e+002 -6.579325e+001 1.077463e+002 -6.605672e+001 1.012023e+002 -4.241661e-002 1.428164e+002
528690071.72518 -3.779384e-001 1.686155e+002 -6.733878e+001 1.036358e+002 -6.593657e+001 1.115557e+002 -5.408364e-002 1.427660e+002
529067572.66893 -3.849896e-001 1.683524e+002 -6.861027e+001 1.021244e+002 -6.638277e+001 1.056860e+002 -6.973924e-002 1.427101e+002
529445073.61268 -3.909141e-001 1.681164e+002 -6.796517e+001 1.098202e+002 -6.534777e+001 1.063983e+002 -7.674285e-002 1.426336e+002
529822574.55644 -3.914655e-001 1.678668e+002 -6.672720e+001 1.035747e+002 -6.621912e+001 1.006695e+002 -8.677334e-002 1.424763e+002
530200075.50019 -3.966146e-001 1.675848e+002 -6.573229e+001 1.063474e+002 -6.668930e+001 1.038473e+002 -9.182427e-002 1.423342e+002
530577576.44394 -4.026404e-001 1.673931e+002 -6.858298e+001 1.021261e+002 -6.551973e+001 8.994690e+001 -1.058591e-001 1.421753e+002
530955077.38769 -4.081208e-001 1.671276e+002 -6.758746e+001 1.036966e+002 -6.713179e+001 1.102297e+002 -1.135007e-001 1.419931e+002
531332578.33145 -4.104896e-001 1.668709e+002 -6.614883e+001 1.025807e+002 -6.513205e+001 1.016840e+002 -1.207760e-001 1.417879e+002
531710079.2752 -4.173827e-001 1.666340e+002 -6.716851e+001 1.001529e+002 -6.589125e+001 9.770529e+001 -1.310144e-001 1.415278e+002
532087580.21895 -4.182152e-001 1.663877e+002 -6.552824e+001 1.039089e+002 -6.368020e+001 8.866830e+001 -1.341873e-001 1.412821e+002
532465081.1627 -4.219162e-001 1.661192e+002 -6.614278e+001 9.888665e+001 -6.485458e+001 9.440013e+001 -1.395956e-001 1.410249e+002
532842582.10646 -4.282987e-001 1.658818e+002 -6.592388e+001 9.840839e+001 -6.587836e+001 9.381801e+001 -1.454098e-001 1.406917e+002
533220083.05021 -4.309421e-001 1.656449e+002 -6.576609e+001 8.663530e+001 -6.535253e+001 9.696208e+001 -1.507008e-001 1.404704e+002
533597583.99396 -4.345548e-001 1.653843e+002 -6.632647e+001 8.925397e+001 -6.448236e+001 9.333809e+001 -1.520300e-001 1.402042e+002
533975084.93771 -4.387978e-001 1.650877e+002 -6.524986e+001 9.314858e+001 -6.371667e+001 9.000005e+001 -1.568171e-001 1.398521e+002
534352585.88146 -4.470994e-001 1.649213e+002 -6.504436e+001 9.057543e+001 -6.437417e+001 9.571985e+001 -1.588128e-001 1.395621e+002
534730086.82522 -4.499739e-001 1.646386e+002 -6.518508e+001 8.561041e+001 -6.534792e+001 8.432901e+001 -1.582410e-001 1.392733e+002
535107587.76897 -4.559307e-001 1.643754e+002 -6.541805e+001 9.294976e+001 -6.438548e+001 9.846685e+001 -1.628008e-001 1.389700e+002
535485088.71272 -4.576327e-001 1.641297e+002 -6.534497e+001 9.501714e+001 -6.394276e+001 9.293861e+001 -1.579432e-001 1.386705e+002
535862589.65647 -4.632286e-001 1.638687e+002 -6.545165e+001 8.854573e+001 -6.471243e+001 8.639332e+001 -1.570859e-001 1.383488e+002
536240090.60023 -4.685462e-001 1.636547e+002 -6.464597e+001 8.947144e+001 -6.353625e+001 9.027378e+001 -1.558709e-001 1.380781e+002
536617591.54398 -4.728559e-001 1.633622e+002 -6.482556e+001 9.322447e+001 -6.411624e+001 9.020145e+001 -1.499721e-001 1.378007e+002
536995092.48773 -4.812260e-001 1.631484e+002 -6.398088e+001 8.784264e+001 -6.415454e+001 8.764642e+001 -1.476219e-001 1.375401e+002
537372593.43148 -4.842136e-001 1.628554e+002 -6.504012e+001 8.814838e+001 -6.454792e+001 8.739237e+001 -1.412078e-001 1.373000e+002
537750094.37524 -4.887856e-001 1.625911e+002 -6.521188e+001 8.669675e+001 -6.411249e+001 8.789639e+001 -1.336326e-001 1.370778e+002
538127595.31899 -4.973968e-001 1.623862e+002 -6.448293e+001 8.416766e+001 -6.393722e+001 8.773607e+001 -1.296814e-001 1.368496e+002
538505096.26274 -5.001558e-001 1.621089e+002 -6.468258e+001 7.981445e+001 -6.371005e+001 7.652201e+001 -1.227350e-001 1.366867e+002
538882597.20649 -5.047745e-001 1.618522e+002 -6.491251e+001 7.792702e+001 -6.403854e+001 7.794509e+001 -1.148649e-001 1.364780e+002
539260098.15025 -5.131773e-001 1.615899e+002 -6.524954e+001 8.438698e+001 -6.317927e+001 8.648618e+001 -1.067432e-001 1.363301e+002
539637599.094 -5.195800e-001 1.613505e+002 -6.476737e+001 7.776188e+001 -6.413301e+001 8.183118e+001 -1.037787e-001 1.361686e+002
540015100.03775 -5.275943e-001 1.610783e+002 -6.317823e+001 7.778431e+001 -6.393754e+001 7.696221e+001 -8.959033e-002 1.361261e+002
540392600.9815 -5.277519e-001 1.608309e+002 -6.470910e+001 7.792986e+001 -6.312675e+001 8.555340e+001 -8.617501e-002 1.359656e+002
540770101.92525 -5.388529e-001 1.605711e+002 -6.385041e+001 8.326881e+001 -6.286224e+001 7.792583e+001 -7.644900e-002 1.358914e+002
541147602.86901 -5.436326e-001 1.603251e+002 -6.416890e+001 8.076142e+001 -6.236060e+001 8.335999e+001 -7.178310e-002 1.358379e+002
541525103.81276 -5.476156e-001 1.600781e+002 -6.290259e+001 7.084317e+001 -6.323396e+001 8.001450e+001 -6.397549e-002 1.357755e+002
541902604.75651 -5.571207e-001 1.598573e+002 -6.323750e+001 7.272859e+001 -6.271003e+001 7.779575e+001 -5.871326e-002 1.357652e+002
542280105.70026 -5.679867e-001 1.595958e+002 -6.345621e+001 7.319527e+001 -6.201856e+001 7.470372e+001 -4.819170e-002 1.357594e+002
542657606.64402 -5.733082e-001 1.592807e+002 -6.372902e+001 7.620626e+001 -6.251212e+001 8.011494e+001 -4.571857e-002 1.357771e+002
543035107.58777 -5.793585e-001 1.590868e+002 -6.342108e+001 6.936685e+001 -6.291915e+001 7.661707e+001 -3.571916e-002 1.357945e+002
543412608.53152 -5.863956e-001 1.588125e+002 -6.226997e+001 7.029855e+001 -6.225446e+001 7.213588e+001 -3.187063e-002 1.358236e+002
543790109.47527 -5.945452e-001 1.586058e+002 -6.202497e+001 6.764499e+001 -6.155245e+001 7.148998e+001 -2.781502e-002 1.358879e+002
544167610.41903 -6.033995e-001 1.583622e+002 -6.202685e+001 6.573666e+001 -6.166196e+001 6.996517e+001 -1.888347e-002 1.359346e+002
544545111.36278 -6.043717e-001 1.581251e+002 -6.272527e+001 6.589996e+001 -6.210608e+001 6.851663e+001 -1.788822e-002 1.360199e+002
544922612.30653 -6.134399e-001 1.578592e+002 -6.284266e+001 6.464226e+001 -6.184945e+001 6.362810e+001 -1.136213e-002 1.361126e+002
545300113.25028 -6.195818e-001 1.575895e+002 -6.155525e+001 6.723142e+001 -6.153827e+001 7.033098e+001 -1.224790e-002 1.361954e+002
545677614.19404 -6.261308e-001 1.573929e+002 -6.262776e+001 6.281300e+001 -6.183222e+001 6.670873e+001 -8.889335e-003 1.362938e+002
546055115.13779 -6.304278e-001 1.571087e+002 -6.218359e+001 6.684253e+001 -6.175283e+001 6.381845e+001 -5.636251e-003 1.364174e+002
546432616.08154 -6.396662e-001 1.568849e+002 -6.173928e+001 6.315870e+001 -6.168856e+001 6.804433e+001 -4.751128e-003 1.365057e+002
546810117.02529 -6.441246e-001 1.565879e+002 -6.230479e+001 6.000355e+001 -6.105593e+001 6.607439e+001 -9.288668e-004 1.366113e+002
547187617.96904 -6.498662e-001 1.563410e+002 -6.225248e+001 6.186888e+001 -6.115547e+001 6.476453e+001 -1.911478e-003 1.367461e+002
547565118.9128 -6.574880e-001 1.560799e+002 -6.178266e+001 5.901864e+001 -6.120405e+001 6.044160e+001 -1.359985e-003 1.368426e+002
547942619.85655 -6.671889e-001 1.558136e+002 -6.218614e+001 6.200438e+001 -6.112797e+001 6.349212e+001 -6.878594e-004 1.369483e+002
548320120.8003 -6.740842e-001 1.555579e+002 -6.102893e+001 5.473922e+001 -6.075203e+001 6.055043e+001 -3.920919e-003 1.370474e+002
548697621.74405 -6.809282e-001 1.553073e+002 -6.134134e+001 5.185947e+001 -6.147696e+001 5.904688e+001 -5.819746e-003 1.371410e+002
549075122.68781 -6.877997e-001 1.550372e+002 -6.131141e+001 5.152541e+001 -6.121111e+001 5.726722e+001 -7.355554e-003 1.372955e+002
549452623.63156 -6.966051e-001 1.547869e+002 -6.103862e+001 5.221891e+001 -6.043541e+001 5.596864e+001 -9.959478e-003 1.373245e+002
549830124.57531 -7.022697e-001 1.545197e+002 -6.079990e+001 5.017127e+001 -6.062011e+001 5.205521e+001 -1.194885e-002 1.374307e+002
550207625.51906 -7.088890e-001 1.542352e+002 -6.098425e+001 4.627052e+001 -6.097515e+001 4.696595e+001 -1.824911e-002 1.374627e+002
550585126.46282 -7.194259e-001 1.539093e+002 -6.081263e+001 4.805423e+001 -6.042027e+001 4.977024e+001 -2.241833e-002 1.375310e+002
550962627.40657 -7.271343e-001 1.536820e+002 -6.119162e+001 4.452083e+001 -6.037971e+001 5.027319e+001 -2.360114e-002 1.375832e+002
551340128.35032 -7.340207e-001 1.534049e+002 -6.089942e+001 4.424021e+001 -6.079707e+001 4.610477e+001 -2.982169e-002 1.376054e+002
551717629.29407 -7.427445e-001 1.530799e+002 -6.133328e+001 4.649308e+001 -6.031184e+001 5.002808e+001 -3.463080e-002 1.376361e+002
552095130.23783 -7.520292e-001 1.528461e+002 -6.130525e+001 3.863730e+001 -6.019651e+001 4.678580e+001 -3.920770e-002 1.376468e+002
552472631.18158 -7.592218e-001 1.525257e+002 -6.223282e+001 4.041103e+001 -6.081549e+001 4.123506e+001 -4.705731e-002 1.376406e+002
552850132.12533 -7.669770e-001 1.522660e+002 -6.067187e+001 4.597195e+001 -6.111306e+001 4.704261e+001 -5.116985e-002 1.375962e+002
553227633.06908 -7.789901e-001 1.519642e+002 -6.155318e+001 3.732254e+001 -6.045604e+001 4.110799e+001 -6.132895e-002 1.375684e+002
553605134.01284 -7.886062e-001 1.516702e+002 -6.140347e+001 3.937120e+001 -6.069048e+001 3.679879e+001 -6.378876e-002 1.375262e+002
553982634.95659 -7.988275e-001 1.513855e+002 -6.127713e+001 3.868536e+001 -6.009867e+001 3.864435e+001 -7.180130e-002 1.374486e+002
554360135.90034 -8.094741e-001 1.511078e+002 -6.087463e+001 3.781964e+001 -5.992592e+001 4.518599e+001 -7.501771e-002 1.373653e+002
554737636.84409 -8.200427e-001 1.508084e+002 -6.142589e+001 3.674521e+001 -6.059663e+001 4.240951e+001 -8.377852e-002 1.372606e+002
555115137.78784 -8.290333e-001 1.505504e+002 -6.109946e+001 3.568889e+001 -6.039216e+001 4.187735e+001 -8.552434e-002 1.371420e+002
555492638.7316 -8.432198e-001 1.502136e+002 -6.073446e+001 3.716936e+001 -6.047542e+001 3.844083e+001 -9.259724e-002 1.370117e+002
555870139.67535 -8.498608e-001 1.499223e+002 -6.055692e+001 3.070417e+001 -5.940480e+001 3.871012e+001 -9.694152e-002 1.369103e+002
