!Agilent Technologies,E8364B,US42250235,A.06.04.32
!Agilent E8364B: A.06.04.32
!Date: Thursday, October 01, 2020 16:03:48
!Correction: S11(Full 2 Port(1,2)) S21(Full 2 Port(1,2)) S12(Full 2 Port(1,2)) S22(Full 2 Port(1,2)) 
!S2P File: Measurements: S11, S21, S12, S22:
# Hz S  dB   R 50
500000000 -2.589453e-001 -1.753236e+002 -7.106197e+001 5.160717e+001 -7.271923e+001 5.330621e+001 -2.264476e-002 1.432774e+002
500377500.94375 -2.633390e-001 -1.754943e+002 -7.013914e+001 4.480274e+001 -7.200314e+001 5.143619e+001 -2.043836e-002 1.434647e+002
500755001.8875 -2.656252e-001 -1.756695e+002 -6.906412e+001 4.446081e+001 -6.930434e+001 4.713445e+001 -2.340788e-002 1.436200e+002
501132502.83126 -2.721727e-001 -1.758820e+002 -6.960023e+001 4.040686e+001 -6.901617e+001 4.694199e+001 -2.604664e-002 1.437608e+002
501510003.77501 -2.744762e-001 -1.760387e+002 -6.847783e+001 4.202296e+001 -7.060580e+001 4.527775e+001 -3.090747e-002 1.439182e+002
501887504.71876 -2.759714e-001 -1.762978e+002 -6.836478e+001 3.659327e+001 -7.255045e+001 4.140742e+001 -3.350516e-002 1.440340e+002
502265005.66251 -2.853521e-001 -1.764245e+002 -6.854189e+001 3.755925e+001 -6.995824e+001 4.781630e+001 -4.054996e-002 1.441765e+002
502642506.60627 -2.838448e-001 -1.766604e+002 -6.829898e+001 3.425828e+001 -7.015530e+001 4.989596e+001 -4.450177e-002 1.443132e+002
503020007.55002 -2.926291e-001 -1.768239e+002 -7.031958e+001 3.627492e+001 -6.999382e+001 4.558419e+001 -5.084535e-002 1.443642e+002
503397508.49377 -2.911131e-001 -1.770014e+002 -6.831866e+001 2.653011e+001 -7.096644e+001 3.955478e+001 -5.640700e-002 1.444409e+002
503775009.43752 -2.914837e-001 -1.772877e+002 -6.737662e+001 3.602927e+001 -7.031831e+001 4.391745e+001 -6.375287e-002 1.445147e+002
504152510.38128 -2.960466e-001 -1.774049e+002 -6.738192e+001 3.971589e+001 -6.949934e+001 3.168420e+001 -7.064154e-002 1.445356e+002
504530011.32503 -2.977946e-001 -1.776763e+002 -6.808434e+001 2.180951e+001 -6.920188e+001 3.062197e+001 -8.282186e-002 1.445700e+002
504907512.26878 -3.018848e-001 -1.778079e+002 -6.755868e+001 2.989153e+001 -6.957849e+001 3.562529e+001 -9.122368e-002 1.445617e+002
505285013.21253 -3.049592e-001 -1.780251e+002 -6.767396e+001 3.042760e+001 -7.002353e+001 3.302006e+001 -9.612656e-002 1.445715e+002
505662514.15629 -3.049225e-001 -1.782416e+002 -6.812768e+001 2.349593e+001 -6.840034e+001 2.868228e+001 -1.013431e-001 1.445306e+002
506040015.10004 -3.102621e-001 -1.784214e+002 -6.725439e+001 2.189525e+001 -7.064140e+001 2.808451e+001 -1.142812e-001 1.444589e+002
506417516.04379 -3.122787e-001 -1.786919e+002 -6.829002e+001 2.366631e+001 -6.972112e+001 3.636351e+001 -1.250010e-001 1.443814e+002
506795016.98754 -3.189640e-001 -1.788175e+002 -6.707775e+001 1.720445e+001 -6.963359e+001 3.757343e+001 -1.291662e-001 1.442591e+002
507172517.93129 -3.195434e-001 -1.790633e+002 -6.911395e+001 2.413041e+001 -7.079208e+001 3.237012e+001 -1.345180e-001 1.441373e+002
507550018.87505 -3.256967e-001 -1.792362e+002 -6.714474e+001 1.537691e+001 -7.146738e+001 3.493097e+001 -1.431388e-001 1.439840e+002
507927519.8188 -3.303177e-001 -1.794693e+002 -6.624905e+001 2.734935e+001 -7.115926e+001 2.845236e+001 -1.524515e-001 1.438134e+002
508305020.76255 -3.334039e-001 -1.797177e+002 -6.718259e+001 2.660978e+000 -6.941710e+001 2.502793e+001 -1.580198e-001 1.436257e+002
508682521.7063 -3.383102e-001 -1.799037e+002 -6.808238e+001 2.306164e+001 -6.824731e+001 3.297377e+001 -1.672786e-001 1.433850e+002
509060022.65006 -3.430862e-001 1.799481e+002 -6.919123e+001 1.961627e+001 -6.889899e+001 2.977845e+001 -1.710110e-001 1.431834e+002
509437523.59381 -3.456388e-001 1.796642e+002 -6.790771e+001 1.471956e+001 -6.864305e+001 2.988522e+001 -1.736365e-001 1.429513e+002
509815024.53756 -3.464776e-001 1.795132e+002 -6.886172e+001 1.915704e+001 -6.850576e+001 2.472137e+001 -1.762522e-001 1.427005e+002
510192525.48131 -3.529196e-001 1.793384e+002 -6.599445e+001 1.498285e+001 -6.882588e+001 2.565281e+001 -1.807042e-001 1.424396e+002
510570026.42507 -3.587973e-001 1.791303e+002 -6.790980e+001 9.742936e+000 -6.991032e+001 2.714994e+001 -1.825887e-001 1.421718e+002
510947527.36882 -3.572715e-001 1.789038e+002 -6.985937e+001 1.091877e+001 -6.753857e+001 2.889696e+001 -1.834731e-001 1.419031e+002
511325028.31257 -3.617490e-001 1.787391e+002 -6.684216e+001 1.066725e+000 -7.070827e+001 1.615431e+001 -1.843563e-001 1.416149e+002
511702529.25632 -3.598614e-001 1.784445e+002 -6.799212e+001 9.245600e-001 -6.845954e+001 2.128137e+001 -1.845595e-001 1.413484e+002
512080030.20008 -3.680384e-001 1.782355e+002 -6.598541e+001 4.916934e+000 -6.810332e+001 1.356731e+001 -1.851178e-001 1.410573e+002
512457531.14383 -3.736895e-001 1.780619e+002 -6.826765e+001 1.427609e+001 -6.816290e+001 2.377818e+001 -1.810853e-001 1.407966e+002
512835032.08758 -3.744839e-001 1.778321e+002 -6.786660e+001 1.575727e+001 -6.691171e+001 2.055878e+001 -1.770705e-001 1.405341e+002
513212533.03133 -3.770198e-001 1.776011e+002 -6.768196e+001 6.360505e+000 -6.898459e+001 6.104972e+000 -1.727259e-001 1.402701e+002
513590033.97508 -3.803732e-001 1.773933e+002 -6.670071e+001 -1.828699e+000 -6.750688e+001 3.660922e+000 -1.656075e-001 1.400349e+002
513967534.91884 -3.849880e-001 1.772649e+002 -6.577164e+001 6.460588e-001 -6.847650e+001 1.054959e+001 -1.610672e-001 1.398116e+002
514345035.86259 -3.854838e-001 1.769838e+002 -6.769489e+001 4.434124e+000 -6.785378e+001 1.031217e+001 -1.590681e-001 1.395905e+002
514722536.80634 -3.893595e-001 1.767920e+002 -6.784077e+001 8.764190e-001 -6.719713e+001 6.781863e+000 -1.515666e-001 1.394174e+002
515100037.75009 -3.903639e-001 1.766485e+002 -6.660548e+001 8.682212e+000 -6.868457e+001 -1.397687e+000 -1.419259e-001 1.392372e+002
515477538.69385 -3.955799e-001 1.763492e+002 -6.633213e+001 -5.170932e+000 -6.900312e+001 -1.132732e-001 -1.355083e-001 1.390797e+002
515855039.6376 -3.957643e-001 1.762177e+002 -6.743523e+001 -8.659868e+000 -6.985315e+001 -2.168466e+000 -1.257055e-001 1.389633e+002
516232540.58135 -4.030608e-001 1.760063e+002 -6.634814e+001 -1.000532e+001 -6.899969e+001 -1.074225e+001 -1.151982e-001 1.388747e+002
516610041.5251 -4.070116e-001 1.757562e+002 -6.745441e+001 -1.072443e+001 -6.776940e+001 -3.916258e+000 -1.097048e-001 1.387966e+002
516987542.46886 -4.067510e-001 1.755922e+002 -6.750331e+001 -7.394566e+000 -6.988486e+001 -2.266423e+000 -1.019477e-001 1.387434e+002
517365043.41261 -4.126972e-001 1.753380e+002 -6.707996e+001 -4.855833e+000 -6.845182e+001 -6.867778e+000 -9.509351e-002 1.386892e+002
517742544.35636 -4.164979e-001 1.750971e+002 -6.723829e+001 -1.582361e+001 -6.984972e+001 3.382015e+000 -8.343540e-002 1.387249e+002
518120045.30011 -4.198996e-001 1.749739e+002 -6.780521e+001 -1.469250e+001 -6.881609e+001 2.983356e-001 -7.755318e-002 1.387324e+002
518497546.24387 -4.198265e-001 1.747341e+002 -6.633102e+001 -9.047296e+000 -6.835056e+001 -1.871399e+000 -6.725518e-002 1.387768e+002
518875047.18762 -4.252909e-001 1.745442e+002 -6.805875e+001 -1.201742e+001 -6.862344e+001 1.798975e+000 -5.933404e-002 1.388723e+002
519252548.13137 -4.341326e-001 1.743641e+002 -6.635456e+001 -1.224804e+001 -6.909716e+001 -1.519179e+000 -5.484205e-002 1.389477e+002
519630049.07512 -4.399456e-001 1.741515e+002 -6.885531e+001 -1.527877e+001 -6.730704e+001 3.648716e+000 -4.514939e-002 1.390173e+002
520007550.01888 -4.374357e-001 1.738758e+002 -6.763361e+001 -1.256126e+001 -6.795101e+001 -6.326970e+000 -4.359750e-002 1.392040e+002
520385050.96263 -4.425527e-001 1.737053e+002 -6.563760e+001 -1.330982e+001 -6.741799e+001 -2.477224e+000 -3.875729e-002 1.393382e+002
520762551.90638 -4.450590e-001 1.735426e+002 -6.566974e+001 -1.571570e+001 -6.817715e+001 -6.793009e+000 -3.215265e-002 1.395019e+002
521140052.85013 -4.507085e-001 1.732825e+002 -6.643432e+001 -7.578993e+000 -6.793884e+001 -1.057673e+001 -3.139465e-002 1.396739e+002
521517553.79388 -4.550891e-001 1.731349e+002 -6.581946e+001 -1.561202e+001 -6.789175e+001 -1.222924e+001 -2.756194e-002 1.398753e+002
521895054.73764 -4.566078e-001 1.728842e+002 -6.518515e+001 -1.829631e+001 -6.753453e+001 1.197055e+000 -2.563941e-002 1.400524e+002
522272555.68139 -4.624209e-001 1.727301e+002 -6.557626e+001 -1.886765e+001 -6.683329e+001 -9.443717e+000 -2.615793e-002 1.402583e+002
522650056.62514 -4.637263e-001 1.725119e+002 -6.660239e+001 -2.677704e+001 -6.774508e+001 -4.631171e-001 -2.647522e-002 1.404113e+002
523027557.56889 -4.697011e-001 1.723325e+002 -6.630697e+001 -2.343564e+001 -6.731158e+001 -2.070204e+000 -2.740622e-002 1.406507e+002
523405058.51265 -4.665418e-001 1.720939e+002 -6.638322e+001 -1.546682e+001 -6.777407e+001 -9.854171e+000 -2.368539e-002 1.408832e+002
523782559.4564 -4.709440e-001 1.718838e+002 -6.653016e+001 -1.288884e+001 -6.728703e+001 -1.700183e+001 -2.842945e-002 1.410339e+002
524160060.40015 -4.783370e-001 1.716465e+002 -6.634612e+001 -1.759333e+001 -6.753967e+001 -8.498567e+000 -3.322937e-002 1.412090e+002
524537561.3439 -4.783280e-001 1.714913e+002 -6.638097e+001 -1.535442e+001 -6.720804e+001 -8.409735e+000 -3.775232e-002 1.413846e+002
524915062.28766 -4.833508e-001 1.712247e+002 -6.565627e+001 -2.673323e+001 -6.627484e+001 -1.819103e+001 -4.472961e-002 1.415543e+002
525292563.23141 -4.851477e-001 1.709405e+002 -6.473639e+001 -2.350282e+001 -6.827332e+001 -1.515749e+001 -4.964695e-002 1.416851e+002
525670064.17516 -4.854052e-001 1.707773e+002 -6.550365e+001 -2.525104e+001 -6.700333e+001 -1.032549e+001 -5.833967e-002 1.418052e+002
526047565.11891 -4.909690e-001 1.705283e+002 -6.561531e+001 -1.999855e+001 -6.594946e+001 -1.654275e+001 -6.664831e-002 1.419123e+002
526425066.06267 -4.951543e-001 1.702900e+002 -6.588963e+001 -2.362197e+001 -6.735120e+001 -1.876809e+001 -7.498781e-002 1.420167e+002
526802567.00642 -4.997556e-001 1.700844e+002 -6.645005e+001 -2.621383e+001 -6.818387e+001 -1.511934e+001 -8.223334e-002 1.420603e+002
527180067.95017 -5.034978e-001 1.699033e+002 -6.577118e+001 -3.155373e+001 -6.757759e+001 -1.893692e+001 -9.387449e-002 1.421246e+002
527557568.89392 -5.064498e-001 1.696578e+002 -6.393676e+001 -2.947540e+001 -6.545155e+001 -2.064190e+001 -9.815163e-002 1.421555e+002
527935069.83767 -5.146807e-001 1.694730e+002 -6.377517e+001 -2.652100e+001 -6.692504e+001 -2.957355e+001 -1.118061e-001 1.421401e+002
528312570.78143 -5.154499e-001 1.691891e+002 -6.580709e+001 -2.841901e+001 -6.688174e+001 -2.582788e+001 -1.179755e-001 1.421238e+002
528690071.72518 -5.153880e-001 1.690513e+002 -6.474845e+001 -3.303771e+001 -6.507121e+001 -2.716870e+001 -1.270672e-001 1.420583e+002
529067572.66893 -5.220375e-001 1.687917e+002 -6.466726e+001 -3.854350e+001 -6.622193e+001 -2.118936e+001 -1.414946e-001 1.419853e+002
529445073.61268 -5.237753e-001 1.686154e+002 -6.452721e+001 -3.417526e+001 -6.548405e+001 -3.173496e+001 -1.483972e-001 1.418866e+002
529822574.55644 -5.294922e-001 1.683657e+002 -6.639392e+001 -3.673331e+001 -6.580704e+001 -3.749842e+001 -1.583506e-001 1.417491e+002
530200075.50019 -5.339679e-001 1.680552e+002 -6.550443e+001 -4.065178e+001 -6.583804e+001 -3.496181e+001 -1.664585e-001 1.415929e+002
530577576.44394 -5.404124e-001 1.678295e+002 -6.485966e+001 -4.488304e+001 -6.689771e+001 -3.707993e+001 -1.790083e-001 1.414144e+002
530955077.38769 -5.457430e-001 1.675963e+002 -6.544196e+001 -3.438713e+001 -6.592099e+001 -2.807940e+001 -1.879634e-001 1.412153e+002
531332578.33145 -5.514236e-001 1.674258e+002 -6.604547e+001 -4.042009e+001 -6.643505e+001 -3.927601e+001 -1.934277e-001 1.409774e+002
531710079.2752 -5.550682e-001 1.671616e+002 -6.750565e+001 -4.267950e+001 -6.744689e+001 -4.096843e+001 -2.018451e-001 1.407340e+002
532087580.21895 -5.636536e-001 1.669942e+002 -6.722691e+001 -5.075720e+001 -6.830387e+001 -4.407309e+001 -2.068840e-001 1.404899e+002
532465081.1627 -5.640547e-001 1.667723e+002 -6.537026e+001 -4.577983e+001 -6.690834e+001 -3.424928e+001 -2.173713e-001 1.401376e+002
532842582.10646 -5.680815e-001 1.665382e+002 -6.749516e+001 -4.656278e+001 -6.671302e+001 -3.368606e+001 -2.205115e-001 1.399193e+002
533220083.05021 -5.757887e-001 1.663059e+002 -6.611819e+001 -3.786526e+001 -6.775015e+001 -3.890435e+001 -2.254952e-001 1.396250e+002
533597583.99396 -5.792668e-001 1.661016e+002 -6.663148e+001 -3.651272e+001 -6.619791e+001 -4.062761e+001 -2.272353e-001 1.393488e+002
533975084.93771 -5.833132e-001 1.658150e+002 -6.616891e+001 -4.022409e+001 -6.808556e+001 -4.180886e+001 -2.315201e-001 1.390023e+002
534352585.88146 -5.891697e-001 1.656430e+002 -6.695187e+001 -5.326781e+001 -6.668587e+001 -4.840289e+001 -2.298059e-001 1.387090e+002
534730086.82522 -5.919338e-001 1.654257e+002 -6.604458e+001 -4.939621e+001 -6.836707e+001 -3.943583e+001 -2.321635e-001 1.383324e+002
535107587.76897 -5.947950e-001 1.652398e+002 -6.563293e+001 -4.736833e+001 -6.670837e+001 -5.135200e+001 -2.333889e-001 1.380825e+002
535485088.71272 -5.943517e-001 1.649186e+002 -6.656839e+001 -4.136638e+001 -6.780154e+001 -4.395392e+001 -2.283014e-001 1.377724e+002
535862589.65647 -6.040236e-001 1.647021e+002 -6.661385e+001 -4.783130e+001 -6.833414e+001 -4.670484e+001 -2.292191e-001 1.374652e+002
536240090.60023 -5.985674e-001 1.645219e+002 -6.576292e+001 -4.570293e+001 -6.747746e+001 -4.568111e+001 -2.231417e-001 1.371875e+002
536617591.54398 -6.069555e-001 1.642510e+002 -6.586557e+001 -5.083587e+001 -6.721076e+001 -5.018242e+001 -2.181751e-001 1.369014e+002
536995092.48773 -6.160336e-001 1.640781e+002 -6.601244e+001 -4.656826e+001 -6.843558e+001 -4.712436e+001 -2.130597e-001 1.366601e+002
537372593.43148 -6.143093e-001 1.638062e+002 -6.585728e+001 -4.583283e+001 -6.792784e+001 -5.199924e+001 -2.063625e-001 1.363921e+002
537750094.37524 -6.188154e-001 1.636250e+002 -6.693918e+001 -5.129595e+001 -6.713913e+001 -4.750377e+001 -2.031382e-001 1.361784e+002
538127595.31899 -6.239730e-001 1.634081e+002 -6.520580e+001 -4.872177e+001 -6.685237e+001 -4.892626e+001 -1.974571e-001 1.359645e+002
538505096.26274 -6.245448e-001 1.632191e+002 -6.760374e+001 -4.898521e+001 -6.698658e+001 -4.768491e+001 -1.875214e-001 1.357940e+002
538882597.20649 -6.267969e-001 1.629688e+002 -6.636937e+001 -5.820318e+001 -6.798652e+001 -4.566772e+001 -1.771978e-001 1.355838e+002
539260098.15025 -6.326191e-001 1.626997e+002 -6.583446e+001 -4.863312e+001 -6.730873e+001 -4.835009e+001 -1.706425e-001 1.354261e+002
539637599.094 -6.380261e-001 1.625009e+002 -6.592992e+001 -4.984184e+001 -6.727102e+001 -5.102010e+001 -1.648331e-001 1.352836e+002
540015100.03775 -6.408510e-001 1.623224e+002 -6.729512e+001 -5.230611e+001 -6.745533e+001 -5.613002e+001 -1.536535e-001 1.352323e+002
540392600.9815 -6.449427e-001 1.621249e+002 -6.609122e+001 -5.040666e+001 -6.720190e+001 -4.730851e+001 -1.506689e-001 1.350786e+002
540770101.92525 -6.558716e-001 1.618069e+002 -6.605091e+001 -5.441052e+001 -6.581363e+001 -4.851532e+001 -1.396241e-001 1.350071e+002
541147602.86901 -6.493842e-001 1.616641e+002 -6.616466e+001 -5.440607e+001 -6.625749e+001 -5.054605e+001 -1.333809e-001 1.349576e+002
541525103.81276 -6.521134e-001 1.613564e+002 -6.558501e+001 -5.363313e+001 -6.688720e+001 -4.882559e+001 -1.234786e-001 1.349151e+002
541902604.75651 -6.585616e-001 1.611710e+002 -6.549953e+001 -5.234694e+001 -6.661404e+001 -4.885923e+001 -1.196458e-001 1.348914e+002
542280105.70026 -6.630425e-001 1.609800e+002 -6.563464e+001 -4.535969e+001 -6.655061e+001 -3.893095e+001 -1.078090e-001 1.348903e+002
542657606.64402 -6.619585e-001 1.606991e+002 -6.602167e+001 -5.357711e+001 -6.664455e+001 -4.909613e+001 -1.043581e-001 1.349161e+002
543035107.58777 -6.680642e-001 1.605359e+002 -6.535872e+001 -5.391051e+001 -6.771136e+001 -5.728569e+001 -9.588172e-002 1.349350e+002
543412608.53152 -6.686149e-001 1.602337e+002 -6.528563e+001 -5.081016e+001 -6.690788e+001 -4.377765e+001 -9.365860e-002 1.349839e+002
543790109.47527 -6.724215e-001 1.600758e+002 -6.511741e+001 -5.451450e+001 -6.658493e+001 -4.712970e+001 -8.676563e-002 1.350257e+002
544167610.41903 -6.819522e-001 1.598838e+002 -6.504740e+001 -5.660468e+001 -6.545967e+001 -5.648540e+001 -8.129022e-002 1.351059e+002
544545111.36278 -6.736763e-001 1.596506e+002 -6.538903e+001 -5.918298e+001 -6.543855e+001 -5.380145e+001 -7.976107e-002 1.351774e+002
544922612.30653 -6.778513e-001 1.593480e+002 -6.454446e+001 -5.478341e+001 -6.546077e+001 -5.434402e+001 -7.361430e-002 1.352754e+002
545300113.25028 -6.819026e-001 1.591301e+002 -6.397462e+001 -6.004943e+001 -6.648239e+001 -5.450229e+001 -7.158259e-002 1.353626e+002
545677614.19404 -6.806693e-001 1.589209e+002 -6.457929e+001 -5.672987e+001 -6.666539e+001 -5.460091e+001 -6.939784e-002 1.354586e+002
546055115.13779 -6.857772e-001 1.587478e+002 -6.438977e+001 -5.750693e+001 -6.525027e+001 -5.735103e+001 -7.031111e-002 1.355870e+002
546432616.08154 -6.858295e-001 1.584466e+002 -6.423761e+001 -5.718499e+001 -6.499100e+001 -5.941993e+001 -6.591781e-002 1.356952e+002
546810117.02529 -6.869687e-001 1.581595e+002 -6.498563e+001 -5.811747e+001 -6.482790e+001 -5.428433e+001 -6.292368e-002 1.358043e+002
547187617.96904 -6.873381e-001 1.579872e+002 -6.374304e+001 -6.169538e+001 -6.598390e+001 -6.164984e+001 -6.305566e-002 1.359202e+002
547565118.9128 -6.920491e-001 1.577598e+002 -6.344473e+001 -6.158234e+001 -6.451057e+001 -6.003292e+001 -6.494924e-002 1.360174e+002
547942619.85655 -6.981232e-001 1.574691e+002 -6.306164e+001 -6.217265e+001 -6.535268e+001 -5.924411e+001 -6.429440e-002 1.361270e+002
548320120.8003 -6.996861e-001 1.572050e+002 -6.440424e+001 -6.079780e+001 -6.616363e+001 -6.204427e+001 -6.960215e-002 1.362421e+002
548697621.74405 -7.043952e-001 1.570110e+002 -6.458209e+001 -6.726410e+001 -6.590961e+001 -6.123607e+001 -6.955653e-002 1.363219e+002
549075122.68781 -7.080518e-001 1.567546e+002 -6.428097e+001 -6.655518e+001 -6.567281e+001 -6.037815e+001 -7.202291e-002 1.364791e+002
549452623.63156 -7.125411e-001 1.565255e+002 -6.316658e+001 -6.961774e+001 -6.430625e+001 -6.257158e+001 -7.684684e-002 1.365023e+002
549830124.57531 -7.139294e-001 1.562576e+002 -6.372967e+001 -6.928523e+001 -6.512591e+001 -6.638490e+001 -7.895414e-002 1.366042e+002
550207625.51906 -7.172019e-001 1.559580e+002 -6.380518e+001 -7.252841e+001 -6.415024e+001 -5.871418e+001 -8.521666e-002 1.366497e+002
550585126.46282 -7.222885e-001 1.556675e+002 -6.361204e+001 -6.899902e+001 -6.449178e+001 -6.732125e+001 -8.690733e-002 1.366927e+002
550962627.40657 -7.243243e-001 1.554106e+002 -6.393015e+001 -7.322221e+001 -6.376041e+001 -6.827061e+001 -9.354997e-002 1.367433e+002
551340128.35032 -7.295526e-001 1.551841e+002 -6.475359e+001 -6.801026e+001 -6.487154e+001 -6.898306e+001 -1.018303e-001 1.367956e+002
551717629.29407 -7.374282e-001 1.548478e+002 -6.331013e+001 -7.741407e+001 -6.517188e+001 -6.393102e+001 -1.033222e-001 1.368003e+002
552095130.23783 -7.404422e-001 1.545990e+002 -6.343981e+001 -7.675550e+001 -6.494873e+001 -7.060516e+001 -1.076435e-001 1.367956e+002
552472631.18158 -7.461975e-001 1.543241e+002 -6.339308e+001 -7.938192e+001 -6.384235e+001 -7.147083e+001 -1.184052e-001 1.367855e+002
552850132.12533 -7.498933e-001 1.541151e+002 -6.260159e+001 -8.104499e+001 -6.374070e+001 -7.590408e+001 -1.223905e-001 1.367723e+002
553227633.06908 -7.594020e-001 1.537808e+002 -6.322031e+001 -7.656104e+001 -6.384895e+001 -7.342467e+001 -1.301614e-001 1.367504e+002
553605134.01284 -7.624245e-001 1.535309e+002 -6.482885e+001 -7.429015e+001 -6.399695e+001 -7.299355e+001 -1.357245e-001 1.366899e+002
553982634.95659 -7.737545e-001 1.533121e+002 -6.248462e+001 -8.026981e+001 -6.449811e+001 -7.533456e+001 -1.448029e-001 1.366279e+002
554360135.90034 -7.859062e-001 1.530660e+002 -6.487203e+001 -7.702862e+001 -6.457232e+001 -7.127267e+001 -1.480866e-001 1.365285e+002
554737636.84409 -7.891320e-001 1.527731e+002 -6.279941e+001 -8.235870e+001 -6.409083e+001 -7.293672e+001 -1.543653e-001 1.364233e+002
555115137.78784 -7.937768e-001 1.525117e+002 -6.233945e+001 -7.908601e+001 -6.364792e+001 -7.769387e+001 -1.601387e-001 1.363007e+002
