!Agilent Technologies,E8364B,US42250235,A.06.04.32
!Agilent E8364B: A.06.04.32
!Date: Thursday, October 01, 2020 16:07:02
!Correction: S11(Full 2 Port(1,2)) S21(Full 2 Port(1,2)) S12(Full 2 Port(1,2)) S22(Full 2 Port(1,2)) 
!S2P File: Measurements: S11, S21, S12, S22:
# Hz S  dB   R 50
500000000 -2.271802e-001 -1.752861e+002 -7.226160e+001 -9.682445e+001 -7.233807e+001 -9.260317e+001 2.036874e-002 1.435364e+002
500377500.94375 -2.299011e-001 -1.755166e+002 -6.924843e+001 -1.006165e+002 -7.236507e+001 -1.013670e+002 1.783177e-002 1.437311e+002
500755001.8875 -2.305084e-001 -1.756447e+002 -7.261147e+001 -1.067374e+002 -7.314985e+001 -9.508620e+001 2.037588e-002 1.438818e+002
501132502.83126 -2.392059e-001 -1.758408e+002 -7.236748e+001 -8.255336e+001 -6.977449e+001 -1.061012e+002 1.455096e-002 1.440381e+002
501510003.77501 -2.403720e-001 -1.760331e+002 -7.253846e+001 -9.565894e+001 -7.110274e+001 -1.024664e+002 1.298968e-002 1.441997e+002
501887504.71876 -2.449646e-001 -1.762571e+002 -7.388448e+001 -7.819641e+001 -7.182178e+001 -1.032118e+002 8.227624e-003 1.443107e+002
502265005.66251 -2.501408e-001 -1.764478e+002 -7.040583e+001 -1.002157e+002 -7.039195e+001 -1.059145e+002 4.600728e-003 1.444524e+002
502642506.60627 -2.506546e-001 -1.766617e+002 -7.106976e+001 -9.025520e+001 -7.095858e+001 -1.053589e+002 -5.951838e-004 1.446188e+002
503020007.55002 -2.588359e-001 -1.768620e+002 -7.036334e+001 -1.000905e+002 -7.333479e+001 -1.165033e+002 -8.769364e-003 1.446427e+002
503397508.49377 -2.578636e-001 -1.770448e+002 -7.738186e+001 -1.064442e+002 -7.037011e+001 -9.952100e+001 -9.505886e-003 1.447376e+002
503775009.43752 -2.566515e-001 -1.773523e+002 -7.291708e+001 -9.373506e+001 -7.219461e+001 -9.785464e+001 -2.288150e-002 1.447901e+002
504152510.38128 -2.643151e-001 -1.775018e+002 -7.092828e+001 -1.048225e+002 -6.939314e+001 -1.057035e+002 -2.663660e-002 1.448392e+002
504530011.32503 -2.642074e-001 -1.777512e+002 -6.955526e+001 -1.001095e+002 -7.119444e+001 -1.155410e+002 -3.704326e-002 1.448655e+002
504907512.26878 -2.696792e-001 -1.778733e+002 -7.044780e+001 -1.162559e+002 -6.902283e+001 -1.018534e+002 -4.463766e-002 1.448671e+002
505285013.21253 -2.759310e-001 -1.780726e+002 -7.012616e+001 -1.048030e+002 -7.094592e+001 -9.398249e+001 -5.224327e-002 1.448693e+002
505662514.15629 -2.745695e-001 -1.783071e+002 -7.312278e+001 -9.907991e+001 -6.962335e+001 -1.037898e+002 -5.816643e-002 1.448185e+002
506040015.10004 -2.791573e-001 -1.785576e+002 -7.060883e+001 -9.200133e+001 -6.845687e+001 -1.166859e+002 -7.169742e-002 1.447406e+002
506417516.04379 -2.817734e-001 -1.787844e+002 -7.083662e+001 -1.161565e+002 -7.199070e+001 -1.124156e+002 -7.751936e-002 1.446701e+002
506795016.98754 -2.857726e-001 -1.789375e+002 -6.997544e+001 -1.209933e+002 -6.812715e+001 -1.246735e+002 -8.437364e-002 1.445448e+002
507172517.93129 -2.886722e-001 -1.791515e+002 -7.029499e+001 -1.177721e+002 -6.916219e+001 -1.109008e+002 -9.090855e-002 1.444220e+002
507550018.87505 -2.942897e-001 -1.793251e+002 -6.797050e+001 -1.093183e+002 -6.860847e+001 -1.110790e+002 -9.948491e-002 1.442776e+002
507927519.8188 -2.995479e-001 -1.795698e+002 -7.353519e+001 -1.406255e+002 -7.091573e+001 -1.171656e+002 -1.099766e-001 1.440994e+002
508305020.76255 -3.003737e-001 -1.798280e+002 -7.141412e+001 -1.073596e+002 -6.989407e+001 -1.091990e+002 -1.162528e-001 1.438970e+002
508682521.7063 -3.048062e-001 1.799756e+002 -7.097063e+001 -1.200975e+002 -7.099554e+001 -1.270434e+002 -1.262307e-001 1.436579e+002
509060022.65006 -3.095410e-001 1.798237e+002 -7.113509e+001 -1.296396e+002 -7.099945e+001 -1.171590e+002 -1.276194e-001 1.434542e+002
509437523.59381 -3.121173e-001 1.795414e+002 -7.029308e+001 -1.303312e+002 -6.876097e+001 -1.127349e+002 -1.310568e-001 1.432294e+002
509815024.53756 -3.145916e-001 1.793695e+002 -6.972867e+001 -1.136411e+002 -6.891474e+001 -1.147639e+002 -1.347648e-001 1.429627e+002
510192525.48131 -3.234030e-001 1.791937e+002 -6.953213e+001 -1.282472e+002 -6.898674e+001 -1.196576e+002 -1.391946e-001 1.426911e+002
510570026.42507 -3.291321e-001 1.789198e+002 -6.986404e+001 -1.225925e+002 -7.052677e+001 -1.223378e+002 -1.415530e-001 1.424230e+002
510947527.36882 -3.297230e-001 1.787562e+002 -7.095867e+001 -1.186665e+002 -6.897243e+001 -1.240047e+002 -1.438905e-001 1.421393e+002
511325028.31257 -3.349303e-001 1.785846e+002 -7.008411e+001 -1.244621e+002 -6.876077e+001 -1.254263e+002 -1.447598e-001 1.418457e+002
511702529.25632 -3.356194e-001 1.782949e+002 -6.879047e+001 -1.241855e+002 -6.920121e+001 -1.221065e+002 -1.450090e-001 1.415772e+002
512080030.20008 -3.447708e-001 1.780816e+002 -7.225410e+001 -1.273928e+002 -6.996785e+001 -1.260716e+002 -1.415097e-001 1.412801e+002
512457531.14383 -3.476372e-001 1.779493e+002 -6.956137e+001 -1.221628e+002 -6.761396e+001 -1.225177e+002 -1.406946e-001 1.410158e+002
512835032.08758 -3.513622e-001 1.776790e+002 -6.963844e+001 -1.267235e+002 -6.957513e+001 -1.313288e+002 -1.374646e-001 1.407561e+002
513212533.03133 -3.525679e-001 1.774381e+002 -6.854444e+001 -1.363510e+002 -6.871856e+001 -1.352098e+002 -1.358398e-001 1.404727e+002
513590033.97508 -3.577017e-001 1.772325e+002 -6.976229e+001 -1.293025e+002 -7.125432e+001 -1.320793e+002 -1.274567e-001 1.402388e+002
513967534.91884 -3.629613e-001 1.771048e+002 -7.020480e+001 -1.279876e+002 -6.827264e+001 -1.311106e+002 -1.211401e-001 1.400277e+002
514345035.86259 -3.629786e-001 1.768287e+002 -6.955004e+001 -1.439920e+002 -6.903505e+001 -1.466254e+002 -1.186555e-001 1.397890e+002
514722536.80634 -3.643113e-001 1.766456e+002 -7.019627e+001 -1.270267e+002 -6.882850e+001 -1.420775e+002 -1.121777e-001 1.396203e+002
515100037.75009 -3.677649e-001 1.764915e+002 -7.092484e+001 -1.378335e+002 -6.913372e+001 -1.345233e+002 -1.015088e-001 1.394336e+002
515477538.69385 -3.696577e-001 1.761710e+002 -6.916157e+001 -1.391296e+002 -6.886607e+001 -1.487011e+002 -9.359796e-002 1.392682e+002
515855039.6376 -3.715848e-001 1.760485e+002 -7.005914e+001 -1.434532e+002 -6.867673e+001 -1.371703e+002 -8.259583e-002 1.391513e+002
516232540.58135 -3.788691e-001 1.758234e+002 -7.138255e+001 -1.362634e+002 -6.872832e+001 -1.281351e+002 -7.689947e-002 1.390485e+002
516610041.5251 -3.832289e-001 1.755669e+002 -6.948290e+001 -1.232914e+002 -6.833524e+001 -1.391474e+002 -6.997771e-002 1.389744e+002
516987542.46886 -3.856343e-001 1.754099e+002 -6.932098e+001 -1.368670e+002 -6.998788e+001 -1.372267e+002 -6.141824e-002 1.389202e+002
517365043.41261 -3.891683e-001 1.751664e+002 -6.924500e+001 -1.393775e+002 -6.811078e+001 -1.384665e+002 -5.636264e-002 1.388706e+002
517742544.35636 -3.920856e-001 1.749007e+002 -6.873787e+001 -1.348462e+002 -7.039519e+001 -1.420375e+002 -4.397519e-002 1.388887e+002
518120045.30011 -3.994289e-001 1.747769e+002 -6.959589e+001 -1.421359e+002 -6.769188e+001 -1.444597e+002 -3.560510e-002 1.388972e+002
518497546.24387 -3.994786e-001 1.745409e+002 -7.129754e+001 -1.400230e+002 -6.907522e+001 -1.503141e+002 -2.740747e-002 1.389496e+002
518875047.18762 -4.052629e-001 1.743305e+002 -6.983534e+001 -1.427434e+002 -6.791368e+001 -1.438760e+002 -1.760824e-002 1.390345e+002
519252548.13137 -4.136484e-001 1.741477e+002 -7.055013e+001 -1.478394e+002 -6.815709e+001 -1.493905e+002 -1.255127e-002 1.391134e+002
519630049.07512 -4.219995e-001 1.739414e+002 -6.982148e+001 -1.588963e+002 -6.874303e+001 -1.494789e+002 -3.422386e-003 1.391703e+002
520007550.01888 -4.198955e-001 1.736394e+002 -7.196018e+001 -1.366797e+002 -6.822304e+001 -1.486083e+002 -4.165084e-003 1.393683e+002
520385050.96263 -4.245226e-001 1.734949e+002 -6.913089e+001 -1.386246e+002 -6.873754e+001 -1.505996e+002 6.299143e-004 1.394865e+002
520762551.90638 -4.306111e-001 1.733266e+002 -6.808400e+001 -1.450925e+002 -6.686855e+001 -1.455004e+002 6.776815e-003 1.396449e+002
521140052.85013 -4.339906e-001 1.730514e+002 -6.887575e+001 -1.532510e+002 -6.761434e+001 -1.511123e+002 1.174432e-002 1.398124e+002
521517553.79388 -4.389316e-001 1.728718e+002 -7.031078e+001 -1.518311e+002 -6.859463e+001 -1.611321e+002 1.552073e-002 1.400140e+002
521895054.73764 -4.424706e-001 1.726975e+002 -6.997391e+001 -1.386417e+002 -6.628914e+001 -1.534793e+002 1.636444e-002 1.401901e+002
522272555.68139 -4.436136e-001 1.724837e+002 -6.951223e+001 -1.545899e+002 -6.754415e+001 -1.406294e+002 1.825101e-002 1.403955e+002
522650056.62514 -4.496353e-001 1.722702e+002 -6.797579e+001 -1.528057e+002 -6.833282e+001 -1.555960e+002 1.403759e-002 1.405674e+002
523027557.56889 -4.549964e-001 1.720815e+002 -6.873087e+001 -1.519231e+002 -6.810475e+001 -1.664486e+002 1.453588e-002 1.407835e+002
523405058.51265 -4.540956e-001 1.718384e+002 -6.951190e+001 -1.454629e+002 -7.026717e+001 -1.491024e+002 1.358980e-002 1.410278e+002
523782559.4564 -4.609549e-001 1.716172e+002 -6.829171e+001 -1.641429e+002 -6.710745e+001 -1.597456e+002 1.051134e-002 1.411640e+002
524160060.40015 -4.661629e-001 1.713666e+002 -6.702052e+001 -1.473026e+002 -6.858771e+001 -1.524642e+002 6.741812e-003 1.413319e+002
524537561.3439 -4.672842e-001 1.712204e+002 -6.839655e+001 -1.560143e+002 -6.836265e+001 -1.600239e+002 -6.589126e-004 1.415112e+002
524915062.28766 -4.722997e-001 1.709516e+002 -6.986909e+001 -1.317332e+002 -6.860310e+001 -1.448143e+002 -4.580420e-003 1.416712e+002
525292563.23141 -4.751117e-001 1.706707e+002 -6.749731e+001 -1.498670e+002 -6.721274e+001 -1.613160e+002 -1.126460e-002 1.418076e+002
525670064.17516 -4.788017e-001 1.704992e+002 -6.822644e+001 -1.636899e+002 -6.807796e+001 -1.565766e+002 -1.994931e-002 1.419160e+002
526047565.11891 -4.854371e-001 1.703049e+002 -6.832516e+001 -1.430171e+002 -6.704185e+001 -1.532957e+002 -2.742029e-002 1.420231e+002
526425066.06267 -4.924253e-001 1.700144e+002 -6.746765e+001 -1.433896e+002 -6.731087e+001 -1.537977e+002 -3.536283e-002 1.421242e+002
526802567.00642 -4.946818e-001 1.698077e+002 -6.756924e+001 -1.574969e+002 -6.616926e+001 -1.608059e+002 -4.454274e-002 1.421808e+002
527180067.95017 -5.009833e-001 1.696392e+002 -6.807198e+001 -1.593541e+002 -6.634238e+001 -1.671275e+002 -5.240863e-002 1.422171e+002
527557568.89392 -5.068198e-001 1.693835e+002 -6.831048e+001 -1.571352e+002 -6.670318e+001 -1.589882e+002 -5.841267e-002 1.422473e+002
527935069.83767 -5.156795e-001 1.692150e+002 -6.759212e+001 -1.655705e+002 -6.531646e+001 -1.623092e+002 -6.979454e-002 1.422444e+002
528312570.78143 -5.171823e-001 1.689656e+002 -6.642026e+001 -1.488986e+002 -6.491518e+001 -1.549246e+002 -7.499640e-002 1.422149e+002
528690071.72518 -5.196530e-001 1.687762e+002 -6.769180e+001 -1.623402e+002 -6.424541e+001 -1.681020e+002 -8.509454e-002 1.421558e+002
529067572.66893 -5.268011e-001 1.685285e+002 -6.724182e+001 -1.695792e+002 -6.548173e+001 -1.593334e+002 -1.002214e-001 1.420725e+002
529445073.61268 -5.271459e-001 1.683307e+002 -6.645348e+001 -1.656185e+002 -6.498283e+001 -1.633686e+002 -1.092004e-001 1.419747e+002
529822574.55644 -5.326169e-001 1.681055e+002 -6.662205e+001 -1.748550e+002 -6.472705e+001 -1.699403e+002 -1.208353e-001 1.418215e+002
530200075.50019 -5.382060e-001 1.677827e+002 -6.660999e+001 -1.621382e+002 -6.556129e+001 -1.748877e+002 -1.261086e-001 1.416582e+002
530577576.44394 -5.467883e-001 1.675871e+002 -6.597602e+001 1.772845e+002 -6.501066e+001 -1.782476e+002 -1.362056e-001 1.414980e+002
530955077.38769 -5.486089e-001 1.673485e+002 -6.763471e+001 -1.742138e+002 -6.446623e+001 -1.770455e+002 -1.439964e-001 1.412966e+002
531332578.33145 -5.512311e-001 1.671699e+002 -6.637681e+001 -1.701741e+002 -6.432731e+001 1.781765e+002 -1.514508e-001 1.410606e+002
531710079.2752 -5.563850e-001 1.669263e+002 -6.522845e+001 -1.757563e+002 -6.556535e+001 1.760233e+002 -1.621089e-001 1.408164e+002
532087580.21895 -5.641995e-001 1.667513e+002 -6.559948e+001 1.785643e+002 -6.440347e+001 1.703611e+002 -1.643332e-001 1.405547e+002
532465081.1627 -5.653217e-001 1.664733e+002 -6.549008e+001 1.783029e+002 -6.423251e+001 1.754604e+002 -1.726438e-001 1.402962e+002
532842582.10646 -5.707369e-001 1.663050e+002 -6.645744e+001 1.734516e+002 -6.477534e+001 1.771457e+002 -1.778760e-001 1.400122e+002
533220083.05021 -5.767461e-001 1.660807e+002 -6.539191e+001 1.721008e+002 -6.470297e+001 1.736626e+002 -1.822935e-001 1.396976e+002
533597583.99396 -5.806109e-001 1.658383e+002 -6.608765e+001 1.668008e+002 -6.471608e+001 1.679628e+002 -1.844887e-001 1.394296e+002
533975084.93771 -5.841119e-001 1.655429e+002 -6.454788e+001 1.718730e+002 -6.508994e+001 1.692587e+002 -1.880765e-001 1.390939e+002
534352585.88146 -5.907156e-001 1.653375e+002 -6.485096e+001 1.669521e+002 -6.482845e+001 1.625750e+002 -1.850435e-001 1.387703e+002
534730086.82522 -5.961046e-001 1.651370e+002 -6.663018e+001 1.631796e+002 -6.541100e+001 1.676825e+002 -1.893001e-001 1.384142e+002
535107587.76897 -5.994672e-001 1.649270e+002 -6.573561e+001 1.642709e+002 -6.538696e+001 1.599575e+002 -1.901853e-001 1.381627e+002
535485088.71272 -6.027105e-001 1.646347e+002 -6.737531e+001 1.653434e+002 -6.491859e+001 1.607736e+002 -1.859759e-001 1.378383e+002
535862589.65647 -6.098802e-001 1.644016e+002 -6.517561e+001 1.644650e+002 -6.418788e+001 1.609796e+002 -1.813643e-001 1.375476e+002
536240090.60023 -6.091499e-001 1.642135e+002 -6.545629e+001 1.610642e+002 -6.471438e+001 1.579363e+002 -1.802874e-001 1.372643e+002
536617591.54398 -6.203818e-001 1.639207e+002 -6.539195e+001 1.569883e+002 -6.379402e+001 1.521533e+002 -1.756704e-001 1.369583e+002
536995092.48773 -6.270525e-001 1.638025e+002 -6.555547e+001 1.591951e+002 -6.465989e+001 1.557947e+002 -1.695084e-001 1.367173e+002
537372593.43148 -6.294909e-001 1.634868e+002 -6.527131e+001 1.571489e+002 -6.458539e+001 1.559792e+002 -1.637322e-001 1.364773e+002
537750094.37524 -6.348978e-001 1.633074e+002 -6.639948e+001 1.570304e+002 -6.526874e+001 1.515864e+002 -1.581494e-001 1.362502e+002
538127595.31899 -6.402739e-001 1.631052e+002 -6.503874e+001 1.569852e+002 -6.517517e+001 1.466994e+002 -1.535852e-001 1.360332e+002
538505096.26274 -6.445968e-001 1.629011e+002 -6.587866e+001 1.550933e+002 -6.478764e+001 1.493075e+002 -1.451246e-001 1.358539e+002
538882597.20649 -6.472312e-001 1.626687e+002 -6.657615e+001 1.557441e+002 -6.432438e+001 1.488383e+002 -1.380454e-001 1.356366e+002
539260098.15025 -6.548055e-001 1.623708e+002 -6.724795e+001 1.529152e+002 -6.512826e+001 1.401920e+002 -1.314660e-001 1.354756e+002
539637599.094 -6.605732e-001 1.621616e+002 -6.694409e+001 1.483972e+002 -6.532582e+001 1.446590e+002 -1.241094e-001 1.353304e+002
540015100.03775 -6.661557e-001 1.619498e+002 -6.667875e+001 1.494870e+002 -6.560671e+001 1.372539e+002 -1.143730e-001 1.352908e+002
540392600.9815 -6.692541e-001 1.618008e+002 -6.692006e+001 1.527304e+002 -6.650797e+001 1.511698e+002 -1.095007e-001 1.351311e+002
540770101.92525 -6.797848e-001 1.615493e+002 -6.776492e+001 1.503670e+002 -6.462121e+001 1.518245e+002 -9.836464e-002 1.350671e+002
541147602.86901 -6.787502e-001 1.613200e+002 -6.653934e+001 1.555141e+002 -6.553973e+001 1.476304e+002 -9.243967e-002 1.350046e+002
541525103.81276 -6.803045e-001 1.610512e+002 -6.582446e+001 1.475883e+002 -6.667982e+001 1.491815e+002 -8.546393e-002 1.349445e+002
541902604.75651 -6.892101e-001 1.609273e+002 -6.668562e+001 1.475552e+002 -6.609614e+001 1.372504e+002 -8.162180e-002 1.349379e+002
542280105.70026 -6.982747e-001 1.606685e+002 -6.568330e+001 1.547092e+002 -6.470949e+001 1.469478e+002 -7.024080e-002 1.349426e+002
542657606.64402 -6.926405e-001 1.604215e+002 -6.516133e+001 1.503520e+002 -6.485474e+001 1.414314e+002 -6.710906e-002 1.349417e+002
543035107.58777 -7.019461e-001 1.602878e+002 -6.572071e+001 1.556795e+002 -6.616065e+001 1.482601e+002 -5.905695e-002 1.349614e+002
543412608.53152 -7.029279e-001 1.599970e+002 -6.590632e+001 1.451299e+002 -6.378734e+001 1.424207e+002 -5.659451e-002 1.350068e+002
543790109.47527 -7.047039e-001 1.598206e+002 -6.583842e+001 1.444582e+002 -6.413271e+001 1.439891e+002 -4.973171e-002 1.350510e+002
544167610.41903 -7.131761e-001 1.596558e+002 -6.539860e+001 1.388627e+002 -6.397820e+001 1.406574e+002 -4.474982e-002 1.351193e+002
544545111.36278 -7.091635e-001 1.594194e+002 -6.557487e+001 1.418227e+002 -6.506015e+001 1.359601e+002 -4.433755e-002 1.352126e+002
544922612.30653 -7.122934e-001 1.591354e+002 -6.647800e+001 1.332403e+002 -6.497889e+001 1.382817e+002 -3.394264e-002 1.352995e+002
545300113.25028 -7.143581e-001 1.589106e+002 -6.564847e+001 1.452459e+002 -6.481942e+001 1.324156e+002 -3.309232e-002 1.353918e+002
545677614.19404 -7.127107e-001 1.587099e+002 -6.539876e+001 1.385382e+002 -6.462093e+001 1.357572e+002 -3.077750e-002 1.354820e+002
546055115.13779 -7.143654e-001 1.585191e+002 -6.551680e+001 1.431870e+002 -6.429046e+001 1.356124e+002 -3.170577e-002 1.355958e+002
546432616.08154 -7.174177e-001 1.582219e+002 -6.578167e+001 1.323886e+002 -6.391827e+001 1.309608e+002 -2.938768e-002 1.356973e+002
546810117.02529 -7.178594e-001 1.579222e+002 -6.550243e+001 1.362717e+002 -6.359417e+001 1.232990e+002 -2.508110e-002 1.358192e+002
547187617.96904 -7.209405e-001 1.577801e+002 -6.559337e+001 1.329839e+002 -6.535095e+001 1.267158e+002 -2.392306e-002 1.359213e+002
547565118.9128 -7.249669e-001 1.574980e+002 -6.437949e+001 1.341189e+002 -6.393081e+001 1.269679e+002 -2.623662e-002 1.360253e+002
547942619.85655 -7.331110e-001 1.572539e+002 -6.513704e+001 1.338846e+002 -6.503875e+001 1.304137e+002 -2.631205e-002 1.361369e+002
548320120.8003 -7.325791e-001 1.569581e+002 -6.638390e+001 1.413494e+002 -6.428015e+001 1.303949e+002 -3.157839e-002 1.362363e+002
548697621.74405 -7.399045e-001 1.567615e+002 -6.553481e+001 1.356784e+002 -6.547801e+001 1.339966e+002 -2.970633e-002 1.363347e+002
549075122.68781 -7.432120e-001 1.564775e+002 -6.631367e+001 1.262638e+002 -6.478671e+001 1.258270e+002 -3.402638e-002 1.364987e+002
549452623.63156 -7.510703e-001 1.562787e+002 -6.540917e+001 1.216248e+002 -6.460714e+001 1.252360e+002 -3.724242e-002 1.365271e+002
549830124.57531 -7.514685e-001 1.560255e+002 -6.400885e+001 1.306606e+002 -6.403932e+001 1.271964e+002 -4.058521e-002 1.366273e+002
550207625.51906 -7.585269e-001 1.557302e+002 -6.517422e+001 1.310353e+002 -6.438727e+001 1.277292e+002 -4.430776e-002 1.366870e+002
550585126.46282 -7.614613e-001 1.554354e+002 -6.415916e+001 1.261297e+002 -6.461523e+001 1.230953e+002 -4.834133e-002 1.367485e+002
550962627.40657 -7.655573e-001 1.551932e+002 -6.588748e+001 1.298475e+002 -6.500051e+001 1.247792e+002 -5.237893e-002 1.367822e+002
551340128.35032 -7.685193e-001 1.549681e+002 -6.457063e+001 1.280344e+002 -6.366122e+001 1.228867e+002 -6.030025e-002 1.368232e+002
551717629.29407 -7.751201e-001 1.546291e+002 -6.565889e+001 1.200550e+002 -6.407645e+001 1.247056e+002 -5.959345e-002 1.368520e+002
552095130.23783 -7.779484e-001 1.543686e+002 -6.433290e+001 1.151664e+002 -6.359764e+001 1.170147e+002 -6.750690e-002 1.368633e+002
552472631.18158 -7.846600e-001 1.540948e+002 -6.460215e+001 1.210754e+002 -6.409015e+001 1.205944e+002 -7.272516e-002 1.368488e+002
552850132.12533 -7.881564e-001 1.538398e+002 -6.532440e+001 1.157961e+002 -6.390485e+001 1.169860e+002 -8.076992e-002 1.368366e+002
553227633.06908 -7.985948e-001 1.535323e+002 -6.395707e+001 1.205541e+002 -6.327090e+001 1.169122e+002 -8.690615e-002 1.368085e+002
553605134.01284 -8.063028e-001 1.533113e+002 -6.520997e+001 1.238078e+002 -6.368299e+001 1.161705e+002 -9.126419e-002 1.367571e+002
553982634.95659 -8.162382e-001 1.529965e+002 -6.513594e+001 1.217540e+002 -6.440564e+001 1.137778e+002 -1.005917e-001 1.366971e+002
554360135.90034 -8.275095e-001 1.527811e+002 -6.510818e+001 1.125659e+002 -6.422842e+001 1.158957e+002 -1.043633e-001 1.366031e+002
554737636.84409 -8.346333e-001 1.524861e+002 -6.504492e+001 1.187319e+002 -6.402279e+001 1.156124e+002 -1.139407e-001 1.365024e+002
555115137.78784 -8.422809e-001 1.522197e+002 -6.422819e+001 1.157097e+002 -6.468127e+001 1.143486e+002 -1.159291e-001 1.363852e+002
555492638.7316 -8.510866e-001 1.519872e+002 -6.339447e+001 1.116845e+002 -6.261333e+001 1.106334e+002 -1.250651e-001 1.362612e+002
