!Agilent Technologies,E8364B,US42250235,A.06.04.32
!Agilent E8364B: A.06.04.32
!Date: Thursday, October 01, 2020 15:54:40
!Correction: S11(Full 2 Port(1,2)) S21(Full 2 Port(1,2)) S12(Full 2 Port(1,2)) S22(Full 2 Port(1,2)) 
!S2P File: Measurements: S11, S21, S12, S22:
# Hz S  dB   R 50
500000000 -1.863284e-001 -1.752297e+002 -8.370767e+001 -8.428556e+001 -8.509712e+001 -9.826201e+001 8.050898e-002 1.420005e+002
500377500.94375 -1.879218e-001 -1.754107e+002 -8.354365e+001 -1.276843e+002 -8.192364e+001 -1.312977e+002 8.106992e-002 1.421591e+002
500755001.8875 -1.846700e-001 -1.756053e+002 -7.782660e+001 -1.334030e+002 -7.878150e+001 -9.172964e+001 8.245111e-002 1.422720e+002
501132502.83126 -1.925686e-001 -1.758161e+002 -8.254896e+001 -1.224404e+002 -8.532989e+001 1.669863e+002 7.614816e-002 1.424171e+002
501510003.77501 -1.946586e-001 -1.759842e+002 -8.031295e+001 -1.007426e+002 -8.150642e+001 -1.451867e+002 7.393382e-002 1.425148e+002
501887504.71876 -1.936458e-001 -1.762605e+002 -7.959933e+001 -1.071668e+002 -7.765945e+001 -5.695811e+001 7.179531e-002 1.426200e+002
502265005.66251 -1.988456e-001 -1.764169e+002 -8.359902e+001 -1.047523e+002 -7.854683e+001 -1.234233e+002 6.744141e-002 1.427355e+002
502642506.60627 -1.960980e-001 -1.766538e+002 -7.982186e+001 -1.044911e+002 -7.923515e+001 -1.006522e+002 6.573937e-002 1.428560e+002
503020007.55002 -2.026914e-001 -1.768758e+002 -7.849154e+001 -1.139189e+002 -8.558620e+001 -6.081514e+001 6.038720e-002 1.428741e+002
503397508.49377 -2.025539e-001 -1.770189e+002 -8.659826e+001 -8.158585e+001 -8.404697e+001 -1.244693e+002 5.668752e-002 1.429458e+002
503775009.43752 -2.031903e-001 -1.773284e+002 -8.620635e+001 -1.656894e+002 -8.466274e+001 -9.813699e+001 4.929195e-002 1.429867e+002
504152510.38128 -2.082667e-001 -1.774619e+002 -8.295747e+001 -6.103704e+000 -8.231390e+001 -6.613441e+001 4.541643e-002 1.429999e+002
504530011.32503 -2.058086e-001 -1.777456e+002 -7.816461e+001 -1.695409e+002 -8.989019e+001 -1.176549e+002 3.619323e-002 1.430223e+002
504907512.26878 -2.144453e-001 -1.778900e+002 -7.904096e+001 -1.522187e+002 -8.072543e+001 -9.619312e+001 3.191121e-002 1.430177e+002
505285013.21253 -2.162211e-001 -1.781156e+002 -7.728991e+001 -1.615150e+002 -8.216127e+001 -6.770221e+001 2.347610e-002 1.430291e+002
505662514.15629 -2.132562e-001 -1.783375e+002 -7.751998e+001 -9.977299e+001 -8.467860e+001 -1.283643e+002 2.039626e-002 1.429740e+002
506040015.10004 -2.191440e-001 -1.785314e+002 -8.730986e+001 1.735725e+002 -8.191668e+001 -1.342653e+002 1.218834e-002 1.429135e+002
506417516.04379 -2.172049e-001 -1.788071e+002 -8.292526e+001 -1.109670e+002 -7.893125e+001 -1.236159e+002 8.696207e-003 1.428444e+002
506795016.98754 -2.267261e-001 -1.789465e+002 -7.792550e+001 -1.756514e+002 -7.690752e+001 -1.167870e+002 1.834104e-003 1.427311e+002
507172517.93129 -2.258680e-001 -1.791959e+002 -8.531508e+001 3.509873e+001 -8.058693e+001 -8.098273e+001 -8.315286e-004 1.426437e+002
507550018.87505 -2.296775e-001 -1.793716e+002 -7.793532e+001 -1.641639e+002 -7.791533e+001 -7.837530e+001 -9.772311e-003 1.425008e+002
507927519.8188 -2.319465e-001 -1.796281e+002 -8.247724e+001 -1.487429e+002 -8.509660e+001 -1.779018e+002 -1.470320e-002 1.423561e+002
508305020.76255 -2.313150e-001 -1.798871e+002 -7.527009e+001 1.703010e+002 -7.977779e+001 -1.227828e+002 -2.131224e-002 1.422026e+002
508682521.7063 -2.339928e-001 1.798900e+002 -7.823228e+001 -1.447931e+002 -8.253283e+001 -1.313945e+002 -3.047743e-002 1.420411e+002
509060022.65006 -2.396832e-001 1.796974e+002 -8.031711e+001 -1.326015e+002 -8.218159e+001 -1.388914e+002 -3.020987e-002 1.418111e+002
509437523.59381 -2.432465e-001 1.794406e+002 -7.779445e+001 -1.409761e+002 -8.034822e+001 -1.057006e+002 -3.002103e-002 1.416318e+002
509815024.53756 -2.412652e-001 1.792572e+002 -8.216272e+001 -7.953069e+001 -8.404356e+001 -9.486685e+001 -3.460935e-002 1.414041e+002
510192525.48131 -2.508826e-001 1.790451e+002 -7.959853e+001 -1.349891e+002 -8.164896e+001 -1.152451e+002 -3.395235e-002 1.411857e+002
510570026.42507 -2.547225e-001 1.788408e+002 -9.109354e+001 -1.743526e+002 -8.453968e+001 -8.072999e+001 -3.711829e-002 1.409497e+002
510947527.36882 -2.525238e-001 1.786034e+002 -7.750649e+001 -1.662536e+002 -7.968707e+001 -1.095993e+002 -3.912931e-002 1.407070e+002
511325028.31257 -2.574402e-001 1.784169e+002 -8.521324e+001 -1.015788e+002 -7.800990e+001 -1.010502e+002 -3.838599e-002 1.404705e+002
511702529.25632 -2.575224e-001 1.781134e+002 -8.852871e+001 1.436807e+002 -8.045776e+001 -1.218637e+002 -3.800865e-002 1.402351e+002
512080030.20008 -2.651019e-001 1.778905e+002 -8.365309e+001 -7.840577e+001 -7.728926e+001 -1.468078e+002 -3.375075e-002 1.399790e+002
512457531.14383 -2.683388e-001 1.776990e+002 -7.728342e+001 -1.391006e+002 -7.736643e+001 -8.133322e+001 -3.328121e-002 1.397610e+002
512835032.08758 -2.718055e-001 1.774383e+002 -8.169942e+001 -1.252140e+002 -8.312343e+001 -1.159666e+002 -2.941364e-002 1.395327e+002
513212533.03133 -2.741686e-001 1.772060e+002 -8.090543e+001 -1.543459e+002 -7.721607e+001 -1.253169e+002 -2.766713e-002 1.392924e+002
513590033.97508 -2.789761e-001 1.769688e+002 -7.989959e+001 -1.513040e+002 -8.131467e+001 -1.340402e+002 -2.216439e-002 1.390927e+002
513967534.91884 -2.818314e-001 1.767799e+002 -8.030879e+001 -1.396597e+002 -8.176347e+001 -1.413322e+002 -1.653353e-002 1.388501e+002
514345035.86259 -2.832061e-001 1.765264e+002 -7.637720e+001 -1.483127e+002 -7.428142e+001 -1.240134e+002 -1.322801e-002 1.387058e+002
514722536.80634 -2.896030e-001 1.763368e+002 -8.025301e+001 -1.526309e+002 -8.225129e+001 -1.479726e+002 -1.030494e-002 1.385477e+002
515100037.75009 -2.890154e-001 1.761412e+002 -7.828489e+001 -1.548902e+002 -8.030428e+001 -1.270787e+002 -1.413804e-003 1.384004e+002
515477538.69385 -2.945598e-001 1.758549e+002 -7.824139e+001 -1.399384e+002 -7.827518e+001 -1.168411e+002 4.915309e-003 1.382555e+002
515855039.6376 -2.955659e-001 1.756580e+002 -7.646459e+001 -1.480585e+002 -8.260679e+001 -1.301286e+002 1.606728e-002 1.381579e+002
516232540.58135 -3.039786e-001 1.754872e+002 -7.696102e+001 -1.377855e+002 -7.862405e+001 -1.351051e+002 2.007526e-002 1.380740e+002
516610041.5251 -3.083355e-001 1.752350e+002 -8.366090e+001 -1.299388e+002 -7.605707e+001 -1.247363e+002 2.634486e-002 1.380144e+002
516987542.46886 -3.049801e-001 1.749965e+002 -8.353954e+001 -1.771886e+002 -7.970489e+001 -1.508145e+002 3.486537e-002 1.379724e+002
517365043.41261 -3.130636e-001 1.748145e+002 -7.880943e+001 -1.763661e+002 -7.828434e+001 -1.426133e+002 4.005739e-002 1.379207e+002
517742544.35636 -3.165570e-001 1.744989e+002 -8.148304e+001 -1.648273e+002 -8.154100e+001 -1.308769e+002 4.910325e-002 1.379568e+002
518120045.30011 -3.219345e-001 1.743859e+002 -8.126327e+001 -1.449126e+002 -7.652902e+001 -1.463870e+002 5.785605e-002 1.379747e+002
518497546.24387 -3.248747e-001 1.741533e+002 -7.930806e+001 -1.740285e+002 -7.545863e+001 -1.333608e+002 6.430557e-002 1.380227e+002
518875047.18762 -3.236443e-001 1.738992e+002 -8.296181e+001 -1.693727e+002 -7.654221e+001 -1.310726e+002 7.244291e-002 1.380939e+002
519252548.13137 -3.360826e-001 1.737099e+002 -7.753539e+001 1.665491e+002 -7.658585e+001 -1.567382e+002 7.482892e-002 1.381905e+002
519630049.07512 -3.394424e-001 1.734432e+002 -8.273196e+001 -1.616563e+002 -7.780327e+001 -1.635291e+002 8.142063e-002 1.383190e+002
520007550.01888 -3.412508e-001 1.731697e+002 -8.450157e+001 -1.787791e+002 -7.602399e+001 -1.577574e+002 8.792434e-002 1.384451e+002
520385050.96263 -3.429015e-001 1.730135e+002 -7.735578e+001 1.762351e+002 -7.361959e+001 -1.492175e+002 9.167840e-002 1.385492e+002
520762551.90638 -3.488587e-001 1.728133e+002 -7.738890e+001 1.584996e+002 -7.659713e+001 -1.382327e+002 9.524610e-002 1.387185e+002
521140052.85013 -3.521389e-001 1.725812e+002 -8.128409e+001 -1.380306e+002 -8.447334e+001 1.552456e+002 1.016499e-001 1.388782e+002
521517553.79388 -3.547084e-001 1.723337e+002 -8.034126e+001 -1.715425e+002 -8.153015e+001 -1.276491e+002 1.015666e-001 1.390838e+002
521895054.73764 -3.588383e-001 1.721360e+002 -7.720937e+001 1.713305e+002 -7.822305e+001 1.575933e+002 1.049251e-001 1.392483e+002
522272555.68139 -3.605504e-001 1.718749e+002 -7.957422e+001 1.391122e+002 -8.013236e+001 1.591849e+002 1.059134e-001 1.394590e+002
522650056.62514 -3.678277e-001 1.716814e+002 -7.462668e+001 1.752592e+002 -7.923761e+001 1.758808e+002 1.036423e-001 1.396394e+002
523027557.56889 -3.725599e-001 1.714607e+002 -7.518838e+001 1.635779e+002 -8.117039e+001 1.756041e+002 1.009361e-001 1.398532e+002
523405058.51265 -3.716149e-001 1.711512e+002 -9.093155e+001 1.601496e+002 -7.805576e+001 -1.412548e+002 1.021994e-001 1.401041e+002
523782559.4564 -3.797596e-001 1.709799e+002 -7.719207e+001 1.408445e+002 -8.368698e+001 1.379586e+002 1.000035e-001 1.402262e+002
524160060.40015 -3.852477e-001 1.707089e+002 -8.246883e+001 1.676306e+002 -7.906782e+001 -1.423391e+002 9.931848e-002 1.404058e+002
524537561.3439 -3.858908e-001 1.705304e+002 -7.986282e+001 1.410596e+002 -8.368824e+001 -1.719909e+002 9.310491e-002 1.405798e+002
524915062.28766 -3.921718e-001 1.702427e+002 -1.070267e+002 5.856594e+001 -7.905604e+001 -1.454282e+002 8.873092e-002 1.407707e+002
525292563.23141 -3.969980e-001 1.699416e+002 -7.790958e+001 1.327864e+002 -8.755236e+001 -5.043423e+001 8.083818e-002 1.409028e+002
525670064.17516 -3.988593e-001 1.697603e+002 -8.009914e+001 9.175147e+001 -8.656034e+001 -9.183571e+001 7.612000e-002 1.410394e+002
526047565.11891 -4.059290e-001 1.694985e+002 -8.727574e+001 1.147742e+002 -7.885458e+001 -9.042445e+001 7.091659e-002 1.411661e+002
526425066.06267 -4.101077e-001 1.692464e+002 -7.964078e+001 -1.338792e+002 -8.072303e+001 -1.307004e+002 5.640494e-002 1.412661e+002
526802567.00642 -4.148750e-001 1.690127e+002 -8.119524e+001 -1.705005e+002 -8.147086e+001 -1.723541e+002 5.585149e-002 1.412818e+002
527180067.95017 -4.231220e-001 1.688001e+002 -7.959580e+001 1.377267e+002 -8.023370e+001 -1.113499e+002 4.408678e-002 1.414033e+002
527557568.89392 -4.231057e-001 1.685390e+002 -7.823553e+001 -1.624065e+002 -7.766595e+001 -1.152235e+002 3.944465e-002 1.414695e+002
527935069.83767 -4.365610e-001 1.683418e+002 -8.114420e+001 -1.779533e+002 -8.008850e+001 -1.107214e+002 2.810459e-002 1.414599e+002
528312570.78143 -4.379497e-001 1.680705e+002 -7.650695e+001 -1.680543e+002 -7.636803e+001 -1.381852e+002 2.056521e-002 1.414880e+002
528690071.72518 -4.387440e-001 1.678181e+002 -8.416839e+001 -7.220265e+001 -8.050608e+001 -9.202527e+001 1.318594e-002 1.414265e+002
529067572.66893 -4.478036e-001 1.675644e+002 -9.250021e+001 1.252587e+002 -7.632004e+001 -1.212751e+002 -2.024011e-003 1.413847e+002
529445073.61268 -4.481580e-001 1.673182e+002 -8.028548e+001 -1.592191e+002 -7.438876e+001 -1.385323e+002 -7.744694e-003 1.413287e+002
529822574.55644 -4.548396e-001 1.670310e+002 -8.242290e+001 -1.172945e+002 -7.395064e+001 -1.146340e+002 -1.876095e-002 1.411931e+002
530200075.50019 -4.661825e-001 1.667195e+002 -7.832365e+001 -1.473052e+002 -7.562970e+001 -1.086750e+002 -2.472591e-002 1.410642e+002
530577576.44394 -4.738892e-001 1.664707e+002 -9.227367e+001 -1.507443e+002 -7.661148e+001 -1.242533e+002 -3.438113e-002 1.409164e+002
530955077.38769 -4.817403e-001 1.662149e+002 -7.471702e+001 -1.558147e+002 -7.586050e+001 -1.373736e+002 -4.274409e-002 1.407569e+002
531332578.33145 -4.861644e-001 1.660147e+002 -7.617393e+001 -1.669881e+002 -7.291346e+001 -1.361123e+002 -4.959314e-002 1.405513e+002
531710079.2752 -4.963994e-001 1.657044e+002 -7.686823e+001 -1.498728e+002 -7.388154e+001 -1.325509e+002 -6.044882e-002 1.403125e+002
532087580.21895 -5.045725e-001 1.655263e+002 -7.265223e+001 1.782849e+002 -7.844032e+001 -1.387975e+002 -6.289314e-002 1.401161e+002
532465081.1627 -5.101830e-001 1.652224e+002 -7.472058e+001 1.791798e+002 -7.491464e+001 -1.538230e+002 -7.180732e-002 1.398659e+002
532842582.10646 -5.179580e-001 1.649760e+002 -7.622832e+001 1.775978e+002 -7.499371e+001 -1.528876e+002 -7.616172e-002 1.396041e+002
533220083.05021 -5.270339e-001 1.647773e+002 -7.617931e+001 1.697272e+002 -7.481014e+001 -1.501470e+002 -7.986765e-002 1.393529e+002
533597583.99396 -5.332334e-001 1.644699e+002 -7.665735e+001 -1.734286e+002 -7.362292e+001 -1.536197e+002 -8.353736e-002 1.391068e+002
533975084.93771 -5.411499e-001 1.641649e+002 -7.341599e+001 1.764912e+002 -7.379085e+001 -1.457153e+002 -8.537640e-002 1.387762e+002
534352585.88146 -5.495791e-001 1.639557e+002 -7.636891e+001 1.681700e+002 -7.380556e+001 -1.368022e+002 -8.997133e-002 1.385124e+002
534730086.82522 -5.597860e-001 1.637038e+002 -7.487614e+001 -1.787046e+002 -7.315833e+001 -1.600154e+002 -8.917543e-002 1.382331e+002
535107587.76897 -5.692716e-001 1.634961e+002 -7.637412e+001 1.500038e+002 -7.479494e+001 -1.661436e+002 -9.453553e-002 1.379588e+002
535485088.71272 -5.758556e-001 1.631564e+002 -7.881033e+001 1.428826e+002 -7.649397e+001 -1.727950e+002 -8.981948e-002 1.376639e+002
535862589.65647 -5.885390e-001 1.629156e+002 -7.488033e+001 1.681729e+002 -7.877364e+001 -1.658374e+002 -8.936669e-002 1.373862e+002
536240090.60023 -5.911859e-001 1.627262e+002 -7.227724e+001 1.728475e+002 -8.002369e+001 -1.374411e+002 -8.476758e-002 1.371282e+002
536617591.54398 -6.047972e-001 1.623755e+002 -7.586507e+001 1.725163e+002 -7.302193e+001 1.776235e+002 -8.407855e-002 1.368586e+002
536995092.48773 -6.165940e-001 1.622241e+002 -7.599153e+001 1.548191e+002 -7.503922e+001 -1.685783e+002 -7.951690e-002 1.366344e+002
537372593.43148 -6.215855e-001 1.618668e+002 -7.288845e+001 1.664958e+002 -7.284508e+001 -1.596083e+002 -7.003253e-002 1.364216e+002
537750094.37524 -6.339116e-001 1.616749e+002 -7.341737e+001 1.712851e+002 -7.596249e+001 -1.453828e+002 -6.489533e-002 1.362238e+002
538127595.31899 -6.463915e-001 1.614494e+002 -7.348830e+001 1.651058e+002 -7.488477e+001 -1.771773e+002 -6.191329e-002 1.360299e+002
538505096.26274 -6.578742e-001 1.612020e+002 -7.517381e+001 1.696520e+002 -7.605448e+001 -1.726220e+002 -5.272480e-002 1.358957e+002
538882597.20649 -6.661232e-001 1.609538e+002 -7.665240e+001 1.582612e+002 -7.383463e+001 -1.667040e+002 -4.607197e-002 1.357059e+002
539260098.15025 -6.782908e-001 1.606344e+002 -7.986800e+001 1.641238e+002 -7.904195e+001 1.623963e+002 -3.888649e-002 1.355882e+002
539637599.094 -6.893831e-001 1.603738e+002 -7.635268e+001 -1.745405e+002 -7.912932e+001 -1.795555e+002 -3.354965e-002 1.354583e+002
540015100.03775 -7.015485e-001 1.601671e+002 -7.515057e+001 1.448522e+002 -7.943571e+001 -1.751267e+002 -2.245428e-002 1.354473e+002
540392600.9815 -7.141483e-001 1.599833e+002 -7.653216e+001 1.612784e+002 -8.026881e+001 -1.664075e+002 -1.832106e-002 1.353159e+002
540770101.92525 -7.326624e-001 1.597054e+002 -7.843923e+001 1.423859e+002 -7.474343e+001 -1.704036e+002 -8.496320e-003 1.352854e+002
541147602.86901 -7.405788e-001 1.594441e+002 -7.497950e+001 1.270190e+002 -7.419475e+001 -1.491103e+002 -1.810001e-003 1.352505e+002
541525103.81276 -7.503991e-001 1.591594e+002 -7.564840e+001 1.591145e+002 -7.441989e+001 -1.553533e+002 5.916695e-003 1.352387e+002
541902604.75651 -7.669815e-001 1.590105e+002 -7.625471e+001 1.576701e+002 -7.531395e+001 -1.726410e+002 1.006341e-002 1.352453e+002
542280105.70026 -7.867182e-001 1.587605e+002 -7.905979e+001 -1.751097e+002 -7.469968e+001 -1.703002e+002 2.192873e-002 1.352892e+002
542657606.64402 -7.897450e-001 1.584823e+002 -7.509727e+001 1.435989e+002 -7.193045e+001 -1.595529e+002 2.240618e-002 1.353383e+002
543035107.58777 -8.069340e-001 1.583223e+002 -7.343623e+001 1.601508e+002 -7.460014e+001 -1.685979e+002 3.111387e-002 1.353989e+002
543412608.53152 -8.201201e-001 1.580639e+002 -7.450389e+001 1.384757e+002 -7.128247e+001 -1.638911e+002 3.225842e-002 1.354705e+002
543790109.47527 -8.291388e-001 1.578858e+002 -7.234599e+001 1.459247e+002 -7.212051e+001 -1.725962e+002 3.872040e-002 1.355555e+002
544167610.41903 -8.481398e-001 1.577335e+002 -7.312659e+001 1.751407e+002 -7.230717e+001 -1.735999e+002 4.766609e-002 1.356567e+002
544545111.36278 -8.489075e-001 1.574933e+002 -7.269744e+001 1.591997e+002 -7.137688e+001 1.781873e+002 4.837430e-002 1.357737e+002
544922612.30653 -8.654524e-001 1.572070e+002 -7.410963e+001 1.686547e+002 -6.972816e+001 -1.743919e+002 5.533960e-002 1.359131e+002
545300113.25028 -8.757064e-001 1.570094e+002 -7.189127e+001 1.612197e+002 -7.076964e+001 -1.771195e+002 5.611161e-002 1.360435e+002
545677614.19404 -8.842317e-001 1.568051e+002 -7.182056e+001 1.555055e+002 -7.026239e+001 -1.784652e+002 5.788991e-002 1.361692e+002
546055115.13779 -8.980055e-001 1.566465e+002 -7.406921e+001 1.591863e+002 -7.106023e+001 -1.771395e+002 5.835244e-002 1.363391e+002
546432616.08154 -9.057850e-001 1.564139e+002 -7.176910e+001 1.460743e+002 -7.094238e+001 1.616784e+002 6.044282e-002 1.364601e+002
546810117.02529 -9.146802e-001 1.561206e+002 -7.117146e+001 1.441571e+002 -7.243739e+001 1.590059e+002 6.225761e-002 1.366101e+002
547187617.96904 -9.265355e-001 1.559974e+002 -7.072536e+001 1.603438e+002 -7.051225e+001 1.623578e+002 6.215959e-002 1.367564e+002
547565118.9128 -9.358881e-001 1.557128e+002 -7.191393e+001 1.317627e+002 -7.000143e+001 1.571973e+002 6.067738e-002 1.368905e+002
547942619.85655 -9.468149e-001 1.554840e+002 -7.194163e+001 1.441124e+002 -7.234057e+001 1.581535e+002 6.433150e-002 1.370322e+002
548320120.8003 -9.563519e-001 1.552399e+002 -6.967923e+001 1.425108e+002 -7.197508e+001 1.551434e+002 5.843892e-002 1.371754e+002
548697621.74405 -9.675912e-001 1.550503e+002 -7.027660e+001 1.380513e+002 -6.965499e+001 1.558232e+002 5.830914e-002 1.372846e+002
549075122.68781 -9.753576e-001 1.547769e+002 -6.850313e+001 1.251716e+002 -7.225419e+001 1.548429e+002 5.465705e-002 1.374674e+002
549452623.63156 -9.909601e-001 1.545885e+002 -6.986826e+001 1.232358e+002 -6.975978e+001 1.559623e+002 5.077737e-002 1.375254e+002
549830124.57531 -1.000251e+000 1.543531e+002 -6.835060e+001 1.194596e+002 -7.069585e+001 1.451832e+002 4.834557e-002 1.376497e+002
550207625.51906 -1.008537e+000 1.540715e+002 -7.002449e+001 1.071599e+002 -7.258709e+001 1.458118e+002 4.158895e-002 1.377293e+002
550585126.46282 -1.021873e+000 1.537878e+002 -6.979025e+001 1.204670e+002 -7.247536e+001 1.482090e+002 3.966414e-002 1.378292e+002
550962627.40657 -1.031896e+000 1.535649e+002 -7.012098e+001 1.139354e+002 -7.119394e+001 1.481016e+002 3.656636e-002 1.378827e+002
551340128.35032 -1.044080e+000 1.533256e+002 -6.929709e+001 9.813410e+001 -7.552618e+001 1.300645e+002 3.061023e-002 1.379304e+002
551717629.29407 -1.057693e+000 1.530696e+002 -6.958531e+001 1.121890e+002 -7.536821e+001 1.455126e+002 2.282844e-002 1.379742e+002
552095130.23783 -1.067532e+000 1.528361e+002 -7.181667e+001 9.913446e+001 -7.175954e+001 1.365824e+002 2.093990e-002 1.380130e+002
552472631.18158 -1.079540e+000 1.525765e+002 -7.298947e+001 9.413093e+001 -7.581282e+001 1.165116e+002 1.551173e-002 1.380169e+002
552850132.12533 -1.088463e+000 1.523397e+002 -7.065127e+001 9.092218e+001 -7.601554e+001 1.019599e+002 1.036741e-002 1.380003e+002
553227633.06908 -1.104431e+000 1.520584e+002 -7.296593e+001 7.708985e+001 -7.648091e+001 9.407495e+001 1.274738e-004 1.379874e+002
553605134.01284 -1.119243e+000 1.518728e+002 -7.230745e+001 7.407189e+001 -7.432703e+001 1.227397e+002 -1.961185e-003 1.379489e+002
553982634.95659 -1.136910e+000 1.515855e+002 -7.216251e+001 9.162669e+001 -7.604790e+001 1.287457e+002 -1.030731e-002 1.379010e+002
554360135.90034 -1.153910e+000 1.513906e+002 -7.274801e+001 7.876395e+001 -7.687756e+001 1.421929e+002 -1.674216e-002 1.378274e+002
554737636.84409 -1.167422e+000 1.511022e+002 -7.244102e+001 9.603078e+001 -8.096545e+001 1.499997e+002 -2.104568e-002 1.377251e+002
555115137.78784 -1.178864e+000 1.508718e+002 -7.248096e+001 4.857193e+001 -7.630153e+001 1.552182e+002 -2.179665e-002 1.376179e+002
555492638.7316 -1.195669e+000 1.506622e+002 -7.747353e+001 8.526747e+001 -7.869075e+001 1.419173e+002 -3.237740e-002 1.375226e+002
