!Agilent Technologies,E8364B,US42250235,A.06.04.32
!Agilent E8364B: A.06.04.32
!Date: Thursday, October 01, 2020 15:59:15
!Correction: S11(Full 2 Port(1,2)) S21(Full 2 Port(1,2)) S12(Full 2 Port(1,2)) S22(Full 2 Port(1,2)) 
!S2P File: Measurements: S11, S21, S12, S22:
# Hz S  dB   R 50
500000000 -2.664506e-001 -1.754688e+002 -7.623102e+001 -1.320408e+002 -7.199191e+001 -1.179943e+002 -7.900990e-002 1.423551e+002
500377500.94375 -2.687741e-001 -1.756549e+002 -7.699245e+001 -1.373073e+002 -7.470585e+001 -1.267016e+002 -7.870433e-002 1.425474e+002
500755001.8875 -2.701078e-001 -1.758682e+002 -7.339541e+001 -1.439530e+002 -7.439111e+001 -1.372775e+002 -7.905633e-002 1.426924e+002
501132502.83126 -2.768438e-001 -1.760506e+002 -7.335326e+001 -1.152706e+002 -7.139334e+001 -1.278920e+002 -8.511218e-002 1.428577e+002
501510003.77501 -2.777945e-001 -1.762084e+002 -7.185910e+001 -1.409557e+002 -7.236383e+001 -1.464951e+002 -8.909351e-002 1.430070e+002
501887504.71876 -2.834879e-001 -1.764820e+002 -7.437337e+001 -1.395722e+002 -7.066537e+001 -1.218074e+002 -9.383666e-002 1.431241e+002
502265005.66251 -2.884557e-001 -1.766611e+002 -7.411328e+001 -1.378687e+002 -7.408846e+001 -1.258669e+002 -9.872684e-002 1.432691e+002
502642506.60627 -2.897761e-001 -1.768717e+002 -7.228731e+001 -1.463917e+002 -7.044846e+001 -1.329171e+002 -1.059426e-001 1.434062e+002
503020007.55002 -2.996377e-001 -1.770801e+002 -7.414942e+001 -1.478102e+002 -7.091998e+001 -1.370970e+002 -1.138241e-001 1.434496e+002
503397508.49377 -2.979161e-001 -1.772172e+002 -7.376252e+001 -1.388766e+002 -7.046742e+001 -1.317948e+002 -1.137683e-001 1.435241e+002
503775009.43752 -3.013829e-001 -1.775093e+002 -7.346222e+001 -1.631576e+002 -7.344104e+001 -1.478005e+002 -1.283934e-001 1.435679e+002
504152510.38128 -3.061442e-001 -1.776707e+002 -7.032997e+001 -1.381246e+002 -7.270895e+001 -1.277802e+002 -1.351796e-001 1.436121e+002
504530011.32503 -3.074547e-001 -1.778870e+002 -7.092675e+001 -1.364356e+002 -7.241465e+001 -1.374944e+002 -1.436893e-001 1.436344e+002
504907512.26878 -3.146921e-001 -1.780824e+002 -7.167728e+001 -1.492824e+002 -7.170919e+001 -1.235981e+002 -1.509089e-001 1.436429e+002
505285013.21253 -3.214722e-001 -1.782691e+002 -6.939296e+001 -1.585786e+002 -7.094306e+001 -1.411362e+002 -1.584401e-001 1.436151e+002
505662514.15629 -3.201658e-001 -1.785131e+002 -7.342212e+001 -1.516480e+002 -7.371712e+001 -1.374494e+002 -1.649921e-001 1.435907e+002
506040015.10004 -3.284326e-001 -1.786761e+002 -7.072845e+001 -1.479999e+002 -7.141978e+001 -1.349687e+002 -1.787861e-001 1.435150e+002
506417516.04379 -3.314854e-001 -1.789221e+002 -7.221660e+001 -1.759459e+002 -7.185661e+001 -1.384570e+002 -1.831649e-001 1.434409e+002
506795016.98754 -3.410995e-001 -1.790757e+002 -7.136941e+001 -1.565606e+002 -7.089362e+001 -1.325200e+002 -1.923794e-001 1.433296e+002
507172517.93129 -3.440664e-001 -1.793388e+002 -7.308191e+001 -1.740367e+002 -7.170427e+001 -1.444043e+002 -1.952739e-001 1.432115e+002
507550018.87505 -3.492900e-001 -1.795232e+002 -7.118826e+001 -1.691661e+002 -7.187157e+001 -1.524120e+002 -2.064034e-001 1.430562e+002
507927519.8188 -3.552861e-001 -1.797294e+002 -7.272642e+001 -1.703990e+002 -7.222539e+001 -1.492714e+002 -2.148660e-001 1.428865e+002
508305020.76255 -3.597062e-001 -1.799357e+002 -7.128733e+001 -1.602943e+002 -7.076924e+001 -1.475711e+002 -2.203984e-001 1.427126e+002
508682521.7063 -3.619851e-001 1.798328e+002 -7.194393e+001 -1.635404e+002 -7.069187e+001 -1.329803e+002 -2.272525e-001 1.424582e+002
509060022.65006 -3.714070e-001 1.796548e+002 -7.481168e+001 1.776342e+002 -7.209940e+001 -1.452871e+002 -2.295467e-001 1.422738e+002
509437523.59381 -3.767310e-001 1.794142e+002 -6.927049e+001 -1.739642e+002 -7.169170e+001 -1.373259e+002 -2.346865e-001 1.420698e+002
509815024.53756 -3.781856e-001 1.792542e+002 -7.177602e+001 -1.670864e+002 -7.120779e+001 -1.589692e+002 -2.372997e-001 1.418037e+002
510192525.48131 -3.822959e-001 1.790596e+002 -7.088460e+001 -1.789616e+002 -7.342344e+001 -1.471787e+002 -2.361965e-001 1.415451e+002
510570026.42507 -3.893987e-001 1.788674e+002 -7.210535e+001 -1.589741e+002 -7.148448e+001 -1.431585e+002 -2.402164e-001 1.412937e+002
510947527.36882 -3.933441e-001 1.786808e+002 -7.254715e+001 -1.716537e+002 -7.059655e+001 -1.463589e+002 -2.406734e-001 1.410490e+002
511325028.31257 -3.964753e-001 1.784343e+002 -7.166968e+001 -1.591136e+002 -7.215679e+001 -1.537539e+002 -2.421478e-001 1.407520e+002
511702529.25632 -3.992855e-001 1.781754e+002 -7.490791e+001 -1.516783e+002 -7.051983e+001 -1.494096e+002 -2.411162e-001 1.405130e+002
512080030.20008 -4.089833e-001 1.780168e+002 -7.226930e+001 -1.686093e+002 -7.088929e+001 -1.514959e+002 -2.355940e-001 1.402234e+002
512457531.14383 -4.152784e-001 1.777995e+002 -7.217645e+001 -1.662252e+002 -7.017044e+001 -1.536846e+002 -2.326957e-001 1.399809e+002
512835032.08758 -4.240262e-001 1.775766e+002 -7.276457e+001 1.759177e+002 -6.930521e+001 -1.427906e+002 -2.298622e-001 1.397209e+002
513212533.03133 -4.242828e-001 1.773478e+002 -6.925127e+001 -1.729028e+002 -7.184874e+001 -1.518933e+002 -2.252667e-001 1.394618e+002
513590033.97508 -4.313987e-001 1.771481e+002 -7.166399e+001 -1.759364e+002 -6.963249e+001 -1.489800e+002 -2.199095e-001 1.392417e+002
513967534.91884 -4.385547e-001 1.769806e+002 -6.867339e+001 -1.571818e+002 -6.868032e+001 -1.561708e+002 -2.131926e-001 1.390373e+002
514345035.86259 -4.408187e-001 1.767566e+002 -7.106016e+001 -1.679098e+002 -6.884575e+001 -1.561817e+002 -2.086047e-001 1.388291e+002
514722536.80634 -4.484677e-001 1.765816e+002 -7.173658e+001 -1.705797e+002 -6.998998e+001 -1.575046e+002 -2.000257e-001 1.386440e+002
515100037.75009 -4.484305e-001 1.764203e+002 -7.090905e+001 -1.545462e+002 -6.941551e+001 -1.528504e+002 -1.922876e-001 1.384852e+002
515477538.69385 -4.520428e-001 1.761526e+002 -7.162158e+001 -1.741827e+002 -6.795019e+001 -1.633563e+002 -1.864849e-001 1.383356e+002
515855039.6376 -4.614331e-001 1.759882e+002 -6.936805e+001 -1.753745e+002 -6.950198e+001 -1.623656e+002 -1.745197e-001 1.382453e+002
516232540.58135 -4.651891e-001 1.758019e+002 -7.106570e+001 -1.714181e+002 -7.102481e+001 -1.591845e+002 -1.658950e-001 1.381595e+002
516610041.5251 -4.708137e-001 1.755990e+002 -7.110228e+001 1.783216e+002 -7.133294e+001 -1.603053e+002 -1.580335e-001 1.380858e+002
516987542.46886 -4.709913e-001 1.753664e+002 -7.056610e+001 1.733195e+002 -7.072957e+001 -1.567360e+002 -1.500264e-001 1.380533e+002
517365043.41261 -4.778098e-001 1.752127e+002 -6.981516e+001 1.753827e+002 -7.039274e+001 -1.614273e+002 -1.445095e-001 1.380209e+002
517742544.35636 -4.829981e-001 1.750078e+002 -6.905179e+001 1.797424e+002 -6.855467e+001 -1.653273e+002 -1.319925e-001 1.380512e+002
518120045.30011 -4.865072e-001 1.748173e+002 -7.025677e+001 1.721198e+002 -6.924062e+001 -1.582367e+002 -1.251283e-001 1.380921e+002
518497546.24387 -4.901381e-001 1.746762e+002 -7.071923e+001 1.794278e+002 -7.104468e+001 -1.656030e+002 -1.172011e-001 1.381620e+002
518875047.18762 -4.954533e-001 1.744459e+002 -7.147327e+001 1.765240e+002 -6.879049e+001 -1.679448e+002 -1.053230e-001 1.382459e+002
519252548.13137 -5.037749e-001 1.742764e+002 -7.195355e+001 1.732176e+002 -7.078800e+001 -1.657604e+002 -9.921232e-002 1.383432e+002
519630049.07512 -5.078471e-001 1.740446e+002 -7.086064e+001 1.757449e+002 -7.100120e+001 -1.599879e+002 -9.560853e-002 1.384734e+002
520007550.01888 -5.092316e-001 1.738007e+002 -6.907088e+001 1.797498e+002 -6.891920e+001 -1.601322e+002 -9.421435e-002 1.386254e+002
520385050.96263 -5.165308e-001 1.736731e+002 -6.833572e+001 1.680058e+002 -6.767615e+001 -1.676778e+002 -8.673876e-002 1.387600e+002
520762551.90638 -5.197076e-001 1.734612e+002 -6.940024e+001 1.736119e+002 -7.153277e+001 -1.722726e+002 -8.070754e-002 1.389236e+002
521140052.85013 -5.234844e-001 1.732982e+002 -6.829044e+001 1.746693e+002 -6.905790e+001 -1.726207e+002 -7.917666e-002 1.391007e+002
521517553.79388 -5.292146e-001 1.731207e+002 -6.979428e+001 1.701495e+002 -6.932114e+001 -1.642555e+002 -7.627746e-002 1.393188e+002
521895054.73764 -5.319558e-001 1.728878e+002 -6.795055e+001 1.643881e+002 -6.912263e+001 -1.736219e+002 -7.577793e-002 1.395057e+002
522272555.68139 -5.350387e-001 1.727071e+002 -6.992510e+001 1.634367e+002 -7.149230e+001 -1.724430e+002 -7.576274e-002 1.397131e+002
522650056.62514 -5.393931e-001 1.724910e+002 -7.076070e+001 1.647785e+002 -6.726411e+001 1.752507e+002 -7.709765e-002 1.399008e+002
523027557.56889 -5.478660e-001 1.723583e+002 -6.800447e+001 1.765597e+002 -6.846512e+001 -1.697584e+002 -7.568402e-002 1.401198e+002
523405058.51265 -5.481238e-001 1.720952e+002 -6.890919e+001 1.609554e+002 -6.947048e+001 -1.767749e+002 -7.661638e-002 1.403513e+002
523782559.4564 -5.536289e-001 1.719649e+002 -6.905481e+001 1.614019e+002 -6.973467e+001 1.777057e+002 -8.021475e-002 1.405143e+002
524160060.40015 -5.586587e-001 1.717451e+002 -6.840605e+001 1.630853e+002 -6.900432e+001 -1.758280e+002 -8.325066e-002 1.406961e+002
524537561.3439 -5.576206e-001 1.715830e+002 -6.971122e+001 1.529081e+002 -7.191972e+001 -1.688828e+002 -9.102903e-002 1.408713e+002
524915062.28766 -5.633367e-001 1.713807e+002 -6.671420e+001 1.593669e+002 -6.981281e+001 -1.723753e+002 -9.657460e-002 1.410432e+002
525292563.23141 -5.673033e-001 1.710828e+002 -7.066199e+001 1.631019e+002 -6.963419e+001 -1.683906e+002 -1.045213e-001 1.411832e+002
525670064.17516 -5.688957e-001 1.709373e+002 -6.866722e+001 1.677055e+002 -6.807324e+001 -1.703082e+002 -1.104470e-001 1.413146e+002
526047565.11891 -5.721029e-001 1.707242e+002 -6.933421e+001 1.636940e+002 -7.051743e+001 -1.672729e+002 -1.218424e-001 1.414269e+002
526425066.06267 -5.768785e-001 1.704937e+002 -6.867553e+001 1.598666e+002 -6.808054e+001 -1.692612e+002 -1.326206e-001 1.415387e+002
526802567.00642 -5.778241e-001 1.703477e+002 -6.970301e+001 1.648335e+002 -6.957955e+001 -1.636636e+002 -1.386596e-001 1.416031e+002
527180067.95017 -5.845805e-001 1.701501e+002 -6.875828e+001 1.578461e+002 -6.763699e+001 -1.785944e+002 -1.468782e-001 1.416679e+002
527557568.89392 -5.816841e-001 1.699281e+002 -6.864351e+001 1.501914e+002 -6.873303e+001 -1.662572e+002 -1.553851e-001 1.416894e+002
527935069.83767 -5.885246e-001 1.697322e+002 -6.792349e+001 1.577596e+002 -6.622980e+001 1.792796e+002 -1.669712e-001 1.417041e+002
528312570.78143 -5.899515e-001 1.695371e+002 -6.698298e+001 1.677587e+002 -6.664655e+001 -1.757711e+002 -1.746948e-001 1.416854e+002
528690071.72518 -5.863673e-001 1.693048e+002 -6.850581e+001 1.575230e+002 -6.738501e+001 1.759668e+002 -1.860811e-001 1.416329e+002
529067572.66893 -5.946340e-001 1.690958e+002 -6.810475e+001 1.512600e+002 -6.607117e+001 1.785697e+002 -2.005889e-001 1.415608e+002
529445073.61268 -5.900434e-001 1.688659e+002 -6.596328e+001 1.626382e+002 -6.578441e+001 1.760915e+002 -2.090247e-001 1.414805e+002
529822574.55644 -5.955172e-001 1.686264e+002 -6.648664e+001 1.470172e+002 -6.550449e+001 -1.799070e+002 -2.230983e-001 1.413368e+002
530200075.50019 -5.993674e-001 1.683690e+002 -6.669477e+001 1.436949e+002 -6.626490e+001 1.707163e+002 -2.301343e-001 1.411722e+002
530577576.44394 -6.055503e-001 1.681965e+002 -6.689280e+001 1.443873e+002 -6.557817e+001 1.687979e+002 -2.420033e-001 1.410224e+002
530955077.38769 -6.085066e-001 1.679142e+002 -6.663229e+001 1.463365e+002 -6.638486e+001 1.671129e+002 -2.517411e-001 1.408071e+002
531332578.33145 -6.114736e-001 1.677563e+002 -6.727409e+001 1.377468e+002 -6.484768e+001 1.691872e+002 -2.619976e-001 1.406006e+002
531710079.2752 -6.170944e-001 1.675016e+002 -6.620464e+001 1.397784e+002 -6.534899e+001 1.669474e+002 -2.713572e-001 1.403603e+002
532087580.21895 -6.206277e-001 1.673602e+002 -6.694406e+001 1.420704e+002 -6.587076e+001 1.616316e+002 -2.751203e-001 1.401052e+002
532465081.1627 -6.227717e-001 1.670739e+002 -6.818571e+001 1.362291e+002 -6.653433e+001 1.607717e+002 -2.815084e-001 1.398424e+002
532842582.10646 -6.236161e-001 1.668846e+002 -6.700223e+001 1.292180e+002 -6.442650e+001 1.619767e+002 -2.902451e-001 1.395546e+002
533220083.05021 -6.281953e-001 1.667128e+002 -6.786130e+001 1.225321e+002 -6.661925e+001 1.572668e+002 -2.955029e-001 1.392765e+002
533597583.99396 -6.289580e-001 1.664148e+002 -6.703205e+001 1.278489e+002 -6.627140e+001 1.467194e+002 -2.972233e-001 1.390027e+002
533975084.93771 -6.332606e-001 1.661764e+002 -6.750043e+001 1.341560e+002 -6.689357e+001 1.467900e+002 -3.030741e-001 1.386626e+002
534352585.88146 -6.398910e-001 1.660359e+002 -6.734761e+001 1.220761e+002 -6.638520e+001 1.464715e+002 -3.032319e-001 1.383456e+002
534730086.82522 -6.419546e-001 1.657912e+002 -6.860821e+001 1.304468e+002 -6.804818e+001 1.474996e+002 -3.069326e-001 1.380473e+002
535107587.76897 -6.454740e-001 1.656049e+002 -6.811052e+001 1.195469e+002 -6.812762e+001 1.460867e+002 -3.090930e-001 1.377466e+002
535485088.71272 -6.450893e-001 1.653041e+002 -6.863366e+001 1.282914e+002 -6.851164e+001 1.543524e+002 -3.075660e-001 1.374285e+002
535862589.65647 -6.518508e-001 1.650800e+002 -6.986303e+001 1.307993e+002 -6.723473e+001 1.449041e+002 -3.054979e-001 1.371414e+002
536240090.60023 -6.522459e-001 1.649219e+002 -6.791147e+001 1.256134e+002 -6.742398e+001 1.473009e+002 -3.019871e-001 1.368465e+002
536617591.54398 -6.561103e-001 1.646094e+002 -6.973308e+001 1.300714e+002 -6.795324e+001 1.474285e+002 -2.977386e-001 1.365264e+002
536995092.48773 -6.651725e-001 1.644834e+002 -6.890479e+001 1.355812e+002 -6.688833e+001 1.547068e+002 -2.951674e-001 1.362056e+002
537372593.43148 -6.680440e-001 1.642162e+002 -6.799077e+001 1.366211e+002 -6.654952e+001 1.479711e+002 -2.853751e-001 1.358934e+002
537750094.37524 -6.721242e-001 1.640133e+002 -7.064056e+001 1.236161e+002 -6.856306e+001 1.500105e+002 -2.823131e-001 1.356815e+002
538127595.31899 -6.765158e-001 1.638170e+002 -6.871423e+001 1.256896e+002 -6.672215e+001 1.570224e+002 -2.786905e-001 1.354974e+002
538505096.26274 -6.795089e-001 1.635802e+002 -6.959595e+001 1.284486e+002 -6.702048e+001 1.547820e+002 -2.694750e-001 1.353636e+002
538882597.20649 -6.804984e-001 1.633972e+002 -6.776062e+001 1.207979e+002 -6.632708e+001 1.508267e+002 -2.631964e-001 1.351574e+002
539260098.15025 -6.879054e-001 1.631540e+002 -6.901645e+001 1.177829e+002 -6.741267e+001 1.391202e+002 -2.559699e-001 1.350330e+002
539637599.094 -6.896216e-001 1.629241e+002 -6.915924e+001 1.302690e+002 -6.828837e+001 1.487028e+002 -2.519819e-001 1.348889e+002
540015100.03775 -6.946634e-001 1.627228e+002 -6.834747e+001 1.196781e+002 -6.822421e+001 1.580909e+002 -2.386041e-001 1.348239e+002
540392600.9815 -6.962655e-001 1.625283e+002 -7.031316e+001 1.314508e+002 -6.650827e+001 1.437443e+002 -2.339238e-001 1.346897e+002
540770101.92525 -7.056412e-001 1.623325e+002 -6.825861e+001 1.233876e+002 -6.775415e+001 1.472884e+002 -2.237054e-001 1.346117e+002
541147602.86901 -7.005330e-001 1.620895e+002 -6.644428e+001 1.298532e+002 -6.819153e+001 1.464279e+002 -2.203956e-001 1.345540e+002
541525103.81276 -7.055714e-001 1.618521e+002 -6.937717e+001 1.210651e+002 -6.786456e+001 1.441329e+002 -2.091846e-001 1.344978e+002
541902604.75651 -7.092337e-001 1.617196e+002 -6.749780e+001 1.200565e+002 -6.717599e+001 1.555797e+002 -2.058220e-001 1.344807e+002
542280105.70026 -7.170914e-001 1.614935e+002 -6.776435e+001 1.259483e+002 -6.633769e+001 1.544363e+002 -1.947322e-001 1.344861e+002
542657606.64402 -7.120022e-001 1.612208e+002 -6.744347e+001 1.287807e+002 -6.795643e+001 1.506171e+002 -1.920971e-001 1.345040e+002
543035107.58777 -7.171033e-001 1.610683e+002 -6.895856e+001 1.148987e+002 -6.775114e+001 1.468097e+002 -1.821360e-001 1.345412e+002
543412608.53152 -7.186440e-001 1.608070e+002 -6.812864e+001 1.197090e+002 -6.660030e+001 1.402079e+002 -1.782769e-001 1.345876e+002
543790109.47527 -7.200578e-001 1.606639e+002 -6.809901e+001 1.311944e+002 -6.787402e+001 1.471045e+002 -1.711953e-001 1.346320e+002
544167610.41903 -7.233785e-001 1.604583e+002 -6.811845e+001 1.186182e+002 -6.602681e+001 1.550975e+002 -1.638279e-001 1.346869e+002
544545111.36278 -7.175302e-001 1.602437e+002 -6.675404e+001 1.183156e+002 -6.589126e+001 1.358508e+002 -1.616300e-001 1.347780e+002
544922612.30653 -7.219192e-001 1.600152e+002 -6.708685e+001 1.169625e+002 -6.590113e+001 1.559541e+002 -1.551198e-001 1.348689e+002
545300113.25028 -7.253090e-001 1.597754e+002 -6.679748e+001 1.151652e+002 -6.645874e+001 1.427212e+002 -1.535469e-001 1.349589e+002
545677614.19404 -7.213582e-001 1.596134e+002 -6.602794e+001 1.206445e+002 -6.545188e+001 1.396738e+002 -1.524679e-001 1.350498e+002
546055115.13779 -7.235274e-001 1.594194e+002 -6.605184e+001 1.140545e+002 -6.520986e+001 1.417210e+002 -1.508053e-001 1.351905e+002
546432616.08154 -7.241061e-001 1.591707e+002 -6.534459e+001 1.140744e+002 -6.629212e+001 1.426451e+002 -1.486276e-001 1.352963e+002
546810117.02529 -7.215792e-001 1.588770e+002 -6.772028e+001 1.172126e+002 -6.614703e+001 1.381793e+002 -1.433792e-001 1.354010e+002
547187617.96904 -7.250008e-001 1.587243e+002 -6.635952e+001 1.042593e+002 -6.598892e+001 1.396784e+002 -1.455839e-001 1.355056e+002
547565118.9128 -7.208550e-001 1.584409e+002 -6.727173e+001 1.056753e+002 -6.496706e+001 1.369960e+002 -1.465443e-001 1.355895e+002
547942619.85655 -7.264800e-001 1.581974e+002 -6.615820e+001 1.182315e+002 -6.645823e+001 1.317599e+002 -1.451049e-001 1.356954e+002
548320120.8003 -7.272090e-001 1.579471e+002 -6.758752e+001 1.015344e+002 -6.591015e+001 1.308154e+002 -1.486587e-001 1.357987e+002
548697621.74405 -7.271049e-001 1.577579e+002 -6.675727e+001 9.727180e+001 -6.429065e+001 1.341572e+002 -1.481589e-001 1.358965e+002
549075122.68781 -7.287139e-001 1.574804e+002 -6.661090e+001 1.019566e+002 -6.399401e+001 1.352495e+002 -1.514825e-001 1.359759e+002
549452623.63156 -7.329097e-001 1.572560e+002 -6.541353e+001 1.012104e+002 -6.606610e+001 1.346876e+002 -1.536587e-001 1.360699e+002
549830124.57531 -7.302328e-001 1.570104e+002 -6.664971e+001 9.973665e+001 -6.705664e+001 1.341340e+002 -1.576214e-001 1.361615e+002
550207625.51906 -7.336782e-001 1.567561e+002 -6.548622e+001 1.024083e+002 -6.512160e+001 1.268767e+002 -1.612476e-001 1.362189e+002
550585126.46282 -7.348990e-001 1.564806e+002 -6.569241e+001 1.073182e+002 -6.555125e+001 1.273351e+002 -1.641630e-001 1.362771e+002
550962627.40657 -7.363203e-001 1.562415e+002 -6.668079e+001 1.030010e+002 -6.606445e+001 1.285733e+002 -1.672553e-001 1.363054e+002
551340128.35032 -7.387010e-001 1.559886e+002 -6.568178e+001 1.062728e+002 -6.544848e+001 1.313862e+002 -1.761186e-001 1.363544e+002
551717629.29407 -7.433329e-001 1.557168e+002 -6.737999e+001 8.320824e+001 -6.499052e+001 1.323137e+002 -1.776778e-001 1.363801e+002
552095130.23783 -7.432792e-001 1.554836e+002 -6.698757e+001 9.619244e+001 -6.492813e+001 1.259474e+002 -1.810515e-001 1.363828e+002
552472631.18158 -7.451258e-001 1.551838e+002 -6.625529e+001 9.265205e+001 -6.513158e+001 1.211683e+002 -1.874655e-001 1.363894e+002
552850132.12533 -7.434948e-001 1.549546e+002 -6.710191e+001 1.024951e+002 -6.453017e+001 1.315298e+002 -1.941074e-001 1.363487e+002
553227633.06908 -7.481869e-001 1.546475e+002 -6.572788e+001 9.587403e+001 -6.418259e+001 1.276470e+002 -1.996777e-001 1.363159e+002
553605134.01284 -7.522382e-001 1.543957e+002 -6.646074e+001 1.013367e+002 -6.483938e+001 1.330200e+002 -2.031231e-001 1.362644e+002
553982634.95659 -7.572592e-001 1.541483e+002 -6.738394e+001 1.049450e+002 -6.464536e+001 1.306619e+002 -2.118432e-001 1.361864e+002
554360135.90034 -7.625642e-001 1.539035e+002 -6.671704e+001 9.657110e+001 -6.621988e+001 1.280865e+002 -2.173014e-001 1.360369e+002
554737636.84409 -7.678371e-001 1.536211e+002 -6.538524e+001 1.031124e+002 -6.482490e+001 1.272139e+002 -2.266259e-001 1.358861e+002
555115137.78784 -7.695696e-001 1.533596e+002 -6.722805e+001 1.070601e+002 -6.410336e+001 1.261872e+002 -2.285730e-001 1.357341e+002
555492638.7316 -7.753343e-001 1.531299e+002 -6.617914e+001 9.837281e+001 -6.427653e+001 1.267654e+002 -2.363668e-001 1.356261e+002
