!Agilent Technologies,E8364B,US42250235,A.06.04.32
!Agilent E8364B: A.06.04.32
!Date: Thursday, October 01, 2020 16:02:00
!Correction: S11(Full 2 Port(1,2)) S21(Full 2 Port(1,2)) S12(Full 2 Port(1,2)) S22(Full 2 Port(1,2)) 
!S2P File: Measurements: S11, S21, S12, S22:
# Hz S  dB   R 50
500000000 -2.120827e-001 -1.751773e+002 -9.503378e+001 3.543760e+001 -7.634402e+001 1.049353e+002 4.606780e-002 1.436611e+002
500377500.94375 -2.144838e-001 -1.754162e+002 -8.342807e+001 -6.556525e+000 -7.587212e+001 1.146340e+002 4.653105e-002 1.438292e+002
500755001.8875 -2.164216e-001 -1.755406e+002 -9.498639e+001 -7.071792e+001 -7.449471e+001 9.696292e+001 4.402424e-002 1.439779e+002
501132502.83126 -2.220597e-001 -1.757663e+002 -8.635811e+001 2.428559e+001 -7.702560e+001 1.050956e+002 3.814280e-002 1.441337e+002
501510003.77501 -2.215323e-001 -1.759698e+002 -8.289830e+001 1.001473e+002 -7.830892e+001 9.354950e+001 3.645944e-002 1.443080e+002
501887504.71876 -2.230105e-001 -1.761588e+002 -8.774992e+001 4.861263e+001 -7.444842e+001 1.090246e+002 3.437494e-002 1.444235e+002
502265005.66251 -2.308509e-001 -1.763423e+002 -7.991563e+001 8.309555e+001 -7.893436e+001 1.407417e+002 2.922692e-002 1.445556e+002
502642506.60627 -2.323349e-001 -1.765473e+002 -9.184066e+001 6.333452e+001 -7.483484e+001 9.529614e+001 2.289138e-002 1.447006e+002
503020007.55002 -2.376558e-001 -1.767659e+002 -8.226984e+001 1.746557e+002 -7.206979e+001 1.213221e+002 1.944464e-002 1.447485e+002
503397508.49377 -2.349027e-001 -1.769831e+002 -8.112846e+001 6.266773e+001 -7.555703e+001 1.101948e+002 1.537902e-002 1.448277e+002
503775009.43752 -2.327063e-001 -1.772517e+002 -8.454911e+001 -8.811536e+001 -7.364550e+001 1.053000e+002 6.488250e-003 1.449056e+002
504152510.38128 -2.392792e-001 -1.774207e+002 -7.455829e+001 1.079848e+001 -7.685723e+001 8.406697e+001 -4.875887e-004 1.449299e+002
504530011.32503 -2.394351e-001 -1.776643e+002 -8.594102e+001 1.143758e+002 -7.244646e+001 1.003340e+002 -5.658478e-003 1.449604e+002
504907512.26878 -2.448954e-001 -1.778301e+002 -9.494749e+001 -8.141866e+000 -7.262415e+001 1.232533e+002 -1.382625e-002 1.449629e+002
505285013.21253 -2.480909e-001 -1.779940e+002 -8.343674e+001 1.039180e+002 -7.248277e+001 1.046010e+002 -2.296084e-002 1.449736e+002
505662514.15629 -2.471193e-001 -1.782407e+002 -8.745253e+001 1.099549e+002 -7.319573e+001 1.053422e+002 -3.065659e-002 1.449148e+002
506040015.10004 -2.523341e-001 -1.784716e+002 -8.950887e+001 -1.469184e+002 -7.294614e+001 1.087926e+002 -3.978213e-002 1.448595e+002
506417516.04379 -2.559466e-001 -1.787022e+002 -8.255769e+001 1.205472e+002 -7.308882e+001 9.434739e+001 -4.886305e-002 1.447854e+002
506795016.98754 -2.610168e-001 -1.788777e+002 -8.122470e+001 2.944418e+001 -7.382861e+001 9.653945e+001 -4.936901e-002 1.446635e+002
507172517.93129 -2.619661e-001 -1.790408e+002 -7.772867e+001 1.025817e+002 -7.534528e+001 9.918190e+001 -5.933775e-002 1.445453e+002
507550018.87505 -2.625006e-001 -1.792433e+002 -8.607386e+001 5.265355e+001 -7.156184e+001 8.434499e+001 -6.635100e-002 1.443731e+002
507927519.8188 -2.697673e-001 -1.795018e+002 -7.912364e+001 3.617163e+001 -7.381589e+001 9.080932e+001 -7.528617e-002 1.442341e+002
508305020.76255 -2.685433e-001 -1.797548e+002 -8.003609e+001 8.653092e+001 -7.393674e+001 1.136753e+002 -8.576571e-002 1.440460e+002
508682521.7063 -2.718510e-001 -1.799203e+002 -8.853761e+001 1.572731e+002 -7.353732e+001 8.662275e+001 -9.469735e-002 1.438521e+002
509060022.65006 -2.787239e-001 1.799066e+002 -8.213850e+001 1.056851e+002 -7.539419e+001 7.867282e+001 -9.395498e-002 1.435951e+002
509437523.59381 -2.761419e-001 1.795949e+002 -8.389071e+001 6.057924e+001 -7.271308e+001 9.504504e+001 -9.543841e-002 1.433924e+002
509815024.53756 -2.778568e-001 1.794563e+002 -8.224420e+001 4.222374e+001 -7.329525e+001 9.691312e+001 -9.859488e-002 1.431308e+002
510192525.48131 -2.843673e-001 1.792354e+002 -8.186019e+001 5.993634e+001 -7.194061e+001 9.653825e+001 -1.027383e-001 1.428708e+002
510570026.42507 -2.884307e-001 1.789543e+002 -8.841881e+001 5.096505e+001 -7.213709e+001 8.107677e+001 -1.027408e-001 1.426208e+002
510947527.36882 -2.884312e-001 1.788047e+002 -8.913390e+001 -1.255413e+002 -7.408929e+001 8.880879e+001 -1.067915e-001 1.423412e+002
511325028.31257 -2.937872e-001 1.785432e+002 -7.724881e+001 4.454797e+001 -7.457672e+001 1.071032e+002 -1.057630e-001 1.420660e+002
511702529.25632 -2.940344e-001 1.783101e+002 -8.543893e+001 1.006519e+002 -7.529484e+001 7.491769e+001 -1.071914e-001 1.417860e+002
512080030.20008 -3.021194e-001 1.780481e+002 -8.391748e+001 7.926820e+001 -7.177959e+001 1.048868e+002 -1.060825e-001 1.414911e+002
512457531.14383 -3.052778e-001 1.778657e+002 -9.443667e+001 7.938469e+001 -7.067102e+001 8.719353e+001 -1.014746e-001 1.412401e+002
512835032.08758 -3.071769e-001 1.776769e+002 -8.360449e+001 2.538305e+000 -7.320560e+001 9.474683e+001 -9.959550e-002 1.409755e+002
513212533.03133 -3.123909e-001 1.773779e+002 -8.344652e+001 3.993779e+001 -7.096779e+001 8.065343e+001 -9.319086e-002 1.406946e+002
513590033.97508 -3.138490e-001 1.771499e+002 -7.980486e+001 7.442601e+001 -7.537321e+001 7.517452e+001 -9.056390e-002 1.404712e+002
513967534.91884 -3.249088e-001 1.770247e+002 -8.333242e+001 7.820598e+000 -6.912297e+001 8.074471e+001 -8.037756e-002 1.402170e+002
514345035.86259 -3.242920e-001 1.767381e+002 -9.574789e+001 4.789694e+001 -7.312943e+001 7.814917e+001 -8.133343e-002 1.400462e+002
514722536.80634 -3.281449e-001 1.765894e+002 -8.586712e+001 2.600801e+001 -7.376779e+001 7.112212e+001 -7.131243e-002 1.398470e+002
515100037.75009 -3.300982e-001 1.763374e+002 -9.112658e+001 8.641073e+001 -7.344798e+001 9.870339e+001 -6.536652e-002 1.396937e+002
515477538.69385 -3.300781e-001 1.760567e+002 -8.757749e+001 9.295551e+001 -7.101167e+001 8.770833e+001 -5.466348e-002 1.395262e+002
515855039.6376 -3.371921e-001 1.759340e+002 -8.392482e+001 7.695834e+001 -7.114802e+001 6.692926e+001 -4.543575e-002 1.394128e+002
516232540.58135 -3.446834e-001 1.756627e+002 -8.535676e+001 7.321165e+001 -7.487902e+001 9.220683e+001 -3.692899e-002 1.393115e+002
516610041.5251 -3.472340e-001 1.754899e+002 -8.843690e+001 1.179634e+002 -7.358850e+001 5.917024e+001 -3.271584e-002 1.392530e+002
516987542.46886 -3.478542e-001 1.752649e+002 -8.323657e+001 8.814256e+001 -7.487179e+001 7.688295e+001 -2.332130e-002 1.391995e+002
517365043.41261 -3.529432e-001 1.750350e+002 -8.021170e+001 5.199050e+000 -6.955085e+001 7.912820e+001 -1.496433e-002 1.391592e+002
517742544.35636 -3.589915e-001 1.747704e+002 -8.777857e+001 -1.400234e+002 -7.061511e+001 8.984290e+001 -5.195715e-003 1.391773e+002
518120045.30011 -3.626408e-001 1.746003e+002 -9.244680e+001 2.952958e+001 -7.223910e+001 7.806618e+001 4.909318e-003 1.392013e+002
518497546.24387 -3.644930e-001 1.743955e+002 -8.078793e+001 8.723148e+001 -7.438815e+001 9.264253e+001 9.846243e-003 1.392485e+002
518875047.18762 -3.750137e-001 1.741938e+002 -8.113113e+001 1.042205e+002 -7.245600e+001 7.929994e+001 1.979985e-002 1.393091e+002
519252548.13137 -3.762641e-001 1.739594e+002 -8.809972e+001 2.990099e+001 -7.319533e+001 8.008939e+001 2.464460e-002 1.394221e+002
519630049.07512 -3.856635e-001 1.737705e+002 -8.307472e+001 2.144957e+001 -7.108096e+001 7.223571e+001 3.166731e-002 1.395487e+002
520007550.01888 -3.855047e-001 1.734908e+002 -8.280775e+001 7.810542e+001 -7.216721e+001 5.754438e+001 3.703960e-002 1.396709e+002
520385050.96263 -3.895452e-001 1.733807e+002 -8.661076e+001 -6.574889e+000 -7.056500e+001 6.726798e+001 3.985919e-002 1.398048e+002
520762551.90638 -3.924542e-001 1.731666e+002 -7.900608e+001 3.414667e+001 -7.157806e+001 6.585953e+001 4.722390e-002 1.399726e+002
521140052.85013 -3.959571e-001 1.728986e+002 -7.886830e+001 8.636429e+001 -7.130859e+001 7.934111e+001 5.051743e-002 1.401282e+002
521517553.79388 -4.004615e-001 1.727004e+002 -8.153529e+001 2.282952e+001 -7.266219e+001 6.265147e+001 5.441551e-002 1.403392e+002
521895054.73764 -4.023311e-001 1.724935e+002 -8.544684e+001 6.535788e+001 -7.230856e+001 5.864086e+001 5.383187e-002 1.405262e+002
522272555.68139 -4.057970e-001 1.723161e+002 -8.148109e+001 5.467128e+001 -7.182944e+001 5.248627e+001 5.696504e-002 1.407272e+002
522650056.62514 -4.078909e-001 1.720611e+002 -8.761515e+001 3.887103e+001 -7.278938e+001 6.277862e+001 5.744663e-002 1.408940e+002
523027557.56889 -4.149489e-001 1.718537e+002 -8.487749e+001 5.119548e+001 -7.288629e+001 6.060474e+001 5.314810e-002 1.411387e+002
523405058.51265 -4.132605e-001 1.716387e+002 -8.315597e+001 2.877580e+000 -6.994433e+001 6.181120e+001 5.635446e-002 1.413949e+002
523782559.4564 -4.192207e-001 1.714019e+002 -8.321689e+001 7.868669e+001 -7.161961e+001 4.588193e+001 5.168193e-002 1.415197e+002
524160060.40015 -4.232911e-001 1.711615e+002 -8.128773e+001 2.026243e+001 -7.157859e+001 7.005900e+001 4.834741e-002 1.417012e+002
524537561.3439 -4.249968e-001 1.709569e+002 -8.240353e+001 8.125794e+001 -7.201018e+001 5.742434e+001 4.151256e-002 1.418834e+002
524915062.28766 -4.297534e-001 1.707142e+002 -8.507000e+001 6.479731e+001 -7.164449e+001 5.436683e+001 4.110110e-002 1.420640e+002
525292563.23141 -4.300746e-001 1.704408e+002 -8.097410e+001 7.437067e+001 -7.269224e+001 3.759613e+001 3.238093e-002 1.422004e+002
525670064.17516 -4.335631e-001 1.702817e+002 -8.312225e+001 1.224793e+002 -7.419749e+001 7.491484e+001 2.665221e-002 1.423173e+002
526047565.11891 -4.353975e-001 1.700332e+002 -8.141294e+001 1.019619e+002 -7.147390e+001 3.429937e+001 1.956541e-002 1.424347e+002
526425066.06267 -4.421377e-001 1.697770e+002 -8.236321e+001 1.051664e+002 -7.270731e+001 6.074440e+001 7.237990e-003 1.425447e+002
526802567.00642 -4.476353e-001 1.694901e+002 -8.104946e+001 4.919811e+001 -7.317947e+001 7.542954e+001 -1.030411e-003 1.426211e+002
527180067.95017 -4.510354e-001 1.692611e+002 -7.940357e+001 7.301720e+001 -6.947153e+001 6.281950e+001 -9.296281e-003 1.426589e+002
527557568.89392 -4.568875e-001 1.690821e+002 -1.004255e+002 -1.728824e+002 -7.113889e+001 7.087836e+001 -1.418050e-002 1.426961e+002
527935069.83767 -4.661999e-001 1.687855e+002 -8.454852e+001 5.975966e+001 -7.055241e+001 5.955427e+001 -2.308883e-002 1.427049e+002
528312570.78143 -4.674876e-001 1.685279e+002 -7.695010e+001 9.760133e+001 -6.996782e+001 6.883502e+001 -3.382074e-002 1.426777e+002
528690071.72518 -4.728822e-001 1.683552e+002 -7.973524e+001 5.536841e+001 -6.984442e+001 7.151154e+001 -4.056053e-002 1.426284e+002
529067572.66893 -4.803701e-001 1.680449e+002 -7.818293e+001 5.631078e+001 -7.063148e+001 6.645843e+001 -5.526816e-002 1.425570e+002
529445073.61268 -4.890566e-001 1.678932e+002 -8.390313e+001 7.067545e+001 -7.042121e+001 6.673170e+001 -6.319602e-002 1.424792e+002
529822574.55644 -4.923178e-001 1.676217e+002 -8.036142e+001 5.683671e+001 -6.790078e+001 5.086131e+001 -7.489438e-002 1.423407e+002
530200075.50019 -4.983253e-001 1.673159e+002 -8.267446e+001 2.267545e+001 -7.242282e+001 6.888605e+001 -7.956921e-002 1.421830e+002
530577576.44394 -5.079231e-001 1.670490e+002 -7.580413e+001 6.987338e+001 -7.251166e+001 6.304463e+001 -9.340754e-002 1.420087e+002
530955077.38769 -5.145952e-001 1.668002e+002 -7.995735e+001 4.482754e+001 -6.834615e+001 4.459747e+001 -1.026287e-001 1.418423e+002
531332578.33145 -5.224823e-001 1.666489e+002 -7.658287e+001 6.220419e+001 -6.806250e+001 6.383808e+001 -1.073672e-001 1.416186e+002
531710079.2752 -5.266653e-001 1.663443e+002 -7.550141e+001 7.744958e+001 -6.916540e+001 5.371239e+001 -1.198308e-001 1.413634e+002
532087580.21895 -5.365649e-001 1.661320e+002 -7.760555e+001 6.883277e+001 -6.844288e+001 4.076234e+001 -1.212823e-001 1.411131e+002
532465081.1627 -5.428949e-001 1.659244e+002 -7.746731e+001 5.812972e+001 -6.839322e+001 5.328116e+001 -1.280634e-001 1.408515e+002
532842582.10646 -5.488151e-001 1.656540e+002 -7.313007e+001 3.952763e+001 -6.859688e+001 5.009075e+001 -1.334381e-001 1.405343e+002
533220083.05021 -5.558982e-001 1.654077e+002 -7.760954e+001 4.696155e+001 -6.886710e+001 5.798932e+001 -1.398236e-001 1.403030e+002
533597583.99396 -5.639856e-001 1.651932e+002 -7.864043e+001 5.273102e+001 -6.760063e+001 5.185910e+001 -1.415984e-001 1.400286e+002
533975084.93771 -5.727918e-001 1.648861e+002 -7.334649e+001 4.677467e+001 -6.726171e+001 4.199745e+001 -1.465286e-001 1.396768e+002
534352585.88146 -5.807257e-001 1.646872e+002 -7.392088e+001 4.815932e+001 -6.771386e+001 4.496044e+001 -1.514099e-001 1.393752e+002
534730086.82522 -5.888312e-001 1.644631e+002 -7.311118e+001 5.929763e+001 -6.873210e+001 3.527760e+001 -1.487755e-001 1.390876e+002
535107587.76897 -5.966976e-001 1.642252e+002 -7.747646e+001 4.026189e+001 -6.822187e+001 4.143737e+001 -1.522204e-001 1.387915e+002
535485088.71272 -6.016620e-001 1.639431e+002 -7.468873e+001 4.216903e+001 -6.658099e+001 3.916490e+001 -1.494473e-001 1.384553e+002
535862589.65647 -6.127218e-001 1.637098e+002 -7.457589e+001 2.316606e+001 -6.895923e+001 2.878746e+001 -1.490801e-001 1.381425e+002
536240090.60023 -6.181814e-001 1.635101e+002 -7.690219e+001 5.808423e+001 -6.807821e+001 3.875937e+001 -1.456351e-001 1.378497e+002
536617591.54398 -6.276756e-001 1.632265e+002 -7.354746e+001 4.659074e+001 -6.792523e+001 3.191684e+001 -1.418944e-001 1.375719e+002
536995092.48773 -6.377161e-001 1.630424e+002 -7.695653e+001 3.127279e+001 -6.650110e+001 3.649080e+001 -1.376579e-001 1.373026e+002
537372593.43148 -6.431623e-001 1.627827e+002 -7.526263e+001 2.716429e+001 -6.706190e+001 2.102205e+001 -1.337710e-001 1.370577e+002
537750094.37524 -6.493317e-001 1.625291e+002 -7.623844e+001 6.569886e+000 -6.824206e+001 2.930409e+001 -1.273308e-001 1.368179e+002
538127595.31899 -6.627926e-001 1.623503e+002 -7.231065e+001 4.879984e+000 -6.825228e+001 2.741867e+001 -1.236495e-001 1.365969e+002
538505096.26274 -6.684553e-001 1.621664e+002 -7.347765e+001 4.075430e+001 -6.880305e+001 1.246302e+001 -1.180838e-001 1.364273e+002
538882597.20649 -6.757595e-001 1.619150e+002 -7.450175e+001 1.393149e+001 -6.747449e+001 1.612691e+001 -1.102669e-001 1.362187e+002
539260098.15025 -6.869239e-001 1.616320e+002 -8.412593e+001 -2.123874e+001 -6.884934e+001 2.938757e+001 -1.032573e-001 1.360612e+002
539637599.094 -6.979526e-001 1.614110e+002 -7.846835e+001 5.920157e+001 -6.792594e+001 1.883894e+001 -9.770894e-002 1.359083e+002
540015100.03775 -7.056874e-001 1.612462e+002 -7.496270e+001 4.533882e+001 -6.876361e+001 3.018093e+001 -9.056463e-002 1.358296e+002
540392600.9815 -7.156869e-001 1.610332e+002 -7.937193e+001 3.925125e+001 -6.858127e+001 2.816552e+001 -8.490516e-002 1.356812e+002
540770101.92525 -7.275448e-001 1.607435e+002 -7.400931e+001 6.537607e+001 -6.767221e+001 2.363943e+001 -7.651918e-002 1.355940e+002
541147602.86901 -7.329582e-001 1.605976e+002 -7.515380e+001 3.382101e+001 -6.745111e+001 1.961396e+001 -7.014531e-002 1.355296e+002
541525103.81276 -7.397062e-001 1.602988e+002 -7.313799e+001 5.636866e+001 -6.760082e+001 2.734310e+001 -6.290140e-002 1.354776e+002
541902604.75651 -7.518612e-001 1.601281e+002 -7.449818e+001 5.246235e+001 -6.727767e+001 2.992487e+001 -5.946955e-002 1.354522e+002
542280105.70026 -7.634628e-001 1.599051e+002 -7.508170e+001 4.104332e+001 -6.730279e+001 1.546582e+001 -4.705434e-002 1.354370e+002
542657606.64402 -7.705529e-001 1.597489e+002 -7.318257e+001 2.399029e+001 -6.707478e+001 1.718136e+001 -4.305749e-002 1.354621e+002
543035107.58777 -7.768005e-001 1.595654e+002 -7.196346e+001 2.953383e+001 -6.633602e+001 2.216094e+001 -3.771495e-002 1.354619e+002
543412608.53152 -7.874460e-001 1.593398e+002 -7.345033e+001 1.889519e+001 -6.596867e+001 7.056277e+000 -3.391764e-002 1.355022e+002
543790109.47527 -7.944019e-001 1.591812e+002 -7.277368e+001 1.097586e+001 -6.487598e+001 1.165399e+001 -2.906951e-002 1.355410e+002
544167610.41903 -8.023037e-001 1.589257e+002 -7.224547e+001 2.488743e+001 -6.764304e+001 4.598121e+000 -2.092918e-002 1.356123e+002
544545111.36278 -8.027956e-001 1.587820e+002 -7.222229e+001 2.254923e+000 -6.530011e+001 1.373707e+001 -1.853459e-002 1.356817e+002
544922612.30653 -8.097696e-001 1.584708e+002 -7.018087e+001 2.324704e+001 -6.635719e+001 8.545691e-001 -1.292201e-002 1.357677e+002
545300113.25028 -8.161795e-001 1.583176e+002 -7.079677e+001 7.758239e+000 -6.608136e+001 7.244216e+000 -9.754943e-003 1.358592e+002
545677614.19404 -8.188189e-001 1.580915e+002 -7.010690e+001 1.159355e+001 -6.556436e+001 3.522287e+000 -8.340663e-003 1.359543e+002
546055115.13779 -8.259993e-001 1.578981e+002 -7.157758e+001 8.991075e+000 -6.534931e+001 1.079065e+001 -8.929378e-003 1.360856e+002
546432616.08154 -8.315160e-001 1.576557e+002 -7.173255e+001 1.118062e+001 -6.642741e+001 8.734791e+000 -4.939812e-003 1.361626e+002
546810117.02529 -8.351348e-001 1.574017e+002 -7.221828e+001 -7.704122e+000 -6.628930e+001 -3.656745e+000 -4.710430e-003 1.362862e+002
547187617.96904 -8.403599e-001 1.572345e+002 -7.076934e+001 8.208997e+000 -6.585179e+001 3.185816e+000 -1.341967e-003 1.364073e+002
547565118.9128 -8.481210e-001 1.570419e+002 -7.037260e+001 -1.187266e+001 -6.674589e+001 -4.078204e+000 -4.862966e-003 1.364904e+002
547942619.85655 -8.575736e-001 1.568147e+002 -7.086036e+001 -1.269561e+001 -6.524734e+001 1.362990e+000 -2.402047e-003 1.366120e+002
548320120.8003 -8.619546e-001 1.565909e+002 -6.978694e+001 -8.262509e+000 -6.521094e+001 7.951981e-001 -4.729221e-003 1.367082e+002
548697621.74405 -8.650429e-001 1.563178e+002 -7.007487e+001 -1.142440e+001 -6.532105e+001 4.015790e+000 -3.376086e-003 1.367953e+002
549075122.68781 -8.737604e-001 1.561348e+002 -7.157810e+001 7.422506e-001 -6.616589e+001 1.443395e+000 -7.555066e-003 1.369488e+002
549452623.63156 -8.825254e-001 1.558670e+002 -7.001468e+001 -3.055328e-001 -6.586148e+001 -7.939215e+000 -1.198349e-002 1.369822e+002
549830124.57531 -8.839138e-001 1.556928e+002 -7.097297e+001 -2.388466e+000 -6.526100e+001 -4.651852e+000 -1.147681e-002 1.370762e+002
550207625.51906 -8.914367e-001 1.554009e+002 -7.112572e+001 -1.059929e+001 -6.496508e+001 -2.340058e+000 -1.826476e-002 1.371238e+002
550585126.46282 -8.973689e-001 1.551763e+002 -7.153709e+001 -2.384744e+001 -6.488638e+001 -7.871091e+000 -2.223296e-002 1.372018e+002
550962627.40657 -9.026901e-001 1.549500e+002 -6.718631e+001 -2.160479e+001 -6.582516e+001 -1.003472e+001 -2.404486e-002 1.372442e+002
551340128.35032 -9.073612e-001 1.547147e+002 -6.939988e+001 -2.600464e+001 -6.513017e+001 -1.228370e+001 -2.863317e-002 1.372733e+002
551717629.29407 -9.146709e-001 1.544387e+002 -6.933498e+001 -2.486773e+001 -6.466714e+001 -1.599846e+001 -3.299251e-002 1.372958e+002
552095130.23783 -9.194798e-001 1.541463e+002 -7.016097e+001 -2.252317e+001 -6.460714e+001 -2.337016e+001 -3.897144e-002 1.373042e+002
552472631.18158 -9.282676e-001 1.539083e+002 -7.056895e+001 -2.760373e+001 -6.467081e+001 -1.715869e+001 -4.507747e-002 1.373021e+002
552850132.12533 -9.322788e-001 1.537037e+002 -6.839307e+001 -4.462893e+001 -6.573387e+001 -9.484772e+000 -5.212346e-002 1.372775e+002
553227633.06908 -9.422049e-001 1.533857e+002 -6.913628e+001 -3.709367e+001 -6.509147e+001 -1.729476e+001 -5.779603e-002 1.372364e+002
553605134.01284 -9.511631e-001 1.531912e+002 -7.286275e+001 -3.749770e+001 -6.608285e+001 -1.616051e+001 -6.106024e-002 1.371916e+002
553982634.95659 -9.634902e-001 1.528977e+002 -7.312006e+001 -4.088634e+001 -6.612763e+001 -2.205973e+001 -6.750989e-002 1.371163e+002
554360135.90034 -9.752104e-001 1.526631e+002 -7.007394e+001 -5.143343e+001 -6.614624e+001 -1.592866e+001 -7.432702e-002 1.370373e+002
554737636.84409 -9.837191e-001 1.524473e+002 -7.201419e+001 -3.541696e+001 -6.688946e+001 -2.318378e+001 -8.187872e-002 1.369412e+002
555115137.78784 -9.936855e-001 1.521868e+002 -7.214729e+001 -4.023089e+001 -6.663670e+001 -1.515037e+001 -8.314648e-002 1.368318e+002
555492638.7316 -1.004145e+000 1.519296e+002 -7.263269e+001 -5.098145e+001 -6.662341e+001 -2.301478e+001 -8.946190e-002 1.367022e+002
555870139.67535 -1.006981e+000 1.517376e+002 -7.204303e+001 -4.754630e+001 -6.569140e+001 -2.337444e+001 -9.417051e-002 1.365893e+002
