!Agilent Technologies,E8364B,US42250235,A.06.04.32
!Agilent E8364B: A.06.04.32
!Date: Thursday, October 01, 2020 16:04:03
!Correction: S11(Full 2 Port(1,2)) S21(Full 2 Port(1,2)) S12(Full 2 Port(1,2)) S22(Full 2 Port(1,2)) 
!S2P File: Measurements: S11, S21, S12, S22:
# Hz S  dB   R 50
500000000 -2.552764e-001 -1.752570e+002 -7.334358e+001 1.985494e+001 -8.074355e+001 5.299204e+001 1.973395e-002 1.434649e+002
500377500.94375 -2.555251e-001 -1.754265e+002 -7.154246e+001 1.361180e+001 -7.583495e+001 1.847896e+001 1.894046e-002 1.436526e+002
500755001.8875 -2.556401e-001 -1.756095e+002 -7.278631e+001 -9.349488e+000 -7.701258e+001 4.288437e+001 2.056938e-002 1.438024e+002
501132502.83126 -2.635779e-001 -1.758156e+002 -7.157824e+001 1.919582e+001 -7.561099e+001 1.025208e+001 1.812906e-002 1.439653e+002
501510003.77501 -2.663251e-001 -1.759745e+002 -7.575928e+001 2.828640e+001 -7.829581e+001 2.289685e+001 1.343335e-002 1.441275e+002
501887504.71876 -2.661924e-001 -1.762381e+002 -7.147616e+001 3.284592e+001 -8.178010e+001 2.253184e+001 8.519815e-003 1.442480e+002
502265005.66251 -2.746814e-001 -1.763621e+002 -7.279907e+001 1.381938e+001 -7.742193e+001 1.008675e+001 5.374971e-003 1.443764e+002
502642506.60627 -2.716435e-001 -1.766175e+002 -7.285023e+001 6.993893e-001 -7.564771e+001 4.186528e+001 -1.244781e-003 1.445221e+002
503020007.55002 -2.803346e-001 -1.767746e+002 -7.599239e+001 -1.416916e+001 -7.949628e+001 3.597368e+001 -7.579002e-003 1.445837e+002
503397508.49377 -2.779329e-001 -1.769546e+002 -7.186983e+001 1.643647e+001 -7.369808e+001 4.006321e+001 -9.965686e-003 1.446543e+002
503775009.43752 -2.784065e-001 -1.772498e+002 -7.315853e+001 -2.365366e+000 -7.383022e+001 2.276950e+001 -1.962450e-002 1.447515e+002
504152510.38128 -2.866339e-001 -1.773643e+002 -7.394901e+001 1.965822e+001 -7.567965e+001 2.955528e+000 -2.534870e-002 1.447546e+002
504530011.32503 -2.863344e-001 -1.776463e+002 -7.318353e+001 6.918593e+000 -7.460371e+001 2.823938e+001 -3.204988e-002 1.448127e+002
504907512.26878 -2.930179e-001 -1.777771e+002 -7.518652e+001 7.506176e+000 -7.484047e+001 3.345776e+001 -4.024672e-002 1.448106e+002
505285013.21253 -2.942164e-001 -1.780049e+002 -7.247755e+001 1.354123e+001 -7.882619e+001 1.225466e+001 -4.646815e-002 1.447945e+002
505662514.15629 -2.937162e-001 -1.782138e+002 -7.268810e+001 6.536832e+000 -7.339865e+001 2.977681e+001 -5.417434e-002 1.447789e+002
506040015.10004 -2.994059e-001 -1.783887e+002 -7.233347e+001 2.631306e+000 -7.220190e+001 3.191048e+001 -6.342893e-002 1.447105e+002
506417516.04379 -3.014111e-001 -1.786685e+002 -7.205542e+001 -3.138520e+000 -7.373061e+001 2.536408e+001 -7.245035e-002 1.446137e+002
506795016.98754 -3.091494e-001 -1.787886e+002 -7.252314e+001 1.616441e+001 -7.502811e+001 3.119995e+001 -7.769820e-002 1.445221e+002
507172517.93129 -3.116584e-001 -1.790384e+002 -6.976001e+001 7.507576e+000 -7.147365e+001 2.357047e+001 -7.939071e-002 1.444026e+002
507550018.87505 -3.146669e-001 -1.791977e+002 -7.213359e+001 7.989531e+000 -7.167485e+001 3.041474e+001 -8.681935e-002 1.442313e+002
507927519.8188 -3.184714e-001 -1.794331e+002 -7.417923e+001 -1.075124e+000 -7.555126e+001 -6.595775e-002 -1.003255e-001 1.440862e+002
508305020.76255 -3.194879e-001 -1.796695e+002 -7.054110e+001 7.230258e+000 -7.243893e+001 1.211770e+001 -1.045276e-001 1.438961e+002
508682521.7063 -3.220609e-001 -1.798733e+002 -7.508005e+001 -9.303477e-001 -6.982356e+001 1.674911e+001 -1.150700e-001 1.436994e+002
509060022.65006 -3.276796e-001 1.799595e+002 -7.263863e+001 -6.732899e+000 -7.228516e+001 1.644323e+001 -1.169403e-001 1.434462e+002
509437523.59381 -3.303754e-001 1.796992e+002 -7.413731e+001 -6.004267e+000 -7.422267e+001 2.763254e+001 -1.177977e-001 1.432426e+002
509815024.53756 -3.305359e-001 1.795258e+002 -7.006505e+001 -2.670197e+000 -7.280220e+001 3.364072e+000 -1.224421e-001 1.429838e+002
510192525.48131 -3.360940e-001 1.793704e+002 -7.202354e+001 -6.188884e+000 -7.615044e+001 2.271862e+001 -1.268132e-001 1.427159e+002
510570026.42507 -3.419530e-001 1.791510e+002 -7.166219e+001 1.648283e+001 -7.621764e+001 -1.388118e+001 -1.264357e-001 1.424674e+002
510947527.36882 -3.386339e-001 1.789101e+002 -7.122546e+001 -9.314093e+000 -7.006239e+001 1.384041e+001 -1.275524e-001 1.422056e+002
511325028.31257 -3.470683e-001 1.787389e+002 -7.024918e+001 3.185000e+000 -7.374329e+001 1.676911e+001 -1.308332e-001 1.419046e+002
511702529.25632 -3.470910e-001 1.784460e+002 -7.275186e+001 -4.527221e+000 -7.347359e+001 6.655608e+000 -1.296876e-001 1.416217e+002
512080030.20008 -3.541392e-001 1.782295e+002 -7.162255e+001 -4.228117e+000 -6.967517e+001 5.720363e+000 -1.268124e-001 1.413485e+002
512457531.14383 -3.587520e-001 1.780925e+002 -7.027828e+001 -9.653771e+000 -7.177699e+001 9.071811e+000 -1.220630e-001 1.410991e+002
512835032.08758 -3.621741e-001 1.778237e+002 -7.075259e+001 2.303770e+000 -7.391715e+001 4.390169e+000 -1.223972e-001 1.408244e+002
513212533.03133 -3.646067e-001 1.775871e+002 -7.246067e+001 -7.720244e+000 -7.157930e+001 -3.115744e+000 -1.187129e-001 1.405487e+002
513590033.97508 -3.688678e-001 1.773910e+002 -6.938863e+001 1.148943e+001 -6.907904e+001 6.027930e+000 -1.099185e-001 1.403304e+002
513967534.91884 -3.750168e-001 1.772615e+002 -7.082538e+001 -2.113569e+001 -6.784876e+001 -8.306659e+000 -1.041720e-001 1.400926e+002
514345035.86259 -3.757268e-001 1.769895e+002 -7.031526e+001 -9.395395e+000 -6.918585e+001 -5.828831e+000 -1.017942e-001 1.398876e+002
514722536.80634 -3.812835e-001 1.768122e+002 -6.838042e+001 -1.595682e+001 -7.111707e+001 -8.870495e+000 -9.450334e-002 1.396952e+002
515100037.75009 -3.813215e-001 1.766631e+002 -6.971706e+001 -5.430727e+000 -6.941398e+001 -4.962322e+000 -8.694747e-002 1.395192e+002
515477538.69385 -3.850637e-001 1.763574e+002 -6.914111e+001 -1.159075e+001 -6.971498e+001 -1.003381e+001 -8.127641e-002 1.393713e+002
515855039.6376 -3.871463e-001 1.762407e+002 -7.224745e+001 -3.766035e+001 -7.145898e+001 -5.808249e+000 -7.213864e-002 1.392384e+002
516232540.58135 -3.948314e-001 1.760358e+002 -6.965409e+001 -1.209931e+001 -6.940093e+001 -2.108361e+001 -6.232162e-002 1.391536e+002
516610041.5251 -3.981814e-001 1.757890e+002 -6.907021e+001 -2.781822e+001 -7.027236e+001 -1.699468e+001 -5.775607e-002 1.390708e+002
516987542.46886 -3.971198e-001 1.756214e+002 -6.873563e+001 -2.572074e+001 -7.275651e+001 -2.971927e+001 -4.910363e-002 1.390156e+002
517365043.41261 -3.983678e-001 1.753832e+002 -7.000526e+001 -2.178617e+001 -7.219996e+001 -2.137836e+001 -4.404159e-002 1.389695e+002
517742544.35636 -4.015088e-001 1.751345e+002 -7.139913e+001 -2.936432e+001 -6.884987e+001 -2.997574e+001 -3.275272e-002 1.389875e+002
518120045.30011 -4.056957e-001 1.750125e+002 -6.870860e+001 -2.681097e+001 -7.112315e+001 -2.281646e+001 -2.517044e-002 1.390084e+002
518497546.24387 -4.061272e-001 1.747795e+002 -6.853064e+001 -2.574426e+001 -7.202637e+001 -2.232483e+001 -1.840416e-002 1.390515e+002
518875047.18762 -4.116480e-001 1.745787e+002 -7.089864e+001 -2.719895e+001 -7.163384e+001 -2.838283e+001 -8.514858e-003 1.391251e+002
519252548.13137 -4.150196e-001 1.744121e+002 -6.840627e+001 -2.601315e+001 -6.990540e+001 -3.285900e+001 -4.634578e-003 1.391960e+002
519630049.07512 -4.225965e-001 1.741819e+002 -7.014204e+001 -2.773605e+001 -6.986881e+001 -3.326205e+001 -8.313536e-004 1.393236e+002
520007550.01888 -4.199633e-001 1.738979e+002 -6.966187e+001 -2.255358e+001 -7.180174e+001 -3.793944e+001 6.674058e-003 1.394595e+002
520385050.96263 -4.234858e-001 1.737591e+002 -6.917634e+001 -3.853394e+001 -7.241785e+001 -4.192157e+001 1.141246e-002 1.396036e+002
520762551.90638 -4.264572e-001 1.735689e+002 -6.943816e+001 -3.720124e+001 -7.022086e+001 -3.525681e+001 1.536386e-002 1.397663e+002
521140052.85013 -4.305411e-001 1.733076e+002 -6.773605e+001 -3.697381e+001 -7.071410e+001 -3.021005e+001 2.046192e-002 1.399212e+002
521517553.79388 -4.320179e-001 1.731748e+002 -6.949535e+001 -3.845127e+001 -7.285017e+001 -3.926974e+001 2.208650e-002 1.401141e+002
521895054.73764 -4.335185e-001 1.729151e+002 -6.969478e+001 -3.281145e+001 -6.904611e+001 -3.347838e+001 2.075321e-002 1.402985e+002
522272555.68139 -4.386822e-001 1.727562e+002 -6.929856e+001 -3.626623e+001 -6.967861e+001 -3.328727e+001 2.509404e-002 1.405069e+002
522650056.62514 -4.433446e-001 1.725196e+002 -7.072487e+001 -2.735955e+001 -6.943565e+001 -4.648420e+001 2.104617e-002 1.406855e+002
523027557.56889 -4.460956e-001 1.723375e+002 -6.788928e+001 -3.374884e+001 -7.037928e+001 -3.182502e+001 2.219723e-002 1.409053e+002
523405058.51265 -4.443188e-001 1.721068e+002 -7.059889e+001 -3.470331e+001 -6.813598e+001 -2.862422e+001 2.011871e-002 1.411323e+002
523782559.4564 -4.490299e-001 1.718726e+002 -6.983923e+001 -4.745276e+001 -7.072659e+001 -3.671469e+001 1.707395e-002 1.412750e+002
524160060.40015 -4.526262e-001 1.716351e+002 -7.019579e+001 -3.204690e+001 -7.100314e+001 -3.335828e+001 1.524544e-002 1.414738e+002
524537561.3439 -4.519504e-001 1.714884e+002 -6.713843e+001 -4.810482e+001 -7.104836e+001 -4.567421e+001 8.720992e-003 1.416344e+002
524915062.28766 -4.601208e-001 1.712281e+002 -6.850533e+001 -4.069998e+001 -7.021539e+001 -4.173586e+001 3.717180e-003 1.418215e+002
525292563.23141 -4.614753e-001 1.709467e+002 -6.832453e+001 -3.930033e+001 -6.941943e+001 -4.703606e+001 -5.149126e-003 1.419357e+002
525670064.17516 -4.610839e-001 1.707702e+002 -6.736548e+001 -4.395856e+001 -7.124026e+001 -3.319223e+001 -9.565976e-003 1.420552e+002
526047565.11891 -4.657273e-001 1.705208e+002 -6.766717e+001 -4.183264e+001 -6.852067e+001 -5.376855e+001 -1.703967e-002 1.421756e+002
526425066.06267 -4.712584e-001 1.702850e+002 -6.743317e+001 -4.294271e+001 -6.931374e+001 -4.020192e+001 -2.872214e-002 1.422702e+002
526802567.00642 -4.735453e-001 1.700750e+002 -6.852200e+001 -3.981182e+001 -6.656303e+001 -4.711396e+001 -3.597149e-002 1.423502e+002
527180067.95017 -4.751849e-001 1.698879e+002 -7.001939e+001 -3.865274e+001 -6.947894e+001 -2.762893e+001 -4.258278e-002 1.423724e+002
527557568.89392 -4.781339e-001 1.696283e+002 -6.843476e+001 -4.318778e+001 -6.711571e+001 -5.269610e+001 -5.166907e-002 1.424149e+002
527935069.83767 -4.855021e-001 1.694608e+002 -6.763953e+001 -4.796643e+001 -7.001255e+001 -4.084806e+001 -6.176357e-002 1.424081e+002
528312570.78143 -4.890025e-001 1.692006e+002 -6.673979e+001 -2.978532e+001 -6.751075e+001 -5.453032e+001 -7.131884e-002 1.423875e+002
528690071.72518 -4.880068e-001 1.690183e+002 -6.653276e+001 -4.650455e+001 -6.857352e+001 -5.720586e+001 -7.861489e-002 1.423274e+002
529067572.66893 -4.923134e-001 1.687606e+002 -6.783131e+001 -4.880771e+001 -6.722289e+001 -5.629177e+001 -9.489892e-002 1.422547e+002
529445073.61268 -4.930878e-001 1.685380e+002 -6.526449e+001 -5.179826e+001 -6.732920e+001 -6.509583e+001 -1.032891e-001 1.421736e+002
529822574.55644 -4.977016e-001 1.683053e+002 -6.768239e+001 -6.636252e+001 -6.682979e+001 -6.243350e+001 -1.122730e-001 1.419989e+002
530200075.50019 -5.016382e-001 1.679788e+002 -6.728578e+001 -5.934394e+001 -6.796141e+001 -5.355850e+001 -1.194204e-001 1.418480e+002
530577576.44394 -5.118550e-001 1.677632e+002 -6.700691e+001 -5.557539e+001 -6.862494e+001 -5.136427e+001 -1.302900e-001 1.416746e+002
530955077.38769 -5.132360e-001 1.675227e+002 -6.646223e+001 -6.259370e+001 -6.735187e+001 -6.243835e+001 -1.381119e-001 1.414870e+002
531332578.33145 -5.187529e-001 1.673445e+002 -6.879075e+001 -6.770287e+001 -6.720384e+001 -6.488412e+001 -1.456312e-001 1.412759e+002
531710079.2752 -5.200728e-001 1.670710e+002 -6.564262e+001 -6.237990e+001 -6.871510e+001 -6.881797e+001 -1.578221e-001 1.410088e+002
532087580.21895 -5.277564e-001 1.669241e+002 -6.635123e+001 -7.141585e+001 -6.654680e+001 -7.644654e+001 -1.568294e-001 1.407471e+002
532465081.1627 -5.272616e-001 1.666810e+002 -6.788983e+001 -7.402336e+001 -6.863837e+001 -7.491605e+001 -1.675179e-001 1.404759e+002
532842582.10646 -5.308979e-001 1.664187e+002 -6.662582e+001 -7.256540e+001 -6.783595e+001 -7.856792e+001 -1.721672e-001 1.401972e+002
533220083.05021 -5.353052e-001 1.661941e+002 -6.602859e+001 -6.607906e+001 -6.845889e+001 -7.253531e+001 -1.793396e-001 1.399230e+002
533597583.99396 -5.416251e-001 1.659849e+002 -6.781463e+001 -6.892982e+001 -6.861489e+001 -9.088448e+001 -1.796126e-001 1.396437e+002
533975084.93771 -5.474216e-001 1.656824e+002 -6.675766e+001 -8.783427e+001 -6.956913e+001 -9.623030e+001 -1.813780e-001 1.392935e+002
534352585.88146 -5.481021e-001 1.654910e+002 -6.758572e+001 -8.457903e+001 -6.814578e+001 -8.067545e+001 -1.821454e-001 1.389760e+002
534730086.82522 -5.502029e-001 1.652625e+002 -6.857309e+001 -8.580355e+001 -6.942234e+001 -9.218917e+001 -1.850150e-001 1.386795e+002
535107587.76897 -5.557174e-001 1.650592e+002 -6.947454e+001 -8.436996e+001 -6.873421e+001 -9.074153e+001 -1.876769e-001 1.383761e+002
535485088.71272 -5.572789e-001 1.647631e+002 -6.744187e+001 -7.455788e+001 -6.868096e+001 -8.790735e+001 -1.837510e-001 1.380553e+002
535862589.65647 -5.621022e-001 1.645159e+002 -6.976672e+001 -9.553191e+001 -6.976031e+001 -8.874958e+001 -1.816608e-001 1.377537e+002
536240090.60023 -5.614660e-001 1.643167e+002 -6.801479e+001 -8.733931e+001 -7.206815e+001 -9.880145e+001 -1.774399e-001 1.374677e+002
536617591.54398 -5.714547e-001 1.640161e+002 -6.888636e+001 -8.887870e+001 -7.094548e+001 -7.864361e+001 -1.761381e-001 1.371838e+002
536995092.48773 -5.760022e-001 1.638776e+002 -6.842341e+001 -8.857625e+001 -6.886805e+001 -8.518227e+001 -1.692229e-001 1.369240e+002
537372593.43148 -5.769181e-001 1.635595e+002 -6.851597e+001 -8.774156e+001 -6.990826e+001 -8.436150e+001 -1.613769e-001 1.366732e+002
537750094.37524 -5.851120e-001 1.633593e+002 -6.964619e+001 -8.024252e+001 -7.055040e+001 -9.102814e+001 -1.566833e-001 1.364488e+002
538127595.31899 -5.892310e-001 1.631276e+002 -6.841863e+001 -8.783135e+001 -7.019138e+001 -9.572537e+001 -1.527784e-001 1.362384e+002
538505096.26274 -5.941992e-001 1.629389e+002 -6.846725e+001 -8.624959e+001 -6.860584e+001 -8.840551e+001 -1.437378e-001 1.360612e+002
538882597.20649 -5.991381e-001 1.626980e+002 -6.949982e+001 -7.993127e+001 -6.967612e+001 -7.482848e+001 -1.338690e-001 1.358408e+002
539260098.15025 -6.040472e-001 1.623923e+002 -6.845051e+001 -9.025543e+001 -6.853252e+001 -9.288377e+001 -1.286979e-001 1.356989e+002
539637599.094 -6.089215e-001 1.621752e+002 -6.809163e+001 -9.816050e+001 -7.005045e+001 -8.136917e+001 -1.205714e-001 1.355470e+002
540015100.03775 -6.138113e-001 1.619626e+002 -7.072310e+001 -8.624915e+001 -7.060480e+001 -9.288630e+001 -1.120503e-001 1.354881e+002
540392600.9815 -6.192701e-001 1.617999e+002 -6.947150e+001 -9.630154e+001 -7.148400e+001 -9.229471e+001 -1.065964e-001 1.353466e+002
540770101.92525 -6.281500e-001 1.615275e+002 -6.936617e+001 -8.963743e+001 -6.995924e+001 -1.128212e+002 -9.758781e-002 1.352826e+002
541147602.86901 -6.259965e-001 1.613161e+002 -6.885116e+001 -8.653514e+001 -7.160277e+001 -8.139837e+001 -9.126956e-002 1.352133e+002
541525103.81276 -6.272524e-001 1.610029e+002 -6.980983e+001 -9.074097e+001 -7.127424e+001 -8.543999e+001 -8.374519e-002 1.351581e+002
541902604.75651 -6.338748e-001 1.608296e+002 -6.962899e+001 -9.629536e+001 -7.109169e+001 -8.701726e+001 -7.674688e-002 1.351544e+002
542280105.70026 -6.440775e-001 1.606253e+002 -7.006195e+001 -8.110333e+001 -7.230787e+001 -8.487521e+001 -6.811709e-002 1.351427e+002
542657606.64402 -6.383904e-001 1.603263e+002 -6.750877e+001 -8.749727e+001 -6.920327e+001 -9.100388e+001 -6.404863e-002 1.351551e+002
543035107.58777 -6.483622e-001 1.601659e+002 -6.936298e+001 -7.564700e+001 -7.048558e+001 -8.722228e+001 -5.705161e-002 1.351915e+002
543412608.53152 -6.526634e-001 1.598700e+002 -7.025685e+001 -8.883698e+001 -7.034013e+001 -8.784027e+001 -5.296444e-002 1.352206e+002
543790109.47527 -6.563576e-001 1.596991e+002 -6.815420e+001 -9.550314e+001 -7.106641e+001 -8.865358e+001 -4.530284e-002 1.352757e+002
544167610.41903 -6.668119e-001 1.594999e+002 -6.996648e+001 -9.207205e+001 -7.106667e+001 -8.835331e+001 -3.894310e-002 1.353531e+002
544545111.36278 -6.635432e-001 1.592705e+002 -6.999000e+001 -9.080667e+001 -7.096829e+001 -8.622158e+001 -3.707212e-002 1.354070e+002
544922612.30653 -6.691144e-001 1.589794e+002 -6.944598e+001 -8.564355e+001 -6.916017e+001 -9.577142e+001 -3.284639e-002 1.355161e+002
545300113.25028 -6.730871e-001 1.587601e+002 -6.797834e+001 -8.826408e+001 -7.054176e+001 -8.633749e+001 -3.061067e-002 1.356116e+002
545677614.19404 -6.733650e-001 1.585403e+002 -6.855531e+001 -9.718887e+001 -6.870791e+001 -8.748672e+001 -2.967834e-002 1.356900e+002
546055115.13779 -6.766593e-001 1.583717e+002 -6.949773e+001 -8.842480e+001 -7.099281e+001 -8.375001e+001 -2.712518e-002 1.358136e+002
546432616.08154 -6.785746e-001 1.580665e+002 -6.826953e+001 -9.723885e+001 -6.941415e+001 -9.692735e+001 -2.750147e-002 1.359111e+002
546810117.02529 -6.799959e-001 1.577961e+002 -6.945425e+001 -1.036929e+002 -7.038825e+001 -9.247527e+001 -2.537790e-002 1.360196e+002
547187617.96904 -6.833841e-001 1.575981e+002 -6.735610e+001 -9.025803e+001 -6.876691e+001 -8.922952e+001 -2.102082e-002 1.361345e+002
547565118.9128 -6.884413e-001 1.573705e+002 -6.978331e+001 -9.330992e+001 -7.015276e+001 -8.563169e+001 -2.379871e-002 1.362317e+002
547942619.85655 -6.941504e-001 1.570830e+002 -7.001747e+001 -9.020331e+001 -7.106767e+001 -8.758042e+001 -2.202793e-002 1.363500e+002
548320120.8003 -6.988671e-001 1.568138e+002 -6.863383e+001 -8.762950e+001 -7.060060e+001 -8.707907e+001 -2.786474e-002 1.364409e+002
548697621.74405 -7.036178e-001 1.566066e+002 -6.872992e+001 -9.580102e+001 -6.921604e+001 -9.489101e+001 -2.563336e-002 1.365468e+002
549075122.68781 -7.065548e-001 1.563530e+002 -6.740493e+001 -1.031092e+002 -6.990694e+001 -8.857624e+001 -2.917427e-002 1.366908e+002
549452623.63156 -7.151239e-001 1.561114e+002 -6.837434e+001 -1.040042e+002 -6.747940e+001 -8.135623e+001 -3.269564e-002 1.367184e+002
549830124.57531 -7.179059e-001 1.558520e+002 -6.728223e+001 -9.744199e+001 -6.806069e+001 -9.846922e+001 -3.772779e-002 1.368088e+002
550207625.51906 -7.199030e-001 1.555582e+002 -6.785075e+001 -1.056119e+002 -6.839426e+001 -9.086666e+001 -4.006155e-002 1.368545e+002
550585126.46282 -7.251133e-001 1.552489e+002 -6.664217e+001 -1.050575e+002 -6.909443e+001 -8.993907e+001 -4.416821e-002 1.369134e+002
550962627.40657 -7.285300e-001 1.550086e+002 -6.827260e+001 -1.055984e+002 -6.655379e+001 -8.723676e+001 -4.944520e-002 1.369622e+002
551340128.35032 -7.351974e-001 1.547686e+002 -6.811422e+001 -1.117765e+002 -6.716706e+001 -9.851180e+001 -5.443857e-002 1.369823e+002
551717629.29407 -7.444850e-001 1.544395e+002 -6.694470e+001 -1.054330e+002 -6.672060e+001 -1.001584e+002 -6.022837e-002 1.370110e+002
552095130.23783 -7.480245e-001 1.541749e+002 -6.593786e+001 -1.073950e+002 -6.713886e+001 -1.084238e+002 -6.524832e-002 1.369971e+002
552472631.18158 -7.540637e-001 1.538918e+002 -6.600529e+001 -1.101737e+002 -6.709117e+001 -9.677189e+001 -7.202560e-002 1.369880e+002
552850132.12533 -7.597523e-001 1.536723e+002 -6.669299e+001 -1.053777e+002 -6.606944e+001 -1.036708e+002 -7.832738e-002 1.369530e+002
553227633.06908 -7.714391e-001 1.533414e+002 -6.528828e+001 -1.155996e+002 -6.573043e+001 -1.007324e+002 -8.623986e-002 1.369225e+002
553605134.01284 -7.765257e-001 1.530893e+002 -6.634334e+001 -1.195128e+002 -6.705255e+001 -1.118793e+002 -9.009136e-002 1.368656e+002
553982634.95659 -7.901107e-001 1.528549e+002 -6.632972e+001 -1.160263e+002 -6.691062e+001 -1.072310e+002 -9.950148e-002 1.367765e+002
554360135.90034 -8.008387e-001 1.526090e+002 -6.614812e+001 -1.157533e+002 -6.670929e+001 -1.101063e+002 -1.034289e-001 1.366873e+002
554737636.84409 -8.078427e-001 1.523490e+002 -6.678237e+001 -1.176473e+002 -6.656854e+001 -1.082747e+002 -1.129322e-001 1.365842e+002
555115137.78784 -8.130241e-001 1.520465e+002 -6.641428e+001 -1.103280e+002 -6.620068e+001 -1.152246e+002 -1.136233e-001 1.364649e+002
