!Agilent Technologies,E8364B,US42250235,A.06.04.32
!Agilent E8364B: A.06.04.32
!Date: Thursday, October 01, 2020 16:09:19
!Correction: S11(Full 2 Port(1,2)) S21(Full 2 Port(1,2)) S12(Full 2 Port(1,2)) S22(Full 2 Port(1,2)) 
!S2P File: Measurements: S11, S21, S12, S22:
# Hz S  dB   R 50
500000000 -2.218673e-001 -1.750342e+002 -7.237692e+001 1.674102e+002 -7.239587e+001 1.768197e+002 -1.778965e-002 1.430253e+002
500377500.94375 -2.212536e-001 -1.753135e+002 -7.197005e+001 1.630631e+002 -7.563706e+001 -1.754487e+002 -1.662125e-002 1.431945e+002
500755001.8875 -2.276224e-001 -1.754038e+002 -7.730142e+001 1.679213e+002 -7.541556e+001 1.581927e+002 -1.713768e-002 1.433576e+002
501132502.83126 -2.304053e-001 -1.756628e+002 -7.433337e+001 1.693274e+002 -7.236876e+001 1.577113e+002 -2.359200e-002 1.434958e+002
501510003.77501 -2.287674e-001 -1.758564e+002 -7.278504e+001 1.408771e+002 -7.349996e+001 1.728488e+002 -2.620384e-002 1.436438e+002
501887504.71876 -2.316935e-001 -1.760488e+002 -7.063641e+001 1.407601e+002 -7.020198e+001 1.754386e+002 -2.781111e-002 1.437682e+002
502265005.66251 -2.363931e-001 -1.762735e+002 -7.482533e+001 1.582201e+002 -7.414034e+001 1.563130e+002 -3.637548e-002 1.438865e+002
502642506.60627 -2.372552e-001 -1.764548e+002 -7.063172e+001 1.342004e+002 -7.264587e+001 1.556636e+002 -4.143108e-002 1.440458e+002
503020007.55002 -2.409460e-001 -1.766665e+002 -7.301205e+001 1.649789e+002 -7.230392e+001 1.523654e+002 -5.015889e-002 1.440785e+002
503397508.49377 -2.406118e-001 -1.768830e+002 -7.249900e+001 1.454070e+002 -7.370972e+001 1.557633e+002 -5.342169e-002 1.441503e+002
503775009.43752 -2.405543e-001 -1.771282e+002 -7.242070e+001 1.440693e+002 -7.278034e+001 1.482271e+002 -6.108694e-002 1.442103e+002
504152510.38128 -2.480840e-001 -1.772944e+002 -7.125147e+001 1.553003e+002 -7.078967e+001 1.454767e+002 -6.753533e-002 1.442229e+002
504530011.32503 -2.444352e-001 -1.775480e+002 -7.208029e+001 1.315360e+002 -7.318227e+001 1.677791e+002 -7.565049e-002 1.442813e+002
504907512.26878 -2.494980e-001 -1.777192e+002 -7.227948e+001 1.362156e+002 -7.302174e+001 1.559223e+002 -8.344565e-002 1.442712e+002
505285013.21253 -2.542648e-001 -1.778643e+002 -7.290559e+001 1.422790e+002 -7.315414e+001 1.471500e+002 -9.191430e-002 1.442453e+002
505662514.15629 -2.534654e-001 -1.781273e+002 -7.190530e+001 1.314805e+002 -7.119739e+001 1.318038e+002 -1.010932e-001 1.441923e+002
506040015.10004 -2.561414e-001 -1.783577e+002 -7.453249e+001 1.332255e+002 -7.223959e+001 1.449159e+002 -1.085494e-001 1.441373e+002
506417516.04379 -2.582863e-001 -1.785911e+002 -6.954620e+001 1.493604e+002 -7.068932e+001 1.499226e+002 -1.185667e-001 1.440364e+002
506795016.98754 -2.634188e-001 -1.787544e+002 -7.454563e+001 1.372801e+002 -7.094360e+001 1.377482e+002 -1.229043e-001 1.439191e+002
507172517.93129 -2.669020e-001 -1.789257e+002 -7.314224e+001 1.307069e+002 -7.511705e+001 1.297965e+002 -1.308196e-001 1.437789e+002
507550018.87505 -2.678642e-001 -1.791591e+002 -7.372318e+001 1.460215e+002 -7.313242e+001 1.442777e+002 -1.382942e-001 1.436075e+002
507927519.8188 -2.724189e-001 -1.793896e+002 -7.505171e+001 1.380674e+002 -7.261242e+001 1.397868e+002 -1.486245e-001 1.434622e+002
508305020.76255 -2.705236e-001 -1.796280e+002 -7.340191e+001 1.496794e+002 -7.300875e+001 1.419513e+002 -1.545721e-001 1.432785e+002
508682521.7063 -2.767666e-001 -1.797948e+002 -7.224471e+001 1.258547e+002 -7.070536e+001 1.358984e+002 -1.630292e-001 1.430759e+002
509060022.65006 -2.793536e-001 -1.799822e+002 -7.294042e+001 1.385181e+002 -7.366476e+001 1.574868e+002 -1.675558e-001 1.427875e+002
509437523.59381 -2.803360e-001 1.797119e+002 -7.118596e+001 1.302092e+002 -7.242378e+001 1.500493e+002 -1.677958e-001 1.425832e+002
509815024.53756 -2.801673e-001 1.795871e+002 -7.097342e+001 1.193892e+002 -7.478194e+001 1.212688e+002 -1.720450e-001 1.423059e+002
510192525.48131 -2.859308e-001 1.793668e+002 -7.246679e+001 1.229786e+002 -7.275549e+001 1.247715e+002 -1.735747e-001 1.420311e+002
510570026.42507 -2.911050e-001 1.790714e+002 -7.453067e+001 1.164017e+002 -7.314719e+001 1.108013e+002 -1.774398e-001 1.417746e+002
510947527.36882 -2.889053e-001 1.789347e+002 -7.620153e+001 1.455703e+002 -7.187669e+001 1.155459e+002 -1.782856e-001 1.414951e+002
511325028.31257 -2.955731e-001 1.787207e+002 -7.387299e+001 1.012338e+002 -7.370571e+001 1.369917e+002 -1.816667e-001 1.411998e+002
511702529.25632 -2.943965e-001 1.784581e+002 -7.677267e+001 1.294809e+002 -7.564412e+001 1.210755e+002 -1.809448e-001 1.409119e+002
512080030.20008 -3.028523e-001 1.782035e+002 -7.444728e+001 1.280934e+002 -7.371919e+001 1.244014e+002 -1.825175e-001 1.406252e+002
512457531.14383 -3.044042e-001 1.780232e+002 -7.422755e+001 1.152457e+002 -7.189066e+001 1.166339e+002 -1.776316e-001 1.403629e+002
512835032.08758 -3.066585e-001 1.778275e+002 -7.567057e+001 1.124309e+002 -7.468218e+001 1.132390e+002 -1.746072e-001 1.400980e+002
513212533.03133 -3.094480e-001 1.775361e+002 -7.542970e+001 1.175023e+002 -7.409151e+001 1.233909e+002 -1.703218e-001 1.398185e+002
513590033.97508 -3.143211e-001 1.773297e+002 -7.330850e+001 1.352840e+002 -7.217391e+001 1.277156e+002 -1.643734e-001 1.395877e+002
513967534.91884 -3.170260e-001 1.772068e+002 -7.165034e+001 1.117794e+002 -7.272323e+001 1.062851e+002 -1.553403e-001 1.393325e+002
514345035.86259 -3.190913e-001 1.769038e+002 -7.332523e+001 1.078333e+002 -7.598290e+001 1.223231e+002 -1.537515e-001 1.391442e+002
514722536.80634 -3.238128e-001 1.767531e+002 -7.443587e+001 1.379693e+002 -7.178734e+001 1.272061e+002 -1.469703e-001 1.389495e+002
515100037.75009 -3.232242e-001 1.765546e+002 -7.335647e+001 1.089374e+002 -7.056236e+001 1.220910e+002 -1.382386e-001 1.387910e+002
515477538.69385 -3.241509e-001 1.762465e+002 -7.195866e+001 1.086742e+002 -7.165308e+001 1.187033e+002 -1.327982e-001 1.386274e+002
515855039.6376 -3.277358e-001 1.761119e+002 -7.721049e+001 1.093501e+002 -7.141048e+001 1.200351e+002 -1.236652e-001 1.385023e+002
516232540.58135 -3.305639e-001 1.758326e+002 -7.144460e+001 1.216584e+002 -7.319697e+001 1.223308e+002 -1.148330e-001 1.383943e+002
516610041.5251 -3.344371e-001 1.756634e+002 -7.171810e+001 1.046664e+002 -7.527991e+001 1.139046e+002 -1.092525e-001 1.383289e+002
516987542.46886 -3.364622e-001 1.754583e+002 -7.213354e+001 1.077519e+002 -7.404061e+001 1.021721e+002 -9.982112e-002 1.382762e+002
517365043.41261 -3.380596e-001 1.751983e+002 -7.251305e+001 1.339125e+002 -7.459947e+001 1.037975e+002 -9.386830e-002 1.382230e+002
517742544.35636 -3.421805e-001 1.749150e+002 -7.308889e+001 1.146275e+002 -7.214243e+001 1.161969e+002 -8.532864e-002 1.382398e+002
518120045.30011 -3.469398e-001 1.747419e+002 -7.611222e+001 9.749921e+001 -7.123822e+001 1.032131e+002 -7.361268e-002 1.382708e+002
518497546.24387 -3.476909e-001 1.745571e+002 -7.106263e+001 8.208355e+001 -7.137756e+001 1.022934e+002 -6.555667e-002 1.383202e+002
518875047.18762 -3.519709e-001 1.743132e+002 -7.326432e+001 1.177691e+002 -7.163066e+001 1.110510e+002 -5.931645e-002 1.383760e+002
519252548.13137 -3.593771e-001 1.740910e+002 -7.280291e+001 1.018482e+002 -7.137244e+001 1.164701e+002 -5.201137e-002 1.384856e+002
519630049.07512 -3.636627e-001 1.738911e+002 -7.236453e+001 1.172596e+002 -7.119401e+001 1.101300e+002 -4.838136e-002 1.386082e+002
520007550.01888 -3.624611e-001 1.736007e+002 -7.297625e+001 9.984347e+001 -7.186212e+001 1.076666e+002 -4.274975e-002 1.387353e+002
520385050.96263 -3.677986e-001 1.734790e+002 -6.935239e+001 1.000314e+002 -7.127705e+001 9.968178e+001 -3.789914e-002 1.388639e+002
520762551.90638 -3.720553e-001 1.732474e+002 -7.138864e+001 1.163807e+002 -7.036479e+001 1.024938e+002 -3.087984e-002 1.390281e+002
521140052.85013 -3.746569e-001 1.729727e+002 -7.118097e+001 8.218561e+001 -6.985868e+001 1.040745e+002 -2.667654e-002 1.391862e+002
521517553.79388 -3.777023e-001 1.727686e+002 -7.107964e+001 9.504616e+001 -7.122718e+001 1.031444e+002 -2.517002e-002 1.393971e+002
521895054.73764 -3.841517e-001 1.725597e+002 -7.242494e+001 1.031605e+002 -7.112769e+001 9.057409e+001 -2.336004e-002 1.395761e+002
522272555.68139 -3.872734e-001 1.723802e+002 -7.150439e+001 9.481827e+001 -7.155664e+001 8.949681e+001 -2.370441e-002 1.397883e+002
522650056.62514 -3.891383e-001 1.721410e+002 -7.163580e+001 9.330506e+001 -7.224935e+001 1.011627e+002 -2.151276e-002 1.399504e+002
523027557.56889 -3.950317e-001 1.719071e+002 -7.086755e+001 9.894599e+001 -6.985707e+001 8.402444e+001 -2.176490e-002 1.401815e+002
523405058.51265 -3.929484e-001 1.716844e+002 -7.436652e+001 9.956398e+001 -7.021174e+001 1.006845e+002 -2.215582e-002 1.404450e+002
523782559.4564 -3.993240e-001 1.714497e+002 -7.278516e+001 7.630530e+001 -7.168903e+001 9.451084e+001 -2.679361e-002 1.405762e+002
524160060.40015 -4.053552e-001 1.712327e+002 -6.986320e+001 9.766952e+001 -7.199463e+001 9.347588e+001 -2.879002e-002 1.407567e+002
524537561.3439 -4.072107e-001 1.709924e+002 -7.085435e+001 1.036221e+002 -6.901630e+001 7.633910e+001 -3.435205e-002 1.409308e+002
524915062.28766 -4.124081e-001 1.707620e+002 -7.090413e+001 9.169997e+001 -7.186189e+001 8.479696e+001 -3.776797e-002 1.411227e+002
525292563.23141 -4.175818e-001 1.704767e+002 -7.231290e+001 7.990304e+001 -7.298763e+001 9.494511e+001 -4.682434e-002 1.412452e+002
525670064.17516 -4.202295e-001 1.702856e+002 -7.019654e+001 7.704456e+001 -7.113848e+001 8.878007e+001 -5.301710e-002 1.413512e+002
526047565.11891 -4.214630e-001 1.700706e+002 -7.007435e+001 9.255642e+001 -7.285482e+001 1.037036e+002 -5.999568e-002 1.414731e+002
526425066.06267 -4.288207e-001 1.697680e+002 -7.178236e+001 8.459704e+001 -7.120349e+001 9.374836e+001 -6.952932e-002 1.415808e+002
526802567.00642 -4.349081e-001 1.695239e+002 -7.140237e+001 8.762225e+001 -7.363853e+001 9.715105e+001 -7.748044e-002 1.416467e+002
527180067.95017 -4.383451e-001 1.692958e+002 -7.458750e+001 9.094900e+001 -7.266010e+001 8.887434e+001 -8.496141e-002 1.416769e+002
527557568.89392 -4.426890e-001 1.691246e+002 -7.258949e+001 6.423676e+001 -6.854840e+001 9.097628e+001 -9.589464e-002 1.417018e+002
527935069.83767 -4.526779e-001 1.688789e+002 -6.895126e+001 9.161742e+001 -7.058815e+001 9.660419e+001 -1.009193e-001 1.417133e+002
528312570.78143 -4.542731e-001 1.685726e+002 -7.296716e+001 7.871897e+001 -6.981114e+001 9.758794e+001 -1.118509e-001 1.416885e+002
528690071.72518 -4.593818e-001 1.684057e+002 -7.156179e+001 8.494998e+001 -7.324493e+001 9.364099e+001 -1.201940e-001 1.416166e+002
529067572.66893 -4.682132e-001 1.680943e+002 -7.236024e+001 8.443145e+001 -7.068690e+001 9.005193e+001 -1.331640e-001 1.415608e+002
529445073.61268 -4.746800e-001 1.679318e+002 -7.047948e+001 8.515285e+001 -6.777887e+001 8.350985e+001 -1.422367e-001 1.414649e+002
529822574.55644 -4.783427e-001 1.676634e+002 -6.856061e+001 8.500105e+001 -6.847437e+001 7.842067e+001 -1.563695e-001 1.413145e+002
530200075.50019 -4.841770e-001 1.673360e+002 -7.203404e+001 7.249512e+001 -6.992101e+001 7.864653e+001 -1.614689e-001 1.411573e+002
530577576.44394 -4.952326e-001 1.670967e+002 -7.000856e+001 8.952341e+001 -6.867406e+001 8.550288e+001 -1.705597e-001 1.409732e+002
530955077.38769 -5.020323e-001 1.668679e+002 -7.060468e+001 7.405054e+001 -6.860655e+001 8.206153e+001 -1.788741e-001 1.407775e+002
531332578.33145 -5.078362e-001 1.667056e+002 -6.992080e+001 8.372102e+001 -6.976598e+001 8.286920e+001 -1.849727e-001 1.405597e+002
531710079.2752 -5.140178e-001 1.664020e+002 -6.794521e+001 6.942919e+001 -6.745477e+001 8.026177e+001 -1.940273e-001 1.402982e+002
532087580.21895 -5.181485e-001 1.661820e+002 -7.032757e+001 6.847517e+001 -6.821886e+001 7.020657e+001 -1.980414e-001 1.400521e+002
532465081.1627 -5.261497e-001 1.659590e+002 -6.792377e+001 7.022141e+001 -6.691459e+001 7.193534e+001 -2.040588e-001 1.397645e+002
532842582.10646 -5.357428e-001 1.657010e+002 -6.958467e+001 6.531651e+001 -6.716669e+001 7.345716e+001 -2.067794e-001 1.394303e+002
533220083.05021 -5.424672e-001 1.654713e+002 -6.899831e+001 6.326708e+001 -6.804603e+001 7.463221e+001 -2.150610e-001 1.392067e+002
533597583.99396 -5.506071e-001 1.652535e+002 -6.918655e+001 7.510101e+001 -6.826861e+001 6.369513e+001 -2.179790e-001 1.389328e+002
533975084.93771 -5.569733e-001 1.649597e+002 -6.912671e+001 6.075940e+001 -6.765491e+001 7.084256e+001 -2.201568e-001 1.385784e+002
534352585.88146 -5.652689e-001 1.647527e+002 -6.909756e+001 5.589277e+001 -6.865149e+001 5.530451e+001 -2.209444e-001 1.382820e+002
534730086.82522 -5.728052e-001 1.645332e+002 -6.732383e+001 5.557066e+001 -6.766965e+001 6.213053e+001 -2.187572e-001 1.379872e+002
535107587.76897 -5.768080e-001 1.642870e+002 -6.926195e+001 6.462537e+001 -6.785149e+001 5.630761e+001 -2.220053e-001 1.376763e+002
535485088.71272 -5.817978e-001 1.640018e+002 -6.879582e+001 5.346166e+001 -6.883300e+001 6.794965e+001 -2.170103e-001 1.373615e+002
535862589.65647 -5.885178e-001 1.637812e+002 -6.964819e+001 5.879600e+001 -6.865480e+001 4.956000e+001 -2.130604e-001 1.370579e+002
536240090.60023 -5.951881e-001 1.635533e+002 -6.738274e+001 5.407298e+001 -6.832068e+001 5.458782e+001 -2.146858e-001 1.367698e+002
536617591.54398 -6.044229e-001 1.632748e+002 -6.981117e+001 4.809432e+001 -6.787295e+001 5.027517e+001 -2.066512e-001 1.364780e+002
536995092.48773 -6.158050e-001 1.630868e+002 -6.788189e+001 4.460007e+001 -6.735215e+001 5.158792e+001 -2.017906e-001 1.362434e+002
537372593.43148 -6.208963e-001 1.628091e+002 -6.952275e+001 3.255022e+001 -6.890109e+001 5.180255e+001 -1.945761e-001 1.359917e+002
537750094.37524 -6.253736e-001 1.625539e+002 -6.674844e+001 4.864753e+001 -6.791968e+001 5.360345e+001 -1.870856e-001 1.357816e+002
538127595.31899 -6.400578e-001 1.623712e+002 -6.789974e+001 4.330342e+001 -6.793547e+001 4.959546e+001 -1.815606e-001 1.355585e+002
538505096.26274 -6.470745e-001 1.621867e+002 -6.840688e+001 4.543343e+001 -6.874595e+001 4.704619e+001 -1.734400e-001 1.354046e+002
538882597.20649 -6.517364e-001 1.619123e+002 -6.875275e+001 4.354981e+001 -6.635812e+001 4.712307e+001 -1.654340e-001 1.351955e+002
539260098.15025 -6.624338e-001 1.616379e+002 -6.827204e+001 3.944187e+001 -6.838340e+001 3.980474e+001 -1.534828e-001 1.350405e+002
539637599.094 -6.736156e-001 1.614090e+002 -6.806346e+001 3.424245e+001 -6.863747e+001 4.688776e+001 -1.502857e-001 1.349068e+002
540015100.03775 -6.828418e-001 1.612374e+002 -6.932848e+001 3.283910e+001 -6.898126e+001 4.391341e+001 -1.390650e-001 1.348545e+002
540392600.9815 -6.914607e-001 1.610259e+002 -6.826830e+001 3.479975e+001 -6.799340e+001 3.891300e+001 -1.325646e-001 1.347184e+002
540770101.92525 -7.040390e-001 1.607072e+002 -6.773830e+001 3.889392e+001 -6.743330e+001 4.246802e+001 -1.226030e-001 1.346408e+002
541147602.86901 -7.114752e-001 1.605529e+002 -6.860764e+001 3.636099e+001 -6.821365e+001 3.871802e+001 -1.156721e-001 1.345937e+002
541525103.81276 -7.165241e-001 1.602650e+002 -7.012625e+001 4.019974e+001 -6.959332e+001 3.669450e+001 -1.058251e-001 1.345462e+002
541902604.75651 -7.310085e-001 1.600710e+002 -6.913070e+001 3.972837e+001 -6.785781e+001 4.352439e+001 -1.004837e-001 1.345444e+002
542280105.70026 -7.447416e-001 1.598501e+002 -6.896964e+001 3.919971e+001 -6.817837e+001 4.028947e+001 -8.981691e-002 1.345382e+002
542657606.64402 -7.475990e-001 1.596426e+002 -6.958250e+001 2.887430e+001 -6.818240e+001 3.853570e+001 -8.760938e-002 1.345575e+002
543035107.58777 -7.603509e-001 1.594948e+002 -6.758701e+001 4.711523e+001 -6.654585e+001 4.140288e+001 -8.127492e-002 1.345908e+002
543412608.53152 -7.672731e-001 1.592322e+002 -6.873752e+001 3.036114e+001 -6.739698e+001 3.555770e+001 -7.369614e-002 1.346394e+002
543790109.47527 -7.756694e-001 1.591230e+002 -6.771209e+001 3.051496e+001 -6.780265e+001 3.495170e+001 -7.028180e-002 1.346819e+002
544167610.41903 -7.848039e-001 1.589205e+002 -6.603590e+001 2.631400e+001 -6.751406e+001 3.686178e+001 -6.177130e-002 1.347680e+002
544545111.36278 -7.878994e-001 1.587403e+002 -6.851772e+001 3.024450e+001 -6.582430e+001 3.638601e+001 -6.141971e-002 1.348500e+002
544922612.30653 -7.936009e-001 1.584491e+002 -6.802860e+001 2.866644e+001 -6.674195e+001 3.495030e+001 -5.781075e-002 1.349538e+002
545300113.25028 -8.000208e-001 1.582457e+002 -6.672662e+001 3.531202e+001 -6.706961e+001 3.848438e+001 -5.438593e-002 1.350521e+002
545677614.19404 -8.009419e-001 1.580413e+002 -6.689889e+001 2.897848e+001 -6.673281e+001 3.751644e+001 -5.203815e-002 1.351481e+002
546055115.13779 -8.057940e-001 1.578308e+002 -6.752718e+001 3.136481e+001 -6.578139e+001 2.641615e+001 -5.050346e-002 1.352789e+002
546432616.08154 -8.112026e-001 1.575726e+002 -6.566220e+001 2.463766e+001 -6.524388e+001 4.032260e+001 -4.878634e-002 1.353625e+002
546810117.02529 -8.164135e-001 1.573319e+002 -6.455377e+001 2.701529e+001 -6.622471e+001 3.333729e+001 -4.869457e-002 1.354790e+002
547187617.96904 -8.229346e-001 1.571422e+002 -6.596915e+001 2.582334e+001 -6.509950e+001 2.215649e+001 -4.791717e-002 1.356029e+002
547565118.9128 -8.312380e-001 1.569240e+002 -6.572314e+001 1.744086e+001 -6.504693e+001 2.017016e+001 -4.867052e-002 1.356926e+002
547942619.85655 -8.416867e-001 1.566494e+002 -6.474777e+001 1.611170e+001 -6.527715e+001 1.436372e+001 -4.964999e-002 1.358079e+002
548320120.8003 -8.505549e-001 1.564445e+002 -6.551236e+001 1.097683e+001 -6.530212e+001 1.435595e+001 -5.365198e-002 1.359198e+002
548697621.74405 -8.563563e-001 1.561873e+002 -6.582134e+001 7.765467e+000 -6.513618e+001 1.021471e+001 -5.164844e-002 1.359955e+002
549075122.68781 -8.649903e-001 1.559987e+002 -6.637219e+001 1.264653e+001 -6.548054e+001 5.130031e+000 -5.813029e-002 1.361562e+002
549452623.63156 -8.786805e-001 1.557486e+002 -6.578452e+001 5.089174e+000 -6.579108e+001 1.182379e+001 -5.986525e-002 1.361885e+002
549830124.57531 -8.819768e-001 1.555346e+002 -6.534589e+001 -2.152888e-001 -6.546717e+001 3.852350e+000 -6.494012e-002 1.362764e+002
550207625.51906 -8.893557e-001 1.553244e+002 -6.528421e+001 -4.190815e-002 -6.586552e+001 6.759393e+000 -7.302207e-002 1.363306e+002
550585126.46282 -8.982804e-001 1.550242e+002 -6.695317e+001 -6.126493e+000 -6.543813e+001 1.891256e+000 -7.820938e-002 1.364048e+002
550962627.40657 -9.031723e-001 1.548440e+002 -6.759390e+001 3.552375e+000 -6.562643e+001 4.351614e+000 -8.063045e-002 1.364407e+002
551340128.35032 -9.120141e-001 1.546058e+002 -6.754397e+001 4.486191e+000 -6.708971e+001 6.274987e+000 -8.522837e-002 1.364680e+002
551717629.29407 -9.215685e-001 1.543214e+002 -6.717834e+001 5.880175e+000 -6.538490e+001 2.896486e+000 -9.250624e-002 1.364792e+002
552095130.23783 -9.291142e-001 1.541012e+002 -6.553873e+001 -1.275774e+001 -6.525671e+001 5.228698e+000 -9.878875e-002 1.364911e+002
552472631.18158 -9.339811e-001 1.538740e+002 -6.710168e+001 -4.548665e+000 -6.654890e+001 2.591404e+000 -1.075855e-001 1.364875e+002
552850132.12533 -9.400603e-001 1.536821e+002 -6.653442e+001 -1.011947e+001 -6.495281e+001 -2.748889e+000 -1.108223e-001 1.364623e+002
553227633.06908 -9.510168e-001 1.533489e+002 -6.744634e+001 -7.354091e+000 -6.554231e+001 -4.943740e+000 -1.206055e-001 1.364103e+002
553605134.01284 -9.560902e-001 1.531609e+002 -6.782449e+001 -9.985576e+000 -6.627587e+001 -1.061808e+001 -1.231333e-001 1.363780e+002
553982634.95659 -9.687285e-001 1.529109e+002 -6.746661e+001 -7.285243e+000 -6.731721e+001 -1.261824e+001 -1.343600e-001 1.363114e+002
554360135.90034 -9.797136e-001 1.526679e+002 -6.687959e+001 -5.963830e+000 -6.549398e+001 -2.259038e+000 -1.380412e-001 1.362150e+002
554737636.84409 -9.898304e-001 1.524782e+002 -6.829807e+001 -8.808040e+000 -6.610062e+001 -7.646761e+000 -1.453261e-001 1.361287e+002
555115137.78784 -9.954158e-001 1.522479e+002 -6.620581e+001 -1.319956e+001 -6.712640e+001 -8.145562e+000 -1.479758e-001 1.359936e+002
555492638.7316 -1.003502e+000 1.519588e+002 -6.681250e+001 -1.030331e+001 -6.645537e+001 -7.676659e+000 -1.567401e-001 1.358821e+002
555870139.67535 -1.007327e+000 1.517684e+002 -6.709695e+001 -1.250867e+001 -6.575790e+001 -6.303216e+000 -1.611689e-001 1.357746e+002
