!Keysight Technologies,N5242B,MY48420860,A.13.80.08
!Date: Saturday, September 26, 2020 11:18:26
!Correction: S11(Full 2 Port(1,2)) 
!S21(Full 2 Port(1,2)) 
!S12(Full 2 Port(1,2)) 
!S22(Full 2 Port(1,2)) 
!S2P File: Measurements: S11, S21, S12, S22:
# Hz S  dB   R 50
500000000 -0.23226726 -166.37794 -55.73399 134.60364 -56.339947 130.78058 -0.072080567 146.80872
500377500.94375 -0.23605302 -166.57426 -55.655334 130.70177 -56.406635 132.66257 -0.070977122 146.76024
500755001.8875 -0.23584779 -166.77553 -55.384129 135.95691 -55.968143 134.20906 -0.071026422 146.74281
501132502.83126 -0.23905234 -166.97736 -55.564713 130.12155 -55.999249 129.79733 -0.069108218 146.71384
501510003.77501 -0.2407978 -167.19044 -55.525726 133.04736 -56.291843 131.93294 -0.066761672 146.69939
501887504.71876 -0.24288584 -167.37181 -55.801003 130.32744 -55.208019 129.98575 -0.062449373 146.69472
502265005.66251 -0.24501997 -167.58002 -55.91687 127.57791 -56.09536 128.66283 -0.0587085 146.67004
502642506.60627 -0.24774969 -167.79158 -55.911144 127.87707 -55.805824 130.17007 -0.0546243 146.65582
503020007.55002 -0.24938549 -167.98685 -55.463165 132.60495 -55.283092 131.53848 -0.051649287 146.66689
503397508.49377 -0.25425637 -168.1752 -56.01416 131.14961 -55.068668 130.67047 -0.049056776 146.64041
503775009.43752 -0.25604451 -168.37535 -55.447815 129.80405 -54.862175 127.63106 -0.050162412 146.63374
504152510.38128 -0.25866055 -168.57314 -54.819733 123.31504 -55.021008 130.27486 -0.044621374 146.64088
504530011.32503 -0.2588923 -168.76566 -55.648304 126.79659 -55.291698 126.97598 -0.040063493 146.62941
504907512.26878 -0.26023018 -168.95464 -54.608707 126.96457 -54.823227 127.15885 -0.041091528 146.61526
505285013.21253 -0.26197919 -169.14911 -55.048489 124.12075 -54.753262 127.29623 -0.039093744 146.62988
505662514.15629 -0.26174954 -169.35339 -54.653671 124.16839 -54.613964 127.65401 -0.036824189 146.61607
506040015.10004 -0.2621747 -169.53656 -54.686291 123.89024 -54.496754 128.33539 -0.037011601 146.57655
506417516.04379 -0.26707536 -169.73976 -54.469795 120.9952 -54.852623 123.46734 -0.039000209 146.57724
506795016.98754 -0.26148123 -169.93172 -54.636547 120.9466 -54.553009 124.65604 -0.035557218 146.55066
507172517.93129 -0.26458544 -170.13359 -54.827656 120.41079 -54.349434 124.24306 -0.036985192 146.5081
507550018.87505 -0.26506144 -170.35315 -54.373928 113.52223 -54.144073 123.0244 -0.034669098 146.49809
507927519.8188 -0.26659259 -170.56496 -55.122677 116.34354 -54.747459 121.5355 -0.036552671 146.4597
508305020.76255 -0.26839763 -170.7576 -54.18594 118.03853 -54.258785 124.92064 -0.036784418 146.43506
508682521.7063 -0.26576558 -170.98022 -54.115673 122.86263 -54.070507 119.80859 -0.034258239 146.42181
509060022.65006 -0.26920012 -171.18791 -54.552982 121.88319 -54.160091 122.29935 -0.032697879 146.3907
509437523.59381 -0.26898253 -171.37901 -54.329876 117.52705 -54.302452 123.54896 -0.032676876 146.37311
509815024.53756 -0.27258655 -171.58911 -54.03183 120.88006 -53.731449 121.30432 -0.030321682 146.35484
510192525.48131 -0.27167529 -171.80135 -54.143204 119.58735 -54.231834 115.25597 -0.033107419 146.31743
510570026.42507 -0.27515286 -171.98686 -54.13525 118.12599 -54.106468 121.16936 -0.033604778 146.28427
510947527.36882 -0.27898487 -172.20415 -53.98423 117.85785 -53.875454 118.59928 -0.029212344 146.27556
511325028.31257 -0.27868888 -172.41992 -53.668705 121.3142 -54.161949 117.28609 -0.033578835 146.23181
511702529.25632 -0.28063595 -172.6286 -54.398106 117.54442 -54.273193 115.90176 -0.035254516 146.21526
512080030.20008 -0.28322837 -172.82736 -53.230568 118.55499 -54.057766 118.37021 -0.037587214 146.17041
512457531.14383 -0.28520843 -173.04468 -53.958061 116.76141 -53.904823 118.58031 -0.037337352 146.12872
512835032.08758 -0.28592768 -173.2475 -54.058624 115.9245 -53.456692 114.40186 -0.039844882 146.10149
513212533.03133 -0.28989395 -173.45691 -53.383465 114.95943 -53.178768 115.06497 -0.042982448 146.06601
513590033.97508 -0.2927866 -173.67345 -53.534916 117.67266 -53.518982 115.95776 -0.04275506 146.01764
513967534.91884 -0.29536775 -173.88185 -53.334751 118.79044 -53.03727 117.44831 -0.047138888 145.95961
514345035.86259 -0.29700741 -174.09001 -53.396832 116.06709 -53.518044 114.65034 -0.047581166 145.92722
514722536.80634 -0.29510912 -174.31239 -52.889542 112.27657 -53.36224 111.77245 -0.047075637 145.88719
515100037.75009 -0.30000696 -174.5199 -52.894051 112.98835 -53.35162 115.76686 -0.050600603 145.828
515477538.69385 -0.30129755 -174.73961 -53.249027 114.11141 -52.99004 112.42042 -0.051455468 145.80927
515855039.6376 -0.30372512 -174.94664 -52.889568 111.1637 -52.91404 114.45404 -0.052027319 145.76598
516232540.58135 -0.305832 -175.16502 -52.797298 110.46758 -53.103855 110.06569 -0.054123119 145.72133
516610041.5251 -0.30915797 -175.3904 -53.232574 111.51519 -53.023941 111.25325 -0.04926059 145.68611
516987542.46886 -0.30976614 -175.61702 -53.296219 107.46274 -53.026707 110.24179 -0.052475072 145.64571
517365043.41261 -0.31046453 -175.8307 -53.172115 111.92715 -52.649876 111.01525 -0.056635052 145.60812
517742544.35636 -0.31479418 -176.0519 -52.897038 110.51636 -52.864384 109.83792 -0.053393137 145.59109
518120045.30011 -0.31957987 -176.27451 -52.91074 107.62262 -52.692638 107.71587 -0.054712921 145.53429
518497546.24387 -0.32145473 -176.49022 -52.985439 111.38017 -52.910973 109.33186 -0.057096146 145.49495
518875047.18762 -0.32393679 -176.71735 -52.380997 106.623 -52.613075 108.00843 -0.056018077 145.46027
519252548.13137 -0.32680324 -176.92567 -52.407143 110.21442 -52.433838 105.92213 -0.05922566 145.43333
519630049.07512 -0.33300191 -177.17059 -52.645031 107.10869 -52.533318 106.98899 -0.061557367 145.375
520007550.01888 -0.33528259 -177.38446 -52.536793 108.00488 -52.246861 108.43174 -0.060874548 145.35132
520385050.96263 -0.33805877 -177.57408 -52.247463 107.50138 -52.217339 105.39929 -0.062068425 145.30704
520762551.90638 -0.34220704 -177.80142 -52.710526 107.73881 -52.199348 104.95329 -0.063705802 145.25914
521140052.85013 -0.34416309 -178.02274 -52.031303 106.19773 -52.200806 105.18801 -0.061100759 145.20407
521517553.79388 -0.34664038 -178.23575 -51.909237 105.49805 -52.013035 105.85886 -0.064322986 145.17329
521895054.73764 -0.34965882 -178.4624 -52.119576 104.18832 -52.075077 104.26885 -0.064250663 145.14185
522272555.68139 -0.35132942 -178.67992 -52.380062 104.6834 -52.000664 103.22029 -0.064312369 145.0899
522650056.62514 -0.35516208 -178.88959 -51.787437 106.37511 -52.167198 103.42298 -0.064006567 145.08067
523027557.56889 -0.35896841 -179.10855 -51.828506 105.0345 -51.54789 104.61331 -0.063312978 145.05032
523405058.51265 -0.36158073 -179.32991 -51.17477 102.74043 -51.844681 100.87503 -0.061842885 145.0175
523782559.4564 -0.36251467 -179.5491 -51.758331 103.52261 -51.51556 104.24626 -0.058709227 144.99548
524160060.40015 -0.36950499 -179.77747 -51.881104 100.79376 -51.564957 102.23697 -0.058592275 144.9834
524537561.3439 -0.37221798 179.99626 -51.055134 100.57821 -51.24831 100.71474 -0.055781316 144.96933
524915062.28766 -0.37867674 179.77 -51.45295 98.155869 -51.440491 100.8803 -0.056428023 144.93507
525292563.23141 -0.38082722 179.545 -51.259876 100.30507 -51.366619 99.499344 -0.055227377 144.92476
525670064.17516 -0.38601032 179.31369 -51.240288 99.592522 -51.448483 100.08752 -0.052421495 144.92891
526047565.11891 -0.3890399 179.1044 -51.158428 100.46943 -51.229633 99.100624 -0.049118474 144.89496
526425066.06267 -0.39376765 178.87506 -51.079853 100.42202 -51.080517 100.85134 -0.050328169 144.86621
526802567.00642 -0.39974821 178.6702 -50.895985 101.09904 -50.949703 101.22936 -0.051699802 144.85133
527180067.95017 -0.40333709 178.42949 -50.776485 96.665939 -50.80357 96.700409 -0.04887937 144.83142
527557568.89392 -0.40778568 178.20836 -50.795845 96.988434 -50.787083 98.877197 -0.050186597 144.80762
527935069.83767 -0.41181996 177.99789 -50.628338 97.071991 -50.709229 97.893227 -0.049183875 144.78242
528312570.78143 -0.41416737 177.78638 -50.504398 98.346581 -50.494007 95.775948 -0.048578452 144.75699
528690071.72518 -0.42113277 177.54378 -50.42717 96.352318 -50.462009 97.285095 -0.045102179 144.73737
529067572.66893 -0.42670509 177.31352 -50.324318 95.059273 -50.747807 95.541969 -0.043609519 144.69299
529445073.61268 -0.42791101 177.09819 -50.388283 94.396965 -50.372883 94.618507 -0.043663379 144.67088
529822574.55644 -0.43380824 176.86539 -50.184937 95.039162 -50.511894 93.128899 -0.043196805 144.65584
530200075.50019 -0.43661866 176.61707 -50.159618 93.688522 -50.491383 94.244186 -0.04176404 144.66701
530577576.44394 -0.44570172 176.38565 -50.043598 95.331421 -50.32653 91.839325 -0.039185386 144.64343
530955077.38769 -0.44862971 176.15436 -50.141857 91.141891 -50.030148 94.445702 -0.038755175 144.61349
531332578.33145 -0.45550132 175.91196 -49.717323 91.799919 -49.951134 93.820435 -0.037812904 144.62732
531710079.2752 -0.45950702 175.68959 -49.907516 88.846481 -49.643127 93.038368 -0.037750892 144.6125
532087580.21895 -0.46678323 175.47247 -49.615776 89.289566 -49.752464 92.101555 -0.035754915 144.59311
532465081.1627 -0.47320989 175.23825 -49.916862 90.15509 -49.697914 91.035835 -0.038393527 144.56995
532842582.10646 -0.47887927 175.01344 -49.422424 88.212715 -49.351162 90.665726 -0.03772366 144.56511
533220083.05021 -0.4843913 174.78365 -49.179543 89.561852 -49.559776 90.135231 -0.038291898 144.52707
533597583.99396 -0.49144572 174.57576 -49.482407 88.459854 -49.430756 87.823441 -0.038468 144.4731
533975084.93771 -0.49430647 174.35358 -49.277245 87.637726 -49.243641 87.241142 -0.041324079 144.438
534352585.88146 -0.50121868 174.12291 -49.199261 87.061256 -49.134335 85.943184 -0.038167272 144.39806
534730086.82522 -0.50578439 173.91078 -49.030319 87.760689 -49.130112 84.542686 -0.043976281 144.36449
535107587.76897 -0.50932395 173.69759 -48.948627 87.2659 -49.144623 85.183487 -0.042767342 144.30981
535485088.71272 -0.51401186 173.45662 -48.906651 85.701416 -49.113976 86.153847 -0.044003509 144.25587
535862589.65647 -0.51512605 173.24719 -48.828514 84.890144 -49.111412 83.91774 -0.041058585 144.24414
536240090.60023 -0.52377772 173.0213 -49.039764 83.359573 -49.246883 83.233421 -0.041878901 144.18834
536617591.54398 -0.52773303 172.7926 -48.825523 80.282822 -48.56229 83.373306 -0.040823862 144.16087
536995092.48773 -0.53254175 172.56876 -48.967007 83.968117 -48.669827 82.897514 -0.043041673 144.12149
537372593.43148 -0.53563076 172.34309 -48.712566 80.540871 -48.855778 80.676239 -0.040859208 144.09833
537750094.37524 -0.53960854 172.11833 -48.57338 81.909073 -48.561489 81.714035 -0.042195559 144.06088
538127595.31899 -0.54390496 171.88739 -48.456581 81.934952 -48.55162 78.293915 -0.041902374 144.04553
538505096.26274 -0.5474903 171.64546 -48.62962 78.741364 -48.328491 80.173157 -0.040551614 144.03246
538882597.20649 -0.55090076 171.43628 -48.462643 79.758553 -48.441639 80.524162 -0.038561873 144.00772
539260098.15025 -0.55549997 171.19792 -48.303146 79.740547 -48.571438 78.387817 -0.040171381 143.97247
539637599.094 -0.55789524 170.94179 -48.248478 78.523636 -48.316391 79.340973 -0.041468862 143.9489
540015100.03775 -0.56222105 170.71764 -48.101589 77.186203 -48.470043 76.99646 -0.043663908 143.93155
540392600.9815 -0.56598759 170.47997 -48.116604 77.012253 -48.453491 78.250381 -0.044324897 143.87816
540770101.92525 -0.56623918 170.21674 -47.847744 76.996506 -48.3592 76.113899 -0.0456766 143.8522
541147602.86901 -0.5730319 169.98274 -48.341267 75.737244 -48.052723 76.227753 -0.048165608 143.79639
541525103.81276 -0.57902527 169.73434 -48.111347 75.37925 -48.098763 75.502213 -0.047384009 143.75653
541902604.75651 -0.58398968 169.47179 -47.7024 74.142487 -48.191563 73.542229 -0.051801533 143.69876
542280105.70026 -0.58953077 169.22165 -48.060112 74.220772 -47.801601 74.213394 -0.050544363 143.65262
542657606.64402 -0.59461987 168.97795 -47.741592 73.566803 -48.040329 74.150009 -0.052814566 143.60486
543035107.58777 -0.59743631 168.70076 -47.725864 71.790504 -47.88987 73.885338 -0.053802889 143.55373
543412608.53152 -0.60258663 168.44695 -47.855801 73.552925 -47.629204 72.906952 -0.054069184 143.49631
543790109.47527 -0.61160409 168.19484 -47.560047 72.206299 -47.734596 71.178261 -0.052764345 143.45143
544167610.41903 -0.61643529 167.94246 -47.621292 70.941246 -47.42342 71.089066 -0.053397734 143.41702
544545111.36278 -0.62257385 167.66322 -47.551476 71.076607 -47.734772 71.709572 -0.054151054 143.36455
544922612.30653 -0.63252902 167.41589 -47.592896 69.238884 -47.447956 71.093971 -0.055330265 143.34218
545300113.25028 -0.63719994 167.14249 -47.443924 70.482391 -47.35041 69.016281 -0.051712405 143.32262
545677614.19404 -0.64502209 166.88686 -47.356735 69.617455 -47.432743 69.816628 -0.05357945 143.31331
546055115.13779 -0.65407747 166.62109 -47.184547 68.454369 -47.381405 67.390068 -0.056297079 143.26718
546432616.08154 -0.66052026 166.34698 -47.387375 69.561073 -47.208744 68.401535 -0.057478826 143.27185
546810117.02529 -0.66998732 166.0916 -47.06406 68.544685 -47.129353 67.870514 -0.056231111 143.25485
547187617.96904 -0.67856282 165.81805 -47.248871 66.778931 -47.004986 66.699623 -0.0601882 143.22331
547565118.9128 -0.68790668 165.57329 -47.158009 67.760895 -46.998241 66.258125 -0.062261451 143.18831
547942619.85655 -0.70054483 165.30762 -46.929119 65.705917 -46.840939 66.437073 -0.062597312 143.13664
548320120.8003 -0.70978522 165.04106 -47.175266 66.866081 -46.934181 66.071999 -0.063682981 143.08116
548697621.74405 -0.72192782 164.78233 -46.732311 64.931984 -46.911865 65.89032 -0.066047601 143.0466
549075122.68781 -0.73257184 164.5387 -46.743774 63.612469 -46.637985 65.457672 -0.068066172 142.98567
549452623.63156 -0.74527407 164.29645 -46.662971 64.118164 -46.549652 62.253902 -0.070174649 142.92897
549830124.57531 -0.75531447 164.04611 -46.49374 63.557186 -46.573841 63.033714 -0.067172617 142.88315
550207625.51906 -0.7680577 163.80923 -46.364052 62.234253 -46.597214 62.071259 -0.068516836 142.82112
550585126.46282 -0.77784759 163.58472 -46.30928 62.234901 -46.451946 61.858326 -0.069816202 142.77605
550962627.40657 -0.78835529 163.34503 -46.334545 60.807377 -46.130512 59.790569 -0.065985993 142.74753
551340128.35032 -0.79849374 163.11818 -45.920349 60.332016 -46.139057 60.256161 -0.064298145 142.71857
551717629.29407 -0.8082841 162.87947 -45.99675 58.345901 -46.143864 60.994621 -0.060991216 142.69293
552095130.23783 -0.81850719 162.66589 -46.258724 59.914852 -46.173393 59.056549 -0.057926647 142.68048
552472631.18158 -0.8298611 162.42804 -46.089756 59.355568 -45.841755 57.300697 -0.057162032 142.65596
552850132.12533 -0.83646786 162.20198 -45.981335 57.757317 -45.901062 58.172375 -0.056011267 142.64639
553227633.06908 -0.84227765 161.95268 -46.081825 56.614197 -46.024605 56.672871 -0.053110525 142.65976
553605134.01284 -0.85324734 161.72186 -45.549007 56.265121 -45.855907 56.10836 -0.052860867 142.65482
553982634.95659 -0.86015809 161.46762 -45.690693 57.023895 -45.677151 55.943943 -0.050791506 142.65154
554360135.90034 -0.86809254 161.23009 -45.796837 55.213676 -45.805458 55.06781 -0.048977658 142.65082
554737636.84409 -0.87889862 160.9821 -45.650936 54.723408 -45.744385 55.868362 -0.048816759 142.63211
555115137.78784 -0.88464522 160.7253 -45.539623 54.185402 -45.513454 54.255238 -0.04878626 142.60948
555492638.7316 -0.89612406 160.46085 -45.185211 53.367905 -45.579643 52.462021 -0.047922008 142.57269
555870139.67535 -0.90507483 160.2003 -45.364845 52.054703 -45.392979 53.055332 -0.047993314 142.57458
556247640.6191 -0.91606301 159.9527 -45.296066 52.323742 -45.251308 51.501732 -0.045634266 142.5173
556625141.56285 -0.92839295 159.68782 -45.431412 51.227631 -45.296158 52.300049 -0.046953931 142.46539
557002642.50661 -0.93813378 159.42307 -45.1199 50.39978 -45.214596 50.784271 -0.046459075 142.43286
557380143.45036 -0.95420092 159.16849 -45.319843 50.358418 -45.116238 50.040031 -0.046413064 142.39684
557757644.39411 -0.96506882 158.91667 -45.030708 50.242481 -44.885647 50.886238 -0.043189179 142.37486
558135145.33786 -0.97970182 158.66835 -45.113499 49.659386 -44.886402 49.035679 -0.040899411 142.31781
558512646.28162 -0.99308372 158.40065 -44.741718 48.367222 -44.838818 47.899101 -0.039924346 142.31746
558890147.22537 -1.0073429 158.16978 -44.848461 47.85746 -44.767521 47.223724 -0.037332267 142.30817
559267648.16912 -1.019353 157.94922 -44.839447 47.198742 -44.737789 47.370838 -0.03300859 142.28596
559645149.11287 -1.0324657 157.70273 -44.656933 47.119946 -44.69495 47.004848 -0.031605307 142.26634
560022650.05663 -1.0488216 157.47893 -44.691444 44.656937 -44.597092 45.137676 -0.030796733 142.27281
560400151.00038 -1.0582042 157.24409 -44.44202 44.76247 -44.59832 44.496441 -0.023029724 142.25302
560777651.94413 -1.0715619 157.02928 -44.629135 44.457344 -44.488758 44.44981 -0.025055857 142.25368
561155152.88788 -1.0862947 156.80569 -44.322399 42.427074 -44.397602 43.199467 -0.02567189 142.24815
561532653.83163 -1.0960529 156.6012 -44.419243 41.842628 -44.442451 42.565582 -0.02283969 142.21819
561910154.77539 -1.1059008 156.38364 -44.255409 41.337219 -44.228535 41.558746 -0.025892077 142.22557
562287655.71914 -1.1150317 156.17503 -44.352093 40.890278 -44.288788 41.174187 -0.027414778 142.19875
562665156.66289 -1.1249249 155.94485 -44.19957 40.453068 -44.18161 41.197563 -0.027242254 142.17139
563042657.60664 -1.1299447 155.72119 -43.93803 39.09 -44.017929 39.501431 -0.02853838 142.13402
563420158.5504 -1.1368647 155.5112 -44.074986 38.963734 -43.999088 39.042202 -0.02948753 142.10478
563797659.49415 -1.1429067 155.27982 -44.075714 37.487755 -43.995758 38.155582 -0.030237913 142.04852
564175160.4379 -1.1486206 155.04956 -44.022369 37.305584 -43.884422 37.647373 -0.030937541 142.02301
564552661.38165 -1.1535414 154.80844 -44.025723 36.899643 -44.04335 37.040966 -0.033550922 141.97505
564930162.32541 -1.1600318 154.56686 -44.077374 36.277252 -43.984066 36.707245 -0.032178529 141.92659
565307663.26916 -1.1644357 154.31366 -43.818153 36.407303 -43.920437 35.543102 -0.030482063 141.88129
565685164.21291 -1.1687814 154.02878 -43.848652 35.54792 -44.027302 35.283241 -0.033069924 141.83447
566062665.15666 -1.1741471 153.76799 -43.930408 34.850021 -43.707581 33.92128 -0.031818014 141.79579
566440166.10042 -1.1808373 153.49783 -43.831749 34.584694 -43.690693 34.818729 -0.031252317 141.78564
566817667.04417 -1.1888398 153.19055 -43.727036 32.964767 -43.589386 33.762184 -0.028527927 141.75116
567195167.98792 -1.2006099 152.90659 -43.69046 33.334869 -43.584385 33.206921 -0.030689683 141.72273
567572668.93167 -1.2107314 152.6268 -43.474991 33.080025 -43.480068 32.482063 -0.030852443 141.70435
567950169.87542 -1.2213279 152.34302 -43.51395 32.775608 -43.513138 33.102852 -0.032172263 141.69209
568327670.81918 -1.2330787 152.07077 -43.376457 32.807583 -43.392845 31.037558 -0.033368725 141.66301
568705171.76293 -1.2466122 151.7953 -43.307701 31.680637 -43.400238 30.378357 -0.032193542 141.62738
569082672.70668 -1.258076 151.5304 -43.403336 31.444874 -43.28051 30.404594 -0.035324465 141.59192
569460173.65043 -1.2722244 151.25 -43.080486 28.804907 -43.321739 29.00956 -0.039204918 141.54041
569837674.59419 -1.2821944 150.96049 -43.087677 29.28599 -43.079266 28.577084 -0.04645716 141.48486
570215175.53794 -1.2981555 150.68192 -43.073238 28.998449 -42.926094 28.259155 -0.047207467 141.44054
570592676.48169 -1.3115746 150.37714 -42.85511 27.31266 -42.896568 27.442947 -0.050289702 141.37636
570970177.42544 -1.3254395 150.09648 -42.880299 26.49143 -42.932358 27.595547 -0.054202918 141.32878
571347678.3692 -1.3409827 149.79659 -42.761814 26.719288 -42.767574 25.447266 -0.054803584 141.26938
571725179.31295 -1.3594637 149.50963 -42.767445 24.435617 -42.782936 26.000114 -0.059732541 141.20183
572102680.2567 -1.3772898 149.21059 -42.725235 24.455231 -42.734844 23.236589 -0.057368673 141.15778
572480181.20045 -1.3970712 148.95317 -42.52829 23.787113 -42.576691 22.971872 -0.054149929 141.10501
