!Keysight Technologies,N5242B,MY48420860,A.13.80.08
!Date: Saturday, September 26, 2020 11:40:34
!Correction: S11(Full 2 Port(1,2)) 
!S21(Full 2 Port(1,2)) 
!S12(Full 2 Port(1,2)) 
!S22(Full 2 Port(1,2)) 
!S2P File: Measurements: S11, S21, S12, S22:
# Hz S  dB   R 50
500000000 -0.24847819 -166.28757 -64.470718 44.223907 -63.865517 42.186676 -0.013458357 147.36739
500377500.94375 -0.25091928 -166.48247 -64.831795 33.193596 -63.611408 31.645647 -0.012637386 147.34309
500755001.8875 -0.25353995 -166.67159 -63.445866 33.22559 -65.384918 44.713581 -0.011216891 147.33659
501132502.83126 -0.25661856 -166.89545 -64.538033 26.04714 -64.470581 26.792265 -0.011877666 147.3275
501510003.77501 -0.25739041 -167.0849 -66.909859 41.405769 -63.091549 32.914585 -0.012661041 147.31865
501887504.71876 -0.25978759 -167.28929 -64.890488 27.116148 -63.819996 29.52923 -0.013283587 147.31879
502265005.66251 -0.2617144 -167.48967 -63.269775 34.779026 -63.890675 30.52216 -0.01186666 147.29991
502642506.60627 -0.26805571 -167.69023 -63.633961 32.269588 -63.109459 35.810616 -0.014033652 147.28598
503020007.55002 -0.26818404 -167.88857 -65.014595 22.021231 -63.477139 30.64958 -0.014945594 147.26802
503397508.49377 -0.27579033 -168.08528 -62.524475 25.908985 -64.964272 28.002441 -0.01338603 147.22858
503775009.43752 -0.2767995 -168.2648 -64.547409 26.628893 -64.657112 39.972389 -0.017844817 147.19791
504152510.38128 -0.27941379 -168.46255 -64.398552 18.811728 -64.132217 28.205793 -0.010813409 147.18645
504530011.32503 -0.28122175 -168.65472 -63.553329 35.113495 -63.425934 35.236248 -0.0081686871 147.15506
504907512.26878 -0.28277537 -168.83107 -63.552803 28.953026 -62.781193 32.852314 -0.0052129156 147.11954
505285013.21253 -0.2852661 -169.02707 -63.729721 27.961943 -63.46677 28.760872 0.00022963034 147.09758
505662514.15629 -0.28522396 -169.21881 -63.803883 17.732426 -64.094658 20.464777 0.0014713687 147.08185
506040015.10004 -0.28561178 -169.3992 -61.981415 30.234781 -63.6311 18.852728 0.0043712705 147.04591
506417516.04379 -0.28765273 -169.60101 -61.928558 22.586025 -63.424118 18.912806 0.0076259519 147.03615
506795016.98754 -0.2828818 -169.7809 -61.814987 19.345356 -63.532394 22.244993 0.013836397 147.03064
507172517.93129 -0.28444147 -169.98306 -63.729244 19.592144 -62.907391 26.430864 0.011914726 146.99709
507550018.87505 -0.28488743 -170.19205 -63.606571 20.208109 -62.83831 17.310665 0.013347243 147.00432
507927519.8188 -0.28549629 -170.3911 -62.291416 21.380993 -63.728794 19.519289 0.012838321 146.9881
508305020.76255 -0.28685322 -170.58035 -63.485039 15.581728 -61.987377 15.027122 0.012204668 146.97844
508682521.7063 -0.28378186 -170.77679 -64.442833 13.691836 -62.979603 13.156816 0.0084461225 146.9725
509060022.65006 -0.28531486 -170.98811 -64.404243 18.974371 -62.386635 23.005121 0.011482112 146.92616
509437523.59381 -0.28445354 -171.17932 -62.412453 10.857372 -63.971169 18.221298 0.0072324662 146.91426
509815024.53756 -0.28792259 -171.37868 -61.412884 13.448272 -63.251736 12.854485 0.0020152994 146.88498
510192525.48131 -0.2871708 -171.58897 -61.529427 24.490294 -63.539867 23.275858 -0.0031607605 146.84309
510570026.42507 -0.28971452 -171.77332 -63.255627 21.217981 -64.620583 10.741681 -0.0042103799 146.79539
510947527.36882 -0.28948852 -171.99741 -65.593529 7.9309487 -63.788048 12.342243 -0.0039777881 146.75734
511325028.31257 -0.29121536 -172.19933 -64.126572 13.243301 -63.233215 7.6753912 -0.0063482584 146.70482
511702529.25632 -0.29160756 -172.41121 -63.883354 -3.5649235 -64.144913 12.178751 -0.0070495955 146.65387
512080030.20008 -0.29259542 -172.60506 -63.997978 4.4741702 -62.756588 13.06016 -0.0078422269 146.59607
512457531.14383 -0.29152894 -172.8273 -62.694969 14.323486 -63.269424 6.8987498 -0.0044574421 146.55133
512835032.08758 -0.29641044 -173.03314 -63.086834 11.307738 -63.397499 19.543718 -0.0048764539 146.51173
513212533.03133 -0.29722634 -173.26196 -63.014038 4.8216519 -63.14373 12.608372 -0.0037923178 146.47386
513590033.97508 -0.29858389 -173.47171 -64.067207 2.316015 -63.227158 3.0446665 7.2068207e-005 146.43857
513967534.91884 -0.30245945 -173.69421 -62.838341 13.230465 -63.764381 11.759248 -0.00015235621 146.3903
514345035.86259 -0.30196044 -173.90584 -63.309662 8.9816017 -62.921692 8.9252501 0.002953843 146.39293
514722536.80634 -0.30436933 -174.12761 -62.236324 14.492237 -63.099201 9.7717171 0.005633228 146.37044
515100037.75009 -0.30984771 -174.35466 -62.882607 14.470247 -63.518795 3.1778157 0.0041670115 146.34087
515477538.69385 -0.31274602 -174.57919 -63.694084 14.418121 -62.042664 9.1001253 0.0038953589 146.33559
515855039.6376 -0.31309333 -174.78966 -62.283398 17.559149 -62.012238 12.605362 0.0028957634 146.32758
516232540.58135 -0.31831807 -175.00682 -62.88237 4.3436985 -63.329308 1.0108309 0.0014041573 146.29411
516610041.5251 -0.31960481 -175.23112 -62.418835 -2.0064647 -62.790123 9.8355513 0.00044801802 146.26134
516987542.46886 -0.32341129 -175.44986 -63.141296 8.0676403 -61.690762 11.627975 -0.0029207026 146.24214
517365043.41261 -0.32501599 -175.67093 -62.084431 4.8743153 -62.938107 7.3632383 -0.0062368424 146.21388
517742544.35636 -0.3297362 -175.90372 -60.451035 5.4974704 -61.471603 13.943299 -0.0055398731 146.19841
518120045.30011 -0.33463946 -176.12405 -61.337223 8.3370953 -61.702614 -4.1439662 -0.0082942247 146.14035
518497546.24387 -0.33893201 -176.33862 -60.950459 -0.73636955 -61.837738 5.3585553 -0.010116598 146.10104
518875047.18762 -0.34229219 -176.57225 -61.739285 -0.47970602 -62.569008 -5.8277798 -0.0089855501 146.05022
519252548.13137 -0.34774798 -176.75993 -60.551311 -0.45499641 -61.238819 5.6113067 -0.0080296928 146.01767
519630049.07512 -0.35250056 -176.98436 -60.258652 6.0163445 -59.804623 2.6518848 -0.010361835 145.9633
520007550.01888 -0.35567847 -177.20482 -60.36079 -0.37249163 -60.495304 2.7583873 -0.0060252897 145.92177
520385050.96263 -0.35974044 -177.39323 -60.492008 -4.3427548 -60.499413 -10.195042 -0.0046115383 145.8878
520762551.90638 -0.36234498 -177.6021 -60.204811 2.5662816 -59.892479 -7.2951913 -0.0046566543 145.83376
521140052.85013 -0.36647215 -177.81041 -59.712193 -7.1165886 -59.913574 -5.0053263 -0.00057955418 145.79916
521517553.79388 -0.36688527 -178.02509 -61.148712 -8.7668066 -60.40155 -7.2837029 -0.0021185372 145.77669
521895054.73764 -0.36686069 -178.23242 -60.509701 -10.862554 -59.831573 -6.6330495 -0.0019387489 145.74268
522272555.68139 -0.36908892 -178.4558 -59.119434 -11.576747 -59.744106 -1.8018075 -0.0025954682 145.71477
522650056.62514 -0.3717317 -178.65999 -60.014538 -11.433072 -59.952221 -15.077117 -0.0054643848 145.70909
523027557.56889 -0.37664381 -178.88754 -59.129578 -18.668694 -59.898361 -6.4821606 -0.0056331079 145.69643
523405058.51265 -0.37828547 -179.11572 -60.420441 -13.878599 -60.110004 -11.208525 -0.0071476866 145.66673
523782559.4564 -0.38028947 -179.33195 -60.216408 -12.909494 -59.658409 -12.528164 -0.007604511 145.64055
524160060.40015 -0.38349473 -179.54297 -59.16695 -7.0447478 -59.878632 -10.744595 -0.01090965 145.62306
524537561.3439 -0.38969395 -179.77576 -59.131134 -19.76675 -59.016678 -18.611744 -0.011105633 145.60742
524915062.28766 -0.39436671 179.98531 -58.1348 -19.256382 -59.199352 -10.946098 -0.012534551 145.55977
525292563.23141 -0.39961368 179.77232 -59.21167 -20.286898 -59.402851 -20.134886 -0.011751146 145.5495
525670064.17516 -0.40505028 179.52306 -60.003571 -16.758497 -59.39785 -19.18195 -0.010785252 145.52924
526047565.11891 -0.41088641 179.31721 -59.048912 -20.577412 -58.862202 -20.412359 -0.0073692738 145.48929
526425066.06267 -0.41841376 179.08279 -58.910484 -12.79121 -58.759258 -23.731472 -0.0063124388 145.45432
526802567.00642 -0.4248164 178.88567 -58.956676 -22.25395 -59.048126 -20.55677 -0.0089984247 145.43117
527180067.95017 -0.43116516 178.6546 -59.047058 -19.8414 -58.755039 -24.817251 -0.0048981137 145.39279
527557568.89392 -0.44034538 178.42949 -58.529591 -24.029367 -58.328091 -24.360748 -0.0068498226 145.37041
527935069.83767 -0.44580337 178.21964 -58.916206 -32.180294 -58.589794 -22.184134 -0.0053808778 145.33521
528312570.78143 -0.45142764 178.01486 -58.462631 -29.532877 -58.427135 -25.818424 -0.0034315619 145.30487
528690071.72518 -0.4595246 177.79266 -58.18961 -24.122162 -57.831161 -25.487289 -0.0016790628 145.29442
529067572.66893 -0.46741354 177.58655 -57.692024 -21.916773 -58.236095 -29.844873 -0.0028302367 145.25076
529445073.61268 -0.4718996 177.37149 -58.043308 -32.450871 -59.221436 -20.483644 -0.0037168339 145.22124
529822574.55644 -0.47807252 177.15694 -58.108948 -31.537214 -57.967869 -30.538149 -0.0047763665 145.20792
530200075.50019 -0.48354763 176.94939 -57.474087 -30.385948 -58.161564 -29.355688 -0.0035490836 145.202
530577576.44394 -0.49083185 176.73363 -58.086823 -32.634731 -57.574886 -30.759699 -0.0065986719 145.16966
530955077.38769 -0.49776024 176.51491 -58.051151 -40.425053 -57.653145 -38.788933 -0.0061930562 145.1418
531332578.33145 -0.50308049 176.30092 -57.866417 -33.752518 -57.811806 -28.68018 -0.0060594673 145.13931
531710079.2752 -0.509103 176.10283 -57.922279 -35.546486 -57.613098 -31.789265 -0.0076492848 145.13016
532087580.21895 -0.51363218 175.89891 -58.255665 -37.916409 -57.733829 -40.753483 -0.0052721384 145.08804
532465081.1627 -0.52080053 175.68776 -57.993053 -39.698402 -57.597355 -41.767124 -0.008306968 145.0657
532842582.10646 -0.52497321 175.49147 -57.63752 -43.909821 -57.137165 -37.60397 -0.0052292557 145.06468
533220083.05021 -0.52716267 175.28456 -57.651245 -42.496075 -57.096264 -41.944088 -0.0041623763 145.01378
533597583.99396 -0.53255796 175.09381 -56.909824 -41.423141 -56.891163 -40.073536 -0.0043860017 144.95857
533975084.93771 -0.53394562 174.88742 -57.152233 -43.543343 -57.725185 -47.540554 -0.0025997765 144.92476
534352585.88146 -0.53641671 174.68365 -57.471039 -44.318432 -57.347954 -42.58469 -0.0017174276 144.90442
534730086.82522 -0.54015452 174.48296 -57.095558 -47.429928 -57.145432 -44.593357 -0.0021167933 144.86015
535107587.76897 -0.54328257 174.28583 -57.569225 -47.212811 -57.685841 -46.584835 -0.00099498685 144.81763
535485088.71272 -0.54191947 174.07529 -56.994926 -48.07019 -57.269005 -51.771584 -7.3275896e-006 144.76834
535862589.65647 -0.54215497 173.86162 -57.188408 -45.887211 -57.27652 -53.399734 0.0019411864 144.76173
536240090.60023 -0.54734617 173.65598 -57.015732 -46.866634 -57.317036 -48.747387 -0.0005053546 144.71101
536617591.54398 -0.5492332 173.44164 -56.910839 -52.406368 -57.864555 -50.455326 0.0020739874 144.68814
536995092.48773 -0.55105561 173.23305 -57.349728 -54.368332 -57.840752 -50.401978 -0.0031895877 144.66841
537372593.43148 -0.55023348 173.01199 -57.294823 -56.34948 -57.085632 -59.942635 -0.0013400391 144.63455
537750094.37524 -0.55103701 172.79475 -57.135456 -58.110832 -57.293148 -59.64188 -0.0045670336 144.60257
538127595.31899 -0.55242628 172.57893 -56.796295 -60.133282 -57.753067 -60.067627 -0.0060907081 144.57573
538505096.26274 -0.55431998 172.36057 -56.826321 -64.610245 -57.050591 -58.310322 -0.0042003407 144.57213
538882597.20649 -0.55623806 172.1398 -57.558949 -57.539364 -56.668076 -58.559391 -0.00020778023 144.55045
539260098.15025 -0.55589402 171.90732 -57.200588 -60.97961 -56.580803 -58.908157 -0.0032334111 144.52011
539637599.094 -0.55425006 171.67393 -57.189857 -60.035934 -57.498291 -61.696636 -0.0021758256 144.49898
540015100.03775 -0.5561319 171.44493 -56.718731 -61.287697 -56.580837 -62.173866 9.784921e-005 144.49734
540392600.9815 -0.5567584 171.20293 -56.805 -61.181057 -57.323021 -58.267723 0.0036956661 144.44493
540770101.92525 -0.55557668 170.94609 -57.554726 -60.182541 -56.996914 -63.477169 0.00093458261 144.42809
541147602.86901 -0.55969656 170.70824 -57.635128 -57.807346 -57.087086 -63.528709 0.0051702932 144.39087
541525103.81276 -0.56099433 170.44696 -56.649437 -62.781078 -57.032619 -67.771996 0.0069766319 144.36914
541902604.75651 -0.56044239 170.17784 -56.563766 -64.421593 -56.951378 -64.571404 0.0045447745 144.32056
542280105.70026 -0.5657562 169.92386 -56.568287 -61.579792 -57.181217 -61.676186 0.0047498527 144.27049
542657606.64402 -0.5681178 169.66034 -56.880589 -67.4776 -56.684017 -65.218781 0.0036347243 144.22818
543035107.58777 -0.57011175 169.3692 -56.062359 -66.544815 -56.387596 -66.079178 -0.00031719476 144.20915
543412608.53152 -0.57541955 169.10782 -56.832165 -69.094879 -56.588337 -72.178986 -0.0028227542 144.13513
543790109.47527 -0.58148396 168.8371 -56.307526 -76.483803 -56.251713 -71.317963 -0.0039146384 144.10414
544167610.41903 -0.58848643 168.57216 -56.294041 -69.415482 -56.604675 -73.127113 -0.0090217963 144.05998
544545111.36278 -0.59190524 168.28935 -57.176025 -78.9617 -56.385815 -73.323746 -0.011120078 144.01315
544922612.30653 -0.59880829 168.03439 -56.815598 -78.216278 -56.344978 -71.26638 -0.014472052 143.97786
545300113.25028 -0.60275865 167.74544 -57.022343 -75.348457 -56.737114 -71.952698 -0.013628054 143.96257
545677614.19404 -0.60950392 167.47482 -56.372955 -72.788017 -56.982056 -78.05864 -0.015976993 143.94156
546055115.13779 -0.61801165 167.20879 -56.597168 -74.524933 -56.823872 -75.420616 -0.016116524 143.88239
546432616.08154 -0.62175548 166.92102 -57.366474 -75.873962 -56.40041 -76.330887 -0.01669381 143.86731
546810117.02529 -0.62811875 166.64401 -56.678143 -78.039345 -56.12606 -75.344826 -0.014581393 143.83272
547187617.96904 -0.63730997 166.35643 -56.34161 -77.588264 -55.887272 -75.822754 -0.014475478 143.81721
547565118.9128 -0.6451146 166.09288 -56.048775 -78.494644 -57.194355 -81.34877 -0.013044746 143.78076
547942619.85655 -0.65560472 165.80719 -56.647537 -77.011688 -56.093971 -75.54071 -0.012194954 143.73199
548320120.8003 -0.66684783 165.52725 -55.896282 -81.614624 -56.161201 -80.855217 -0.01045096 143.6981
548697621.74405 -0.67698532 165.23972 -56.065372 -81.601349 -56.20787 -74.547623 -0.010378544 143.66364
549075122.68781 -0.68895304 164.97922 -55.132595 -80.73307 -56.030399 -80.590622 -0.01254285 143.63161
549452623.63156 -0.70254511 164.72748 -56.259579 -83.939323 -55.933186 -82.08149 -0.0092847738 143.58569
549830124.57531 -0.7140581 164.45415 -56.277447 -79.354599 -55.274403 -78.501007 -0.010785039 143.53407
550207625.51906 -0.72878796 164.19606 -55.444752 -80.734695 -56.043743 -80.031349 -0.012585649 143.4808
550585126.46282 -0.74223208 163.95367 -54.911736 -85.906586 -55.184933 -84.332886 -0.015195743 143.44994
550962627.40657 -0.75738746 163.70744 -54.732132 -82.662682 -54.780205 -84.454506 -0.017440697 143.40977
551340128.35032 -0.77260989 163.4651 -55.235222 -86.214714 -54.484917 -87.326759 -0.019390568 143.36523
551717629.29407 -0.7873677 163.23279 -54.662834 -87.603294 -54.908333 -85.081367 -0.018108798 143.33496
552095130.23783 -0.80186945 163.01283 -54.186459 -85.248253 -54.589962 -85.32283 -0.017480662 143.30389
552472631.18158 -0.81860888 162.7863 -55.097828 -84.583679 -54.78619 -88.215141 -0.019294284 143.27115
552850132.12533 -0.83041948 162.57828 -54.29414 -90.898476 -54.509464 -87.06044 -0.015412016 143.25366
553227633.06908 -0.83893192 162.34644 -54.539249 -89.435524 -54.684044 -91.140388 -0.015717145 143.23033
553605134.01284 -0.85463637 162.14392 -54.518028 -90.703239 -54.151737 -88.484825 -0.0096711479 143.21387
553982634.95659 -0.8687405 161.90727 -54.448162 -91.514023 -54.765221 -94.375412 -0.0063935528 143.22354
554360135.90034 -0.88024831 161.70366 -54.288513 -98.265831 -54.272045 -91.212868 -0.00098267151 143.21548
554737636.84409 -0.89390999 161.48013 -53.955212 -94.906403 -54.123367 -95.412598 0.0034322005 143.20663
555115137.78784 -0.90608776 161.25885 -54.188545 -96.17952 -54.04528 -96.595184 0.007716693 143.20615
555492638.7316 -0.9207086 161.02263 -54.380783 -95.991302 -54.001686 -99.068108 0.013313792 143.17831
555870139.67535 -0.93452495 160.81255 -53.56266 -100.78189 -53.645985 -99.469337 0.013687281 143.18631
556247640.6191 -0.94949251 160.61615 -53.493885 -101.33404 -54.039742 -99.772385 0.01811488 143.14055
556625141.56285 -0.96376234 160.40605 -53.579178 -104.18016 -54.116913 -100.85042 0.014160151 143.12318
557002642.50661 -0.97342968 160.20764 -53.634594 -98.297836 -53.580898 -100.80028 0.015060806 143.10748
557380143.45036 -0.98754096 160.01381 -53.268108 -102.43341 -53.734943 -103.92772 0.012550896 143.07217
557757644.39411 -0.99821073 159.82043 -53.179062 -102.14674 -53.637222 -102.21609 0.012472901 143.06848
558135145.33786 -1.0109675 159.63614 -53.352688 -107.81091 -53.233406 -103.65311 0.0097418027 143.00644
558512646.28162 -1.0217005 159.42683 -53.337788 -106.92309 -53.94516 -106.90936 0.0024701187 142.97432
558890147.22537 -1.0310735 159.25325 -53.675339 -106.35911 -53.160618 -106.42348 0.00023304719 142.93755
559267648.16912 -1.0381254 159.09422 -53.494637 -108.0274 -53.461731 -110.90304 -0.0011514699 142.91228
559645149.11287 -1.0451695 158.92482 -53.242561 -109.44891 -53.677498 -111.32559 -0.0033712413 142.8513
560022650.05663 -1.0521696 158.75394 -52.957996 -109.97688 -53.434879 -113.35597 -0.0027898399 142.83138
560400151.00038 -1.0550021 158.57703 -53.068871 -114.11001 -52.804928 -109.70483 0.00074360077 142.7899
560777651.94413 -1.0565714 158.40125 -52.905357 -113.77285 -53.005379 -112.41727 -0.00010540082 142.75937
561155152.88788 -1.0580311 158.21582 -53.259125 -115.41422 -53.329845 -117.04424 0.0025407898 142.7368
561532653.83163 -1.0557407 158.05969 -53.251579 -114.76368 -53.212799 -117.61847 0.0091392156 142.71559
561910154.77539 -1.0540268 157.86809 -52.859982 -119.49356 -52.952736 -116.61634 0.0089491857 142.70032
562287655.71914 -1.0511717 157.66081 -53.091084 -121.43002 -53.099823 -118.33192 0.011921069 142.67511
562665156.66289 -1.047763 157.45297 -53.270962 -120.21901 -52.996239 -120.04443 0.015472766 142.66321
563042657.60664 -1.0402204 157.23199 -53.009907 -122.10559 -52.720966 -123.07161 0.01675665 142.63425
563420158.5504 -1.0361302 157.01842 -53.077831 -124.68469 -52.982941 -123.93578 0.019455204 142.61497
563797659.49415 -1.0307585 156.78458 -52.659466 -126.31337 -52.676624 -125.12708 0.017366637 142.5867
564175160.4379 -1.0242664 156.54834 -52.652882 -125.59711 -52.730358 -124.87911 0.016435463 142.57343
564552661.38165 -1.0186949 156.27449 -52.851707 -127.19772 -53.088165 -128.40184 0.011721081 142.54756
564930162.32541 -1.0141392 156.01855 -53.082142 -130.30475 -52.971222 -129.13516 0.0078334566 142.49423
565307663.26916 -1.0089834 155.7281 -52.843693 -126.10189 -53.053543 -129.82996 0.0080922963 142.45631
565685164.21291 -1.0029476 155.42039 -53.431606 -127.15123 -53.000027 -130.6595 0.0018158153 142.42261
566062665.15666 -0.99858409 155.10753 -52.794453 -127.55299 -52.727619 -130.4321 -0.0015385784 142.36421
566440166.10042 -0.99787652 154.78525 -52.908543 -129.86287 -53.1451 -132.82434 -0.0037614945 142.34508
566817667.04417 -0.99860412 154.4453 -53.202694 -132.16676 -53.404224 -130.39853 -0.0067117848 142.2966
567195167.98792 -1.0082592 154.10986 -52.879242 -132.28261 -53.423229 -130.89418 -0.0083792638 142.25516
567572668.93167 -1.0137326 153.78696 -53.23761 -134.49445 -52.482349 -133.75569 -0.0096251005 142.19876
567950169.87542 -1.0230144 153.45496 -52.792667 -134.14873 -52.795044 -131.33615 -0.0082155475 142.17511
568327670.81918 -1.0338048 153.16133 -52.397923 -135.6579 -53.019726 -131.01245 -0.0048526782 142.14049
568705171.76293 -1.0443629 152.8714 -52.842228 -136.04845 -53.044682 -133.12701 -0.001221319 142.09056
569082672.70668 -1.0513113 152.59167 -52.610661 -133.60109 -52.332821 -135.07896 0.0017375204 142.05591
569460173.65043 -1.061496 152.29506 -52.934715 -135.79073 -52.705677 -138.62094 0.00242513 142.00963
569837674.59419 -1.0666019 152.00183 -52.498215 -137.16589 -53.100315 -136.33934 0.002721813 141.9938
570215175.53794 -1.0765015 151.69037 -52.624104 -138.59303 -52.797947 -136.71869 0.0043992959 141.95964
570592676.48169 -1.0848722 151.37413 -52.617332 -138.93604 -52.997208 -140.80832 0.0081557129 141.91908
570970177.42544 -1.093418 151.04695 -53.07682 -140.68663 -52.733986 -138.61284 0.0077228155 141.90549
