!Keysight Technologies,N5242B,MY48420860,A.13.80.08
!Date: Saturday, September 26, 2020 11:17:24
!Correction: S11(Full 2 Port(1,2)) 
!S21(Full 2 Port(1,2)) 
!S12(Full 2 Port(1,2)) 
!S22(Full 2 Port(1,2)) 
!S2P File: Measurements: S11, S21, S12, S22:
# Hz S  dB   R 50
500000000 -0.2379594 -166.45921 -56.392193 110.54631 -56.861439 107.49967 -0.075917907 146.81607
500377500.94375 -0.23985401 -166.65004 -56.78503 110.47774 -56.301487 107.84579 -0.072901979 146.78676
500755001.8875 -0.24326152 -166.84943 -56.379147 111.78671 -55.927307 107.11054 -0.069823779 146.77612
501132502.83126 -0.24237937 -167.05717 -56.777149 107.67887 -57.256119 112.29042 -0.066705383 146.76094
501510003.77501 -0.24626179 -167.27016 -56.568508 107.49259 -55.355717 110.74896 -0.063283883 146.74402
501887504.71876 -0.24818338 -167.46608 -56.597412 109.84393 -55.589703 107.64498 -0.060209021 146.76225
502265005.66251 -0.24781638 -167.66837 -55.898392 108.488 -56.197254 112.56125 -0.057564449 146.7375
502642506.60627 -0.25382331 -167.87674 -55.403316 109.74606 -55.844448 109.2364 -0.055381633 146.74408
503020007.55002 -0.2548255 -168.07903 -55.923737 108.00745 -55.232735 104.68373 -0.052922476 146.73471
503397508.49377 -0.26059049 -168.2738 -55.685139 109.63451 -55.53355 104.04202 -0.051492698 146.70728
503775009.43752 -0.26253769 -168.46545 -55.521069 110.316 -55.328922 104.50874 -0.052408651 146.70593
504152510.38128 -0.26647374 -168.65732 -56.258286 107.07092 -55.624084 107.05002 -0.048199955 146.69653
504530011.32503 -0.26581988 -168.85634 -55.570225 100.93574 -56.068428 109.07016 -0.046498984 146.66727
504907512.26878 -0.26875928 -169.05367 -54.731224 103.9019 -55.918285 104.73023 -0.046983514 146.64499
505285013.21253 -0.27057979 -169.25188 -55.17606 101.61369 -55.386326 106.51416 -0.044491537 146.65878
505662514.15629 -0.27159598 -169.44298 -55.23904 103.93172 -55.295933 101.96664 -0.044106562 146.63287
506040015.10004 -0.27227738 -169.6263 -54.785309 99.962875 -55.246521 106.56988 -0.043641843 146.58748
506417516.04379 -0.27601877 -169.8345 -55.156677 105.40469 -55.271336 102.60384 -0.043834656 146.59787
506795016.98754 -0.27073237 -170.02803 -54.898396 98.465599 -54.856247 105.35776 -0.037812751 146.57524
507172517.93129 -0.27399433 -170.23619 -55.235725 104.36162 -54.822308 102.56356 -0.037590593 146.54132
507550018.87505 -0.27562621 -170.44762 -54.758869 101.55125 -54.428024 103.17193 -0.033966798 146.53996
507927519.8188 -0.27607226 -170.65598 -54.737915 99.860359 -55.184765 98.366554 -0.03273746 146.51321
508305020.76255 -0.27697599 -170.83826 -54.739586 97.036263 -54.680355 98.467102 -0.030131869 146.50204
508682521.7063 -0.27928159 -171.06296 -54.079632 98.926468 -54.865589 100.6098 -0.030188983 146.50165
509060022.65006 -0.27966142 -171.2766 -54.568298 100.83138 -54.489281 98.823036 -0.025451925 146.48209
509437523.59381 -0.27916899 -171.47585 -53.982983 98.252319 -54.342171 97.531349 -0.025378456 146.46829
509815024.53756 -0.28358537 -171.68199 -54.238396 96.801277 -54.244209 97.101067 -0.026757371 146.46364
510192525.48131 -0.28441453 -171.88893 -53.775852 99.390533 -54.211323 97.227516 -0.030446669 146.42432
510570026.42507 -0.28842959 -172.0865 -53.816498 96.557251 -54.161533 96.604691 -0.0315325 146.39662
510947527.36882 -0.28983048 -172.3022 -54.831608 95.221771 -54.44318 96.32119 -0.029156052 146.3606
511325028.31257 -0.28989539 -172.51775 -54.347546 98.712936 -53.473652 97.895119 -0.03559247 146.33984
511702529.25632 -0.29381374 -172.72372 -54.232983 95.549011 -54.299171 94.973343 -0.038425669 146.30023
512080030.20008 -0.29660037 -172.91975 -53.572319 96.904076 -53.730614 92.153419 -0.040440589 146.23541
512457531.14383 -0.29622492 -173.13965 -54.017437 93.417038 -53.580975 93.538887 -0.041106414 146.18008
512835032.08758 -0.29853991 -173.34712 -53.468376 97.360855 -53.902973 91.568771 -0.046079334 146.1644
513212533.03133 -0.30160969 -173.5679 -53.603905 97.181862 -53.443535 97.220856 -0.048745949 146.11168
513590033.97508 -0.30394322 -173.77121 -53.714363 94.028496 -53.963909 93.121246 -0.048328623 146.0544
513967534.91884 -0.30606043 -173.99049 -53.983868 91.609634 -52.962002 94.2164 -0.050714761 145.99249
514345035.86259 -0.30874225 -174.20773 -53.544102 91.72953 -53.254505 93.754829 -0.051217597 145.96997
514722536.80634 -0.31180695 -174.42679 -52.927853 92.132317 -53.28846 90.210258 -0.048437327 145.9236
515100037.75009 -0.31295794 -174.64586 -53.316757 89.777061 -53.425983 91.20018 -0.050780382 145.88504
515477538.69385 -0.31778696 -174.86876 -52.808228 88.551758 -52.980453 90.908722 -0.051656332 145.86217
515855039.6376 -0.31845683 -175.07512 -53.066807 88.117767 -52.995365 91.378189 -0.049252007 145.81131
516232540.58135 -0.32196087 -175.3031 -53.16658 85.451294 -53.415409 87.595985 -0.051203854 145.78615
516610041.5251 -0.32520118 -175.52026 -52.742054 89.698677 -53.084179 86.380501 -0.049851779 145.74744
516987542.46886 -0.3270413 -175.74423 -53.312824 86.816917 -52.783848 87.149544 -0.051163364 145.71169
517365043.41261 -0.32895824 -175.96465 -53.41301 87.722343 -52.684349 90.578201 -0.054300636 145.68503
517742544.35636 -0.33314922 -176.19492 -52.364647 83.572342 -52.959061 86.777733 -0.054098208 145.65433
518120045.30011 -0.33722112 -176.41246 -52.75576 86.011497 -52.383583 85.692207 -0.058620762 145.6088
518497546.24387 -0.34285828 -176.62073 -52.302418 89.967918 -52.845085 84.695297 -0.060908377 145.55521
518875047.18762 -0.34587574 -176.86194 -52.869415 88.228027 -52.536743 81.375351 -0.063871443 145.50891
519252548.13137 -0.34954205 -177.06784 -52.428658 84.744438 -52.718945 86.153549 -0.068493851 145.46701
519630049.07512 -0.35355762 -177.29745 -52.549809 85.666443 -52.41573 84.035332 -0.071386442 145.40628
520007550.01888 -0.35892752 -177.52786 -52.332813 81.989532 -52.119087 82.979004 -0.07223437 145.35718
520385050.96263 -0.36152858 -177.72287 -52.458229 82.892494 -52.140202 84.115707 -0.072533168 145.30464
520762551.90638 -0.36667535 -177.94012 -52.108944 82.764015 -52.00079 80.970787 -0.072984129 145.24445
521140052.85013 -0.37110561 -178.15691 -52.277607 84.968521 -52.017464 82.794373 -0.070597269 145.19269
521517553.79388 -0.37469628 -178.37146 -52.295887 80.202332 -52.080425 78.906395 -0.071131118 145.14987
521895054.73764 -0.37803635 -178.58566 -52.123749 80.126106 -52.324295 80.532463 -0.072552949 145.11581
522272555.68139 -0.38074976 -178.81184 -51.909554 83.11628 -51.630386 79.413773 -0.070255429 145.08656
522650056.62514 -0.38384241 -179.01894 -52.124966 78.124237 -52.037025 80.255669 -0.068527952 145.06778
523027557.56889 -0.38986123 -179.2283 -51.818539 78.259659 -51.582489 79.15448 -0.063783571 145.05009
523405058.51265 -0.39365745 -179.46973 -52.049648 81.102539 -51.547638 81.574501 -0.062131081 145.02319
523782559.4564 -0.3953436 -179.67781 -51.300545 77.357941 -52.038757 79.431816 -0.058560945 145.01178
524160060.40015 -0.40043551 -179.9082 -51.539459 77.392632 -51.786491 77.431061 -0.060788907 145.01056
524537561.3439 -0.4065412 179.86961 -50.919258 80.273193 -51.45174 75.119637 -0.057214271 145.01317
524915062.28766 -0.41079023 179.64256 -51.715206 76.298737 -51.294975 75.481651 -0.05787148 144.97263
525292563.23141 -0.41636121 179.4183 -51.092182 76.787628 -51.305027 75.940681 -0.058492523 144.97037
525670064.17516 -0.42256406 179.19026 -51.142849 74.602463 -51.359379 74.892876 -0.057080381 144.97165
526047565.11891 -0.42513582 178.97688 -51.205261 74.854431 -50.98991 74.676353 -0.056078646 144.9368
526425066.06267 -0.43026012 178.75145 -51.253704 74.920212 -50.883652 73.269554 -0.054884236 144.91765
526802567.00642 -0.43768302 178.55519 -50.805546 74.035126 -51.287319 70.922119 -0.059700985 144.89189
527180067.95017 -0.44319221 178.30235 -50.720482 74.342613 -51.123451 72.687424 -0.057761323 144.86052
527557568.89392 -0.44992355 178.08809 -50.510017 72.579674 -50.589249 71.457863 -0.058048956 144.84195
527935069.83767 -0.45238131 177.88362 -50.42762 72.095573 -50.215698 72.135078 -0.057494905 144.80524
528312570.78143 -0.45920768 177.66093 -50.322285 70.713287 -50.887856 71.93409 -0.055391762 144.77327
528690071.72518 -0.4640474 177.42416 -50.717087 70.847878 -50.449688 68.662476 -0.052038424 144.75981
529067572.66893 -0.47008678 177.20566 -50.375961 70.732475 -50.427181 67.401733 -0.050743084 144.70242
529445073.61268 -0.47396958 176.98012 -50.510899 71.369484 -50.305004 68.724136 -0.048163064 144.68974
529822574.55644 -0.48146406 176.75266 -50.120693 68.721344 -50.264912 70.388016 -0.045785561 144.69002
530200075.50019 -0.48788473 176.53065 -50.154613 70.125519 -50.229755 68.612068 -0.041828703 144.70013
530577576.44394 -0.49584985 176.30583 -49.894733 66.544495 -50.379951 67.524689 -0.039371353 144.68353
530955077.38769 -0.50184494 176.07191 -49.813396 70.132187 -49.829037 69.19635 -0.035726581 144.68344
531332578.33145 -0.50998497 175.84706 -50.195328 68.459824 -50.085861 66.836929 -0.037446063 144.67444
531710079.2752 -0.51564938 175.63016 -50.011368 66.357834 -49.766659 64.227524 -0.035329856 144.68105
532087580.21895 -0.52157611 175.41203 -49.363178 66.273277 -50.060127 66.473473 -0.032310311 144.67021
532465081.1627 -0.53090239 175.19087 -49.561996 64.682709 -49.617126 65.049057 -0.036135156 144.64337
532842582.10646 -0.53707671 174.97881 -49.540524 63.294544 -49.860424 65.480812 -0.03742712 144.64572
533220083.05021 -0.54124606 174.76291 -49.464203 62.704594 -49.3507 62.496143 -0.038988825 144.60573
533597583.99396 -0.54885626 174.55908 -49.37085 63.393089 -49.148499 61.812374 -0.040896382 144.55426
533975084.93771 -0.55306107 174.34261 -49.343895 61.759594 -49.35178 63.36721 -0.043355472 144.5096
534352585.88146 -0.55946237 174.12318 -49.401165 60.981117 -49.155598 59.59409 -0.043296829 144.4841
534730086.82522 -0.5651744 173.91551 -49.360729 61.377045 -49.099556 60.693901 -0.048613884 144.44653
535107587.76897 -0.56916213 173.71513 -49.154408 59.641869 -49.227859 59.540325 -0.050149702 144.39459
535485088.71272 -0.57277584 173.47925 -49.073624 58.240223 -48.929947 58.192394 -0.047787622 144.31973
535862589.65647 -0.57668298 173.26279 -48.951645 59.161201 -48.9706 59.667767 -0.04478462 144.31163
536240090.60023 -0.58348334 173.04553 -48.898319 56.750004 -49.159412 57.997311 -0.048138928 144.26381
536617591.54398 -0.58794004 172.82738 -48.770905 56.207157 -49.255089 57.178928 -0.043525029 144.22513
536995092.48773 -0.59151793 172.60793 -48.814175 56.196625 -49.032242 57.601597 -0.04515161 144.19266
537372593.43148 -0.59728086 172.37027 -48.700413 57.091583 -48.670471 55.519485 -0.040694971 144.16167
537750094.37524 -0.60165888 172.15501 -48.475994 54.074692 -48.528233 55.473663 -0.042915959 144.12611
538127595.31899 -0.60511237 171.93643 -48.394276 55.351372 -48.85994 57.149605 -0.042942375 144.09689
538505096.26274 -0.61008078 171.70399 -48.526138 54.11639 -48.58025 54.072521 -0.038756739 144.09317
538882597.20649 -0.61494267 171.47604 -48.628166 52.711246 -48.720211 53.468975 -0.036710154 144.06898
539260098.15025 -0.62007171 171.2585 -48.39851 52.448612 -48.533623 53.562008 -0.041542374 144.03989
539637599.094 -0.62185311 171.01936 -48.430836 53.876854 -48.528389 53.346321 -0.042267419 144.01054
540015100.03775 -0.62678957 170.79396 -48.283062 51.419575 -48.219425 52.938736 -0.046080094 144.00938
540392600.9815 -0.63297606 170.56671 -48.156975 51.756344 -48.421291 50.448891 -0.044817872 143.95143
540770101.92525 -0.63587397 170.30151 -48.17535 49.563068 -48.160706 51.862659 -0.049396615 143.91805
541147602.86901 -0.64108878 170.07553 -48.213428 50.454853 -48.006001 50.489075 -0.052423559 143.87547
541525103.81276 -0.64758915 169.83568 -48.006554 49.075352 -48.00882 48.351715 -0.053258747 143.81264
541902604.75651 -0.65316617 169.57866 -47.983562 48.581013 -47.802139 48.10223 -0.058815692 143.75629
542280105.70026 -0.65745246 169.34398 -47.974514 46.614609 -47.97076 46.992046 -0.057519384 143.71088
542657606.64402 -0.66346151 169.09143 -47.822132 47.388142 -47.87429 48.188011 -0.059187584 143.63631
543035107.58777 -0.66859764 168.82857 -47.808887 47.372349 -47.645199 47.368019 -0.063689068 143.58521
543412608.53152 -0.67523646 168.59596 -47.676563 45.443531 -47.686272 46.01936 -0.062811628 143.53763
543790109.47527 -0.68384069 168.33292 -47.423313 46.745472 -47.702793 44.493256 -0.061839182 143.48737
544167610.41903 -0.69030523 168.09198 -47.357883 44.665565 -47.636791 44.928333 -0.061717283 143.44135
544545111.36278 -0.69755703 167.83188 -47.289978 43.764511 -47.594471 43.167812 -0.059973884 143.4021
544922612.30653 -0.70624572 167.58824 -47.512955 42.915474 -47.437897 42.90173 -0.061217356 143.37424
545300113.25028 -0.7119984 167.33481 -47.459232 43.354336 -47.455948 42.987057 -0.056572154 143.36038
545677614.19404 -0.72070783 167.07739 -47.087524 41.086704 -47.340271 41.816879 -0.057187334 143.35248
546055115.13779 -0.73075587 166.8317 -47.249073 41.581234 -47.175938 42.410637 -0.058243629 143.31155
546432616.08154 -0.73808211 166.56461 -46.872326 41.115341 -47.15535 41.982285 -0.061296053 143.30931
546810117.02529 -0.74746031 166.3033 -47.098934 39.1926 -46.988983 40.08564 -0.060165811 143.27544
547187617.96904 -0.7563529 166.04468 -46.880295 40.590328 -47.046661 39.816746 -0.064797848 143.25774
547565118.9128 -0.76747584 165.80473 -46.828495 39.77433 -46.833458 39.258427 -0.064599268 143.20607
547942619.85655 -0.78144848 165.55177 -46.619717 38.149166 -46.914299 38.214073 -0.068139002 143.16399
548320120.8003 -0.79236132 165.29539 -46.594913 38.173927 -46.571381 37.828007 -0.069624834 143.11716
548697621.74405 -0.80385178 165.04204 -46.802097 35.464073 -46.634087 36.644669 -0.071383022 143.05942
549075122.68781 -0.81750065 164.81689 -46.654182 36.333878 -46.52113 36.082619 -0.076546744 143.02046
549452623.63156 -0.83021551 164.58943 -46.402225 35.198586 -46.504337 36.105007 -0.075667471 142.9613
549830124.57531 -0.84280539 164.35696 -46.558331 35.269146 -46.402256 34.725529 -0.077454329 142.93192
550207625.51906 -0.85540771 164.13239 -46.293728 33.133183 -46.206215 34.641201 -0.074861765 142.86
550585126.46282 -0.86606431 163.91934 -46.240902 32.53051 -46.248577 33.071316 -0.076146804 142.82217
550962627.40657 -0.8793273 163.70044 -46.285366 33.240765 -46.218632 32.576294 -0.074733458 142.79216
551340128.35032 -0.89065331 163.48911 -46.10075 32.398891 -45.896286 30.646154 -0.07381051 142.7645
551717629.29407 -0.89974034 163.27229 -45.994057 29.723368 -46.112122 31.272316 -0.067301691 142.73911
552095130.23783 -0.91153353 163.06531 -46.084412 30.110432 -45.857609 30.453629 -0.064181626 142.71097
552472631.18158 -0.9218573 162.85173 -45.83979 29.82999 -45.809826 29.138449 -0.06389074 142.69887
552850132.12533 -0.93028563 162.64592 -45.733864 29.569036 -45.988533 28.250483 -0.061311509 142.69998
553227633.06908 -0.93537951 162.41762 -45.846939 28.451601 -45.897606 27.380602 -0.058799271 142.67551
553605134.01284 -0.94499826 162.20445 -45.786518 28.669661 -45.617527 27.402534 -0.056938868 142.68095
553982634.95659 -0.95443642 161.96834 -45.905453 25.0963 -45.615227 25.084379 -0.054439764 142.69478
554360135.90034 -0.96213901 161.74936 -45.807957 25.963331 -45.593227 26.26856 -0.052925535 142.68297
554737636.84409 -0.97407693 161.52763 -45.57481 24.802109 -45.544659 24.04789 -0.055097803 142.6711
555115137.78784 -0.98056203 161.27881 -45.484142 24.993032 -45.464104 24.97809 -0.052852467 142.64647
555492638.7316 -0.99033588 161.03137 -45.421162 22.588417 -45.517258 22.448282 -0.051478475 142.63786
555870139.67535 -1.0009085 160.79532 -45.349644 23.426836 -45.465454 22.045422 -0.052379105 142.61894
556247640.6191 -1.014076 160.56863 -45.354759 22.635132 -45.280582 21.155516 -0.048744582 142.56958
556625141.56285 -1.0250635 160.32243 -45.064129 20.422279 -45.08102 21.759148 -0.052568138 142.54036
557002642.50661 -1.0365653 160.09239 -45.158985 18.945402 -45.184631 20.316767 -0.050114024 142.49876
557380143.45036 -1.0504715 159.8618 -45.04731 19.098946 -45.017872 19.73925 -0.049211435 142.48083
557757644.39411 -1.0628419 159.64563 -44.852322 18.479597 -44.997662 18.774561 -0.045495749 142.45378
558135145.33786 -1.0762862 159.42154 -44.879044 18.681885 -44.818779 17.807306 -0.043508001 142.40669
558512646.28162 -1.0900451 159.21069 -44.773544 16.964899 -45.051514 16.170147 -0.043774791 142.40207
558890147.22537 -1.103068 158.99245 -44.92804 16.819225 -44.606247 15.584396 -0.040409766 142.38452
559267648.16912 -1.1133772 158.79466 -44.892818 14.618017 -44.891827 15.31982 -0.038368933 142.3714
559645149.11287 -1.1249433 158.59387 -44.565273 14.582343 -44.734489 15.06167 -0.035420105 142.34901
560022650.05663 -1.1375489 158.4128 -44.626717 13.971717 -44.62188 12.669759 -0.032322381 142.34531
560400151.00038 -1.1474247 158.20564 -44.742733 11.877964 -44.676476 12.534098 -0.028390147 142.34024
560777651.94413 -1.1553049 158.00717 -44.502083 11.819365 -44.551708 11.180293 -0.029887605 142.31708
561155152.88788 -1.1663154 157.81798 -44.699684 11.277387 -44.642544 11.302117 -0.0292523 142.31688
561532653.83163 -1.173331 157.65233 -44.467182 11.687621 -44.708511 9.647418 -0.0267705 142.30092
561910154.77539 -1.179037 157.45839 -44.39642 9.7197294 -44.695114 9.8886185 -0.029184856 142.29482
562287655.71914 -1.1835703 157.2614 -44.533669 8.8594389 -44.498497 8.494874 -0.0303386 142.27292
562665156.66289 -1.1864409 157.0766 -44.419098 7.7860718 -44.489788 7.9106064 -0.028783185 142.25125
563042657.60664 -1.1894462 156.86929 -44.449574 6.5534778 -44.458042 7.25035 -0.031028856 142.22484
563420158.5504 -1.1903033 156.66441 -44.421124 6.1500559 -44.410568 6.4713111 -0.029652428 142.18448
563797659.49415 -1.1925176 156.45166 -44.328743 5.71246 -44.363922 5.0122828 -0.030988397 142.14624
564175160.4379 -1.1939523 156.24196 -44.39502 6.1330061 -44.368725 4.2225757 -0.032516412 142.11601
564552661.38165 -1.1954645 155.98067 -44.386894 4.4836931 -44.458412 4.6427093 -0.03419023 142.08226
564930162.32541 -1.1966022 155.75829 -44.324139 4.1257057 -44.523136 3.0432742 -0.0323922 142.03081
565307663.26916 -1.199138 155.51262 -44.443058 3.8188455 -44.3218 4.0336018 -0.031580247 142.00351
565685164.21291 -1.2016391 155.23889 -44.485554 3.1656041 -44.421959 3.0754142 -0.033054218 141.94054
566062665.15666 -1.2021911 154.9736 -44.324463 2.4697709 -44.398758 3.1980426 -0.034022551 141.89299
566440166.10042 -1.2060527 154.70239 -44.194923 1.8452088 -44.294365 1.6641927 -0.033875052 141.89857
566817667.04417 -1.2127874 154.42448 -44.149414 1.9754896 -44.281719 2.5620897 -0.033699322 141.85608
567195167.98792 -1.2236512 154.14034 -44.280029 0.7619096 -44.219135 1.169799 -0.036018398 141.81505
567572668.93167 -1.2323625 153.87343 -44.063118 1.0809758 -43.991692 1.0916356 -0.036420166 141.78516
567950169.87542 -1.2411036 153.5972 -43.97179 0.74574608 -44.082596 -0.59684545 -0.039265342 141.76338
568327670.81918 -1.25114 153.33696 -43.938335 -0.092108198 -44.047024 0.11036199 -0.039251119 141.71832
568705171.76293 -1.2627212 153.09151 -43.900169 -0.11484471 -43.88591 -1.0938071 -0.040021416 141.68312
569082672.70668 -1.2708722 152.85553 -43.690399 -0.69929582 -43.825291 -1.2388442 -0.041694257 141.64328
569460173.65043 -1.2833409 152.57895 -43.741764 -1.2135098 -43.701706 -2.0729234 -0.046796139 141.60167
569837674.59419 -1.2915013 152.32935 -43.594391 -3.2170751 -43.612156 -2.6241484 -0.053385783 141.53275
570215175.53794 -1.3012176 152.05904 -43.577843 -4.0668259 -43.707314 -3.1190472 -0.053563293 141.50375
570592676.48169 -1.3129746 151.78149 -43.578354 -3.9965661 -43.546967 -3.442116 -0.056656986 141.43312
570970177.42544 -1.3226216 151.50725 -43.414013 -3.8705492 -43.489796 -5.379324 -0.058033742 141.38371
571347678.3692 -1.3369616 151.23503 -43.569492 -5.2120438 -43.366238 -5.7460546 -0.060095508 141.33316
571725179.31295 -1.3493421 150.96835 -43.301105 -6.2940431 -43.361984 -6.3890338 -0.063029476 141.25981
572102680.2567 -1.3648149 150.71509 -43.169769 -7.5430832 -43.30537 -5.96944 -0.062846899 141.22206
