!Keysight Technologies,N5242B,MY48420860,A.13.80.08
!Date: Saturday, September 26, 2020 11:20:31
!Correction: S11(Full 2 Port(1,2)) 
!S21(Full 2 Port(1,2)) 
!S12(Full 2 Port(1,2)) 
!S22(Full 2 Port(1,2)) 
!S2P File: Measurements: S11, S21, S12, S22:
# Hz S  dB   R 50
500000000 -0.25809634 -166.45692 -57.347061 63.282265 -57.435062 62.210232 -0.05690483 147.0016
500377500.94375 -0.26034567 -166.64992 -56.911674 64.638367 -56.831329 65.004265 -0.055676945 146.9603
500755001.8875 -0.26234967 -166.84055 -56.341602 64.598007 -58.371365 68.194122 -0.054674447 146.9565
501132502.83126 -0.26430583 -167.05428 -56.899815 65.382889 -58.441662 68.026611 -0.052402485 146.92413
501510003.77501 -0.26942265 -167.24687 -56.839634 61.732651 -57.770149 67.490578 -0.047365472 146.90887
501887504.71876 -0.2711432 -167.44537 -57.646233 65.63868 -57.121647 58.586159 -0.046931271 146.91299
502265005.66251 -0.27132997 -167.64247 -56.960464 64.698296 -56.773529 59.267689 -0.046529498 146.89563
502642506.60627 -0.27747181 -167.85133 -57.079529 65.663017 -57.455341 58.191452 -0.040970821 146.8811
503020007.55002 -0.27930251 -168.04825 -56.71146 58.740379 -57.101181 58.816418 -0.036859222 146.87842
503397508.49377 -0.28481802 -168.24948 -56.839046 60.391289 -56.136574 60.07407 -0.036642186 146.84708
503775009.43752 -0.28615057 -168.44368 -56.715401 57.720051 -57.430321 56.854733 -0.037785985 146.82718
504152510.38128 -0.28802854 -168.63007 -56.570152 59.853954 -56.920158 54.105793 -0.035235327 146.8288
504530011.32503 -0.29142642 -168.82051 -56.346622 60.215332 -56.339882 58.641575 -0.032560889 146.80508
504907512.26878 -0.29385129 -169.00008 -56.347847 58.84428 -56.708225 57.41996 -0.03258314 146.77835
505285013.21253 -0.29711005 -169.20906 -55.816803 52.573097 -57.009567 57.261467 -0.031440869 146.79488
505662514.15629 -0.29680946 -169.3988 -55.863094 55.221912 -56.561844 52.721245 -0.030118631 146.76373
506040015.10004 -0.29924256 -169.57851 -56.14122 57.723461 -55.5527 57.110355 -0.031462021 146.72389
506417516.04379 -0.30350298 -169.77446 -56.015392 58.180756 -56.148033 54.644886 -0.031211101 146.7166
506795016.98754 -0.29967925 -169.96954 -55.65398 52.974033 -55.999229 51.431995 -0.024941821 146.70537
507172517.93129 -0.30112451 -170.16026 -56.704426 55.001713 -55.625778 49.29567 -0.027321083 146.66476
507550018.87505 -0.30408829 -170.37071 -55.967464 49.883007 -56.02182 49.428879 -0.024988132 146.65166
507927519.8188 -0.30369666 -170.57045 -56.093369 50.147972 -55.669674 51.120216 -0.026132429 146.62573
508305020.76255 -0.30537122 -170.76395 -55.167599 52.86665 -55.681324 50.157097 -0.021859644 146.60808
508682521.7063 -0.30546772 -170.96611 -55.482327 49.36964 -55.763359 50.78577 -0.021959377 146.59828
509060022.65006 -0.30765724 -171.18254 -55.843647 48.524681 -55.511066 52.009338 -0.019111577 146.56735
509437523.59381 -0.30704644 -171.362 -55.311565 51.288132 -55.186665 48.930206 -0.019778974 146.53427
509815024.53756 -0.31113744 -171.57336 -55.302242 51.864124 -55.599293 48.684929 -0.018296106 146.53679
510192525.48131 -0.31129995 -171.78197 -55.436359 46.542988 -55.497734 47.736946 -0.022837026 146.4976
510570026.42507 -0.31382966 -171.97058 -55.126293 48.52224 -55.464405 48.606373 -0.023258226 146.46255
510947527.36882 -0.31607246 -172.18138 -55.315647 46.94775 -55.535606 51.329521 -0.021707764 146.43379
511325028.31257 -0.31695387 -172.39099 -55.270668 45.116985 -55.366077 42.96706 -0.024940437 146.40387
511702529.25632 -0.32052293 -172.59706 -54.903698 44.236969 -55.200176 45.464832 -0.028997315 146.37021
512080030.20008 -0.32112852 -172.80464 -55.026295 47.460732 -54.915081 47.91943 -0.030909635 146.32874
512457531.14383 -0.32314643 -173.01633 -55.050365 44.033569 -55.663082 46.690536 -0.032112963 146.27191
512835032.08758 -0.32447308 -173.21266 -54.75172 42.561726 -54.629944 43.57206 -0.03418931 146.24814
513212533.03133 -0.32705054 -173.43559 -55.093666 43.639072 -55.085106 47.246655 -0.037687 146.19911
513590033.97508 -0.32966444 -173.64142 -54.886868 44.065845 -54.905788 41.462105 -0.037242789 146.14554
513967534.91884 -0.33321303 -173.85957 -54.616421 42.854328 -54.48159 46.720936 -0.039920621 146.0898
514345035.86259 -0.33466133 -174.07031 -54.575901 41.417442 -55.301701 41.542202 -0.040615544 146.05994
514722536.80634 -0.33757469 -174.2935 -54.577824 43.570236 -54.667511 45.055817 -0.039485555 146.03198
515100037.75009 -0.34061322 -174.51178 -54.364735 43.129402 -54.821308 42.382908 -0.038183935 145.97928
515477538.69385 -0.34518239 -174.72459 -53.671181 43.440517 -54.425568 39.213112 -0.039875418 145.96887
515855039.6376 -0.34793031 -174.92935 -54.000893 42.392265 -53.633381 39.299015 -0.037433594 145.93221
516232540.58135 -0.35210809 -175.15311 -54.049641 36.836559 -54.159477 41.368797 -0.038537845 145.89464
516610041.5251 -0.35355604 -175.36719 -54.097141 35.363617 -53.919735 36.471428 -0.03749986 145.8607
516987542.46886 -0.35772192 -175.58647 -53.328693 38.814781 -53.891544 39.742149 -0.03690768 145.82675
517365043.41261 -0.3596535 -175.8174 -53.677994 39.216633 -53.634605 37.536983 -0.04122426 145.79486
517742544.35636 -0.36459982 -176.01466 -53.642712 36.60635 -53.716667 38.218876 -0.036865544 145.77931
518120045.30011 -0.3694486 -176.23917 -53.506527 35.904751 -53.570938 35.746521 -0.03932783 145.72176
518497546.24387 -0.37593579 -176.45432 -53.491653 37.146698 -53.440853 37.067028 -0.043896142 145.68877
518875047.18762 -0.37958801 -176.68341 -53.342121 34.570374 -53.34029 35.062984 -0.043466382 145.6571
519252548.13137 -0.38440984 -176.87714 -53.55603 33.1241 -53.380402 31.691242 -0.048332822 145.61417
519630049.07512 -0.38855758 -177.10277 -53.418598 32.584457 -53.349892 34.215965 -0.051845778 145.55702
520007550.01888 -0.39331335 -177.29707 -53.343636 29.380775 -53.402355 30.473925 -0.052381642 145.52106
520385050.96263 -0.39707094 -177.50385 -52.959431 30.307661 -53.027538 34.20105 -0.052398864 145.48674
520762551.90638 -0.39993852 -177.71227 -53.086712 33.345871 -52.918499 29.907534 -0.053602468 145.43262
521140052.85013 -0.40434173 -177.9153 -53.265736 31.048037 -53.383324 26.686926 -0.051584743 145.38307
521517553.79388 -0.40764418 -178.11142 -52.948574 30.008665 -52.910889 30.769009 -0.053126339 145.34245
521895054.73764 -0.41110873 -178.32779 -53.009518 24.255466 -52.611191 28.615332 -0.051543947 145.30771
522272555.68139 -0.41337922 -178.54254 -52.979134 27.246969 -53.230145 27.595881 -0.052218366 145.27618
522650056.62514 -0.41437206 -178.73833 -52.835022 28.425959 -52.653713 27.874767 -0.05065557 145.25865
523027557.56889 -0.42098096 -178.96658 -52.881676 27.434221 -53.148144 26.740494 -0.046993338 145.23238
523405058.51265 -0.42513725 -179.17969 -52.88306 25.56493 -52.968983 25.370686 -0.044992816 145.21715
523782559.4564 -0.42695805 -179.39354 -52.471004 26.157537 -53.113461 25.942188 -0.043049671 145.1937
524160060.40015 -0.43153957 -179.60568 -52.44165 24.818058 -52.429329 26.249681 -0.042843468 145.1866
524537561.3439 -0.43944827 -179.83635 -52.446045 25.50071 -52.587631 27.961292 -0.040765736 145.16608
524915062.28766 -0.44376874 179.94441 -52.430363 22.128328 -52.335846 22.984499 -0.040847477 145.13971
525292563.23141 -0.44935018 179.74326 -52.162163 21.71965 -52.371777 21.520414 -0.040390652 145.13989
525670064.17516 -0.45458162 179.51624 -52.482475 22.761805 -52.27187 22.739943 -0.039244883 145.12263
526047565.11891 -0.4602268 179.31567 -52.132957 22.722202 -51.835518 23.778847 -0.038653288 145.09949
526425066.06267 -0.46736655 179.10973 -52.2271 23.488436 -52.108238 20.091614 -0.038174592 145.06743
526802567.00642 -0.47290844 178.90399 -52.360397 19.073933 -52.256092 21.175802 -0.041955091 145.03958
527180067.95017 -0.47877041 178.67432 -51.989079 18.93432 -51.651264 20.978809 -0.040829111 145.00328
527557568.89392 -0.48406127 178.47177 -51.70097 18.453722 -51.85865 19.034506 -0.042181272 145.0024
527935069.83767 -0.49155682 178.28789 -51.622631 19.994522 -51.776245 18.084805 -0.041949421 144.94252
528312570.78143 -0.49496716 178.08638 -51.668224 13.849956 -51.44643 18.501947 -0.04071464 144.92099
528690071.72518 -0.50055903 177.87329 -51.59082 15.39573 -51.374252 15.381679 -0.039650477 144.89714
529067572.66893 -0.50619251 177.66565 -51.542953 15.88952 -51.415234 15.062176 -0.037961043 144.86104
529445073.61268 -0.50949198 177.45952 -51.474342 13.140675 -51.536407 14.658254 -0.036700498 144.83543
529822574.55644 -0.514642 177.26624 -51.329269 15.779527 -51.530548 13.744329 -0.034720883 144.80814
530200075.50019 -0.51915663 177.05417 -51.532642 12.55647 -51.564301 12.383127 -0.032189984 144.81256
530577576.44394 -0.52383929 176.84335 -50.586975 11.788588 -51.290924 11.256065 -0.031150086 144.79059
530955077.38769 -0.52853227 176.62743 -51.226582 8.1240606 -51.462009 12.553311 -0.026527686 144.77052
531332578.33145 -0.53228265 176.41565 -50.914364 9.8524361 -51.123562 10.346812 -0.02605035 144.78166
531710079.2752 -0.53773957 176.20563 -51.040405 9.8911324 -51.070045 7.581131 -0.026848249 144.76173
532087580.21895 -0.54234898 176.01346 -51.089947 10.482419 -50.932289 9.9342785 -0.025211019 144.75536
532465081.1627 -0.54668111 175.78873 -50.774761 10.107393 -51.522747 8.5657024 -0.026706021 144.72754
532842582.10646 -0.55000538 175.58917 -51.087128 7.3469377 -51.240952 6.3455672 -0.027699467 144.71887
533220083.05021 -0.5511862 175.36546 -51.152061 9.7225294 -50.943977 5.7494478 -0.028060477 144.68504
533597583.99396 -0.5554021 175.16646 -50.795189 5.3249154 -50.975845 3.7775335 -0.029397242 144.62218
533975084.93771 -0.55792165 174.96573 -50.53846 4.2637534 -51.108677 5.594727 -0.032217778 144.60069
534352585.88146 -0.56190026 174.74146 -51.189804 5.5425353 -50.779736 5.2955852 -0.034331635 144.55746
534730086.82522 -0.56574398 174.5406 -50.619556 2.9890316 -50.762608 3.1748781 -0.037324384 144.51884
535107587.76897 -0.56850266 174.33356 -50.932743 2.9078481 -50.896454 3.3343558 -0.037195232 144.47118
535485088.71272 -0.57084626 174.09601 -50.885578 1.6571505 -50.631729 2.4108729 -0.037979554 144.41321
535862589.65647 -0.57082766 173.89198 -50.879192 2.9854732 -51.146595 2.5862792 -0.036473256 144.39502
536240090.60023 -0.57781303 173.67351 -50.750912 1.296986 -50.338741 0.40703797 -0.036285963 144.34859
536617591.54398 -0.58113056 173.4581 -50.597305 0.77123779 -50.825256 2.7830875 -0.03111569 144.31416
536995092.48773 -0.58323014 173.23779 -50.499207 0.73669583 -50.815708 -0.80714208 -0.035464704 144.27579
537372593.43148 -0.58632827 173.01929 -50.690235 -0.3043673 -50.806324 -0.76098341 -0.032321807 144.24385
537750094.37524 -0.58984739 172.80191 -50.542683 -1.1111568 -50.815048 -1.4202061 -0.033629522 144.21432
538127595.31899 -0.5933997 172.57237 -50.31073 -3.9447114 -50.354122 -3.0679767 -0.031116916 144.19772
538505096.26274 -0.5957765 172.35733 -50.488258 -1.9944671 -50.274895 -2.6908054 -0.029909151 144.17807
538882597.20649 -0.59924549 172.14789 -50.741772 -2.2246661 -50.406601 -2.3108644 -0.026822466 144.15642
539260098.15025 -0.60345668 171.92046 -50.638283 -2.8483531 -50.26342 -2.8778439 -0.030109683 144.13342
539637599.094 -0.6058569 171.68925 -50.583721 -2.3675447 -50.042313 -2.3539798 -0.029577574 144.11652
540015100.03775 -0.60741854 171.47438 -50.578857 -1.0839047 -50.360931 -3.9477956 -0.031132266 144.08749
540392600.9815 -0.61095661 171.24669 -50.287918 -5.4703026 -50.441265 -5.185894 -0.0311462 144.05931
540770101.92525 -0.61195171 171.01205 -49.87373 -3.5498557 -49.971989 -5.742907 -0.034843136 144.0247
541147602.86901 -0.61633551 170.79788 -50.111294 -4.5135059 -50.155109 -4.9527593 -0.034264442 143.98454
541525103.81276 -0.61978889 170.55139 -49.856232 -8.2790766 -49.948338 -6.1660962 -0.035976611 143.94826
541902604.75651 -0.62230402 170.30859 -50.008152 -7.6319203 -49.976238 -5.5227137 -0.040433064 143.89757
542280105.70026 -0.6244992 170.07886 -49.684826 -7.7378778 -49.887775 -7.572753 -0.041079935 143.84282
542657606.64402 -0.62840468 169.82449 -49.914776 -6.4149532 -49.929424 -7.8393865 -0.041502297 143.78752
543035107.58777 -0.63136226 169.5687 -49.637894 -8.0620155 -49.599159 -7.4897566 -0.044169899 143.75478
543412608.53152 -0.63501042 169.32251 -49.812195 -6.8852272 -49.493122 -8.248353 -0.044445332 143.70532
543790109.47527 -0.64319521 169.07811 -49.42997 -8.8225288 -49.358578 -9.6704302 -0.043142274 143.6624
544167610.41903 -0.64555222 168.83083 -49.756664 -9.529768 -49.571442 -9.7113552 -0.044771742 143.60672
544545111.36278 -0.65006006 168.57472 -49.468735 -9.8592062 -49.3927 -9.9295416 -0.043476775 143.58118
544922612.30653 -0.6578058 168.32991 -49.476929 -9.2262936 -49.512325 -8.3836508 -0.044809185 143.55556
545300113.25028 -0.66211939 168.07268 -49.397305 -8.9957981 -49.72364 -10.820061 -0.042374771 143.53273
545677614.19404 -0.66872329 167.82828 -49.335342 -11.420192 -49.260612 -10.97536 -0.043040749 143.50677
546055115.13779 -0.67537528 167.57486 -49.119637 -12.380316 -49.201805 -12.06218 -0.042585872 143.46992
546432616.08154 -0.67944211 167.32745 -49.495331 -13.048164 -48.948338 -12.237781 -0.046708822 143.46544
546810117.02529 -0.68576592 167.06366 -48.999531 -13.844384 -48.937202 -13.736261 -0.045036979 143.4283
547187617.96904 -0.69360036 166.81122 -48.924404 -13.377007 -49.180874 -13.379172 -0.047213115 143.41118
547565118.9128 -0.70066726 166.56781 -48.720623 -14.374427 -48.568062 -15.265686 -0.049150877 143.37227
547942619.85655 -0.71028572 166.32195 -48.839508 -16.657902 -48.824631 -15.344746 -0.051000442 143.32492
548320120.8003 -0.71898556 166.0656 -48.976185 -15.6766 -48.724167 -14.131769 -0.050826747 143.28552
548697621.74405 -0.72863638 165.80615 -48.615452 -16.734026 -48.762897 -16.856342 -0.052903932 143.2496
549075122.68781 -0.73777819 165.593 -48.459377 -19.546436 -48.349487 -17.939135 -0.058471497 143.19402
549452623.63156 -0.7480709 165.35316 -48.171127 -18.717625 -48.485744 -17.402426 -0.056472801 143.14072
549830124.57531 -0.756414 165.11746 -48.104904 -18.599371 -48.279514 -16.952509 -0.055218954 143.09792
550207625.51906 -0.76601356 164.90086 -48.226139 -19.510618 -48.355362 -18.382204 -0.057713129 143.04536
550585126.46282 -0.77412343 164.67691 -47.974663 -20.258421 -48.063572 -20.524796 -0.057479572 143.02144
550962627.40657 -0.78157836 164.45778 -48.019928 -21.646646 -48.131081 -21.358875 -0.055528663 142.97868
551340128.35032 -0.79160196 164.23798 -47.906445 -21.587194 -47.851292 -21.707672 -0.055414837 142.95074
551717629.29407 -0.79899389 164.00974 -47.862434 -23.897572 -47.776299 -21.60199 -0.050734472 142.92224
552095130.23783 -0.80668795 163.81479 -47.87822 -21.2931 -47.727333 -23.784348 -0.046993796 142.89563
552472631.18158 -0.81568706 163.57921 -47.626125 -25.293823 -47.677513 -25.251091 -0.048074674 142.87955
552850132.12533 -0.81950182 163.36942 -47.757309 -25.968462 -47.618557 -25.695618 -0.044749223 142.867
553227633.06908 -0.82426101 163.1418 -47.598549 -25.922268 -47.58519 -27.098816 -0.043391723 142.84923
553605134.01284 -0.82981223 162.91747 -47.690945 -27.730463 -47.501202 -28.33143 -0.040672187 142.84019
553982634.95659 -0.83695197 162.67097 -47.480152 -27.320511 -47.534 -27.388529 -0.040423777 142.84792
554360135.90034 -0.84239519 162.44322 -47.350372 -27.28867 -47.370766 -29.051466 -0.038219437 142.84123
554737636.84409 -0.85169291 162.20937 -47.291492 -28.286148 -47.3848 -29.423143 -0.03750357 142.8208
555115137.78784 -0.85779333 161.96156 -47.303711 -30.487738 -47.044437 -28.816494 -0.036620677 142.7988
555492638.7316 -0.86570883 161.71172 -47.216515 -30.455414 -47.185772 -31.611609 -0.03591837 142.76469
555870139.67535 -0.87493628 161.47723 -47.070473 -32.303894 -47.300938 -31.801702 -0.035838339 142.76173
556247640.6191 -0.8852672 161.25514 -47.039154 -33.20332 -46.896973 -33.826591 -0.033015411 142.71361
556625141.56285 -0.89539433 161.01581 -46.959087 -35.070763 -46.99638 -33.183769 -0.034570783 142.68416
557002642.50661 -0.90282208 160.79132 -46.906151 -35.911682 -46.961899 -34.671955 -0.03477649 142.65836
557380143.45036 -0.91350538 160.57304 -46.663334 -36.310913 -46.712337 -34.42981 -0.033514753 142.61838
557757644.39411 -0.92378598 160.35754 -46.905388 -35.955185 -46.669487 -36.664562 -0.031475093 142.60608
558135145.33786 -0.9322235 160.14651 -46.902538 -37.662529 -46.736397 -36.873684 -0.029213415 142.54379
558512646.28162 -0.9410103 159.92447 -46.738659 -38.507679 -46.830429 -37.710011 -0.030742344 142.53102
558890147.22537 -0.94696897 159.71333 -46.617958 -40.331928 -46.607613 -39.689014 -0.029187711 142.5235
559267648.16912 -0.95204139 159.52133 -46.376102 -39.497372 -46.629539 -39.816772 -0.025939103 142.49196
559645149.11287 -0.95963407 159.30569 -46.262524 -41.322678 -46.639526 -41.704533 -0.025586491 142.46626
560022650.05663 -0.96731412 159.10364 -46.586124 -42.081146 -46.377621 -42.222954 -0.023949495 142.46263
560400151.00038 -0.96917576 158.89928 -46.305645 -43.799534 -46.503124 -44.297009 -0.019153748 142.46045
560777651.94413 -0.97330236 158.69644 -46.605888 -44.056244 -46.493954 -44.517357 -0.021600198 142.44832
561155152.88788 -0.97655863 158.48569 -46.457802 -45.254345 -46.51437 -44.877411 -0.020995861 142.42876
561532653.83163 -0.97789329 158.29391 -46.580307 -46.994949 -46.437347 -46.343071 -0.018724522 142.39308
561910154.77539 -0.97909343 158.07953 -46.395382 -47.470222 -46.268803 -48.136318 -0.020039394 142.40533
562287655.71914 -0.9768393 157.86382 -46.34465 -49.171986 -46.454079 -48.736992 -0.020185916 142.37045
562665156.66289 -0.97746533 157.63588 -46.424591 -50.424362 -46.498569 -49.845585 -0.018940216 142.35332
563042657.60664 -0.97081286 157.39194 -46.258999 -50.0555 -46.509491 -49.433483 -0.021613149 142.31737
563420158.5504 -0.96987385 157.16367 -46.49691 -49.619755 -46.53157 -50.374638 -0.020792251 142.27831
563797659.49415 -0.96564412 156.91908 -46.45578 -51.836617 -46.559822 -52.683174 -0.020562705 142.24265
564175160.4379 -0.96476024 156.66559 -46.418198 -54.231239 -46.675121 -52.186874 -0.022963796 142.21669
564552661.38165 -0.96268529 156.38805 -46.592594 -53.119976 -46.620953 -53.427223 -0.024609523 142.18263
564930162.32541 -0.96210581 156.11397 -46.605427 -54.896542 -46.515995 -55.10535 -0.022009443 142.1389
565307663.26916 -0.96029627 155.8308 -46.821693 -53.925884 -46.511909 -53.685673 -0.021837799 142.10722
565685164.21291 -0.96273124 155.52669 -46.702488 -54.781727 -46.785912 -54.288006 -0.022315167 142.04903
566062665.15666 -0.96138072 155.24196 -46.442593 -53.935596 -46.722122 -54.529785 -0.024005227 142.02245
566440166.10042 -0.96482414 154.92924 -46.618671 -55.675011 -46.837936 -55.478588 -0.023077177 142.0116
566817667.04417 -0.96898127 154.62744 -46.7216 -55.077522 -46.627575 -55.974724 -0.024395548 141.96536
567195167.98792 -0.97707599 154.32744 -46.547527 -54.248753 -46.662704 -55.258278 -0.024586057 141.93951
567572668.93167 -0.98366469 154.03951 -46.726288 -55.990833 -46.533993 -56.698936 -0.025907459 141.90666
567950169.87542 -0.99122876 153.73349 -46.361588 -55.712276 -46.557838 -54.830524 -0.028880415 141.89409
568327670.81918 -0.99813789 153.46944 -46.401035 -57.280834 -46.481274 -55.733639 -0.027853731 141.85448
568705171.76293 -1.007443 153.18443 -46.366585 -56.211525 -46.391899 -58.24683 -0.026562588 141.80608
569082672.70668 -1.0117166 152.92372 -46.247726 -56.968506 -46.475983 -57.098778 -0.029762344 141.77489
569460173.65043 -1.0207754 152.62773 -46.332737 -56.846451 -46.248642 -57.079975 -0.031258106 141.72025
569837674.59419 -1.0238682 152.34566 -46.458084 -57.157982 -46.280182 -59.117931 -0.038526714 141.68381
570215175.53794 -1.0340329 152.04347 -46.332836 -58.136086 -46.236759 -58.880577 -0.037240706 141.63286
570592676.48169 -1.0394862 151.72801 -46.27438 -58.067276 -45.967503 -59.16013 -0.039498512 141.57317
570970177.42544 -1.048141 151.43059 -46.051483 -59.190975 -45.933884 -59.338375 -0.040078916 141.54019
571347678.3692 -1.0588477 151.12897 -45.717075 -59.48011 -45.946548 -59.176014 -0.04120183 141.48891
571725179.31295 -1.069609 150.82893 -46.051975 -59.383156 -45.959129 -60.629993 -0.044784371 141.42024
