!Keysight Technologies,N5242B,MY48420860,A.13.80.08
!Date: Saturday, September 26, 2020 11:24:01
!Correction: S11(Full 2 Port(1,2)) 
!S21(Full 2 Port(1,2)) 
!S12(Full 2 Port(1,2)) 
!S22(Full 2 Port(1,2)) 
!S2P File: Measurements: S11, S21, S12, S22:
# Hz S  dB   R 50
500000000 -0.25364077 -166.31697 -58.429123 19.048143 -59.440018 13.790353 -0.050816011 147.04485
500377500.94375 -0.25605172 -166.51364 -59.354664 13.024817 -57.745438 8.3632832 -0.050114442 147.01515
500755001.8875 -0.25751412 -166.71173 -59.256294 19.537306 -58.783199 16.848152 -0.049422622 146.99586
501132502.83126 -0.25993234 -166.92679 -59.061024 16.391521 -59.436417 15.709394 -0.044683371 146.97609
501510003.77501 -0.26346344 -167.12029 -58.421364 14.206228 -57.65049 15.412387 -0.042599138 146.97052
501887504.71876 -0.26737893 -167.3109 -58.464203 7.2243977 -57.909065 11.655367 -0.038165722 146.96767
502265005.66251 -0.26642495 -167.513 -58.124332 15.509876 -57.776836 12.628227 -0.038250066 146.95454
502642506.60627 -0.27228901 -167.72479 -57.999996 7.4088001 -57.653839 13.922251 -0.03522931 146.94493
503020007.55002 -0.27469558 -167.9137 -58.111034 15.84496 -57.936886 12.569694 -0.03423832 146.93932
503397508.49377 -0.27771249 -168.11116 -58.090954 15.981861 -58.075314 9.7411947 -0.03052675 146.9324
503775009.43752 -0.2804226 -168.29131 -57.204597 10.576659 -57.911209 5.9426627 -0.032561705 146.9034
504152510.38128 -0.28245944 -168.47154 -58.460972 8.7544632 -57.496761 8.8663445 -0.031274144 146.90059
504530011.32503 -0.28354377 -168.66769 -57.669708 6.6054983 -57.509613 7.9108377 -0.029595617 146.88483
504907512.26878 -0.2864548 -168.85995 -57.711414 12.087873 -57.285812 8.3408194 -0.030001778 146.84764
505285013.21253 -0.28699338 -169.05363 -56.804245 4.9624944 -57.92424 7.7192245 -0.02884612 146.85406
505662514.15629 -0.28684187 -169.24771 -57.459522 8.5472345 -57.867302 6.3725805 -0.0289218 146.81425
506040015.10004 -0.28708413 -169.42754 -57.207489 3.2302401 -57.30703 -1.3727832 -0.029842777 146.76987
506417516.04379 -0.29015288 -169.63173 -56.95779 3.8194196 -56.694309 1.1162046 -0.030694038 146.74796
506795016.98754 -0.28542167 -169.81599 -56.920486 4.3874526 -56.920582 3.1262152 -0.024707731 146.72571
507172517.93129 -0.28792453 -170.01691 -57.210072 4.2179532 -57.2029 4.1773906 -0.025423333 146.68391
507550018.87505 -0.28905728 -170.23239 -57.095322 2.3624911 -57.365429 0.13297413 -0.02241561 146.67021
507927519.8188 -0.28720269 -170.43921 -56.408501 0.66922194 -57.358391 -3.4202793 -0.020137291 146.6568
508305020.76255 -0.28947404 -170.62189 -57.496002 5.575274 -56.896992 -0.23137677 -0.017828526 146.64474
508682521.7063 -0.28949192 -170.82144 -57.173595 1.8829948 -57.11734 0.46538407 -0.019301716 146.62334
509060022.65006 -0.28936425 -171.04723 -56.540859 -0.99489444 -56.794704 -2.1633151 -0.015266157 146.6017
509437523.59381 -0.29130888 -171.2366 -56.952812 0.0080879461 -56.638081 -2.8526356 -0.014404529 146.58606
509815024.53756 -0.29353538 -171.44908 -57.068283 -4.1274323 -56.921989 -0.79763043 -0.014229701 146.58577
510192525.48131 -0.29331702 -171.65204 -57.116447 -3.1950405 -57.211731 0.42031875 -0.019032175 146.55183
510570026.42507 -0.29567769 -171.83817 -57.408272 -3.7840204 -56.639938 -3.3835249 -0.019928418 146.5186
510947527.36882 -0.29851598 -172.06012 -56.278362 -7.6050649 -57.024033 -3.0442178 -0.018351819 146.49474
511325028.31257 -0.2995919 -172.26613 -56.429409 -1.7541769 -56.818535 -4.5928278 -0.02447007 146.44498
511702529.25632 -0.30052444 -172.48013 -57.803013 -5.5542564 -57.479599 -2.9606791 -0.026418705 146.42676
512080030.20008 -0.30301389 -172.66986 -55.822823 -6.6687188 -57.746635 -9.4254532 -0.030132947 146.36647
512457531.14383 -0.30269417 -172.89442 -56.671947 -3.8599195 -56.0508 -6.4873958 -0.030035084 146.31766
512835032.08758 -0.30561408 -173.09784 -55.679684 -4.9633245 -56.499237 -9.333147 -0.034593884 146.29668
513212533.03133 -0.3079899 -173.30965 -56.012928 -6.4010687 -55.956497 -2.1751249 -0.037321102 146.23471
513590033.97508 -0.31182191 -173.5238 -56.201694 -7.9459739 -56.133244 -6.4504871 -0.034355231 146.16563
513967534.91884 -0.31544301 -173.73157 -56.432217 -8.4730673 -56.624474 -7.3979445 -0.036318474 146.11214
514345035.86259 -0.31755611 -173.93851 -56.00201 -4.8161445 -56.529945 -9.9160824 -0.038139887 146.07639
514722536.80634 -0.31785265 -174.15793 -56.047352 -9.9101028 -56.099133 -5.8128796 -0.034524653 146.05641
515100037.75009 -0.32272789 -174.38124 -56.024559 -10.416148 -56.241772 -4.2179289 -0.034353465 146.0041
515477538.69385 -0.32515481 -174.5909 -56.191696 -7.4729295 -55.522797 -10.743302 -0.033122461 146.00829
515855039.6376 -0.32741064 -174.80714 -56.007271 -6.6372514 -55.726097 -6.0466757 -0.031533275 145.9801
516232540.58135 -0.33145857 -175.03209 -55.584183 -10.700778 -55.817337 -8.179615 -0.03216676 145.9415
516610041.5251 -0.33412069 -175.24092 -55.791576 -13.75781 -55.683311 -4.8504386 -0.028731687 145.91035
516987542.46886 -0.33768788 -175.46562 -55.333996 -11.218147 -55.877293 -9.600069 -0.029307337 145.89073
517365043.41261 -0.33933184 -175.67433 -55.196922 -7.3074803 -55.69492 -7.458653 -0.03371276 145.85518
517742544.35636 -0.34357214 -175.8923 -55.112873 -12.925122 -55.45488 -13.915115 -0.030463854 145.8524
518120045.30011 -0.34902951 -176.11052 -55.439407 -12.774372 -55.620266 -11.060884 -0.033894025 145.80699
518497546.24387 -0.3533369 -176.30713 -54.783115 -10.023467 -54.825611 -11.159557 -0.036030851 145.76558
518875047.18762 -0.35702556 -176.5358 -54.906975 -11.078381 -55.007553 -11.798925 -0.039329153 145.73813
519252548.13137 -0.36188957 -176.71936 -54.905075 -15.051414 -54.848686 -14.87078 -0.04402855 145.69153
519630049.07512 -0.36531851 -176.93649 -55.382462 -15.893919 -54.792385 -12.167899 -0.048204958 145.64648
520007550.01888 -0.36766317 -177.14665 -54.723064 -18.234724 -54.136421 -16.294056 -0.047048017 145.58762
520385050.96263 -0.37028977 -177.33388 -54.744205 -18.220026 -54.490608 -16.009815 -0.049035572 145.55023
520762551.90638 -0.37328169 -177.53081 -54.31551 -20.393663 -54.587868 -20.758053 -0.049829639 145.48773
521140052.85013 -0.37510094 -177.74022 -54.606266 -16.654968 -53.972359 -17.227394 -0.048087597 145.43826
521517553.79388 -0.37635547 -177.94025 -54.581928 -21.435038 -54.361492 -20.216379 -0.049654271 145.39336
521895054.73764 -0.37790748 -178.15482 -54.756416 -21.744112 -54.880108 -18.60869 -0.04831462 145.35007
522272555.68139 -0.37826064 -178.3672 -54.056526 -21.696663 -54.301155 -22.778599 -0.046401374 145.32344
522650056.62514 -0.37855193 -178.57503 -54.474846 -24.638453 -54.549423 -21.773331 -0.043205727 145.29231
523027557.56889 -0.38172352 -178.77402 -54.116894 -23.910633 -54.326183 -21.21673 -0.041561726 145.27643
523405058.51265 -0.38313866 -179.01863 -53.772598 -27.278057 -54.11153 -25.620024 -0.039630082 145.25949
523782559.4564 -0.38261023 -179.22189 -54.72015 -19.756399 -54.015038 -25.078642 -0.035102461 145.24849
524160060.40015 -0.38721642 -179.43977 -54.2155 -25.705778 -54.220581 -23.583677 -0.037782986 145.2404
524537561.3439 -0.3913286 -179.66985 -53.80357 -23.999565 -54.401745 -24.028049 -0.033614606 145.24797
524915062.28766 -0.39632779 -179.90268 -54.280506 -24.95266 -54.484165 -26.661552 -0.035283573 145.20529
525292563.23141 -0.39929828 179.86674 -53.585625 -26.144691 -54.059525 -24.818405 -0.035614721 145.20619
525670064.17516 -0.40458706 179.63062 -53.941906 -26.88666 -54.028076 -25.533009 -0.035053086 145.20177
526047565.11891 -0.40609926 179.42152 -53.634884 -25.721138 -54.372322 -25.649874 -0.03529188 145.16777
526425066.06267 -0.41276044 179.20062 -53.796223 -26.26342 -53.711727 -25.70759 -0.036093567 145.13884
526802567.00642 -0.41760281 178.98148 -53.675232 -28.065674 -53.816193 -29.937204 -0.039480466 145.11502
527180067.95017 -0.42319593 178.74873 -53.151901 -28.976143 -53.725883 -31.338179 -0.039492909 145.0797
527557568.89392 -0.4286522 178.53334 -53.783676 -27.325739 -53.083202 -29.672377 -0.040824838 145.05003
527935069.83767 -0.43221232 178.32072 -53.266453 -29.674593 -53.087723 -28.614058 -0.039397728 145.01726
528312570.78143 -0.4377161 178.10918 -52.924992 -30.20266 -53.0662 -32.214859 -0.0397567 144.97101
528690071.72518 -0.44493008 177.88094 -53.382275 -31.689278 -52.873405 -29.635866 -0.037504721 144.94377
529067572.66893 -0.44970104 177.66826 -53.184959 -35.933907 -53.268364 -32.94976 -0.037583556 144.88893
529445073.61268 -0.45172122 177.43658 -53.081467 -33.7649 -52.943439 -33.848804 -0.034232475 144.87187
529822574.55644 -0.45925352 177.21553 -53.168728 -35.06905 -52.866905 -34.136604 -0.031452782 144.84119
530200075.50019 -0.46498573 176.99083 -52.690422 -34.852768 -53.01722 -35.488583 -0.02788542 144.84534
530577576.44394 -0.4719069 176.78752 -52.526157 -33.494301 -52.733341 -35.873543 -0.025416881 144.82117
530955077.38769 -0.47542426 176.56487 -52.686008 -34.851433 -52.50927 -33.460796 -0.023674233 144.80923
531332578.33145 -0.48429963 176.34499 -52.929005 -35.814724 -52.949673 -36.43623 -0.020370033 144.80858
531710079.2752 -0.48800582 176.14186 -52.479145 -34.769844 -52.447937 -39.311958 -0.021619709 144.81985
532087580.21895 -0.49095285 175.93445 -52.33395 -37.725101 -52.457245 -37.020123 -0.01828618 144.80667
532465081.1627 -0.49771747 175.72917 -52.151356 -39.974464 -52.279251 -36.808086 -0.021711078 144.78418
532842582.10646 -0.50174469 175.52454 -52.582584 -37.3993 -52.102699 -38.71394 -0.023061022 144.77415
533220083.05021 -0.50283682 175.30809 -51.829651 -36.457077 -52.285736 -38.887054 -0.024510836 144.75719
533597583.99396 -0.50723821 175.1042 -51.981548 -43.502769 -52.29039 -38.681114 -0.025310446 144.69266
533975084.93771 -0.50879508 174.89688 -51.840965 -40.611023 -51.935963 -42.876942 -0.028261868 144.65749
534352585.88146 -0.51276511 174.67542 -51.954903 -43.280983 -52.365101 -41.18581 -0.030506914 144.61761
534730086.82522 -0.5163011 174.47038 -52.387451 -40.803631 -52.075619 -45.157215 -0.032547731 144.56509
535107587.76897 -0.51873434 174.25424 -52.215794 -47.239464 -52.262814 -42.338566 -0.033953454 144.52827
535485088.71272 -0.51947868 174.03426 -52.026596 -44.809731 -51.969944 -47.68417 -0.03247755 144.46323
535862589.65647 -0.52142584 173.817 -51.990139 -46.614971 -51.729671 -48.166565 -0.029131204 144.43947
536240090.60023 -0.52642393 173.59235 -51.976261 -47.319786 -51.815395 -49.717953 -0.031845741 144.38316
536617591.54398 -0.52867675 173.38359 -51.807407 -47.620033 -51.698471 -44.939796 -0.027282117 144.35533
536995092.48773 -0.52914709 173.16016 -51.94511 -47.338032 -51.529762 -49.452679 -0.027473284 144.31862
537372593.43148 -0.53235191 172.93115 -51.954025 -48.692352 -51.342094 -50.123657 -0.025950495 144.30432
537750094.37524 -0.53336316 172.72009 -51.643913 -50.836899 -51.513699 -51.207035 -0.027675021 144.26385
538127595.31899 -0.53580451 172.48813 -51.54155 -50.134785 -51.598389 -51.234905 -0.025214227 144.24461
538505096.26274 -0.53764015 172.25655 -51.678497 -53.075943 -51.494316 -52.129108 -0.020987291 144.25035
538882597.20649 -0.54100639 172.043 -51.729038 -53.532219 -51.511803 -54.064507 -0.019590257 144.24509
539260098.15025 -0.54117531 171.80565 -51.560509 -53.868 -51.60141 -52.344181 -0.022856992 144.20972
539637599.094 -0.54125208 171.54741 -51.692181 -52.043167 -51.445625 -53.487274 -0.021422476 144.19051
540015100.03775 -0.54467875 171.34261 -51.553402 -56.99564 -51.485485 -55.700943 -0.025401834 144.1936
540392600.9815 -0.54818928 171.09502 -51.498772 -55.045818 -51.321381 -52.312172 -0.024969984 144.1407
540770101.92525 -0.54748476 170.82568 -51.287327 -57.259956 -51.694042 -55.370071 -0.028246155 144.13144
541147602.86901 -0.55070871 170.60753 -51.231472 -54.557274 -51.52137 -57.050529 -0.0273051 144.08813
541525103.81276 -0.5548988 170.3551 -51.300137 -57.831787 -51.414642 -56.678329 -0.030218992 144.03384
541902604.75651 -0.55888897 170.09494 -51.355019 -57.15435 -51.347641 -56.39632 -0.034548763 143.97743
542280105.70026 -0.56227112 169.84541 -51.292969 -57.59594 -50.784813 -56.427273 -0.034516409 143.93155
542657606.64402 -0.56593353 169.59087 -51.475956 -54.537125 -51.316807 -57.375835 -0.034996159 143.8737
543035107.58777 -0.56962484 169.32085 -51.097065 -58.760616 -51.224712 -59.707767 -0.040583663 143.83717
543412608.53152 -0.57478082 169.07605 -51.046474 -58.080589 -51.356625 -58.926769 -0.038635638 143.77246
543790109.47527 -0.58126473 168.82704 -51.171978 -60.893528 -51.198925 -61.823685 -0.038737211 143.72807
544167610.41903 -0.58696157 168.58095 -51.077862 -58.637543 -51.05555 -60.252098 -0.039696682 143.67104
544545111.36278 -0.59120715 168.30371 -51.01923 -60.195988 -50.713505 -61.218426 -0.038217343 143.65025
544922612.30653 -0.59552634 168.06772 -51.185486 -60.61375 -51.163921 -61.159634 -0.039064724 143.61835
545300113.25028 -0.59843725 167.79875 -51.051704 -62.062405 -51.376652 -63.799 -0.034834191 143.6012
545677614.19404 -0.60447109 167.54208 -50.796555 -60.658554 -50.89595 -61.894131 -0.035740171 143.57697
546055115.13779 -0.61161005 167.28123 -50.684444 -60.396515 -50.856358 -62.273041 -0.036948923 143.55016
546432616.08154 -0.61496681 167.01962 -50.626343 -62.43396 -50.973186 -62.452526 -0.038560525 143.55844
546810117.02529 -0.61909205 166.74533 -50.859539 -59.616138 -50.78376 -65.467628 -0.038857847 143.51201
547187617.96904 -0.62711334 166.48074 -50.783478 -64.23539 -50.682751 -62.298046 -0.043140467 143.48909
547565118.9128 -0.63502192 166.22589 -50.614067 -62.783379 -50.473637 -62.948936 -0.042386495 143.4615
547942619.85655 -0.64334774 165.94919 -50.531033 -63.811035 -50.664692 -65.163284 -0.044916194 143.39407
548320120.8003 -0.65031993 165.68623 -49.919411 -65.37825 -50.415092 -63.415527 -0.046183281 143.35704
548697621.74405 -0.65796345 165.418 -50.213844 -64.353851 -50.523636 -63.373554 -0.046800278 143.31223
549075122.68781 -0.6674065 165.17726 -49.974731 -66.658676 -50.296307 -61.739944 -0.05263323 143.25302
549452623.63156 -0.67671812 164.93336 -50.038967 -66.857567 -49.935581 -64.540421 -0.051821616 143.19299
549830124.57531 -0.68728727 164.67613 -49.933018 -65.904495 -49.9505 -66.857384 -0.051267512 143.15665
550207625.51906 -0.69472528 164.4373 -49.972336 -67.531273 -49.855976 -67.314384 -0.0546887 143.09048
550585126.46282 -0.70426905 164.1852 -49.67448 -66.174683 -49.750443 -66.00164 -0.05472853 143.06042
550962627.40657 -0.71202862 163.94756 -49.613693 -68.263321 -49.839844 -68.996925 -0.051158015 143.02847
551340128.35032 -0.72194278 163.69821 -49.543316 -67.432358 -49.373207 -69.096779 -0.050125007 142.98303
551717629.29407 -0.73051971 163.44467 -49.394604 -69.36187 -49.303062 -69.025719 -0.045024969 142.96594
552095130.23783 -0.74020427 163.21504 -49.305099 -69.840157 -49.352528 -69.790871 -0.044125468 142.94148
552472631.18158 -0.74980593 162.9655 -49.061386 -70.375343 -49.026924 -72.502495 -0.044113833 142.9238
552850132.12533 -0.758008 162.72841 -49.296768 -70.298302 -49.199684 -70.818428 -0.040244069 142.91267
553227633.06908 -0.7651639 162.48198 -49.228951 -71.254517 -48.961254 -72.553436 -0.038536947 142.89143
553605134.01284 -0.77526176 162.24077 -49.059872 -73.541962 -48.858673 -72.059738 -0.035574492 142.89616
553982634.95659 -0.78405368 161.97928 -48.904808 -73.700859 -48.789902 -74.241432 -0.034771595 142.90424
554360135.90034 -0.79307652 161.7514 -49.202297 -74.724541 -48.733528 -75.306717 -0.031128697 142.89575
554737636.84409 -0.80371243 161.51726 -48.452381 -74.406738 -48.672981 -75.923386 -0.034152471 142.86658
555115137.78784 -0.81436247 161.25783 -48.617527 -74.860077 -48.604698 -75.301659 -0.030039109 142.85838
555492638.7316 -0.82076615 160.99936 -48.449917 -79.206223 -48.440811 -78.39679 -0.027958587 142.82658
555870139.67535 -0.82953709 160.76274 -48.673306 -79.112312 -48.612427 -79.81469 -0.030882902 142.81656
556247640.6191 -0.84273326 160.5195 -48.26778 -77.414764 -48.302525 -79.095123 -0.026386129 142.76701
556625141.56285 -0.85145557 160.27164 -48.342442 -78.666595 -48.188091 -78.614822 -0.029453205 142.73425
557002642.50661 -0.86026812 160.02869 -48.237316 -80.581039 -48.247753 -82.726494 -0.026270282 142.69852
557380143.45036 -0.8735103 159.78017 -48.003464 -82.802536 -48.098839 -81.007484 -0.028048398 142.66603
557757644.39411 -0.88263768 159.54059 -48.077427 -84.088493 -47.995663 -83.610703 -0.026391059 142.63991
558135145.33786 -0.89292574 159.30132 -47.879677 -81.93557 -48.19421 -83.1614 -0.024512231 142.59187
558512646.28162 -0.90618217 159.05817 -48.084145 -83.492142 -47.814842 -83.595169 -0.024389626 142.58572
558890147.22537 -0.91716993 158.81709 -47.705818 -84.723457 -47.977283 -84.185432 -0.023369061 142.56271
559267648.16912 -0.92554438 158.61217 -47.629597 -85.394577 -47.80904 -85.719398 -0.021497181 142.55547
559645149.11287 -0.93784606 158.3885 -47.648018 -86.899826 -47.777477 -85.93042 -0.019514302 142.5146
560022650.05663 -0.94578934 158.16707 -47.703983 -86.14212 -47.728657 -87.09494 -0.018559828 142.51521
560400151.00038 -0.95422262 157.94902 -47.402447 -88.397079 -47.72422 -86.550789 -0.014219246 142.49498
560777651.94413 -0.96263719 157.74026 -47.678539 -88.708946 -47.464283 -88.654305 -0.015536908 142.49133
561155152.88788 -0.96894926 157.52052 -47.616993 -91.256371 -47.33424 -89.1287 -0.016630642 142.47653
561532653.83163 -0.97616816 157.32216 -47.273197 -90.140579 -47.293999 -90.850662 -0.011582631 142.45453
561910154.77539 -0.97961372 157.11412 -47.51722 -93.127968 -47.346298 -91.780655 -0.014732218 142.4534
562287655.71914 -0.98079944 156.89548 -47.289074 -93.932198 -47.174976 -92.826019 -0.015333329 142.42032
562665156.66289 -0.98451144 156.67014 -47.467503 -92.915161 -47.16729 -92.939339 -0.014271619 142.39629
563042657.60664 -0.98463559 156.43074 -47.315693 -93.091888 -47.376503 -95.199028 -0.015961321 142.36414
563420158.5504 -0.98645133 156.20184 -47.09898 -94.40303 -47.508244 -96.147675 -0.01420988 142.31364
563797659.49415 -0.98725349 155.96875 -47.352531 -96.555077 -47.048542 -96.477249 -0.015586199 142.27499
564175160.4379 -0.98565537 155.72073 -47.210766 -96.889824 -47.433594 -97.418495 -0.01615884 142.25227
564552661.38165 -0.98735601 155.45905 -47.030182 -98.684174 -47.211773 -98.30825 -0.01734372 142.20969
564930162.32541 -0.98691475 155.20198 -47.11446 -99.520149 -47.228226 -98.560478 -0.018427512 142.16444
565307663.26916 -0.98611969 154.92784 -47.273243 -100.39954 -47.055412 -98.67366 -0.01571219 142.14485
565685164.21291 -0.98526913 154.61691 -47.000778 -100.76978 -47.04187 -98.74192 -0.020561805 142.09346
566062665.15666 -0.98356014 154.32272 -47.241806 -100.38702 -47.022213 -101.46594 -0.018491458 142.04993
566440166.10042 -0.98797584 154.01251 -47.420517 -100.24196 -47.298588 -100.81713 -0.01738409 142.04807
566817667.04417 -0.99331778 153.67538 -47.229031 -102.00657 -46.993942 -101.67671 -0.018268799 142.01701
567195167.98792 -1.0017521 153.36644 -46.932831 -102.02695 -47.027111 -102.85581 -0.020698527 141.96861
567572668.93167 -1.0107664 153.04991 -47.021748 -102.46782 -47.056705 -102.31206 -0.021846054 141.95311
567950169.87542 -1.0230099 152.73195 -46.789524 -102.43967 -46.770679 -103.65864 -0.022579739 141.93646
568327670.81918 -1.0342774 152.44334 -46.827351 -103.45467 -46.875496 -104.67023 -0.023475459 141.89459
568705171.76293 -1.0484241 152.15706 -46.671516 -104.11444 -46.817322 -104.27118 -0.023039438 141.85652
569082672.70668 -1.0585591 151.88295 -46.504021 -104.8662 -46.794712 -105.31433 -0.025289005 141.8201
569460173.65043 -1.0701603 151.6013 -46.519753 -105.0657 -46.610638 -106.26353 -0.026930945 141.76306
569837674.59419 -1.0758413 151.32729 -46.38987 -107.55707 -46.78516 -106.33644 -0.033505231 141.71664
570215175.53794 -1.0883561 151.0224 -46.484764 -108.6014 -46.440338 -106.91294 -0.031424671 141.67487
570592676.48169 -1.0981666 150.71391 -46.462135 -109.62931 -46.43462 -108.22854 -0.034280229 141.60779
570970177.42544 -1.1084729 150.41211 -46.423176 -107.72702 -46.476433 -108.61095 -0.033991698 141.57104
