!Keysight Technologies,N5242B,MY48420860,A.13.80.08
!Date: Saturday, September 26, 2020 11:27:11
!Correction: S11(Full 2 Port(1,2)) 
!S21(Full 2 Port(1,2)) 
!S12(Full 2 Port(1,2)) 
!S22(Full 2 Port(1,2)) 
!S2P File: Measurements: S11, S21, S12, S22:
# Hz S  dB   R 50
500000000 -0.24197182 -166.33185 -59.775269 -20.041042 -60.286282 -23.096832 -0.034911241 147.17953
500377500.94375 -0.242957 -166.52655 -60.862114 -19.538322 -60.505325 -21.794371 -0.032771699 147.16277
500755001.8875 -0.24363205 -166.71565 -59.748741 -26.263329 -58.748192 -25.385244 -0.031769559 147.14087
501132502.83126 -0.24848939 -166.93172 -59.729919 -22.922785 -58.553917 -27.836094 -0.028689332 147.13249
501510003.77501 -0.25030887 -167.1351 -59.735741 -19.442369 -58.198265 -22.252829 -0.025133872 147.11823
501887504.71876 -0.25437289 -167.33615 -58.512142 -25.137365 -58.969971 -22.41007 -0.02072314 147.1237
502265005.66251 -0.25619742 -167.52708 -59.597542 -30.688803 -58.863346 -22.011316 -0.02050117 147.09332
502642506.60627 -0.26041618 -167.74388 -59.816326 -31.540037 -58.749065 -25.793657 -0.017992062 147.09254
503020007.55002 -0.2596485 -167.92958 -59.476151 -23.574392 -58.959034 -18.455898 -0.015763728 147.08298
503397508.49377 -0.26490411 -168.12053 -58.347755 -23.864216 -57.936932 -23.251289 -0.013642688 147.04604
503775009.43752 -0.26789173 -168.33315 -59.082245 -33.76812 -58.412861 -30.270336 -0.01881418 147.02371
504152510.38128 -0.269676 -168.50856 -58.015694 -25.578838 -58.443409 -27.69911 -0.015086394 147.01588
504530011.32503 -0.27072379 -168.70097 -58.915047 -30.075792 -58.213097 -29.731792 -0.012662617 146.98798
504907512.26878 -0.27454156 -168.88075 -57.540245 -32.72596 -58.530205 -29.370359 -0.013992227 146.95932
505285013.21253 -0.2743296 -169.08217 -57.982319 -31.818693 -57.936478 -36.660309 -0.012423643 146.95172
505662514.15629 -0.27518106 -169.27385 -57.780918 -36.880577 -58.393864 -34.362549 -0.012718427 146.92378
506040015.10004 -0.27418187 -169.45241 -58.540085 -33.811844 -58.039639 -30.316277 -0.012716319 146.88109
506417516.04379 -0.27774626 -169.65575 -58.602741 -31.072283 -58.206512 -34.511978 -0.013938158 146.8645
506795016.98754 -0.27307397 -169.85202 -57.976105 -33.803883 -57.758469 -33.636555 -0.0081848931 146.86063
507172517.93129 -0.2736513 -170.0462 -58.121815 -38.199257 -58.563675 -36.308113 -0.0077903615 146.81708
507550018.87505 -0.27500454 -170.26974 -58.189777 -41.730049 -58.636669 -39.914223 -0.0042317691 146.81073
507927519.8188 -0.27483755 -170.47885 -57.609367 -38.190754 -58.369667 -34.441616 -0.0032216276 146.78372
508305020.76255 -0.27657479 -170.66566 -58.097805 -40.569359 -58.278404 -40.677593 -0.0008384462 146.77664
508682521.7063 -0.27662215 -170.87169 -57.899403 -41.475712 -58.264931 -42.478168 0.00028096855 146.77588
509060022.65006 -0.27760142 -171.09921 -58.119061 -40.160946 -58.599205 -36.022991 0.002447607 146.73239
509437523.59381 -0.27723283 -171.28485 -57.847565 -39.133667 -57.572582 -41.140789 0.0036137907 146.7296
509815024.53756 -0.27973318 -171.48911 -58.174427 -44.052124 -58.138214 -39.975494 0.0044061956 146.72569
510192525.48131 -0.27993166 -171.69838 -57.770054 -41.586666 -57.823666 -40.734146 -0.0011446469 146.68652
510570026.42507 -0.2824859 -171.89743 -57.356125 -46.296665 -57.536751 -43.041553 -0.0021323585 146.64139
510947527.36882 -0.2835038 -172.1116 -58.264248 -46.447426 -58.390018 -39.684719 -0.0020780126 146.62361
511325028.31257 -0.28468344 -172.32721 -57.685089 -43.272488 -57.567829 -41.936951 -0.0066682496 146.57863
511702529.25632 -0.28651345 -172.52948 -56.716175 -38.845219 -57.969776 -44.289455 -0.009031361 146.55017
512080030.20008 -0.28874287 -172.73108 -57.988834 -44.223927 -57.61903 -42.638702 -0.013409363 146.48651
512457531.14383 -0.28860679 -172.94913 -57.255547 -42.687725 -57.947586 -44.454945 -0.013214304 146.42844
512835032.08758 -0.29171577 -173.16699 -58.07127 -50.277191 -57.507713 -45.024426 -0.016722487 146.39153
513212533.03133 -0.29414648 -173.3653 -57.265285 -47.35323 -57.415257 -47.484383 -0.01857595 146.35814
513590033.97508 -0.29703021 -173.59019 -57.167992 -47.932751 -57.385014 -43.707352 -0.017789487 146.29492
513967534.91884 -0.30062726 -173.80641 -56.873066 -42.038521 -58.058044 -46.219776 -0.019800568 146.24516
514345035.86259 -0.3022745 -174.02092 -57.375801 -49.759689 -56.868919 -51.08559 -0.017425563 146.21642
514722536.80634 -0.30395734 -174.23166 -57.77219 -45.567333 -57.088371 -47.912605 -0.011460044 146.19244
515100037.75009 -0.30714473 -174.46129 -57.353485 -50.273212 -57.320351 -45.441811 -0.013458878 146.15831
515477538.69385 -0.3098149 -174.68332 -57.319218 -43.652817 -57.691971 -48.51894 -0.010476989 146.1523
515855039.6376 -0.31327108 -174.89531 -57.108757 -50.364399 -57.145241 -50.761593 -0.010049831 146.13864
516232540.58135 -0.31668186 -175.1192 -56.828678 -48.651852 -57.348591 -46.990959 -0.009238326 146.11906
516610041.5251 -0.32139051 -175.3284 -56.02301 -49.771885 -56.176689 -45.668526 -0.0050490494 146.08122
516987542.46886 -0.32539898 -175.55795 -56.835068 -54.967445 -56.286659 -52.071362 -0.0068299803 146.06039
517365043.41261 -0.32600954 -175.7639 -56.765755 -50.625168 -56.54108 -47.432343 -0.0086346436 146.02711
517742544.35636 -0.32946017 -175.99232 -56.308147 -52.427917 -57.507351 -48.321041 -0.0092641246 146.02318
518120045.30011 -0.33556116 -176.20702 -56.249912 -51.680462 -56.594624 -52.108921 -0.014560303 145.97267
518497546.24387 -0.33973628 -176.4155 -56.876854 -53.421543 -56.144382 -51.950737 -0.017413767 145.92899
518875047.18762 -0.34177414 -176.6364 -56.336861 -54.50565 -56.452091 -53.226929 -0.020110926 145.88663
519252548.13137 -0.34584203 -176.84132 -55.459957 -51.210712 -55.917023 -53.790531 -0.024211129 145.84619
519630049.07512 -0.35003948 -177.06055 -56.423779 -55.018406 -56.016621 -53.720676 -0.027904691 145.78955
520007550.01888 -0.35351896 -177.26927 -55.664021 -58.281868 -55.975395 -55.424068 -0.029530549 145.74434
520385050.96263 -0.35565895 -177.45621 -55.438618 -52.942104 -56.180729 -54.240124 -0.029677812 145.69934
520762551.90638 -0.3581607 -177.67639 -55.529564 -54.177479 -55.864391 -61.043476 -0.031366948 145.63857
521140052.85013 -0.36061391 -177.89597 -56.455536 -58.039936 -55.581928 -57.449772 -0.028109282 145.58331
521517553.79388 -0.36106983 -178.1097 -54.978241 -54.734043 -55.2038 -61.195641 -0.028763637 145.53958
521895054.73764 -0.36287102 -178.33261 -54.983376 -62.116848 -54.975636 -63.256092 -0.02703578 145.50641
522272555.68139 -0.36451256 -178.53531 -55.392872 -61.844433 -55.662209 -60.036243 -0.025259947 145.48317
522650056.62514 -0.36597139 -178.74432 -54.986671 -62.671734 -55.957569 -60.064915 -0.023013096 145.46123
523027557.56889 -0.36842307 -178.9776 -55.763134 -58.897758 -55.849041 -61.347054 -0.020243585 145.45895
523405058.51265 -0.37129816 -179.20145 -55.314075 -59.754627 -55.045654 -63.45155 -0.016314127 145.43195
523782559.4564 -0.37280673 -179.41435 -55.405212 -65.572762 -54.865932 -64.879051 -0.014812187 145.42271
524160060.40015 -0.37722194 -179.63904 -55.074188 -68.930649 -54.806499 -61.958599 -0.013752226 145.41771
524537561.3439 -0.38141999 -179.8761 -55.244732 -62.570789 -55.53125 -62.819916 -0.012020425 145.40157
524915062.28766 -0.38660434 179.88966 -54.799683 -66.572594 -55.321857 -62.221973 -0.015691806 145.37622
525292563.23141 -0.3898271 179.66211 -55.170746 -67.108711 -55.134106 -65.796715 -0.014948322 145.3754
525670064.17516 -0.39614898 179.42503 -55.45166 -68.016251 -54.748802 -65.005547 -0.015810769 145.35678
526047565.11891 -0.39939222 179.20845 -54.423328 -64.583214 -54.715534 -68.68734 -0.016014526 145.32091
526425066.06267 -0.40662235 178.98283 -55.452469 -61.907047 -54.984241 -67.961327 -0.0186373 145.27835
526802567.00642 -0.41282654 178.77168 -54.9524 -65.214783 -54.213875 -68.615135 -0.021671072 145.24979
527180067.95017 -0.41713461 178.53662 -54.535004 -65.890762 -54.786724 -67.207092 -0.023348171 145.21864
527557568.89392 -0.42614147 178.3123 -54.766094 -69.034164 -54.466473 -70.387375 -0.02540662 145.17345
527935069.83767 -0.43026266 178.09265 -54.078751 -69.391022 -54.76981 -66.533218 -0.023741033 145.13815
528312570.78143 -0.43442717 177.89299 -54.177876 -71.348991 -54.464989 -70.855309 -0.024141496 145.08838
528690071.72518 -0.44316804 177.65271 -54.195507 -71.853622 -54.364204 -69.782196 -0.019347996 145.07047
529067572.66893 -0.45119482 177.42845 -54.307556 -70.781845 -53.992546 -74.226982 -0.018721754 145.03096
529445073.61268 -0.45431504 177.21269 -54.440025 -68.259933 -53.866932 -71.190437 -0.015836798 144.99478
529822574.55644 -0.46153957 177.00003 -54.33353 -74.70742 -54.133598 -72.932732 -0.01231652 144.98048
530200075.50019 -0.46883306 176.75574 -54.317245 -73.722275 -54.005413 -72.523453 -0.0091617508 144.98367
530577576.44394 -0.47636703 176.54367 -53.703823 -72.632393 -53.978115 -73.795815 -0.0060264873 144.9646
530955077.38769 -0.48230103 176.32205 -53.86372 -74.808052 -53.84547 -74.471031 -0.003179515 144.96686
531332578.33145 -0.48912519 176.09146 -53.978909 -75.999283 -53.783283 -70.881836 -0.0022484967 144.96561
531710079.2752 -0.49524292 175.88893 -53.492508 -78.15966 -53.492928 -76.028816 -0.001024299 144.95857
532087580.21895 -0.49959826 175.69124 -53.631241 -72.106972 -53.531178 -75.658127 0.00066023815 144.955
532465081.1627 -0.5077002 175.46675 -53.297642 -75.875252 -53.079819 -77.370636 -0.0035371098 144.93822
532842582.10646 -0.51068455 175.26166 -53.636467 -77.863609 -52.918003 -79.701782 -0.0040485407 144.92537
533220083.05021 -0.51484531 175.03384 -53.184933 -78.241913 -53.108654 -78.128517 -0.0061907661 144.87968
533597583.99396 -0.52092206 174.84442 -53.232059 -80.222954 -53.161587 -81.122231 -0.0089871874 144.82635
533975084.93771 -0.52371192 174.64491 -53.085506 -79.400604 -52.815903 -79.744987 -0.013924179 144.78683
534352585.88146 -0.52869266 174.41736 -52.837856 -78.854073 -52.707779 -80.631386 -0.015453917 144.75737
534730086.82522 -0.53278822 174.21025 -52.712303 -84.478394 -52.823563 -84.061775 -0.017752355 144.70563
535107587.76897 -0.53463036 174.01254 -52.807671 -81.734367 -52.996117 -81.782021 -0.017525675 144.64568
535485088.71272 -0.53826582 173.78784 -53.131748 -83.238228 -52.749092 -86.564835 -0.016466917 144.59482
535862589.65647 -0.53925693 173.5735 -53.01424 -82.140007 -52.400478 -83.806427 -0.014275571 144.57155
536240090.60023 -0.54470712 173.35834 -52.24847 -87.428444 -52.71077 -85.13591 -0.01201592 144.51369
536617591.54398 -0.54741645 173.14026 -52.331818 -86.816879 -52.224884 -85.105965 -0.0080553442 144.48856
536995092.48773 -0.54976553 172.92148 -52.001762 -86.496223 -52.027733 -85.877975 -0.0076342328 144.46872
537372593.43148 -0.55347735 172.70891 -52.150047 -87.59256 -52.372589 -90.791702 -0.003255704 144.44313
537750094.37524 -0.55500174 172.49428 -52.175251 -88.361031 -52.525974 -89.373077 -0.0044056382 144.42572
538127595.31899 -0.55650282 172.27104 -51.634838 -89.879684 -52.126183 -89.62558 -0.002653253 144.40472
538505096.26274 -0.55701971 172.03969 -51.980846 -92.923836 -52.027367 -91.018677 0.0020476775 144.40674
538882597.20649 -0.56098986 171.82056 -52.137413 -90.496841 -52.125515 -93.609619 0.0028772389 144.3967
539260098.15025 -0.5636121 171.57866 -52.214561 -90.62706 -51.81142 -92.840973 0.0019863464 144.37927
539637599.094 -0.56319278 171.34332 -52.277271 -91.139214 -51.618832 -92.579773 0.0013337129 144.3647
540015100.03775 -0.56800789 171.11649 -51.990246 -93.188553 -52.051388 -95.194359 -0.002208299 144.35608
540392600.9815 -0.56944489 170.8669 -51.529057 -97.05854 -51.92244 -94.536377 -0.0032819267 144.31064
540770101.92525 -0.57065946 170.61415 -52.031364 -95.303207 -52.022999 -97.903885 -0.006159517 144.28076
541147602.86901 -0.57547426 170.3685 -51.886272 -95.152298 -51.677868 -96.623505 -0.0084196283 144.23328
541525103.81276 -0.57880574 170.10686 -52.161339 -95.726471 -51.9366 -94.992348 -0.010457207 144.19846
541902604.75651 -0.58382046 169.85699 -51.569324 -96.463646 -51.939003 -100.85544 -0.015361253 144.13689
542280105.70026 -0.59043854 169.61011 -52.010979 -96.393791 -51.726688 -101.31176 -0.016531674 144.08618
542657606.64402 -0.59554332 169.35504 -51.598499 -99.927872 -52.195469 -95.705872 -0.018172886 144.03133
543035107.58777 -0.59852862 169.08539 -51.621323 -99.688171 -51.41346 -97.691353 -0.019770173 143.99147
543412608.53152 -0.60546118 168.8405 -51.306664 -100.8652 -51.67643 -99.254448 -0.017189447 143.92174
543790109.47527 -0.6117242 168.5831 -51.5835 -101.64786 -51.585873 -101.59464 -0.016441455 143.87584
544167610.41903 -0.61789173 168.34074 -51.132263 -99.729515 -51.431381 -101.914 -0.019005831 143.83975
544545111.36278 -0.62211573 168.07756 -51.404026 -100.86528 -51.581402 -102.32697 -0.01476149 143.79599
544922612.30653 -0.62821352 167.83047 -51.818859 -103.38061 -51.114948 -102.30084 -0.013485467 143.79372
545300113.25028 -0.63143128 167.56577 -51.35997 -105.35665 -51.496246 -104.57781 -0.011355312 143.75922
545677614.19404 -0.6376701 167.30598 -51.407894 -106.74489 -51.077236 -103.74545 -0.012534 143.75452
546055115.13779 -0.64373517 167.03891 -51.05085 -106.31855 -51.022053 -104.07915 -0.012508837 143.70692
546432616.08154 -0.64780945 166.76947 -51.166058 -107.13927 -51.004574 -103.93121 -0.014658805 143.70363
546810117.02529 -0.65475297 166.49179 -51.350842 -107.0236 -51.171844 -105.65963 -0.014006469 143.68996
547187617.96904 -0.66317219 166.211 -51.261703 -106.20284 -50.905014 -106.19679 -0.018045999 143.6736
547565118.9128 -0.6715275 165.95795 -51.128548 -106.00429 -51.198261 -105.45184 -0.020882854 143.63445
547942619.85655 -0.68133664 165.67146 -51.2906 -108.31793 -50.919754 -105.64446 -0.024083618 143.57552
548320120.8003 -0.69043535 165.40327 -50.703182 -107.40988 -50.881363 -107.19218 -0.023825066 143.52332
548697621.74405 -0.70020515 165.13881 -50.689392 -107.95658 -50.840633 -107.83048 -0.028294312 143.48228
549075122.68781 -0.71188951 164.87808 -50.640057 -106.73254 -51.043102 -109.06568 -0.03102704 143.43947
549452623.63156 -0.72459757 164.63101 -50.348351 -109.3762 -50.478611 -110.1515 -0.032844998 143.37502
549830124.57531 -0.73705208 164.36679 -50.809345 -110.01431 -50.536285 -110.63709 -0.031860586 143.32047
550207625.51906 -0.74672157 164.13049 -50.236805 -109.94881 -50.246483 -110.71383 -0.035327457 143.26437
550585126.46282 -0.75872308 163.87685 -50.447315 -110.46849 -50.215199 -110.40292 -0.033442985 143.22105
550962627.40657 -0.76924157 163.63408 -50.165878 -111.63479 -50.098949 -111.5915 -0.029775307 143.1848
551340128.35032 -0.78246027 163.38867 -49.938103 -113.40598 -50.237183 -111.33286 -0.029728439 143.14323
551717629.29407 -0.79298931 163.14856 -50.095673 -111.67818 -50.157597 -114.42064 -0.025415659 143.12175
552095130.23783 -0.80605727 162.9176 -49.75161 -113.13071 -49.975967 -113.54772 -0.0196057 143.08604
552472631.18158 -0.81813097 162.67873 -49.534382 -114.06731 -50.116245 -113.94223 -0.021629954 143.07243
552850132.12533 -0.82923377 162.44836 -49.654705 -113.90813 -49.594658 -115.9444 -0.015966764 143.07356
553227633.06908 -0.8370325 162.20627 -49.608395 -114.73373 -49.531334 -114.47456 -0.014148234 143.04933
553605134.01284 -0.85249245 161.96883 -49.860386 -118.04079 -49.504517 -114.59163 -0.012540754 143.05817
553982634.95659 -0.86310762 161.71553 -49.510921 -118.50012 -49.87936 -118.34335 -0.010158589 143.06668
554360135.90034 -0.8733744 161.49313 -49.290062 -119.40194 -49.518574 -117.89284 -0.010313893 143.05489
554737636.84409 -0.88792831 161.25745 -49.318001 -121.04346 -49.28566 -120.89188 -0.0081556365 143.04295
555115137.78784 -0.90036589 161.01915 -49.422985 -120.93364 -49.32196 -119.41559 -0.0074704876 143.02959
555492638.7316 -0.91318595 160.7753 -49.088207 -120.95039 -49.238674 -120.04128 -0.0057416274 142.98682
555870139.67535 -0.92647743 160.54811 -49.32111 -121.87402 -48.977478 -122.52467 -0.0086329682 142.98347
556247640.6191 -0.93865049 160.32764 -48.866417 -121.01498 -49.183498 -123.21678 -0.0040463796 142.9413
556625141.56285 -0.95284927 160.09119 -49.15205 -124.04402 -49.214973 -124.72217 -0.0086124307 142.9066
557002642.50661 -0.96293306 159.87329 -48.562832 -123.45361 -48.738899 -125.4207 -0.0066917017 142.85931
557380143.45036 -0.97739452 159.63713 -48.588871 -123.868 -48.38509 -125.32325 -0.0069216737 142.83313
557757644.39411 -0.99055344 159.41689 -48.761879 -125.17187 -48.686447 -125.97514 -0.0059108925 142.81009
558135145.33786 -1.0032182 159.20448 -48.62355 -126.81454 -48.436954 -127.39598 -0.0051302873 142.75406
558512646.28162 -1.0171266 158.98248 -48.577641 -128.13351 -48.458961 -126.62683 -0.0058730626 142.7495
558890147.22537 -1.0312004 158.77324 -48.222359 -128.40527 -48.302639 -128.5619 -0.0034296573 142.71556
559267648.16912 -1.0405824 158.58429 -48.349037 -130.62758 -48.256878 -129.6395 -0.0015629288 142.70615
559645149.11287 -1.0514255 158.39551 -48.357002 -130.87933 -48.221298 -131.45988 -0.0005920119 142.66014
560022650.05663 -1.0612954 158.19557 -48.1576 -130.64706 -48.323093 -132.12587 0.001597355 142.64832
560400151.00038 -1.0715793 158.0076 -48.279083 -134.52052 -48.246094 -131.40768 0.0049858112 142.64226
560777651.94413 -1.0774388 157.81036 -48.010944 -133.70714 -48.201283 -133.55237 0.0061149835 142.62921
561155152.88788 -1.0860792 157.63535 -48.110344 -135.3313 -48.050251 -134.80658 0.0051237228 142.61076
561532653.83163 -1.0908526 157.45766 -48.227604 -137.16031 -47.957996 -135.54062 0.0084147919 142.59439
561910154.77539 -1.0929743 157.25697 -48.202412 -137.13275 -48.047501 -136.95467 0.005538234 142.58968
562287655.71914 -1.0946677 157.05461 -47.787605 -137.0509 -47.919411 -136.87212 0.0049488633 142.55667
562665156.66289 -1.0964184 156.8463 -47.869724 -139.21483 -48.055553 -138.71165 0.0059463307 142.54195
563042657.60664 -1.0952674 156.62663 -47.586891 -138.50241 -47.877235 -138.44043 0.0048976066 142.49718
563420158.5504 -1.0952759 156.40147 -48.314087 -140.10506 -47.828564 -140.34616 0.0042854492 142.46864
563797659.49415 -1.095753 156.18257 -47.760521 -140.16069 -47.560055 -140.38515 0.0041132425 142.43147
564175160.4379 -1.094553 155.94275 -47.847164 -139.86372 -48.008286 -142.25543 0.001775253 142.40512
564552661.38165 -1.095927 155.677 -47.942692 -142.64647 -47.994236 -141.72314 -0.0014110401 142.36409
564930162.32541 -1.0955433 155.41963 -47.698391 -141.17799 -47.940269 -143.76981 0.00041309459 142.31868
565307663.26916 -1.0963163 155.15948 -47.78368 -144.57913 -47.81181 -143.4549 0.0013709322 142.28279
565685164.21291 -1.095935 154.86862 -47.666191 -144.06451 -47.611935 -144.90128 -0.0013495325 142.23686
566062665.15666 -1.0948097 154.56972 -47.675476 -143.8259 -47.767883 -142.98447 -0.0016340357 142.1991
566440166.10042 -1.1012077 154.27051 -47.803329 -144.98128 -47.749348 -143.66515 -0.0011132079 142.18625
566817667.04417 -1.1080316 153.94492 -47.623169 -144.51544 -47.709023 -144.55481 -0.0023508498 142.15121
567195167.98792 -1.1203307 153.63768 -47.500069 -145.79047 -47.283733 -144.91386 -0.0033830472 142.10526
567572668.93167 -1.1315118 153.34488 -47.16243 -145.46666 -47.415356 -144.13678 -0.0044854023 142.06876
567950169.87542 -1.1455984 153.04747 -47.220245 -146.12347 -47.31345 -145.66782 -0.004605765 142.05235
568327670.81918 -1.159308 152.77982 -46.826347 -146.18983 -47.130219 -147.89964 -0.0044306545 142.0166
568705171.76293 -1.1734405 152.52524 -46.986336 -147.54428 -47.186859 -147.00195 -0.0056372341 141.96494
569082672.70668 -1.1836791 152.27979 -46.923691 -149.04114 -47.084785 -147.95857 -0.0055374284 141.92883
569460173.65043 -1.197225 152.02159 -46.899239 -151.33362 -46.930698 -150.05165 -0.0080105802 141.8889
569837674.59419 -1.2046182 151.76514 -46.90049 -150.38232 -46.788216 -151.80734 -0.014405317 141.82887
570215175.53794 -1.2171501 151.50417 -46.53186 -151.63522 -46.683666 -151.55907 -0.01367133 141.79802
570592676.48169 -1.2266512 151.21538 -46.584774 -153.12059 -46.743824 -153.44041 -0.013050225 141.74719
