!Keysight Technologies,N5242B,MY48420860,A.13.80.08
!Date: Saturday, September 26, 2020 11:28:49
!Correction: S11(Full 2 Port(1,2)) 
!S21(Full 2 Port(1,2)) 
!S12(Full 2 Port(1,2)) 
!S22(Full 2 Port(1,2)) 
!S2P File: Measurements: S11, S21, S12, S22:
# Hz S  dB   R 50
500000000 -0.24346946 -166.39981 -61.516304 -74.099014 -62.03735 -75.985748 -0.035077605 147.17093
500377500.94375 -0.24636675 -166.59595 -59.559196 -72.773911 -60.93755 -70.481178 -0.034389898 147.13867
500755001.8875 -0.24796598 -166.79662 -60.875042 -64.600548 -60.531963 -67.412689 -0.032262158 147.1355
501132502.83126 -0.25132781 -167.00252 -61.176319 -73.597015 -60.198292 -75.127823 -0.028799452 147.09868
501510003.77501 -0.25355771 -167.20488 -60.354614 -79.869171 -60.854015 -80.488129 -0.024019727 147.11865
501887504.71876 -0.25709707 -167.39664 -59.42712 -71.19529 -60.44907 -70.459976 -0.021022851 147.12169
502265005.66251 -0.25839904 -167.60342 -60.568153 -74.05722 -60.306911 -72.867264 -0.021139236 147.1017
502642506.60627 -0.26487646 -167.8055 -60.487411 -74.460556 -59.378719 -76.575012 -0.016902516 147.1022
503020007.55002 -0.26629978 -168.01642 -60.348461 -71.405846 -60.145477 -77.031746 -0.016693788 147.08911
503397508.49377 -0.2708599 -168.20952 -58.955505 -83.502579 -59.534916 -79.840195 -0.017629392 147.06607
503775009.43752 -0.27502951 -168.39977 -59.360931 -78.463753 -59.317341 -80.185783 -0.02057457 147.03264
504152510.38128 -0.27610046 -168.58781 -59.557091 -78.558495 -59.379078 -80.162987 -0.017113999 147.02791
504530011.32503 -0.27582777 -168.78537 -60.507702 -75.135841 -60.50787 -80.258392 -0.015830623 147.00334
504907512.26878 -0.2812528 -168.96878 -59.315075 -80.396866 -60.187485 -85.641815 -0.016735071 146.96466
505285013.21253 -0.28183264 -169.15306 -58.661148 -85.51133 -59.489201 -83.565186 -0.016104037 146.96483
505662514.15629 -0.28271517 -169.35742 -59.184582 -81.262611 -59.47485 -86.519669 -0.014330652 146.92873
506040015.10004 -0.28450474 -169.53896 -59.685879 -85.113533 -60.211601 -87.420601 -0.014758722 146.8647
506417516.04379 -0.28824118 -169.7361 -59.751236 -81.147331 -59.641808 -86.872696 -0.015791811 146.86902
506795016.98754 -0.28271094 -169.92882 -59.848907 -84.009468 -58.873131 -84.608948 -0.0096951714 146.83707
507172517.93129 -0.28254074 -170.11519 -58.149479 -87.237129 -58.928547 -85.81546 -0.0085490756 146.80792
507550018.87505 -0.2841143 -170.33008 -58.310486 -82.898819 -58.504883 -84.12001 -0.0071520898 146.79677
507927519.8188 -0.28523847 -170.54166 -58.627789 -83.278008 -59.18644 -92.07917 -0.0049919519 146.77553
508305020.76255 -0.2853767 -170.73042 -59.171829 -93.809288 -59.316254 -85.748215 -0.00097297307 146.76131
508682521.7063 -0.28659385 -170.94113 -58.175747 -87.104095 -58.41156 -87.654243 -0.00061751629 146.75722
509060022.65006 -0.28724596 -171.15096 -58.90696 -94.66404 -59.262802 -92.927666 0.0024815854 146.74402
509437523.59381 -0.28633165 -171.35036 -58.444347 -87.210938 -58.055157 -90.855927 0.0032066572 146.73018
509815024.53756 -0.28846204 -171.55096 -58.715374 -82.983986 -58.818966 -96.070419 0.001098649 146.73018
510192525.48131 -0.29037902 -171.76285 -58.008888 -93.549583 -58.418495 -92.361923 -0.0038494789 146.68501
510570026.42507 -0.29170948 -171.96184 -59.1534 -92.07605 -59.26115 -91.443665 -0.006180807 146.65839
510947527.36882 -0.29294741 -172.17949 -58.246128 -93.782143 -57.752327 -94.823723 -0.0047296458 146.63414
511325028.31257 -0.2943964 -172.37904 -58.515591 -89.333702 -58.128185 -93.218277 -0.010080211 146.58685
511702529.25632 -0.29682133 -172.59288 -57.99646 -88.143456 -58.777676 -92.073227 -0.013294547 146.55383
512080030.20008 -0.29791602 -172.79401 -57.918922 -100.99817 -57.973289 -90.692581 -0.01845872 146.48259
512457531.14383 -0.2991237 -173.01631 -57.247364 -92.553444 -57.97525 -94.250893 -0.017889544 146.41965
512835032.08758 -0.30028915 -173.22124 -57.010643 -92.693047 -58.498852 -94.3004 -0.022386011 146.38104
513212533.03133 -0.30455893 -173.43938 -57.820988 -91.836266 -58.040215 -92.32341 -0.02340984 146.32794
513590033.97508 -0.30792123 -173.65576 -57.918255 -96.507935 -58.119755 -97.026428 -0.023130516 146.26682
513967534.91884 -0.31069541 -173.86803 -57.71875 -95.596207 -57.570305 -95.600365 -0.024952749 146.19826
514345035.86259 -0.31357184 -174.08818 -57.592468 -99.739082 -58.220219 -95.037216 -0.022101754 146.1739
514722536.80634 -0.31446242 -174.30789 -57.809525 -96.382484 -58.139065 -95.306473 -0.017009016 146.15752
515100037.75009 -0.31925717 -174.53708 -57.626709 -100.83202 -57.403206 -102.48726 -0.016748231 146.12833
515477538.69385 -0.32267675 -174.75287 -58.064373 -102.73536 -57.656052 -102.89583 -0.015109931 146.12167
515855039.6376 -0.32630032 -174.97411 -57.528934 -99.69249 -58.107414 -96.06366 -0.012153149 146.09511
516232540.58135 -0.33009771 -175.19725 -57.57127 -103.97898 -57.429821 -104.59682 -0.011592546 146.08769
516610041.5251 -0.33341035 -175.42415 -57.319149 -99.874794 -56.574604 -104.42226 -0.0081158569 146.06534
516987542.46886 -0.33614433 -175.63515 -56.167431 -101.47388 -57.080807 -101.20444 -0.0097238272 146.03654
517365043.41261 -0.33992141 -175.86469 -57.212303 -100.76821 -57.316547 -99.833046 -0.013104863 146.02724
517742544.35636 -0.34444508 -176.08316 -55.968731 -103.33735 -57.168663 -101.52477 -0.010101994 146.02386
518120045.30011 -0.35032359 -176.32207 -57.567436 -101.8653 -56.431301 -103.0482 -0.017448818 145.97691
518497546.24387 -0.3544513 -176.52122 -56.621349 -108.19418 -56.813343 -110.10841 -0.021378223 145.93816
518875047.18762 -0.35907677 -176.75226 -56.754055 -105.72165 -56.251019 -104.68336 -0.024231695 145.88744
519252548.13137 -0.36527935 -176.94406 -56.460835 -108.21612 -56.258995 -107.93533 -0.02857594 145.85205
519630049.07512 -0.37102875 -177.17345 -55.988552 -107.52654 -56.208626 -108.29588 -0.033466455 145.784
520007550.01888 -0.37519425 -177.38577 -56.084854 -109.90785 -56.325886 -110.43865 -0.032630615 145.71951
520385050.96263 -0.37828332 -177.57596 -56.071655 -108.94087 -56.27515 -109.36218 -0.03523488 145.6767
520762551.90638 -0.38343334 -177.77817 -55.838036 -109.2773 -56.02137 -109.54239 -0.035019837 145.60292
521140052.85013 -0.38852087 -177.99966 -56.306595 -115.24823 -56.194305 -113.14449 -0.033318609 145.54634
521517553.79388 -0.38928723 -178.2108 -55.201569 -113.37009 -55.966347 -112.67413 -0.032369468 145.513
521895054.73764 -0.3937766 -178.41769 -56.044487 -113.21915 -55.732498 -114.12259 -0.029532988 145.46216
522272555.68139 -0.39600226 -178.62764 -55.857944 -113.60076 -55.436253 -109.64446 -0.027968971 145.44296
522650056.62514 -0.39839 -178.82355 -54.770321 -115.17706 -55.015457 -109.53234 -0.023711288 145.4324
523027557.56889 -0.40338299 -179.03836 -55.256329 -118.64615 -54.902985 -112.80568 -0.020391542 145.42007
523405058.51265 -0.40562737 -179.27525 -55.130577 -122.97309 -55.176075 -116.813 -0.018413689 145.3996
523782559.4564 -0.40900293 -179.47125 -55.819439 -121.42428 -55.791145 -118.66883 -0.014057159 145.39514
524160060.40015 -0.41434848 -179.68985 -54.77219 -118.83192 -56.228447 -121.23747 -0.015023205 145.40927
524537561.3439 -0.4193711 -179.92017 -54.953255 -120.97616 -55.193855 -117.81708 -0.014259639 145.40738
524915062.28766 -0.42435583 179.8571 -55.19471 -122.7524 -55.193726 -120.03331 -0.015852211 145.38159
525292563.23141 -0.43149996 179.63335 -54.992943 -124.05051 -55.168667 -122.96604 -0.017517241 145.37959
525670064.17516 -0.43609047 179.40442 -55.224445 -122.86251 -55.266041 -123.11063 -0.01832452 145.36832
526047565.11891 -0.44271684 179.20592 -54.878628 -127.77405 -55.308533 -124.2972 -0.017611375 145.33601
526425066.06267 -0.4498637 178.98085 -55.070759 -122.48397 -54.664528 -127.78395 -0.020418044 145.29413
526802567.00642 -0.45565873 178.7896 -54.643089 -125.35587 -54.967735 -130.19771 -0.025235705 145.25185
527180067.95017 -0.46386594 178.55569 -55.157597 -125.68373 -54.3382 -122.3317 -0.026384925 145.2137
527557568.89392 -0.47005549 178.34483 -54.733334 -130.1386 -54.954632 -126.81329 -0.029609742 145.16826
527935069.83767 -0.4738442 178.14926 -55.055691 -128.98763 -54.886806 -127.71281 -0.027333271 145.13586
528312570.78143 -0.48001075 177.94313 -55.226669 -129.24535 -54.827236 -127.6879 -0.026980763 145.08144
528690071.72518 -0.48764527 177.72005 -54.912628 -126.77837 -54.870995 -127.78917 -0.023941727 145.0477
529067572.66893 -0.49354997 177.52272 -55.099861 -130.67604 -54.514099 -128.51851 -0.022731274 144.98831
529445073.61268 -0.49706396 177.32042 -54.706207 -130.54483 -54.756016 -131.10217 -0.020826412 144.96208
529822574.55644 -0.50318652 177.10184 -54.111671 -132.58014 -54.607559 -135.46335 -0.014186271 144.95741
530200075.50019 -0.50870323 176.88106 -54.688148 -134.49245 -54.410881 -130.19922 -0.010845881 144.96077
530577576.44394 -0.51465684 176.67232 -54.623547 -137.75671 -54.296112 -135.7659 -0.0087821037 144.94406
530955077.38769 -0.51985806 176.453 -54.16489 -139.04544 -54.173717 -133.76106 -0.0049846121 144.94318
531332578.33145 -0.5265044 176.23978 -53.78553 -137.91328 -54.689423 -134.11859 -0.0039924742 144.95607
531710079.2752 -0.53290021 176.03635 -54.212368 -134.83473 -54.382362 -135.59853 -0.0052501368 144.95129
532087580.21895 -0.53883499 175.83806 -54.696384 -139.59268 -54.22958 -140.6087 -0.00077083538 144.94255
532465081.1627 -0.54471052 175.62323 -54.320877 -139.1263 -54.282654 -138.5334 -0.0051761791 144.93726
532842582.10646 -0.54782677 175.42923 -53.743435 -140.42709 -54.006912 -138.5907 -0.0074950005 144.92734
533220083.05021 -0.55058235 175.21658 -54.400898 -140.62694 -53.954132 -141.50638 -0.011366962 144.89085
533597583.99396 -0.55511385 175.02011 -53.980881 -140.93394 -54.047779 -142.82094 -0.013952856 144.8286
533975084.93771 -0.55793267 174.82153 -54.260956 -140.4861 -54.051151 -144.95398 -0.017714176 144.79874
534352585.88146 -0.56277406 174.60371 -53.873447 -144.71355 -53.902603 -142.60938 -0.01978902 144.74768
534730086.82522 -0.56321996 174.40565 -54.562962 -146.0014 -54.003929 -144.57948 -0.022323258 144.6963
535107587.76897 -0.56693095 174.20526 -53.598633 -141.63596 -54.189301 -147.44273 -0.024956174 144.63901
535485088.71272 -0.56710875 173.97798 -53.956646 -141.37192 -53.726376 -142.09718 -0.020330792 144.56923
535862589.65647 -0.5680185 173.76697 -54.442219 -146.72742 -54.001205 -142.35365 -0.01958199 144.54933
536240090.60023 -0.57185322 173.54869 -53.81345 -146.94881 -54.059834 -147.1935 -0.018423006 144.48512
536617591.54398 -0.57517409 173.33017 -53.579803 -147.29211 -54.214947 -149.11852 -0.013452762 144.44632
536995092.48773 -0.5781936 173.10548 -53.730309 -150.43546 -53.818771 -146.06432 -0.015770402 144.4166
537372593.43148 -0.5810706 172.88402 -53.821678 -148.2838 -53.763912 -146.007 -0.0091607189 144.39989
537750094.37524 -0.58274442 172.67711 -53.242664 -148.77072 -54.112507 -148.39774 -0.010331324 144.36386
538127595.31899 -0.58647758 172.45168 -53.689838 -147.76082 -54.409214 -146.92357 -0.0087937359 144.35777
538505096.26274 -0.58871555 172.2233 -53.63987 -150.59283 -53.924091 -148.77554 -0.0048536649 144.3759
538882597.20649 -0.59163058 172.00758 -54.001011 -152.78104 -53.558529 -148.41701 -0.0012030369 144.37082
539260098.15025 -0.59615409 171.77072 -53.578011 -151.37692 -53.741383 -149.43591 -0.003752915 144.34805
539637599.094 -0.59625548 171.54381 -53.972057 -150.44395 -53.752766 -151.83344 -0.0050451644 144.33539
540015100.03775 -0.60058367 171.30707 -53.978359 -152.32024 -52.922791 -154.06752 -0.0078725852 144.33096
540392600.9815 -0.60441738 171.08231 -53.657143 -153.45618 -53.23518 -153.41376 -0.0081073977 144.28416
540770101.92525 -0.60590023 170.8291 -53.175606 -152.20029 -53.14019 -153.07753 -0.013455189 144.26001
541147602.86901 -0.61263418 170.61684 -53.344643 -151.73564 -53.834766 -155.65524 -0.014750577 144.22334
541525103.81276 -0.61596459 170.36435 -53.394539 -153.9276 -53.073555 -152.30338 -0.018092357 144.15977
541902604.75651 -0.61983883 170.11609 -53.255527 -154.67638 -52.958817 -154.15135 -0.022170993 144.10959
542280105.70026 -0.62432796 169.87723 -52.912457 -154.85052 -53.200932 -155.49077 -0.023768494 144.04242
542657606.64402 -0.63015002 169.64676 -52.519196 -156.2699 -53.088573 -157.58934 -0.026051402 143.98705
543035107.58777 -0.63216937 169.38113 -52.679794 -157.74776 -52.368557 -157.657 -0.028920319 143.93484
543412608.53152 -0.63865703 169.13858 -53.429893 -157.04936 -52.542107 -158.92455 -0.026869742 143.85927
543790109.47527 -0.64243734 168.8956 -52.611813 -158.97517 -52.943783 -159.19582 -0.024501234 143.80237
544167610.41903 -0.64813131 168.66046 -52.596142 -156.02319 -53.073456 -159.01163 -0.025984749 143.77423
544545111.36278 -0.65009832 168.41547 -52.974335 -158.52855 -52.598648 -158.74194 -0.024387069 143.72667
544922612.30653 -0.65699244 168.16203 -52.692852 -160.66374 -52.48011 -159.13905 -0.023383599 143.70572
545300113.25028 -0.65927476 167.90172 -52.656853 -159.12802 -52.666477 -161.01181 -0.019203274 143.68169
545677614.19404 -0.66519523 167.6483 -52.551929 -160.65669 -52.407368 -161.84604 -0.017987544 143.67859
546055115.13779 -0.67052221 167.3847 -52.307953 -163.28201 -52.453583 -161.3717 -0.017943025 143.63821
546432616.08154 -0.67402118 167.11702 -52.343658 -161.66939 -52.237823 -159.35323 -0.020558683 143.63933
546810117.02529 -0.67897439 166.84464 -52.227627 -163.6738 -52.285255 -158.68529 -0.0226568 143.63306
547187617.96904 -0.68605042 166.56645 -51.870655 -163.71893 -52.474823 -163.34732 -0.024653783 143.6151
547565118.9128 -0.69478506 166.31331 -52.237919 -162.58336 -52.090267 -163.87766 -0.026060225 143.58339
547942619.85655 -0.70550698 166.03372 -52.337055 -161.07837 -51.852211 -164.88704 -0.029408092 143.53032
548320120.8003 -0.71477735 165.76581 -52.123344 -165.3692 -51.901505 -163.37062 -0.032081801 143.48137
548697621.74405 -0.72462815 165.49538 -51.745476 -165.87894 -51.880608 -164.96042 -0.034532767 143.42842
549075122.68781 -0.73646516 165.24425 -51.393185 -166.35728 -51.447777 -165.69427 -0.040696807 143.38788
549452623.63156 -0.74851078 165.01172 -51.355621 -165.60396 -51.887375 -168.40746 -0.039166402 143.31041
549830124.57531 -0.75950432 164.7585 -51.382942 -169.20505 -51.290607 -168.24522 -0.039155468 143.2702
550207625.51906 -0.77043349 164.51517 -51.257408 -169.26009 -51.391796 -169.36603 -0.040494289 143.19696
550585126.46282 -0.7806927 164.27547 -50.868042 -169.23428 -51.149529 -169.86986 -0.039641827 143.14951
550962627.40657 -0.79337603 164.04637 -50.958462 -169.49631 -51.13501 -170.24165 -0.039533671 143.10735
551340128.35032 -0.80554354 163.81555 -51.458694 -170.74893 -51.04678 -172.36583 -0.035542015 143.06635
551717629.29407 -0.8162303 163.58696 -50.810417 -172.97932 -50.714237 -173.15637 -0.032384377 143.04585
552095130.23783 -0.82885319 163.3757 -50.865925 -173.48013 -50.651253 -174.8203 -0.026966013 143.01387
552472631.18158 -0.84221703 163.15245 -50.525219 -174.49034 -50.676506 -174.62753 -0.02602922 143.01465
552850132.12533 -0.85050809 162.9382 -51.179913 -175.39212 -50.807941 -175.30066 -0.023064628 143.00288
553227633.06908 -0.85913002 162.71043 -50.709499 -175.87358 -50.561512 -175.60764 -0.020829188 142.9892
553605134.01284 -0.86943758 162.49954 -50.471546 -177.33937 -50.452652 -178.3504 -0.017922454 142.99376
553982634.95659 -0.87813151 162.26695 -50.547832 -179.92348 -50.595982 -178.83543 -0.016386518 142.99924
554360135.90034 -0.88992029 162.04643 -50.542213 -176.05159 -50.177425 -177.57027 -0.014897566 143.01115
554737636.84409 -0.90263009 161.83211 -50.242912 179.25082 -50.283085 -179.83592 -0.014710402 143.00058
555115137.78784 -0.91368121 161.60278 -50.22094 177.61409 -50.355881 179.01038 -0.012787043 142.98279
555492638.7316 -0.92420638 161.35976 -50.01804 179.06834 -49.949795 179.58617 -0.010869524 142.95358
555870139.67535 -0.9375425 161.15021 -50.136932 175.80011 -50.3265 177.60577 -0.013871739 142.94603
556247640.6191 -0.94904232 160.95145 -49.956631 177.86369 -49.887032 174.91666 -0.01019338 142.90068
556625141.56285 -0.96074426 160.71892 -50.012894 177.2159 -50.122696 175.55232 -0.013326195 142.87833
557002642.50661 -0.97152954 160.51585 -49.837524 176.23953 -50.090782 174.49677 -0.013204416 142.82098
557380143.45036 -0.9828797 160.32097 -49.767441 174.19078 -49.740334 175.00862 -0.012676229 142.78899
557757644.39411 -0.99512589 160.11896 -49.674168 172.12029 -49.828754 171.34958 -0.011806861 142.76021
558135145.33786 -1.0061903 159.91782 -49.808853 170.06818 -49.505787 170.29109 -0.0090124067 142.71638
558512646.28162 -1.0147355 159.71553 -49.42218 169.61571 -49.477718 169.60953 -0.011059917 142.69577
558890147.22537 -1.02442 159.52728 -49.712086 169.28177 -49.482143 170.20319 -0.0081542991 142.66377
559267648.16912 -1.0321554 159.35423 -49.292904 167.60677 -49.587868 167.35562 -0.0068970448 142.65239
559645149.11287 -1.0375366 159.1805 -49.246414 166.98161 -49.316254 166.60301 -0.0032281242 142.60928
560022650.05663 -1.0439442 158.99287 -49.522388 167.14926 -49.092091 162.58702 -0.0033066063 142.60573
560400151.00038 -1.0486454 158.81017 -49.261421 164.11563 -49.116016 165.37206 -0.00042393029 142.60335
560777651.94413 -1.0506641 158.64247 -49.390118 162.71976 -49.21801 163.53687 -0.00075640727 142.58665
561155152.88788 -1.0534253 158.45178 -49.161591 163.80537 -49.384487 163.32321 0.00029037395 142.56657
561532653.83163 -1.0523194 158.28441 -49.304867 160.93321 -49.247128 161.32755 0.0028554448 142.54619
561910154.77539 -1.0506977 158.09035 -49.408508 159.96187 -49.227306 158.37309 0.00070698257 142.53915
562287655.71914 -1.0463783 157.8791 -48.960724 158.18695 -49.133686 157.97336 -0.00118169 142.52405
562665156.66289 -1.04266 157.66156 -49.628277 156.85812 -49.332619 157.47156 0.00035331651 142.50114
563042657.60664 -1.0373263 157.44305 -49.380955 155.1326 -49.131317 156.26964 -0.0017570562 142.47754
563420158.5504 -1.0335296 157.21693 -49.258793 156.48654 -49.26989 155.57565 -0.00043201578 142.43805
563797659.49415 -1.0285364 156.97557 -49.555885 155.24756 -49.265976 153.76811 -0.0024112216 142.39043
564175160.4379 -1.024302 156.72595 -49.186367 153.6156 -49.437565 155.61601 -0.0021028772 142.36807
564552661.38165 -1.0214033 156.46979 -49.826355 153.49844 -49.475117 153.26265 -0.0060012178 142.31784
564930162.32541 -1.0193677 156.19621 -49.656677 151.95653 -49.530777 153.00613 -0.0039602192 142.27757
565307663.26916 -1.0156661 155.90945 -49.476761 150.4015 -49.359196 152.19647 -0.0027150593 142.24152
565685164.21291 -1.0130703 155.61548 -49.589279 150.57744 -49.62199 152.18811 -0.0059949751 142.20139
566062665.15666 -1.0111483 155.31654 -49.641506 151.40134 -49.517776 152.7363 -0.0045858705 142.14896
566440166.10042 -1.0131271 155.00801 -49.587799 149.34169 -49.478222 150.35345 -0.0044652508 142.15416
566817667.04417 -1.0194097 154.69527 -49.652905 150.93356 -49.684517 151.12752 -0.004530468 142.10455
567195167.98792 -1.0262518 154.40097 -49.69215 152.27954 -49.687469 150.81993 -0.0074710869 142.07509
567572668.93167 -1.0343851 154.09528 -49.347321 151.82111 -49.391617 152.50793 -0.0086839842 142.0358
567950169.87542 -1.0430747 153.80309 -49.449551 151.86331 -49.416233 149.98665 -0.0094566718 142.0134
568327670.81918 -1.0520207 153.53488 -49.065716 151.01567 -49.039562 150.26826 -0.0082319584 141.98447
568705171.76293 -1.0609751 153.27054 -48.702118 150.56648 -49.249664 146.70407 -0.008488778 141.92706
569082672.70668 -1.0656778 153.00989 -48.903511 148.79178 -48.933655 147.34868 -0.011669928 141.91016
569460173.65043 -1.0716895 152.73988 -48.743233 148.28848 -49.179272 148.2836 -0.010581181 141.86194
569837674.59419 -1.0721236 152.45341 -48.961586 147.04977 -48.807453 147.62108 -0.018028483 141.80873
570215175.53794 -1.0812638 152.1624 -48.960884 145.02303 -48.818989 147.2814 -0.016010206 141.77562
570592676.48169 -1.0877537 151.85043 -48.841003 145.37306 -48.785728 145.1412 -0.017098382 141.72751
570970177.42544 -1.0962154 151.55501 -48.767071 146.70972 -48.860237 144.87535 -0.018014658 141.68648
