!Keysight Technologies,N5242B,MY48420860,A.13.80.08
!Date: Saturday, September 26, 2020 11:31:07
!Correction: S11(Full 2 Port(1,2)) 
!S21(Full 2 Port(1,2)) 
!S12(Full 2 Port(1,2)) 
!S22(Full 2 Port(1,2)) 
!S2P File: Measurements: S11, S21, S12, S22:
# Hz S  dB   R 50
500000000 -0.24988022 -166.37343 -61.849205 -110.52609 -60.943726 -110.15224 -0.026640428 147.29398
500377500.94375 -0.25219956 -166.57484 -61.413025 -117.80569 -61.702465 -113.73054 -0.024506716 147.25842
500755001.8875 -0.25548288 -166.77103 -61.056286 -116.77734 -60.537067 -113.70986 -0.022057505 147.25854
501132502.83126 -0.25916567 -166.98708 -61.759415 -126.74814 -60.367889 -113.55806 -0.019502601 147.24258
501510003.77501 -0.26167256 -167.18315 -60.67749 -115.15849 -61.246841 -112.00219 -0.01613554 147.23038
501887504.71876 -0.26609269 -167.36952 -60.940228 -115.93462 -60.827103 -116.36221 -0.013828433 147.22169
502265005.66251 -0.26772568 -167.57326 -63.744987 -120.96291 -60.963074 -116.7127 -0.012153769 147.21764
502642506.60627 -0.27176657 -167.78844 -60.114483 -120.94965 -61.072479 -113.77995 -0.0086319065 147.20976
503020007.55002 -0.2751613 -167.98409 -60.155052 -124.12936 -60.267776 -122.90762 -0.0077562965 147.20869
503397508.49377 -0.27996951 -168.16916 -60.541588 -114.20761 -61.972168 -120.56632 -0.0064848335 147.16748
503775009.43752 -0.2821323 -168.34903 -60.570019 -123.88029 -59.565384 -119.40597 -0.010467799 147.14902
504152510.38128 -0.28461581 -168.55031 -60.489315 -121.68519 -59.79105 -124.62965 -0.00791148 147.1459
504530011.32503 -0.28623956 -168.74141 -61.581322 -124.73427 -60.187759 -124.95004 -0.0067127468 147.10886
504907512.26878 -0.28873643 -168.9297 -60.147179 -122.86965 -60.297539 -120.32335 -0.0070298407 147.07138
505285013.21253 -0.28944185 -169.11639 -59.895481 -121.55876 -59.90369 -121.7738 -0.0067072921 147.07637
505662514.15629 -0.28970212 -169.30815 -61.783871 -120.41776 -60.062313 -127.56455 -0.0066962484 147.03102
506040015.10004 -0.28991154 -169.48576 -60.063499 -125.9784 -60.367897 -127.40179 -0.008123206 146.98427
506417516.04379 -0.29454798 -169.69057 -59.940819 -125.3993 -59.482796 -132.29897 -0.0076145255 146.97511
506795016.98754 -0.28984687 -169.87807 -59.724693 -125.26447 -60.923729 -128.13072 -0.001157707 146.94365
507172517.93129 -0.29221013 -170.07944 -59.516434 -129.59468 -59.364231 -135.61316 -0.0020057147 146.91916
507550018.87505 -0.29394287 -170.28345 -59.809845 -131.80264 -59.850224 -130.25644 0.0025832341 146.91263
507927519.8188 -0.29455298 -170.48643 -59.808407 -131.97205 -59.904758 -134.55626 0.0026184376 146.88794
508305020.76255 -0.2940118 -170.68555 -60.755005 -129.3761 -59.812214 -131.52946 0.0065548187 146.88324
508682521.7063 -0.29536235 -170.87785 -58.650349 -129.08708 -60.611126 -138.87971 0.008090809 146.87434
509060022.65006 -0.29759938 -171.08443 -59.11813 -134.28596 -59.371983 -137.87582 0.0093982713 146.84242
509437523.59381 -0.29519978 -171.27229 -59.003689 -127.47134 -59.682938 -128.35072 0.011585337 146.83145
509815024.53756 -0.29818845 -171.47989 -58.928123 -127.8412 -59.256916 -130.47971 0.010665563 146.82375
510192525.48131 -0.29859644 -171.68793 -60.240742 -138.16014 -59.390251 -132.80051 0.0062021906 146.79271
510570026.42507 -0.30258727 -171.88901 -60.022839 -137.60678 -59.686413 -132.07761 0.0043578316 146.76614
510947527.36882 -0.30267704 -172.09007 -59.557156 -132.85703 -59.174747 -137.10168 0.0036262472 146.73839
511325028.31257 -0.30549765 -172.30124 -58.982426 -133.38567 -59.412663 -134.13684 -0.0016389408 146.68365
511702529.25632 -0.30477241 -172.51141 -59.097256 -135.25003 -58.996681 -134.55409 -0.0045117037 146.64935
512080030.20008 -0.30790859 -172.71375 -60.638592 -137.4088 -59.586243 -134.84268 -0.0093368432 146.57486
512457531.14383 -0.30725321 -172.92436 -59.146282 -131.67892 -58.967316 -130.90131 -0.011055988 146.52518
512835032.08758 -0.31002608 -173.12827 -60.101795 -141.93579 -59.352509 -138.67787 -0.013304038 146.49475
513212533.03133 -0.31311271 -173.34885 -58.540962 -142.3231 -59.174984 -139.49706 -0.015306931 146.43568
513590033.97508 -0.31496859 -173.54994 -58.949982 -139.41899 -58.078056 -136.65015 -0.014544622 146.38673
513967534.91884 -0.31741717 -173.76968 -59.121338 -139.74564 -59.351147 -138.51335 -0.014466063 146.31686
514345035.86259 -0.321219 -173.98102 -58.967804 -139.82533 -59.129181 -142.67445 -0.012289582 146.29256
514722536.80634 -0.32045639 -174.20422 -59.078674 -141.01715 -58.60276 -138.43292 -0.0077828355 146.26978
515100037.75009 -0.32704726 -174.42622 -58.715488 -135.959 -58.483681 -139.71497 -0.0053327214 146.23244
515477538.69385 -0.33039683 -174.64244 -58.144955 -140.58849 -59.178314 -140.0392 -0.0047595166 146.23703
515855039.6376 -0.3310819 -174.8568 -58.124935 -139.6304 -58.045891 -141.93347 -0.00067721761 146.20607
516232540.58135 -0.33498919 -175.07565 -58.391563 -140.43916 -58.123825 -142.13065 -0.0025802311 146.20331
516610041.5251 -0.33952436 -175.28473 -58.266094 -145.13467 -58.175385 -141.28035 0.0020663519 146.17902
516987542.46886 -0.34477499 -175.5065 -58.463905 -140.79005 -57.939018 -144.07407 0.0034307961 146.15959
517365043.41261 -0.34488261 -175.73219 -58.448021 -140.32066 -57.681362 -145.03334 -0.00091242231 146.14307
517742544.35636 -0.35006928 -175.948 -57.746727 -141.69154 -57.559147 -147.05417 -0.00078150909 146.13712
518120045.30011 -0.35437998 -176.1722 -57.7967 -144.43399 -58.042671 -143.43915 -0.004474991 146.09625
518497546.24387 -0.35959205 -176.37801 -58.049088 -147.10622 -57.612377 -144.15543 -0.010802352 146.04878
518875047.18762 -0.36434659 -176.6078 -57.323845 -145.98016 -57.33271 -149.68669 -0.013327829 146.02104
519252548.13137 -0.36759555 -176.80482 -57.491341 -152.85281 -57.44178 -148.56123 -0.016179552 145.97816
519630049.07512 -0.37396899 -177.0137 -56.906471 -147.30623 -56.9156 -150.67598 -0.021654584 145.90508
520007550.01888 -0.37798873 -177.2338 -56.484528 -150.98761 -56.794693 -149.09036 -0.024265239 145.85841
520385050.96263 -0.38091856 -177.4068 -56.728947 -149.84254 -57.020748 -145.74316 -0.026598649 145.80048
520762551.90638 -0.38586086 -177.62096 -56.686779 -155.06549 -56.536884 -151.03439 -0.024554746 145.74036
521140052.85013 -0.38685057 -177.82062 -56.420429 -154.55182 -56.899208 -150.605 -0.023046741 145.68011
521517553.79388 -0.38816506 -178.03311 -57.200542 -151.46436 -56.81345 -153.95403 -0.022330742 145.63951
521895054.73764 -0.39077958 -178.24751 -56.541878 -155.41148 -56.85973 -156.87958 -0.021361973 145.61174
522272555.68139 -0.39160299 -178.45763 -56.799744 -159.91957 -56.084358 -154.7354 -0.018167406 145.55458
522650056.62514 -0.39317718 -178.65341 -56.576183 -150.44493 -56.011509 -156.46391 -0.014585005 145.55598
523027557.56889 -0.39738795 -178.88242 -56.108833 -159.65157 -56.540401 -157.54907 -0.0092471214 145.54068
523405058.51265 -0.39851263 -179.09868 -56.017105 -160.33884 -56.256607 -160.05898 -0.007838225 145.53041
523782559.4564 -0.40081605 -179.30763 -56.013165 -159.98006 -56.263474 -158.30832 -0.0043630623 145.53055
524160060.40015 -0.40537953 -179.53435 -56.262161 -159.67345 -55.978153 -156.62201 -0.0052720858 145.5383
524537561.3439 -0.4109101 -179.75729 -56.062237 -161.08453 -55.935616 -158.75136 -0.0026545883 145.52719
524915062.28766 -0.41576189 -179.98369 -56.32753 -167.01491 -55.704338 -164.87027 -0.0041908892 145.50395
525292563.23141 -0.41918901 179.78973 -55.283379 -163.73866 -55.424652 -163.15028 -0.0064372718 145.49634
525670064.17516 -0.42664516 179.55528 -56.021152 -164.02486 -55.708008 -162.31941 -0.0079617463 145.50406
526047565.11891 -0.43245366 179.35255 -55.074673 -165.39571 -55.225105 -165.61594 -0.0080791982 145.46272
526425066.06267 -0.43917483 179.12518 -55.372631 -166.05031 -55.401085 -167.07057 -0.01176801 145.40959
526802567.00642 -0.44591677 178.93222 -55.117607 -166.42033 -55.385338 -168.98711 -0.016899075 145.38052
527180067.95017 -0.45092976 178.70155 -55.273933 -171.88278 -55.673027 -173.60677 -0.017992442 145.34377
527557568.89392 -0.45890805 178.48337 -55.224255 -171.26543 -55.885201 -171.00862 -0.021034919 145.295
527935069.83767 -0.46330795 178.2948 -55.566067 -168.2034 -55.476738 -171.29459 -0.019055964 145.24249
528312570.78143 -0.46867594 178.08351 -55.199169 -176.67787 -55.248154 -170.4259 -0.022254212 145.1902
528690071.72518 -0.47524312 177.8607 -55.355953 -172.13924 -55.561871 -174.29541 -0.016359819 145.16644
529067572.66893 -0.48323756 177.65726 -54.913509 -174.67949 -55.236858 -177.28668 -0.016090462 145.09805
529445073.61268 -0.48650387 177.45062 -55.347389 -174.9454 -55.565292 -178.42691 -0.0099942544 145.09137
529822574.55644 -0.49321756 177.23598 -55.364983 -175.44127 -55.106152 -179.77226 -0.0061195162 145.06284
530200075.50019 -0.49665004 177.0258 -55.375404 -178.47711 -55.05312 -175.29517 -0.0034546484 145.06383
530577576.44394 -0.50440913 176.81447 -54.888874 -177.51918 -54.862316 177.98166 -0.0015669141 145.06361
530955077.38769 -0.50850087 176.59209 -54.402325 179.75223 -54.873543 -178.11259 0.0047549233 145.05231
531332578.33145 -0.51276428 176.3873 -54.918301 177.70573 -55.175793 179.52917 0.0045022583 145.056
531710079.2752 -0.51922756 176.18364 -54.601959 175.36775 -54.969944 177.36565 0.0039377678 145.06712
532087580.21895 -0.52323109 175.98869 -54.293991 177.04144 -54.728512 176.91476 0.0066002286 145.06094
532465081.1627 -0.5300777 175.78781 -54.714615 175.74243 -54.623234 178.93547 0.0023002694 145.05573
532842582.10646 -0.53258401 175.58243 -54.391384 173.58972 -54.463863 -179.65469 0.00059804472 145.03746
533220083.05021 -0.53447926 175.36978 -54.128365 170.99055 -54.570652 174.3439 -0.00017507021 144.99739
533597583.99396 -0.53891313 175.18251 -54.04895 173.15431 -54.16412 172.28757 -0.0042590015 144.96677
533975084.93771 -0.54072553 174.97862 -54.922611 170.75533 -54.135777 170.53795 -0.0095680254 144.91039
534352585.88146 -0.54359293 174.76442 -54.533699 166.02225 -54.679546 169.97589 -0.011313484 144.86137
534730086.82522 -0.54272115 174.56264 -54.545067 170.14772 -54.764076 169.78131 -0.014425557 144.80698
535107587.76897 -0.54726923 174.35133 -55.350479 164.78799 -54.766846 167.95201 -0.015238229 144.74356
535485088.71272 -0.54516852 174.14044 -54.836792 166.37166 -54.416965 165.46178 -0.015160603 144.68045
535862589.65647 -0.54674602 173.90788 -54.226475 166.12389 -55.149048 166.58636 -0.013899392 144.66122
536240090.60023 -0.54957682 173.70367 -54.799831 166.7925 -55.038418 166.14787 -0.011917907 144.59651
536617591.54398 -0.55273372 173.47675 -55.216511 164.87392 -54.81897 165.37587 -0.0062265135 144.56047
536995092.48773 -0.55449027 173.26003 -54.633251 167.63295 -54.995453 162.49184 -0.0077948882 144.51831
537372593.43148 -0.55488956 173.03468 -55.059132 163.13531 -54.774719 165.47787 -0.0026904754 144.50635
537750094.37524 -0.55700344 172.81694 -54.977634 162.02727 -54.492393 165.82954 -0.0018438328 144.48322
538127595.31899 -0.55920541 172.58871 -54.487141 159.93178 -55.128323 161.78511 0.0021030868 144.47142
538505096.26274 -0.5618968 172.35271 -54.292904 163.62239 -54.915562 163.55414 0.0063920477 144.47914
538882597.20649 -0.56456959 172.13593 -54.692524 163.33228 -54.590981 160.20502 0.010335462 144.48402
539260098.15025 -0.56735402 171.91335 -55.049358 159.81763 -54.482986 160.51523 0.0073903757 144.46671
539637599.094 -0.5687418 171.65996 -54.292404 159.3217 -54.956451 163.82552 0.006752389 144.46472
540015100.03775 -0.57182676 171.44923 -54.913349 159.02798 -54.437664 158.88139 0.0041667125 144.46164
540392600.9815 -0.57585001 171.20828 -54.715874 156.55682 -54.732574 156.63115 0.00068654405 144.42415
540770101.92525 -0.57671028 170.95415 -54.953918 158.32002 -54.914017 158.79605 -0.0026575844 144.39798
541147602.86901 -0.57931918 170.74207 -54.61721 158.51196 -54.644894 158.49043 -0.0040255822 144.34818
541525103.81276 -0.58494467 170.48805 -54.621086 159.66896 -54.422688 160.92192 -0.0073334198 144.30643
541902604.75651 -0.58707064 170.23801 -55.181274 156.06143 -54.267517 157.01897 -0.012873377 144.24423
542280105.70026 -0.59019893 170.00986 -54.812721 154.90623 -54.168316 159.28667 -0.014290198 144.19298
542657606.64402 -0.59254104 169.76257 -54.648487 158.08063 -54.588245 156.39671 -0.01607487 144.13678
543035107.58777 -0.59680843 169.49191 -54.081322 154.47099 -54.093029 153.71761 -0.019291861 144.0714
543412608.53152 -0.60040677 169.2554 -54.342255 153.08981 -54.652607 158.00223 -0.016785165 143.99068
543790109.47527 -0.60635668 169.00633 -54.201378 154.02194 -54.315876 153.02667 -0.015441609 143.95071
544167610.41903 -0.60906345 168.75758 -54.257835 152.11842 -54.254059 154.39839 -0.01492434 143.89735
544545111.36278 -0.61173326 168.50616 -54.054554 153.39709 -54.082371 152.24329 -0.012789616 143.85484
544922612.30653 -0.6160109 168.24648 -53.858166 152.22679 -53.85722 149.51126 -0.013162547 143.84297
545300113.25028 -0.61864012 167.98148 -54.513233 149.57254 -54.990273 153.28258 -0.0088023031 143.81937
545677614.19404 -0.62340868 167.70331 -54.480125 150.84723 -54.251328 151.41017 -0.0064978315 143.81718
546055115.13779 -0.62983674 167.44888 -54.038845 152.72401 -54.609329 151.91374 -0.0078005577 143.7775
546432616.08154 -0.63118201 167.17 -54.226665 152.85172 -54.208584 151.3448 -0.0093420045 143.78793
546810117.02529 -0.63638979 166.90785 -54.678844 153.43552 -54.191734 146.8502 -0.0086865444 143.77344
547187617.96904 -0.64479929 166.62408 -53.315617 151.88593 -53.734688 151.7005 -0.010959812 143.7728
547565118.9128 -0.65221757 166.36577 -53.47242 150.30521 -53.365856 155.59195 -0.014737552 143.71773
547942619.85655 -0.6616897 166.10085 -53.59375 151.30606 -53.755802 150.48769 -0.018558793 143.6757
548320120.8003 -0.6699087 165.82954 -53.570004 149.56477 -53.734928 151.55315 -0.020103648 143.63626
548697621.74405 -0.67731029 165.56171 -53.537388 147.85628 -53.256062 151.13094 -0.023060359 143.58281
549075122.68781 -0.68754655 165.31071 -53.48856 151.59831 -53.24464 153.50064 -0.026906859 143.53085
549452623.63156 -0.69916737 165.05461 -53.168758 150.07628 -53.275829 151.83893 -0.027192222 143.47513
549830124.57531 -0.70714211 164.79962 -52.691517 149.13487 -52.446106 151.22897 -0.030357713 143.40236
550207625.51906 -0.71732801 164.55109 -52.740074 147.42497 -52.404408 147.55705 -0.030784441 143.3441
550585126.46282 -0.72884363 164.31784 -52.338108 149.24725 -52.758595 146.9373 -0.030092206 143.28966
550962627.40657 -0.73919517 164.06349 -52.430649 146.93475 -52.49168 146.38722 -0.030196842 143.24869
551340128.35032 -0.75140715 163.82439 -52.2029 144.34532 -52.437416 147.4377 -0.027563656 143.21143
551717629.29407 -0.76098621 163.57925 -52.06068 144.97098 -52.071571 143.7052 -0.021974081 143.17798
552095130.23783 -0.77190435 163.35899 -52.290333 143.18195 -52.516602 141.571 -0.019181019 143.1456
552472631.18158 -0.78410923 163.11888 -52.041962 141.34984 -52.183746 142.88814 -0.01647451 143.14603
552850132.12533 -0.7921145 162.89603 -52.079056 138.92697 -51.929169 140.69498 -0.012733604 143.12575
553227633.06908 -0.80046237 162.66759 -51.718861 139.64546 -52.239613 140.83766 -0.0090038469 143.12032
553605134.01284 -0.81083447 162.43568 -51.861389 138.77232 -51.963673 137.6799 -0.0058964361 143.12782
553982634.95659 -0.82002896 162.18796 -51.831455 137.76472 -51.807949 138.73424 -0.0046110568 143.14388
554360135.90034 -0.83065784 161.95474 -51.484909 139.04218 -51.935562 136.13675 -0.0014621095 143.14668
554737636.84409 -0.84313178 161.72772 -51.66404 135.89696 -52.057121 137.21997 -0.00058300991 143.14445
555115137.78784 -0.85169679 161.48505 -51.316498 133.66714 -51.441498 136.38028 0.00048820837 143.13319
555492638.7316 -0.86440116 161.23849 -51.618919 136.30894 -51.619297 136.13747 0.0018953996 143.10464
555870139.67535 -0.87616915 161.00925 -51.66893 133.82344 -51.387642 134.70308 -0.00041752623 143.09981
556247640.6191 -0.88721532 160.7896 -51.154026 133.48895 -51.295872 132.08353 0.00066276325 143.05194
556625141.56285 -0.9004603 160.55573 -51.237301 132.27231 -51.044872 133.63237 -0.0019930007 143.02455
557002642.50661 -0.91076124 160.33475 -51.038342 134.04648 -51.206047 131.00031 -0.0017810826 142.97121
557380143.45036 -0.92269397 160.12135 -51.035404 131.45482 -50.998531 132.04018 -0.0035652556 142.93996
557757644.39411 -0.93281877 159.90787 -51.431515 128.84105 -51.229614 130.47147 -0.0024801276 142.91176
558135145.33786 -0.94455606 159.68973 -51.094742 132.83943 -51.164539 128.53246 0.00017344808 142.85101
558512646.28162 -0.95545036 159.47337 -51.120487 128.83165 -51.197811 128.47168 -0.00066709152 142.83592
558890147.22537 -0.96444023 159.27007 -50.652763 127.48325 -50.749306 126.50129 -0.00098987063 142.79947
559267648.16912 -0.97273314 159.09372 -50.413235 127.56324 -50.365719 125.91113 0.0012296392 142.77954
559645149.11287 -0.98232955 158.89162 -50.792236 125.33965 -50.676579 123.76246 0.0043364204 142.74229
560022650.05663 -0.99021369 158.69865 -50.681465 124.19817 -50.22897 121.98988 0.0032051888 142.73784
560400151.00038 -0.99610525 158.50417 -50.519993 122.38874 -50.486427 122.03185 0.0086438637 142.71773
560777651.94413 -0.99955839 158.32182 -50.23999 123.01436 -50.524078 118.64085 0.0085394913 142.70164
561155152.88788 -1.0044266 158.12776 -50.40913 118.6014 -50.411045 121.25842 0.01000618 142.69255
561532653.83163 -1.0039399 157.94409 -50.285534 118.62887 -50.07914 120.16419 0.012786124 142.67287
561910154.77539 -1.0048953 157.7514 -50.061264 116.34743 -50.38372 118.20279 0.011298276 142.67491
562287655.71914 -1.0035479 157.52895 -50.291534 117.22269 -50.378429 117.11681 0.011723069 142.65607
562665156.66289 -1.0028203 157.31302 -50.466457 115.49047 -50.191929 114.75391 0.0095905811 142.63333
563042657.60664 -0.99869484 157.09531 -49.92944 116.84737 -50.298214 114.0791 0.0091992347 142.6012
563420158.5504 -0.99629915 156.88036 -50.014019 112.29581 -50.457661 112.70869 0.0094542522 142.57739
563797659.49415 -0.99433666 156.64639 -50.15107 112.92606 -50.260746 110.1292 0.0089321155 142.53763
564175160.4379 -0.98740035 156.3963 -50.270733 110.7576 -50.100414 110.75584 0.0055114981 142.51103
564552661.38165 -0.98641759 156.13959 -49.845875 106.61946 -50.235191 109.40447 0.0043880572 142.46904
564930162.32541 -0.98174721 155.87895 -50.255886 106.81341 -50.072517 109.0201 0.0040121069 142.41713
565307663.26916 -0.97739804 155.59734 -50.520653 106.06628 -50.259708 104.86681 0.0053195003 142.37558
565685164.21291 -0.97450322 155.30286 -50.388489 106.08171 -50.352688 104.48227 0.0005551948 142.33723
566062665.15666 -0.9689669 154.9973 -50.268772 106.34689 -50.760509 106.01015 0.0019561835 142.28777
566440166.10042 -0.97191882 154.7012 -50.057842 105.35954 -50.07111 105.72768 0.0019678245 142.28136
566817667.04417 -0.97247005 154.35902 -50.455559 104.25105 -50.339169 105.25304 0.0024683713 142.23265
567195167.98792 -0.98023891 154.04143 -50.566547 103.80117 -50.153694 104.34382 -0.0001762594 142.20007
567572668.93167 -0.9877556 153.7363 -50.52063 105.55381 -50.399883 106.75397 -0.00046012006 142.15424
567950169.87542 -0.99498039 153.41336 -50.257652 102.10896 -50.267426 104.24673 1.2533595e-005 142.14038
568327670.81918 -1.0030044 153.13916 -50.426579 104.98798 -50.352253 102.84201 -0.00047850952 142.11343
568705171.76293 -1.0132084 152.84744 -50.218407 103.81959 -50.19936 103.20486 0.0004667099 142.05582
569082672.70668 -1.0185691 152.57423 -50.023315 103.24799 -49.814964 101.80582 0.0007147803 142.02628
569460173.65043 -1.0273863 152.28149 -49.79063 102.13041 -49.814934 100.90656 -0.0013106248 141.99075
569837674.59419 -1.0294762 151.98907 -49.774414 101.24513 -49.911263 100.78015 -0.0064169751 141.9501
570215175.53794 -1.0380925 151.67525 -49.991386 101.36207 -50.069225 98.906151 -0.0044355704 141.9268
570592676.48169 -1.0450616 151.36604 -50.091362 100.45963 -49.851685 99.351547 -0.0056977691 141.86432
570970177.42544 -1.053266 151.04974 -50.120186 99.333366 -50.046986 98.789192 -0.0054881838 141.82278
571347678.3692 -1.0611507 150.73444 -49.856419 97.654129 -49.986904 96.168358 -0.0090697594 141.79492
