!Keysight Technologies,N5242B,MY48420860,A.13.80.08
!Date: Saturday, September 26, 2020 11:32:26
!Correction: S11(Full 2 Port(1,2)) 
!S21(Full 2 Port(1,2)) 
!S12(Full 2 Port(1,2)) 
!S22(Full 2 Port(1,2)) 
!S2P File: Measurements: S11, S21, S12, S22:
# Hz S  dB   R 50
500000000 -0.25105688 -166.31006 -61.30751 -160.87842 -62.005863 -160.20708 -0.02613578 147.22079
500377500.94375 -0.25253102 -166.51588 -61.079159 -156.74007 -61.023319 -155.25612 -0.025680821 147.19623
500755001.8875 -0.25303912 -166.70992 -60.749516 -153.84149 -61.204681 -158.82071 -0.026004072 147.18173
501132502.83126 -0.25874278 -166.92493 -62.734978 -165.2877 -62.178543 -158.78081 -0.022417583 147.17502
501510003.77501 -0.26113403 -167.12846 -60.496117 -168.78912 -61.23893 -161.29869 -0.019882062 147.15442
501887504.71876 -0.26321596 -167.31374 -60.517521 -157.46513 -60.511738 -171.23688 -0.018848015 147.16139
502265005.66251 -0.26586708 -167.50661 -60.340935 -163.89757 -61.081913 -164.32335 -0.016969973 147.13957
502642506.60627 -0.27154231 -167.71678 -61.669136 -166.00037 -61.615952 -164.52928 -0.013666994 147.12276
503020007.55002 -0.27152169 -167.92244 -60.652992 -163.24446 -60.743053 -166.76514 -0.014141727 147.12292
503397508.49377 -0.27840972 -168.10954 -60.396027 -159.79227 -59.928761 -156.57443 -0.013962399 147.11458
503775009.43752 -0.27988976 -168.29311 -59.721783 -173.36218 -60.355164 -165.68765 -0.014317568 147.06952
504152510.38128 -0.28186333 -168.49443 -60.772945 -170.16879 -61.567036 -178.9595 -0.012040777 147.05344
504530011.32503 -0.28402373 -168.66966 -60.307411 -167.22353 -60.412788 -175.3701 -0.008255397 147.02357
504907512.26878 -0.28586823 -168.85753 -60.49033 -165.77228 -61.172745 -174.15387 -0.0094895726 147.01372
505285013.21253 -0.28609309 -169.05084 -60.26252 -178.55203 -59.961079 -170.28059 -0.0065293591 147.00536
505662514.15629 -0.2876673 -169.23698 -60.689125 -171.88771 -60.361839 -170.3644 -0.0052878652 146.96858
506040015.10004 -0.28877053 -169.41547 -61.615276 -171.66762 -61.031609 -175.40482 -0.0060129222 146.92847
506417516.04379 -0.29107741 -169.6147 -60.022045 -172.73218 -61.220924 -175.89694 -0.0030178344 146.916
506795016.98754 -0.28627923 -169.81082 -63.137154 -170.04881 -60.77758 -175.85988 -0.0024890231 146.91193
507172517.93129 -0.28710961 -169.99055 -61.034687 -166.4187 -61.163628 178.05347 -0.00056822551 146.87392
507550018.87505 -0.28723353 -170.21089 -61.266239 -178.22083 -61.086132 -178.19559 0.0012773402 146.87045
507927519.8188 -0.28784975 -170.4164 -61.12566 -172.09396 -59.923069 178.73714 -0.00043984241 146.8461
508305020.76255 -0.28767353 -170.58907 -60.580173 -165.4328 -60.99485 -176.92093 0.0052212966 146.82652
508682521.7063 -0.28766772 -170.80225 -61.550129 175.32443 -60.611103 176.60631 0.0028587177 146.81595
509060022.65006 -0.2884455 -171.00648 -61.257771 177.72166 -59.270248 178.49026 0.0076245395 146.78992
509437523.59381 -0.28728464 -171.20718 -60.336372 177.42519 -60.919495 179.31187 0.0058582472 146.77661
509815024.53756 -0.28878567 -171.41154 -61.743385 -178.75954 -60.59425 175.51323 0.0053543583 146.7655
510192525.48131 -0.29108846 -171.61008 -61.220985 176.20978 -60.395905 178.14154 0.00050047948 146.71585
510570026.42507 -0.2923837 -171.80219 -60.733074 173.93486 -61.177975 179.13232 -0.00039614379 146.67589
510947527.36882 -0.29260001 -172.01076 -59.960579 179.88042 -60.410984 174.91528 0.00098252506 146.65475
511325028.31257 -0.29650146 -172.22319 -60.03104 -179.05328 -61.627636 -177.32249 -0.0050922744 146.60686
511702529.25632 -0.29624122 -172.43391 -60.160267 179.5623 -60.297447 175.39267 -0.0066533783 146.57364
512080030.20008 -0.29699063 -172.63773 -61.192657 170.88753 -59.762711 174.08148 -0.010414607 146.51384
512457531.14383 -0.29791951 -172.85298 -62.031303 175.80156 -60.125183 179.01172 -0.0093233157 146.46315
512835032.08758 -0.29881373 -173.06117 -60.134609 -178.463 -60.749859 170.77065 -0.011523789 146.43314
513212533.03133 -0.30333218 -173.27705 -60.681221 176.25322 -60.71188 -176.92342 -0.01242187 146.38568
513590033.97508 -0.30325541 -173.49504 -59.049683 170.8855 -59.874889 174.57533 -0.011479851 146.33147
513967534.91884 -0.30574015 -173.70911 -60.3629 178.8214 -59.737034 168.53847 -0.012266383 146.27846
514345035.86259 -0.30775499 -173.91826 -59.627846 170.46347 -60.407639 171.33493 -0.013231185 146.26239
514722536.80634 -0.30959272 -174.14537 -60.529221 170.19003 -60.629421 166.66202 -0.0078225071 146.22667
515100037.75009 -0.31435412 -174.37447 -59.876614 176.08691 -59.633156 174.32764 -0.0074730408 146.19843
515477538.69385 -0.31692323 -174.57828 -59.656857 177.26549 -59.862038 170.36987 -0.0093132015 146.18909
515855039.6376 -0.31880155 -174.80551 -59.317329 173.97781 -60.984039 167.08163 -0.0054079494 146.16754
516232540.58135 -0.32210737 -175.01733 -58.729195 171.24786 -59.727798 170.21967 -0.0058590057 146.14833
516610041.5251 -0.32468769 -175.24355 -59.696796 174.42477 -59.886284 169.70673 -0.0030607325 146.12604
516987542.46886 -0.32891226 -175.46396 -59.715363 170.49261 -59.321877 172.67087 -0.0027266224 146.09729
517365043.41261 -0.32891661 -175.68033 -60.008816 170.61203 -58.224754 165.9221 -0.0089991549 146.08008
517742544.35636 -0.33445463 -175.9039 -60.289886 173.47563 -59.037926 172.65967 -0.0046661492 146.06161
518120045.30011 -0.33812737 -176.12144 -59.663395 168.88493 -58.487339 170.70384 -0.009228956 146.01501
518497546.24387 -0.34367049 -176.34029 -59.505196 163.31119 -58.255692 163.87645 -0.01155011 145.9772
518875047.18762 -0.34658864 -176.56007 -59.221161 169.71483 -58.902809 168.92699 -0.015808497 145.93912
519252548.13137 -0.35051656 -176.75998 -58.397659 161.96977 -58.13707 165.77249 -0.01619336 145.89331
519630049.07512 -0.35438588 -176.98041 -58.316235 169.11504 -58.033508 169.41978 -0.019904133 145.847
520007550.01888 -0.3590709 -177.18823 -59.171696 169.42401 -58.171059 168.20251 -0.02015233 145.795
520385050.96263 -0.362306 -177.38072 -58.976185 159.96927 -58.209095 168.40881 -0.019712748 145.76051
520762551.90638 -0.36661297 -177.58894 -57.596527 160.45547 -58.346756 162.10881 -0.022323152 145.69508
521140052.85013 -0.36820966 -177.79886 -57.955296 162.04854 -58.022919 158.21225 -0.01999601 145.65303
521517553.79388 -0.36838025 -178.00516 -57.500694 159.8605 -58.031067 153.52673 -0.022282662 145.62292
521895054.73764 -0.37123764 -178.21686 -57.710407 162.37474 -57.657768 159.54475 -0.019310787 145.57971
522272555.68139 -0.37209335 -178.44232 -58.100246 161.97493 -58.340038 163.13849 -0.017816056 145.55533
522650056.62514 -0.37316474 -178.65195 -57.56525 163.89381 -57.766781 160.41496 -0.017712981 145.5368
523027557.56889 -0.37687996 -178.86261 -57.999264 158.05936 -57.470665 155.07585 -0.014830516 145.53505
523405058.51265 -0.37810922 -179.09541 -57.470478 154.05386 -57.969437 155.15018 -0.0132223 145.49225
523782559.4564 -0.38040659 -179.31252 -57.985256 162.09435 -57.637779 159.18448 -0.012326985 145.48001
524160060.40015 -0.38482773 -179.53117 -57.236229 156.47781 -57.464756 157.53236 -0.010286002 145.48172
524537561.3439 -0.39148748 -179.76326 -57.111217 158.09662 -57.813457 157.97192 -0.010454114 145.47565
524915062.28766 -0.39418766 -179.99649 -56.839325 158.3656 -57.364643 154.31741 -0.01000589 145.42831
525292563.23141 -0.39924702 179.77196 -57.345619 150.87979 -56.578526 157.96928 -0.012037917 145.44513
525670064.17516 -0.40407562 179.52527 -56.997963 153.26605 -56.672863 153.24884 -0.011833612 145.43321
526047565.11891 -0.40928885 179.31863 -57.036793 152.43082 -56.662933 151.14812 -0.0092577888 145.38803
526425066.06267 -0.41791227 179.09792 -56.128338 151.22179 -56.946018 153.9743 -0.011986447 145.35722
526802567.00642 -0.42338037 178.88713 -56.505684 148.10355 -56.953129 151.79478 -0.015087181 145.32887
527180067.95017 -0.4299058 178.66191 -57.128719 149.11604 -55.622452 151.66603 -0.014894411 145.29895
527557568.89392 -0.43826675 178.43033 -56.577892 150.58047 -56.183632 153.46779 -0.017187174 145.25369
527935069.83767 -0.44170618 178.23508 -55.907051 147.70866 -56.115406 149.49405 -0.017178064 145.22607
528312570.78143 -0.44793361 178.01968 -56.243362 143.77998 -56.614624 146.62427 -0.017160742 145.18965
528690071.72518 -0.45656273 177.79912 -56.487122 145.71115 -56.208706 148.23251 -0.014641048 145.153
529067572.66893 -0.46307862 177.59019 -56.116238 145.01596 -56.347244 147.78003 -0.014087127 145.10083
529445073.61268 -0.46656886 177.37521 -56.180897 142.86807 -56.150234 145.15828 -0.013693457 145.07292
529822574.55644 -0.47237268 177.16148 -55.244358 139.83046 -55.670887 141.7468 -0.011354661 145.06113
530200075.50019 -0.47831064 176.94774 -55.138924 140.9592 -55.617611 142.12256 -0.008148063 145.05396
530577576.44394 -0.48493272 176.72992 -55.56604 146.6861 -55.491264 142.24535 -0.0067533879 145.04323
530955077.38769 -0.4909251 176.51212 -55.120514 140.4339 -55.854637 143.623 -0.0054339739 145.02344
531332578.33145 -0.49722341 176.29565 -54.905334 142.38899 -55.461758 137.71411 -0.0051412578 145.02274
531710079.2752 -0.50185692 176.08749 -55.434856 138.88338 -55.639183 138.16902 -0.003107076 145.02069
532087580.21895 -0.50669163 175.88603 -54.903236 137.74841 -54.814297 138.75714 -0.0016280431 145.00397
532465081.1627 -0.51239216 175.66626 -55.392712 131.90306 -55.31052 134.09706 -0.0050562043 144.97913
532842582.10646 -0.51496828 175.47414 -55.372173 133.47072 -55.436966 132.36365 -0.0019618711 144.97203
533220083.05021 -0.51850659 175.25586 -55.520859 133.23958 -54.823929 134.55373 -0.006177153 144.93526
533597583.99396 -0.52527899 175.06789 -54.921604 127.62349 -54.679138 130.2114 -0.0056088837 144.88861
533975084.93771 -0.52462035 174.86298 -55.071339 129.98727 -55.122684 127.78605 -0.0091891699 144.8448
534352585.88146 -0.52904522 174.65498 -54.813526 127.81062 -54.975109 127.13179 -0.010060266 144.81593
534730086.82522 -0.53307754 174.44812 -55.886482 124.99894 -55.043907 128.3896 -0.013040194 144.76811
535107587.76897 -0.53460151 174.24367 -55.068291 124.56915 -55.141914 124.08144 -0.013643379 144.71527
535485088.71272 -0.53538156 174.01428 -55.186241 125.28944 -55.21706 126.2672 -0.012344678 144.65619
535862589.65647 -0.53661191 173.81413 -55.144558 126.48076 -54.466236 120.85032 -0.011626681 144.645
536240090.60023 -0.54107904 173.59235 -55.129757 127.15534 -54.79985 126.13003 -0.011621924 144.59741
536617591.54398 -0.54406285 173.38173 -55.413868 124.52499 -54.919617 118.19891 -0.0093454449 144.5462
536995092.48773 -0.5460338 173.14191 -54.713078 122.60759 -54.723339 121.2066 -0.011536413 144.51483
537372593.43148 -0.54846799 172.93417 -55.417427 123.1083 -54.760063 121.78046 -0.0068314881 144.49609
537750094.37524 -0.54906529 172.73279 -54.300194 122.20399 -55.348549 113.82622 -0.0072400998 144.46475
538127595.31899 -0.55380535 172.49719 -54.829567 114.95152 -54.452927 118.01305 -0.0064123543 144.44728
538505096.26274 -0.55591816 172.27461 -55.114613 114.61529 -55.233547 119.25117 -0.0029407085 144.43608
538882597.20649 -0.55671924 172.05838 -54.746952 116.71583 -54.532631 118.22593 0.0013880091 144.43465
539260098.15025 -0.55897737 171.84508 -55.225334 115.33963 -54.976913 116.41422 3.7907561e-005 144.41464
539637599.094 -0.5584572 171.60216 -54.951931 116.41296 -54.671726 113.72888 0.0016001557 144.39508
540015100.03775 -0.55934781 171.3849 -54.281231 114.78861 -54.566025 115.01121 -0.00051749573 144.37788
540392600.9815 -0.56245148 171.12666 -54.592548 111.73671 -55.05991 113.29409 0.0016443494 144.34456
540770101.92525 -0.56160134 170.89198 -54.855915 109.35815 -54.842224 113.66479 -0.0023593155 144.32582
541147602.86901 -0.56609851 170.6524 -54.678234 112.39552 -54.407772 112.57827 -0.0036081327 144.29066
541525103.81276 -0.56829369 170.39854 -54.522125 110.76228 -54.597633 113.67598 -0.0048565576 144.24812
541902604.75651 -0.56900078 170.13928 -54.552769 106.48009 -54.502247 114.02066 -0.0090126442 144.18202
542280105.70026 -0.57336313 169.89279 -54.153324 104.59512 -54.658279 106.92507 -0.010666833 144.14751
542657606.64402 -0.57540274 169.64908 -55.053188 110.46057 -55.039253 108.65937 -0.013388822 144.09724
543035107.58777 -0.57891434 169.37347 -54.758148 108.00909 -54.126877 104.78188 -0.01666707 144.03406
543412608.53152 -0.58235699 169.11536 -54.662025 102.52084 -54.6092 108.01817 -0.016374258 143.98782
543790109.47527 -0.59059834 168.86281 -54.653332 102.69208 -54.552689 103.12843 -0.016449535 143.93277
544167610.41903 -0.59252304 168.60033 -55.164486 105.95621 -54.463604 106.34445 -0.018200811 143.87741
544545111.36278 -0.59626204 168.33415 -54.043652 103.5447 -54.766682 105.00854 -0.016352605 143.84708
544922612.30653 -0.60153848 168.07524 -54.395008 100.25916 -54.618824 101.70853 -0.016433481 143.82736
545300113.25028 -0.60374647 167.8051 -54.423084 106.77846 -54.61689 106.1403 -0.013715186 143.79314
545677614.19404 -0.60895687 167.53862 -54.762585 102.79705 -54.463402 104.68942 -0.014497869 143.78413
546055115.13779 -0.61451751 167.25851 -54.798496 103.44301 -54.887089 101.01714 -0.013820702 143.74252
546432616.08154 -0.61829478 166.98755 -54.892693 103.30592 -54.955082 100.25059 -0.014592636 143.73929
546810117.02529 -0.62447137 166.70654 -54.422642 107.21027 -54.152763 100.51142 -0.012235637 143.71036
547187617.96904 -0.63116556 166.42509 -54.876961 102.07879 -54.534828 102.90762 -0.014496278 143.70061
547565118.9128 -0.64121866 166.16502 -54.358639 103.41738 -54.594803 99.926956 -0.01594178 143.64801
547942619.85655 -0.64859325 165.88757 -54.159611 100.11755 -54.763374 98.674561 -0.017506469 143.60414
548320120.8003 -0.65828091 165.60687 -55.302975 99.033173 -54.669846 100.61067 -0.018278815 143.56844
548697621.74405 -0.66560537 165.31693 -54.408215 102.79893 -54.121643 100.27084 -0.021483501 143.53363
549075122.68781 -0.67770684 165.06732 -53.923256 101.70972 -53.981319 100.45139 -0.025220476 143.48972
549452623.63156 -0.6893208 164.80737 -53.846352 104.79776 -54.974648 100.34628 -0.025245614 143.42334
549830124.57531 -0.70021856 164.5314 -54.01265 102.59832 -53.795288 99.118019 -0.026148766 143.36797
550207625.51906 -0.7112509 164.27615 -53.518288 99.886436 -53.763836 97.96138 -0.028185509 143.3121
550585126.46282 -0.72160602 164.03503 -53.082565 99.13559 -53.978806 95.749817 -0.028042691 143.27507
550962627.40657 -0.73599511 163.77061 -53.218414 98.692947 -53.794846 94.918922 -0.028343627 143.23744
551340128.35032 -0.74821353 163.52159 -53.62101 94.418266 -53.601913 95.89917 -0.025974177 143.20251
551717629.29407 -0.75977159 163.28107 -52.780342 96.158844 -53.330181 96.374825 -0.024778506 143.16931
552095130.23783 -0.77406657 163.05188 -52.900784 96.421188 -53.079483 95.275703 -0.021167664 143.12772
552472631.18158 -0.78653687 162.80902 -53.423782 94.781044 -53.199505 91.235786 -0.020797057 143.11566
552850132.12533 -0.7972253 162.5907 -53.31443 94.286346 -53.157799 92.633072 -0.016776329 143.10222
553227633.06908 -0.80818218 162.34361 -53.300842 95.046135 -52.778435 92.504097 -0.013314651 143.08949
553605134.01284 -0.81973481 162.11264 -53.180206 90.188843 -53.181393 91.442497 -0.0091124102 143.09378
553982634.95659 -0.83107144 161.87425 -52.968437 89.058784 -52.600834 90.099876 -0.0063498183 143.09641
554360135.90034 -0.84236532 161.64053 -52.75388 89.0466 -52.853683 90.342255 -0.0039058044 143.09445
554737636.84409 -0.85547888 161.41559 -52.79417 86.301697 -52.474518 89.88739 -0.0027363861 143.0834
555115137.78784 -0.86688596 161.17433 -52.631493 88.207748 -52.448627 87.217094 0.00091515476 143.07571
555492638.7316 -0.87866294 160.9286 -53.027821 89.445847 -52.857735 87.079437 0.003025987 143.05035
555870139.67535 -0.89237225 160.71162 -52.527485 85.026482 -52.459587 87.358063 0.0011295413 143.04973
556247640.6191 -0.90626854 160.47002 -52.598705 85.292358 -52.5639 85.307831 0.0017216499 143.01112
556625141.56285 -0.9194231 160.23615 -52.592312 84.160675 -52.468227 84.780586 -0.00087162305 142.97345
557002642.50661 -0.93169028 160.02661 -52.405441 83.132347 -52.083401 85.391113 0.0013987242 142.92963
557380143.45036 -0.94420922 159.7973 -51.939846 83.272118 -52.377106 82.924942 -0.0025369993 142.90663
557757644.39411 -0.95801216 159.59146 -52.119232 82.499001 -52.176182 84.180031 -0.0011333704 142.88782
558135145.33786 -0.9700141 159.38205 -52.158882 82.839851 -51.823856 80.457275 -0.00096363248 142.81982
558512646.28162 -0.98292243 159.1669 -51.878525 79.97863 -52.108971 80.95491 -0.0041613653 142.79779
558890147.22537 -0.99384439 158.96724 -51.60741 78.72451 -51.491749 81.396866 -0.0029149337 142.77927
559267648.16912 -1.0036579 158.77528 -51.86071 76.149483 -51.932182 77.102409 -0.0015524559 142.74504
559645149.11287 -1.0140123 158.58517 -51.421005 78.768677 -51.670013 77.690483 -0.0015494977 142.71439
560022650.05663 -1.0215416 158.38028 -51.630722 75.426384 -51.667542 74.979622 0.00087262847 142.70593
560400151.00038 -1.0300195 158.21361 -51.62458 73.175018 -51.621723 75.61161 0.0077988086 142.67645
560777651.94413 -1.0351857 158.01411 -51.323051 76.834587 -51.585609 75.305893 0.0077023674 142.66373
561155152.88788 -1.041731 157.82442 -51.643391 73.793465 -51.37101 74.270638 0.0054672402 142.64626
561532653.83163 -1.0424373 157.64119 -51.370453 73.044083 -51.246037 73.536949 0.010081393 142.62048
561910154.77539 -1.0444821 157.45845 -51.190971 73.697914 -51.071861 73.687828 0.0087458761 142.61148
562287655.71914 -1.0451641 157.24403 -51.776314 72.210289 -51.207855 69.13913 0.010331498 142.59227
562665156.66289 -1.0462238 157.02324 -51.129478 69.414482 -51.291054 70.654739 0.010789962 142.56699
563042657.60664 -1.0442498 156.82008 -51.120224 66.651169 -51.146778 71.281441 0.0097896066 142.54054
563420158.5504 -1.043545 156.60512 -51.279526 65.352585 -50.811874 68.316818 0.010683958 142.50282
563797659.49415 -1.0429916 156.39304 -51.30558 69.285835 -50.926674 67.389961 0.0067887888 142.4695
564175160.4379 -1.0383724 156.14412 -51.064556 65.057892 -50.93219 66.438255 0.0050081275 142.4449
564552661.38165 -1.038114 155.90192 -50.889393 64.447769 -51.23679 63.170822 0.0032479665 142.38922
564930162.32541 -1.0353844 155.6552 -51.135548 64.553574 -50.955055 64.847366 0.0035626218 142.36169
565307663.26916 -1.0297315 155.39479 -50.820473 62.557716 -50.755051 64.060898 0.0016681377 142.30556
565685164.21291 -1.0271622 155.09186 -50.79031 62.619038 -51.058506 62.155178 -0.003538243 142.26625
566062665.15666 -1.022338 154.79625 -50.931221 59.800758 -50.719299 61.638031 -0.0020938371 142.22035
566440166.10042 -1.0242537 154.49323 -51.064823 59.920712 -50.988655 60.134857 -0.0013301698 142.20355
566817667.04417 -1.0253071 154.15903 -50.976692 59.068501 -50.991959 60.878052 -0.0014929173 142.17229
567195167.98792 -1.0327216 153.84467 -50.965267 61.401955 -50.672264 60.682686 -0.0050797965 142.13516
567572668.93167 -1.0398294 153.52348 -51.057137 58.895321 -50.710594 59.423679 -0.0038373393 142.08907
567950169.87542 -1.0493977 153.20525 -50.851315 60.457672 -50.836876 59.745327 -0.0047356696 142.06807
568327670.81918 -1.0581958 152.92154 -50.715244 58.254398 -50.544701 58.533192 -0.00099845929 142.04236
568705171.76293 -1.0703123 152.62535 -50.572044 58.463833 -50.668907 58.331879 -0.0012308342 142.00101
569082672.70668 -1.0783015 152.33905 -50.696087 58.373421 -50.621593 55.992737 -0.00064281351 141.96091
569460173.65043 -1.0892596 152.06763 -50.793938 56.422592 -50.560108 57.303108 -0.0021211496 141.92473
569837674.59419 -1.0935003 151.77863 -50.326096 58.268795 -50.744804 55.873497 -0.0052420385 141.88675
570215175.53794 -1.1046228 151.46857 -50.020397 55.798088 -50.341354 53.991886 -0.0057617528 141.84106
570592676.48169 -1.1125216 151.1546 -50.620922 52.7742 -50.504166 54.337395 -0.0064387727 141.79106
570970177.42544 -1.1215104 150.8524 -50.194664 52.483612 -50.137108 51.00518 -0.0062020482 141.76505
571347678.3692 -1.1315112 150.53523 -50.288471 52.023556 -50.296803 54.258312 -0.0086363871 141.72386
571725179.31295 -1.142275 150.21928 -50.025963 50.921379 -50.030537 51.625935 -0.011480229 141.6725
