!Keysight Technologies,N5242B,MY48420860,A.13.80.08
!Date: Saturday, September 26, 2020 11:55:32
!Correction: S11(Full 2 Port(1,2)) 
!S21(Full 2 Port(1,2)) 
!S12(Full 2 Port(1,2)) 
!S22(Full 2 Port(1,2)) 
!S2P File: Measurements: S11, S21, S12, S22:
# Hz S  dB   R 50
500000000 -0.24936154 -166.37135 -65.472038 112.19279 -66.926903 106.65823 0.0057642306 147.49411
500377500.94375 -0.25389358 -166.56358 -64.576797 119.09048 -65.543221 111.13908 0.004983406 147.4776
500755001.8875 -0.2582137 -166.74706 -65.625191 119.80595 -65.063766 115.41383 0.0026136127 147.48474
501132502.83126 -0.26250932 -166.96388 -65.936478 113.31956 -69.976364 103.32442 0.0030733657 147.48531
501510003.77501 -0.26557073 -167.15434 -65.187302 116.3062 -63.959377 112.47145 0.00061230676 147.46355
501887504.71876 -0.2678721 -167.35889 -67.116661 112.84509 -65.269867 109.87021 -0.0055885846 147.46719
502265005.66251 -0.26912028 -167.56392 -67.971977 117.63572 -66.142227 114.19722 -0.0081459126 147.42398
502642506.60627 -0.27491656 -167.77489 -64.431015 119.60204 -68.516586 102.78262 -0.010499268 147.38875
503020007.55002 -0.27682832 -167.96286 -65.415939 117.86263 -65.086815 113.07329 -0.011382741 147.36589
503397508.49377 -0.28417054 -168.16583 -65.784477 104.91234 -64.307526 104.57342 -0.011664498 147.30669
503775009.43752 -0.28567269 -168.35471 -65.680038 117.44485 -65.512985 107.19279 -0.01278073 147.24719
504152510.38128 -0.29097286 -168.54262 -65.693069 100.03712 -66.432175 110.16852 -0.0081556598 147.21278
504530011.32503 -0.29454342 -168.73743 -67.070168 106.80368 -63.996845 113.66599 -0.0013499543 147.16733
504907512.26878 -0.29956841 -168.92648 -65.591942 110.28628 -64.883102 108.61646 0.0019735517 147.13608
505285013.21253 -0.29972848 -169.09964 -63.935749 108.14674 -65.278648 120.55684 0.0086667445 147.12625
505662514.15629 -0.30103201 -169.28874 -64.980515 106.75614 -64.918236 98.615807 0.012652022 147.11777
506040015.10004 -0.30185354 -169.45847 -67.112892 104.27052 -65.247612 102.67183 0.017031273 147.0804
506417516.04379 -0.30467167 -169.65216 -63.948093 109.83764 -64.91555 110.04327 0.018802194 147.09457
506795016.98754 -0.30037782 -169.82567 -63.412712 113.75182 -63.161095 102.23447 0.025258612 147.09755
507172517.93129 -0.30215579 -170.02393 -65.126305 102.57111 -64.461693 110.97399 0.02376554 147.08156
507550018.87505 -0.30327234 -170.22122 -63.96629 95.035416 -64.309486 96.09742 0.024862815 147.09851
507927519.8188 -0.30291849 -170.41719 -62.534077 95.213882 -64.843285 90.309296 0.021051155 147.08029
508305020.76255 -0.30411813 -170.59824 -64.063805 109.61147 -65.544746 99.018913 0.018787704 147.06802
508682521.7063 -0.30187735 -170.7991 -65.749107 95.242432 -63.700268 108.32763 0.013833076 147.06218
509060022.65006 -0.30182785 -171.01245 -63.829975 97.95842 -65.149147 116.94646 0.010656708 147.01776
509437523.59381 -0.30070141 -171.19492 -64.002914 93.182152 -64.86322 97.737831 0.0036920414 146.98701
509815024.53756 -0.30298266 -171.38054 -63.914238 94.002312 -64.406372 96.278191 -0.00013349799 146.95401
510192525.48131 -0.30285391 -171.59608 -64.459198 102.60624 -62.887081 106.23934 -0.0070391628 146.88142
510570026.42507 -0.30331251 -171.78822 -63.741669 96.118385 -64.430817 99.846954 -0.0089689996 146.81888
510947527.36882 -0.30580974 -172.00674 -62.672562 101.58721 -64.933777 101.6931 -0.0085205417 146.77292
511325028.31257 -0.30848128 -172.21068 -65.245888 95.15139 -65.820961 90.526184 -0.0096800318 146.69624
511702529.25632 -0.30900148 -172.41656 -63.114601 90.061104 -64.367264 103.46172 -0.0091266101 146.6465
512080030.20008 -0.31136328 -172.61702 -65.815056 95.437675 -64.631287 87.513443 -0.007031566 146.57838
512457531.14383 -0.31052953 -172.83627 -64.230644 95.311844 -65.152458 92.040703 -0.002100908 146.53726
512835032.08758 -0.31325728 -173.03922 -63.379715 103.77599 -62.980293 92.936661 -0.00060334743 146.51271
513212533.03133 -0.31732002 -173.25885 -65.781624 92.056038 -63.548862 98.006241 0.0032624891 146.48164
513590033.97508 -0.31981942 -173.45966 -63.766491 88.213516 -63.947876 94.168999 0.0079210158 146.44083
513967534.91884 -0.32328343 -173.67619 -63.175655 97.435684 -63.283901 91.501511 0.0083927438 146.41882
514345035.86259 -0.32602921 -173.88246 -62.790688 98.722404 -63.042133 89.317749 0.0096131237 146.43237
514722536.80634 -0.32714981 -174.09509 -63.883194 82.57412 -62.938911 92.15744 0.011882147 146.41086
515100037.75009 -0.33193988 -174.31406 -63.805859 82.959625 -63.057678 94.481567 0.01034983 146.40352
515477538.69385 -0.33474743 -174.51898 -62.963043 86.852348 -63.667503 88.88385 0.008761012 146.41014
515855039.6376 -0.33745193 -174.72548 -64.041985 97.178162 -62.958275 96.303444 0.0067993365 146.39435
516232540.58135 -0.33936623 -174.94336 -63.062672 91.383652 -62.719482 86.55323 0.00047302977 146.36789
516610041.5251 -0.34159926 -175.15295 -63.301041 90.565681 -63.494545 90.903549 0.0026713002 146.34311
516987542.46886 -0.34360036 -175.37677 -64.208565 87.994064 -63.229885 89.918236 -0.0011588603 146.30304
517365043.41261 -0.34532094 -175.59503 -64.581856 91.672058 -62.86536 94.242325 -0.0067308461 146.26207
517742544.35636 -0.34750554 -175.81329 -63.898338 93.496574 -62.249626 91.369705 -0.00445052 146.23793
518120045.30011 -0.35245517 -176.03761 -62.454308 90.272285 -62.705513 83.934464 -0.0066383886 146.17345
518497546.24387 -0.35536665 -176.24762 -62.037224 86.689651 -62.237038 87.733887 -0.0060006455 146.13347
518875047.18762 -0.35812482 -176.48076 -61.092293 85.99292 -63.355083 90.383194 -0.0052698115 146.0804
519252548.13137 -0.36118349 -176.69424 -63.78249 81.724762 -62.840572 92.755211 -0.0019847171 146.0321
519630049.07512 -0.36385402 -176.91812 -62.681847 90.255394 -63.407951 84.762749 0.00024611558 145.99127
520007550.01888 -0.3683047 -177.13831 -62.44783 94.830963 -61.512405 89.836418 0.0038647375 145.96452
520385050.96263 -0.37031987 -177.33154 -61.420029 83.836487 -61.901608 81.3993 0.0058742361 145.9364
520762551.90638 -0.3747071 -177.5376 -61.671535 86.348892 -61.15918 86.010025 0.0075709452 145.89799
521140052.85013 -0.37834051 -177.76964 -63.568287 89.90049 -61.178806 85.481033 0.010118704 145.86827
521517553.79388 -0.37915012 -177.97882 -62.03561 80.371689 -61.67725 83.869102 0.01002497 145.84537
521895054.73764 -0.38187876 -178.19286 -61.837673 92.867638 -61.212292 84.273628 0.0088956598 145.8309
522272555.68139 -0.38262805 -178.42458 -62.228077 76.322601 -61.567387 80.922798 0.0058524217 145.82097
522650056.62514 -0.38685215 -178.62685 -61.969879 76.113678 -61.2952 84.035728 0.0041943989 145.81024
523027557.56889 -0.38976425 -178.84555 -61.115021 76.743683 -62.20628 72.270386 0.0022063914 145.79123
523405058.51265 -0.39458632 -179.07391 -62.273228 86.200157 -63.047131 79.248749 0.00064260192 145.74611
523782559.4564 -0.39701533 -179.29034 -61.506378 85.868988 -61.50293 78.975044 -0.0017421021 145.73308
524160060.40015 -0.40372658 -179.50433 -62.002426 74.170784 -61.537598 77.120506 -0.0042998153 145.70943
524537561.3439 -0.41217506 -179.73178 -60.354145 75.582069 -60.87175 77.681526 -0.0029052275 145.67151
524915062.28766 -0.4171347 -179.95422 -62.672848 68.309097 -62.940945 72.184547 -0.0074890517 145.62219
525292563.23141 -0.42137173 179.83197 -60.771931 88.509277 -62.251865 69.34063 -0.0054208422 145.60774
525670064.17516 -0.42822137 179.61594 -60.387146 73.594849 -61.525085 70.995117 -0.0040355725 145.58481
526047565.11891 -0.43301526 179.39322 -61.895271 76.348679 -60.354595 75.771736 0.0001302106 145.53876
526425066.06267 -0.44094861 179.17972 -60.9879 73.750885 -61.394062 73.71064 0.0014520915 145.49257
526802567.00642 -0.44810766 178.96851 -63.18301 67.570946 -61.009274 81.931549 0.0039575454 145.45772
527180067.95017 -0.45434424 178.74529 -60.922466 69.645142 -61.675442 71.836952 0.0076309061 145.4436
527557568.89392 -0.46371266 178.52956 -61.650372 65.821251 -61.642456 65.255211 0.0097772628 145.42325
527935069.83767 -0.46922153 178.33383 -61.194324 79.531067 -61.219818 67.615387 0.0099236369 145.394
528312570.78143 -0.4766672 178.14098 -61.18877 66.720764 -60.806496 63.585236 0.0093794921 145.36378
528690071.72518 -0.48378205 177.93167 -60.647839 65.524689 -59.480171 67.554039 0.010335484 145.35017
529067572.66893 -0.48922679 177.72337 -61.75536 68.764534 -60.914711 61.741852 0.0099473773 145.30209
529445073.61268 -0.49338585 177.50887 -61.78545 66.87429 -61.179405 70.410172 0.0083901323 145.27184
529822574.55644 -0.49961254 177.30653 -59.357674 63.162426 -61.120205 65.740997 0.0058222264 145.26181
530200075.50019 -0.50337189 177.0863 -61.471844 62.105217 -61.132778 60.451622 0.0034816873 145.26749
530577576.44394 -0.50948465 176.87543 -60.786423 64.747269 -60.415985 69.04364 0.0015393498 145.22597
530955077.38769 -0.51439869 176.64923 -60.1735 68.854767 -60.640476 64.502388 0.0017314345 145.19475
531332578.33145 -0.52108055 176.42166 -60.293701 64.059959 -60.789337 69.147209 -0.0012923598 145.17403
531710079.2752 -0.52698445 176.22217 -61.172905 55.436623 -59.83662 69.063469 -0.0026119542 145.14259
532087580.21895 -0.53162706 176.0192 -61.313961 55.842144 -59.329277 60.143032 0.0016483534 145.11877
532465081.1627 -0.53968906 175.80074 -60.428455 63.968842 -60.150089 57.589893 -0.0027041733 145.09224
532842582.10646 -0.54400271 175.59102 -60.041801 63.857002 -60.443287 68.144127 0.0017237384 145.05978
533220083.05021 -0.54785156 175.37473 -60.198277 62.675129 -60.445026 62.568584 0.0034108881 145.02109
533597583.99396 -0.55416691 175.18913 -59.336617 66.154327 -59.358242 65.959061 0.0071979715 144.96675
533975084.93771 -0.55750024 175.00198 -59.622906 61.642521 -58.924492 53.844303 0.009216046 144.9424
534352585.88146 -0.5649302 174.79597 -58.796204 54.430977 -60.031502 58.216095 0.010208299 144.90717
534730086.82522 -0.56745201 174.61028 -59.112225 57.972733 -58.96764 57.352676 0.011389222 144.88646
535107587.76897 -0.57208741 174.42023 -58.994446 55.013237 -60.021503 55.251144 0.012884002 144.84198
535485088.71272 -0.57189524 174.22874 -59.168736 53.92852 -59.865257 55.987015 0.012818419 144.79311
535862589.65647 -0.57282978 174.02487 -59.235046 54.808453 -60.006641 51.128933 0.013058148 144.80313
536240090.60023 -0.57874322 173.82718 -59.685856 51.803406 -59.746262 54.838497 0.0099440357 144.76173
536617591.54398 -0.58052206 173.63112 -59.232304 50.115917 -59.438797 45.964115 0.0098763481 144.71553
536995092.48773 -0.58187038 173.4346 -59.362789 52.5243 -58.997414 48.50626 0.0071080993 144.68082
537372593.43148 -0.58390552 173.21953 -59.768761 50.733753 -59.531761 50.288696 0.0062760916 144.63971
537750094.37524 -0.58431357 173.039 -58.686764 47.327583 -60.220688 46.293114 -0.00048527945 144.61819
538127595.31899 -0.58379471 172.82776 -58.838833 46.191608 -59.343349 47.163494 -0.00025205073 144.58708
538505096.26274 -0.58489597 172.62112 -58.461349 43.177586 -58.719036 46.124657 0.0019392869 144.57649
538882597.20649 -0.5843963 172.42859 -59.163719 44.521381 -59.217453 45.673645 0.0058563538 144.55377
539260098.15025 -0.58568656 172.20296 -59.509304 43.900951 -59.451431 45.429897 0.0046125166 144.51506
539637599.094 -0.58261013 171.97646 -59.424953 47.893742 -59.466259 44.797203 0.0080356598 144.50156
540015100.03775 -0.58277887 171.75716 -60.891548 37.082993 -59.760521 43.244503 0.0097641684 144.48831
540392600.9815 -0.58142304 171.52609 -59.389095 40.350201 -59.809887 52.325893 0.015212836 144.46495
540770101.92525 -0.57869852 171.27228 -59.495285 45.490589 -59.829659 41.406967 0.01715238 144.45203
541147602.86901 -0.58184803 171.04636 -59.604702 46.006699 -61.139347 42.917274 0.022750059 144.4292
541525103.81276 -0.5841912 170.7971 -60.338997 42.609112 -59.506134 44.988503 0.023630489 144.40385
541902604.75651 -0.58551753 170.52948 -60.113796 38.401432 -59.926434 38.987514 0.02046524 144.37436
542280105.70026 -0.58700061 170.29694 -58.993073 41.586582 -60.987236 39.042488 0.020384289 144.341
542657606.64402 -0.58895481 170.04474 -59.751972 41.387218 -59.98378 42.873196 0.017929835 144.31448
543035107.58777 -0.5906741 169.76534 -59.263283 44.324421 -59.331738 38.772099 0.013117976 144.27768
543412608.53152 -0.5938493 169.51428 -59.965302 43.738827 -58.937687 42.244152 0.011814532 144.21915
543790109.47527 -0.59967422 169.24214 -60.031639 40.151428 -59.135944 41.513645 0.0053778975 144.16805
544167610.41903 -0.601852 168.98195 -59.66465 44.292927 -59.58157 39.511719 0.00063435629 144.12444
544545111.36278 -0.60644281 168.71198 -59.85194 42.046589 -58.834126 40.884258 -0.0050920197 144.08032
544922612.30653 -0.61189556 168.45166 -59.410442 34.934029 -59.76207 43.481194 -0.0089581106 144.0332
545300113.25028 -0.61399752 168.18864 -59.890808 41.750324 -59.324211 43.767601 -0.0076712118 144.00015
545677614.19404 -0.61950481 167.91179 -58.391563 43.886688 -59.177608 40.918228 -0.0086751021 143.9734
546055115.13779 -0.6275847 167.65294 -59.86937 43.845821 -59.57275 36.07798 -0.0089209881 143.90417
546432616.08154 -0.62904716 167.38028 -58.301697 36.441967 -58.068611 35.975613 -0.010433457 143.89738
546810117.02529 -0.63544321 167.10977 -58.867504 41.295158 -58.653458 34.435345 -0.0050651459 143.86661
547187617.96904 -0.64393783 166.82967 -58.617371 39.35268 -58.533501 37.847694 -0.0030187713 143.83803
547565118.9128 -0.65089327 166.57036 -58.549122 41.563362 -58.964458 37.135418 0.00036166393 143.81566
547942619.85655 -0.66101056 166.3006 -58.515926 36.58609 -59.347641 36.001587 0.0029655031 143.76839
548320120.8003 -0.66824424 166.02345 -58.179932 31.300032 -59.110382 41.000843 0.0063233194 143.74962
548697621.74405 -0.67875081 165.75882 -58.968983 40.763695 -58.637672 38.85181 0.0080373334 143.72275
549075122.68781 -0.6916489 165.51694 -58.081112 33.603039 -58.680107 35.946571 0.0049044238 143.68829
549452623.63156 -0.70268559 165.27509 -58.048042 31.203453 -58.248341 35.145248 0.0067276102 143.66298
549830124.57531 -0.71351558 165.03589 -58.88232 32.133701 -57.938679 35.646061 0.0055021164 143.62021
550207625.51906 -0.72373569 164.81357 -58.165524 38.814705 -57.037285 36.655743 0.00036962886 143.57092
550585126.46282 -0.73313433 164.59265 -59.013412 25.219635 -57.214123 33.034035 -0.0041844989 143.53532
550962627.40657 -0.74317563 164.36517 -58.481453 32.325203 -57.758316 31.674828 -0.0059764329 143.49101
551340128.35032 -0.75184548 164.15645 -57.456875 28.465111 -58.124783 28.365517 -0.010428975 143.44891
551717629.29407 -0.75955284 163.93205 -57.384289 29.04052 -57.739765 25.836103 -0.010933369 143.40277
552095130.23783 -0.76881874 163.73042 -57.563133 32.392319 -57.356838 28.891264 -0.011415098 143.35776
552472631.18158 -0.775433 163.50951 -58.207008 27.04015 -57.284065 23.412281 -0.013075397 143.33281
552850132.12533 -0.78026503 163.31203 -57.86911 25.585608 -57.654873 23.909893 -0.010422481 143.28157
553227633.06908 -0.7829054 163.07301 -57.762878 25.324909 -57.610924 25.584455 -0.0075843921 143.2666
553605134.01284 -0.79062796 162.84862 -57.398174 24.562141 -57.920135 23.012775 -0.0026327721 143.23413
553982634.95659 -0.79454678 162.60075 -58.239712 21.608053 -58.06459 26.537046 0.0026449128 143.24297
554360135.90034 -0.79929894 162.35396 -58.784512 26.70611 -57.89045 21.269609 0.011006766 143.24155
554737636.84409 -0.80853796 162.10274 -56.804237 22.188215 -57.199032 18.362616 0.017458122 143.23674
555115137.78784 -0.81430161 161.83838 -57.084831 25.098021 -58.080341 24.872166 0.024283089 143.23572
555492638.7316 -0.82335538 161.57523 -57.459251 22.858051 -57.339039 21.83876 0.031010797 143.21732
555870139.67535 -0.83340716 161.31723 -57.271076 21.997875 -57.25362 24.734182 0.031209627 143.23706
556247640.6191 -0.84201133 161.07634 -56.93792 23.060381 -56.467892 21.347288 0.036981005 143.22369
556625141.56285 -0.854258 160.81693 -57.403755 24.665432 -56.411407 20.546581 0.033963531 143.21803
557002642.50661 -0.86246485 160.58165 -56.520512 22.674831 -56.985447 22.787764 0.031056007 143.18436
557380143.45036 -0.87349439 160.33601 -56.69511 14.727163 -56.044762 16.103142 0.02720068 143.16951
557757644.39411 -0.88304347 160.09781 -57.383816 20.698292 -57.074974 15.443207 0.022900464 143.14124
558135145.33786 -0.89402825 159.87015 -56.612888 17.393843 -56.707092 18.705997 0.017222499 143.07388
558512646.28162 -0.90724134 159.62717 -57.090401 14.24822 -57.269459 11.766749 0.0088694673 143.0482
558890147.22537 -0.91339415 159.3949 -57.493923 10.835176 -56.492031 15.093551 0.0048808195 142.98833
559267648.16912 -0.92234743 159.1665 -56.933716 15.867124 -56.42984 8.0157108 0.00011279029 142.95532
559645149.11287 -0.93132573 158.93982 -56.396519 11.560401 -56.443356 12.28554 -0.0025043248 142.86922
560022650.05663 -0.9415217 158.70036 -56.359898 9.3228588 -56.507183 13.877328 -0.00031775516 142.83319
560400151.00038 -0.9479934 158.4736 -56.730038 13.852242 -56.987911 11.960412 0.0033295187 142.79076
560777651.94413 -0.95607418 158.27301 -56.233574 15.365709 -56.975723 9.5220108 0.0041880431 142.74815
561155152.88788 -0.96509957 158.03625 -56.38797 9.6735601 -56.825226 5.0988851 0.0065072281 142.72391
561532653.83163 -0.97019571 157.83327 -56.019772 8.5047779 -56.432076 7.3726149 0.015021707 142.69659
561910154.77539 -0.97679245 157.61536 -56.877529 11.591988 -56.509636 7.2915139 0.016987326 142.68715
562287655.71914 -0.98008066 157.39218 -56.229809 3.9829075 -56.58305 8.0106688 0.023780629 142.67635
562665156.66289 -0.9860909 157.16 -56.198425 6.8494835 -57.016331 8.2542515 0.027834274 142.6662
563042657.60664 -0.98758942 156.94778 -56.041042 8.4264431 -56.813576 7.7442164 0.02922504 142.66415
563420158.5504 -0.99331641 156.73737 -56.165314 5.420783 -56.589649 7.1329231 0.031523261 142.64027
563797659.49415 -0.99568903 156.5215 -57.172405 4.6969638 -55.678688 6.2795544 0.031034524 142.62529
564175160.4379 -0.99583185 156.30589 -56.969509 7.0506587 -56.082787 5.8871589 0.025551839 142.62152
564552661.38165 -0.99899161 156.071 -55.885757 6.1675363 -56.31144 2.4846277 0.02049513 142.59886
564930162.32541 -1.0007046 155.85948 -56.453732 1.9143887 -56.926964 2.6576526 0.016370591 142.54944
565307663.26916 -0.99658167 155.62364 -56.304947 2.2641945 -56.254086 4.9324236 0.010289205 142.52211
565685164.21291 -0.99557686 155.37093 -55.851376 0.19879436 -56.133041 1.7549838 0.002883947 142.45065
566062665.15666 -0.99162787 155.11411 -55.992298 0.29846054 -56.295647 1.074657 -0.003262308 142.38557
566440166.10042 -0.99063903 154.84303 -57.405396 -0.65474612 -55.733131 -0.29842347 -0.0056258296 142.36069
566817667.04417 -0.99027729 154.54826 -56.183521 1.8737073 -56.258709 0.33456817 -0.010110904 142.29324
567195167.98792 -0.99322993 154.26213 -56.478668 -4.0414677 -56.729378 -1.0168238 -0.010287222 142.21956
567572668.93167 -0.99540251 153.95294 -56.751965 -2.0419459 -56.339973 -5.5245075 -0.0093794316 142.16637
567950169.87542 -1.0012211 153.64726 -56.021793 3.5827672 -56.743736 0.4402321 -0.0061230497 142.13548
568327670.81918 -1.0069127 153.35239 -56.243538 1.7863377 -56.017715 -2.6507664 -0.001640849 142.10175
568705171.76293 -1.014671 153.056 -56.442734 1.303076 -56.690392 -1.7091421 0.0060624843 142.05579
569082672.70668 -1.020859 152.77634 -56.252098 1.4952339 -55.834827 -2.7144337 0.010717168 142.02599
569460173.65043 -1.0282543 152.4695 -55.763577 -3.7698441 -56.152016 -1.0548539 0.014251892 142.01653
569837674.59419 -1.0343571 152.18004 -56.394592 -6.4379215 -55.800472 -1.1112391 0.014222481 141.9847
570215175.53794 -1.0453238 151.87868 -55.240486 -1.2535387 -56.08313 -1.7025516 0.020077549 141.97873
570592676.48169 -1.0537642 151.56456 -55.313957 -4.083189 -55.377934 -1.6193424 0.020011118 141.96417
570970177.42544 -1.0627261 151.25558 -55.700378 -6.2878571 -55.467758 -4.5592532 0.021942858 141.94859
571347678.3692 -1.0720303 150.95648 -55.51384 -2.9125097 -55.260769 -4.3058152 0.016831527 141.94202
571725179.31295 -1.0852979 150.63731 -55.178307 -7.75067 -55.234257 -4.5621028 0.014329212 141.89307
572102680.2567 -1.0974623 150.33952 -55.279636 -8.0212727 -54.794991 -7.2074351 0.010809571 141.88103
