!Keysight Technologies,N5242B,MY48420860,A.13.80.08
!Date: Saturday, September 26, 2020 12:31:33
!Correction: S11(Full 2 Port(1,2)) 
!S21(Full 2 Port(1,2)) 
!S12(Full 2 Port(1,2)) 
!S22(Full 2 Port(1,2)) 
!S2P File: Measurements: S11, S21, S12, S22:
# Hz S  dB   R 50
500000000 -0.24266064 -166.20747 -63.254753 43.519901 -64.427467 47.711395 0.027669031 147.69394
500377500.94375 -0.24533233 -166.40028 -63.021324 37.134109 -64.310143 44.175419 0.030342411 147.67461
500755001.8875 -0.24920274 -166.59326 -65.255913 49.28672 -64.229645 32.496635 0.028611491 147.67409
501132502.83126 -0.25213951 -166.80846 -64.385376 38.382328 -65.618797 38.747559 0.025962949 147.6799
501510003.77501 -0.25418004 -167.00749 -64.680222 32.942303 -63.156124 46.644405 0.027291825 147.67624
501887504.71876 -0.25775957 -167.19403 -63.893097 31.859779 -63.238567 40.724056 0.025706597 147.68018
502265005.66251 -0.26035431 -167.39859 -65.058952 37.050762 -62.19698 42.999676 0.024829214 147.65114
502642506.60627 -0.26417208 -167.61244 -62.893082 33.158375 -64.04248 47.01461 0.022071809 147.62051
503020007.55002 -0.26549187 -167.79749 -63.136398 38.967949 -62.571106 40.90406 0.020380296 147.58904
503397508.49377 -0.27121475 -167.9915 -63.058495 32.059834 -62.818542 41.973511 0.018770942 147.53113
503775009.43752 -0.27398658 -168.20158 -63.396053 27.949085 -62.709057 32.272007 0.015426761 147.47737
504152510.38128 -0.27742136 -168.39171 -63.712444 35.089661 -64.19178 41.178806 0.018101349 147.44139
504530011.32503 -0.27852485 -168.57404 -63.343811 30.667841 -63.399277 45.055508 0.020737471 147.403
504907512.26878 -0.28117466 -168.75824 -63.995354 32.90155 -63.286957 28.148151 0.022081316 147.35075
505285013.21253 -0.28296363 -168.95123 -63.164513 31.801689 -65.851845 37.377998 0.024458341 147.33467
505662514.15629 -0.28525504 -169.13167 -64.110001 39.519203 -63.239983 36.921543 0.028761985 147.29889
506040015.10004 -0.28442392 -169.30565 -64.805153 37.407608 -62.454884 35.867561 0.029792644 147.24451
506417516.04379 -0.28753257 -169.51495 -64.861778 23.401606 -63.195717 31.883125 0.033197209 147.25803
506795016.98754 -0.28164959 -169.68799 -62.796009 28.982828 -63.301075 26.972603 0.039212268 147.24742
507172517.93129 -0.28260654 -169.8674 -62.817074 27.954414 -63.276382 28.658051 0.036336694 147.23026
507550018.87505 -0.28349733 -170.07761 -62.949959 35.467155 -64.362724 31.394596 0.040839016 147.23692
507927519.8188 -0.28076088 -170.28516 -64.226936 37.706741 -62.914215 31.141371 0.040590417 147.23709
508305020.76255 -0.28192616 -170.46468 -64.164413 36.852852 -62.657536 25.889385 0.039377887 147.22481
508682521.7063 -0.27990645 -170.67145 -64.98864 26.899555 -62.428059 26.471554 0.03534187 147.2339
509060022.65006 -0.27967024 -170.88429 -61.5135 33.585384 -63.860741 34.103436 0.035070617 147.18901
509437523.59381 -0.27732345 -171.0744 -64.196655 22.431637 -62.680923 30.057228 0.030117335 147.18787
509815024.53756 -0.28019583 -171.27425 -62.855686 26.675171 -63.140656 21.215706 0.025985435 147.16939
510192525.48131 -0.27934787 -171.48216 -64.232796 26.840055 -62.266479 33.637936 0.0216476 147.11523
510570026.42507 -0.2821852 -171.68082 -63.482262 29.786757 -61.909435 26.888651 0.018311543 147.06366
510947527.36882 -0.28333694 -171.89156 -62.969627 38.176563 -63.490395 41.98431 0.018351953 147.01273
511325028.31257 -0.28313574 -172.10396 -63.275871 28.577105 -64.042793 29.07486 0.012368932 146.946
511702529.25632 -0.28549701 -172.3112 -62.367416 29.728321 -62.689838 33.080914 0.01067001 146.89032
512080030.20008 -0.28647923 -172.51192 -63.846676 26.619114 -61.869366 28.170958 0.010158542 146.82562
512457531.14383 -0.28972343 -172.72511 -62.624668 25.895264 -62.352268 28.968321 0.014993622 146.76315
512835032.08758 -0.29107583 -172.93916 -62.558121 21.127771 -62.993904 24.3221 0.014129639 146.72235
513212533.03133 -0.29396468 -173.15504 -63.395786 36.148529 -62.92564 24.512766 0.015344292 146.67487
513590033.97508 -0.29702345 -173.36917 -61.817867 24.412094 -62.063976 25.502474 0.022317167 146.63512
513967534.91884 -0.30079082 -173.57722 -62.051861 29.596617 -62.484745 30.844513 0.022904411 146.59261
514345035.86259 -0.30532345 -173.79036 -61.476212 28.79879 -61.272369 24.973831 0.027358769 146.58876
514722536.80634 -0.30646688 -173.99376 -62.19545 26.741474 -62.272648 31.363819 0.032679416 146.60431
515100037.75009 -0.30881792 -174.21497 -61.502197 32.35498 -62.294228 15.624952 0.033546075 146.58388
515477538.69385 -0.31043392 -174.41403 -61.724365 22.327065 -61.018795 25.823442 0.032958925 146.5976
515855039.6376 -0.31380588 -174.6281 -60.630817 21.227287 -62.035835 25.226166 0.034861907 146.59865
516232540.58135 -0.31607339 -174.86594 -60.916718 21.996367 -61.347027 16.892881 0.032811999 146.59512
516610041.5251 -0.31834784 -175.06129 -60.386745 9.9956999 -61.213116 20.04257 0.033921245 146.58168
516987542.46886 -0.31988502 -175.29234 -61.947968 23.50659 -60.702381 20.941113 0.034014653 146.56036
517365043.41261 -0.32041687 -175.50966 -60.774803 20.312748 -60.092381 22.439655 0.027442914 146.54993
517742544.35636 -0.32350299 -175.73067 -61.347412 16.383595 -60.364265 15.602483 0.03098911 146.535
518120045.30011 -0.32767984 -175.95374 -60.306465 20.333227 -62.188385 16.300493 0.024247641 146.47614
518497546.24387 -0.33122018 -176.15976 -60.370827 14.554783 -59.588818 12.466385 0.023982067 146.43018
518875047.18762 -0.33413351 -176.39969 -61.144844 22.16334 -60.230034 15.657961 0.022066412 146.38914
519252548.13137 -0.33676863 -176.61024 -60.419186 16.234404 -60.131714 10.353737 0.022312248 146.33179
519630049.07512 -0.337513 -176.83246 -60.877087 15.787098 -59.976978 20.529037 0.020689681 146.27048
520007550.01888 -0.34321263 -177.03992 -60.906025 21.8869 -60.528351 12.459325 0.022809206 146.22203
520385050.96263 -0.34329727 -177.24811 -59.70401 13.939687 -60.967632 11.895185 0.024949718 146.18185
520762551.90638 -0.34656721 -177.466 -59.830509 10.130776 -60.424408 16.505016 0.026372852 146.13647
521140052.85013 -0.34886804 -177.68068 -60.436443 17.606426 -60.022015 11.396907 0.030507417 146.0896
521517553.79388 -0.34969646 -177.91064 -60.135059 6.6328363 -60.365707 4.624661 0.03217981 146.06874
521895054.73764 -0.35099775 -178.13626 -59.656166 10.582615 -60.251278 13.63037 0.033385213 146.05217
522272555.68139 -0.35376447 -178.34998 -59.865543 4.3043876 -61.01622 13.915392 0.034535699 146.03679
522650056.62514 -0.35471323 -178.55107 -59.421124 9.0677853 -59.768147 11.777642 0.037151054 146.03358
523027557.56889 -0.36052427 -178.77507 -59.825321 6.5333176 -59.85535 7.0334349 0.037543621 146.03502
523405058.51265 -0.36513314 -179.00984 -59.805092 8.1939087 -58.740795 10.225739 0.037877921 146.02229
523782559.4564 -0.36797968 -179.22792 -59.243298 7.0392108 -59.451756 10.693169 0.037922285 146.01335
524160060.40015 -0.37337178 -179.43512 -59.69495 4.2216501 -59.552082 8.8011589 0.031998605 146.01302
524537561.3439 -0.38086545 -179.65587 -59.434689 6.2181859 -59.743496 4.0025349 0.032891642 146.00552
524915062.28766 -0.38375062 -179.88959 -59.953308 1.9144814 -60.364182 11.494973 0.027459413 145.9574
525292563.23141 -0.38992822 179.90047 -60.141335 -3.235193 -59.492046 6.6677113 0.025796348 145.96272
525670064.17516 -0.39486966 179.67358 -59.27795 7.7810497 -58.31591 6.4544516 0.024876606 145.92628
526047565.11891 -0.39947793 179.46483 -58.763073 7.1581125 -58.012947 2.3948796 0.023429658 145.86855
526425066.06267 -0.40786719 179.24751 -58.538105 2.3431549 -59.614033 3.613708 0.022088243 145.80829
526802567.00642 -0.41548464 179.03484 -59.612015 2.4726954 -58.701237 3.0339184 0.019471319 145.75459
527180067.95017 -0.42057672 178.80943 -59.377327 -1.5037571 -58.084496 -4.2429347 0.019849472 145.71121
527557568.89392 -0.42949632 178.59865 -58.914455 2.9770572 -59.556705 -5.9184976 0.019580562 145.66212
527935069.83767 -0.43372613 178.4037 -57.985317 -2.2004278 -58.601738 -1.6609632 0.019621564 145.60988
528312570.78143 -0.438573 178.19424 -58.686478 -5.6726527 -58.882278 -3.5309978 0.020349367 145.54776
528690071.72518 -0.44615236 177.99025 -58.985451 -13.500539 -58.541733 -8.6238518 0.022524567 145.51413
529067572.66893 -0.45158988 177.78508 -58.527588 -4.2428102 -58.857452 -3.2427213 0.023725575 145.45946
529445073.61268 -0.45300314 177.57277 -58.405239 -8.5208941 -58.887646 -9.7355595 0.024504971 145.43359
529822574.55644 -0.45655552 177.35735 -57.603802 -9.3261051 -58.913872 -5.4127097 0.025488997 145.42732
530200075.50019 -0.46131429 177.14104 -58.975563 -7.5593281 -59.544487 -9.4314051 0.026639009 145.42389
530577576.44394 -0.46619743 176.92236 -58.537388 -7.8993392 -57.783871 -7.4746833 0.025817383 145.39545
530955077.38769 -0.46868449 176.69997 -58.014393 -8.2631559 -58.369251 -11.152291 0.026190549 145.38963
531332578.33145 -0.47266391 176.46985 -58.658344 -11.479123 -58.420078 -11.929258 0.025232034 145.40334
531710079.2752 -0.47619545 176.23616 -58.060455 -12.104646 -58.282742 -9.6492367 0.023366032 145.40257
532087580.21895 -0.47897741 176.02551 -57.879135 -9.0387373 -58.931183 -9.9444399 0.026209418 145.37941
532465081.1627 -0.48531675 175.79648 -58.221085 -15.192765 -58.036636 -14.160437 0.021110807 145.36765
532842582.10646 -0.48950499 175.56232 -58.716045 -10.675873 -57.902626 -17.38294 0.021638328 145.3515
533220083.05021 -0.49136695 175.3416 -57.846436 -11.568213 -57.807892 -18.900805 0.020171318 145.30418
533597583.99396 -0.49773341 175.12811 -58.274181 -18.663824 -58.802277 -13.69031 0.017600691 145.24797
533975084.93771 -0.5001694 174.91299 -58.227821 -15.649693 -58.648365 -17.488798 0.017958019 145.20247
534352585.88146 -0.50369483 174.69293 -57.757603 -17.319042 -58.770588 -16.128635 0.017383305 145.16231
534730086.82522 -0.50878257 174.47321 -57.491161 -13.212882 -58.59164 -16.386154 0.017187478 145.11546
535107587.76897 -0.51174086 174.27901 -57.546875 -20.493427 -58.557533 -17.464579 0.019700207 145.04591
535485088.71272 -0.51376432 174.0439 -57.926788 -16.391113 -58.757141 -16.005608 0.021352315 144.9828
535862589.65647 -0.51608992 173.83018 -58.791557 -14.671974 -59.023521 -16.664959 0.024041707 144.95805
536240090.60023 -0.52198642 173.61192 -58.21014 -15.388101 -58.923717 -22.077864 0.023682974 144.89665
536617591.54398 -0.52443546 173.40004 -57.62331 -15.438111 -58.531445 -19.189434 0.028635157 144.87454
536995092.48773 -0.528584 173.19177 -57.127201 -18.832354 -57.545319 -21.452822 0.026344927 144.83455
537372593.43148 -0.5326826 172.97287 -57.947674 -19.949877 -58.988426 -20.898054 0.032117501 144.8252
537750094.37524 -0.53519934 172.77922 -57.434025 -16.202829 -58.682652 -17.2904 0.029444486 144.81679
538127595.31899 -0.53921181 172.55719 -57.168629 -23.309517 -58.122601 -18.641062 0.031228911 144.80882
538505096.26274 -0.54194826 172.33684 -57.641426 -18.510744 -58.344242 -24.327747 0.035785049 144.82053
538882597.20649 -0.54337233 172.14133 -58.417877 -25.456736 -57.628254 -26.000031 0.040576857 144.81773
539260098.15025 -0.54584175 171.90622 -58.676071 -26.399343 -58.747135 -25.538944 0.037268203 144.81647
539637599.094 -0.54642665 171.69644 -57.750481 -23.831821 -57.972786 -22.360159 0.042100154 144.82242
540015100.03775 -0.54789084 171.46573 -58.457985 -22.624628 -58.256195 -20.733774 0.039960947 144.82684
540392600.9815 -0.54857397 171.24472 -57.879517 -26.49074 -58.330898 -22.729521 0.040714461 144.80667
540770101.92525 -0.54667908 170.98621 -58.071445 -27.620676 -58.489056 -21.935553 0.040106736 144.79559
541147602.86901 -0.54894644 170.75571 -57.541336 -28.469181 -58.281685 -25.880589 0.040497787 144.7675
541525103.81276 -0.55246758 170.50237 -57.851967 -28.962683 -58.047199 -28.334953 0.040664334 144.72903
541902604.75651 -0.55278325 170.24419 -57.334675 -25.689529 -57.844357 -27.217442 0.036381319 144.68391
542280105.70026 -0.556705 169.98524 -57.879028 -26.902828 -58.359867 -24.675758 0.036807109 144.62837
542657606.64402 -0.55846101 169.73235 -57.103161 -25.250275 -57.915119 -26.130787 0.033693757 144.58206
543035107.58777 -0.55985355 169.44458 -58.753044 -28.109325 -57.42823 -22.353851 0.029705571 144.52335
543412608.53152 -0.56555289 169.19316 -57.251957 -22.643827 -57.976345 -18.60092 0.028199978 144.46893
543790109.47527 -0.57094651 168.91008 -57.727058 -26.744164 -57.846638 -21.735964 0.028767845 144.39616
544167610.41903 -0.57427597 168.64687 -56.856636 -25.909552 -57.137249 -30.465782 0.024883606 144.34106
544545111.36278 -0.57792366 168.36656 -57.383606 -25.675396 -56.649143 -25.756268 0.023682822 144.29175
544922612.30653 -0.58684111 168.10295 -56.704304 -26.849564 -57.350311 -25.210632 0.021767367 144.26823
545300113.25028 -0.59048039 167.81946 -57.238598 -29.340044 -56.678047 -30.447304 0.025364129 144.24237
545677614.19404 -0.59547168 167.54774 -57.019047 -30.366486 -56.774124 -27.790184 0.023912245 144.23087
546055115.13779 -0.60245943 167.27965 -56.817009 -28.88847 -56.385933 -29.239429 0.025040004 144.19432
546432616.08154 -0.60705334 166.99393 -57.696892 -33.182034 -57.297436 -31.233103 0.022985496 144.20297
546810117.02529 -0.61392272 166.70584 -56.409359 -32.184704 -56.462299 -34.44968 0.025885884 144.18723
547187617.96904 -0.62228388 166.41457 -56.386158 -35.83223 -56.514977 -32.263851 0.02588529 144.17781
547565118.9128 -0.62964356 166.15991 -56.345581 -34.328079 -56.584942 -32.566555 0.027104966 144.145
547942619.85655 -0.64242023 165.8575 -56.837753 -32.911419 -56.220882 -33.919312 0.027182544 144.11537
548320120.8003 -0.65222871 165.58971 -56.373734 -34.377155 -56.653423 -33.640659 0.027010933 144.08441
548697621.74405 -0.66310495 165.30011 -56.830887 -35.105465 -55.69117 -29.762638 0.026099991 144.05408
549075122.68781 -0.67684674 165.05632 -56.452602 -30.457983 -56.158134 -33.467987 0.022027412 144.01514
549452623.63156 -0.69189209 164.80821 -55.711647 -30.561737 -56.667038 -31.356668 0.022340072 143.95552
549830124.57531 -0.70298123 164.55885 -56.292854 -33.353947 -55.494652 -35.581181 0.019264119 143.88771
550207625.51906 -0.71536648 164.31818 -55.817173 -31.357874 -55.980305 -33.74181 0.015777489 143.81815
550585126.46282 -0.72788531 164.09535 -56.022804 -34.333599 -55.892117 -36.122673 0.01226639 143.7766
550962627.40657 -0.74006867 163.85828 -55.8391 -36.471771 -55.529747 -38.209961 0.010691965 143.71477
551340128.35032 -0.75281024 163.65096 -55.970192 -40.801769 -55.711899 -41.648388 0.0083140554 143.65222
551717629.29407 -0.76089501 163.40839 -55.26083 -37.512623 -55.503929 -40.615314 0.009832615 143.62325
552095130.23783 -0.77331024 163.20633 -55.470188 -40.018391 -55.704945 -40.386578 0.012448993 143.56612
552472631.18158 -0.7836467 162.97749 -55.856785 -41.572174 -55.643448 -37.161621 0.011511637 143.53157
552850132.12533 -0.79103941 162.75748 -55.923679 -40.655792 -55.237415 -41.303158 0.0151349 143.50723
553227633.06908 -0.79517192 162.52692 -55.284134 -40.393463 -54.921608 -41.968636 0.019038429 143.48502
553605134.01284 -0.80520576 162.30368 -54.58567 -42.750645 -55.155762 -41.007233 0.0229419 143.48833
553982634.95659 -0.81403577 162.04639 -54.856022 -41.567478 -55.099163 -40.736923 0.028093461 143.50595
554360135.90034 -0.82205468 161.81284 -55.187782 -43.005669 -54.848541 -43.153923 0.033411626 143.50549
554737636.84409 -0.83260417 161.56422 -54.59824 -48.30965 -54.917927 -41.760254 0.038750656 143.51506
555115137.78784 -0.84402514 161.29089 -54.828964 -41.429543 -54.731102 -46.002293 0.043911166 143.52312
555492638.7316 -0.85600126 161.02515 -54.784428 -40.901012 -54.779354 -41.981743 0.046806026 143.50053
555870139.67535 -0.86936104 160.78781 -54.158882 -44.399223 -54.519756 -47.398651 0.047852814 143.52777
556247640.6191 -0.88306117 160.54495 -54.114231 -45.562721 -54.441479 -43.300274 0.051468611 143.49605
556625141.56285 -0.89931619 160.29306 -54.761021 -46.7356 -54.477612 -48.038792 0.049300928 143.47455
557002642.50661 -0.91066641 160.06467 -54.272274 -49.031307 -53.876873 -43.987782 0.047275275 143.44812
557380143.45036 -0.92595458 159.83839 -54.068119 -47.031876 -54.317005 -47.197273 0.044111837 143.41377
557757644.39411 -0.9385621 159.60945 -53.72784 -52.053284 -53.805508 -50.985271 0.041285336 143.38179
558135145.33786 -0.95134985 159.39818 -54.196583 -48.561363 -53.811611 -51.354809 0.035714794 143.30653
558512646.28162 -0.96500194 159.16908 -53.603558 -51.657047 -54.124317 -49.957405 0.032595783 143.27388
558890147.22537 -0.9749465 158.96143 -53.026417 -54.867672 -53.92321 -54.780933 0.027751002 143.22258
559267648.16912 -0.98738909 158.76439 -53.718216 -58.289551 -53.449608 -55.214725 0.026392443 143.17062
559645149.11287 -0.99670285 158.55107 -53.307373 -56.791878 -53.301186 -55.58392 0.025648098 143.11076
560022650.05663 -1.0060371 158.34622 -53.207066 -56.44883 -53.272308 -54.965382 0.02402997 143.07384
560400151.00038 -1.0147486 158.12692 -53.515755 -58.982979 -53.13596 -57.803932 0.028725326 143.03746
560777651.94413 -1.0209994 157.94006 -52.654175 -54.630005 -53.515682 -60.086117 0.028912518 143.00005
561155152.88788 -1.0285245 157.71466 -53.007725 -58.732525 -52.676575 -60.33968 0.03140229 142.98524
561532653.83163 -1.0331758 157.53745 -53.087212 -58.295952 -52.800938 -65.25618 0.037052665 142.94931
561910154.77539 -1.0385063 157.31799 -52.741573 -61.143417 -52.869148 -63.169769 0.039046727 142.94896
562287655.71914 -1.0426894 157.11229 -52.824184 -65.273346 -52.502434 -64.806015 0.041064132 142.94481
562665156.66289 -1.0485322 156.89594 -52.623951 -60.658421 -52.767914 -66.179756 0.045877196 142.93158
563042657.60664 -1.0480554 156.68147 -52.97995 -64.763908 -52.697811 -66.03553 0.045482729 142.93849
563420158.5504 -1.0506996 156.45555 -53.226089 -65.875328 -52.700283 -68.35511 0.048514415 142.91606
563797659.49415 -1.0542585 156.24377 -52.906601 -69.885941 -52.90295 -69.386925 0.045165494 142.89108
564175160.4379 -1.053955 156.02501 -52.980301 -71.445053 -52.939659 -74.353683 0.042489 142.88712
564552661.38165 -1.0566695 155.78973 -52.9636 -72.384789 -53.007992 -71.415451 0.035551772 142.86533
564930162.32541 -1.0590378 155.5528 -53.262711 -74.134453 -52.769848 -72.323715 0.03175009 142.81204
565307663.26916 -1.0588664 155.31673 -53.030987 -72.774475 -53.109516 -76.597054 0.030906726 142.76257
565685164.21291 -1.0581118 155.04958 -53.380764 -74.179634 -52.783005 -72.768707 0.022431923 142.68968
566062665.15666 -1.055812 154.7861 -53.512688 -74.295364 -53.260086 -73.762604 0.019105818 142.63583
566440166.10042 -1.0575244 154.52486 -53.558357 -71.157234 -53.712841 -77.202576 0.014531914 142.59958
566817667.04417 -1.0580499 154.21854 -53.223927 -75.787231 -53.29842 -73.421761 0.012922387 142.53123
567195167.98792 -1.0643934 153.92838 -53.453316 -76.675423 -53.063923 -75.289146 0.012040895 142.46584
567572668.93167 -1.0675077 153.64488 -53.712605 -72.374352 -53.692348 -72.666016 0.011929504 142.40514
567950169.87542 -1.0746553 153.33571 -53.623947 -74.582451 -53.650494 -76.610199 0.012872408 142.3717
568327670.81918 -1.0831664 153.05069 -53.566288 -74.484016 -53.525845 -74.553551 0.01969259 142.32634
568705171.76293 -1.0906422 152.75388 -53.196136 -75.894913 -53.582176 -76.832222 0.028329451 142.28207
569082672.70668 -1.0979412 152.46066 -53.33815 -73.696983 -52.656891 -74.798225 0.030725453 142.27274
569460173.65043 -1.1097881 152.16122 -52.907658 -72.127029 -53.084408 -75.093048 0.037168052 142.25655
569837674.59419 -1.1157285 151.86671 -53.10323 -72.822311 -53.148075 -77.132072 0.037661657 142.24422
570215175.53794 -1.1272428 151.54793 -52.864365 -74.388428 -52.881386 -77.599907 0.045005683 142.24649
570592676.48169 -1.1372514 151.21835 -52.733547 -78.617271 -52.680225 -77.817131 0.047688071 142.23105
570970177.42544 -1.1508278 150.89314 -52.638924 -77.988228 -52.659252 -81.40448 0.047977753 142.23985
571347678.3692 -1.1662203 150.57628 -52.324478 -77.910416 -52.753159 -76.466591 0.046588335 142.23134
571725179.31295 -1.1825194 150.26357 -52.391941 -79.108513 -52.701305 -78.392647 0.04589165 142.21132
572102680.2567 -1.1993145 149.95964 -52.292252 -80.734283 -52.555569 -79.217957 0.043839585 142.21968
