!Keysight Technologies,N5242B,MY48420860,A.13.80.08
!Date: Saturday, September 26, 2020 12:37:31
!Correction: S11(Full 2 Port(1,2)) 
!S21(Full 2 Port(1,2)) 
!S12(Full 2 Port(1,2)) 
!S22(Full 2 Port(1,2)) 
!S2P File: Measurements: S11, S21, S12, S22:
# Hz S  dB   R 50
500000000 -0.23441924 -166.24742 -64.320618 -52.805363 -63.250027 -45.48946 0.028414246 147.55861
500377500.94375 -0.23664664 -166.45277 -64.056053 -51.291447 -62.976765 -48.573296 0.028484382 147.57706
500755001.8875 -0.24187301 -166.64706 -64.377579 -47.346893 -63.842834 -51.239117 0.025097055 147.6001
501132502.83126 -0.24550664 -166.85634 -62.345985 -48.350079 -62.229977 -52.572071 0.01692781 147.5984
501510003.77501 -0.24701156 -167.06602 -63.804031 -45.319576 -63.22868 -50.919941 0.010895712 147.59026
501887504.71876 -0.25176609 -167.25665 -63.723389 -44.14489 -62.064713 -56.336277 0.0018870183 147.58658
502265005.66251 -0.25238878 -167.47089 -62.966225 -46.207371 -61.804832 -58.22953 -0.006245235 147.51871
502642506.60627 -0.2571345 -167.67798 -63.551044 -62.943535 -62.183575 -54.833813 -0.013942766 147.45805
503020007.55002 -0.2589865 -167.88348 -63.57785 -58.357533 -62.055027 -53.726658 -0.020516129 147.41206
503397508.49377 -0.26462293 -168.08086 -63.051388 -52.522026 -62.559093 -62.345695 -0.021825317 147.3262
503775009.43752 -0.26801887 -168.27109 -60.543163 -61.480438 -63.678017 -55.611973 -0.024444494 147.25583
504152510.38128 -0.270006 -168.47621 -62.459976 -45.68026 -63.197975 -57.45512 -0.018021036 147.19621
504530011.32503 -0.27395448 -168.66478 -62.586792 -53.104118 -62.423607 -58.062851 -0.0097692786 147.13103
504907512.26878 -0.27685723 -168.85115 -62.143829 -53.691143 -62.481899 -56.69968 -0.0013611538 147.08542
505285013.21253 -0.27780131 -169.0312 -61.687317 -60.075901 -61.325642 -60.131306 0.0088343248 147.08693
505662514.15629 -0.27868935 -169.22986 -61.589104 -62.466854 -62.192654 -66.680206 0.020148505 147.06577
506040015.10004 -0.28077233 -169.4035 -61.605145 -69.341896 -61.017548 -70.409256 0.025119834 147.05023
506417516.04379 -0.28453127 -169.59851 -61.815624 -67.459702 -61.697899 -61.240261 0.031102676 147.08113
506795016.98754 -0.27794269 -169.78357 -61.813267 -63.386333 -63.296043 -57.892841 0.041702703 147.09363
507172517.93129 -0.27933887 -169.9761 -62.629253 -77.116013 -61.748428 -68.089561 0.040842842 147.12178
507550018.87505 -0.27814269 -170.18427 -63.341614 -71.947899 -61.896336 -74.293266 0.040317122 147.1515
507927519.8188 -0.27860147 -170.38573 -62.879944 -63.97345 -62.720387 -63.936596 0.033902269 147.15373
508305020.76255 -0.27929732 -170.57341 -61.841633 -70.081001 -62.594337 -66.00341 0.028403286 147.1554
508682521.7063 -0.27791256 -170.79065 -61.783211 -67.319908 -60.64043 -74.706772 0.016166024 147.15106
509060022.65006 -0.27762365 -170.99187 -62.266579 -75.901176 -61.438465 -71.3489 0.012355494 147.09241
509437523.59381 -0.27670774 -171.17836 -62.760788 -67.331108 -63.43528 -77.065636 -1.6616724e-006 147.07018
509815024.53756 -0.27984726 -171.38974 -62.20163 -76.349556 -62.717533 -68.470459 -0.0080512315 147.01172
510192525.48131 -0.27803117 -171.59615 -61.535133 -77.951675 -60.635307 -74.924652 -0.018209925 146.93474
510570026.42507 -0.28306767 -171.79205 -62.106842 -76.431587 -61.832909 -75.048714 -0.021892713 146.84125
510947527.36882 -0.28186002 -172.01416 -60.813152 -69.025154 -62.773697 -70.719597 -0.021848081 146.76573
511325028.31257 -0.28579932 -172.22887 -62.535587 -73.348015 -62.825943 -67.160286 -0.021641983 146.67636
511702529.25632 -0.28685129 -172.43468 -61.755211 -76.85231 -61.770996 -70.706902 -0.017877271 146.62625
512080030.20008 -0.28906831 -172.62773 -60.755756 -70.245232 -60.811871 -78.155113 -0.012635435 146.54805
512457531.14383 -0.29058135 -172.84445 -61.0928 -79.401001 -61.892982 -73.199654 -0.0016880974 146.50716
512835032.08758 -0.29450899 -173.06621 -61.657124 -77.450073 -61.191219 -75.901421 0.0043236976 146.50073
513212533.03133 -0.29754719 -173.2775 -61.390133 -76.920013 -60.896103 -76.187042 0.012478507 146.47684
513590033.97508 -0.29902631 -173.48875 -61.14085 -65.282829 -61.336514 -78.992928 0.020046663 146.46242
513967534.91884 -0.30502871 -173.71408 -60.38483 -80.024239 -62.181183 -83.890442 0.024835885 146.44579
514345035.86259 -0.30916217 -173.91838 -60.669498 -79.638123 -61.687443 -77.249687 0.027122237 146.47606
514722536.80634 -0.31065679 -174.1261 -61.212322 -79.314194 -61.402359 -75.739853 0.031016912 146.49989
515100037.75009 -0.31481498 -174.3522 -60.609318 -81.064285 -62.194008 -84.445541 0.025965575 146.50064
515477538.69385 -0.31761742 -174.55742 -61.566154 -79.707321 -61.034214 -76.798286 0.02003298 146.53796
515855039.6376 -0.32002175 -174.76709 -60.927776 -79.368073 -60.571518 -71.223259 0.017137049 146.51384
516232540.58135 -0.32364452 -174.98981 -59.985935 -78.301231 -60.358067 -71.407639 0.0083406847 146.49692
516610041.5251 -0.32758299 -175.19772 -60.397915 -83.331238 -61.404945 -78.773575 0.0040138913 146.45647
516987542.46886 -0.32790399 -175.4339 -60.639931 -86.792549 -61.639782 -82.266785 -0.0038060213 146.4147
517365043.41261 -0.32930598 -175.65392 -60.840359 -87.612106 -61.161442 -73.580605 -0.010151799 146.34853
517742544.35636 -0.33374572 -175.87958 -62.906765 -83.284836 -61.46883 -83.398911 -0.009135101 146.3168
518120045.30011 -0.3387512 -176.10229 -60.318798 -87.710457 -60.616692 -86.285057 -0.010510712 146.23047
518497546.24387 -0.34346855 -176.31537 -59.813835 -89.775841 -61.762974 -82.443893 -0.0076250653 146.1687
518875047.18762 -0.34627676 -176.54289 -60.091553 -91.227112 -59.864021 -86.44236 -0.0038074115 146.11966
519252548.13137 -0.34989735 -176.75288 -58.815586 -80.361305 -60.016544 -80.835121 0.001442533 146.07661
519630049.07512 -0.35242981 -176.97456 -60.392963 -85.433212 -59.510128 -89.271378 0.0080687497 146.02747
520007550.01888 -0.35674849 -177.19429 -59.847504 -86.953033 -59.720139 -82.285324 0.015819132 146.00308
520385050.96263 -0.35953131 -177.38104 -59.108593 -89.528366 -59.444756 -84.133896 0.022304708 145.98424
520762551.90638 -0.36244774 -177.61003 -59.865067 -86.673569 -60.368587 -89.127396 0.026594976 145.9617
521140052.85013 -0.36686915 -177.82224 -59.617935 -88.974319 -59.695618 -90.539452 0.035568301 145.95972
521517553.79388 -0.36677027 -178.03339 -60.134995 -91.936325 -59.561459 -88.282883 0.031935293 145.95442
521895054.73764 -0.371589 -178.24573 -59.461651 -93.756516 -59.723835 -89.954552 0.032945659 145.95462
522272555.68139 -0.3726216 -178.46681 -59.14415 -89.949432 -60.072289 -89.318718 0.026606347 145.95198
522650056.62514 -0.37521321 -178.67686 -59.244461 -94.247467 -59.937149 -94.713295 0.0187665 145.95377
523027557.56889 -0.38151613 -178.89299 -58.744225 -87.162193 -59.397877 -93.106125 0.0155744 145.94345
523405058.51265 -0.38625702 -179.12895 -59.89481 -95.725098 -59.930447 -93.779007 0.0075388178 145.90703
523782559.4564 -0.38836721 -179.3351 -58.183521 -91.49884 -59.43285 -92.726395 0.0014921109 145.87854
524160060.40015 -0.3938913 -179.56079 -59.083847 -94.237556 -59.131962 -91.6166 -0.0045965319 145.84875
524537561.3439 -0.40198711 -179.77197 -58.255974 -92.271278 -59.57848 -93.612686 -0.0068400046 145.79941
524915062.28766 -0.40512717 179.9971 -59.172451 -93.588989 -59.255867 -89.4907 -0.0094927354 145.71591
525292563.23141 -0.41166443 179.78954 -58.160164 -99.137398 -58.7076 -100.74406 -0.011938969 145.66624
525670064.17516 -0.4171083 179.55991 -59.660809 -100.37485 -59.191231 -94.297241 -0.0082401652 145.63736
526047565.11891 -0.42379978 179.35114 -58.826244 -91.977066 -58.940113 -94.559448 -0.0025446615 145.58553
526425066.06267 -0.43124044 179.12943 -58.523441 -107.37537 -58.989613 -98.758263 0.0024987091 145.53015
526802567.00642 -0.43677631 178.9315 -59.308044 -100.89633 -58.287975 -95.575798 0.006345557 145.49847
527180067.95017 -0.44548777 178.70247 -58.867924 -95.673416 -58.888828 -95.7173 0.012607853 145.45935
527557568.89392 -0.4524461 178.48711 -58.833035 -95.180832 -58.361355 -101.48234 0.016240239 145.44934
527935069.83767 -0.45756292 178.28946 -58.323448 -99.530922 -58.300327 -103.82924 0.019902617 145.42441
528312570.78143 -0.46554667 178.08214 -58.92971 -101.93365 -57.983158 -98.745354 0.019655932 145.39937
528690071.72518 -0.47286737 177.86862 -58.026222 -102.47087 -58.682652 -100.02808 0.020093417 145.39253
529067572.66893 -0.47917259 177.66331 -57.477619 -102.82172 -58.082092 -102.00938 0.017558672 145.35724
529445073.61268 -0.48278955 177.44411 -58.702873 -101.31435 -58.486538 -104.35101 0.01366176 145.33728
529822574.55644 -0.48902598 177.24077 -58.020649 -104.0433 -58.543285 -105.24778 0.0055756802 145.3208
530200075.50019 -0.49193746 177.01097 -57.600487 -100.9605 -57.662792 -101.42773 0.0014935901 145.30089
530577576.44394 -0.4997417 176.79234 -57.545151 -104.62927 -56.987743 -109.97629 -0.0042841942 145.26735
530955077.38769 -0.50557172 176.56631 -57.852993 -103.622 -57.558678 -106.32161 -0.0098567642 145.23128
531332578.33145 -0.51115221 176.3398 -57.142239 -105.24946 -58.247967 -108.32659 -0.013596459 145.21164
531710079.2752 -0.51582223 176.12811 -58.016842 -108.26757 -57.454205 -103.94895 -0.018814808 145.17615
532087580.21895 -0.52108806 175.92097 -57.090607 -104.70425 -57.363792 -108.33365 -0.014253018 145.13037
532465081.1627 -0.53009677 175.70381 -56.922535 -107.72781 -57.262665 -108.89341 -0.015904214 145.08249
532842582.10646 -0.53292215 175.47951 -57.107994 -114.44616 -57.081532 -112.94292 -0.0095918989 145.05588
533220083.05021 -0.53780109 175.26666 -57.06488 -109.61856 -57.074615 -111.3035 -0.0049768854 145.00854
533597583.99396 -0.5439105 175.06499 -57.357601 -109.60278 -57.085377 -114.4436 -0.00040588839 144.95845
533975084.93771 -0.54805195 174.86319 -56.85318 -115.44871 -57.408741 -113.88075 0.0048410012 144.93141
534352585.88146 -0.55400938 174.64687 -57.09066 -113.32901 -56.993877 -109.31512 0.011922858 144.91196
534730086.82522 -0.55918306 174.45392 -56.609833 -113.27638 -56.51585 -117.20847 0.01406091 144.88737
535107587.76897 -0.56139725 174.2556 -56.544128 -115.32845 -56.637718 -114.94661 0.019037265 144.85364
535485088.71272 -0.56451076 174.04123 -57.050991 -116.38526 -56.179058 -115.31267 0.019708514 144.83028
535862589.65647 -0.5676806 173.83925 -56.613186 -115.95718 -56.764534 -113.28526 0.02184394 144.8345
536240090.60023 -0.57407141 173.63136 -56.638935 -116.94025 -56.968239 -116.38824 0.015671626 144.78288
536617591.54398 -0.5786007 173.41821 -56.370686 -116.4275 -56.45393 -119.05411 0.014333883 144.7549
536995092.48773 -0.58172792 173.226 -55.885902 -122.95615 -56.28735 -121.38417 0.0074296794 144.73125
537372593.43148 -0.5838688 173.02602 -56.669476 -124.30202 -56.181656 -118.67582 0.0053997808 144.70079
537750094.37524 -0.58851433 172.82581 -56.425789 -120.60287 -56.693405 -120.82692 -0.0032176287 144.65987
538127595.31899 -0.59129369 172.63644 -56.315762 -121.97585 -55.698074 -122.23769 -0.0053151399 144.62323
538505096.26274 -0.59280467 172.42308 -55.531147 -125.30144 -55.93597 -128.46428 -0.0040289587 144.60419
538882597.20649 -0.59577417 172.22572 -55.981979 -125.59824 -56.182045 -125.98963 -0.00084560487 144.58116
539260098.15025 -0.59731477 172.02914 -56.269417 -127.17606 -56.098541 -128.55199 9.1004476e-005 144.54929
539637599.094 -0.59693778 171.81422 -55.308453 -128.62619 -56.617924 -125.18435 0.0049439291 144.54034
540015100.03775 -0.59770733 171.60571 -55.915089 -129.55049 -55.647114 -130.64629 0.0089426208 144.52888
540392600.9815 -0.59739608 171.3745 -56.409237 -133.45561 -55.992901 -131.10591 0.016989732 144.50624
540770101.92525 -0.59765095 171.13875 -56.127872 -131.83839 -56.088253 -130.90712 0.021917837 144.49704
541147602.86901 -0.59882897 170.90707 -56.889412 -129.42599 -56.25631 -131.18858 0.030440247 144.49144
541525103.81276 -0.60111368 170.66382 -56.781792 -131.48692 -56.187946 -128.47282 0.035077862 144.48209
541902604.75651 -0.6016174 170.39571 -56.182747 -128.36133 -56.33374 -131.93883 0.036210157 144.45576
542280105.70026 -0.60429716 170.15469 -55.915253 -129.78085 -55.928604 -133.63573 0.035873245 144.43488
542657606.64402 -0.60660589 169.88757 -55.766228 -130.63838 -55.323402 -134.63716 0.033051718 144.41005
543035107.58777 -0.61006647 169.62544 -56.001511 -134.5981 -56.414299 -129.07465 0.025976304 144.37389
543412608.53152 -0.61432427 169.36681 -55.966919 -128.96027 -55.636772 -131.19159 0.022603337 144.33705
543790109.47527 -0.62025249 169.10468 -55.29945 -134.63553 -56.457718 -129.86499 0.01352697 144.28596
544167610.41903 -0.62500644 168.85571 -55.602673 -133.01776 -55.555141 -132.95808 0.0036853722 144.21478
544545111.36278 -0.6287269 168.58749 -55.51273 -136.30382 -54.95039 -133.4416 -0.0021158683 144.1479
544922612.30653 -0.63510889 168.33432 -55.424042 -137.14677 -55.137161 -136.49146 -0.010163476 144.10851
545300113.25028 -0.63801903 168.06689 -55.61446 -134.63524 -55.449337 -135.90665 -0.013756784 144.05295
545677614.19404 -0.6422652 167.79654 -55.476501 -137.07292 -55.167263 -135.78288 -0.017253719 144.01442
546055115.13779 -0.64944792 167.54704 -55.075245 -138.45705 -54.92313 -137.18475 -0.017203934 143.93073
546432616.08154 -0.65342361 167.26628 -55.287785 -138.84618 -55.624718 -139.25594 -0.016404826 143.92101
546810117.02529 -0.6584636 166.98364 -55.45546 -133.69333 -54.95219 -140.81874 -0.0095534781 143.88176
547187617.96904 -0.66694605 166.70909 -54.939182 -140.53496 -54.729443 -140.97427 -0.0058792634 143.86118
547565118.9128 -0.67395008 166.44995 -55.186089 -135.77457 -54.929844 -137.23685 0.0031230419 143.83784
547942619.85655 -0.68519503 166.17001 -54.751713 -138.4319 -54.548512 -145.09518 0.0091460915 143.81445
548320120.8003 -0.69418752 165.89934 -54.654842 -143.06554 -54.223568 -145.94893 0.017379543 143.8007
548697621.74405 -0.70456463 165.61613 -54.760223 -143.63277 -54.558914 -143.33656 0.020613061 143.8062
549075122.68781 -0.71813482 165.37836 -54.818623 -142.77423 -54.878288 -143.29745 0.020837795 143.78433
549452623.63156 -0.73217642 165.13657 -54.524612 -141.78114 -54.370586 -143.47688 0.021507204 143.7411
549830124.57531 -0.74306101 164.90138 -54.118507 -142.99344 -54.941147 -145.92624 0.016680971 143.71559
550207625.51906 -0.75607204 164.68251 -54.976543 -144.02266 -54.225784 -148.7075 0.011074622 143.67476
550585126.46282 -0.76666254 164.45259 -54.57114 -144.71245 -54.295891 -145.93118 0.0025485901 143.62776
550962627.40657 -0.77931952 164.2356 -54.144562 -149.85696 -54.008438 -146.5723 -0.0035408924 143.56342
551340128.35032 -0.79081649 164.03149 -54.552132 -149.01701 -54.473888 -147.76218 -0.012384163 143.50092
551717629.29407 -0.79903895 163.80161 -53.890377 -149.16426 -54.092575 -151.60353 -0.019320648 143.44518
552095130.23783 -0.8107146 163.62401 -54.018456 -147.30289 -54.427265 -151.5323 -0.023019971 143.37082
552472631.18158 -0.82154691 163.4119 -54.401936 -152.89027 -54.290199 -151.97008 -0.026953762 143.3071
552850132.12533 -0.82789648 163.20964 -54.496559 -152.3788 -54.583519 -155.71786 -0.025309205 143.23825
553227633.06908 -0.83380377 162.99689 -54.57729 -152.14037 -54.473644 -153.24046 -0.021818131 143.20811
553605134.01284 -0.84011871 162.78941 -54.207829 -152.90764 -53.759796 -155.23486 -0.013371727 143.18443
553982634.95659 -0.84734797 162.56209 -54.369408 -154.04221 -54.269447 -157.4758 -0.0050450191 143.17223
554360135.90034 -0.8542093 162.32805 -54.228054 -155.90802 -54.241104 -153.21562 0.0066480967 143.17787
554737636.84409 -0.86374563 162.10829 -54.108425 -155.54961 -54.255074 -156.44545 0.016826989 143.19084
555115137.78784 -0.87076426 161.86324 -53.904324 -156.43819 -54.185314 -153.96001 0.029710349 143.20618
555492638.7316 -0.87770611 161.62093 -53.765194 -160.1113 -53.959644 -154.36768 0.039492816 143.22092
555870139.67535 -0.88833719 161.39476 -54.397038 -157.34528 -53.722313 -161.09184 0.043536849 143.26744
556247640.6191 -0.89871109 161.16176 -53.938374 -156.80577 -54.025768 -159.70355 0.050451826 143.2581
556625141.56285 -0.90827471 160.92056 -53.212334 -159.68068 -53.694592 -157.68141 0.049360126 143.28174
557002642.50661 -0.91766083 160.70627 -53.711994 -160.0927 -53.603748 -158.97667 0.044488482 143.25629
557380143.45036 -0.92750633 160.48668 -53.69368 -160.98225 -53.526035 -161.07993 0.036699191 143.24593
557757644.39411 -0.93453473 160.27705 -53.06282 -159.70082 -53.1684 -162.54893 0.029159101 143.22975
558135145.33786 -0.94361478 160.04538 -53.084824 -160.72096 -53.451706 -159.67192 0.01891087 143.15392
558512646.28162 -0.95069408 159.81786 -52.991245 -159.99649 -53.768074 -162.16959 0.0053547854 143.10497
558890147.22537 -0.95582122 159.59801 -52.632549 -164.3364 -53.134987 -163.0443 -0.0017346104 143.03227
559267648.16912 -0.96105731 159.38885 -53.556595 -162.12311 -53.166489 -165.31688 -0.0097628096 142.96024
559645149.11287 -0.96661359 159.16254 -53.538937 -164.56332 -53.177998 -163.42418 -0.014443257 142.87004
560022650.05663 -0.97353119 158.92946 -53.225826 -166.95447 -53.224617 -166.53664 -0.017365143 142.806
560400151.00038 -0.97753632 158.69481 -53.219311 -163.20082 -52.607338 -164.40799 -0.010545744 142.73079
560777651.94413 -0.97959393 158.47763 -52.805775 -165.95837 -52.63781 -166.24925 -0.0086635938 142.69414
561155152.88788 -0.98659968 158.23459 -53.381836 -166.60794 -52.974758 -169.26114 -0.0023595134 142.6602
561532653.83163 -0.99013501 158.02654 -52.967365 -166.31076 -52.759239 -171.77061 0.010039618 142.62418
561910154.77539 -0.99501926 157.80054 -52.796959 -170.18887 -52.858761 -169.54085 0.018671948 142.63191
562287655.71914 -0.99725664 157.5722 -52.624733 -171.95634 -52.761242 -171.19156 0.028941914 142.64886
562665156.66289 -1.0003862 157.33813 -52.595654 -170.65939 -52.381901 -172.25015 0.037493207 142.67026
563042657.60664 -1.0029684 157.11064 -53.010803 -171.21136 -52.819717 -171.7594 0.043798972 142.68539
563420158.5504 -1.002562 156.88116 -52.54311 -171.84744 -52.332016 -172.96802 0.047611482 142.71225
563797659.49415 -1.0043938 156.6664 -52.380005 -172.46545 -52.841572 -174.03719 0.045986962 142.69983
564175160.4379 -1.0047657 156.41498 -52.562515 -173.43463 -52.67738 -176.35777 0.041454073 142.71664
564552661.38165 -1.0033485 156.16216 -52.135628 -174.61636 -52.794922 -174.07294 0.031299885 142.70847
564930162.32541 -1.0069941 155.91881 -52.954365 179.44676 -52.459003 -176.29115 0.02329072 142.66255
565307663.26916 -1.0074021 155.65683 -52.257618 -174.74512 -52.178219 -176.24522 0.012035031 142.6172
565685164.21291 -1.0059536 155.38065 -52.499058 -176.94479 -52.865223 -177.62631 -0.0010984015 142.54532
566062665.15666 -1.0047348 155.10748 -52.597866 -178.71912 -52.524441 -175.96941 -0.012274941 142.47601
566440166.10042 -1.0072701 154.81134 -52.438519 177.76408 -52.236118 -179.40865 -0.017421311 142.40332
566817667.04417 -1.0096333 154.50586 -52.176086 -179.37477 -52.666672 -176.8208 -0.02470178 142.31197
567195167.98792 -1.0171784 154.19858 -52.511742 -178.53888 -52.420643 179.82489 -0.027606724 142.21854
567572668.93167 -1.0238181 153.90996 -52.299393 -176.91351 -52.349022 -178.25719 -0.023422943 142.14091
567950169.87542 -1.0318663 153.60573 -52.355232 -178.66592 -52.214363 179.6955 -0.02026611 142.08534
568327670.81918 -1.0393788 153.32397 -52.416134 179.45584 -52.400139 -178.63025 -0.0096537527 142.03517
568705171.76293 -1.0501121 153.03197 -52.436237 178.06184 -51.969467 -178.92969 0.0054263724 141.99283
569082672.70668 -1.05769 152.75934 -51.821732 179.15808 -51.916996 -179.90547 0.015389471 141.98709
569460173.65043 -1.0693616 152.45586 -51.860104 179.22728 -51.834282 177.11148 0.026573002 141.99379
569837674.59419 -1.0751027 152.17865 -51.976639 177.29688 -51.875553 178.20302 0.033177085 141.9982
570215175.53794 -1.0862052 151.8703 -51.790684 176.38022 -51.604237 177.68137 0.045183074 142.02953
570592676.48169 -1.0967284 151.54701 -51.221485 174.68315 -51.449814 176.20082 0.048307326 142.04514
570970177.42544 -1.1066974 151.22974 -51.597363 178.52435 -51.596493 174.18105 0.049842596 142.08955
571347678.3692 -1.1196978 150.93147 -51.338795 175.05161 -51.609009 174.28004 0.045457009 142.10197
