!Keysight Technologies,N5242B,MY48420860,A.13.80.08
!Date: Saturday, September 26, 2020 12:59:05
!Correction: S11(Full 2 Port(1,2)) 
!S21(Full 2 Port(1,2)) 
!S12(Full 2 Port(1,2)) 
!S22(Full 2 Port(1,2)) 
!S2P File: Measurements: S11, S21, S12, S22:
# Hz S  dB   R 50
500000000 -0.23786353 -166.16843 -65.942619 -144.4218 -64.605553 -149.31348 0.051134747 147.73358
500377500.94375 -0.24122827 -166.36377 -63.547489 -157.35666 -63.734051 -152.07417 0.053750999 147.73042
500755001.8875 -0.24515906 -166.5688 -64.521431 -157.60893 -63.916248 -153.41679 0.054929163 147.75085
501132502.83126 -0.24802141 -166.77902 -65.08326 -147.78766 -64.137909 -152.47098 0.053318378 147.75308
501510003.77501 -0.25001341 -166.98782 -62.831299 -139.46222 -65.156296 -156.63237 0.052280653 147.76543
501887504.71876 -0.25415081 -167.16629 -63.879509 -151.11382 -63.280529 -157.49609 0.050133247 147.77805
502265005.66251 -0.25483623 -167.37236 -63.854458 -151.88374 -63.977634 -151.77057 0.047858644 147.73566
502642506.60627 -0.25949448 -167.59846 -63.343079 -145.6405 -64.274338 -154.59175 0.041870747 147.72786
503020007.55002 -0.26166728 -167.7975 -63.649368 -155.58142 -64.279785 -155.95213 0.03819989 147.70084
503397508.49377 -0.269346 -167.9854 -63.405704 -158.5612 -64.853935 -161.48952 0.034766391 147.65155
503775009.43752 -0.27043211 -168.18282 -62.440781 -159.48911 -63.84977 -155.08293 0.029578175 147.58026
504152510.38128 -0.27474636 -168.37166 -62.197166 -170.88475 -64.784653 -158.26807 0.030544592 147.52525
504530011.32503 -0.27714533 -168.55959 -63.081829 -165.16505 -63.74445 -162.25879 0.032189935 147.46837
504907512.26878 -0.27981389 -168.74696 -63.437447 -159.84439 -62.668541 -161.40697 0.032454677 147.41498
505285013.21253 -0.27926376 -168.92274 -63.060863 -164.37679 -64.066055 -164.28094 0.036254387 147.38765
505662514.15629 -0.28249586 -169.10619 -63.972771 -158.7424 -62.612152 -169.40923 0.041359663 147.34514
506040015.10004 -0.28078333 -169.28323 -65.349915 -159.15501 -62.494698 -165.59073 0.044741977 147.30399
506417516.04379 -0.28398815 -169.47456 -64.090691 -160.95102 -63.316475 -168.69962 0.049203679 147.29594
506795016.98754 -0.27844504 -169.65726 -64.968933 -163.26236 -63.632549 -157.48099 0.057778891 147.29251
507172517.93129 -0.28052106 -169.85451 -64.218025 -167.82306 -63.000004 -161.25314 0.05824415 147.26567
507550018.87505 -0.27876788 -170.05647 -64.302528 -169.23976 -63.50676 -177.32312 0.063564003 147.28136
507927519.8188 -0.27869305 -170.25462 -64.495163 -171.12241 -62.666664 -168.11011 0.06101267 147.28575
508305020.76255 -0.27805802 -170.44179 -63.555645 -173.24901 -65.015671 -170.42032 0.062507436 147.29803
508682521.7063 -0.27711549 -170.64774 -63.655403 -177.49852 -62.811848 -164.9537 0.057386495 147.31606
509060022.65006 -0.27722016 -170.85701 -65.400513 -178.69145 -64.265846 -175.88968 0.054993294 147.30287
509437523.59381 -0.27711055 -171.04761 -62.94445 -179.65669 -63.084419 -171.15483 0.050209835 147.28496
509815024.53756 -0.27720553 -171.25761 -64.037811 -179.99474 -63.088585 -175.55186 0.044729766 147.28017
510192525.48131 -0.27735591 -171.46262 -62.922829 -170.29623 -63.372093 -179.63065 0.033509612 147.2054
510570026.42507 -0.28048703 -171.6604 -62.30724 -175.47829 -63.021664 -167.56287 0.029384058 147.15388
510947527.36882 -0.28059047 -171.87321 -62.56295 -172.75235 -63.206394 -173.47491 0.026855746 147.08798
511325028.31257 -0.28372967 -172.0873 -63.512844 -178.8459 -62.51405 -173.8329 0.020826798 147.01111
511702529.25632 -0.28539613 -172.29868 -63.152214 -175.64619 -62.811756 -176.76926 0.019512346 146.93312
512080030.20008 -0.28721121 -172.49672 -62.442535 -176.33574 -63.213146 -177.18764 0.015658259 146.85901
512457531.14383 -0.28936496 -172.70544 -63.549694 -176.18051 -63.744965 -173.40283 0.020935025 146.7767
512835032.08758 -0.29134369 -172.92787 -63.187557 174.47992 -63.528236 -178.40034 0.022640308 146.73424
513212533.03133 -0.29532158 -173.14012 -63.524731 174.07689 -63.473587 -177.81891 0.026505258 146.68195
513590033.97508 -0.29695159 -173.3461 -63.277008 -167.78992 -62.872639 178.9711 0.034242358 146.62842
513967534.91884 -0.30104718 -173.55109 -62.074429 178.16725 -63.123146 175.04175 0.038922619 146.57748
514345035.86259 -0.30405664 -173.76691 -62.787334 -178.80957 -62.936832 178.05295 0.043663379 146.58643
514722536.80634 -0.30515575 -173.97511 -63.171749 -170.23984 -62.806046 -177.90714 0.051624857 146.60445
515100037.75009 -0.30921087 -174.19725 -64.209198 178.77867 -63.168686 174.11009 0.053971257 146.60306
515477538.69385 -0.31135491 -174.41403 -61.45834 -173.82642 -63.246983 -176.80666 0.056642327 146.63443
515855039.6376 -0.31276917 -174.62355 -61.057934 178.30893 -61.836418 175.59666 0.057727735 146.65363
516232540.58135 -0.3145425 -174.85458 -62.703587 -179.89034 -62.444908 170.47389 0.054819107 146.67094
516610041.5251 -0.31795228 -175.06053 -62.040771 169.30528 -62.101444 -179.29239 0.057228614 146.66716
516987542.46886 -0.31893516 -175.28369 -62.047081 -179.56139 -60.873951 178.14026 0.053476039 146.64813
517365043.41261 -0.31999868 -175.50473 -62.202473 172.51682 -61.768932 177.23087 0.047022074 146.63423
517742544.35636 -0.32485589 -175.73141 -61.383583 -177.67525 -63.070061 -179.97499 0.046832982 146.62115
518120045.30011 -0.32743481 -175.95053 -61.490902 -177.74797 -61.400826 174.53127 0.038618442 146.56932
518497546.24387 -0.33115146 -176.1545 -60.874222 170.02673 -61.555161 173.82132 0.036616419 146.52106
518875047.18762 -0.33493188 -176.38992 -61.982048 174.36349 -61.296463 175.11911 0.034274202 146.46445
519252548.13137 -0.33718392 -176.59169 -61.025826 177.01135 -61.229347 169.99683 0.033758491 146.3821
519630049.07512 -0.34031072 -176.8213 -60.687618 165.91808 -61.314098 170.93803 0.032206442 146.29897
520007550.01888 -0.34329292 -177.02974 -60.602592 173.89137 -60.557091 173.20174 0.03443069 146.2467
520385050.96263 -0.34387946 -177.23502 -61.118462 170.87891 -60.548767 172.13158 0.039131261 146.19795
520762551.90638 -0.34681004 -177.44131 -60.642708 166.8578 -61.340748 168.18752 0.041501738 146.13246
521140052.85013 -0.34969988 -177.66153 -62.376858 172.40176 -60.711906 168.4303 0.049349997 146.0777
521517553.79388 -0.34975463 -177.8736 -60.803082 169.19868 -61.159988 164.47433 0.051503472 146.06509
521895054.73764 -0.35300675 -178.10164 -60.968498 167.86584 -59.984318 161.51999 0.053137973 146.04463
522272555.68139 -0.35612032 -178.32025 -60.341896 166.79964 -61.027954 159.50699 0.056797564 146.04161
522650056.62514 -0.35734165 -178.53503 -61.516209 166.71107 -61.091877 156.13374 0.057239305 146.05934
523027557.56889 -0.36174518 -178.75356 -61.644592 158.64087 -61.59333 172.91422 0.060387239 146.06
523405058.51265 -0.3668156 -178.98505 -60.174084 157.35495 -60.876934 161.21776 0.059507165 146.07025
523782559.4564 -0.36873654 -179.19505 -59.51651 156.8053 -60.633179 160.30411 0.058118504 146.06793
524160060.40015 -0.37361547 -179.41904 -59.36813 156.3676 -60.195244 155.35075 0.051808029 146.06039
524537561.3439 -0.38104755 -179.64742 -60.534992 156.5284 -60.257092 155.63777 0.05181532 146.07806
524915062.28766 -0.38492289 -179.86972 -59.863625 165.62311 -60.935162 161.85046 0.044015784 146.03352
525292563.23141 -0.38936886 179.89435 -60.352356 156.6351 -61.18261 151.55579 0.040056519 146.02466
525670064.17516 -0.39602375 179.67039 -59.824631 155.93922 -60.48217 158.18318 0.035405084 145.97395
526047565.11891 -0.400644 179.46901 -59.234577 158.24837 -60.637604 159.19554 0.03725265 145.90393
526425066.06267 -0.40916884 179.23012 -59.448292 155.03452 -60.649406 158.8783 0.034894016 145.85049
526802567.00642 -0.41533938 179.02692 -59.510681 156.47102 -60.357666 155.63681 0.032378294 145.78984
527180067.95017 -0.42232895 178.78917 -60.157513 154.91858 -59.143078 152.72261 0.032228064 145.73093
527557568.89392 -0.43139109 178.57042 -58.376179 150.61769 -59.875732 150.31238 0.033217862 145.6694
527935069.83767 -0.43762228 178.37289 -59.328392 148.9377 -59.931778 149.10904 0.035491176 145.61688
528312570.78143 -0.44198748 178.16743 -59.524014 156.24124 -58.867672 151.12372 0.036919184 145.56358
528690071.72518 -0.45092729 177.95834 -58.643505 151.87175 -58.538952 149.59695 0.041395463 145.50729
529067572.66893 -0.45785239 177.73787 -58.827156 147.92455 -59.08886 149.29172 0.041419938 145.48164
529445073.61268 -0.46098861 177.54108 -59.045261 148.24234 -60.185074 140.95409 0.043046828 145.45987
529822574.55644 -0.46579218 177.32005 -58.966537 143.49872 -59.071289 149.01233 0.0468175 145.45535
530200075.50019 -0.46895406 177.10724 -58.428295 142.61591 -60.034672 146.05908 0.046554938 145.46913
530577576.44394 -0.47518575 176.8936 -58.835037 145.18828 -58.723949 135.87541 0.045325391 145.46548
530955077.38769 -0.47943512 176.66167 -58.172745 141.44006 -58.877232 137.13911 0.044939648 145.45723
531332578.33145 -0.48317656 176.43619 -58.862648 140.14651 -59.458248 141.85828 0.043031819 145.46945
531710079.2752 -0.48740509 176.1971 -59.320423 147.55974 -59.155449 136.35583 0.039308473 145.47896
532087580.21895 -0.49215242 176.00531 -59.567692 134.24948 -58.962666 141.18201 0.037419721 145.46437
532465081.1627 -0.50024134 175.76395 -58.164055 139.73358 -58.917324 133.99211 0.033383615 145.44411
532842582.10646 -0.5039438 175.54861 -58.645973 136.19073 -58.923405 136.14426 0.030367682 145.39934
533220083.05021 -0.5062862 175.32109 -58.330296 138.60968 -57.861656 140.52687 0.029930824 145.35687
533597583.99396 -0.51363927 175.12378 -58.85289 131.97963 -58.243996 135.64215 0.029506799 145.2841
533975084.93771 -0.51747 174.91608 -57.683548 133.19716 -58.105167 136.93788 0.026559042 145.21759
534352585.88146 -0.52168179 174.7038 -58.886303 135.82727 -58.875153 135.14417 0.028250048 145.17506
534730086.82522 -0.52655929 174.4969 -58.932159 130.92195 -58.26149 129.65096 0.026521895 145.10347
535107587.76897 -0.53194118 174.30682 -59.711346 125.45301 -58.587337 134.64883 0.030550854 145.02161
535485088.71272 -0.53319812 174.09175 -58.410942 125.22815 -58.479584 129.49126 0.032630492 144.95459
535862589.65647 -0.53451163 173.8797 -58.688705 133.26144 -57.592228 134.88347 0.036185466 144.93333
536240090.60023 -0.54075789 173.66847 -58.26556 128.76794 -57.435349 131.33514 0.038445257 144.88678
536617591.54398 -0.54588175 173.46245 -57.654633 128.14778 -58.448723 126.89223 0.043117069 144.84288
536995092.48773 -0.54786462 173.26476 -57.553005 125.31565 -58.391293 131.86508 0.043533273 144.83047
537372593.43148 -0.55099952 173.06729 -58.356674 125.2023 -58.544601 129.71211 0.047931153 144.83002
537750094.37524 -0.55448669 172.85239 -58.548714 122.35963 -58.999535 119.86619 0.044483535 144.82115
538127595.31899 -0.55660069 172.63774 -58.533447 124.31013 -57.910343 123.19944 0.045682319 144.80746
538505096.26274 -0.55835658 172.4287 -59.246422 118.92339 -57.442688 121.81137 0.050479051 144.83253
538882597.20649 -0.56001556 172.22624 -57.269657 117.5988 -58.29422 118.82301 0.051393732 144.85834
539260098.15025 -0.56032634 172.02016 -57.944096 123.21644 -57.938503 122.28951 0.050188802 144.84892
539637599.094 -0.55922717 171.78365 -58.522221 116.04419 -57.931179 117.41788 0.05185239 144.84612
540015100.03775 -0.5599758 171.56885 -58.536163 116.97945 -58.55072 124.69132 0.048797537 144.84943
540392600.9815 -0.56095761 171.3262 -58.483219 114.47412 -58.160927 119.49169 0.051482424 144.81398
540770101.92525 -0.55957544 171.07814 -58.302395 120.40882 -58.607201 116.76487 0.049782474 144.78983
541147602.86901 -0.55968523 170.84534 -58.284161 118.97137 -57.945183 116.88874 0.050790396 144.75739
541525103.81276 -0.5609768 170.58629 -58.904613 112.73373 -58.36058 111.21447 0.052039579 144.70247
541902604.75651 -0.56365722 170.29865 -58.894314 117.65312 -57.503029 111.91055 0.048175383 144.63989
542280105.70026 -0.56656659 170.04556 -58.118767 118.64426 -58.09222 116.66403 0.048698708 144.59048
542657606.64402 -0.56884485 169.78554 -58.497791 116.30684 -58.892464 117.46768 0.047213778 144.53575
543035107.58777 -0.57041889 169.49992 -57.893528 120.21732 -57.895206 117.1909 0.044676092 144.47711
543412608.53152 -0.57471931 169.22319 -58.441078 114.79539 -58.326813 117.17722 0.043411098 144.40933
543790109.47527 -0.58135545 168.95189 -58.438717 117.68803 -58.440605 112.66816 0.044236198 144.35612
544167610.41903 -0.58639145 168.68355 -57.700943 116.50277 -57.508434 108.00731 0.042557541 144.32166
544545111.36278 -0.59258747 168.3963 -57.799625 115.32829 -57.660343 115.92697 0.040209148 144.27922
544922612.30653 -0.59896058 168.12102 -57.85014 114.40674 -58.031849 111.13877 0.038323831 144.25507
545300113.25028 -0.60406268 167.84538 -57.63652 110.20424 -57.934166 112.98018 0.040248346 144.23837
545677614.19404 -0.61341548 167.57133 -58.155434 117.25153 -57.327454 112.49918 0.038489144 144.23848
546055115.13779 -0.62122625 167.30168 -57.622997 105.60318 -58.038368 110.96842 0.036510702 144.19371
546432616.08154 -0.62639672 167.01596 -57.330025 108.93907 -58.284626 113.04059 0.034309331 144.20059
546810117.02529 -0.6340037 166.73651 -57.847511 113.07556 -57.271824 111.7849 0.036012821 144.18881
547187617.96904 -0.64438152 166.45908 -57.591488 112.8516 -57.800541 107.05953 0.032666225 144.17154
547565118.9128 -0.65336353 166.18501 -57.466526 109.33926 -56.494614 107.61856 0.03369844 144.13423
547942619.85655 -0.66698891 165.90024 -57.58997 106.38489 -56.73312 109.94518 0.032848861 144.09892
548320120.8003 -0.67985594 165.63287 -57.133244 108.22836 -57.236843 104.56767 0.036482535 144.04694
548697621.74405 -0.6924718 165.35274 -56.845154 108.80706 -56.817684 105.61176 0.034580026 143.99739
549075122.68781 -0.7066291 165.11819 -56.988243 103.92744 -57.163345 107.65627 0.032389447 143.94562
549452623.63156 -0.72427988 164.88214 -56.351471 105.44643 -57.139233 105.35185 0.03305579 143.89474
549830124.57531 -0.73895848 164.64328 -57.285515 108.74827 -56.81303 105.19327 0.033550028 143.83069
550207625.51906 -0.7512424 164.44249 -56.030643 102.97923 -57.547161 105.34428 0.029627517 143.74583
550585126.46282 -0.76578367 164.23402 -56.165966 101.21249 -56.566006 104.33501 0.027828289 143.71169
550962627.40657 -0.77769655 164.02202 -56.7062 103.89449 -56.809467 106.11568 0.03033594 143.66299
551340128.35032 -0.78873116 163.83554 -56.700333 101.30219 -57.013737 100.786 0.027016932 143.61317
551717629.29407 -0.79755908 163.62975 -56.473858 101.22426 -56.263706 99.600258 0.03001984 143.57288
552095130.23783 -0.80825114 163.43588 -56.710838 102.96741 -56.202267 100.09181 0.032631345 143.55643
552472631.18158 -0.81613994 163.22443 -56.155476 98.305298 -56.071175 98.793083 0.031189516 143.54137
552850132.12533 -0.82087725 163.03679 -56.782959 99.21534 -55.909756 99.140068 0.035980877 143.51753
553227633.06908 -0.82510161 162.80775 -56.277031 99.412674 -56.748127 99.318008 0.037257925 143.51715
553605134.01284 -0.82998604 162.58925 -56.172623 98.279243 -56.839012 94.521729 0.04097499 143.51205
553982634.95659 -0.8374356 162.34903 -56.941814 94.736824 -56.521008 99.749863 0.045447499 143.52478
554360135.90034 -0.84264153 162.09419 -55.293808 93.928543 -56.258827 95.982246 0.050532177 143.5302
554737636.84409 -0.8521896 161.84825 -55.356392 95.442307 -56.503628 95.645515 0.054878753 143.53459
555115137.78784 -0.85974234 161.58302 -55.890179 95.340591 -55.903286 96.538513 0.059583362 143.53027
555492638.7316 -0.8700043 161.31334 -55.686264 93.7995 -55.846348 96.21315 0.064344622 143.52312
555870139.67535 -0.88237154 161.06364 -55.470581 96.6549 -56.501942 93.401344 0.064944535 143.52391
556247640.6191 -0.89488876 160.81567 -55.671303 93.140404 -55.132401 93.788116 0.068938509 143.49466
556625141.56285 -0.90761584 160.56197 -55.495434 90.744186 -54.756226 93.274017 0.064686716 143.46581
557002642.50661 -0.9191761 160.3318 -55.692112 90.047401 -55.988987 94.17923 0.06552653 143.42891
557380143.45036 -0.93341058 160.10666 -55.712753 90.200653 -55.654831 91.168839 0.062094368 143.39236
557757644.39411 -0.94485784 159.86717 -55.411682 91.913918 -55.537003 90.577286 0.059420764 143.36185
558135145.33786 -0.95667511 159.63596 -55.163246 87.200249 -54.692268 93.357819 0.057439569 143.28581
558512646.28162 -0.96870118 159.40848 -55.243736 87.985443 -54.446762 87.804977 0.049089413 143.25829
558890147.22537 -0.98243129 159.17732 -54.888435 87.274208 -55.347439 87.657097 0.046793718 143.20399
559267648.16912 -0.99110961 158.9731 -54.192108 86.641907 -55.008209 88.829346 0.044179071 143.1631
559645149.11287 -1.0029269 158.77745 -55.064537 88.399803 -54.852406 84.74324 0.041934457 143.11168
560022650.05663 -1.0134908 158.55511 -54.465572 87.064949 -54.474979 84.220177 0.040317006 143.09445
560400151.00038 -1.0241301 158.34598 -54.204071 85.234436 -54.656776 82.953453 0.043131966 143.06212
560777651.94413 -1.0313175 158.15273 -54.183456 83.864212 -54.28809 83.407692 0.043619063 143.03256
561155152.88788 -1.0420048 157.94287 -54.002052 84.45842 -53.867916 85.049217 0.044606786 142.996
561532653.83163 -1.0471957 157.78075 -54.122032 82.822929 -54.105846 79.722168 0.049561709 142.97797
561910154.77539 -1.0534166 157.59143 -54.113491 80.59314 -54.313354 80.691223 0.051798776 142.97865
562287655.71914 -1.0556624 157.38304 -53.958221 79.273201 -53.620216 78.976089 0.054564595 142.95763
562665156.66289 -1.0594442 157.19151 -53.86198 76.095406 -53.643646 79.152161 0.0592537 142.93768
563042657.60664 -1.0596182 156.98717 -53.564976 73.971695 -53.723541 76.547836 0.060897913 142.92813
563420158.5504 -1.0603969 156.79146 -53.937344 73.910301 -53.548862 74.083725 0.062123682 142.90846
563797659.49415 -1.0612407 156.59132 -53.764034 75.750023 -53.491756 71.917091 0.059994496 142.87671
564175160.4379 -1.0591035 156.36897 -53.450218 73.118683 -53.778542 67.512161 0.059312917 142.85059
564552661.38165 -1.058846 156.14722 -53.163506 68.700912 -53.557255 71.054276 0.053914815 142.82283
564930162.32541 -1.0579181 155.92384 -53.555527 68.591591 -53.234055 66.537529 0.05146879 142.78531
565307663.26916 -1.0534172 155.65749 -53.7547 66.562401 -53.933636 66.702789 0.047486573 142.7412
565685164.21291 -1.0495433 155.3972 -53.580517 65.51236 -53.387684 64.316414 0.040906306 142.6893
566062665.15666 -1.0462312 155.12915 -53.55648 64.028931 -53.837334 63.577839 0.036053073 142.63596
566440166.10042 -1.046486 154.83479 -53.329926 64.545258 -53.790009 62.447655 0.033672038 142.60757
566817667.04417 -1.04908 154.51643 -53.502556 59.754211 -53.896915 61.48595 0.030232778 142.54036
567195167.98792 -1.0542347 154.21637 -54.188614 62.030529 -53.724545 61.995987 0.029668737 142.4942
567572668.93167 -1.0613334 153.91936 -53.976028 59.868652 -54.001373 58.703251 0.027680956 142.45164
567950169.87542 -1.0683892 153.60237 -53.801838 60.416359 -54.038864 62.328762 0.030031905 142.42543
568327670.81918 -1.0775541 153.32144 -53.991058 58.608475 -54.104969 60.512726 0.035989035 142.39713
568705171.76293 -1.0892302 153.02393 -53.978027 58.603542 -54.006165 63.436844 0.042031534 142.33986
569082672.70668 -1.0992088 152.75154 -53.774223 61.727001 -53.737587 57.955578 0.046215463 142.32924
569460173.65043 -1.110796 152.46135 -53.861088 59.624302 -53.980267 57.311314 0.052710339 142.29831
569837674.59419 -1.1165867 152.17834 -53.720951 58.337563 -53.63517 60.721394 0.052889187 142.28151
570215175.53794 -1.1277629 151.88455 -54.052116 57.447376 -53.619858 56.196915 0.060261268 142.2827
570592676.48169 -1.1402992 151.57071 -53.228058 57.475872 -53.338543 58.110889 0.061891895 142.25095
570970177.42544 -1.1505221 151.27644 -52.995209 55.657829 -53.100243 56.019459 0.065789632 142.2515
571347678.3692 -1.1633611 150.98059 -53.497429 55.097725 -53.593456 55.049782 0.067108072 142.245
571725179.31295 -1.1791525 150.68901 -53.114796 51.466637 -53.191505 54.941872 0.064163245 142.22194
572102680.2567 -1.192836 150.40073 -53.027905 52.795166 -53.512123 52.927708 0.063620567 142.22627
572480181.20045 -1.2072654 150.12256 -53.73217 52.286808 -53.210667 52.101715 0.061371498 142.21161
572857682.14421 -1.2241081 149.85249 -52.29884 53.37323 -52.897411 51.173409 0.055703852 142.16426
