!Keysight Technologies,N5242B,MY48420860,A.13.80.08
!Date: Saturday, September 26, 2020 13:27:07
!Correction: S11(Full 2 Port(1,2)) 
!S21(Full 2 Port(1,2)) 
!S12(Full 2 Port(1,2)) 
!S22(Full 2 Port(1,2)) 
!S2P File: Measurements: S11, S21, S12, S22:
# Hz S  dB   R 50
500000000 -0.23447983 -166.1601 -66.357704 38.246307 -66.38842 34.666443 -0.0080847554 147.28024
500377500.94375 -0.23798613 -166.34042 -68.136101 34.740559 -65.734993 21.494276 -0.0073150853 147.29979
500755001.8875 -0.24024603 -166.549 -66.507195 31.323463 -67.440735 36.424004 -0.0067867865 147.31697
501132502.83126 -0.24407618 -166.7522 -68.352432 27.271576 -63.536232 32.145542 -0.0093935002 147.34793
501510003.77501 -0.24749814 -166.95834 -66.256294 22.764507 -68.245232 18.333809 -0.012906046 147.34776
501887504.71876 -0.25097847 -167.14467 -66.89077 12.729928 -64.641693 35.813656 -0.01911814 147.36136
502265005.66251 -0.25200546 -167.35863 -66.320702 22.956509 -65.85601 20.333958 -0.027634868 147.32529
502642506.60627 -0.25718829 -167.56532 -66.547272 19.752083 -66.899162 18.425924 -0.032714643 147.29706
503020007.55002 -0.25941715 -167.75806 -64.774376 24.746269 -66.284309 14.843934 -0.03830893 147.25592
503397508.49377 -0.26480567 -167.9586 -64.088699 17.837126 -65.823128 15.993648 -0.039431497 147.18291
503775009.43752 -0.26874509 -168.15283 -65.469231 17.760595 -64.900558 9.3475723 -0.04447357 147.10971
504152510.38128 -0.27056512 -168.34204 -66.673569 16.487654 -66.618279 8.4663029 -0.03857195 147.05733
504530011.32503 -0.274744 -168.53535 -65.05751 9.4104652 -64.787613 14.590107 -0.031911612 147.00935
504907512.26878 -0.27701625 -168.71388 -64.988983 26.087891 -67.222961 23.838575 -0.024941476 146.94771
505285013.21253 -0.27825087 -168.89629 -65.746651 29.208731 -64.723953 18.44936 -0.015185247 146.94115
505662514.15629 -0.27833742 -169.08972 -63.777809 19.846045 -66.896523 8.4132271 -0.0064903605 146.90887
506040015.10004 -0.27852973 -169.25761 -65.266479 12.034675 -66.067284 13.866889 0.0019641118 146.87839
506417516.04379 -0.28033271 -169.45313 -65.608192 17.157242 -65.579964 17.381136 0.010744574 146.89774
506795016.98754 -0.27428991 -169.6338 -65.093269 -4.5659795 -66.297981 6.9380789 0.024165699 146.92137
507172517.93129 -0.2742548 -169.83633 -65.180824 2.2738466 -65.212486 13.281985 0.023708481 146.94585
507550018.87505 -0.27623859 -170.04437 -63.781456 3.6479106 -65.533684 7.5665846 0.027386663 146.98424
507927519.8188 -0.27255818 -170.23775 -63.284409 15.4087 -65.355576 12.578578 0.027399145 147.00137
508305020.76255 -0.27517006 -170.42918 -62.761787 -4.2048421 -65.585663 7.8226671 0.022906486 147.02191
508682521.7063 -0.27481636 -170.63965 -65.157166 -22.008656 -66.219604 17.257032 0.017722551 147.0528
509060022.65006 -0.27340949 -170.84602 -64.354942 8.9832907 -65.477112 9.4235363 0.0096867355 147.02721
509437523.59381 -0.27199107 -171.03462 -64.991386 7.2831888 -63.976181 -4.6368608 0.002707866 147.02557
509815024.53756 -0.27358356 -171.24835 -64.915359 -2.6357033 -63.98698 3.2539985 -0.005545937 146.99731
510192525.48131 -0.27425587 -171.44591 -65.730026 3.3257296 -65.198891 8.1749773 -0.016106009 146.92664
510570026.42507 -0.27709335 -171.6442 -66.611526 4.0591655 -66.20713 4.9251232 -0.023579381 146.85126
510947527.36882 -0.27973276 -171.862 -64.290855 0.90139264 -65.169121 4.1623116 -0.025174916 146.76648
511325028.31257 -0.28101641 -172.075 -65.409676 10.029346 -65.330894 13.81231 -0.031101791 146.68924
511702529.25632 -0.28400311 -172.28813 -64.514381 -4.7180963 -64.146782 -7.1543446 -0.030337671 146.61034
512080030.20008 -0.28572145 -172.47511 -64.619537 0.2221844 -64.26609 9.4585524 -0.027103892 146.52812
512457531.14383 -0.28842467 -172.68689 -67.238029 7.9076467 -64.914917 -0.93746096 -0.021915687 146.44577
512835032.08758 -0.29065311 -172.8969 -63.624367 -1.0624617 -65.467262 -6.0698261 -0.016149594 146.41754
513212533.03133 -0.29307461 -173.10121 -64.804688 -3.5490952 -64.894943 -1.6259866 -0.010750867 146.37801
513590033.97508 -0.29504797 -173.30981 -65.685677 0.50733209 -66.795349 -6.2702956 -0.0015000521 146.33679
513967534.91884 -0.30020326 -173.5291 -63.51873 4.6730237 -64.979515 2.5805981 0.003524279 146.31834
514345035.86259 -0.30252072 -173.73418 -65.00161 -8.5106964 -62.975342 -0.28637952 0.0083383657 146.33386
514722536.80634 -0.30138856 -173.94067 -63.585159 -2.9723728 -63.859726 -6.4812703 0.012572513 146.35609
515100037.75009 -0.30641863 -174.16617 -64.193596 -2.4690359 -63.216389 -5.8389382 0.012520122 146.36015
515477538.69385 -0.3097508 -174.37955 -63.823208 -11.107744 -62.993313 -1.3359962 0.011658729 146.39944
515855039.6376 -0.31149673 -174.59084 -62.887634 -0.44834718 -63.843941 -2.3703115 0.007328508 146.39125
516232540.58135 -0.31295121 -174.81761 -63.9492 -3.6499469 -65.036392 -10.733549 0.00042815614 146.40395
516610041.5251 -0.31527087 -175.03493 -64.140465 2.3557534 -63.693188 -13.915372 -0.0039553079 146.38426
516987542.46886 -0.31674904 -175.25482 -64.592064 -11.758747 -62.758259 -9.7030268 -0.0083765546 146.35866
517365043.41261 -0.31830469 -175.46794 -63.571087 -23.475155 -63.284817 -12.726446 -0.018439852 146.31418
517742544.35636 -0.32153401 -175.70242 -62.937397 -3.1109869 -62.178276 -8.13908 -0.022187654 146.27185
518120045.30011 -0.32586208 -175.92894 -63.014957 -16.518295 -64.05175 -10.366863 -0.027364682 146.20787
518497546.24387 -0.32906282 -176.14276 -62.328342 -18.035404 -62.009727 -11.536658 -0.027579511 146.12822
518875047.18762 -0.33389288 -176.36588 -62.664677 -14.708048 -63.363075 -2.4458544 -0.02878939 146.05804
519252548.13137 -0.33635393 -176.57826 -62.3409 -20.773066 -63.148739 -9.6434717 -0.028617429 145.99046
519630049.07512 -0.33795509 -176.80093 -61.853348 -18.859209 -62.45097 -9.8375492 -0.027507542 145.90555
520007550.01888 -0.34130415 -177.00937 -62.708107 -9.8563414 -62.675617 -20.647125 -0.021953808 145.8524
520385050.96263 -0.34379551 -177.21216 -61.749683 -14.963405 -62.156155 -11.384438 -0.018888334 145.79906
520762551.90638 -0.3469902 -177.41998 -62.00729 -15.214402 -61.357548 -15.935327 -0.015938874 145.74191
521140052.85013 -0.34972 -177.63806 -61.038971 -23.425495 -61.347679 -18.106516 -0.0057887239 145.70399
521517553.79388 -0.35048291 -177.85873 -61.51218 -17.697433 -61.693054 -29.08091 -0.0082263956 145.67973
521895054.73764 -0.35122859 -178.08153 -62.686363 -16.347725 -62.483932 -13.575591 -0.0056374744 145.65709
522272555.68139 -0.35363179 -178.29709 -60.953526 -19.911554 -60.701885 -28.67141 -0.0066910214 145.66348
522650056.62514 -0.35501364 -178.51451 -62.389362 -28.698246 -62.307705 -20.160084 -0.0071441368 145.68181
523027557.56889 -0.35939428 -178.73694 -62.798801 -32.775394 -62.289005 -29.885452 -0.011191567 145.69106
523405058.51265 -0.36356261 -178.96738 -60.885574 -20.067881 -60.917179 -29.750849 -0.017176535 145.65457
523782559.4564 -0.36513203 -179.17561 -61.890846 -23.786613 -61.079712 -32.347061 -0.019852452 145.6364
524160060.40015 -0.36890879 -179.40228 -62.378143 -33.626713 -62.3722 -34.394566 -0.027847273 145.62962
524537561.3439 -0.37702137 -179.63124 -60.41951 -27.070084 -61.106701 -28.789667 -0.029311597 145.61159
524915062.28766 -0.38071138 -179.85916 -60.333481 -21.323463 -62.453979 -28.890793 -0.033908602 145.54732
525292563.23141 -0.38429502 179.91011 -61.470253 -35.952759 -61.348358 -32.177879 -0.035048056 145.52184
525670064.17516 -0.39288318 179.67812 -61.874641 -31.207125 -61.231201 -30.49114 -0.036207959 145.48569
526047565.11891 -0.3975316 179.46228 -61.437412 -28.398232 -61.16576 -31.486687 -0.031002823 145.42258
526425066.06267 -0.40642104 179.23422 -60.658363 -35.516415 -62.077267 -33.586861 -0.029534524 145.36661
526802567.00642 -0.41204667 179.03593 -61.138069 -25.786858 -60.292324 -31.549559 -0.028838178 145.31598
527180067.95017 -0.42204332 178.79607 -60.379215 -38.214775 -61.799793 -30.147671 -0.021729454 145.2645
527557568.89392 -0.42977187 178.57976 -59.790257 -34.967293 -61.169918 -37.167934 -0.020553444 145.23987
527935069.83767 -0.43578151 178.3791 -60.882858 -35.650768 -60.755783 -34.012703 -0.012488518 145.19998
528312570.78143 -0.44285119 178.16066 -61.322163 -37.647568 -59.588234 -41.424995 -0.011038058 145.16985
528690071.72518 -0.44967958 177.94298 -60.218567 -38.95496 -60.191936 -38.090282 -0.0070508835 145.15373
529067572.66893 -0.45891601 177.74074 -60.656101 -39.186989 -60.605091 -44.510525 -0.0055625415 145.12447
529445073.61268 -0.46204218 177.53102 -59.948853 -44.618656 -60.187729 -34.523678 -0.0046949401 145.12195
529822574.55644 -0.46843839 177.32341 -59.813709 -38.376671 -60.198448 -39.400742 -0.0049940115 145.11626
530200075.50019 -0.47319016 177.09296 -61.006943 -35.382557 -60.083038 -44.164391 -0.0072500301 145.14458
530577576.44394 -0.47820163 176.86978 -58.752686 -41.415672 -59.851074 -46.827709 -0.010431098 145.14467
530955077.38769 -0.48300868 176.65617 -59.443497 -45.820747 -59.603088 -43.936958 -0.013171819 145.12457
531332578.33145 -0.48887923 176.43185 -58.871258 -45.982727 -59.663002 -49.63327 -0.015222075 145.12889
531710079.2752 -0.49460623 176.21442 -59.667484 -42.619633 -59.476284 -47.739975 -0.018574454 145.11386
532087580.21895 -0.49875024 175.99977 -58.918209 -46.823532 -59.618877 -52.002003 -0.017226674 145.09882
532465081.1627 -0.50614607 175.78281 -58.844654 -51.348873 -59.074623 -52.52322 -0.019510577 145.07404
532842582.10646 -0.50947946 175.57594 -58.707355 -51.188557 -58.83123 -51.733356 -0.017769355 145.04405
533220083.05021 -0.51414067 175.35078 -60.071426 -54.399395 -58.903889 -54.975895 -0.016517904 145.00101
533597583.99396 -0.519898 175.15256 -59.115665 -55.725498 -58.426575 -53.715885 -0.010316359 144.94116
533975084.93771 -0.52270979 174.94774 -58.290916 -53.214855 -59.172127 -55.817814 -0.008975192 144.89491
534352585.88146 -0.52799416 174.7258 -59.13625 -60.192547 -58.815758 -58.252567 -0.0032341173 144.86824
534730086.82522 -0.5316841 174.53822 -59.233246 -61.144436 -59.061756 -59.885441 -0.0019435363 144.82082
535107587.76897 -0.53570491 174.32901 -59.347492 -64.116425 -59.556477 -64.829964 0.0017550178 144.77226
535485088.71272 -0.5380823 174.13347 -59.372295 -58.271358 -59.373756 -61.936237 0.0058289897 144.73152
535862589.65647 -0.53808588 173.91937 -59.897392 -67.314636 -58.823933 -64.354462 0.0080694696 144.73709
536240090.60023 -0.5437097 173.70264 -58.891212 -70.667519 -59.535713 -68.933655 0.0082261469 144.69331
536617591.54398 -0.54715276 173.49281 -59.000607 -57.749283 -58.604321 -68.498833 0.0077988249 144.66209
536995092.48773 -0.55015618 173.29945 -58.386757 -67.24749 -59.566376 -65.106926 0.0045545674 144.63722
537372593.43148 -0.55474073 173.09096 -60.214321 -72.489014 -59.173809 -66.90464 0.0026036554 144.62921
537750094.37524 -0.55683887 172.89429 -58.466713 -74.351814 -57.595676 -69.560654 -0.0032958563 144.6156
538127595.31899 -0.55775964 172.69052 -59.198349 -67.472382 -59.367832 -66.788712 -0.0054665897 144.60155
538505096.26274 -0.5599879 172.47041 -59.586441 -73.260635 -59.749435 -66.781792 -0.0049022431 144.60229
538882597.20649 -0.56363058 172.27708 -59.065571 -76.618896 -59.033432 -67.886826 -0.0023539027 144.59407
539260098.15025 -0.56393671 172.05757 -59.274673 -71.547295 -58.734913 -71.835548 -0.0050130156 144.56549
539637599.094 -0.56373906 171.83092 -59.838562 -79.295815 -59.013699 -74.130775 -0.0044239559 144.5592
540015100.03775 -0.56331867 171.62292 -59.087616 -78.735741 -59.218727 -75.145683 -0.0025463593 144.54858
540392600.9815 -0.56451452 171.37766 -58.879692 -77.937531 -59.732079 -78.830482 0.0022679067 144.51195
540770101.92525 -0.56273878 171.12898 -59.969227 -79.493858 -58.652222 -81.128906 0.0038134214 144.49677
541147602.86901 -0.56413704 170.89503 -58.789078 -76.666428 -58.696842 -70.443718 0.0083555356 144.46864
541525103.81276 -0.56558669 170.63387 -58.42437 -79.413757 -60.112808 -83.676178 0.011696883 144.42986
541902604.75651 -0.56811684 170.37341 -59.561863 -79.3601 -59.912647 -84.148575 0.0095374854 144.37209
542280105.70026 -0.57071847 170.12106 -59.483276 -81.078522 -59.441292 -81.820938 0.00871085 144.34546
542657606.64402 -0.57439983 169.85867 -58.929806 -79.135323 -58.36972 -85.217598 0.0070282524 144.28505
543035107.58777 -0.57580394 169.56499 -58.88488 -79.533493 -59.091679 -76.63726 0.0015958399 144.25493
543412608.53152 -0.58018327 169.31233 -58.551353 -80.692406 -58.51432 -83.138237 -0.0032893696 144.18166
543790109.47527 -0.58763742 169.03868 -60.183521 -74.591667 -59.050625 -84.699448 -0.0078259213 144.12671
544167610.41903 -0.59091067 168.76453 -60.041805 -79.599274 -60.139587 -81.948875 -0.017403793 144.07971
544545111.36278 -0.5947839 168.48141 -58.784653 -82.423157 -59.028564 -84.226364 -0.024973387 144.01616
544922612.30653 -0.60339916 168.21835 -58.423096 -89.252914 -58.832863 -81.958527 -0.031447086 143.98148
545300113.25028 -0.60512 167.93684 -58.630562 -89.449631 -58.868656 -86.010124 -0.034013223 143.91325
545677614.19404 -0.61399865 167.66 -58.376869 -85.950844 -58.410782 -81.737801 -0.041596927 143.90128
546055115.13779 -0.62229395 167.38864 -58.696117 -85.046951 -58.378864 -91.394859 -0.04305698 143.82243
546432616.08154 -0.62619454 167.09798 -58.3521 -89.552017 -57.732643 -86.574692 -0.045658983 143.80275
546810117.02529 -0.63425606 166.81548 -57.888168 -87.507164 -58.725643 -88.063957 -0.043678753 143.76503
547187617.96904 -0.64517915 166.53647 -58.061764 -91.698471 -57.798363 -88.356071 -0.041210201 143.72974
547565118.9128 -0.6532566 166.25345 -58.779629 -93.139969 -58.299347 -90.387039 -0.03737824 143.69267
547942619.85655 -0.66710627 165.98302 -57.835941 -83.500999 -58.277161 -91.614395 -0.032337062 143.64009
548320120.8003 -0.67943656 165.71515 -58.183922 -88.258965 -57.859997 -88.917114 -0.028166389 143.61188
548697621.74405 -0.69059008 165.44731 -57.10442 -91.494087 -57.324074 -91.382324 -0.022391062 143.5735
549075122.68781 -0.70656818 165.20816 -56.944611 -90.061096 -56.942181 -92.725281 -0.025112065 143.5377
549452623.63156 -0.72425699 164.97684 -57.437157 -91.562607 -57.702995 -93.283554 -0.023925282 143.49211
549830124.57531 -0.73725224 164.74582 -57.231121 -93.494057 -56.773689 -96.803932 -0.021217823 143.45445
550207625.51906 -0.74928266 164.54108 -57.734264 -96.249809 -56.891384 -97.304619 -0.024658104 143.39679
550585126.46282 -0.7636857 164.32971 -57.845413 -95.507072 -57.163906 -100.82162 -0.029135533 143.35811
550962627.40657 -0.77494663 164.12485 -56.777676 -101.50685 -57.06543 -96.192131 -0.033376742 143.32802
551340128.35032 -0.7846362 163.93575 -57.466667 -101.99224 -56.338745 -100.77818 -0.036547415 143.27606
551717629.29407 -0.79314315 163.73367 -56.184887 -101.59529 -57.153774 -99.449867 -0.037629824 143.2467
552095130.23783 -0.79994422 163.54326 -57.796291 -101.00305 -57.60886 -102.59232 -0.039550461 143.19832
552472631.18158 -0.81096607 163.35017 -57.438759 -103.7524 -56.719612 -106.68005 -0.041438848 143.15588
552850132.12533 -0.81302696 163.14024 -56.870956 -108.62312 -57.647606 -106.7183 -0.038874496 143.1324
553227633.06908 -0.81497502 162.92204 -56.52874 -111.50389 -57.687263 -108.12663 -0.037019406 143.10847
553605134.01284 -0.82373679 162.70676 -57.082142 -107.88316 -57.064568 -108.08831 -0.029738294 143.09897
553982634.95659 -0.82788181 162.44002 -56.994198 -107.37691 -57.198734 -107.37531 -0.02210544 143.10098
554360135.90034 -0.83199006 162.19756 -56.775608 -105.14007 -57.733238 -107.90949 -0.013116659 143.1167
554737636.84409 -0.84136963 161.95064 -57.20063 -109.63099 -57.708157 -108.04448 -0.0019582016 143.12506
555115137.78784 -0.84937352 161.68262 -56.985317 -108.74755 -56.998444 -112.43849 0.0077789137 143.13564
555492638.7316 -0.85784918 161.40878 -56.933037 -112.49419 -57.332565 -109.83623 0.017893348 143.13603
555870139.67535 -0.87046695 161.15295 -57.198875 -111.5508 -56.98481 -107.96938 0.023594622 143.16379
556247640.6191 -0.8843286 160.90698 -56.780827 -110.78317 -56.764664 -110.56006 0.031134786 143.15227
556625141.56285 -0.8964166 160.64476 -56.230801 -117.9794 -55.970871 -111.43133 0.030196182 143.15996
557002642.50661 -0.90650338 160.39873 -56.631958 -116.46278 -56.237743 -115.4577 0.030869234 143.15079
557380143.45036 -0.92184156 160.1622 -56.470318 -116.65708 -56.405437 -113.1706 0.026337747 143.13402
557757644.39411 -0.93289292 159.93466 -56.581226 -114.28408 -55.898148 -113.61732 0.02377622 143.12654
558135145.33786 -0.94880271 159.69052 -56.34639 -113.89308 -56.460777 -115.44376 0.017075133 143.07054
558512646.28162 -0.9600383 159.46831 -56.072819 -116.86932 -56.331963 -112.85332 0.0041943574 143.04218
558890147.22537 -0.9741931 159.24635 -55.622707 -120.09904 -55.929237 -117.47128 -0.0020287992 142.99544
559267648.16912 -0.98245072 159.03513 -55.684967 -120.44875 -56.152489 -116.29393 -0.01034519 142.93997
559645149.11287 -0.99438429 158.84227 -56.424789 -118.90643 -55.972137 -119.4023 -0.015206748 142.86659
560022650.05663 -1.0058875 158.62804 -55.612015 -122.62919 -55.48119 -122.87834 -0.018667966 142.81645
560400151.00038 -1.0131272 158.42494 -55.066116 -119.07141 -55.50338 -118.78676 -0.016580245 142.76381
560777651.94413 -1.0205941 158.22246 -54.682323 -120.35654 -55.481159 -120.98125 -0.016856723 142.71259
561155152.88788 -1.0297732 158.01636 -55.534695 -123.51366 -55.123695 -124.47511 -0.01468775 142.67357
561532653.83163 -1.0346088 157.83768 -55.345215 -122.37511 -55.477913 -122.32977 -0.0059762695 142.64323
561910154.77539 -1.0394121 157.64914 -55.303932 -126.94146 -54.954285 -125.27277 0.00075353094 142.63307
562287655.71914 -1.040969 157.44632 -54.960381 -127.69189 -54.89373 -127.32372 0.0058251903 142.60748
562665156.66289 -1.0435945 157.24336 -55.027103 -129.46008 -54.969944 -130.2756 0.016047867 142.61099
563042657.60664 -1.0431379 157.03351 -54.756752 -128.02391 -55.275208 -129.11171 0.018978851 142.6075
563420158.5504 -1.0462964 156.81572 -54.885605 -133.06316 -54.45578 -133.12048 0.023934379 142.60077
563797659.49415 -1.044253 156.61581 -55.372227 -128.22179 -54.862617 -133.82005 0.024809157 142.58473
564175160.4379 -1.0447623 156.40057 -54.729412 -137.81886 -54.460983 -135.16345 0.023666322 142.59563
564552661.38165 -1.042344 156.15448 -54.024677 -136.28818 -54.969769 -135.10426 0.015329643 142.57021
564930162.32541 -1.0436145 155.93558 -54.485397 -134.98537 -54.476192 -139.74652 0.01210507 142.54648
565307663.26916 -1.0406041 155.67741 -54.417973 -140.38828 -54.618896 -142.28181 0.0023215278 142.49977
565685164.21291 -1.0376121 155.41051 -54.588951 -139.56314 -54.450184 -140.29163 -0.010579271 142.42645
566062665.15666 -1.0338191 155.13066 -54.588303 -140.29535 -54.630421 -138.66344 -0.02108179 142.37701
566440166.10042 -1.0356778 154.84442 -54.807468 -144.33716 -54.477795 -144.65958 -0.026144981 142.33548
566817667.04417 -1.0368465 154.522 -54.745079 -146.76282 -54.547668 -143.11818 -0.035987396 142.23743
567195167.98792 -1.0455536 154.22891 -54.647797 -144.85141 -54.791626 -143.96585 -0.041613691 142.15811
567572668.93167 -1.0524203 153.92284 -54.612297 -145.66846 -55.542484 -144.19954 -0.045230418 142.07294
567950169.87542 -1.0600134 153.61261 -54.752102 -144.28297 -55.220585 -150.45174 -0.044052493 142.01262
568327670.81918 -1.0701411 153.32912 -54.68404 -146.56195 -54.978058 -147.01694 -0.039477162 141.94949
568705171.76293 -1.0823534 153.03253 -54.929054 -144.3054 -55.064331 -146.47888 -0.031027034 141.88145
569082672.70668 -1.0918993 152.77686 -54.286526 -149.06799 -55.041897 -149.04723 -0.023681488 141.84645
569460173.65043 -1.1031126 152.47589 -54.537678 -145.33405 -54.517296 -145.05493 -0.0162376 141.8013
569837674.59419 -1.109522 152.21159 -55.176537 -143.99883 -54.580078 -147.30765 -0.012717951 141.78925
570215175.53794 -1.1213611 151.91992 -53.847095 -147.4333 -54.566906 -147.5414 -0.00033962898 141.79167
570592676.48169 -1.1310525 151.61591 -54.325634 -147.14845 -54.111492 -149.05145 0.0030600023 141.76263
570970177.42544 -1.1424117 151.32002 -54.357922 -151.01234 -53.708115 -149.51535 0.0081493072 141.789
