!Keysight Technologies,N5242B,MY48420860,A.13.80.08
!Date: Saturday, September 26, 2020 11:53:18
!Correction: S11(Full 2 Port(1,2)) 
!S21(Full 2 Port(1,2)) 
!S12(Full 2 Port(1,2)) 
!S22(Full 2 Port(1,2)) 
!S2P File: Measurements: S11, S21, S12, S22:
# Hz S  dB   R 50
500000000 -0.23218317 -166.31024 -58.361954 144.3744 -58.427773 145.89314 -0.00021073331 147.49178
500377500.94375 -0.23720399 -166.50673 -57.974159 152.81595 -58.373951 145.14862 0.0013642465 147.45407
500755001.8875 -0.23781995 -166.70503 -58.164352 148.70876 -58.797112 146.08643 0.0030251844 147.44426
501132502.83126 -0.23948957 -166.92081 -58.184425 140.78305 -58.061768 142.05214 0.0033350238 147.44661
501510003.77501 -0.24406406 -167.12756 -58.176048 135.73418 -60.026665 143.41463 0.005164457 147.43936
501887504.71876 -0.24627511 -167.31856 -58.431145 143.79237 -57.728519 137.55003 0.0083145043 147.43683
502265005.66251 -0.24956234 -167.52167 -57.559547 143.72797 -57.629089 144.95808 0.0082271062 147.41957
502642506.60627 -0.25428203 -167.73488 -57.749084 140.3596 -58.267639 138.03638 0.0049961335 147.4117
503020007.55002 -0.25550729 -167.93179 -57.890118 143.42624 -57.208942 143.74049 0.0072451667 147.40256
503397508.49377 -0.26067188 -168.12021 -57.155884 139.26704 -57.101219 142.58214 0.0071303505 147.38008
503775009.43752 -0.26137507 -168.31961 -57.495575 138.06898 -57.946377 140.56679 0.0030054487 147.35481
504152510.38128 -0.2644915 -168.51596 -56.613598 138.89474 -57.482967 142.22557 0.00664138 147.33914
504530011.32503 -0.26781702 -168.70834 -57.38829 139.97198 -57.575226 137.40547 0.0083288159 147.30067
504907512.26878 -0.26962295 -168.90353 -56.550335 135.63998 -57.109245 134.72897 0.010456047 147.27115
505285013.21253 -0.27061012 -169.07959 -57.002529 137.50229 -57.557999 133.86575 0.010505514 147.27654
505662514.15629 -0.2708458 -169.27832 -57.656639 134.74234 -56.816715 140.23817 0.014159149 147.22934
506040015.10004 -0.27286482 -169.46843 -57.130745 133.80267 -57.08197 135.16151 0.013785489 147.18741
506417516.04379 -0.27498543 -169.66028 -57.2272 131.67442 -56.977615 138.10374 0.0144821 147.1725
506795016.98754 -0.27095568 -169.85553 -57.008533 138.32819 -56.660652 133.59349 0.018950095 147.13101
507172517.93129 -0.27307457 -170.04256 -57.241425 135.32568 -56.819794 138.75591 0.018711593 147.09875
507550018.87505 -0.27338535 -170.26414 -56.19706 135.289 -56.812141 128.64342 0.022261636 147.09412
507927519.8188 -0.27091715 -170.46147 -56.530674 131.04027 -56.796806 128.31432 0.021544445 147.05016
508305020.76255 -0.2752406 -170.65225 -56.783627 130.35495 -57.057114 138.09012 0.021546001 147.04486
508682521.7063 -0.27251393 -170.86385 -57.464657 127.73683 -57.118404 132.43666 0.021152571 147.03735
509060022.65006 -0.27346417 -171.0592 -57.038643 134.48 -57.467712 131.78519 0.022892043 147.00795
509437523.59381 -0.27372476 -171.25322 -56.727589 131.58138 -56.235901 131.35149 0.020610068 147.01213
509815024.53756 -0.27566105 -171.46826 -56.920544 128.72264 -56.576904 127.77586 0.017502261 146.98871
510192525.48131 -0.2765286 -171.66428 -56.339481 128.93202 -56.279716 130.92572 0.012337321 146.95401
510570026.42507 -0.27849048 -171.87231 -56.311607 132.14766 -56.713818 132.32079 0.0084611569 146.9046
510947527.36882 -0.28003442 -172.07796 -56.197315 129.39452 -56.483288 129.61967 0.0091530085 146.88229
511325028.31257 -0.28194964 -172.29358 -56.590855 125.60292 -56.234615 129.87575 0.004953498 146.82124
511702529.25632 -0.28440732 -172.49646 -56.310345 130.15384 -56.150471 126.92319 0.0035450167 146.79584
512080030.20008 -0.28559035 -172.69621 -56.207943 128.98265 -56.695831 122.98666 0.0008745474 146.72252
512457531.14383 -0.28785327 -172.9054 -55.780823 128.63686 -56.252071 124.76831 0.0035347037 146.66382
512835032.08758 -0.29073688 -173.11391 -56.113762 129.73637 -55.842194 127.93405 0.0021254632 146.63231
513212533.03133 -0.29374358 -173.33287 -55.974781 127.00849 -56.395878 126.15067 0.0025830113 146.58258
513590033.97508 -0.29624295 -173.53975 -55.472347 126.44189 -55.83522 121.63734 0.0041013099 146.52032
513967534.91884 -0.300304 -173.75931 -55.871029 132.16089 -56.434231 126.03931 0.0063938885 146.47124
514345035.86259 -0.30262959 -173.9539 -56.039013 125.87698 -55.648514 123.78255 0.0086739389 146.4632
514722536.80634 -0.30351692 -174.16772 -55.162323 124.07922 -55.322594 126.01386 0.011263363 146.43652
515100037.75009 -0.30734923 -174.39879 -55.16964 124.00716 -55.52219 126.9649 0.012749746 146.40291
515477538.69385 -0.30933276 -174.6102 -55.566006 123.4684 -55.41478 122.15794 0.012817294 146.40863
515855039.6376 -0.31222519 -174.81467 -55.137344 123.95423 -55.209236 119.76634 0.015832664 146.40559
516232540.58135 -0.31557164 -175.03615 -55.427849 123.74249 -55.661224 122.08512 0.013851183 146.388
516610041.5251 -0.31718317 -175.25352 -55.863617 120.2702 -56.11187 122.83379 0.01814617 146.35524
516987542.46886 -0.31957522 -175.48317 -55.11161 124.51009 -55.919968 121.69009 0.016066477 146.33502
517365043.41261 -0.32117432 -175.69414 -55.181763 124.07798 -55.513996 122.51664 0.011298372 146.32785
517742544.35636 -0.32267681 -175.90881 -55.206215 119.86354 -55.385555 121.2187 0.013094161 146.32443
518120045.30011 -0.32562345 -176.13208 -55.625233 121.96358 -54.892982 120.81608 0.0081765531 146.27817
518497546.24387 -0.33017197 -176.35472 -54.571339 119.00365 -54.302734 121.74562 0.0081462283 146.23637
518875047.18762 -0.3316943 -176.59004 -54.83762 119.15093 -55.18483 120.70499 0.0054941601 146.21245
519252548.13137 -0.3350296 -176.80104 -55.376385 123.31281 -54.825588 119.49155 0.0057244599 146.16733
519630049.07512 -0.33856663 -177.0305 -55.512432 117.0829 -54.914284 121.08497 0.0033507592 146.11597
520007550.01888 -0.34236816 -177.24277 -54.341434 115.02417 -54.714581 117.7188 0.003669613 146.06828
520385050.96263 -0.34304151 -177.45435 -54.59634 117.39816 -54.675629 116.68719 0.0043530962 146.01953
520762551.90638 -0.34854522 -177.66487 -54.725018 116.36431 -54.812195 118.57632 0.0040106117 145.96478
521140052.85013 -0.35296974 -177.89343 -54.888325 116.1209 -54.791248 120.52746 0.008314318 145.92567
521517553.79388 -0.35458538 -178.10077 -55.102013 115.30679 -54.815514 116.28112 0.0078181606 145.88411
521895054.73764 -0.35587212 -178.32343 -54.259827 117.18999 -54.954895 118.75679 0.0086497879 145.84236
522272555.68139 -0.35879582 -178.5386 -54.102398 116.09558 -53.974472 113.41627 0.0087679215 145.80559
522650056.62514 -0.35981649 -178.75652 -54.156761 115.24281 -54.531631 116.22707 0.011279055 145.81396
523027557.56889 -0.36636522 -178.98428 -54.173027 114.72905 -53.991108 113.92203 0.012316481 145.78638
523405058.51265 -0.36940521 -179.20726 -53.969109 110.88639 -54.021118 115.0574 0.012185161 145.76906
523782559.4564 -0.37233496 -179.41473 -53.649178 112.98429 -54.048763 112.42041 0.012644341 145.74722
524160060.40015 -0.3782337 -179.64081 -53.604485 115.30626 -53.539028 114.95284 0.010431189 145.74681
524537561.3439 -0.38429815 -179.86436 -53.797508 117.24039 -54.10165 113.96279 0.012048666 145.74052
524915062.28766 -0.39001492 179.91159 -53.839115 111.36056 -53.737595 111.12984 0.0096358387 145.70042
525292563.23141 -0.3959707 179.69098 -53.31152 110.82952 -53.863338 116.3418 0.0089580007 145.69498
525670064.17516 -0.40202177 179.47055 -53.908737 110.07883 -53.767303 110.75566 0.0085605076 145.67458
526047565.11891 -0.4059118 179.2697 -53.345154 112.44695 -53.677124 110.85664 0.009108942 145.64024
526425066.06267 -0.41517434 179.04268 -53.607491 111.83969 -53.115097 109.81006 0.0085355658 145.5985
526802567.00642 -0.41957572 178.83969 -52.819862 110.8581 -53.500023 107.8911 0.0065839114 145.56648
527180067.95017 -0.42464536 178.61462 -53.192047 109.62405 -53.005028 106.14874 0.0058577163 145.53
527557568.89392 -0.4327279 178.40092 -53.169529 110.40839 -52.996845 108.976 0.0057499958 145.47958
527935069.83767 -0.43749338 178.20238 -52.91095 110.54684 -53.479847 107.6013 0.0082412623 145.4368
528312570.78143 -0.44279611 177.97691 -53.175228 106.05181 -53.15844 107.6471 0.0072093778 145.39774
528690071.72518 -0.44688809 177.76723 -53.224106 106.43002 -53.105587 110.17751 0.010006513 145.36076
529067572.66893 -0.45226216 177.54286 -53.284466 104.58215 -52.949352 108.67249 0.010132505 145.32327
529445073.61268 -0.45508984 177.32497 -53.173244 104.18448 -52.522835 107.51406 0.012115422 145.28125
529822574.55644 -0.46260247 177.10918 -52.884468 104.4317 -52.639317 107.08289 0.014590957 145.26941
530200075.50019 -0.46664637 176.87445 -52.760036 105.39252 -52.614834 104.39032 0.012260339 145.257
530577576.44394 -0.47240031 176.65797 -52.372013 104.82806 -52.387909 104.63689 0.013020506 145.23885
530955077.38769 -0.47690588 176.42365 -52.113083 105.51791 -52.809887 103.84265 0.01334709 145.23022
531332578.33145 -0.482243 176.19287 -52.822624 106.31104 -52.196594 104.65569 0.013845411 145.22559
531710079.2752 -0.4890936 175.96109 -52.615452 101.13535 -52.201935 101.4392 0.013758168 145.20889
532087580.21895 -0.49309504 175.75815 -52.455921 104.10844 -52.338047 102.5179 0.013915588 145.18774
532465081.1627 -0.50115156 175.53372 -52.021095 100.95018 -51.87529 102.78485 0.01050384 145.16751
532842582.10646 -0.50608057 175.31181 -51.880638 101.3182 -52.312157 98.720642 0.012594192 145.14952
533220083.05021 -0.50812715 175.08334 -51.889397 99.87133 -51.955399 99.735138 0.01153635 145.10263
533597583.99396 -0.51488453 174.88983 -52.001442 99.212776 -51.80159 99.038834 0.01211075 145.05151
533975084.93771 -0.51929951 174.67741 -51.957512 97.406296 -51.967918 97.689552 0.010700411 145.01405
534352585.88146 -0.52555609 174.45375 -51.808704 98.482033 -51.86536 95.553322 0.011382904 144.98598
534730086.82522 -0.53075522 174.24274 -51.735294 97.101768 -51.677639 96.044785 0.0090839826 144.93655
535107587.76897 -0.53285056 174.05074 -51.292274 95.443817 -51.730911 94.616982 0.010392101 144.88542
535485088.71272 -0.53443921 173.83034 -51.426075 94.808846 -51.520935 94.079704 0.013642817 144.82498
535862589.65647 -0.53805459 173.61475 -51.175583 95.29937 -51.555908 93.443039 0.015476136 144.80968
536240090.60023 -0.54423583 173.39912 -51.703033 92.502113 -51.599602 92.225983 0.013427963 144.75587
536617591.54398 -0.54908413 173.18611 -51.452415 95.041267 -51.228798 94.653572 0.015034766 144.73749
536995092.48773 -0.55051595 172.9763 -51.269897 94.511589 -51.176933 91.23661 0.013488957 144.69698
537372593.43148 -0.55495209 172.76476 -51.617981 91.022835 -51.304001 91.451279 0.016181244 144.67703
537750094.37524 -0.5580138 172.54634 -50.786282 91.968674 -51.092491 92.774673 0.014623177 144.64647
538127595.31899 -0.56259286 172.33589 -51.101509 92.781342 -51.317856 89.798309 0.014508717 144.64261
538505096.26274 -0.56338215 172.11084 -51.270721 88.329819 -51.173653 89.359154 0.017202847 144.64131
538882597.20649 -0.56790632 171.9007 -51.046043 90.080864 -51.089043 90.289589 0.018687753 144.6194
539260098.15025 -0.56805301 171.6703 -51.057587 89.659225 -50.934826 87.32338 0.018020542 144.60378
539637599.094 -0.57149076 171.44156 -50.965096 89.509224 -51.038296 88.220734 0.018865 144.58379
540015100.03775 -0.57673055 171.2133 -50.669235 88.368713 -51.081326 87.569481 0.015912279 144.58113
540392600.9815 -0.57853454 170.98218 -51.294418 88.982162 -51.192188 85.353668 0.018782217 144.55029
540770101.92525 -0.57968289 170.73669 -50.76284 87.491875 -50.699924 88.070526 0.018726369 144.52571
541147602.86901 -0.58337539 170.51636 -50.938435 87.366798 -51.092224 84.859367 0.021470793 144.48656
541525103.81276 -0.58714563 170.26234 -50.88813 86.665672 -51.032104 84.56543 0.019919394 144.43831
541902604.75651 -0.59117591 170.01303 -50.591274 83.557159 -50.878277 85.770432 0.017269092 144.39754
542280105.70026 -0.59552729 169.76807 -50.959515 85.5084 -50.737316 84.317604 0.018667856 144.35704
542657606.64402 -0.59836221 169.51732 -50.518173 84.605751 -50.728752 82.457764 0.017646203 144.31061
543035107.58777 -0.60140765 169.25951 -50.532181 84.477379 -50.770203 83.008255 0.014160986 144.26328
543412608.53152 -0.60870832 169.00528 -50.444 82.952339 -50.687618 83.87265 0.0136461 144.21902
543790109.47527 -0.61433154 168.73811 -50.67709 80.129433 -50.742523 82.996109 0.014263634 144.1653
544167610.41903 -0.6175878 168.49437 -50.460003 81.352341 -50.330238 82.115578 0.011198928 144.12914
544545111.36278 -0.62250441 168.22301 -50.382824 81.605621 -50.659855 82.474487 0.009118462 144.09462
544922612.30653 -0.63141179 167.98055 -50.57048 79.4823 -50.665634 80.447151 0.0055754674 144.0719
545300113.25028 -0.63597667 167.71075 -50.242702 80.577209 -50.568794 80.062653 0.0079813376 144.0555
545677614.19404 -0.64253467 167.45079 -50.538494 78.73333 -50.108181 80.459129 0.0059117447 144.04094
546055115.13779 -0.651501 167.1937 -50.174492 80.158859 -50.244122 77.579414 0.0054097697 143.98665
546432616.08154 -0.65491122 166.93219 -50.379322 79.279358 -50.119789 79.665924 0.0019893553 143.98303
546810117.02529 -0.66269332 166.6669 -50.024246 77.310089 -49.942348 79.098663 0.0029465989 143.95697
547187617.96904 -0.66945052 166.3961 -50.191486 80.249817 -50.25489 78.12146 0.0026800795 143.93654
547565118.9128 -0.67752475 166.14563 -50.073185 80.411186 -50.255077 79.785187 0.0030741284 143.8981
547942619.85655 -0.68831617 165.88506 -50.018429 78.454468 -49.901512 78.710541 0.0027825839 143.84593
548320120.8003 -0.69455612 165.62898 -49.799591 75.760185 -49.554428 77.980194 0.0030247772 143.80116
548697621.74405 -0.70481908 165.36066 -49.805061 77.34478 -49.905201 76.313255 0.0016041291 143.75992
549075122.68781 -0.71570599 165.1277 -49.553513 78.399475 -49.719368 74.552513 0.00072846015 143.71576
549452623.63156 -0.72531283 164.89073 -49.531239 76.111458 -49.923634 76.280891 0.00017383011 143.66377
549830124.57531 -0.73716706 164.65421 -49.437195 77.177795 -49.217651 74.679268 0.0034271996 143.61446
550207625.51906 -0.74598092 164.43454 -49.390202 75.281654 -49.236954 74.368477 0.0007951486 143.55286
550585126.46282 -0.7547769 164.19817 -49.208828 75.158012 -49.184032 73.50103 -0.001886784 143.51292
550962627.40657 -0.76441634 163.97783 -49.578556 74.15551 -49.122883 72.137627 2.9742778e-005 143.48798
551340128.35032 -0.77454299 163.75243 -49.590492 74.085831 -49.226051 73.757332 0.0021077986 143.45151
551717629.29407 -0.78108096 163.5193 -49.167168 71.720024 -48.947208 73.318901 0.0011310297 143.42615
552095130.23783 -0.79031867 163.31638 -49.229946 70.491852 -49.151161 72.651985 0.0037906927 143.40005
552472631.18158 -0.79836464 163.08771 -48.846264 71.975861 -49.167416 70.771507 0.0021643601 143.3777
552850132.12533 -0.8036989 162.86984 -48.880051 70.572731 -48.986305 70.19268 0.007366051 143.36517
553227633.06908 -0.80620569 162.63107 -48.809547 68.415749 -48.824986 70.077652 0.0067635318 143.35779
553605134.01284 -0.81460637 162.39297 -48.92902 69.700089 -48.828552 70.455414 0.011334815 143.33879
553982634.95659 -0.81992328 162.14771 -49.026081 68.919884 -48.542904 69.925056 0.011283549 143.34926
554360135.90034 -0.82667315 161.89322 -48.534218 70.163246 -48.886974 67.65567 0.017819092 143.3526
554737636.84409 -0.83430958 161.65274 -48.692871 67.165901 -48.678459 67.83651 0.019505078 143.33214
555115137.78784 -0.84289438 161.38921 -48.461662 68.748917 -48.364342 67.962708 0.02238211 143.30997
555492638.7316 -0.85224861 161.10681 -48.576351 68.776176 -48.415646 66.742714 0.027416294 143.28125
555870139.67535 -0.86247265 160.84845 -48.121826 66.325241 -48.392391 67.63311 0.025671721 143.27939
556247640.6191 -0.87449992 160.58496 -48.340275 65.552971 -48.052532 64.581032 0.030751958 143.22009
556625141.56285 -0.88671011 160.31662 -48.045647 64.541206 -48.35001 66.2901 0.030395338 143.20534
557002642.50661 -0.89792883 160.06108 -48.069263 64.158844 -47.816273 64.113068 0.029142272 143.17078
557380143.45036 -0.91076332 159.8179 -48.003551 64.673027 -48.112534 63.441776 0.026423281 143.14482
557757644.39411 -0.92519087 159.56657 -47.913734 63.83609 -47.812874 62.415451 0.027169345 143.11989
558135145.33786 -0.93803376 159.33192 -47.54343 62.063797 -47.877457 63.025517 0.026172245 143.06401
558512646.28162 -0.95039356 159.09485 -47.917419 61.726662 -47.690636 62.012039 0.023061836 143.04999
558890147.22537 -0.96173549 158.85692 -47.465 61.363342 -47.860695 60.469242 0.019510906 143.02626
559267648.16912 -0.9709686 158.64806 -47.428925 58.796051 -47.689217 60.892632 0.019708019 143.00543
559645149.11287 -0.98240405 158.42538 -47.592876 59.867737 -47.449139 58.103477 0.018359328 142.94426
560022650.05663 -0.99315304 158.21399 -47.320351 59.360184 -47.566532 59.700954 0.017719505 142.94682
560400151.00038 -1.0045174 157.98972 -47.537247 57.998894 -47.483009 57.945999 0.019990353 142.92705
560777651.94413 -1.0113261 157.77769 -47.194515 57.649494 -47.510193 56.899399 0.018109912 142.89194
561155152.88788 -1.0235558 157.55916 -47.530121 56.889957 -47.3578 55.470371 0.01861752 142.86734
561532653.83163 -1.0285438 157.36563 -47.149536 56.7528 -47.436085 55.7286 0.022841234 142.836
561910154.77539 -1.0359603 157.15097 -47.061146 55.274357 -47.245899 54.553574 0.022499792 142.80997
562287655.71914 -1.0381123 156.93513 -47.213993 54.25106 -47.027756 54.041004 0.022614418 142.78374
562665156.66289 -1.044288 156.70815 -47.284954 52.804386 -47.171402 53.915195 0.025108684 142.75209
563042657.60664 -1.0448935 156.48918 -47.283314 51.480442 -47.181679 52.796223 0.027151201 142.72729
563420158.5504 -1.0494652 156.26553 -47.134712 51.634575 -46.970917 53.222332 0.026808333 142.69395
563797659.49415 -1.0518434 156.0379 -46.998016 50.322613 -47.085423 50.813919 0.027411342 142.63412
564175160.4379 -1.0536163 155.81416 -46.754116 50.969913 -46.876434 50.358685 0.026311716 142.62706
564552661.38165 -1.0552446 155.56781 -46.870262 49.440525 -47.180492 49.372776 0.022150649 142.59679
564930162.32541 -1.0615543 155.32533 -46.786644 49.236145 -46.825699 50.364883 0.023414539 142.55394
565307663.26916 -1.060643 155.06137 -47.019543 49.017262 -47.116043 48.887016 0.021514038 142.51004
565685164.21291 -1.0631477 154.81425 -46.913876 47.906696 -46.714382 49.601501 0.019442102 142.47728
566062665.15666 -1.0651722 154.52986 -46.999809 48.690735 -47.023937 49.159588 0.01540968 142.4431
566440166.10042 -1.0690007 154.25105 -46.869034 47.232616 -46.883877 46.652802 0.013293531 142.42484
566817667.04417 -1.0723226 153.9659 -46.769131 47.18082 -46.810951 48.003139 0.012966173 142.39639
567195167.98792 -1.0817984 153.67995 -46.919167 46.55592 -46.824326 46.744347 0.0086666914 142.35829
567572668.93167 -1.0874269 153.39897 -46.813187 48.943317 -46.560951 46.727783 0.0093444781 142.31215
567950169.87542 -1.0958233 153.11191 -46.799801 46.192478 -46.483078 47.340748 0.0087977787 142.30643
568327670.81918 -1.1038963 152.83917 -46.372292 44.990688 -46.521748 45.657654 0.01145448 142.25642
568705171.76293 -1.1124197 152.55194 -46.257996 45.275948 -46.416943 44.871891 0.013682138 142.21313
569082672.70668 -1.1192324 152.27371 -46.449455 42.748238 -46.287018 45.524853 0.014332444 142.16858
569460173.65043 -1.1298426 151.98003 -46.250683 44.316669 -46.082333 43.494934 0.016134733 142.1461
569837674.59419 -1.1358602 151.70285 -46.183296 43.564163 -46.190826 42.526051 0.01226276 142.09413
570215175.53794 -1.1481266 151.4021 -46.056641 42.619347 -46.191875 42.88662 0.016520066 142.05981
570592676.48169 -1.1592355 151.07968 -46.031765 42.583515 -46.053692 41.324474 0.016288351 142.00273
570970177.42544 -1.1679448 150.77466 -45.886963 40.885986 -45.985703 42.030296 0.017292408 141.97746
571347678.3692 -1.1809016 150.46341 -45.885574 40.174385 -45.852013 41.670719 0.01710704 141.93047
571725179.31295 -1.194517 150.14624 -45.950214 39.182976 -45.671242 40.584095 0.015654035 141.90868
572102680.2567 -1.2120488 149.84743 -45.92902 39.427162 -45.848579 39.238914 0.016602738 141.88014
572480181.20045 -1.2291442 149.55759 -45.653522 39.080223 -45.699127 38.043987 0.017435359 141.85207
572857682.14421 -1.2471529 149.26289 -45.607922 38.297638 -45.732883 37.193886 0.01252726 141.82809
