!Keysight Technologies,N5242B,MY48420860,A.13.80.08
!Date: Saturday, September 26, 2020 12:27:51
!Correction: S11(Full 2 Port(1,2)) 
!S21(Full 2 Port(1,2)) 
!S12(Full 2 Port(1,2)) 
!S22(Full 2 Port(1,2)) 
!S2P File: Measurements: S11, S21, S12, S22:
# Hz S  dB   R 50
500000000 -0.24641089 -166.28047 -58.786266 76.412193 -58.239426 68.305161 0.018017393 147.59569
500377500.94375 -0.24889077 -166.48337 -59.231705 65.679375 -58.179646 66.90062 0.018134087 147.59152
500755001.8875 -0.25325349 -166.67679 -58.214165 69.306618 -58.063755 74.575089 0.015553714 147.59831
501132502.83126 -0.25615323 -166.87924 -58.185627 64.207916 -58.154793 69.4095 0.012945204 147.58298
501510003.77501 -0.25956807 -167.09772 -58.073162 69.372879 -59.017548 68.952179 0.009410331 147.57492
501887504.71876 -0.2643002 -167.28836 -57.956665 72.559471 -57.771969 72.917778 0.0074327933 147.57251
502265005.66251 -0.26469269 -167.48276 -57.942924 68.789047 -57.745628 72.890297 -0.000383723 147.52066
502642506.60627 -0.26961032 -167.69749 -58.045052 69.277946 -58.106628 67.728218 -0.00052077527 147.50844
503020007.55002 -0.27210224 -167.89574 -57.516876 67.307503 -57.273998 65.361015 -0.0022824542 147.46822
503397508.49377 -0.27750239 -168.07382 -57.702896 62.90704 -57.511879 64.692085 -0.0035867982 147.4082
503775009.43752 -0.27860734 -168.2789 -57.808727 66.263893 -57.761978 63.313347 -0.0057740472 147.36479
504152510.38128 -0.28233659 -168.48148 -56.816597 65.414513 -57.190182 67.677071 9.5141288e-005 147.33342
504530011.32503 -0.28447196 -168.66626 -57.865822 59.355705 -57.423832 62.844154 0.0035271565 147.29076
504907512.26878 -0.28554073 -168.86166 -57.709141 65.465858 -57.590504 65.238884 0.0084862923 147.25613
505285013.21253 -0.2898078 -169.05658 -57.687199 66.462326 -57.708195 64.687538 0.013470869 147.25034
505662514.15629 -0.29019451 -169.23975 -56.745209 60.397778 -56.976032 65.322342 0.018715221 147.22862
506040015.10004 -0.28995183 -169.41243 -57.348846 71.594894 -57.15625 66.934738 0.020586297 147.18315
506417516.04379 -0.29438698 -169.62074 -57.280945 61.690022 -57.525398 61.792797 0.023492547 147.19331
506795016.98754 -0.28997695 -169.8076 -56.87056 63.094536 -56.948013 57.818623 0.030342044 147.18156
507172517.93129 -0.29132172 -169.99548 -56.679199 58.746704 -57.264149 63.20116 0.027240807 147.16533
507550018.87505 -0.29297024 -170.20274 -56.885212 59.423801 -56.557938 61.559879 0.029247716 147.15807
507927519.8188 -0.2933844 -170.40988 -57.765221 60.945766 -56.741573 64.269463 0.023797184 147.15794
508305020.76255 -0.29172489 -170.59538 -57.034489 62.89698 -57.19109 57.003323 0.021588739 147.12958
508682521.7063 -0.29165834 -170.79225 -56.664616 57.695129 -56.238819 57.270317 0.017825143 147.12582
509060022.65006 -0.29278252 -171.00482 -56.798225 57.511116 -56.39315 59.517586 0.01323709 147.08485
509437523.59381 -0.29146406 -171.18927 -56.944065 53.666832 -56.393623 54.3815 0.0090461206 147.05467
509815024.53756 -0.29594934 -171.39725 -56.555283 59.20697 -56.157875 55.572689 0.0044304421 147.02583
510192525.48131 -0.29411751 -171.60292 -56.11393 54.541954 -56.376163 55.517651 -0.0016439258 146.96426
510570026.42507 -0.29709068 -171.79231 -55.40731 55.255066 -56.361473 56.707035 -0.0041226172 146.91084
510947527.36882 -0.29866105 -172.00591 -56.283409 57.554466 -55.814499 53.545933 -0.0018700379 146.86426
511325028.31257 -0.30074567 -172.20752 -55.863716 56.518322 -55.972271 52.333344 -0.0043920549 146.80289
511702529.25632 -0.30213839 -172.42009 -56.171886 59.669155 -56.181488 54.351833 -0.0026615732 146.76057
512080030.20008 -0.30463332 -172.62117 -56.255371 54.364918 -55.933475 55.746971 -0.0031093878 146.7002
512457531.14383 -0.30589655 -172.83926 -56.11639 53.837952 -55.777222 50.976936 0.0032004833 146.66496
512835032.08758 -0.30681753 -173.0435 -55.922367 51.074177 -55.721966 54.039551 0.0062770224 146.64697
513212533.03133 -0.31204924 -173.25696 -56.074173 52.311508 -56.353367 52.447552 0.0090114241 146.62341
513590033.97508 -0.31594303 -173.47626 -55.981796 49.591644 -56.1898 50.685352 0.013215624 146.58202
513967534.91884 -0.31933725 -173.688 -55.638508 54.360943 -55.35614 49.848171 0.015197512 146.54063
514345035.86259 -0.32355988 -173.89261 -55.013798 49.449226 -55.648762 53.80233 0.016189445 146.54745
514722536.80634 -0.32389426 -174.10672 -55.17585 48.071743 -55.092102 50.862892 0.01871369 146.54187
515100037.75009 -0.3304894 -174.33275 -55.361599 49.592476 -55.679935 51.188496 0.017267829 146.51639
515477538.69385 -0.33234385 -174.54597 -54.647888 47.846889 -55.007935 43.812729 0.013575509 146.51482
515855039.6376 -0.33574688 -174.75995 -55.005474 50.473316 -55.295559 48.245075 0.012444994 146.49771
516232540.58135 -0.34033909 -174.9776 -55.300156 49.224358 -55.648613 47.102718 0.005552215 146.45839
516610041.5251 -0.34286189 -175.18892 -54.99437 42.902374 -54.463058 46.060497 0.0078390464 146.43942
516987542.46886 -0.34479624 -175.40817 -54.383842 46.11702 -54.942562 48.255451 0.0049409466 146.3949
517365043.41261 -0.34671539 -175.62785 -55.042152 43.417656 -54.910866 44.304192 0.00082954054 146.35158
517742544.35636 -0.3514328 -175.84076 -54.61377 51.366917 -54.311077 47.057533 0.0039778012 146.34364
518120045.30011 -0.35697332 -176.06627 -54.521793 45.362301 -54.468136 45.144695 0.0021731115 146.28751
518497546.24387 -0.36170477 -176.26863 -54.623219 45.335285 -54.567551 44.47274 0.0028495532 146.24411
518875047.18762 -0.36490062 -176.50536 -54.396423 40.392689 -54.289223 42.207676 0.0036456233 146.20418
519252548.13137 -0.3684518 -176.69879 -54.192886 41.889423 -54.114765 40.840019 0.0077930619 146.17816
519630049.07512 -0.37244883 -176.93202 -53.883289 42.563763 -54.079357 42.954132 0.010762014 146.13452
520007550.01888 -0.37640673 -177.1279 -54.098846 41.213829 -54.153992 42.652851 0.014931326 146.11267
520385050.96263 -0.37982711 -177.33029 -54.428642 40.245548 -53.581268 36.936867 0.01938691 146.09526
520762551.90638 -0.38241637 -177.54314 -54.113811 34.177937 -53.73914 39.207657 0.020201532 146.05595
521140052.85013 -0.38725233 -177.75017 -53.889084 36.105804 -53.560772 36.323208 0.023117665 146.02193
521517553.79388 -0.38747567 -177.96523 -53.512089 33.691677 -54.356052 33.81871 0.023276716 146.00502
521895054.73764 -0.38990438 -178.17728 -53.995575 34.707226 -53.420273 35.446533 0.020919589 145.98296
522272555.68139 -0.39328161 -178.38472 -53.361008 34.485439 -53.556461 32.935024 0.017375519 145.9632
522650056.62514 -0.39537591 -178.59511 -53.739567 34.984173 -54.452389 32.734699 0.014966408 145.95528
523027557.56889 -0.39942083 -178.79897 -53.878559 33.388626 -53.811661 32.811176 0.012924065 145.9227
523405058.51265 -0.40434214 -179.02757 -53.78896 32.933624 -53.411598 32.545692 0.0072139576 145.89934
523782559.4564 -0.40729177 -179.23203 -53.255463 34.758507 -53.84285 34.36404 0.0080856346 145.87053
524160060.40015 -0.41206622 -179.4453 -53.459972 34.402626 -53.074223 31.322832 0.0021987245 145.84117
524537561.3439 -0.41797274 -179.66313 -53.401714 30.123758 -53.168442 31.037514 0.0027841337 145.8199
524915062.28766 -0.42472175 -179.87901 -53.1152 31.805897 -53.559921 30.427168 0.00024379435 145.76366
525292563.23141 -0.42915595 179.90807 -53.137566 27.878647 -53.171841 31.274036 0.0006727791 145.74312
525670064.17516 -0.43471959 179.68286 -53.221069 26.938951 -53.120041 30.497631 0.0032806268 145.71465
526047565.11891 -0.4399873 179.49022 -53.207756 29.06164 -53.259808 27.26782 0.0086384956 145.67401
526425066.06267 -0.44789824 179.28081 -53.084858 27.884748 -53.217564 25.091331 0.009916597 145.63319
526802567.00642 -0.45410943 179.077 -53.082855 26.901318 -53.043156 23.78661 0.0080686565 145.61021
527180067.95017 -0.46008661 178.8477 -52.840557 26.857594 -52.661652 25.844465 0.012963162 145.55957
527557568.89392 -0.46672332 178.65041 -53.193813 24.190283 -52.752659 23.61371 0.015371635 145.54602
527935069.83767 -0.47069529 178.45166 -52.906597 24.258724 -52.773598 24.56361 0.014633175 145.51517
528312570.78143 -0.47849089 178.25259 -52.827698 24.564976 -52.898014 24.996405 0.015499487 145.47852
528690071.72518 -0.48416725 178.04536 -52.769638 21.605043 -52.671135 22.106173 0.014623547 145.45361
529067572.66893 -0.48999971 177.839 -52.278957 21.90888 -52.635578 22.61311 0.010854463 145.40419
529445073.61268 -0.49346995 177.63333 -52.441795 22.568281 -52.491299 20.904697 0.0078233629 145.3792
529822574.55644 -0.49919012 177.42477 -52.736229 18.289881 -52.31744 20.168592 0.0049943007 145.35504
530200075.50019 -0.50179255 177.21564 -52.608112 17.00882 -51.944553 18.395689 0.003402407 145.34114
530577576.44394 -0.50742799 177.01511 -52.285744 18.142319 -52.55431 19.302021 0.00097767182 145.30534
530955077.38769 -0.51045501 176.79025 -52.692909 18.300495 -52.459892 18.486225 -0.0017315891 145.26076
531332578.33145 -0.51365757 176.56921 -51.820812 18.902174 -52.509056 17.14246 -0.0025698766 145.24896
531710079.2752 -0.51783741 176.35947 -52.132618 16.457438 -52.315411 17.57954 -0.0059091216 145.22603
532087580.21895 -0.52071416 176.15091 -52.375336 15.689783 -52.319286 15.584851 -0.0024699096 145.19513
532465081.1627 -0.52550131 175.92419 -51.663963 15.457259 -52.060543 14.105794 -0.004266486 145.16408
532842582.10646 -0.52843553 175.71635 -52.006153 15.129087 -52.324799 14.103467 -0.00075557688 145.14601
533220083.05021 -0.52971214 175.48512 -51.782459 14.139814 -51.912144 13.142773 0.0027844184 145.09953
533597583.99396 -0.5337227 175.28027 -51.898411 13.543229 -51.53096 14.045184 0.0054428875 145.06058
533975084.93771 -0.53535002 175.07481 -52.392292 12.118521 -51.819405 15.233286 0.010094142 145.02466
534352585.88146 -0.53953004 174.8438 -51.894371 12.902068 -52.109394 10.844147 0.012501881 144.98746
534730086.82522 -0.54265833 174.63826 -51.898659 12.943342 -51.624928 11.502331 0.01129391 144.97542
535107587.76897 -0.54468179 174.43007 -51.730328 9.933794 -52.154083 11.140517 0.012509784 144.92821
535485088.71272 -0.54754955 174.20236 -51.83823 9.4796515 -51.497501 11.178247 0.015780784 144.88115
535862589.65647 -0.54777282 173.98401 -51.947124 10.451237 -51.846912 9.3793039 0.015552573 144.87456
536240090.60023 -0.55253649 173.76225 -51.982735 12.018471 -51.909702 8.3180361 0.012036939 144.83107
536617591.54398 -0.55715477 173.53966 -51.950089 7.2435308 -51.781067 8.2439804 0.012721266 144.79045
536995092.48773 -0.56012541 173.32703 -51.416416 10.088997 -51.485329 9.7160501 0.0077072089 144.74918
537372593.43148 -0.56262255 173.10345 -51.189171 9.3952284 -51.454079 7.0186882 0.0072054896 144.7393
537750094.37524 -0.56747782 172.88896 -51.822124 8.2351141 -52.083233 8.384284 0.0040761968 144.69836
538127595.31899 -0.57132065 172.67831 -51.49527 5.3107338 -51.454559 7.5763702 0.0022866686 144.66875
538505096.26274 -0.57464302 172.46317 -51.273705 5.752213 -51.4981 5.2791171 0.0045508645 144.65732
538882597.20649 -0.57857263 172.23811 -51.340221 4.8685164 -51.440922 5.7993951 0.0091012456 144.64767
539260098.15025 -0.5817489 172.02267 -51.467068 6.0041618 -51.16029 4.5435557 0.0084458571 144.61444
539637599.094 -0.58289808 171.79535 -51.101574 5.0245161 -51.400986 4.4619226 0.012766922 144.60205
540015100.03775 -0.58694655 171.58549 -50.863438 4.2031898 -51.33905 3.9458046 0.01384985 144.60161
540392600.9815 -0.59053004 171.35492 -50.887535 4.3699288 -51.193733 3.271498 0.019701423 144.56685
540770101.92525 -0.59233546 171.12178 -50.987144 1.8704367 -51.033234 3.798526 0.023893258 144.57039
541147602.86901 -0.5965448 170.8994 -50.966415 2.2409163 -50.845253 1.9312768 0.026743123 144.54628
541525103.81276 -0.60102093 170.65395 -50.786827 4.7139249 -50.994591 3.0906329 0.029905088 144.53284
541902604.75651 -0.6026572 170.40636 -50.841225 3.7017355 -50.636665 4.0838375 0.026322519 144.49821
542280105.70026 -0.60830986 170.17763 -51.095242 0.35728189 -50.672096 1.6199144 0.027235394 144.47273
542657606.64402 -0.61145484 169.94136 -50.534332 3.3060422 -51.015236 -1.651217 0.023193447 144.4422
543035107.58777 -0.61409116 169.66684 -50.487816 -1.045848 -50.841522 0.90740055 0.016508225 144.39314
543412608.53152 -0.6189099 169.41269 -50.649475 -2.0367153 -50.465057 -2.3613644 0.01552803 144.33154
543790109.47527 -0.62580711 169.16724 -50.562019 -0.94889778 -50.427467 -0.93325531 0.0093345968 144.27718
544167610.41903 -0.63092858 168.91776 -50.39959 -3.8599179 -50.278732 -3.3289595 0.0037052161 144.22028
544545111.36278 -0.63467473 168.65881 -50.688461 -2.2347534 -49.976677 -2.6443508 -0.0013494776 144.17046
544922612.30653 -0.64189136 168.41466 -50.223709 -0.89627463 -50.297989 -5.6314478 -0.0052302531 144.11604
545300113.25028 -0.64589739 168.1539 -49.901188 -3.4197216 -49.866337 -3.8429594 -0.0053425608 144.08136
545677614.19404 -0.65142691 167.90617 -49.980202 -4.7879629 -50.07283 -3.864017 -0.0088368133 144.04755
546055115.13779 -0.65716416 167.66003 -49.913395 -6.9245763 -50.034931 -5.0353308 -0.0084576644 143.98175
546432616.08154 -0.66000909 167.38857 -49.868149 -6.4834948 -50.199013 -6.2829108 -0.0071832184 143.98949
546810117.02529 -0.66503406 167.13039 -50.130341 -4.1776299 -50.057285 -7.6157207 -0.0032780357 143.95139
547187617.96904 -0.67175162 166.86156 -49.813042 -8.4797754 -49.80381 -7.8619499 -0.0017344654 143.92856
547565118.9128 -0.68106973 166.61908 -49.84779 -8.808609 -49.834259 -5.948792 0.0043280339 143.91621
547942619.85655 -0.68763894 166.34798 -49.45134 -8.9909534 -49.902111 -7.1503501 0.0068363422 143.88116
548320120.8003 -0.69605064 166.09428 -49.542786 -8.5920467 -49.739101 -7.0795431 0.010826732 143.85219
548697621.74405 -0.70497155 165.82567 -49.393902 -9.111124 -49.47411 -8.5125132 0.012795804 143.83322
549075122.68781 -0.71500427 165.58844 -49.30106 -10.285762 -49.069771 -12.521081 0.011349474 143.8022
549452623.63156 -0.72573811 165.35565 -49.352882 -8.5219507 -49.25996 -10.22278 0.0097906636 143.75639
549830124.57531 -0.73558259 165.11392 -49.166328 -11.974518 -49.310898 -9.9252167 0.0094838254 143.724
550207625.51906 -0.74353218 164.89519 -49.331161 -13.639559 -49.044277 -13.660423 0.0025240122 143.65639
550585126.46282 -0.75391948 164.66991 -49.21722 -13.203761 -48.940739 -10.42366 -0.0022410294 143.62886
550962627.40657 -0.76223409 164.42967 -49.191372 -13.685472 -48.789082 -13.861072 -0.005346417 143.5807
551340128.35032 -0.77152771 164.21948 -48.831322 -16.407284 -48.779224 -14.569471 -0.012100872 143.52327
551717629.29407 -0.78013343 163.98264 -48.49844 -15.599175 -48.781757 -15.90984 -0.011992526 143.4628
552095130.23783 -0.78860134 163.77873 -48.897888 -14.506489 -48.426937 -15.059936 -0.014064912 143.40367
552472631.18158 -0.79972363 163.55196 -48.899158 -18.579813 -48.85807 -15.862829 -0.016107839 143.36569
552850132.12533 -0.80520105 163.3284 -48.603745 -18.355991 -48.529411 -18.346848 -0.013700114 143.32167
553227633.06908 -0.80884457 163.09685 -48.36282 -17.678774 -48.524673 -18.417231 -0.0089635197 143.31393
553605134.01284 -0.81937432 162.87846 -48.361904 -19.617758 -48.566635 -19.44104 -0.0054750564 143.27443
553982634.95659 -0.8255347 162.63506 -48.289799 -18.505217 -48.465027 -19.242081 0.0015851415 143.29086
554360135.90034 -0.83413041 162.40846 -48.255882 -19.96331 -48.171982 -20.3827 0.0088031441 143.28368
554737636.84409 -0.84448576 162.1731 -48.14756 -22.393919 -48.326614 -23.296555 0.016091811 143.29678
555115137.78784 -0.85062701 161.92152 -48.034256 -21.833071 -48.260193 -23.430283 0.02453832 143.28459
555492638.7316 -0.86223924 161.67561 -48.36264 -21.50975 -47.947159 -23.238585 0.032923255 143.2865
555870139.67535 -0.87330759 161.4343 -48.004963 -24.622391 -47.967655 -24.747324 0.034883384 143.30472
556247640.6191 -0.88396543 161.19963 -47.67765 -25.838015 -47.899258 -23.469444 0.040766388 143.29842
556625141.56285 -0.89628553 160.9705 -47.875984 -26.533161 -47.799618 -25.569546 0.037435252 143.28381
557002642.50661 -0.90734839 160.75465 -47.418041 -26.889456 -47.838558 -27.855843 0.034507945 143.26247
557380143.45036 -0.91636461 160.52867 -47.838314 -27.280764 -47.779186 -27.904345 0.03086374 143.24397
557757644.39411 -0.92808253 160.31715 -47.364304 -28.464128 -47.512909 -28.69059 0.025520848 143.21402
558135145.33786 -0.93658614 160.10696 -47.469307 -29.303442 -47.497272 -28.933006 0.020292303 143.15794
558512646.28162 -0.94603986 159.88307 -47.545013 -29.566414 -47.570374 -31.157076 0.011457454 143.12671
558890147.22537 -0.95284474 159.67064 -47.411339 -32.870117 -47.480442 -33.656696 0.004878643 143.06761
559267648.16912 -0.95902061 159.47504 -47.204201 -33.296322 -47.213757 -32.775249 0.0032453677 143.02148
559645149.11287 -0.96618885 159.27507 -47.28664 -36.277355 -47.276817 -33.480141 -0.00035170469 142.95175
560022650.05663 -0.97271913 159.05829 -47.138126 -35.095329 -47.235714 -35.287579 -0.0027298168 142.90903
560400151.00038 -0.97580588 158.84444 -47.330078 -37.168125 -47.244659 -36.151886 0.0038347759 142.8638
560777651.94413 -0.97937161 158.64856 -47.166912 -38.300823 -47.125118 -38.94817 0.0021495898 142.83516
561155152.88788 -0.98326153 158.42087 -47.27562 -40.32069 -47.242882 -38.19556 0.0072471844 142.8008
561532653.83163 -0.98356432 158.22932 -47.133209 -39.278008 -47.17931 -38.606094 0.015226534 142.77621
561910154.77539 -0.98456371 158.02049 -47.546898 -41.688335 -47.261345 -40.224506 0.020461418 142.77235
562287655.71914 -0.98494041 157.77971 -47.228687 -40.452114 -47.011913 -41.939629 0.025210885 142.7596
562665156.66289 -0.98226386 157.5562 -47.083332 -43.31937 -47.327499 -43.036808 0.029558813 142.7661
563042657.60664 -0.98145044 157.3091 -47.248211 -43.097752 -47.24017 -43.655369 0.032220114 142.75407
563420158.5504 -0.98054379 157.08018 -47.232063 -44.433228 -47.279686 -43.676182 0.033238471 142.75098
563797659.49415 -0.97962719 156.8331 -47.325478 -42.939507 -47.100609 -45.238647 0.032215524 142.73936
564175160.4379 -0.97883958 156.57837 -47.348015 -46.167549 -47.400414 -46.037724 0.029024864 142.74083
564552661.38165 -0.97826326 156.30382 -47.452942 -45.987122 -47.288631 -45.631756 0.0230936 142.7076
564930162.32541 -0.97834969 156.05067 -47.485027 -46.868271 -47.555328 -46.818184 0.017703291 142.66469
565307663.26916 -0.98061204 155.77159 -47.239124 -46.843452 -47.513813 -46.724255 0.013352989 142.61639
565685164.21291 -0.98171109 155.49075 -47.474136 -49.04607 -47.667835 -47.254868 0.0024936313 142.54828
566062665.15666 -0.98403168 155.20229 -47.521301 -48.012653 -47.579323 -47.840328 -0.0057995436 142.48193
566440166.10042 -0.98759103 154.91835 -47.693874 -47.316513 -47.69968 -48.890194 -0.0089713456 142.43721
566817667.04417 -0.99285316 154.61604 -47.520054 -47.251076 -47.634537 -48.016235 -0.012531704 142.37241
567195167.98792 -1.0009592 154.31876 -47.426899 -48.864986 -47.469917 -48.272099 -0.014477925 142.30815
567572668.93167 -1.0065571 154.03783 -47.433155 -48.216724 -47.446316 -48.149967 -0.012210649 142.24747
567950169.87542 -1.0140457 153.74721 -47.522537 -48.545444 -47.404099 -47.287811 -0.010521775 142.20827
568327670.81918 -1.0224793 153.47849 -47.389526 -48.938522 -47.163654 -49.121658 -0.0010292679 142.16669
568705171.76293 -1.0326859 153.19688 -47.162312 -50.13261 -47.463528 -49.60487 0.0061925477 142.11859
569082672.70668 -1.0388473 152.9362 -47.100334 -49.949799 -47.115585 -48.883732 0.013211575 142.11438
569460173.65043 -1.0466338 152.64615 -47.032696 -50.817432 -47.399067 -49.923065 0.021460619 142.0923
569837674.59419 -1.0506964 152.35504 -46.832222 -50.618587 -46.971901 -50.399101 0.021619309 142.07939
570215175.53794 -1.0604061 152.05559 -47.108166 -51.295162 -46.845535 -52.546104 0.028850127 142.09369
570592676.48169 -1.0704454 151.73283 -46.981979 -51.962715 -46.924164 -52.701874 0.033246078 142.07623
570970177.42544 -1.0797811 151.42146 -46.79541 -52.713097 -46.65221 -51.899616 0.034153987 142.09233
571347678.3692 -1.0917325 151.12032 -46.840042 -53.696697 -46.618057 -53.183235 0.032019835 142.08113
571725179.31295 -1.1022081 150.82086 -46.65675 -53.262096 -46.697575 -54.121162 0.029242208 142.07191
