!Keysight Technologies,N5242B,MY48420860,A.13.80.08
!Date: Saturday, September 26, 2020 12:39:59
!Correction: S11(Full 2 Port(1,2)) 
!S21(Full 2 Port(1,2)) 
!S12(Full 2 Port(1,2)) 
!S22(Full 2 Port(1,2)) 
!S2P File: Measurements: S11, S21, S12, S22:
# Hz S  dB   R 50
500000000 -0.23253636 -166.17679 -60.816654 -12.25578 -60.48822 -22.225367 0.031098058 147.62959
500377500.94375 -0.23744851 -166.36893 -60.595753 -27.046 -59.959808 -20.861721 0.034162343 147.60954
500755001.8875 -0.23894581 -166.56084 -60.600792 -32.061405 -60.228279 -28.683891 0.033005584 147.62492
501132502.83126 -0.24231336 -166.77568 -59.179714 -22.693249 -60.132568 -24.081501 0.034289993 147.62924
501510003.77501 -0.24503829 -166.98422 -59.755539 -27.578056 -61.352306 -25.637857 0.035151377 147.61365
501887504.71876 -0.24765565 -167.17896 -59.90255 -28.708961 -59.651333 -25.133869 0.028643934 147.63603
502265005.66251 -0.24991788 -167.38292 -60.229553 -22.626671 -61.181694 -23.232679 0.026983675 147.6203
502642506.60627 -0.25378057 -167.59196 -59.052795 -24.391451 -60.550491 -33.37936 0.024357533 147.60146
503020007.55002 -0.25486985 -167.78836 -59.328861 -31.470428 -59.792263 -24.939684 0.020331001 147.57417
503397508.49377 -0.25959566 -167.99347 -59.962189 -25.572836 -58.827328 -24.413977 0.018720882 147.53938
503775009.43752 -0.26186416 -168.18318 -59.259495 -32.995323 -59.89167 -25.711922 0.015210325 147.48643
504152510.38128 -0.26582047 -168.37846 -59.289143 -24.121506 -59.63414 -29.783512 0.017025603 147.44905
504530011.32503 -0.267901 -168.56221 -59.311211 -28.138849 -58.64642 -32.606319 0.019783089 147.39804
504907512.26878 -0.26947057 -168.75984 -59.482933 -32.184082 -58.591248 -30.577459 0.021346558 147.3508
505285013.21253 -0.27042976 -168.93323 -59.527344 -33.278641 -58.989769 -29.080105 0.025803495 147.35136
505662514.15629 -0.27127814 -169.13509 -58.40115 -32.768692 -59.363976 -32.075771 0.027979383 147.30856
506040015.10004 -0.26881751 -169.31642 -59.341389 -32.154327 -59.069435 -35.654877 0.033799734 147.25926
506417516.04379 -0.27231097 -169.52248 -58.76778 -31.899931 -59.265102 -38.809517 0.035655811 147.25351
506795016.98754 -0.26710933 -169.70009 -58.450855 -33.114872 -58.429989 -33.599384 0.04320693 147.23846
507172517.93129 -0.26911926 -169.89597 -58.877403 -38.836662 -58.416931 -28.01001 0.043486506 147.22041
507550018.87505 -0.26741549 -170.10252 -59.279644 -35.202557 -58.815639 -30.559681 0.045509636 147.23251
507927519.8188 -0.26700944 -170.29883 -58.28236 -39.857025 -58.276688 -37.694187 0.043372102 147.21765
508305020.76255 -0.26712987 -170.50769 -59.851543 -36.874023 -59.109905 -39.806034 0.042008381 147.20398
508682521.7063 -0.26502213 -170.70811 -58.700264 -42.702915 -58.656883 -37.796459 0.035765596 147.2083
509060022.65006 -0.26454705 -170.91524 -58.297482 -48.059109 -58.998791 -37.505558 0.036517527 147.16331
509437523.59381 -0.26360407 -171.1114 -59.835957 -44.197498 -59.031143 -43.776375 0.030974153 147.15588
509815024.53756 -0.26552391 -171.32454 -58.85144 -38.397598 -58.610001 -33.503361 0.026645102 147.14374
510192525.48131 -0.26471707 -171.53767 -58.582344 -39.531487 -59.399612 -39.464035 0.019465502 147.06439
510570026.42507 -0.26759857 -171.72452 -58.542046 -42.708942 -58.513374 -44.05722 0.015810827 147.03011
510947527.36882 -0.26795211 -171.94171 -58.700954 -37.381664 -58.474033 -44.581112 0.014106516 146.97675
511325028.31257 -0.27013537 -172.16104 -58.954178 -49.120907 -58.750885 -40.347191 0.012702364 146.91647
511702529.25632 -0.27112713 -172.37561 -58.378677 -40.601074 -58.756802 -38.509396 0.011966283 146.85616
512080030.20008 -0.27232164 -172.57434 -57.997467 -47.889072 -58.059719 -43.609234 0.011698355 146.80905
512457531.14383 -0.27451262 -172.80008 -58.655548 -47.743725 -57.69334 -44.792885 0.016708639 146.75415
512835032.08758 -0.27664569 -173.0215 -58.0406 -44.514931 -58.63488 -49.245304 0.019680653 146.72876
513212533.03133 -0.28074703 -173.23091 -58.457306 -47.043865 -57.73716 -46.629875 0.022665281 146.6965
513590033.97508 -0.28443193 -173.44173 -58.364223 -44.202103 -59.152287 -45.665684 0.026710857 146.65277
513967534.91884 -0.28815416 -173.6678 -58.313168 -46.731544 -58.201328 -43.178574 0.029135369 146.62517
514345035.86259 -0.29105917 -173.87306 -57.791195 -51.453617 -57.82349 -44.711208 0.03221526 146.62204
514722536.80634 -0.29301074 -174.08708 -58.544678 -51.558182 -58.30875 -45.315247 0.037153091 146.61584
515100037.75009 -0.29861674 -174.32442 -58.787651 -49.817585 -58.199604 -56.064034 0.037440002 146.62051
515477538.69385 -0.29964513 -174.52626 -58.430454 -45.39658 -58.527237 -46.597214 0.035844844 146.61597
515855039.6376 -0.30453318 -174.74997 -57.618443 -47.104218 -58.12656 -44.861671 0.0329872 146.59866
516232540.58135 -0.30690986 -174.97578 -57.649288 -44.843754 -56.990501 -44.745697 0.030217566 146.59076
516610041.5251 -0.31012037 -175.19254 -57.208988 -43.627167 -57.257404 -49.595184 0.030722737 146.55019
516987542.46886 -0.31452429 -175.41689 -57.090549 -49.589355 -57.281979 -45.765339 0.025997119 146.5358
517365043.41261 -0.31392106 -175.63292 -57.303711 -46.645794 -56.359997 -47.863594 0.022264915 146.48433
517742544.35636 -0.31995329 -175.86201 -57.640095 -49.642487 -57.367844 -42.623383 0.023488045 146.48608
518120045.30011 -0.32419559 -176.10037 -57.366928 -51.727497 -57.24155 -53.118671 0.020801384 146.41914
518497546.24387 -0.32744959 -176.30029 -56.661442 -48.496021 -57.003258 -46.993717 0.020910593 146.37283
518875047.18762 -0.33222991 -176.52754 -57.548828 -50.349194 -56.978287 -45.79554 0.021940382 146.32802
519252548.13137 -0.33598271 -176.73601 -57.101608 -55.228504 -57.110516 -51.477772 0.024179008 146.28258
519630049.07512 -0.3394962 -176.95947 -56.327896 -52.708961 -56.485222 -57.375645 0.023794418 146.24741
520007550.01888 -0.34338009 -177.16634 -56.04681 -50.088882 -56.222641 -53.404392 0.030283587 146.20309
520385050.96263 -0.34582472 -177.37189 -55.826576 -50.940525 -56.712418 -53.428173 0.034068827 146.18565
520762551.90638 -0.3486715 -177.57787 -56.355827 -55.814278 -56.088779 -53.924969 0.036499325 146.15556
521140052.85013 -0.35447493 -177.79668 -56.091919 -50.487282 -56.431484 -53.873283 0.042252317 146.13354
521517553.79388 -0.35562876 -178.01054 -55.676125 -55.873585 -56.291546 -58.055878 0.043138761 146.12433
521895054.73764 -0.35735211 -178.22482 -55.756184 -54.700962 -55.875904 -58.267696 0.041096453 146.11423
522272555.68139 -0.36033997 -178.4451 -55.527805 -59.03801 -56.366402 -55.740978 0.041158423 146.08624
522650056.62514 -0.36172995 -178.65315 -56.152988 -61.72084 -56.18782 -56.874561 0.03846819 146.09175
523027557.56889 -0.36576843 -178.87265 -55.221249 -57.088638 -56.058483 -58.10675 0.037601396 146.07506
523405058.51265 -0.37025151 -179.09682 -56.390476 -61.075756 -56.048862 -58.765266 0.033432122 146.05598
523782559.4564 -0.37354898 -179.3065 -55.277374 -61.525845 -55.756069 -63.05257 0.028459333 146.03029
524160060.40015 -0.37903479 -179.51884 -56.108978 -68.152618 -56.178009 -60.381187 0.024286995 146.00786
524537561.3439 -0.38401973 -179.73593 -55.288815 -57.224865 -55.443024 -61.931839 0.021710288 145.96806
524915062.28766 -0.39013946 -179.96445 -55.896729 -60.291985 -55.308674 -63.64156 0.017585991 145.8976
525292563.23141 -0.3938607 179.81841 -55.628048 -64.115311 -55.734524 -64.730949 0.017444376 145.87749
525670064.17516 -0.40076292 179.60399 -55.449127 -63.821556 -55.89312 -65.104156 0.018725982 145.82935
526047565.11891 -0.40550169 179.38828 -55.773254 -62.103947 -55.439491 -62.249306 0.020932348 145.78236
526425066.06267 -0.412103 179.17439 -55.322369 -66.41153 -55.699951 -67.00267 0.023399331 145.73055
526802567.00642 -0.41793486 178.97647 -55.496933 -68.001457 -55.153419 -65.070969 0.024124749 145.70088
527180067.95017 -0.42350334 178.75357 -55.432941 -65.858604 -55.187752 -63.406109 0.027392412 145.66122
527557568.89392 -0.43116373 178.53242 -55.242687 -63.894363 -55.068134 -67.473389 0.029993033 145.63264
527935069.83767 -0.43731576 178.34235 -54.83075 -68.436592 -55.504723 -66.568695 0.031543184 145.60661
528312570.78143 -0.44035119 178.11607 -55.06424 -66.668602 -55.102821 -69.424232 0.031703953 145.59113
528690071.72518 -0.44692397 177.8998 -55.04105 -70.375992 -54.97451 -68.954308 0.035718344 145.57089
529067572.66893 -0.45350939 177.70099 -55.213348 -68.785355 -54.69101 -68.29911 0.033663899 145.54414
529445073.61268 -0.45594954 177.48547 -54.654125 -68.446487 -54.337425 -68.198463 0.03219378 145.52638
529822574.55644 -0.4599556 177.26268 -54.49157 -70.689911 -54.787056 -72.512421 0.029107103 145.51762
530200075.50019 -0.46342292 177.03615 -54.823017 -72.21257 -54.556633 -72.96653 0.026402442 145.52734
530577576.44394 -0.46865571 176.82423 -54.505146 -69.880524 -54.376827 -71.716881 0.023617562 145.49005
530955077.38769 -0.47222695 176.5876 -54.592777 -74.751366 -54.472599 -74.903442 0.020706283 145.45708
531332578.33145 -0.47835475 176.36293 -54.322273 -72.516136 -54.103184 -73.455925 0.017712735 145.42908
531710079.2752 -0.48296556 176.13809 -54.244957 -73.786896 -54.451431 -75.563248 0.012863926 145.40164
532087580.21895 -0.48713559 175.92667 -54.047276 -73.744293 -54.275887 -75.084267 0.014651813 145.36644
532465081.1627 -0.49395889 175.70216 -54.377743 -73.459877 -53.340931 -74.931778 0.011344409 145.31429
532842582.10646 -0.4961814 175.47169 -53.73246 -75.316872 -53.506348 -78.090424 0.013022614 145.28394
533220083.05021 -0.49940655 175.25273 -54.226948 -78.359421 -53.952278 -76.337868 0.014757212 145.22737
533597583.99396 -0.5066995 175.04366 -54.09272 -78.57579 -53.865479 -80.75798 0.017574573 145.16869
533975084.93771 -0.50807607 174.83661 -53.422695 -79.53154 -53.481731 -82.035027 0.019899696 145.12732
534352585.88146 -0.5141995 174.61972 -53.579712 -80.036179 -54.333923 -82.29689 0.025790833 145.10452
534730086.82522 -0.51709569 174.41351 -54.100925 -82.699013 -53.785278 -82.396408 0.024736339 145.06557
535107587.76897 -0.51963937 174.19408 -53.743187 -80.416107 -53.650841 -81.654991 0.032904077 145.03629
535485088.71272 -0.52051729 173.97505 -53.967144 -82.979309 -53.822304 -83.573433 0.034458723 144.99635
535862589.65647 -0.52231127 173.74792 -53.380116 -85.146332 -53.203812 -86.762604 0.037954826 145.00568
536240090.60023 -0.52904123 173.53413 -53.369873 -84.23275 -53.694927 -84.651108 0.036982693 144.96945
536617591.54398 -0.5303942 173.31174 -53.188046 -84.079384 -53.288456 -83.349792 0.037237901 144.96902
536995092.48773 -0.5344032 173.09634 -53.378101 -87.590248 -53.403893 -84.392738 0.034040283 144.94492
537372593.43148 -0.53840613 172.88664 -52.977818 -85.937737 -53.199558 -86.917137 0.032736246 144.93538
537750094.37524 -0.53973573 172.66177 -53.153843 -89.552681 -53.133987 -87.68692 0.025670897 144.90869
538127595.31899 -0.54428124 172.43991 -53.209545 -92.107208 -52.878696 -89.638336 0.025373133 144.87878
538505096.26274 -0.54714066 172.21962 -53.187767 -92.735008 -53.003754 -91.191055 0.026709391 144.86888
538882597.20649 -0.55145448 172.00569 -53.544224 -91.062332 -53.243202 -89.53035 0.02728221 144.8454
539260098.15025 -0.55333322 171.78267 -53.433422 -89.880287 -53.388344 -91.617287 0.025131892 144.81593
539637599.094 -0.55441338 171.55417 -52.79945 -91.143097 -52.841351 -92.632896 0.027782114 144.78149
540015100.03775 -0.55755705 171.32144 -53.308495 -94.087509 -53.22876 -95.021385 0.027159205 144.75636
540392600.9815 -0.56003833 171.09349 -52.904716 -93.686096 -53.132339 -92.898834 0.033152904 144.72348
540770101.92525 -0.56129491 170.8311 -52.926891 -90.261475 -52.97422 -94.904114 0.035512455 144.69542
541147602.86901 -0.56378281 170.60767 -53.214874 -92.744553 -52.687649 -92.635406 0.039331347 144.65303
541525103.81276 -0.5668667 170.34695 -52.352047 -95.869064 -52.51712 -94.576752 0.04440289 144.63199
541902604.75651 -0.57208073 170.08073 -52.625118 -93.894409 -53.075157 -93.60154 0.04399598 144.60126
542280105.70026 -0.57546407 169.82762 -52.953617 -95.460846 -52.597229 -93.642883 0.046608403 144.57666
542657606.64402 -0.58178264 169.56656 -52.926987 -96.394257 -52.396381 -97.350731 0.046375163 144.54544
543035107.58777 -0.58455873 169.30026 -52.699493 -98.563293 -52.619366 -96.771637 0.041071262 144.54231
543412608.53152 -0.59134418 169.04399 -52.607189 -96.807846 -52.941628 -97.356453 0.041461021 144.48282
543790109.47527 -0.59924072 168.78151 -52.35688 -97.825066 -52.567635 -99.884689 0.039241899 144.46431
544167610.41903 -0.60607386 168.52687 -52.405361 -97.578896 -52.511845 -100.59238 0.031898182 144.43181
544545111.36278 -0.61191267 168.25475 -52.08815 -97.919762 -52.539295 -100.08627 0.026408469 144.39044
544922612.30653 -0.61903971 168.01323 -52.371593 -100.69535 -52.332897 -98.841629 0.022061713 144.36328
545300113.25028 -0.62274998 167.74792 -52.032619 -100.25753 -52.294811 -99.796288 0.019246727 144.32448
545677614.19404 -0.62791181 167.47867 -52.05584 -101.49046 -52.054619 -102.66756 0.016130142 144.29393
546055115.13779 -0.63610935 167.21495 -52.059402 -100.21275 -51.965084 -102.02496 0.012802049 144.23552
546432616.08154 -0.63976127 166.95377 -51.982929 -105.82388 -51.870243 -101.93891 0.0091302292 144.20341
546810117.02529 -0.64525938 166.6673 -51.760693 -101.82648 -51.962505 -103.50661 0.011081084 144.15382
547187617.96904 -0.652619 166.39491 -51.918644 -104.30228 -52.040855 -101.98349 0.011783376 144.1089
547565118.9128 -0.66022295 166.13783 -51.805519 -105.67508 -51.755932 -106.09616 0.013414539 144.07266
547942619.85655 -0.67083299 165.85771 -51.605843 -106.45556 -51.672947 -105.84349 0.017294103 144.00107
548320120.8003 -0.67906839 165.56992 -51.495712 -107.37277 -51.638355 -104.86009 0.022549687 143.9614
548697621.74405 -0.68992341 165.29109 -51.723953 -104.57689 -51.650394 -105.62267 0.02347132 143.92667
549075122.68781 -0.7026034 165.04167 -51.559868 -108.22933 -51.565617 -107.55099 0.021977108 143.88606
549452623.63156 -0.71532702 164.7907 -51.718788 -107.37022 -51.407951 -107.48209 0.02826051 143.84691
549830124.57531 -0.72552013 164.53027 -51.513721 -109.64094 -51.375675 -106.16006 0.028797494 143.81233
550207625.51906 -0.73871475 164.29129 -51.129856 -109.25259 -51.492077 -108.25528 0.026661128 143.78479
550585126.46282 -0.74881893 164.05568 -51.371433 -109.07369 -51.007912 -109.78447 0.022592288 143.75433
550962627.40657 -0.76267052 163.81204 -51.012444 -108.74317 -50.993206 -111.4791 0.020515032 143.72453
551340128.35032 -0.7765801 163.57312 -51.074932 -112.87931 -51.2906 -110.96655 0.018030219 143.6998
551717629.29407 -0.78662324 163.34299 -51.092289 -110.5537 -51.196579 -112.1558 0.017254841 143.68179
552095130.23783 -0.79916602 163.12201 -50.747208 -112.36783 -50.66906 -110.8709 0.016602442 143.63472
552472631.18158 -0.81505376 162.88342 -50.734219 -115.5583 -50.72506 -112.96506 0.011981948 143.61292
552850132.12533 -0.82553983 162.67438 -50.585648 -115.03014 -50.671669 -113.97634 0.013612063 143.57954
553227633.06908 -0.83436781 162.4462 -50.735386 -114.07923 -50.895153 -114.63941 0.013022764 143.54736
553605134.01284 -0.84689373 162.22752 -50.577824 -114.82675 -50.837399 -111.87768 0.015244728 143.52826
553982634.95659 -0.85790527 161.99266 -50.764027 -117.63617 -50.23872 -114.19708 0.02027037 143.51776
554360135.90034 -0.87075031 161.76257 -50.598 -117.741 -50.446186 -115.98534 0.026646916 143.49089
554737636.84409 -0.88352871 161.5313 -50.354752 -116.38973 -50.112156 -116.14953 0.031854402 143.46689
555115137.78784 -0.89435154 161.29961 -50.200531 -119.44545 -50.121803 -117.42441 0.038736787 143.44534
555492638.7316 -0.90911061 161.05733 -49.925831 -119.01553 -50.25103 -118.36103 0.046462443 143.42268
555870139.67535 -0.92239034 160.85069 -50.093575 -118.41084 -50.214569 -119.54342 0.048026156 143.42639
556247640.6191 -0.9389782 160.63486 -49.553219 -119.76562 -49.753765 -119.90266 0.056892365 143.39305
556625141.56285 -0.95110595 160.41174 -50.056252 -119.65934 -49.968082 -121.30791 0.055515021 143.37825
557002642.50661 -0.96241158 160.1994 -49.801155 -122.43764 -49.519703 -121.64548 0.054353613 143.34863
557380143.45036 -0.97534353 160.01543 -49.84634 -123.76524 -49.547276 -122.39378 0.054326884 143.3396
557757644.39411 -0.98552227 159.80807 -49.772381 -124.08569 -49.491718 -123.45044 0.051832382 143.33759
558135145.33786 -0.99727815 159.60068 -49.45261 -126.95389 -49.542126 -125.41606 0.048829917 143.29974
558512646.28162 -1.0086514 159.39133 -49.466976 -123.24632 -49.320786 -126.49535 0.043053512 143.28497
558890147.22537 -1.0164077 159.20276 -49.421932 -125.3767 -49.495384 -126.42416 0.038633436 143.26649
559267648.16912 -1.0226325 159.01096 -49.025105 -127.60282 -49.370697 -126.32098 0.034796536 143.23421
559645149.11287 -1.0297601 158.81075 -49.275524 -129.52866 -49.175144 -126.273 0.031994693 143.18474
560022650.05663 -1.0370358 158.61501 -49.386963 -129.50244 -48.950695 -128.88023 0.028832294 143.16136
560400151.00038 -1.040571 158.41548 -49.352898 -130.3074 -49.241306 -131.05626 0.030773208 143.12225
560777651.94413 -1.0440111 158.20628 -49.192558 -133.24017 -48.983021 -130.85216 0.029064324 143.08347
561155152.88788 -1.0484349 157.98949 -48.974152 -133.69699 -49.166145 -133.56953 0.030133383 143.04733
561532653.83163 -1.0504315 157.80362 -49.237389 -132.91977 -48.932602 -132.13753 0.034999873 143.00473
561910154.77539 -1.0513151 157.60278 -48.832851 -132.72549 -48.877602 -132.944 0.037249349 142.97975
562287655.71914 -1.0513622 157.37598 -48.975315 -134.85835 -48.982929 -133.74429 0.040724777 142.9308
562665156.66289 -1.0524046 157.14592 -48.877823 -137.86679 -48.893723 -136.48346 0.043596618 142.90907
563042657.60664 -1.0503166 156.91997 -48.696701 -134.29825 -48.958473 -136.93073 0.046838444 142.8844
563420158.5504 -1.0493189 156.68753 -48.804596 -136.23271 -48.480785 -137.15417 0.049700297 142.84995
563797659.49415 -1.0503129 156.46228 -48.931473 -139.17383 -48.665588 -136.85989 0.050393004 142.81758
564175160.4379 -1.0484697 156.21188 -48.762695 -137.40121 -48.769623 -137.02687 0.048573215 142.81401
564552661.38165 -1.0495558 155.9558 -48.654991 -139.16287 -48.727844 -140.27332 0.043076038 142.77927
564930162.32541 -1.0505787 155.70532 -48.720123 -140.02518 -48.753983 -139.09526 0.04127501 142.75482
565307663.26916 -1.0477173 155.42722 -48.565136 -139.89917 -48.594727 -140.81137 0.038539942 142.71806
565685164.21291 -1.0494804 155.14644 -48.662132 -141.29323 -48.743748 -141.35725 0.031840205 142.67297
566062665.15666 -1.0496926 154.8539 -48.644039 -142.50508 -48.547119 -141.53114 0.023906404 142.62529
566440166.10042 -1.0521767 154.56729 -48.402756 -143.34309 -48.534012 -141.19202 0.022892408 142.60742
566817667.04417 -1.0578679 154.25922 -48.298492 -144.34962 -48.792027 -143.12202 0.01915063 142.56584
567195167.98792 -1.0655832 153.95869 -48.582272 -141.43219 -48.308655 -142.60478 0.018223325 142.51292
567572668.93167 -1.0714033 153.64978 -48.245659 -144.2458 -48.463955 -143.60484 0.015478721 142.46371
567950169.87542 -1.0830144 153.34932 -48.475704 -144.65553 -48.426552 -144.36542 0.016913349 142.45828
568327670.81918 -1.0918579 153.08118 -47.985695 -144.9861 -48.287254 -145.16112 0.021732051 142.39883
568705171.76293 -1.1034218 152.78844 -48.259205 -144.78737 -48.224731 -145.66609 0.030022366 142.34607
569082672.70668 -1.1122977 152.51944 -48.224686 -145.59935 -48.06004 -146.24602 0.034034114 142.30551
569460173.65043 -1.1215726 152.22046 -47.884594 -145.38632 -48.122231 -145.60065 0.038241073 142.27914
569837674.59419 -1.1285197 151.92844 -47.989071 -146.65944 -48.025047 -146.90494 0.038300153 142.25494
570215175.53794 -1.1404604 151.62794 -47.750977 -148.48828 -47.933949 -149.14937 0.045414135 142.23138
570592676.48169 -1.1517118 151.31053 -47.872894 -147.15782 -47.767376 -148.90965 0.048136584 142.19769
570970177.42544 -1.1612452 151.00549 -47.956814 -148.6413 -47.92379 -150.43535 0.049386658 142.1994
571347678.3692 -1.1726178 150.68584 -47.654243 -148.55917 -47.602551 -149.42935 0.049279023 142.17767
571725179.31295 -1.1867123 150.38638 -47.383327 -152.02663 -47.606594 -151.22443 0.046600685 142.15515
