!Keysight Technologies,N5242B,MY48420860,A.13.80.08
!Date: Saturday, September 26, 2020 12:56:58
!Correction: S11(Full 2 Port(1,2)) 
!S21(Full 2 Port(1,2)) 
!S12(Full 2 Port(1,2)) 
!S22(Full 2 Port(1,2)) 
!S2P File: Measurements: S11, S21, S12, S22:
# Hz S  dB   R 50
500000000 -0.24151725 -166.17993 -62.610981 -129.5858 -61.67976 -138.76666 0.0460715 147.79065
500377500.94375 -0.24576917 -166.3833 -61.783539 -131.27051 -61.533028 -142.06906 0.047092967 147.75819
500755001.8875 -0.24940215 -166.57228 -62.491879 -136.18391 -62.062172 -124.67087 0.050552789 147.75868
501132502.83126 -0.25101951 -166.78587 -62.874882 -131.67422 -62.259445 -133.71338 0.052095447 147.74927
501510003.77501 -0.25505519 -166.97667 -62.693439 -133.27666 -62.254486 -136.60397 0.05392896 147.72989
501887504.71876 -0.25855479 -167.17873 -60.68644 -138.4133 -61.966579 -140.26224 0.053768486 147.7314
502265005.66251 -0.25911868 -167.39259 -61.129982 -136.92644 -60.722294 -134.66687 0.053491909 147.73837
502642506.60627 -0.2645537 -167.59769 -62.231201 -140.40535 -61.093342 -137.0451 0.052942593 147.71976
503020007.55002 -0.26711059 -167.77882 -60.2271 -140.17059 -61.879166 -139.27704 0.051606998 147.70816
503397508.49377 -0.27171534 -167.98367 -61.622959 -140.72426 -62.149055 -146.25163 0.052343488 147.66713
503775009.43752 -0.27534497 -168.17386 -61.621849 -138.90953 -61.450542 -146.90527 0.048050798 147.63855
504152510.38128 -0.27798489 -168.35815 -61.85392 -137.48576 -60.891315 -146.14333 0.048819445 147.60973
504530011.32503 -0.27808756 -168.54471 -62.014572 -152.25896 -60.831009 -150.39157 0.049100235 147.58005
504907512.26878 -0.28233075 -168.73189 -61.722355 -140.63623 -61.713066 -139.84831 0.050348975 147.53107
505285013.21253 -0.28193873 -168.91479 -60.653114 -144.89655 -60.166153 -138.56409 0.051087014 147.52322
505662514.15629 -0.28441325 -169.10797 -61.209667 -135.23517 -61.186047 -144.3445 0.052310355 147.49062
506040015.10004 -0.28330156 -169.27881 -61.374222 -146.48524 -61.43697 -146.38068 0.05200414 147.43994
506417516.04379 -0.28588739 -169.46982 -60.854774 -145.64708 -61.863476 -149.3829 0.053443421 147.42494
506795016.98754 -0.28091598 -169.65523 -60.515846 -151.30215 -61.363785 -150.80452 0.058109734 147.40103
507172517.93129 -0.28047079 -169.85474 -60.558788 -146.18253 -59.851456 -146.91765 0.05764338 147.35681
507550018.87505 -0.27926648 -170.06088 -60.702671 -154.87636 -62.108658 -144.11542 0.059173252 147.36249
507927519.8188 -0.28007606 -170.2491 -60.863899 -148.71666 -61.305424 -148.63257 0.058676787 147.33348
508305020.76255 -0.2782931 -170.44901 -60.409477 -147.02483 -60.007793 -146.59317 0.059833225 147.32834
508682521.7063 -0.2791751 -170.66071 -60.722462 -152.34303 -59.713829 -154.87057 0.059222881 147.30991
509060022.65006 -0.2791189 -170.85992 -60.414131 -154.35661 -60.730206 -145.43811 0.057444457 147.26743
509437523.59381 -0.27790415 -171.05371 -61.942226 -148.02472 -61.543373 -148.8183 0.054603532 147.26392
509815024.53756 -0.27952912 -171.25565 -59.933739 -154.39732 -60.299141 -149.0313 0.053231005 147.24156
510192525.48131 -0.28144628 -171.46634 -60.951305 -155.04008 -60.91769 -150.81273 0.047218878 147.19188
510570026.42507 -0.28242329 -171.67572 -60.113049 -150.6469 -60.767601 -152.2607 0.044055179 147.14771
510947527.36882 -0.28331247 -171.88745 -61.076992 -153.61192 -59.580441 -155.89156 0.043338552 147.10597
511325028.31257 -0.2859666 -172.10265 -59.818848 -156.55791 -61.028961 -155.88931 0.038998917 147.04828
511702529.25632 -0.28767714 -172.30095 -59.631104 -151.96844 -60.719635 -153.91873 0.036710024 147.01097
512080030.20008 -0.29111627 -172.5143 -59.65868 -155.54703 -61.364952 -154.48836 0.036139995 146.95364
512457531.14383 -0.29111806 -172.72496 -59.86454 -151.71742 -60.205769 -151.267 0.038154308 146.88573
512835032.08758 -0.29385126 -172.94678 -59.909954 -160.17793 -60.750946 -158.52007 0.036291976 146.86732
513212533.03133 -0.29702166 -173.157 -59.877014 -161.83073 -60.501617 -154.47928 0.038631529 146.81622
513590033.97508 -0.30103913 -173.36119 -59.578594 -156.80061 -60.098862 -164.35818 0.042610981 146.76546
513967534.91884 -0.30425325 -173.58568 -60.221012 -154.4679 -60.461369 -156.50494 0.04628706 146.733
514345035.86259 -0.30722573 -173.79366 -60.054977 -161.22449 -60.024578 -154.80367 0.048066381 146.7195
514722536.80634 -0.30951566 -174.00932 -59.718651 -166.07146 -60.759117 -161.53091 0.05084835 146.7085
515100037.75009 -0.31535116 -174.23676 -60.731483 -158.12155 -59.162678 -163.11127 0.053313803 146.68907
515477538.69385 -0.31691965 -174.44661 -59.162243 -161.38901 -59.043949 -160.3553 0.056904569 146.70369
515855039.6376 -0.32033256 -174.66106 -58.589912 -156.76335 -60.205299 -163.28391 0.0546063 146.68135
516232540.58135 -0.32215941 -174.87956 -58.146866 -164.39508 -59.154644 -165.70891 0.057954103 146.67061
516610041.5251 -0.32689714 -175.09517 -58.849361 -161.08354 -60.120361 -161.23576 0.060180869 146.6396
516987542.46886 -0.3281278 -175.31664 -58.987156 -167.40729 -59.637096 -165.06316 0.057972472 146.64308
517365043.41261 -0.32971379 -175.52817 -59.414803 -165.51384 -59.126736 -171.93549 0.054763686 146.61252
517742544.35636 -0.33452183 -175.75513 -58.630131 -167.25774 -59.034279 -163.39612 0.056751817 146.60677
518120045.30011 -0.33989784 -175.97269 -59.212009 -167.26483 -59.221512 -164.87296 0.053544153 146.54897
518497546.24387 -0.34295577 -176.18756 -58.368526 -165.56375 -58.335171 -164.73837 0.053693395 146.5206
518875047.18762 -0.34793323 -176.40854 -58.867889 -163.59076 -58.181217 -161.60651 0.052850675 146.48845
519252548.13137 -0.35095125 -176.60358 -57.273739 -161.24742 -58.854282 -168.82719 0.050044101 146.44595
519630049.07512 -0.35421345 -176.81775 -58.526237 -163.96367 -58.293404 -166.56474 0.047822859 146.39789
520007550.01888 -0.35781506 -177.02147 -57.808857 -172.86555 -58.139877 -169.49806 0.051580485 146.34601
520385050.96263 -0.35982275 -177.21863 -57.960312 -173.99579 -57.886417 -162.70242 0.05272774 146.31161
520762551.90638 -0.36308876 -177.43637 -57.95475 -173.00775 -57.998993 -172.16109 0.053545188 146.27567
521140052.85013 -0.36708072 -177.63359 -58.106346 -168.89948 -57.92588 -175.5643 0.056910891 146.23566
521517553.79388 -0.36659458 -177.84648 -58.267334 -173.39577 -57.858887 -170.74644 0.056372575 146.2144
521895054.73764 -0.36903998 -178.0576 -58.08308 -170.90744 -57.528671 -178.02591 0.057570133 146.18677
522272555.68139 -0.3687292 -178.26294 -58.892815 -179.38063 -57.359726 -174.39644 0.057603855 146.16196
522650056.62514 -0.37144729 -178.46944 -56.892826 179.3008 -58.599274 -175.17171 0.058396276 146.15956
523027557.56889 -0.37487167 -178.69337 -56.762108 179.94835 -57.212189 -179.33667 0.05930049 146.13629
523405058.51265 -0.37908718 -178.9207 -56.920826 178.95709 -57.845528 -177.45694 0.059719596 146.11197
523782559.4564 -0.381551 -179.12242 -56.807991 -178.20563 -56.94548 -179.79852 0.058529332 146.09547
524160060.40015 -0.38438115 -179.35358 -57.067654 -178.45435 -56.969639 -179.15796 0.055597704 146.07951
524537561.3439 -0.39052814 -179.56403 -57.48373 -179.48131 -56.848202 178.31956 0.055435598 146.05765
524915062.28766 -0.39547122 -179.80594 -57.04311 -176.81659 -57.756817 177.81668 0.052147754 146.01996
525292563.23141 -0.40025067 179.98526 -57.120281 177.44986 -57.123074 -177.7097 0.049808528 146.00012
525670064.17516 -0.40666634 179.74805 -56.830555 174.43565 -56.679043 -179.45317 0.049050085 145.96471
526047565.11891 -0.41093335 179.54762 -56.485313 176.77821 -56.856594 177.79201 0.050036587 145.93097
526425066.06267 -0.41773909 179.32381 -56.708378 171.71597 -56.8535 174.7795 0.04884043 145.88362
526802567.00642 -0.42459124 179.12041 -56.717232 172.88658 -57.219242 173.89627 0.045565911 145.84653
527180067.95017 -0.43180197 178.88609 -56.298409 171.48787 -57.040627 171.13611 0.047971826 145.80244
527557568.89392 -0.43706238 178.67316 -56.456692 171.38193 -56.836037 172.04778 0.046042301 145.77644
527935069.83767 -0.4441365 178.46324 -56.364178 170.57735 -56.318375 171.52522 0.049270261 145.73938
528312570.78143 -0.44726112 178.26706 -56.496262 167.16435 -56.21833 169.76755 0.048770353 145.70808
528690071.72518 -0.45567268 178.04794 -56.400948 171.31879 -56.792812 168.58319 0.050908204 145.67226
529067572.66893 -0.46013319 177.83879 -56.006958 169.56261 -56.367104 166.01247 0.049544577 145.63791
529445073.61268 -0.46498299 177.63385 -55.664646 171.24376 -56.590797 166.75807 0.050648287 145.60957
529822574.55644 -0.46926755 177.40872 -56.075069 169.50224 -56.125038 167.57628 0.049486265 145.59756
530200075.50019 -0.47323141 177.19635 -56.901787 165.33105 -56.463547 162.09811 0.050051078 145.58496
530577576.44394 -0.47921336 176.97496 -55.461735 160.32219 -56.404636 163.69722 0.048120737 145.57187
530955077.38769 -0.48304331 176.75291 -55.961956 160.31273 -56.243732 165.2318 0.047669694 145.53395
531332578.33145 -0.48817351 176.52751 -55.945766 160.77309 -56.453926 165.79013 0.046758309 145.52417
531710079.2752 -0.49167642 176.32179 -56.25119 158.60222 -56.125542 162.73346 0.043596506 145.49234
532087580.21895 -0.49577692 176.10403 -55.783833 157.5755 -56.358513 163.40141 0.044155177 145.4664
532465081.1627 -0.50135154 175.8806 -55.831894 156.86211 -56.353634 156.08684 0.040067308 145.42809
532842582.10646 -0.50401729 175.67323 -55.670712 157.99777 -55.624336 157.94264 0.040710866 145.4115
533220083.05021 -0.50607401 175.46216 -55.986328 157.44984 -55.861206 157.09984 0.040615272 145.35156
533597583.99396 -0.510934 175.24649 -55.932003 152.60245 -56.012737 153.49045 0.037859917 145.29102
533975084.93771 -0.51402545 175.05524 -56.030918 157.00899 -55.430737 152.45929 0.041107669 145.25841
534352585.88146 -0.51654661 174.814 -55.925694 151.37648 -56.181984 150.08536 0.043278467 145.21642
534730086.82522 -0.520289 174.61101 -55.711277 152.41545 -55.982426 148.68648 0.040744826 145.17337
535107587.76897 -0.52199692 174.39774 -55.598419 149.19168 -55.535473 152.84222 0.042391375 145.13947
535485088.71272 -0.52561522 174.1752 -55.596737 150.95958 -55.640461 150.68808 0.047178149 145.08372
535862589.65647 -0.52788216 173.97362 -55.106091 145.45749 -55.825859 150.92026 0.047825649 145.09193
536240090.60023 -0.53241128 173.75299 -56.357128 148.96492 -55.268211 149.90176 0.049881332 145.0406
536617591.54398 -0.53692794 173.53403 -54.957153 145.3472 -55.53669 148.98444 0.053357467 145.01718
536995092.48773 -0.53949207 173.3212 -55.859383 145.0762 -54.893467 146.09239 0.052661013 145.00108
537372593.43148 -0.54424226 173.10521 -54.831715 142.2478 -55.695827 146.71898 0.05276376 144.97424
537750094.37524 -0.54714203 172.91093 -55.473625 143.16592 -55.655342 148.0616 0.049993031 144.96568
538127595.31899 -0.54884446 172.68083 -55.537876 137.81134 -55.779339 147.03368 0.050983764 144.93407
538505096.26274 -0.55379516 172.48187 -55.875435 144.63466 -55.549149 144.04767 0.054701734 144.9344
538882597.20649 -0.55545557 172.27083 -56.119648 141.45195 -55.387283 142.01158 0.055908963 144.9281
539260098.15025 -0.5586403 172.05908 -55.529613 147.6098 -55.43885 139.90645 0.055888504 144.90317
539637599.094 -0.56042188 171.84679 -55.857666 138.43851 -56.180336 139.13249 0.056739122 144.8685
540015100.03775 -0.56174576 171.61993 -55.962193 140.06834 -55.658199 137.033 0.054535571 144.86194
540392600.9815 -0.56225812 171.39139 -55.352821 139.87123 -56.184658 140.56427 0.058531851 144.81627
540770101.92525 -0.55962634 171.14185 -55.563114 135.5482 -55.898109 137.09972 0.056324229 144.81299
541147602.86901 -0.56404048 170.91725 -55.5872 142.46471 -55.535362 133.08844 0.059093066 144.76239
541525103.81276 -0.56619364 170.66762 -55.486271 137.11076 -55.336483 138.64072 0.062672108 144.74248
541902604.75651 -0.56651497 170.41035 -55.50103 140.89883 -55.985275 139.2981 0.060977295 144.71109
542280105.70026 -0.56901205 170.16426 -54.974232 138.54535 -55.818508 138.46893 0.06156563 144.67578
542657606.64402 -0.57194346 169.9128 -55.24197 137.59505 -55.201572 137.65161 0.061640114 144.63734
543035107.58777 -0.57335311 169.63553 -55.553661 140.42384 -55.624699 135.61211 0.05697605 144.59595
543412608.53152 -0.57672262 169.38435 -54.752537 135.19006 -55.16074 132.52911 0.059728853 144.56233
543790109.47527 -0.58189178 169.11188 -54.827229 137.30876 -55.668003 135.16185 0.055675335 144.51352
544167610.41903 -0.58431637 168.84372 -55.087196 138.2524 -54.401867 137.59569 0.053489521 144.47562
544545111.36278 -0.58773202 168.57016 -54.582962 135.36755 -55.232971 136.3726 0.051162999 144.44545
544922612.30653 -0.59059167 168.31157 -55.042992 130.42545 -54.565521 134.04311 0.04919555 144.41423
545300113.25028 -0.59413975 168.0275 -55.357937 133.07399 -55.303638 131.68082 0.047907837 144.38931
545677614.19404 -0.59936649 167.74896 -54.553192 135.12674 -55.377712 131.93739 0.044330683 144.36389
546055115.13779 -0.60538864 167.46867 -55.129578 132.55339 -55.127403 132.56659 0.041501444 144.30652
546432616.08154 -0.60769534 167.18808 -54.821075 129.38483 -55.695587 128.39128 0.039639857 144.28256
546810117.02529 -0.61404604 166.89651 -54.7411 128.72324 -55.060219 132.68831 0.040913705 144.24471
547187617.96904 -0.62221467 166.60754 -55.792843 133.32056 -55.320797 129.39522 0.03796757 144.21307
547565118.9128 -0.62856638 166.33743 -55.253841 131.08861 -54.746628 127.78525 0.040867992 144.1588
547942619.85655 -0.64116228 166.04861 -54.670418 132.06772 -55.183403 132.45802 0.040984876 144.08797
548320120.8003 -0.6505636 165.75681 -54.815002 127.70669 -54.498348 130.71939 0.041160546 144.06648
548697621.74405 -0.662157 165.46999 -54.411789 129.40834 -54.93232 131.96434 0.041259479 144.01408
549075122.68781 -0.67701221 165.2128 -54.525402 132.78072 -53.736523 129.01303 0.040743455 143.97282
549452623.63156 -0.68985254 164.95857 -54.33062 128.00952 -54.244915 127.9551 0.042208664 143.92657
549830124.57531 -0.70462757 164.7014 -54.335873 129.62666 -54.398903 124.57084 0.043196388 143.88498
550207625.51906 -0.71931845 164.46809 -53.852993 127.81332 -53.803596 125.53494 0.04341393 143.84656
550585126.46282 -0.73400915 164.23703 -53.727303 125.32109 -53.491474 124.16018 0.040536646 143.79994
550962627.40657 -0.74989164 164.01614 -53.490906 129.18541 -53.855068 127.48481 0.040687259 143.79301
551340128.35032 -0.76322925 163.79366 -53.83812 122.0747 -53.889835 125.81975 0.04043299 143.74919
551717629.29407 -0.77625591 163.57599 -53.516296 125.08061 -53.563572 128.45192 0.042636465 143.74852
552095130.23783 -0.7898218 163.39554 -53.507519 123.98433 -53.30154 123.39274 0.04359296 143.71613
552472631.18158 -0.80269736 163.17831 -53.252361 124.98507 -53.274864 121.88959 0.042453945 143.6745
552850132.12533 -0.81128216 162.99474 -53.092037 122.35271 -52.872654 120.23483 0.044172879 143.66606
553227633.06908 -0.81677514 162.7805 -53.189877 123.25372 -52.925743 123.16328 0.044912357 143.64798
553605134.01284 -0.8245151 162.58281 -52.84201 119.31249 -52.677452 117.84606 0.047287609 143.62584
553982634.95659 -0.83390695 162.36487 -52.898952 120.19895 -53.092014 119.71225 0.049969293 143.61829
554360135.90034 -0.83981603 162.13747 -52.660278 118.03031 -52.999855 116.89233 0.054770742 143.60591
554737636.84409 -0.84971327 161.91493 -53.290443 115.43341 -52.936745 116.70692 0.058586467 143.58505
555115137.78784 -0.85616106 161.67268 -52.646755 114.65784 -53.055023 111.96237 0.063270532 143.55891
555492638.7316 -0.86630547 161.42996 -52.778271 112.37967 -52.645607 113.90825 0.066568166 143.53848
555870139.67535 -0.87379181 161.18999 -52.769169 114.66508 -52.411884 113.923 0.068639152 143.5256
556247640.6191 -0.88518465 160.96138 -52.633553 112.97216 -52.446133 113.40575 0.075408757 143.4892
556625141.56285 -0.89563507 160.72212 -52.691288 110.84634 -52.004692 113.19449 0.07453122 143.4774
557002642.50661 -0.90465856 160.48557 -51.849613 111.88241 -52.259205 110.61201 0.072797574 143.44452
557380143.45036 -0.91617751 160.25859 -51.855782 109.40682 -52.052212 112.18872 0.071276903 143.41629
557757644.39411 -0.92655849 160.03706 -51.991474 112.62724 -52.518257 107.12481 0.07210964 143.42085
558135145.33786 -0.93400675 159.80612 -52.212299 112.12422 -52.195862 108.3917 0.07056573 143.36313
558512646.28162 -0.94459313 159.58459 -51.739544 105.79185 -52.25045 109.88046 0.065287851 143.35358
558890147.22537 -0.95486498 159.36133 -52.254116 103.17461 -51.935291 106.8853 0.064138167 143.34007
559267648.16912 -0.96129543 159.15688 -51.741032 107.4941 -51.988655 105.75423 0.060328554 143.30075
559645149.11287 -0.97005612 158.93903 -51.675831 105.16376 -51.949989 106.49113 0.058549762 143.24594
560022650.05663 -0.97789735 158.72858 -51.612492 103.67345 -51.692261 105.4015 0.054994572 143.23001
560400151.00038 -0.98441607 158.50078 -51.850609 102.38577 -51.735664 103.1224 0.05697168 143.19797
560777651.94413 -0.99040323 158.30772 -51.248383 102.47787 -51.435547 102.01086 0.053421322 143.15018
561155152.88788 -0.99544066 158.09834 -51.142082 101.45061 -51.397057 100.85476 0.053967476 143.11928
561532653.83163 -0.99979562 157.90588 -51.394161 97.758636 -51.235905 100.96794 0.05679284 143.06985
561910154.77539 -1.0016669 157.70837 -51.002598 97.752892 -51.184513 96.736351 0.055788152 143.04854
562287655.71914 -1.0021722 157.50262 -51.064888 98.636192 -51.079288 95.620461 0.058639154 143.00737
562665156.66289 -1.0035949 157.28271 -51.43914 93.947754 -51.11657 95.980408 0.060229171 142.98898
563042657.60664 -1.004088 157.06654 -51.144264 93.3508 -51.300274 93.467796 0.063032307 142.95099
563420158.5504 -1.001223 156.84329 -51.134068 92.727661 -51.229 93.857384 0.063723415 142.90793
563797659.49415 -1.0009309 156.62604 -51.077412 90.482536 -51.12595 88.413574 0.064425051 142.87016
564175160.4379 -0.9966709 156.40044 -51.131397 91.559441 -51.162529 88.848137 0.06235813 142.86247
564552661.38165 -0.99575156 156.13985 -51.314304 86.089897 -50.929962 88.888771 0.059219185 142.82408
564930162.32541 -0.99139655 155.89 -51.039288 88.328484 -51.147064 91.253082 0.059953146 142.79836
565307663.26916 -0.9883576 155.61304 -51.11552 87.16375 -51.204704 86.223152 0.057723612 142.77902
565685164.21291 -0.98730785 155.3407 -51.263302 85.721191 -51.351887 84.737244 0.053997315 142.72464
566062665.15666 -0.9812659 155.04578 -51.301315 88.062035 -50.73016 85.039452 0.052901112 142.69754
566440166.10042 -0.98323387 154.74435 -51.559238 83.933952 -51.527786 85.848488 0.050263766 142.6825
566817667.04417 -0.98396796 154.41194 -51.649014 85.017197 -51.471146 86.531937 0.047104321 142.65414
567195167.98792 -0.99129587 154.08774 -51.382309 81.766579 -51.536743 82.690414 0.044686433 142.6059
567572668.93167 -0.99821162 153.76849 -51.061981 83.011436 -51.655224 82.754097 0.042361569 142.56293
567950169.87542 -1.0044382 153.45265 -51.206989 84.473076 -51.186367 84.269806 0.042690609 142.53842
568327670.81918 -1.0139893 153.15117 -51.255512 81.132034 -51.313908 81.888023 0.046992693 142.49525
568705171.76293 -1.0246643 152.85143 -51.4464 82.315567 -51.488213 82.564117 0.049374305 142.44272
569082672.70668 -1.0324547 152.56148 -51.097992 81.952217 -50.813812 82.010849 0.052860826 142.39969
569460173.65043 -1.0435573 152.24615 -51.109039 80.944366 -50.818836 82.476089 0.054680821 142.37411
569837674.59419 -1.0493658 151.93222 -51.059666 79.886047 -51.128197 78.995964 0.055899493 142.33243
570215175.53794 -1.058401 151.63353 -50.753792 81.928642 -51.026764 81.175369 0.058801655 142.31326
570592676.48169 -1.0675979 151.29448 -50.990086 77.776917 -51.067387 78.563225 0.063491687 142.26582
570970177.42544 -1.0780092 150.96819 -51.030857 77.156784 -50.658691 78.327972 0.06580174 142.25928
571347678.3692 -1.0908223 150.6324 -50.811901 78.658958 -50.722958 78.488312 0.067381471 142.23782
571725179.31295 -1.106025 150.31657 -50.741001 77.114525 -50.831081 76.459618 0.067661747 142.21642
572102680.2567 -1.1233642 150.00015 -50.462532 76.880905 -50.4851 75.891396 0.068869866 142.20929
572480181.20045 -1.1376641 149.68188 -50.57333 77.524689 -50.488327 76.272606 0.068081677 142.20854
