!Keysight Technologies,N5242B,MY48420860,A.13.80.08
!Date: Saturday, September 26, 2020 13:02:26
!Correction: S11(Full 2 Port(1,2)) 
!S21(Full 2 Port(1,2)) 
!S12(Full 2 Port(1,2)) 
!S22(Full 2 Port(1,2)) 
!S2P File: Measurements: S11, S21, S12, S22:
# Hz S  dB   R 50
500000000 -0.23199636 -166.1757 -63.592594 139.4825 -64.586617 138.77936 0.048668295 147.8136
500377500.94375 -0.23386511 -166.36853 -63.630615 142.65669 -63.550549 150.78607 0.049815279 147.79524
500755001.8875 -0.23762709 -166.57387 -64.315605 148.44548 -64.65657 140.10045 0.052171644 147.79704
501132502.83126 -0.2407473 -166.78609 -61.994373 137.67575 -62.390354 142.82837 0.048610784 147.7836
501510003.77501 -0.24399936 -166.99367 -62.351002 142.13246 -62.959663 138.77997 0.050258622 147.78366
501887504.71876 -0.24859202 -167.18271 -63.393196 136.90062 -62.783909 143.83176 0.047879536 147.79536
502265005.66251 -0.24981269 -167.38168 -61.299316 136.28384 -63.941139 135.24902 0.043684963 147.76031
502642506.60627 -0.25406736 -167.60852 -61.688828 134.75252 -62.741703 133.37474 0.04182202 147.74365
503020007.55002 -0.25824508 -167.80544 -63.040447 130.60017 -64.336189 132.41734 0.041148521 147.71762
503397508.49377 -0.26251796 -167.98865 -64.429878 132.78102 -62.391689 134.80031 0.039520733 147.68675
503775009.43752 -0.26589707 -168.18233 -63.572296 129.13469 -62.002476 134.0676 0.035038598 147.64505
504152510.38128 -0.26924568 -168.3764 -64.917664 140.3206 -63.587612 138.8515 0.040701635 147.61958
504530011.32503 -0.27118203 -168.55965 -63.680569 130.21725 -63.202728 123.47094 0.043115664 147.57933
504907512.26878 -0.27448782 -168.7482 -63.523674 127.24657 -62.727196 123.57431 0.045250066 147.54776
505285013.21253 -0.27520871 -168.93312 -62.506771 128.0555 -62.276745 133.36134 0.048733227 147.54095
505662514.15629 -0.27514377 -169.119 -62.023952 119.57476 -62.2645 125.42894 0.052627873 147.498
506040015.10004 -0.27592134 -169.29637 -62.504078 132.24326 -61.695709 127.47114 0.053983327 147.45329
506417516.04379 -0.27575555 -169.49287 -61.849224 121.05485 -61.464783 123.9746 0.055633947 147.44421
506795016.98754 -0.27204481 -169.68047 -62.993481 121.77289 -63.018379 121.09969 0.063103922 147.43771
507172517.93129 -0.27253467 -169.87376 -63.726059 119.17146 -62.302021 124.55118 0.06042745 147.40816
507550018.87505 -0.27220827 -170.08017 -61.79533 119.68085 -61.160896 119.03088 0.060147356 147.4157
507927519.8188 -0.27094796 -170.27675 -62.699924 122.36809 -62.497551 117.61919 0.059622049 147.40039
508305020.76255 -0.27045655 -170.47285 -62.318218 131.82384 -61.917328 128.13283 0.055560336 147.38153
508682521.7063 -0.26793575 -170.67421 -62.698284 123.31233 -61.451435 132.77188 0.051937982 147.37474
509060022.65006 -0.27011168 -170.88919 -62.001381 120.43504 -62.252022 119.11163 0.049873568 147.33565
509437523.59381 -0.26830068 -171.08264 -61.34935 111.71385 -61.587738 119.11746 0.045180615 147.30466
509815024.53756 -0.27012834 -171.29454 -61.375351 116.15521 -61.257786 122.91853 0.041113302 147.28381
510192525.48131 -0.27082935 -171.50092 -61.541649 121.60502 -63.281197 118.18601 0.035871595 147.22151
510570026.42507 -0.27360097 -171.69867 -62.472904 118.26736 -62.12558 119.77785 0.032041706 147.17259
510947527.36882 -0.27384919 -171.92168 -61.782001 119.10345 -60.652275 113.58358 0.032532044 147.12164
511325028.31257 -0.27602121 -172.13464 -59.843739 112.55606 -61.790043 118.64136 0.029151598 147.07233
511702529.25632 -0.27782038 -172.3427 -61.391762 107.73048 -61.875938 108.38203 0.031239273 147.02576
512080030.20008 -0.27845472 -172.55087 -61.878216 121.18446 -60.553566 112.62185 0.030767737 146.96332
512457531.14383 -0.28125235 -172.77274 -60.526306 107.26956 -62.762112 106.80219 0.033863697 146.91298
512835032.08758 -0.28269157 -172.99194 -60.532448 107.55598 -61.455879 111.12347 0.038403068 146.87816
513212533.03133 -0.28731471 -173.21021 -62.478668 107.48902 -60.676075 114.95918 0.03992071 146.85313
513590033.97508 -0.29105198 -173.43484 -60.772171 103.84911 -61.194256 112.21474 0.043967746 146.80257
513967534.91884 -0.29438192 -173.64667 -60.825661 103.8103 -60.122799 111.77509 0.045167845 146.77361
514345035.86259 -0.29728761 -173.86888 -59.958557 105.03723 -61.185593 112.25476 0.048057467 146.77556
514722536.80634 -0.30063787 -174.0925 -60.001102 104.84877 -60.918449 111.42065 0.052607335 146.77518
515100037.75009 -0.30531967 -174.31357 -60.119839 105.59066 -60.971577 113.74015 0.052847195 146.74937
515477538.69385 -0.31006786 -174.52441 -60.466228 106.37148 -60.423508 105.66884 0.051602259 146.74393
515855039.6376 -0.31257853 -174.73254 -60.977242 102.98037 -61.63546 100.74625 0.05069593 146.74615
516232540.58135 -0.31557992 -174.9653 -61.717628 107.00188 -61.240177 110.09904 0.049574763 146.73308
516610041.5251 -0.32067969 -175.17815 -60.046406 107.17169 -60.091545 104.15106 0.049782496 146.69136
516987542.46886 -0.32232055 -175.40636 -60.30809 98.135353 -60.459976 97.434929 0.046225239 146.6792
517365043.41261 -0.32424346 -175.61278 -60.667725 103.3271 -59.766933 95.052353 0.042702448 146.64993
517742544.35636 -0.32875681 -175.84067 -60.716702 98.834099 -59.583538 101.15884 0.04457083 146.6171
518120045.30011 -0.33524472 -176.06822 -61.11356 97.88826 -60.576103 99.433403 0.043203693 146.57861
518497546.24387 -0.33803388 -176.27834 -59.988407 105.22883 -60.373856 98.913124 0.04285536 146.53558
518875047.18762 -0.34264076 -176.50156 -60.366276 98.589455 -59.837681 100.24612 0.04588649 146.49208
519252548.13137 -0.34891933 -176.70078 -59.635677 102.68509 -59.667942 100.20055 0.048181705 146.46001
519630049.07512 -0.3520115 -176.90984 -60.11721 97.368027 -59.092617 96.746033 0.048046295 146.41859
520007550.01888 -0.35426378 -177.12428 -59.7383 101.49551 -60.515182 97.545959 0.0520688 146.37578
520385050.96263 -0.35732526 -177.31372 -59.524925 94.214523 -59.527878 91.671967 0.055108041 146.3568
520762551.90638 -0.36074007 -177.52399 -59.576237 90.693573 -59.7784 92.614037 0.056614995 146.3201
521140052.85013 -0.36344332 -177.74408 -59.556011 90.984985 -60.739586 92.097504 0.06121118 146.29199
521517553.79388 -0.36362457 -177.9519 -59.332336 94.731621 -58.744987 91.62104 0.060876764 146.26895
521895054.73764 -0.36733839 -178.16188 -59.064751 90.074219 -59.257938 93.341629 0.060320098 146.22517
522272555.68139 -0.36799702 -178.37619 -59.741901 91.667015 -59.06657 88.266518 0.055938691 146.20592
522650056.62514 -0.37123281 -178.58784 -58.755535 89.104431 -59.427078 90.104057 0.054317091 146.20705
523027557.56889 -0.37448442 -178.80183 -58.652664 92.305183 -58.649265 93.609673 0.054896511 146.18365
523405058.51265 -0.37907305 -179.04424 -58.506737 93.041832 -59.093967 93.808586 0.049959518 146.15273
523782559.4564 -0.38048494 -179.24936 -59.015713 83.321449 -58.470352 81.416542 0.047942251 146.1265
524160060.40015 -0.38704211 -179.47173 -59.0215 89.009796 -58.892075 86.968086 0.042968594 146.10132
524537561.3439 -0.39356363 -179.6925 -58.609184 85.460327 -59.672066 81.446335 0.043909416 146.0638
524915062.28766 -0.39783448 -179.93002 -58.317272 87.643036 -58.189011 83.404648 0.039561853 146.01347
525292563.23141 -0.40387267 179.86282 -58.357655 84.797173 -58.556236 90.909248 0.039940562 145.99844
525670064.17516 -0.41240329 179.61781 -58.038788 84.877892 -58.268715 80.096413 0.04044234 145.96323
526047565.11891 -0.41847792 179.40521 -58.855183 78.767426 -58.072308 88.254448 0.044953056 145.92023
526425066.06267 -0.42446455 179.18515 -58.454502 82.372086 -58.015968 79.382462 0.04602382 145.87766
526802567.00642 -0.43394741 178.9911 -58.196579 83.766571 -58.63961 78.336975 0.045376182 145.85031
527180067.95017 -0.43853006 178.7421 -57.465446 79.916351 -58.647762 76.867249 0.049308892 145.82758
527557568.89392 -0.44932008 178.55032 -58.913143 83.020668 -58.422028 85.055626 0.04985052 145.79736
527935069.83767 -0.45481369 178.3376 -57.817722 75.086723 -58.707333 80.261169 0.051737297 145.75807
528312570.78143 -0.45941848 178.14227 -57.528545 79.806229 -57.121101 78.144386 0.050582238 145.73578
528690071.72518 -0.4682745 177.91786 -58.221638 77.480293 -57.914566 70.275963 0.051167622 145.72253
529067572.66893 -0.4745377 177.70552 -57.776428 76.322372 -58.174255 77.057144 0.049978159 145.68227
529445073.61268 -0.47904757 177.49481 -58.06263 71.82811 -58.068951 77.157387 0.046975687 145.64598
529822574.55644 -0.48429054 177.28589 -58.29097 70.970909 -57.547024 74.525124 0.045122985 145.62869
530200075.50019 -0.49215257 177.06172 -57.458576 71.572311 -57.819855 68.573502 0.041931294 145.61909
530577576.44394 -0.49754965 176.84595 -57.152771 72.703705 -58.84185 71.736412 0.037354801 145.57191
530955077.38769 -0.50201386 176.63071 -57.977528 78.004036 -57.940659 73.532768 0.035531998 145.54898
531332578.33145 -0.5087263 176.40993 -57.583035 68.746353 -57.834644 71.197212 0.03388837 145.52455
531710079.2752 -0.5153991 176.20921 -56.654915 70.895355 -58.048935 75.374435 0.028302949 145.49384
532087580.21895 -0.51909131 176.01553 -56.835445 66.108902 -57.501266 71.591187 0.03285297 145.45898
532465081.1627 -0.52672887 175.78648 -57.47607 72.727158 -58.013142 69.289787 0.029227002 145.41814
532842582.10646 -0.52944088 175.58125 -58.004074 65.926727 -57.389603 66.643135 0.029528648 145.38033
533220083.05021 -0.53207278 175.37471 -57.120155 61.944687 -57.536472 68.859337 0.033208098 145.34053
533597583.99396 -0.53606635 175.17813 -56.883358 65.226074 -57.175209 70.031723 0.035210673 145.27246
533975084.93771 -0.5392735 174.97067 -57.65134 66.071617 -56.894413 61.944401 0.038427483 145.24637
534352585.88146 -0.54543757 174.77956 -57.252033 60.468075 -57.388542 62.38763 0.041309074 145.22411
534730086.82522 -0.54905748 174.57007 -57.122311 61.596718 -56.880245 60.543957 0.043546602 145.18602
535107587.76897 -0.55071354 174.36911 -56.84053 66.309631 -56.593483 63.983601 0.04686369 145.14473
535485088.71272 -0.55286336 174.16014 -57.495205 62.970306 -56.573986 61.824272 0.048718434 145.1096
535862589.65647 -0.55376107 173.95308 -57.128105 57.403027 -56.394943 63.800629 0.049524855 145.10201
536240090.60023 -0.56148326 173.75397 -55.875568 59.189896 -56.635586 61.240967 0.048134875 145.07014
536617591.54398 -0.56262952 173.54257 -56.499283 57.525063 -56.136452 61.010712 0.048675105 145.03874
536995092.48773 -0.56416607 173.34009 -56.348557 57.250816 -55.823849 54.538349 0.045234639 145.01645
537372593.43148 -0.56844491 173.13553 -57.080685 52.430279 -55.813221 59.456379 0.045164153 145.00078
537750094.37524 -0.57006979 172.93225 -56.392429 54.417027 -56.268314 55.301727 0.041163713 144.9664
538127595.31899 -0.57122868 172.72089 -55.48814 51.894081 -55.993687 50.839851 0.038520068 144.93674
538505096.26274 -0.57279384 172.52051 -56.076759 52.535465 -56.531811 50.606571 0.040802643 144.92462
538882597.20649 -0.57460022 172.31223 -56.116825 53.674362 -55.509567 54.571644 0.042928156 144.8974
539260098.15025 -0.57423478 172.09337 -56.315399 50.901638 -55.641171 57.442219 0.040276445 144.87108
539637599.094 -0.57533538 171.86676 -55.496216 57.508507 -55.842625 49.616413 0.045107584 144.84528
540015100.03775 -0.57618165 171.63802 -55.989082 46.129555 -55.842815 50.033539 0.045838125 144.82756
540392600.9815 -0.57488567 171.41315 -56.265381 52.467102 -55.410503 45.544983 0.05182384 144.78949
540770101.92525 -0.57519853 171.14941 -55.650742 44.368759 -56.143932 50.13105 0.053767171 144.78203
541147602.86901 -0.57652241 170.91293 -55.790398 45.797676 -55.885036 42.998703 0.060110062 144.75755
541525103.81276 -0.57943171 170.65843 -55.380512 45.469746 -55.406322 47.211605 0.062949084 144.733
541902604.75651 -0.58134055 170.39264 -55.372765 44.256721 -56.098454 46.7962 0.062696047 144.70938
542280105.70026 -0.58299351 170.14188 -55.961838 41.149082 -55.661762 42.518822 0.065179028 144.68567
542657606.64402 -0.58844948 169.88831 -55.461525 44.846474 -55.426025 45.03265 0.062948905 144.66238
543035107.58777 -0.58963442 169.60938 -55.983952 41.115086 -55.242855 42.185741 0.059390344 144.62889
543412608.53152 -0.59517848 169.35425 -55.170074 44.630638 -55.439705 39.076885 0.058883149 144.58276
543790109.47527 -0.60301208 169.08112 -54.644737 42.132553 -55.587757 40.574749 0.05475362 144.55107
544167610.41903 -0.6055963 168.82916 -55.646465 39.635891 -55.6054 39.321865 0.049363475 144.51453
544545111.36278 -0.60904717 168.5531 -55.269924 40.87619 -55.636768 42.627346 0.041682426 144.46805
544922612.30653 -0.61422873 168.29932 -55.262886 35.784294 -54.53661 36.108154 0.036755379 144.44064
545300113.25028 -0.6180824 168.02199 -54.978584 36.305199 -55.170307 39.074013 0.034861643 144.38058
545677614.19404 -0.62340748 167.75288 -54.476254 33.519306 -54.53426 35.041683 0.033778042 144.35907
546055115.13779 -0.63096428 167.47423 -55.095055 33.91 -54.923523 32.413776 0.031019645 144.2928
546432616.08154 -0.63321024 167.20267 -54.618042 35.868061 -54.981529 33.171982 0.027344018 144.26405
546810117.02529 -0.6387046 166.9081 -54.765278 31.948227 -55.127556 31.705513 0.028896099 144.20692
547187617.96904 -0.646815 166.61765 -54.275452 30.908928 -54.497833 30.687012 0.031922191 144.17361
547565118.9128 -0.65623736 166.3535 -54.794128 30.109625 -54.662788 31.563967 0.032056507 144.13245
547942619.85655 -0.66694999 166.06833 -54.4538 30.388546 -54.316647 29.533045 0.037948597 144.07423
548320120.8003 -0.67756736 165.79562 -54.491215 28.456566 -54.202873 28.691252 0.041980706 144.04343
548697621.74405 -0.68961167 165.49176 -54.808376 29.720284 -54.488918 25.560551 0.044146176 144.00284
549075122.68781 -0.70319235 165.2422 -54.241871 26.467932 -54.397747 28.089733 0.044031598 143.97559
549452623.63156 -0.71721596 165.00371 -54.370075 26.934029 -54.812614 27.20643 0.046953119 143.93996
549830124.57531 -0.73057353 164.75026 -54.562641 24.013937 -54.808979 27.596056 0.049237359 143.90694
550207625.51906 -0.74468976 164.52562 -54.597889 21.370644 -53.526077 26.789219 0.046542425 143.88531
550585126.46282 -0.75847828 164.2915 -53.799274 18.990833 -54.03014 20.669102 0.042262606 143.85562
550962627.40657 -0.77076781 164.06912 -54.348869 21.753839 -54.095909 18.864555 0.041288279 143.82634
551340128.35032 -0.78499222 163.84299 -53.839104 19.316448 -53.868782 19.93326 0.037513688 143.80289
551717629.29407 -0.79652584 163.62019 -54.013096 19.210503 -54.051109 22.007565 0.037594259 143.76382
552095130.23783 -0.80952799 163.42447 -53.624496 19.800013 -53.897766 18.098528 0.03595053 143.731
552472631.18158 -0.82389426 163.20914 -53.710571 19.985571 -53.945976 17.542091 0.031691153 143.7112
552850132.12533 -0.83228958 163.01053 -53.764198 17.188036 -53.686794 21.123644 0.034194238 143.68321
553227633.06908 -0.84019792 162.79015 -53.87183 16.280853 -53.868263 14.72373 0.032789093 143.64778
553605134.01284 -0.85197717 162.57245 -54.229225 14.326957 -54.204601 15.630052 0.035692882 143.62395
553982634.95659 -0.85975617 162.34926 -54.237347 13.605707 -54.012779 13.739993 0.04150603 143.60448
554360135.90034 -0.87041342 162.13005 -53.528728 14.680365 -53.86306 16.483969 0.046153687 143.58206
554737636.84409 -0.88130468 161.90274 -53.121544 12.545947 -53.854824 14.630943 0.051587593 143.57213
555115137.78784 -0.89227676 161.65248 -54.033691 14.358377 -53.765198 13.269262 0.059261553 143.54959
555492638.7316 -0.9026475 161.41849 -53.388725 13.126929 -53.631908 12.297702 0.066389687 143.53331
555870139.67535 -0.91667593 161.2009 -53.360191 12.296818 -53.379517 8.1621952 0.069837376 143.53992
556247640.6191 -0.92700011 160.97591 -53.316967 11.288318 -53.335415 10.600012 0.076355092 143.49428
556625141.56285 -0.94220746 160.74446 -52.966606 9.8729773 -53.277229 10.705897 0.07412985 143.49039
557002642.50661 -0.95149058 160.52977 -53.506275 6.4512024 -52.610809 7.118978 0.074581645 143.46606
557380143.45036 -0.96393353 160.32188 -53.16888 8.1904678 -52.75539 7.9954877 0.072698385 143.46368
557757644.39411 -0.97530657 160.11768 -52.607452 3.9501333 -53.057209 4.3462181 0.071750313 143.45834
558135145.33786 -0.9871338 159.91722 -52.871178 2.8672583 -52.475647 3.6747327 0.067599542 143.40329
558512646.28162 -0.99864662 159.69632 -52.796978 1.7676351 -52.963402 5.2524643 0.058963303 143.39397
558890147.22537 -1.0082772 159.5 -52.925453 1.5268868 -53.09724 -0.30158308 0.054700911 143.36597
559267648.16912 -1.0152457 159.31779 -52.756489 0.17086816 -52.591717 0.23349403 0.049515851 143.32774
559645149.11287 -1.0240527 159.13605 -52.636475 -1.9429852 -52.604816 -0.37340954 0.044145007 143.26662
560022650.05663 -1.0325563 158.94547 -52.813091 -0.99722183 -52.584301 -2.1279244 0.042874496 143.24834
560400151.00038 -1.0386238 158.75879 -52.449715 -6.820888 -52.566967 -3.1701579 0.043268166 143.18752
560777651.94413 -1.04255 158.57967 -51.721966 -4.595695 -52.566113 -4.7134395 0.040788218 143.15073
561155152.88788 -1.0451089 158.39824 -52.636398 -6.1556005 -52.391983 -6.9090347 0.041253202 143.10611
561532653.83163 -1.0462939 158.22459 -52.841335 -7.6073146 -52.435291 -6.894959 0.046687905 143.0619
561910154.77539 -1.0464803 158.04613 -52.339813 -8.1539831 -52.782269 -8.0560217 0.04896206 143.03542
562287655.71914 -1.0438741 157.84734 -52.500511 -9.4245777 -52.396404 -11.542119 0.052032266 143.00587
562665156.66289 -1.0432253 157.64468 -52.758526 -15.031252 -52.628544 -11.387153 0.05587744 142.97226
563042657.60664 -1.0371896 157.42911 -52.540253 -10.928966 -53.024685 -13.695079 0.060343072 142.94521
563420158.5504 -1.0327312 157.22412 -52.885464 -16.964039 -52.644894 -14.793366 0.065084644 142.9218
563797659.49415 -1.0277362 157.0023 -52.745785 -13.789798 -52.949966 -16.295097 0.067015342 142.89345
564175160.4379 -1.0219191 156.77254 -53.028801 -14.834218 -52.893749 -12.908263 0.063736774 142.87688
564552661.38165 -1.0189495 156.51192 -53.049873 -16.155998 -52.469574 -16.550602 0.059684932 142.86639
564930162.32541 -1.0139792 156.24977 -52.872917 -18.274422 -52.96249 -18.55278 0.058778286 142.82689
565307663.26916 -1.0071951 155.97194 -53.1618 -19.346861 -53.093662 -16.216909 0.055662993 142.80644
565685164.21291 -1.0017334 155.67699 -53.219677 -18.567324 -52.522713 -15.38204 0.047896769 142.76715
566062665.15666 -0.9984327 155.36766 -53.085751 -17.534636 -53.308464 -19.305565 0.042196508 142.73322
566440166.10042 -0.99883872 155.0545 -53.205189 -17.880291 -53.277084 -19.565491 0.038162351 142.71927
566817667.04417 -1.0000117 154.71059 -52.844715 -19.951937 -53.532291 -18.549404 0.036463693 142.67407
567195167.98792 -1.0080067 154.38309 -52.991413 -16.737684 -52.957294 -17.586946 0.033119537 142.61783
567572668.93167 -1.01656 154.06216 -52.840538 -16.862207 -53.380119 -18.005228 0.030789984 142.57014
567950169.87542 -1.0271878 153.74614 -52.802071 -20.102583 -53.19117 -17.802708 0.030644178 142.53346
568327670.81918 -1.0371401 153.45674 -52.873375 -17.917664 -52.894398 -18.203592 0.037069064 142.49783
568705171.76293 -1.0516654 153.17307 -52.888573 -20.921366 -52.845116 -20.177261 0.042393282 142.44228
569082672.70668 -1.0587209 152.88498 -52.411346 -17.58602 -52.891773 -18.676895 0.046662685 142.41211
569460173.65043 -1.0697891 152.58894 -52.663845 -19.781481 -52.322575 -20.215206 0.051778931 142.37781
569837674.59419 -1.072927 152.29387 -52.274158 -19.675173 -52.520149 -21.331018 0.052273992 142.34445
570215175.53794 -1.0854524 151.9875 -51.961273 -22.156534 -52.211681 -22.096354 0.059539966 142.32262
570592676.48169 -1.0968121 151.66814 -52.223831 -21.437603 -52.174076 -21.715403 0.063495323 142.28778
570970177.42544 -1.1057847 151.35927 -52.000942 -23.858316 -51.88047 -24.321657 0.065939158 142.29037
571347678.3692 -1.1173414 151.05202 -52.345592 -21.232986 -52.121601 -24.092707 0.068508171 142.27354
571725179.31295 -1.1339171 150.74667 -51.978771 -27.196512 -51.777157 -28.526386 0.066613197 142.24474
572102680.2567 -1.1480097 150.44582 -51.627319 -23.51861 -51.751896 -25.049286 0.068940237 142.25217
572480181.20045 -1.1624082 150.14595 -51.939423 -25.613359 -51.66864 -26.91721 0.067556962 142.24638
572857682.14421 -1.178702 149.85246 -51.779167 -28.304127 -51.815834 -25.506779 0.063436911 142.21779
