!Keysight Technologies,N5242B,MY48420860,A.13.80.08
!Date: Saturday, September 26, 2020 13:23:28
!Correction: S11(Full 2 Port(1,2)) 
!S21(Full 2 Port(1,2)) 
!S12(Full 2 Port(1,2)) 
!S22(Full 2 Port(1,2)) 
!S2P File: Measurements: S11, S21, S12, S22:
# Hz S  dB   R 50
500000000 -0.23704727 -166.16873 -63.1833 39.025173 -65.09375 34.970757 -0.013128008 147.2066
500377500.94375 -0.2404716 -166.35748 -64.249733 22.90592 -64.148483 43.168312 -0.011563389 147.21466
500755001.8875 -0.24384505 -166.55391 -64.764824 36.024303 -66.171989 26.482313 -0.009610327 147.25798
501132502.83126 -0.24715202 -166.76512 -66.090103 29.238329 -65.53093 31.810637 -0.013184648 147.26866
501510003.77501 -0.25078511 -166.96452 -65.758049 40.036724 -65.513054 40.125729 -0.017153461 147.27495
501887504.71876 -0.25369516 -167.15771 -63.817657 24.556459 -64.799934 43.337482 -0.023279989 147.28778
502265005.66251 -0.25585958 -167.36171 -63.48975 31.766029 -63.918846 34.968903 -0.031027252 147.26077
502642506.60627 -0.26170689 -167.58075 -63.891994 38.611092 -65.078758 28.701387 -0.034337789 147.22643
503020007.55002 -0.26282698 -167.77339 -64.61673 34.032051 -64.306404 30.242815 -0.037964124 147.18124
503397508.49377 -0.2674765 -167.96358 -63.330402 32.725945 -65.856499 32.505924 -0.041048851 147.10678
503775009.43752 -0.26950836 -168.1548 -64.290642 22.746933 -64.053185 27.534832 -0.043703448 147.0282
504152510.38128 -0.27363268 -168.35161 -64.085152 32.893444 -64.197777 36.866158 -0.041144885 146.98405
504530011.32503 -0.27541819 -168.54713 -63.494717 33.33852 -64.249779 28.831524 -0.035820015 146.92888
504907512.26878 -0.27756622 -168.71837 -63.748699 26.805752 -64.607376 31.717916 -0.026903503 146.85886
505285013.21253 -0.27787986 -168.90944 -62.607983 22.624899 -64.949944 23.556761 -0.019857639 146.84105
505662514.15629 -0.2783443 -169.08612 -64.076759 22.414553 -64.661072 24.0473 -0.0097383354 146.80515
506040015.10004 -0.27775002 -169.27705 -64.612068 17.575504 -63.982933 27.745964 -0.0015872075 146.78096
506417516.04379 -0.2821469 -169.46184 -64.197601 16.313417 -65.094299 18.391104 0.0051123509 146.79286
506795016.98754 -0.27622956 -169.66127 -63.44112 24.689552 -65.344482 22.251024 0.018224336 146.81589
507172517.93129 -0.2764976 -169.84654 -65.245331 28.083845 -63.376431 24.878422 0.019637536 146.83325
507550018.87505 -0.2752459 -170.05785 -64.48307 19.884886 -63.499008 16.185024 0.024768906 146.89175
507927519.8188 -0.27509338 -170.26004 -64.385216 13.254558 -63.844322 18.494274 0.024429696 146.9108
508305020.76255 -0.27620697 -170.45602 -63.932987 18.73665 -63.789192 13.06418 0.022058025 146.9427
508682521.7063 -0.27407503 -170.66199 -63.543602 16.500381 -64.599342 20.536482 0.015920429 146.964
509060022.65006 -0.27562854 -170.86107 -63.153698 18.065561 -63.015034 15.546839 0.011649116 146.95836
509437523.59381 -0.27523163 -171.05589 -65.585625 23.821438 -64.014526 19.292393 0.0031028921 146.95859
509815024.53756 -0.2752212 -171.26962 -61.647388 16.947708 -63.404751 8.0056057 -0.0069767358 146.9332
510192525.48131 -0.27812275 -171.46481 -63.623466 16.118202 -63.925446 20.81012 -0.018049806 146.87434
510570026.42507 -0.27904272 -171.66193 -64.980194 6.8823419 -61.685856 14.535505 -0.02467203 146.79042
510947527.36882 -0.27986929 -171.86276 -65.218536 10.59962 -63.537853 11.542303 -0.029084355 146.71736
511325028.31257 -0.28271765 -172.08408 -64.402039 11.651069 -64.121124 10.416235 -0.035456933 146.62054
511702529.25632 -0.28326499 -172.28665 -63.639809 9.4929371 -63.649498 8.3680391 -0.035801623 146.53592
512080030.20008 -0.28596494 -172.48953 -63.404587 3.5329249 -64.387482 14.24649 -0.035798859 146.42746
512457531.14383 -0.28742278 -172.70973 -62.47662 15.200057 -64.070274 14.792576 -0.029221889 146.34547
512835032.08758 -0.29104805 -172.92252 -64.020973 18.903168 -63.213982 15.015471 -0.023412053 146.29308
513212533.03133 -0.29286173 -173.12953 -64.336891 10.271342 -64.838394 7.0073957 -0.017492145 146.24025
513590033.97508 -0.29625779 -173.33308 -64.655258 18.315834 -62.689018 8.6718388 -0.0096101854 146.19368
513967534.91884 -0.29775739 -173.55734 -62.894039 13.136968 -63.312836 15.226134 -0.0042794431 146.16533
514345035.86259 -0.3020362 -173.76541 -61.879562 10.51569 -63.441502 4.2133913 0.0019715771 146.18811
514722536.80634 -0.30247006 -173.97438 -63.064457 6.3418732 -63.440895 7.1012363 0.0096614901 146.20453
515100037.75009 -0.30755115 -174.20871 -62.426342 12.479312 -63.849216 -2.5570033 0.0090368884 146.22737
515477538.69385 -0.30942398 -174.41042 -62.197659 5.7448463 -61.112583 3.6347163 0.0092131328 146.26385
515855039.6376 -0.31265602 -174.6321 -62.497395 11.142887 -62.602676 6.9354773 0.0070637292 146.28795
516232540.58135 -0.31485075 -174.84763 -62.843208 15.496512 -62.003189 4.8623004 0.0024997508 146.29172
516610041.5251 -0.31785968 -175.07153 -61.18486 2.2212672 -61.804985 3.4203925 -0.0019560992 146.29439
516987542.46886 -0.32088631 -175.29582 -61.669815 -4.3604431 -61.980595 5.7875371 -0.0097913947 146.27414
517365043.41261 -0.32184568 -175.51128 -61.407173 1.631807 -61.312099 6.1952758 -0.021132063 146.2505
517742544.35636 -0.32595116 -175.73915 -61.971634 12.901344 -61.382519 0.56226563 -0.023853872 146.22141
518120045.30011 -0.33002573 -175.94595 -61.287369 8.1907148 -60.787346 0.5601871 -0.033117022 146.13469
518497546.24387 -0.33515942 -176.17049 -61.353256 7.58815 -61.296501 1.429625 -0.037763152 146.05769
518875047.18762 -0.33789146 -176.38489 -60.715759 0.37676802 -60.550671 -1.4293764 -0.037975993 145.9863
519252548.13137 -0.34104499 -176.60364 -61.116737 2.7762618 -60.537228 -4.4924655 -0.039807752 145.89964
519630049.07512 -0.34413353 -176.82123 -60.60125 -4.4906154 -60.355 -4.4124384 -0.039582528 145.80006
520007550.01888 -0.34665999 -177.01816 -60.102268 -1.3035096 -60.515778 -2.8729544 -0.032096323 145.71851
520385050.96263 -0.34803167 -177.22772 -61.316963 -14.142641 -60.484592 -8.3746719 -0.030057462 145.64583
520762551.90638 -0.35141882 -177.43446 -59.134163 -3.9191008 -59.936188 -8.0389051 -0.024439441 145.57471
521140052.85013 -0.35287911 -177.64975 -60.056683 -10.094847 -59.735138 -10.755401 -0.018272413 145.52139
521517553.79388 -0.35433239 -177.84779 -60.474369 -10.745836 -60.908318 -3.4619417 -0.014503963 145.50525
521895054.73764 -0.35435313 -178.08182 -60.674561 -14.424392 -60.006371 -18.653742 -0.010166612 145.48137
522272555.68139 -0.35561141 -178.30298 -60.329124 -14.183715 -60.587528 -16.457945 -0.010392239 145.50507
522650056.62514 -0.35738763 -178.52095 -59.692486 -10.099629 -60.33419 -13.370297 -0.010260161 145.50685
523027557.56889 -0.36054486 -178.72997 -59.91127 -18.378397 -60.046078 -12.538388 -0.010620183 145.52347
523405058.51265 -0.36373582 -178.96715 -60.887993 -16.261662 -59.235004 -11.822134 -0.014199388 145.52103
523782559.4564 -0.36546311 -179.17688 -60.083572 -13.282013 -61.043964 -17.456665 -0.019247117 145.54425
524160060.40015 -0.37246731 -179.41122 -59.696064 -15.727328 -60.331276 -9.5375557 -0.024101997 145.54973
524537561.3439 -0.37812912 -179.6338 -59.399708 -14.820661 -60.752819 -16.754839 -0.028476996 145.5349
524915062.28766 -0.38103446 -179.86707 -58.441471 -17.226248 -59.826237 -18.944784 -0.035232019 145.49164
525292563.23141 -0.38798216 179.9084 -58.622421 -19.541809 -60.269451 -23.050459 -0.037939951 145.46771
525670064.17516 -0.39491192 179.65704 -59.762489 -19.441906 -59.548195 -17.904758 -0.041025847 145.42284
526047565.11891 -0.40024847 179.45134 -60.339596 -23.377224 -59.560509 -25.047678 -0.040735338 145.35507
526425066.06267 -0.40798679 179.22241 -59.312969 -18.827509 -59.329891 -15.323741 -0.038369548 145.28461
526802567.00642 -0.41511768 179.00539 -58.600773 -26.826607 -60.250191 -23.542192 -0.041615482 145.22176
527180067.95017 -0.42333153 178.78006 -60.458504 -23.896717 -59.557682 -28.030821 -0.034223437 145.15205
527557568.89392 -0.43220645 178.56828 -59.988819 -23.401964 -59.825241 -22.214939 -0.031266484 145.10054
527935069.83767 -0.4388037 178.35237 -58.99477 -26.484299 -58.710701 -31.403063 -0.025413344 145.03874
528312570.78143 -0.44437709 178.14929 -58.000343 -23.388857 -58.977043 -30.16453 -0.02008923 144.99455
528690071.72518 -0.45493919 177.92526 -58.512657 -28.210028 -59.00666 -30.703873 -0.012948127 144.96977
529067572.66893 -0.46186128 177.72054 -58.977715 -22.253517 -58.459538 -31.435991 -0.01058414 144.94118
529445073.61268 -0.46496496 177.51559 -59.122406 -29.345806 -59.30521 -29.643831 -0.0060007181 144.93098
529822574.55644 -0.47321963 177.29892 -58.765987 -29.608809 -59.490513 -29.389246 -0.0044196974 144.94516
530200075.50019 -0.47912452 177.08336 -58.998409 -29.931231 -59.50272 -30.358282 -0.0030530295 144.98767
530577576.44394 -0.48590052 176.8768 -58.617332 -33.407951 -58.500443 -31.267525 -0.0059817466 145.0004
530955077.38769 -0.49104872 176.65538 -58.51334 -37.219555 -59.15823 -35.168255 -0.0070999665 145.00308
531332578.33145 -0.49566832 176.43912 -58.736984 -32.292381 -58.013889 -34.840763 -0.0087725297 145.04675
531710079.2752 -0.50269121 176.23079 -58.425323 -31.812519 -59.137386 -39.516159 -0.014181646 145.04359
532087580.21895 -0.50753111 176.03601 -58.404995 -41.178715 -57.861309 -38.153156 -0.014920756 145.05305
532465081.1627 -0.51417005 175.82376 -57.457157 -37.738258 -58.206497 -36.878613 -0.019435339 145.02655
532842582.10646 -0.5169602 175.62506 -57.769688 -44.627598 -57.649895 -36.514568 -0.02031593 145.00711
533220083.05021 -0.51819247 175.40654 -58.00565 -40.569641 -57.414928 -40.966789 -0.020963553 144.95607
533597583.99396 -0.52389127 175.21931 -57.92168 -41.213505 -58.440582 -44.138451 -0.02078017 144.88466
533975084.93771 -0.52625757 175.01193 -57.247677 -41.431713 -57.112263 -43.074745 -0.0187633 144.83345
534352585.88146 -0.52987218 174.80794 -58.055115 -46.664654 -57.46386 -47.465172 -0.015943501 144.77374
534730086.82522 -0.5320195 174.6131 -57.842377 -46.400791 -57.89233 -49.23526 -0.016040156 144.714
535107587.76897 -0.5321278 174.41397 -57.28558 -44.194382 -57.910587 -46.221104 -0.0090303551 144.63887
535485088.71272 -0.53312182 174.19159 -57.448875 -48.395622 -57.443268 -52.93745 -0.0062338132 144.57751
535862589.65647 -0.53444827 173.99016 -57.093136 -48.86739 -57.605629 -54.156799 -0.0010083325 144.54996
536240090.60023 -0.53789848 173.78467 -57.644737 -52.204105 -57.391357 -51.065033 0.00017047659 144.50322
536617591.54398 -0.54074585 173.56961 -56.798676 -53.584347 -58.046379 -52.18996 0.0042113652 144.48055
536995092.48773 -0.5413 173.35783 -57.294495 -55.106136 -57.029484 -49.997513 0.0028534492 144.46576
537372593.43148 -0.54272097 173.14154 -57.676319 -55.870861 -57.437977 -55.474789 0.0050754356 144.46541
537750094.37524 -0.54519844 172.92555 -57.742943 -59.560329 -57.29108 -58.814049 0.0015468176 144.46327
538127595.31899 -0.54813641 172.70917 -57.953781 -58.828545 -57.284283 -56.530083 -0.00043459493 144.46953
538505096.26274 -0.548832 172.48524 -57.166233 -57.77483 -58.061707 -60.869568 0.0014379591 144.49089
538882597.20649 -0.54937571 172.28787 -57.079494 -59.022671 -58.070335 -61.443775 0.00032948892 144.50218
539260098.15025 -0.55109328 172.05443 -57.835293 -64.067352 -58.083916 -66.616142 -0.0025716084 144.49542
539637599.094 -0.55012423 171.82048 -56.774826 -57.495323 -57.84726 -63.082767 -0.002600166 144.51222
540015100.03775 -0.55236179 171.59709 -58.315472 -61.699013 -57.247364 -64.370956 -0.005285929 144.51137
540392600.9815 -0.55344081 171.36342 -57.429165 -60.304779 -58.287174 -62.263924 -0.0039974018 144.45842
540770101.92525 -0.55334711 171.11485 -57.8022 -65.465118 -57.579952 -62.869835 -0.0052448548 144.44458
541147602.86901 -0.55441183 170.87494 -57.756233 -63.636074 -57.001019 -62.625118 -0.0044557648 144.39063
541525103.81276 -0.55722898 170.59901 -57.388165 -65.563309 -57.248165 -68.866119 -0.0025718154 144.34932
541902604.75651 -0.55921906 170.34976 -57.795425 -64.022606 -57.706944 -64.510979 -0.0043911734 144.2731
542280105.70026 -0.56328315 170.08981 -57.956852 -69.478874 -57.238659 -64.277237 -0.0052752509 144.22159
542657606.64402 -0.56516242 169.82903 -56.909126 -63.916611 -57.063286 -71.372307 -0.0059371367 144.13724
543035107.58777 -0.56881452 169.54167 -56.951057 -70.087814 -57.328362 -66.338737 -0.010188146 144.08856
543412608.53152 -0.57306659 169.28499 -57.174416 -72.119362 -56.689568 -65.426064 -0.010174383 144.00517
543790109.47527 -0.57909071 169.01443 -56.193611 -71.699226 -58.227657 -69.399124 -0.01519998 143.94771
544167610.41903 -0.5844146 168.75075 -57.016167 -64.425453 -57.40023 -68.01963 -0.020863041 143.88013
544545111.36278 -0.58686274 168.4695 -56.136246 -74.825874 -57.358879 -70.439377 -0.024035761 143.83617
544922612.30653 -0.59382319 168.20905 -57.499367 -68.783325 -56.667965 -73.948051 -0.030773966 143.80959
545300113.25028 -0.59815878 167.93469 -55.952694 -72.515579 -56.400375 -74.652824 -0.028286414 143.77933
545677614.19404 -0.60228097 167.65498 -57.543388 -72.406792 -57.279118 -75.085846 -0.035087772 143.76996
546055115.13779 -0.61162084 167.3777 -56.748138 -73.121872 -57.074776 -74.279182 -0.038139265 143.72006
546432616.08154 -0.61529672 167.08899 -56.627319 -74.158051 -56.325035 -80.783516 -0.04254837 143.72176
546810117.02529 -0.6214503 166.80682 -56.871414 -76.405952 -56.249065 -75.719429 -0.041258313 143.68425
547187617.96904 -0.6291365 166.5256 -56.886314 -76.822495 -56.573139 -76.064796 -0.04221319 143.67145
547565118.9128 -0.63727582 166.24924 -56.349037 -76.297188 -56.85384 -79.727356 -0.040818553 143.64388
547942619.85655 -0.64872229 165.96892 -57.074329 -78.951653 -56.597015 -74.180336 -0.040429868 143.58832
548320120.8003 -0.65826625 165.67445 -56.261757 -78.656013 -56.443611 -75.586113 -0.037620515 143.54259
548697621.74405 -0.66983443 165.394 -56.215256 -82.866127 -56.691898 -79.891876 -0.034721326 143.50586
549075122.68781 -0.68345517 165.13678 -56.557877 -84.229874 -56.36396 -79.660378 -0.036553774 143.44949
549452623.63156 -0.69634956 164.87593 -55.304043 -81.023918 -56.086376 -79.638603 -0.033401791 143.37279
549830124.57531 -0.7102021 164.6386 -55.840134 -81.691048 -55.357166 -83.009567 -0.033795912 143.33028
550207625.51906 -0.72507578 164.3856 -55.458313 -84.40992 -55.350296 -83.629311 -0.035964388 143.25867
550585126.46282 -0.74071932 164.15056 -55.911442 -86.292725 -55.314613 -86.795914 -0.03640626 143.20717
550962627.40657 -0.7537294 163.92065 -55.546925 -87.084702 -55.306961 -87.579475 -0.038101375 143.16039
551340128.35032 -0.76755619 163.70628 -55.746201 -87.645164 -55.240425 -88.923355 -0.038275417 143.10478
551717629.29407 -0.78044891 163.46985 -55.107849 -89.630692 -55.005615 -90.339775 -0.037187688 143.06827
552095130.23783 -0.79359716 163.28285 -55.320705 -89.574188 -55.137482 -88.77198 -0.035646066 143.03262
552472631.18158 -0.80677402 163.06557 -55.171822 -90.431671 -55.363323 -91.895309 -0.036667131 143.01666
552850132.12533 -0.81515199 162.85167 -55.052738 -91.265633 -55.357662 -94.533394 -0.033563178 143.01054
553227633.06908 -0.82207239 162.63866 -55.201183 -94.539268 -55.069138 -96.825493 -0.030709812 142.99475
553605134.01284 -0.83513391 162.42484 -54.837902 -95.48568 -55.344288 -92.754181 -0.026149638 142.99104
553982634.95659 -0.84339309 162.18954 -55.212711 -97.256073 -55.392601 -92.760574 -0.021054195 143.03217
554360135.90034 -0.85473597 161.96005 -55.261147 -95.034813 -54.904716 -95.015839 -0.012892286 143.05711
554737636.84409 -0.86731964 161.7206 -55.175373 -96.453819 -54.67226 -98.283356 -0.0042297812 143.07086
555115137.78784 -0.87761468 161.48741 -55.306461 -96.542885 -54.646763 -100.39905 0.0049004112 143.08145
555492638.7316 -0.89031559 161.24088 -54.801514 -98.234222 -54.721752 -97.793076 0.01058607 143.0907
555870139.67535 -0.90251517 161.01332 -54.485054 -100.72749 -55.0397 -99.883224 0.013590846 143.10913
556247640.6191 -0.9183895 160.79007 -54.978161 -101.01477 -54.64941 -102.54146 0.02072428 143.09291
556625141.56285 -0.92984134 160.55869 -54.746315 -99.972687 -55.130783 -100.91856 0.020385474 143.08023
557002642.50661 -0.94286174 160.34595 -54.585171 -102.70132 -54.310726 -100.85492 0.01909101 143.06349
557380143.45036 -0.95661759 160.13177 -54.776428 -108.24256 -54.266308 -103.47408 0.014992066 143.03069
557757644.39411 -0.96866196 159.92442 -54.182503 -102.59522 -54.276932 -101.66628 0.015033782 143.00412
558135145.33786 -0.98136294 159.72188 -54.854336 -107.55146 -54.199219 -107.51976 0.0099507542 142.92581
558512646.28162 -0.99252957 159.51852 -54.120811 -105.20438 -54.130718 -109.55933 0.001329351 142.90189
558890147.22537 -1.0038358 159.31892 -53.982609 -104.54023 -54.188019 -107.43403 -0.0035085322 142.85291
559267648.16912 -1.0132145 159.13242 -54.107182 -110.08608 -53.858524 -110.58295 -0.010769621 142.8035
559645149.11287 -1.0219371 158.95108 -54.050739 -112.4883 -54.261379 -108.34979 -0.012633341 142.72865
560022650.05663 -1.0284702 158.77324 -53.934944 -113.02168 -53.934563 -109.98199 -0.015261978 142.69485
560400151.00038 -1.0339828 158.5858 -54.014896 -113.16367 -53.764297 -112.31045 -0.011625142 142.64867
560777651.94413 -1.0374808 158.40707 -54.104622 -113.78465 -53.429714 -115.78584 -0.013762183 142.62538
561155152.88788 -1.0432087 158.22157 -53.571102 -118.23574 -53.866013 -114.52563 -0.010591254 142.5894
561532653.83163 -1.0436505 158.04759 -53.898678 -119.93293 -53.385651 -114.1385 -0.0043659681 142.56784
561910154.77539 -1.0431844 157.8506 -53.907009 -114.50378 -53.702644 -116.51659 -0.0014674775 142.57251
562287655.71914 -1.0407926 157.66324 -53.80983 -119.34771 -53.254887 -119.12655 0.0044991998 142.55104
562665156.66289 -1.0384092 157.45372 -53.64537 -116.9514 -53.573494 -124.4407 0.010363678 142.55231
563042657.60664 -1.0353297 157.23605 -53.386127 -124.07423 -53.340782 -121.45846 0.0140304 142.55522
563420158.5504 -1.0322341 157.02628 -53.062759 -123.58971 -53.376492 -123.13938 0.014879275 142.55267
563797659.49415 -1.0290869 156.80775 -53.359619 -124.32394 -53.695572 -122.53682 0.016084177 142.53255
564175160.4379 -1.0220298 156.56213 -53.673458 -128.50635 -53.594849 -126.68143 0.012822281 142.52303
564552661.38165 -1.0180861 156.30301 -53.730892 -125.27406 -53.165009 -124.89242 0.0055638882 142.49016
564930162.32541 -1.0139866 156.05307 -53.732166 -127.43545 -53.319946 -129.32565 0.0023297765 142.4388
565307663.26916 -1.0076238 155.77087 -53.852943 -131.93408 -53.261818 -128.29796 -0.00423632 142.39426
565685164.21291 -1.0047723 155.47256 -53.081738 -130.7774 -53.325874 -131.20348 -0.014706621 142.3275
566062665.15666 -0.99956852 155.16386 -53.558624 -130.45844 -53.674648 -129.76843 -0.023408387 142.25302
566440166.10042 -0.99961329 154.8421 -53.572525 -131.65851 -53.682426 -132.036 -0.030807549 142.21571
566817667.04417 -1.003822 154.50211 -53.413998 -135.30176 -53.319046 -134.61263 -0.037474554 142.12399
567195167.98792 -1.0121593 154.17784 -53.59399 -135.43768 -53.492439 -132.07677 -0.04059032 142.04031
567572668.93167 -1.0201468 153.85712 -53.458885 -135.19185 -53.440166 -134.36673 -0.043177344 141.9612
567950169.87542 -1.0313283 153.54143 -53.912674 -133.90471 -53.511574 -134.46277 -0.045399603 141.90831
568327670.81918 -1.0435309 153.24698 -53.422737 -135.43642 -53.296509 -137.08009 -0.038193207 141.84583
568705171.76293 -1.0571709 152.95686 -53.767952 -133.418 -53.427956 -134.85318 -0.031555109 141.78632
569082672.70668 -1.0661713 152.69051 -52.835812 -133.73413 -53.711678 -134.50546 -0.025713596 141.76402
569460173.65043 -1.0764995 152.39873 -53.121487 -135.51321 -52.896286 -135.47098 -0.020378321 141.71783
569837674.59419 -1.0817332 152.12643 -53.208485 -137.20436 -53.697029 -138.15202 -0.014983103 141.72527
570215175.53794 -1.0929216 151.82683 -53.551788 -137.42426 -53.553776 -137.45277 -0.0092084082 141.72551
570592676.48169 -1.1008152 151.51312 -53.011723 -140.83078 -53.063309 -136.24586 -0.0045517599 141.69617
570970177.42544 -1.1092058 151.19603 -52.848328 -140.64424 -53.058804 -138.13541 -0.00098943815 141.70604
571347678.3692 -1.121634 150.87955 -53.028973 -138.84076 -53.132809 -140.39601 -0.00081461837 141.71585
