!Keysight Technologies,N5242B,MY48420860,A.13.80.08
!Date: Saturday, September 26, 2020 11:48:59
!Correction: S11(Full 2 Port(1,2)) 
!S21(Full 2 Port(1,2)) 
!S12(Full 2 Port(1,2)) 
!S22(Full 2 Port(1,2)) 
!S2P File: Measurements: S11, S21, S12, S22:
# Hz S  dB   R 50
500000000 -0.2248458 -166.15738 -54.659542 143.5567 -54.319057 143.11171 -0.0066332151 147.39664
500377500.94375 -0.22748816 -166.35526 -54.782055 146.29004 -54.701897 148.40952 -0.003664973 147.38193
500755001.8875 -0.22786485 -166.54141 -54.756332 145.56593 -54.765701 142.06703 -0.001906059 147.38104
501132502.83126 -0.23015197 -166.75989 -54.656883 145.43353 -54.283829 145.36143 -8.0735736e-005 147.36469
501510003.77501 -0.2328406 -166.96126 -54.465382 143.54581 -55.212742 147.36909 -0.00078210211 147.36183
501887504.71876 -0.23447575 -167.14742 -54.46627 141.44263 -54.587738 143.289 0.00026766708 147.37878
502265005.66251 -0.23576786 -167.35945 -54.292702 143.70699 -54.562775 141.18382 -0.00058549998 147.35934
502642506.60627 -0.23903145 -167.57079 -53.982735 141.9791 -54.455921 140.66104 -0.0010351351 147.35458
503020007.55002 -0.24006867 -167.77448 -54.104145 142.91835 -54.16835 141.39439 -0.0012411418 147.33357
503397508.49377 -0.24430189 -167.95937 -54.131702 142.15553 -54.013603 138.35036 -0.00010481078 147.30774
503775009.43752 -0.24396501 -168.15794 -54.422691 138.03471 -54.065865 138.87209 -0.0050200913 147.26051
504152510.38128 -0.24567518 -168.3546 -53.458599 141.36493 -54.527328 139.68535 -0.0021345452 147.23679
504530011.32503 -0.24626207 -168.5527 -53.853577 140.91115 -53.600563 141.38068 0.0016148735 147.20468
504907512.26878 -0.24745218 -168.74847 -53.769798 139.42227 -53.242603 138.8679 0.002266675 147.1767
505285013.21253 -0.24763039 -168.94101 -53.429398 139.67169 -53.722328 139.85292 0.0025101351 147.15308
505662514.15629 -0.24999467 -169.15372 -53.496292 136.35091 -53.439175 136.11075 0.0055845608 147.12474
506040015.10004 -0.24824041 -169.33669 -53.698563 135.13077 -53.723103 136.13335 0.0071730101 147.08417
506417516.04379 -0.25075796 -169.53333 -53.434502 135.78943 -53.356461 134.40247 0.0078922426 147.06398
506795016.98754 -0.24697466 -169.73956 -53.561859 136.11241 -53.733311 135.39719 0.013977339 147.04884
507172517.93129 -0.2472041 -169.93776 -53.835869 131.63885 -53.003067 135.50674 0.013175569 147.00491
507550018.87505 -0.24894248 -170.15579 -53.689423 134.58821 -53.651272 132.95729 0.016551472 147.00572
507927519.8188 -0.24905385 -170.36359 -53.546112 132.97325 -53.678406 131.06828 0.015758302 146.99301
508305020.76255 -0.25032854 -170.54556 -53.671829 132.54251 -53.256641 131.384 0.018593006 146.98289
508682521.7063 -0.24784407 -170.76997 -53.164326 133.49316 -53.289394 131.67648 0.018340221 146.9756
509060022.65006 -0.24925013 -170.97728 -53.472797 133.30719 -53.477962 132.17125 0.01778863 146.95518
509437523.59381 -0.24943237 -171.17743 -53.365143 133.34091 -53.337444 130.86304 0.014802422 146.93309
509815024.53756 -0.2519657 -171.38098 -53.47308 132.19424 -53.277416 132.63168 0.013961236 146.94005
510192525.48131 -0.25320765 -171.59512 -53.198608 132.425 -53.069893 132.51778 0.0067249313 146.87076
510570026.42507 -0.25619227 -171.78914 -53.210079 131.91505 -53.383316 129.45317 0.002797283 146.83272
510947527.36882 -0.25900725 -172.0004 -53.436672 132.24449 -52.652187 131.75369 0.0035608422 146.79442
511325028.31257 -0.26065013 -172.2128 -52.602165 132.81177 -53.290588 131.76669 -0.0013935858 146.75246
511702529.25632 -0.26154187 -172.41988 -52.582001 128.91324 -52.825974 130.68466 -0.0025343699 146.69646
512080030.20008 -0.26385275 -172.62289 -52.790749 130.0612 -52.641533 130.59172 -0.0058551286 146.64268
512457531.14383 -0.2653189 -172.83594 -52.798672 129.38757 -52.66254 131.77753 -0.0034821471 146.56082
512835032.08758 -0.26789272 -173.04436 -52.289524 129.39398 -52.376316 129.12061 -0.0057546026 146.54553
513212533.03133 -0.27156246 -173.25775 -52.517365 129.339 -52.617367 132.38969 -0.004080859 146.4855
513590033.97508 -0.27627763 -173.46123 -52.581902 126.32968 -52.357708 129.29277 0.0013487419 146.43507
513967534.91884 -0.27566788 -173.67036 -52.345463 127.27055 -52.432865 126.91329 0.0020766989 146.39131
514345035.86259 -0.27964246 -173.88057 -51.623878 128.14299 -52.702446 130.32498 0.0026556163 146.3757
514722536.80634 -0.28084552 -174.09132 -52.410797 125.80297 -52.249046 127.60793 0.0082000848 146.36131
515100037.75009 -0.28489143 -174.30928 -51.909012 128.0574 -52.083221 125.47066 0.0077131093 146.33899
515477538.69385 -0.28642631 -174.52156 -51.892815 125.58154 -51.744614 125.34139 0.0088472813 146.3503
515855039.6376 -0.29003739 -174.73286 -52.0881 129.1635 -52.090855 124.88967 0.0099467719 146.32942
516232540.58135 -0.29224166 -174.9493 -51.82975 125.4111 -51.617622 123.55896 0.0064446079 146.31621
516610041.5251 -0.29554412 -175.16687 -51.762848 122.20347 -51.701897 124.27229 0.0084560746 146.28479
516987542.46886 -0.29689255 -175.38551 -51.909279 124.36279 -51.911327 123.90099 0.007899384 146.26671
517365043.41261 -0.29732466 -175.59785 -51.724522 124.15911 -51.366913 124.11354 0.0036585485 146.2509
517742544.35636 -0.30087778 -175.817 -51.845612 125.70243 -51.747898 121.08393 0.0026322077 146.24022
518120045.30011 -0.30422112 -176.03322 -51.936638 123.34183 -51.589169 122.97772 0.0017319287 146.1942
518497546.24387 -0.30717403 -176.24783 -51.436501 121.04508 -51.627659 123.70155 -0.0017300529 146.15291
518875047.18762 -0.30983257 -176.47281 -51.309906 120.44051 -51.476826 123.00631 -0.0031829134 146.10498
519252548.13137 -0.31139517 -176.67433 -51.314072 120.27682 -51.427994 119.2864 -0.0048798178 146.06078
519630049.07512 -0.31465697 -176.89565 -51.153122 121.12016 -50.922028 120.54778 -0.0048513762 145.9888
520007550.01888 -0.31777468 -177.10931 -51.079205 120.18272 -51.175865 119.15679 -0.0047266255 145.96652
520385050.96263 -0.31842387 -177.31496 -50.790417 119.32983 -50.956749 121.17255 -0.0032657669 145.91824
520762551.90638 -0.3207587 -177.52983 -51.071392 119.47858 -51.290291 118.99777 -0.003984103 145.8553
521140052.85013 -0.32228246 -177.75058 -50.944557 120.61595 -50.798077 120.59203 0.001077442 145.81705
521517553.79388 -0.32321283 -177.9626 -50.964924 117.91524 -51.127132 120.19829 0.0009889924 145.78299
521895054.73764 -0.32565957 -178.18529 -50.706135 118.13971 -50.656574 117.29208 0.0029335015 145.7571
522272555.68139 -0.32658577 -178.39342 -50.700706 116.86033 -50.881184 119.17245 0.0016648946 145.73799
522650056.62514 -0.32851657 -178.59203 -50.899704 115.12307 -50.699112 118.45409 0.0012572566 145.73451
523027557.56889 -0.3326973 -178.81305 -50.616539 115.33691 -50.642643 117.31044 0.0047996296 145.71857
523405058.51265 -0.33415046 -179.03398 -50.583706 113.14584 -50.399029 115.93152 0.0044918219 145.69453
523782559.4564 -0.33511153 -179.24101 -50.229717 116.72785 -50.457947 114.99332 0.0034077996 145.67813
524160060.40015 -0.33747375 -179.4626 -50.863857 114.33224 -50.201675 117.21726 0.0011523218 145.67003
524537561.3439 -0.34336504 -179.68555 -50.424763 113.82255 -50.805244 114.08791 0.0036132042 145.65578
524915062.28766 -0.34514132 -179.90929 -50.501369 114.13194 -50.250267 113.298 0.0010234424 145.61449
525292563.23141 -0.34861523 179.86624 -50.38932 114.4706 -50.466938 112.68492 -0.0013482701 145.60524
525670064.17516 -0.35160688 179.62576 -50.377335 113.09099 -50.023048 114.21687 -0.0011135394 145.57912
526047565.11891 -0.35488409 179.43256 -50.389542 111.41663 -50.061028 111.77402 -0.00024358943 145.53748
526425066.06267 -0.36006629 179.20569 -50.107258 111.50833 -50.127056 112.42733 0.001410928 145.49095
526802567.00642 -0.36393416 178.99341 -49.988819 111.82627 -49.891712 112.25852 -0.0031614767 145.45993
527180067.95017 -0.36616954 178.75114 -49.793789 111.99399 -49.944313 112.56439 -0.00088895235 145.43141
527557568.89392 -0.37221822 178.53018 -49.66893 110.6178 -49.694862 109.87869 -0.00097185135 145.39127
527935069.83767 -0.37475792 178.32019 -49.923557 110.20023 -49.926037 109.44707 0.0020198412 145.35999
528312570.78143 -0.37788835 178.1004 -49.535873 109.11038 -49.891476 108.84524 0.0021424063 145.31175
528690071.72518 -0.38222364 177.86194 -49.835724 111.1144 -49.914909 108.83224 0.0039516944 145.27637
529067572.66893 -0.38784501 177.63531 -49.187477 109.54176 -49.504593 109.1392 0.0047830325 145.24373
529445073.61268 -0.38803834 177.41846 -49.582428 109.603 -49.408306 108.99414 0.0050851968 145.22052
529822574.55644 -0.39481163 177.18456 -49.435059 108.64747 -49.334694 107.5714 0.0057297177 145.20442
530200075.50019 -0.39712909 176.94421 -49.532852 107.60093 -49.319698 106.74062 0.006762946 145.20567
530577576.44394 -0.4022283 176.72037 -49.322197 107.98264 -48.936569 107.4194 0.0061262185 145.18808
530955077.38769 -0.40624073 176.48448 -49.321121 105.46564 -49.238804 106.67819 0.0077421661 145.16583
531332578.33145 -0.40899858 176.24129 -49.361065 106.23074 -49.116142 106.54836 0.0065665273 145.15211
531710079.2752 -0.41413701 176.01781 -49.311695 107.05651 -48.948071 107.18332 0.0031671305 145.1429
532087580.21895 -0.41857782 175.78262 -49.067097 104.32142 -48.925121 104.31693 0.0080277771 145.11142
532465081.1627 -0.42130291 175.56279 -49.03043 104.4157 -48.908035 103.75427 0.0026912766 145.09036
532842582.10646 -0.42423809 175.32733 -48.742729 105.69069 -48.691128 103.64068 0.0053619128 145.06708
533220083.05021 -0.42448628 175.09843 -48.612106 102.16647 -48.568806 103.48389 0.0036885729 145.02417
533597583.99396 -0.43054214 174.8821 -48.52673 103.53925 -48.668407 102.60335 0.0040367618 144.97533
533975084.93771 -0.43128306 174.65263 -48.482517 102.20664 -48.24728 103.09303 0.0049129762 144.925
534352585.88146 -0.43541929 174.42589 -48.198177 102.29557 -48.59528 100.2931 0.0055798399 144.90068
534730086.82522 -0.43932825 174.1936 -48.51825 101.56473 -48.290375 101.61561 0.0040724073 144.85692
535107587.76897 -0.44086164 173.97044 -48.253689 99.914001 -48.387676 100.31966 0.0052379356 144.80673
535485088.71272 -0.44358614 173.73026 -48.139008 98.921555 -48.206532 99.056984 0.0068932539 144.76161
535862589.65647 -0.44522777 173.49361 -47.984409 100.86565 -48.13306 99.139397 0.010405131 144.76245
536240090.60023 -0.45084482 173.25702 -48.095753 98.914604 -47.943062 99.565735 0.0091948481 144.7159
536617591.54398 -0.45269334 173.02216 -48.275719 99.45945 -48.056911 99.41153 0.010772105 144.68884
536995092.48773 -0.45634276 172.78403 -48.064243 98.168533 -47.968239 97.994286 0.0080326553 144.63876
537372593.43148 -0.45953739 172.54889 -47.849434 95.527336 -48.057762 96.938675 0.011706065 144.62839
537750094.37524 -0.46226919 172.31311 -47.78334 95.763611 -47.931892 97.433212 0.0090290317 144.60593
538127595.31899 -0.46709087 172.07147 -47.937923 97.472046 -47.99324 95.571007 0.0069770399 144.58383
538505096.26274 -0.47104797 171.82545 -47.863461 94.724945 -47.763172 94.880768 0.0096885292 144.5851
538882597.20649 -0.47427544 171.59558 -47.733994 95.073669 -47.672413 94.205299 0.010239551 144.5462
539260098.15025 -0.47903991 171.35147 -47.667591 94.127747 -47.624599 94.70636 0.0074821655 144.51828
539637599.094 -0.48206356 171.09528 -47.436813 93.408218 -47.416695 94.624466 0.010615105 144.51161
540015100.03775 -0.48665181 170.86354 -47.340179 93.740814 -47.377796 92.609024 0.0096229101 144.48767
540392600.9815 -0.49154764 170.61496 -47.472775 91.835518 -47.406258 91.684669 0.011177412 144.44667
540770101.92525 -0.49468702 170.35486 -47.496468 91.329277 -47.30328 93.367874 0.010292227 144.42786
541147602.86901 -0.49870151 170.11478 -47.387333 93.026505 -47.479511 92.17411 0.012892457 144.38124
541525103.81276 -0.50580782 169.86102 -47.317616 91.816086 -47.304344 91.81649 0.011253155 144.35126
541902604.75651 -0.51027948 169.58914 -47.447731 90.446251 -47.443928 90.837158 0.011456787 144.29015
542280105.70026 -0.51576483 169.33723 -47.272423 89.741661 -47.126801 88.445671 0.012860882 144.26741
542657606.64402 -0.52192694 169.09074 -47.092213 90.908661 -47.014252 90.284988 0.012749895 144.23233
543035107.58777 -0.52693397 168.81261 -47.135807 89.026939 -47.205154 88.622131 0.0072549363 144.18738
543412608.53152 -0.53312707 168.56668 -46.959892 89.787689 -47.056534 88.600441 0.0073076524 144.12544
543790109.47527 -0.54129195 168.31674 -47.080097 89.178581 -46.983181 87.570122 0.0061503043 144.1002
544167610.41903 -0.54659641 168.04906 -46.887737 88.554588 -46.820263 87.21312 0.0025781798 144.06308
544545111.36278 -0.55107474 167.77786 -46.704712 88.521301 -47.100368 86.987709 0.001667415 144.02989
544922612.30653 -0.55920255 167.52109 -46.716785 87.842773 -46.813087 85.652374 -0.0022203494 144.0099
545300113.25028 -0.56279534 167.25157 -46.8195 86.806908 -46.656029 86.502762 -0.00065474084 143.97218
545677614.19404 -0.56959409 166.97507 -46.606194 85.14077 -46.588696 84.842178 -0.0030819967 143.967
546055115.13779 -0.57688063 166.7242 -46.738476 83.85775 -46.706783 84.28083 -0.0061788848 143.90771
546432616.08154 -0.58021402 166.44009 -46.459522 85.638374 -46.47435 86.295349 -0.0054628272 143.8936
546810117.02529 -0.58814532 166.17061 -46.352543 84.855522 -46.468155 84.46698 -0.0059414185 143.84821
547187617.96904 -0.59483385 165.89046 -46.306477 84.38797 -46.405109 84.74794 -0.0065719704 143.82629
547565118.9128 -0.60372698 165.64098 -46.076782 84.007965 -46.307537 81.8423 -0.0066822851 143.77939
547942619.85655 -0.61144388 165.36247 -46.07056 82.271461 -46.002438 82.793358 -0.0050667766 143.72748
548320120.8003 -0.61833948 165.08849 -46.156452 81.81871 -46.069599 82.484634 -0.0018669571 143.69792
548697621.74405 -0.62889796 164.80908 -45.867599 82.344765 -45.948982 82.025383 -0.003802029 143.65099
549075122.68781 -0.63829517 164.55925 -45.826336 81.884308 -45.847168 82.35202 -0.0058002137 143.61537
549452623.63156 -0.64851522 164.30693 -45.914577 80.689148 -45.830315 81.763138 -0.0052187853 143.55887
549830124.57531 -0.65686142 164.03964 -45.685825 81.698524 -45.386623 79.602715 -0.003873717 143.52879
550207625.51906 -0.66775888 163.79066 -45.683708 80.806908 -45.672787 79.56192 -0.0085968832 143.46266
550585126.46282 -0.6780054 163.53616 -45.534691 79.923363 -45.471806 79.672226 -0.0080242287 143.42604
550962627.40657 -0.68867528 163.2753 -45.478748 79.617989 -45.513382 77.871147 -0.007322805 143.41786
551340128.35032 -0.69830507 163.02837 -45.347553 78.484215 -45.64407 77.728333 -0.0081658298 143.38023
551717629.29407 -0.70760298 162.77153 -45.083973 78.026863 -45.280994 77.28582 -0.0068023605 143.35017
552095130.23783 -0.72019601 162.53769 -45.19915 75.613617 -45.220284 76.465942 -0.0056933356 143.32079
552472631.18158 -0.73364663 162.27568 -45.161819 75.404221 -45.058395 76.370567 -0.0076577188 143.3063
552850132.12533 -0.74329126 162.03227 -45.046997 76.747856 -45.190071 75.373032 -0.004250342 143.28473
553227633.06908 -0.75233382 161.78108 -44.913628 75.693718 -45.05497 76.356659 -0.0037955018 143.26314
553605134.01284 -0.76376998 161.53746 -44.96217 75.305977 -44.995586 74.1371 -0.00054434425 143.25429
553982634.95659 -0.77458584 161.29167 -44.939613 74.354073 -44.7841 73.517685 0.0022724813 143.23131
554360135.90034 -0.78443944 161.06102 -44.795368 73.661453 -44.866432 72.604126 0.0052543827 143.23468
554737636.84409 -0.79780561 160.81233 -44.806812 72.6735 -44.62656 71.936646 0.0083914446 143.22009
555115137.78784 -0.80866188 160.56212 -44.761414 72.10527 -44.774258 72.831619 0.014189944 143.18727
555492638.7316 -0.81849676 160.30421 -44.641525 70.919769 -44.608871 70.99614 0.018531846 143.1564
555870139.67535 -0.83071548 160.07463 -44.592232 70.36425 -44.625278 71.595276 0.019299377 143.16614
556247640.6191 -0.8387593 159.83029 -44.300354 69.900574 -44.382957 69.48243 0.024524517 143.1268
556625141.56285 -0.8485117 159.57701 -44.300877 69.525948 -44.467472 69.330025 0.022769907 143.10608
557002642.50661 -0.8585071 159.32782 -44.308498 70.371681 -44.239651 68.208427 0.02185188 143.07251
557380143.45036 -0.86862642 159.07652 -44.115414 68.620026 -44.322475 68.884865 0.021699445 143.05585
557757644.39411 -0.87581182 158.83047 -44.227547 67.548203 -44.309261 67.022171 0.02237165 143.04347
558135145.33786 -0.88799447 158.57855 -44.025608 66.580612 -44.066814 66.07373 0.021887751 142.99881
558512646.28162 -0.89958036 158.3047 -44.111431 66.095619 -44.082363 65.940308 0.017527049 142.993
558890147.22537 -0.90848929 158.04787 -43.977875 65.403076 -43.98724 65.740196 0.016159231 142.96196
559267648.16912 -0.9174875 157.80391 -43.97963 65.884651 -44.036697 65.293877 0.014374431 142.94249
559645149.11287 -0.92743868 157.54825 -44.000584 64.469101 -43.895054 64.899422 0.010868095 142.90057
560022650.05663 -0.93730313 157.29396 -43.827011 63.682491 -43.963772 63.815666 0.011226573 142.87965
560400151.00038 -0.94806749 157.0309 -43.721905 62.537815 -43.569073 63.087589 0.013422693 142.85405
560777651.94413 -0.95582217 156.78969 -43.620152 63.637058 -43.61895 62.318962 0.011258771 142.82297
561155152.88788 -0.96838325 156.53661 -43.518349 62.060738 -43.550026 62.333332 0.0099394685 142.79124
561532653.83163 -0.9782033 156.29054 -43.364185 61.898735 -43.631458 60.505333 0.01523386 142.73285
561910154.77539 -0.98778284 156.04602 -43.571785 60.158314 -43.512215 60.915222 0.016642923 142.72952
562287655.71914 -0.99495006 155.80023 -43.466 60.051243 -43.374035 60.376251 0.016464198 142.69829
562665156.66289 -1.0048198 155.5489 -43.386074 59.660732 -43.279541 58.989326 0.020741131 142.66379
563042657.60664 -1.012063 155.30434 -43.440643 58.367634 -43.44709 58.426716 0.01925645 142.62436
563420158.5504 -1.0187536 155.0654 -43.285641 58.254894 -43.170944 57.196987 0.021721968 142.59917
563797659.49415 -1.0243702 154.82428 -43.223305 56.766304 -43.230679 57.993294 0.021265799 142.55113
564175160.4379 -1.031499 154.57146 -43.265865 56.92186 -43.134354 56.462982 0.021333586 142.5405
564552661.38165 -1.0392098 154.3029 -43.201805 55.775002 -43.219452 55.783733 0.017909944 142.50356
564930162.32541 -1.0458468 154.05685 -43.110935 55.234291 -43.083294 55.351299 0.018705171 142.47485
565307663.26916 -1.0529571 153.77945 -43.053257 54.206692 -43.01281 54.927887 0.015272092 142.44986
565685164.21291 -1.0579462 153.50031 -42.90799 54.072304 -42.975655 53.225956 0.0108474 142.40642
566062665.15666 -1.0636883 153.22128 -42.995354 53.811913 -42.885197 52.960468 0.010274482 142.36249
566440166.10042 -1.0702355 152.9314 -42.906429 52.448166 -42.873749 53.765388 0.0068251719 142.36583
566817667.04417 -1.0790293 152.62247 -42.827816 52.296124 -42.863892 53.790764 0.0061455006 142.31346
567195167.98792 -1.0914891 152.32428 -42.734524 52.3316 -42.739933 53.306416 0.0034692318 142.28143
567572668.93167 -1.1026878 152.02328 -42.685135 51.044926 -42.667774 51.855713 0.0025466417 142.24054
567950169.87542 -1.1159127 151.71684 -42.73106 51.319317 -42.580276 52.05925 9.9587975e-005 142.21617
568327670.81918 -1.1289765 151.43529 -42.598316 51.075306 -42.546127 50.660904 0.0033030203 142.16124
568705171.76293 -1.143188 151.13876 -42.468208 49.95665 -42.540806 50.144615 0.0079704709 142.11592
569082672.70668 -1.1544259 150.8726 -42.412342 48.925423 -42.352951 49.706448 0.007818575 142.07668
569460173.65043 -1.1697675 150.56544 -42.371925 49.487976 -42.397751 48.083794 0.0081115607 142.02924
569837674.59419 -1.1802816 150.29207 -42.205696 48.276661 -42.171318 48.339649 0.0050033769 141.99286
570215175.53794 -1.1958629 149.98456 -42.166874 47.715569 -42.274899 47.548557 0.0095565692 141.95247
570592676.48169 -1.2099293 149.67932 -42.074383 46.695629 -42.187824 46.790936 0.011071197 141.90993
570970177.42544 -1.2256548 149.37115 -42.083515 46.601894 -42.053589 45.884594 0.012024458 141.87903
571347678.3692 -1.2385764 149.07278 -42.05444 46.167526 -42.011909 46.035892 0.010843279 141.86052
571725179.31295 -1.2547855 148.76704 -41.934208 44.86132 -41.980598 44.835239 0.0099792043 141.80589
572102680.2567 -1.273033 148.46626 -41.81089 44.278072 -41.915047 44.663216 0.011620335 141.79166
572480181.20045 -1.2906826 148.16713 -41.747829 43.838928 -41.790871 43.885941 0.010497104 141.77115
