!Keysight Technologies,N5242B,MY48420860,A.13.80.08
!Date: Saturday, September 26, 2020 12:25:47
!Correction: S11(Full 2 Port(1,2)) 
!S21(Full 2 Port(1,2)) 
!S12(Full 2 Port(1,2)) 
!S22(Full 2 Port(1,2)) 
!S2P File: Measurements: S11, S21, S12, S22:
# Hz S  dB   R 50
500000000 -0.24392214 -166.31868 -57.152096 72.279243 -57.104549 70.564178 0.022894057 147.71341
500377500.94375 -0.24702334 -166.51752 -56.274654 73.093346 -57.047398 69.29554 0.02027243 147.69516
500755001.8875 -0.2480946 -166.72359 -57.050671 71.906822 -57.050179 70.985901 0.021138476 147.69012
501132502.83126 -0.25297704 -166.93349 -57.249104 69.28894 -57.051453 69.853004 0.018448167 147.66583
501510003.77501 -0.25614208 -167.12967 -56.383858 70.932182 -56.770332 73.772392 0.018230084 147.65349
501887504.71876 -0.26045433 -167.33324 -56.156849 73.514893 -56.525112 70.26664 0.018946646 147.66104
502265005.66251 -0.2624746 -167.53406 -56.491005 68.391129 -55.771465 66.596863 0.017269185 147.62669
502642506.60627 -0.26657993 -167.75142 -55.827621 65.594269 -56.354797 70.357506 0.01567959 147.59697
503020007.55002 -0.26919863 -167.94771 -55.997715 66.098572 -56.347816 66.664818 0.01278932 147.5811
503397508.49377 -0.27515006 -168.13805 -55.295567 68.211365 -55.344551 70.134506 0.013817984 147.54236
503775009.43752 -0.27588946 -168.32742 -55.944611 67.279984 -55.905331 68.084213 0.011864606 147.50632
504152510.38128 -0.27952141 -168.53806 -55.691711 66.340164 -55.082897 68.814873 0.016075592 147.46237
504530011.32503 -0.28179997 -168.71088 -56.605946 68.186264 -56.29668 67.191765 0.018530697 147.43875
504907512.26878 -0.28522515 -168.91544 -55.578072 68.059044 -56.426891 63.617516 0.021405932 147.41078
505285013.21253 -0.2857911 -169.1136 -55.664307 68.062607 -55.975346 61.982159 0.025110323 147.40872
505662514.15629 -0.28641137 -169.31177 -55.63353 65.001808 -55.59597 64.251694 0.028061017 147.37733
506040015.10004 -0.28809056 -169.49295 -55.300865 58.403084 -55.646175 61.857349 0.02888664 147.33086
506417516.04379 -0.29028675 -169.68736 -55.524586 61.512207 -54.925667 62.371197 0.028015103 147.32242
506795016.98754 -0.28599629 -169.88344 -55.249275 64.33638 -55.36451 63.365284 0.033203065 147.30095
507172517.93129 -0.28828329 -170.07881 -54.611877 64.063416 -55.042957 62.380337 0.03015173 147.26324
507550018.87505 -0.28900129 -170.29503 -55.254784 57.97628 -55.000996 60.000042 0.030475724 147.26625
507927519.8188 -0.28938642 -170.5043 -55.354198 61.864513 -54.947327 58.340813 0.028760387 147.25279
508305020.76255 -0.29021889 -170.6698 -54.785126 58.416164 -55.395592 56.164108 0.027958194 147.218
508682521.7063 -0.29020387 -170.87495 -54.406639 60.378017 -54.969418 56.873653 0.025113026 147.19983
509060022.65006 -0.29376909 -171.08832 -55.282711 60.789299 -54.661514 55.899612 0.02124105 147.17105
509437523.59381 -0.29288042 -171.28581 -54.97036 57.894508 -55.335293 55.731487 0.020828065 147.13216
509815024.53756 -0.29625425 -171.49571 -55.153221 55.318424 -54.784996 59.241272 0.017643092 147.11853
510192525.48131 -0.29727024 -171.68202 -55.007679 61.546318 -54.582111 58.261452 0.015644845 147.05035
510570026.42507 -0.29893354 -171.87965 -54.541401 52.599064 -54.38176 53.182354 0.014099752 147.01758
510947527.36882 -0.30360174 -172.09242 -54.44421 51.754673 -54.534641 56.64175 0.013958467 146.97961
511325028.31257 -0.30576983 -172.30084 -55.048683 55.7029 -54.634247 54.376266 0.012239212 146.93253
511702529.25632 -0.30687654 -172.51588 -54.22422 56.291393 -54.645744 56.516861 0.015768526 146.8918
512080030.20008 -0.30936825 -172.7144 -54.403416 52.713432 -54.335506 55.688393 0.014507117 146.85808
512457531.14383 -0.31170866 -172.92326 -54.623077 55.470287 -54.693176 52.061195 0.018456783 146.80902
512835032.08758 -0.31472033 -173.14211 -54.227573 53.847572 -54.246975 54.297821 0.017471803 146.80612
513212533.03133 -0.31641403 -173.35274 -54.31472 51.546043 -53.978149 54.293091 0.018683173 146.77193
513590033.97508 -0.32140234 -173.56177 -53.940937 50.936733 -54.091412 52.529034 0.022511413 146.72548
513967534.91884 -0.32715443 -173.77119 -54.257114 49.615719 -54.452301 51.494289 0.022113599 146.68874
514345035.86259 -0.32814628 -173.9796 -53.802036 51.667171 -54.099758 52.926109 0.021505788 146.67691
514722536.80634 -0.33026817 -174.20264 -53.447971 47.836124 -53.967716 53.520382 0.022254845 146.66133
515100037.75009 -0.33424008 -174.43208 -54.055599 50.58205 -53.882359 51.127472 0.02251507 146.62921
515477538.69385 -0.33732906 -174.64009 -53.711834 52.474873 -53.099495 50.583942 0.02022605 146.62674
515855039.6376 -0.3428435 -174.86603 -53.833603 49.398911 -53.92207 48.920223 0.019867839 146.60692
516232540.58135 -0.34607697 -175.08633 -53.194435 52.641171 -53.257915 50.245739 0.017853446 146.56805
516610041.5251 -0.35050428 -175.29723 -52.973423 49.695541 -53.141804 49.321968 0.019642292 146.53267
516987542.46886 -0.35421836 -175.51524 -53.358112 44.867924 -53.205944 49.514236 0.019012373 146.50529
517365043.41261 -0.35582766 -175.74377 -53.034687 45.444145 -53.050426 45.245819 0.015109508 146.47849
517742544.35636 -0.36187091 -175.95024 -52.755493 45.632694 -53.04491 46.473911 0.016353145 146.45859
518120045.30011 -0.36942267 -176.17427 -53.011677 43.044415 -52.967037 44.123405 0.016469603 146.4016
518497546.24387 -0.3738482 -176.38062 -52.913174 41.28437 -52.733231 43.626736 0.018368687 146.36963
518875047.18762 -0.37834775 -176.60002 -52.603127 45.903343 -52.881596 42.541397 0.019559607 146.35402
519252548.13137 -0.38426718 -176.80188 -52.656158 42.326344 -52.187408 41.130482 0.021106925 146.31429
519630049.07512 -0.38701782 -177.01997 -52.52993 39.975082 -52.678253 43.176445 0.022024807 146.28149
520007550.01888 -0.39369074 -177.22202 -52.57906 40.51236 -52.759064 37.439754 0.025656266 146.25435
520385050.96263 -0.39630637 -177.40654 -52.680935 39.013302 -52.67609 39.581619 0.027224595 146.22598
520762551.90638 -0.40058455 -177.61546 -52.390587 37.826645 -52.378296 38.011578 0.026465997 146.20049
521140052.85013 -0.40372339 -177.81285 -52.122051 37.299839 -52.439754 38.188961 0.030961486 146.17305
521517553.79388 -0.40545595 -178.00618 -52.239784 38.875904 -52.25198 36.34642 0.026398722 146.15399
521895054.73764 -0.4088093 -178.20807 -52.280289 36.649963 -52.157112 36.083141 0.02630711 146.11874
522272555.68139 -0.41109276 -178.42204 -51.920536 35.421036 -52.315228 35.815819 0.024056861 146.10345
522650056.62514 -0.41273323 -178.61467 -52.086819 34.238514 -52.479813 36.783215 0.022612451 146.07832
523027557.56889 -0.41505629 -178.82208 -51.959229 35.841099 -52.405972 36.103489 0.020871451 146.05711
523405058.51265 -0.41985881 -179.04578 -52.560688 34.042065 -52.371212 32.271374 0.019128168 146.02179
523782559.4564 -0.41918075 -179.23827 -52.243958 28.507969 -52.138039 32.991199 0.017841924 145.98651
524160060.40015 -0.42283854 -179.46104 -52.380829 33.003071 -51.830116 35.193943 0.015895026 145.96323
524537561.3439 -0.42902598 -179.68036 -52.135864 31.013201 -51.795532 32.664246 0.017043984 145.9375
524915062.28766 -0.43227059 -179.91501 -51.785019 34.552021 -51.633656 30.639446 0.016171316 145.88138
525292563.23141 -0.43763772 179.87651 -51.875546 33.288754 -51.845154 29.312017 0.015892202 145.8739
525670064.17516 -0.44289166 179.64771 -51.766563 31.430622 -51.625031 29.884922 0.017763119 145.85049
526047565.11891 -0.44589931 179.4465 -51.64864 29.159983 -51.788189 30.043936 0.021835418 145.80476
526425066.06267 -0.45473716 179.22343 -51.073055 30.119076 -51.19796 30.901726 0.022311129 145.77385
526802567.00642 -0.4619123 179.01085 -51.301361 29.005693 -51.28997 27.401241 0.021782871 145.74524
527180067.95017 -0.47015107 178.79147 -51.420116 27.839083 -51.466881 29.412045 0.022819834 145.71318
527557568.89392 -0.47592846 178.56912 -51.233749 26.394617 -51.833195 27.886003 0.022462578 145.69693
527935069.83767 -0.48041457 178.36823 -51.333954 29.708956 -51.198383 26.107021 0.023219964 145.66641
528312570.78143 -0.48673964 178.16159 -50.950958 23.945887 -51.19791 24.017439 0.02044519 145.62357
528690071.72518 -0.49500459 177.93478 -51.096588 26.833824 -51.226337 24.800051 0.021880105 145.60437
529067572.66893 -0.50089085 177.7188 -51.079304 25.345415 -51.136391 24.11215 0.019063709 145.54834
529445073.61268 -0.50458038 177.50755 -51.01651 23.840401 -50.817234 23.685627 0.018614225 145.51793
529822574.55644 -0.51315743 177.29335 -50.593803 22.188196 -50.604233 22.230871 0.01515706 145.50183
530200075.50019 -0.51871848 177.06894 -50.850632 22.063387 -50.499882 22.677345 0.013416391 145.47409
530577576.44394 -0.52609289 176.85156 -50.6138 18.701643 -50.399086 22.1653 0.013186992 145.44629
530955077.38769 -0.53283244 176.63937 -50.719112 22.092096 -50.488358 21.337448 0.011106905 145.4111
531332578.33145 -0.54035753 176.43649 -50.514942 22.231585 -50.436459 20.049757 0.0093700895 145.39423
531710079.2752 -0.54716831 176.23985 -50.580719 18.778318 -50.511452 18.56374 0.0090802889 145.35652
532087580.21895 -0.55086643 176.03709 -50.561722 18.236671 -50.599022 17.28207 0.0126206 145.34134
532465081.1627 -0.55721474 175.82768 -50.42065 16.809412 -50.27203 18.560541 0.013737915 145.30531
532842582.10646 -0.56004399 175.62737 -50.339657 16.873234 -50.320061 16.829563 0.013973251 145.2952
533220083.05021 -0.5619421 175.41397 -50.000614 15.390713 -50.164848 15.650506 0.017396063 145.24756
533597583.99396 -0.56660181 175.21313 -50.22707 14.640871 -50.161839 16.09676 0.018777298 145.20128
533975084.93771 -0.56812721 175.02672 -50.021271 16.979649 -50.060627 14.659526 0.020168595 145.16951
534352585.88146 -0.57142979 174.80475 -49.821201 13.990676 -49.903027 15.430958 0.022061596 145.14214
534730086.82522 -0.57523203 174.60437 -49.94421 14.952674 -50.025894 15.19697 0.021584382 145.11646
535107587.76897 -0.57620013 174.39696 -49.75869 11.181092 -49.954453 13.772906 0.022730676 145.07483
535485088.71272 -0.57824713 174.17871 -49.938129 14.239759 -50.187019 12.354602 0.022980751 145.0407
535862589.65647 -0.57990092 173.96394 -49.988853 12.85228 -49.796024 11.891249 0.025808457 145.037
536240090.60023 -0.58631176 173.75713 -49.866962 10.421085 -49.835361 10.381617 0.022171326 144.97777
536617591.54398 -0.58915216 173.54539 -49.631733 10.953337 -49.592567 10.513122 0.025196701 144.96198
536995092.48773 -0.59352869 173.33261 -50.059772 9.825016 -49.856754 9.434371 0.021119775 144.92868
537372593.43148 -0.59639668 173.12769 -50.051559 9.9288015 -49.678051 9.2002821 0.021491455 144.90045
537750094.37524 -0.59975642 172.9151 -49.486294 7.1521964 -49.782429 6.4672618 0.018562146 144.86758
538127595.31899 -0.6015209 172.69505 -49.767536 8.3128757 -49.429333 7.946384 0.0180742 144.83743
538505096.26274 -0.60612738 172.47368 -49.673969 9.6859875 -49.481461 6.2626219 0.021998201 144.83963
538882597.20649 -0.61060315 172.25999 -49.877724 7.2737722 -49.623329 4.8865447 0.02537916 144.82332
539260098.15025 -0.61467391 172.04752 -49.33107 6.6611633 -49.702179 5.7286606 0.025470916 144.78854
539637599.094 -0.61676073 171.80705 -49.51181 4.2329774 -49.681107 6.1734262 0.028021179 144.7683
540015100.03775 -0.62255031 171.60031 -49.60767 3.945235 -49.321331 4.8618903 0.03025056 144.77174
540392600.9815 -0.62543064 171.37019 -49.247505 4.6943002 -49.340847 4.4657259 0.03541315 144.72881
540770101.92525 -0.62776703 171.13885 -49.389931 3.5115256 -49.099445 6.4264832 0.036376286 144.73213
541147602.86901 -0.63436753 170.92352 -48.974987 2.0653152 -49.392681 4.2976356 0.03788992 144.70488
541525103.81276 -0.63838571 170.69501 -49.211262 2.5024519 -49.014172 3.0606661 0.039141536 144.69612
541902604.75651 -0.64249492 170.45227 -49.006905 2.5306315 -49.085873 0.49446937 0.037617598 144.65544
542280105.70026 -0.64702898 170.23436 -49.094604 0.58036077 -49.079525 2.8797078 0.037126962 144.62425
542657606.64402 -0.65194088 169.98807 -48.907131 1.5519984 -48.784737 0.65509391 0.033723589 144.59059
543035107.58777 -0.65322638 169.74304 -48.838703 0.61450624 -48.79538 -0.82498592 0.0283527 144.55263
543412608.53152 -0.66046411 169.49922 -49.411598 0.12916039 -48.871727 -0.22446032 0.026271574 144.49689
543790109.47527 -0.66636664 169.25665 -48.739189 -2.2023597 -48.791798 -0.84661239 0.021775464 144.44218
544167610.41903 -0.67050022 169.02083 -48.524647 -2.6498122 -48.716469 -1.9854519 0.016722435 144.40656
544545111.36278 -0.67559028 168.77614 -48.787628 -4.448864 -48.785568 -0.31785494 0.015360241 144.34961
544922612.30653 -0.68114722 168.53285 -48.765579 -2.8811054 -48.490406 -3.207473 0.010851643 144.31813
545300113.25028 -0.68310708 168.28702 -48.694767 -3.4891775 -48.523228 -4.6053915 0.011473253 144.2878
545677614.19404 -0.68924701 168.03453 -48.585045 -3.8634744 -48.359497 -4.1742487 0.010759006 144.24911
546055115.13779 -0.69570488 167.79305 -48.800262 -4.642241 -48.366322 -4.1996031 0.011610782 144.19623
546432616.08154 -0.69880646 167.52734 -48.56588 -5.7917471 -48.268364 -5.0226417 0.0088225314 144.1748
546810117.02529 -0.70452005 167.27377 -48.599403 -4.0873423 -48.346886 -3.8819849 0.012562916 144.14583
547187617.96904 -0.71042675 167.01044 -48.212193 -4.2820926 -48.415039 -6.2189708 0.015591653 144.13078
547565118.9128 -0.71900117 166.78905 -48.03849 -6.2518082 -48.370869 -5.7656202 0.017083451 144.09137
547942619.85655 -0.72867769 166.5267 -48.017879 -7.9325023 -47.905041 -5.9125352 0.019798705 144.05164
548320120.8003 -0.73744804 166.2785 -47.864571 -7.0654469 -47.994217 -5.9687967 0.021301739 144.01889
548697621.74405 -0.7454716 166.01566 -47.697224 -7.5084963 -47.867409 -8.043005 0.020986099 143.98175
549075122.68781 -0.75258678 165.79665 -47.512783 -8.9647865 -47.621605 -10.553732 0.020967463 143.94803
549452623.63156 -0.76466185 165.56142 -47.645988 -9.0495234 -47.62405 -9.1633148 0.0205146 143.90923
549830124.57531 -0.77348042 165.33496 -47.381695 -9.3258867 -47.26725 -9.9299116 0.019513426 143.88129
550207625.51906 -0.78339624 165.12039 -47.18 -10.839521 -47.630062 -11.034172 0.013581115 143.8179
550585126.46282 -0.79155773 164.90215 -47.126091 -10.923173 -47.270527 -12.085764 0.011486767 143.78606
550962627.40657 -0.79936326 164.67714 -46.946087 -12.912869 -47.168945 -12.862328 0.0069167148 143.73415
551340128.35032 -0.80819035 164.47414 -47.286377 -14.496207 -47.154129 -12.663903 0.004775356 143.69711
551717629.29407 -0.81584996 164.24876 -46.975761 -14.45636 -46.956505 -15.00208 0.0044012051 143.67046
552095130.23783 -0.82496136 164.04459 -46.943302 -16.047613 -46.715641 -15.281992 0.0064475629 143.61385
552472631.18158 -0.83448929 163.84198 -46.94603 -15.351617 -46.977859 -17.584246 0.0035165106 143.58385
552850132.12533 -0.84105176 163.63304 -47.043686 -16.749203 -46.79726 -17.727478 0.0069899135 143.55513
553227633.06908 -0.84537262 163.41115 -46.633968 -18.352303 -46.759529 -18.433466 0.0095571661 143.51801
553605134.01284 -0.85224897 163.19746 -46.693111 -21.101944 -46.920654 -19.362131 0.013507838 143.50157
553982634.95659 -0.85986465 162.98448 -46.527378 -19.515036 -46.630768 -19.831837 0.017532066 143.5116
554360135.90034 -0.86658031 162.76219 -46.74966 -20.159796 -46.658745 -21.362988 0.024558207 143.48912
554737636.84409 -0.87459916 162.53905 -46.611961 -19.953749 -46.57872 -20.91242 0.029622285 143.49132
555115137.78784 -0.88157982 162.31671 -46.429115 -23.619009 -46.638294 -22.311129 0.034784924 143.46786
555492638.7316 -0.88985497 162.07803 -46.534561 -23.402485 -46.383434 -22.627642 0.041492708 143.45021
555870139.67535 -0.89788646 161.85419 -46.35463 -23.156746 -46.378334 -24.060822 0.041562531 143.47159
556247640.6191 -0.9050613 161.63229 -46.349796 -25.518188 -46.412033 -24.649635 0.046628766 143.42545
556625141.56285 -0.91126347 161.4147 -46.247486 -25.902651 -46.459621 -25.83061 0.04385981 143.41345
557002642.50661 -0.91894335 161.17874 -46.195877 -24.6092 -46.255234 -26.19952 0.042084888 143.3782
557380143.45036 -0.92560589 160.96461 -46.340416 -26.440376 -46.172363 -26.470814 0.037828468 143.37952
557757644.39411 -0.93319029 160.72417 -46.431713 -28.749943 -46.244328 -28.584743 0.03717744 143.33727
558135145.33786 -0.94068724 160.5051 -46.174171 -28.556105 -46.013718 -28.760168 0.034118578 143.29796
558512646.28162 -0.9496963 160.27339 -45.964916 -30.48 -46.052593 -30.524584 0.027569633 143.27319
558890147.22537 -0.95695543 160.05447 -46.065369 -31.609068 -45.946732 -30.761721 0.025219845 143.23187
559267648.16912 -0.96123201 159.84471 -45.828835 -31.664856 -45.839783 -33.029968 0.021548051 143.19847
559645149.11287 -0.96790987 159.64481 -45.947056 -32.737404 -45.759304 -33.518402 0.020583803 143.138
560022650.05663 -0.97347099 159.41714 -45.839443 -33.575371 -45.930992 -33.206421 0.020395178 143.11826
560400151.00038 -0.98043793 159.22224 -45.685959 -35.267139 -45.785271 -35.135769 0.025045358 143.08536
560777651.94413 -0.98182905 159.02271 -45.878536 -36.115795 -45.912205 -36.497852 0.02399434 143.0667
561155152.88788 -0.9860211 158.78976 -45.806755 -37.588528 -45.752106 -37.863827 0.026656287 143.04311
561532653.83163 -0.98667711 158.61307 -46.014118 -38.934986 -45.903271 -38.247528 0.032398883 142.99637
561910154.77539 -0.98672211 158.40038 -45.81414 -38.943138 -45.665844 -38.407242 0.033828251 142.98354
562287655.71914 -0.98591715 158.17963 -45.749943 -39.376053 -45.67128 -38.39402 0.036666729 142.96796
562665156.66289 -0.98616952 157.96138 -45.772381 -39.572601 -45.845608 -40.409657 0.038480047 142.95184
563042657.60664 -0.98207557 157.7319 -45.850529 -41.351795 -45.932808 -41.257179 0.038934119 142.93103
563420158.5504 -0.97840285 157.50601 -45.934734 -42.975937 -45.894058 -41.943401 0.040134668 142.90852
563797659.49415 -0.97610605 157.27173 -45.955467 -43.635307 -45.752445 -42.765476 0.037926335 142.8683
564175160.4379 -0.97219312 157.02649 -45.701511 -43.417747 -45.935764 -42.82151 0.034979019 142.84285
564552661.38165 -0.96908867 156.75085 -46.049908 -42.722424 -45.873001 -43.367283 0.02835948 142.80809
564930162.32541 -0.96867251 156.49104 -45.95966 -44.696564 -46.073498 -45.213814 0.026674632 142.76486
565307663.26916 -0.96729779 156.20515 -45.796677 -46.035545 -46.066284 -44.255627 0.024054155 142.71849
565685164.21291 -0.96555126 155.91466 -45.836525 -44.8494 -46.014317 -45.0228 0.017353332 142.65906
566062665.15666 -0.96681792 155.61543 -45.883423 -46.889931 -46.04422 -44.845512 0.013857823 142.62358
566440166.10042 -0.96839422 155.31807 -46.045788 -46.441231 -46.120056 -45.432987 0.012771892 142.59038
566817667.04417 -0.97433746 154.9957 -46.177261 -44.945328 -45.969276 -46.286701 0.010942142 142.53281
567195167.98792 -0.98494238 154.70364 -46.056908 -46.196533 -46.059692 -46.457539 0.011180513 142.4915
567572668.93167 -0.99358207 154.41377 -45.907143 -46.718044 -46.048164 -47.2286 0.012153362 142.44728
567950169.87542 -1.0020057 154.12746 -45.67218 -46.34684 -45.84816 -45.974754 0.014187585 142.43239
568327670.81918 -1.0108811 153.86136 -45.693104 -46.801384 -45.89957 -47.396633 0.019422891 142.40448
568705171.76293 -1.0220386 153.59984 -45.54361 -48.185642 -45.73661 -46.247185 0.024184572 142.36446
569082672.70668 -1.0263844 153.34843 -45.640766 -46.616947 -45.562931 -48.81435 0.027126344 142.34178
569460173.65043 -1.0357682 153.08401 -45.582733 -48.210152 -45.791977 -48.470779 0.032359812 142.3
569837674.59419 -1.0388933 152.80244 -45.750946 -49.550243 -45.558319 -48.965786 0.031950515 142.28506
570215175.53794 -1.0481901 152.51126 -45.505802 -50.05106 -45.444206 -49.396912 0.035424035 142.26604
570592676.48169 -1.0570815 152.22678 -45.606018 -50.456657 -45.57473 -49.635185 0.036661718 142.23727
570970177.42544 -1.0656062 151.93735 -45.465298 -51.216362 -45.473038 -50.657345 0.037228644 142.23318
571347678.3692 -1.072529 151.65244 -45.223171 -51.010811 -45.494873 -50.978191 0.035690822 142.20549
571725179.31295 -1.0812092 151.35837 -45.446899 -50.95998 -45.251064 -50.424648 0.033473387 142.17426
572102680.2567 -1.0925728 151.08134 -45.40633 -50.809792 -45.310066 -51.073586 0.033903234 142.15437
572480181.20045 -1.1002535 150.79617 -45.167339 -52.17308 -45.24868 -53.037758 0.030054161 142.11845
