!Keysight Technologies,N5242B,MY48420860,A.13.80.08
!Date: Saturday, September 26, 2020 12:41:59
!Correction: S11(Full 2 Port(1,2)) 
!S21(Full 2 Port(1,2)) 
!S12(Full 2 Port(1,2)) 
!S22(Full 2 Port(1,2)) 
!S2P File: Measurements: S11, S21, S12, S22:
# Hz S  dB   R 50
500000000 -0.23189189 -166.15378 -59.661118 -18.369255 -59.048302 -13.953495 0.030888595 147.66893
500377500.94375 -0.23331757 -166.34908 -60.151539 -19.637457 -59.502296 -18.324133 0.029377699 147.66328
500755001.8875 -0.23778188 -166.55005 -59.029934 -19.586164 -59.845795 -17.200323 0.025224263 147.66803
501132502.83126 -0.23897883 -166.76526 -59.627964 -15.017337 -59.285191 -18.213871 0.022402784 147.64496
501510003.77501 -0.24167924 -166.96953 -59.717854 -17.640059 -59.683987 -14.892731 0.018967792 147.63805
501887504.71876 -0.24762854 -167.16318 -59.253635 -24.431953 -59.27047 -19.340761 0.015246824 147.63147
502265005.66251 -0.24816339 -167.36235 -59.084599 -23.084455 -58.469002 -25.327948 0.011214094 147.58421
502642506.60627 -0.25286019 -167.5793 -59.073723 -20.047827 -59.106396 -21.721344 0.007814127 147.55313
503020007.55002 -0.25619844 -167.77672 -59.314514 -18.261845 -59.279095 -17.759663 0.0056909965 147.51845
503397508.49377 -0.25964803 -167.96893 -59.201153 -19.97365 -57.803467 -22.738655 0.0059208893 147.47511
503775009.43752 -0.26022828 -168.16562 -58.704346 -21.970936 -58.398857 -19.289671 0.0026498055 147.41864
504152510.38128 -0.26411617 -168.34679 -58.658932 -22.316925 -58.653297 -24.650391 0.0091529666 147.39906
504530011.32503 -0.26568919 -168.54678 -58.434311 -24.756001 -57.858284 -28.796303 0.014972754 147.35602
504907512.26878 -0.26832607 -168.73521 -58.144093 -24.296852 -57.489433 -26.048517 0.020323077 147.32153
505285013.21253 -0.268397 -168.92165 -57.742329 -27.891069 -58.133354 -25.623173 0.028488705 147.3345
505662514.15629 -0.26797092 -169.11911 -57.909607 -32.049049 -57.510353 -28.317211 0.033572495 147.31775
506040015.10004 -0.26802731 -169.30566 -58.336727 -26.655012 -58.348362 -31.651285 0.03772337 147.27878
506417516.04379 -0.27085668 -169.49985 -58.059372 -33.623516 -57.811192 -28.910583 0.040153194 147.28459
506795016.98754 -0.26487771 -169.69241 -57.117867 -32.37162 -57.788506 -27.590693 0.046717182 147.30179
507172517.93129 -0.26559627 -169.89804 -57.835957 -34.960033 -58.077084 -28.774948 0.044319771 147.26651
507550018.87505 -0.26671138 -170.10213 -57.733852 -29.072813 -58.818169 -32.066906 0.044560317 147.28571
507927519.8188 -0.26507512 -170.30513 -57.974087 -27.857489 -57.794201 -32.883793 0.03790924 147.25699
508305020.76255 -0.26587906 -170.50847 -58.057198 -35.757023 -58.993851 -33.601341 0.032819435 147.23079
508682521.7063 -0.26455024 -170.70845 -57.447426 -37.164387 -57.485916 -38.144737 0.025851818 147.21111
509060022.65006 -0.26560089 -170.91988 -57.904839 -32.661949 -57.636051 -37.642002 0.021528896 147.16844
509437523.59381 -0.26329044 -171.1152 -57.589767 -37.489014 -57.519444 -34.669098 0.014290852 147.1255
509815024.53756 -0.26764172 -171.32193 -57.040691 -39.043747 -57.967239 -38.584297 0.0085622054 147.08902
510192525.48131 -0.26737392 -171.52266 -57.695793 -38.543415 -57.875164 -34.097759 0.0021970365 147.01784
510570026.42507 -0.26949486 -171.72382 -57.174278 -34.111992 -58.036121 -33.02816 0.0013759424 146.96489
510947527.36882 -0.27201456 -171.93135 -57.075111 -41.989628 -57.191933 -40.211582 0.0052450504 146.90584
511325028.31257 -0.27274844 -172.14053 -57.637562 -31.770472 -57.987816 -42.899593 0.0034465257 146.85664
511702529.25632 -0.27521741 -172.36021 -57.880791 -35.460526 -57.247993 -38.057354 0.0094757061 146.81073
512080030.20008 -0.27695104 -172.56067 -57.594601 -36.744141 -57.552635 -43.033215 0.012571236 146.7572
512457531.14383 -0.27698889 -172.77151 -57.052841 -38.541679 -57.815956 -40.059608 0.018201148 146.72226
512835032.08758 -0.27927125 -172.98933 -57.612049 -40.541122 -57.126049 -38.926785 0.022411006 146.71997
513212533.03133 -0.28265968 -173.20636 -57.055733 -42.464848 -57.380543 -38.913853 0.028209027 146.72075
513590033.97508 -0.2864342 -173.40698 -57.075939 -39.505451 -56.482342 -43.748322 0.034654878 146.67995
513967534.91884 -0.28993782 -173.62787 -57.277775 -38.633839 -56.570465 -45.082565 0.035091504 146.67227
514345035.86259 -0.29228348 -173.83374 -57.057121 -40.698166 -56.798203 -42.830719 0.036512587 146.67856
514722536.80634 -0.29487261 -174.05426 -57.405975 -41.146465 -57.539684 -43.754551 0.036486961 146.66873
515100037.75009 -0.29884443 -174.29234 -56.29953 -43.786465 -56.980881 -41.711235 0.032461088 146.66412
515477538.69385 -0.30241147 -174.50166 -57.573376 -40.227036 -56.841591 -44.226471 0.026691763 146.64714
515855039.6376 -0.30583361 -174.71609 -56.250607 -41.623672 -56.296825 -39.305984 0.023186527 146.61293
516232540.58135 -0.30819431 -174.93205 -56.683968 -45.69186 -56.375965 -47.169895 0.015931094 146.57698
516610041.5251 -0.31317005 -175.14667 -55.892464 -40.887604 -56.561726 -45.309895 0.014694576 146.53064
516987542.46886 -0.31451634 -175.37292 -56.733467 -44.51186 -56.110447 -45.494759 0.010699903 146.47678
517365043.41261 -0.31599969 -175.58858 -55.485134 -45.629711 -56.483673 -48.561943 0.0061508399 146.43094
517742544.35636 -0.32165834 -175.80556 -55.777981 -44.453457 -56.170906 -45.08947 0.0097308028 146.40349
518120045.30011 -0.32598874 -176.02998 -56.481384 -47.165878 -56.116508 -44.637539 0.0087823421 146.34933
518497546.24387 -0.33000383 -176.24197 -55.77866 -49.981445 -56.328209 -45.395981 0.012336064 146.28763
518875047.18762 -0.33287904 -176.46729 -55.588757 -48.814487 -55.633152 -47.056194 0.017118292 146.26006
519252548.13137 -0.33635017 -176.65897 -55.677265 -43.027065 -55.344257 -47.53606 0.022758951 146.24213
519630049.07512 -0.33967605 -176.88026 -55.226028 -50.623196 -55.256607 -48.022293 0.026931282 146.21513
520007550.01888 -0.34165305 -177.09215 -55.818977 -49.592766 -55.91761 -46.97522 0.037070133 146.19623
520385050.96263 -0.34381065 -177.27682 -55.78186 -52.859425 -55.136772 -48.280655 0.041094191 146.19246
520762551.90638 -0.3467218 -177.49225 -54.891949 -53.011189 -55.550488 -49.6712 0.044404607 146.18643
521140052.85013 -0.34782311 -177.70644 -54.852531 -45.875534 -55.248238 -52.587025 0.048887234 146.16611
521517553.79388 -0.34866795 -177.91737 -56.038013 -50.841877 -55.401573 -53.603222 0.046247896 146.16203
521895054.73764 -0.35141492 -178.13687 -55.569759 -53.437004 -55.317165 -57.891262 0.041753303 146.14012
522272555.68139 -0.35049719 -178.36227 -55.158047 -55.571445 -54.810242 -54.22361 0.037275292 146.1306
522650056.62514 -0.35369766 -178.55859 -55.589165 -60.817596 -54.73896 -55.56921 0.031005727 146.11496
523027557.56889 -0.35658824 -178.77681 -55.152439 -53.518028 -55.170929 -54.506931 0.024101017 146.09189
523405058.51265 -0.3582398 -179.01939 -54.819412 -58.458401 -54.454327 -54.828205 0.017919658 146.03181
523782559.4564 -0.35808665 -179.23347 -54.965256 -57.901394 -54.29369 -61.644016 0.012636948 145.98938
524160060.40015 -0.36283505 -179.46033 -55.320503 -58.163147 -54.548119 -59.872791 0.0050785048 145.93152
524537561.3439 -0.36787707 -179.68051 -55.155983 -57.25066 -54.936337 -55.113869 0.0062098484 145.88763
524915062.28766 -0.37215912 -179.91434 -54.752365 -58.028671 -55.419449 -61.590889 0.0010436201 145.81087
525292563.23141 -0.37704939 179.84886 -54.641151 -60.098324 -54.397877 -61.904423 0.003513932 145.77783
525670064.17516 -0.38309324 179.62234 -54.819416 -56.807362 -54.610073 -60.886364 0.007239386 145.74185
526047565.11891 -0.38740507 179.42586 -54.491062 -59.088242 -54.3326 -60.369106 0.015526002 145.68532
526425066.06267 -0.39431089 179.17686 -54.268223 -60.915226 -54.805851 -61.637951 0.020304732 145.66844
526802567.00642 -0.40044615 178.97894 -55.163158 -61.184521 -54.434319 -63.777103 0.022961285 145.63091
527180067.95017 -0.40586975 178.73697 -54.398792 -64.939148 -54.063148 -62.291538 0.031784285 145.63284
527557568.89392 -0.41327411 178.5103 -54.159756 -62.74155 -54.215698 -63.498482 0.032954119 145.62578
527935069.83767 -0.41798246 178.30385 -53.997738 -60.676178 -53.888481 -64.566185 0.038097028 145.5974
528312570.78143 -0.42246711 178.08983 -54.297741 -64.401764 -54.453327 -65.353088 0.037323289 145.60591
528690071.72518 -0.43192658 177.85371 -53.901352 -61.484406 -54.257584 -65.145882 0.039206881 145.59209
529067572.66893 -0.43862596 177.63428 -54.148434 -65.099648 -53.997749 -64.851059 0.034268506 145.56375
529445073.61268 -0.44345662 177.41446 -53.363846 -65.316391 -53.610779 -69.892838 0.032019611 145.53963
529822574.55644 -0.45006272 177.19304 -54.202194 -66.702637 -53.732407 -66.665321 0.021923104 145.52606
530200075.50019 -0.45754856 176.96396 -53.921001 -63.727798 -53.436913 -67.325806 0.015467755 145.48344
530577576.44394 -0.46334782 176.75343 -53.211369 -68.680779 -53.964108 -67.182373 0.0077880998 145.44833
530955077.38769 -0.46855456 176.52101 -53.468842 -70.843925 -53.531258 -68.433578 0.0040756818 145.38477
531332578.33145 -0.47502404 176.29344 -53.449528 -71.942909 -52.759678 -68.710365 -0.0022344529 145.34889
531710079.2752 -0.48193154 176.09607 -53.296196 -68.038406 -53.660801 -69.266167 -0.0070548761 145.30638
532087580.21895 -0.48520511 175.88916 -53.240368 -70.353271 -53.104527 -72.923157 -0.0044118231 145.24332
532465081.1627 -0.4904547 175.66464 -52.899097 -72.148277 -53.315994 -72.758171 -0.0057330644 145.19856
532842582.10646 -0.49558938 175.45721 -52.579964 -73.683144 -52.878502 -74.425987 6.2310457e-005 145.15889
533220083.05021 -0.49699193 175.22389 -52.907009 -74.825134 -52.877132 -72.173409 0.0068579526 145.10129
533597583.99396 -0.50369346 175.03352 -53.119122 -72.860847 -53.478451 -74.750046 0.013041099 145.06146
533975084.93771 -0.50450522 174.82605 -52.405613 -73.947563 -52.519459 -73.317215 0.019588586 145.02699
534352585.88146 -0.51049751 174.59631 -52.682091 -75.232185 -52.716492 -75.486855 0.025487751 145.03098
534730086.82522 -0.51201928 174.39377 -52.575466 -76.717232 -52.895355 -77.672569 0.031736251 145.01366
535107587.76897 -0.51419514 174.19011 -52.528767 -76.117798 -52.341274 -77.800224 0.037262268 145.00121
535485088.71272 -0.51501602 173.96848 -52.653301 -79.542 -52.698883 -79.417419 0.040401652 144.97134
535862589.65647 -0.51642162 173.74316 -52.605289 -79.584778 -52.232208 -78.178909 0.040345576 144.99557
536240090.60023 -0.52316529 173.5231 -52.503036 -83.133591 -52.475185 -83.02227 0.036917705 144.96855
536617591.54398 -0.52481645 173.30954 -52.164925 -81.159309 -52.069195 -79.173523 0.034903221 144.95926
536995092.48773 -0.52711463 173.09581 -52.196445 -82.373917 -52.138546 -81.866425 0.027607374 144.91859
537372593.43148 -0.53150618 172.86606 -52.063301 -83.171394 -52.07494 -82.52935 0.02310073 144.90797
537750094.37524 -0.53184152 172.65866 -52.349457 -83.937225 -52.017696 -81.614891 0.014524332 144.85767
538127595.31899 -0.53584832 172.42999 -52.103294 -86.034218 -51.934826 -87.322533 0.011186574 144.8186
538505096.26274 -0.53742456 172.19601 -52.136528 -85.809357 -51.636089 -86.478218 0.0091106324 144.78351
538882597.20649 -0.54104662 171.98883 -52.246593 -86.389145 -52.04797 -87.476372 0.0093007535 144.74136
539260098.15025 -0.54259062 171.75058 -52.065075 -89.653732 -52.003117 -87.3368 0.0082497047 144.68762
539637599.094 -0.5447942 171.50311 -51.792126 -86.347725 -52.004906 -88.542465 0.011893147 144.65424
540015100.03775 -0.54886854 171.28439 -51.563057 -86.324638 -52.155273 -87.778404 0.01674871 144.64148
540392600.9815 -0.54952478 171.04599 -51.919609 -91.549332 -51.906921 -88.525055 0.023458898 144.57927
540770101.92525 -0.55139637 170.77795 -51.553432 -92.09539 -51.754433 -90.372032 0.029303243 144.58417
541147602.86901 -0.55908388 170.53546 -52.03941 -91.170906 -52.02309 -91.157082 0.038031016 144.55882
541525103.81276 -0.5623337 170.2821 -51.734295 -92.992729 -51.409149 -90.219276 0.044731621 144.55728
541902604.75651 -0.56725395 170.01434 -51.845776 -90.375031 -51.508175 -92.627296 0.047854334 144.54413
542280105.70026 -0.57283837 169.77222 -51.35474 -91.48941 -51.464455 -93.347946 0.053568691 144.54204
542657606.64402 -0.57795 169.5144 -51.698719 -92.387413 -51.54002 -94.7658 0.051946245 144.53444
543035107.58777 -0.58324909 169.24466 -51.703953 -94.127846 -51.556183 -93.626717 0.047693156 144.51573
543412608.53152 -0.59011346 169.00754 -51.420643 -94.24411 -51.210659 -95.167152 0.044057935 144.48843
543790109.47527 -0.59937567 168.74292 -51.70393 -95.752953 -51.341087 -96.091835 0.038966633 144.45667
544167610.41903 -0.60404342 168.50246 -50.972107 -93.011452 -51.117756 -96.124023 0.029851336 144.41949
544545111.36278 -0.60854453 168.2382 -51.284821 -95.351395 -51.262459 -98.339607 0.020414231 144.37929
544922612.30653 -0.61432016 167.99112 -51.094505 -97.028931 -51.152084 -100.9399 0.011082418 144.33551
545300113.25028 -0.62049049 167.73129 -51.159142 -96.779762 -51.494183 -98.165977 0.0062800269 144.27626
545677614.19404 -0.6238448 167.46426 -51.352242 -100.54574 -50.738983 -97.444817 0.0008382317 144.22362
546055115.13779 -0.63088888 167.2014 -51.154411 -96.858017 -50.990215 -98.461853 -0.0026514451 144.13986
546432616.08154 -0.63445836 166.91772 -51.089264 -98.771538 -51.479115 -98.79612 -0.005474105 144.10728
546810117.02529 -0.63949847 166.64861 -51.046185 -103.29002 -51.318272 -99.498627 -0.003430706 144.03729
547187617.96904 -0.64778292 166.37949 -50.75359 -100.89375 -51.055092 -99.411606 -0.0014744689 143.98857
547565118.9128 -0.65458453 166.11469 -50.676945 -101.14096 -50.922379 -100.19975 0.0048197294 143.94466
547942619.85655 -0.6655491 165.83327 -50.609215 -100.01215 -50.779831 -101.73174 0.0095982635 143.88965
548320120.8003 -0.67371643 165.55914 -50.601955 -101.92472 -50.785694 -99.703781 0.017249882 143.85498
548697621.74405 -0.68305093 165.2811 -50.791782 -100.01771 -50.731991 -99.952003 0.024588581 143.8465
549075122.68781 -0.69321746 165.04123 -50.506142 -101.70255 -50.524967 -105.01725 0.025517756 143.82092
549452623.63156 -0.70601964 164.79091 -50.12764 -103.74846 -50.242661 -103.24349 0.029062139 143.79503
549830124.57531 -0.71619558 164.53706 -50.289757 -102.19566 -50.326069 -103.28111 0.030987293 143.78221
550207625.51906 -0.72510839 164.2867 -50.404579 -104.32889 -50.409641 -104.20358 0.029110597 143.75032
550585126.46282 -0.73732066 164.04562 -49.972195 -104.18382 -50.328285 -104.82117 0.02593917 143.71935
550962627.40657 -0.74791235 163.79396 -50.019001 -106.60143 -49.871368 -107.07992 0.020113954 143.70886
551340128.35032 -0.75952435 163.56062 -49.842041 -104.99516 -50.014484 -104.62852 0.01537402 143.67079
551717629.29407 -0.77007657 163.31865 -49.948479 -108.20695 -49.89867 -104.91599 0.011427204 143.65036
552095130.23783 -0.78149509 163.08572 -49.680893 -107.95871 -49.546017 -108.58664 0.0061922115 143.59926
552472631.18158 -0.79589903 162.83633 -49.723141 -106.83582 -49.464615 -107.68936 0.0012321651 143.55635
552850132.12533 -0.80422419 162.60828 -49.39608 -108.78529 -49.770393 -108.86839 0.00026195231 143.51685
553227633.06908 -0.81238502 162.36594 -49.723747 -111.07729 -49.474636 -109.13834 -0.00014164933 143.47862
553605134.01284 -0.82644331 162.14572 -49.33263 -110.44342 -49.432034 -109.76593 0.003038588 143.42903
553982634.95659 -0.83825159 161.896 -49.307747 -109.74733 -49.404102 -110.46553 0.0074445033 143.41127
554360135.90034 -0.84971011 161.66267 -49.074589 -111.96264 -49.359482 -113.88711 0.01637766 143.39413
554737636.84409 -0.86257941 161.43025 -49.00988 -114.22347 -48.889477 -113.19993 0.024418058 143.37207
555115137.78784 -0.87640941 161.19051 -49.297596 -113.754 -49.373081 -116.1773 0.03287698 143.3535
555492638.7316 -0.89034706 160.94182 -48.999439 -113.79708 -48.998543 -113.7248 0.040394597 143.33975
555870139.67535 -0.90104079 160.71109 -48.978729 -116.6541 -48.798058 -114.90042 0.045967702 143.34999
556247640.6191 -0.9148792 160.48041 -48.736572 -114.98537 -48.828499 -116.2758 0.054243259 143.32143
556625141.56285 -0.92783839 160.23502 -48.694374 -114.11036 -48.98811 -118.73759 0.05486317 143.33904
557002642.50661 -0.93969381 160.01334 -48.662186 -118.33897 -48.656395 -117.72184 0.055431515 143.30518
557380143.45036 -0.95426142 159.78619 -48.446724 -117.59186 -48.304893 -118.9309 0.053535983 143.29707
557757644.39411 -0.96671671 159.56169 -48.600269 -119.39403 -48.597893 -121.69027 0.051145311 143.30054
558135145.33786 -0.97917575 159.33388 -48.534126 -119.98973 -48.278538 -120.74686 0.044921979 143.25604
558512646.28162 -0.99253035 159.1138 -48.087021 -118.8015 -48.365189 -122.09991 0.034129929 143.24231
558890147.22537 -1.0044858 158.90842 -48.320313 -120.80766 -48.243824 -120.65759 0.030451359 143.20883
559267648.16912 -1.0163399 158.71724 -48.430367 -122.65519 -48.261303 -123.13292 0.023891665 143.17075
559645149.11287 -1.0268048 158.49484 -47.935886 -123.54994 -48.001335 -124.94981 0.019163925 143.10423
560022650.05663 -1.0370295 158.30264 -48.072086 -124.18346 -48.2005 -126.93833 0.014986091 143.07166
560400151.00038 -1.0462991 158.10446 -48.154072 -124.85188 -47.95232 -125.42961 0.018731525 143.03271
560777651.94413 -1.0513576 157.91544 -47.937584 -126.63417 -48.098167 -127.38587 0.016121181 142.97682
561155152.88788 -1.0600342 157.71317 -47.77066 -127.83106 -47.89732 -127.84824 0.017917017 142.94801
561532653.83163 -1.0630208 157.53616 -47.838963 -129.48761 -47.953457 -129.32884 0.025478553 142.89413
561910154.77539 -1.0680548 157.3343 -47.793293 -131.33804 -47.81649 -129.42068 0.02859425 142.87337
562287655.71914 -1.0673617 157.11386 -47.977524 -129.89685 -47.81295 -131.05928 0.032891639 142.84766
562665156.66289 -1.0691074 156.90778 -47.765587 -132.59723 -47.755646 -132.49878 0.038425919 142.82486
563042657.60664 -1.0669929 156.68683 -47.611828 -131.87383 -47.958084 -132.64558 0.043324996 142.80275
563420158.5504 -1.0684688 156.4639 -47.57214 -134.25359 -47.598949 -135.29102 0.045724053 142.78571
563797659.49415 -1.0691862 156.22255 -47.496159 -136.66681 -47.722549 -133.88474 0.047182824 142.75366
564175160.4379 -1.0675852 155.98796 -47.347878 -134.88928 -47.841072 -135.6019 0.043912992 142.75175
564552661.38165 -1.0682031 155.73448 -47.547909 -135.1895 -47.959831 -135.16321 0.038658176 142.726
564930162.32541 -1.0683709 155.47025 -47.941086 -135.75897 -47.658283 -137.2765 0.035040941 142.68504
565307663.26916 -1.0678655 155.19905 -47.429882 -138.41115 -47.701225 -136.60573 0.032720108 142.64787
565685164.21291 -1.0692592 154.91415 -47.611767 -137.00241 -47.523407 -137.38689 0.022317387 142.60361
566062665.15666 -1.0706042 154.60422 -47.671173 -137.14638 -47.388279 -137.27774 0.01466033 142.54434
566440166.10042 -1.0780145 154.30704 -47.384686 -139.42671 -47.606697 -137.27148 0.011652078 142.53418
566817667.04417 -1.0826989 153.97472 -47.31147 -138.48125 -47.289993 -138.77921 0.0098112691 142.47363
567195167.98792 -1.0949987 153.68935 -47.248611 -139.94038 -47.17775 -138.99977 0.0057447879 142.41652
567572668.93167 -1.1071497 153.37563 -47.198078 -138.25011 -47.10265 -139.4845 0.0052006869 142.37694
567950169.87542 -1.121357 153.07762 -47.068306 -141.16762 -47.030499 -141.09393 0.0092400815 142.34659
568327670.81918 -1.1374394 152.81244 -46.914257 -139.53915 -46.986732 -140.31747 0.013645417 142.29312
568705171.76293 -1.1530337 152.54857 -46.971542 -141.7368 -46.850452 -141.91415 0.022146901 142.24835
569082672.70668 -1.1634182 152.30136 -46.559498 -142.66203 -46.767433 -143.28427 0.027037142 142.23547
569460173.65043 -1.1770728 152.03596 -46.479221 -143.90154 -46.681038 -142.8652 0.033652332 142.21617
569837674.59419 -1.1845961 151.77431 -46.684261 -144.84848 -46.738171 -144.03575 0.03711617 142.1785
570215175.53794 -1.1980807 151.50584 -46.467148 -146.09103 -46.543221 -145.26111 0.041807596 142.17586
570592676.48169 -1.2091918 151.21118 -46.598885 -146.69273 -46.440289 -145.55316 0.044068947 142.13965
570970177.42544 -1.2203552 150.93315 -46.2215 -146.18709 -46.439163 -147.28732 0.045048676 142.13911
571347678.3692 -1.2332066 150.65327 -46.163593 -146.07658 -46.268021 -147.45207 0.042745709 142.11398
