!Keysight Technologies,N5242B,MY48420860,A.13.80.08
!Date: Saturday, September 26, 2020 12:55:24
!Correction: S11(Full 2 Port(1,2)) 
!S21(Full 2 Port(1,2)) 
!S12(Full 2 Port(1,2)) 
!S22(Full 2 Port(1,2)) 
!S2P File: Measurements: S11, S21, S12, S22:
# Hz S  dB   R 50
500000000 -0.24037941 -166.20779 -60.963314 -105.72749 -60.913078 -102.91829 0.040276203 147.75247
500377500.94375 -0.24339044 -166.41452 -60.413528 -106.75151 -61.766083 -106.48216 0.043000534 147.73105
500755001.8875 -0.24745126 -166.61562 -60.48624 -109.32986 -60.113186 -103.79629 0.044230986 147.73659
501132502.83126 -0.2491284 -166.82225 -61.259964 -108.36499 -60.191551 -110.15332 0.043751903 147.71718
501510003.77501 -0.25269905 -167.03427 -61.637165 -108.03207 -61.895081 -104.90633 0.046036668 147.71899
501887504.71876 -0.25592858 -167.2198 -61.905472 -116.81151 -61.008232 -111.55159 0.046856482 147.72954
502265005.66251 -0.25772971 -167.43085 -60.370331 -112.90641 -61.243347 -114.35904 0.043598261 147.70033
502642506.60627 -0.26336187 -167.63153 -60.184387 -101.41803 -59.987583 -108.09976 0.04403609 147.68646
503020007.55002 -0.26559398 -167.82964 -61.188667 -106.72501 -60.999931 -110.64421 0.043266367 147.68297
503397508.49377 -0.27096686 -168.02773 -61.589092 -116.05703 -60.322323 -113.09437 0.04034308 147.64288
503775009.43752 -0.27144051 -168.21303 -60.229633 -111.67958 -60.187981 -114.68023 0.036696307 147.60611
504152510.38128 -0.2746641 -168.40253 -60.505074 -111.26514 -60.678711 -111.41764 0.041772064 147.58456
504530011.32503 -0.27805486 -168.60017 -59.799583 -113.82043 -60.067196 -117.35918 0.040628221 147.53154
504907512.26878 -0.28040886 -168.78119 -60.814579 -121.68456 -59.637424 -115.7466 0.041710101 147.49252
505285013.21253 -0.28000864 -168.97537 -60.822712 -113.9856 -59.846329 -103.83722 0.04380095 147.4836
505662514.15629 -0.28151664 -169.16966 -60.372795 -116.10818 -59.540462 -118.14619 0.045161474 147.43864
506040015.10004 -0.28202716 -169.34995 -60.723415 -115.86559 -59.845837 -115.08444 0.047246587 147.39842
506417516.04379 -0.28498477 -169.53824 -60.18124 -121.98513 -60.30135 -114.09841 0.049285278 147.37875
506795016.98754 -0.27964309 -169.7384 -60.276478 -121.0713 -59.61031 -116.9212 0.055779152 147.36639
507172517.93129 -0.28294414 -169.91864 -60.647751 -131.83987 -60.282745 -116.09751 0.054132268 147.33141
507550018.87505 -0.28203586 -170.13576 -59.596821 -119.60235 -59.963036 -119.75048 0.05550693 147.3299
507927519.8188 -0.2822631 -170.3331 -59.940933 -126.4091 -60.560051 -115.77604 0.056018889 147.31374
508305020.76255 -0.28236252 -170.51982 -59.643475 -118.77409 -58.654266 -122.53032 0.053965166 147.29556
508682521.7063 -0.28338408 -170.73763 -59.111721 -121.99686 -59.235363 -121.5034 0.051222771 147.29182
509060022.65006 -0.28276414 -170.92421 -59.100182 -125.65753 -60.189728 -123.11397 0.052126098 147.27008
509437523.59381 -0.28306079 -171.13274 -59.506393 -120.20024 -59.345207 -126.01348 0.049031828 147.24565
509815024.53756 -0.28602308 -171.3255 -59.776543 -123.79395 -59.572632 -124.84561 0.04430975 147.22276
510192525.48131 -0.28699219 -171.53621 -59.636814 -128.17165 -58.805649 -126.26594 0.041308727 147.1734
510570026.42507 -0.28992769 -171.72858 -59.026691 -121.17666 -59.384323 -120.31701 0.03617825 147.12421
510947527.36882 -0.29061776 -171.9386 -58.863136 -125.09131 -59.091545 -126.17844 0.03517168 147.08981
511325028.31257 -0.29217017 -172.14711 -58.824116 -119.85525 -58.932091 -131.1396 0.030706841 147.02937
511702529.25632 -0.29499915 -172.35329 -59.235374 -127.9305 -59.195942 -132.62601 0.03080339 146.99492
512080030.20008 -0.29576197 -172.56638 -58.86095 -126.58156 -58.970776 -126.91604 0.030080698 146.92342
512457531.14383 -0.29682934 -172.77023 -58.693745 -125.60237 -58.965767 -133.94464 0.031989358 146.86398
512835032.08758 -0.29897419 -172.98788 -58.03825 -130.29974 -59.073399 -130.92479 0.033862341 146.84006
513212533.03133 -0.30269843 -173.19484 -60.036953 -128.04546 -59.308468 -129.95845 0.034255281 146.8055
513590033.97508 -0.30561277 -173.40952 -58.989025 -130.87709 -58.462364 -123.69869 0.03880804 146.7449
513967534.91884 -0.31101656 -173.63298 -58.708931 -130.52879 -58.456982 -133.37166 0.040893029 146.70259
514345035.86259 -0.31373063 -173.83824 -58.97982 -131.58975 -58.330742 -134.05391 0.044181254 146.69734
514722536.80634 -0.31403637 -174.06578 -58.780262 -131.93375 -58.357925 -136.35107 0.04949398 146.69081
515100037.75009 -0.31848487 -174.29036 -58.38567 -130.11896 -58.878483 -133.1019 0.049183983 146.67206
515477538.69385 -0.32169485 -174.50974 -57.978363 -134.82356 -59.411812 -135.56949 0.05162172 146.70039
515855039.6376 -0.32620206 -174.7197 -57.428146 -136.53938 -58.324184 -132.36774 0.0512973 146.67603
516232540.58135 -0.32938731 -174.95558 -58.045799 -134.6212 -57.893242 -133.63339 0.05281483 146.66977
516610041.5251 -0.33295861 -175.1564 -58.306908 -135.31888 -57.114655 -134.17464 0.053452253 146.64337
516987542.46886 -0.33648401 -175.37701 -57.382484 -136.06566 -57.831688 -134.99385 0.050524343 146.62476
517365043.41261 -0.33915314 -175.59465 -57.374176 -134.22055 -57.615997 -137.62553 0.047394753 146.60229
517742544.35636 -0.34193867 -175.82515 -57.792686 -137.29915 -57.577854 -139.65274 0.04975811 146.59239
518120045.30011 -0.34789333 -176.03564 -57.06543 -138.79314 -57.394199 -136.73416 0.047299538 146.55539
518497546.24387 -0.35375676 -176.23781 -56.967785 -138.55232 -57.470413 -139.10696 0.045455191 146.5062
518875047.18762 -0.35697824 -176.47517 -57.323124 -142.06725 -56.857044 -138.58119 0.045955084 146.47273
519252548.13137 -0.36076191 -176.67807 -56.799694 -141.07622 -57.455498 -140.65446 0.044785216 146.4353
519630049.07512 -0.36595327 -176.89188 -56.289597 -141.326 -57.464523 -139.84926 0.042786755 146.38144
520007550.01888 -0.36964583 -177.09514 -56.524876 -146.132 -56.965748 -143.3791 0.046571691 146.33875
520385050.96263 -0.37247556 -177.27054 -56.295803 -142.05753 -57.018879 -147.7697 0.048329554 146.30817
520762551.90638 -0.37640634 -177.47816 -56.492634 -142.72 -56.202644 -144.81062 0.049203683 146.25026
521140052.85013 -0.38016254 -177.68007 -56.237839 -147.69556 -56.805153 -146.08556 0.053149704 146.22079
521517553.79388 -0.38117331 -177.88654 -56.436012 -150.88538 -56.70364 -145.64224 0.052871998 146.19437
521895054.73764 -0.38386744 -178.10757 -56.111794 -145.73357 -56.070396 -143.81616 0.055044845 146.16774
522272555.68139 -0.38470784 -178.30247 -56.047871 -153.19093 -56.094421 -148.48978 0.054234214 146.1414
522650056.62514 -0.38634667 -178.51126 -55.918488 -147.46217 -56.542023 -148.27943 0.053853482 146.13794
523027557.56889 -0.38871884 -178.71385 -55.659035 -150.20551 -56.032516 -151.76889 0.054292403 146.1405
523405058.51265 -0.39299947 -178.9473 -56.04562 -151.18198 -55.661583 -148.88936 0.053772874 146.11719
523782559.4564 -0.39292678 -179.16481 -56.171017 -154.28738 -56.124958 -149.36125 0.050629485 146.08569
524160060.40015 -0.39949051 -179.37224 -56.023956 -153.27168 -56.110954 -151.79889 0.049730908 146.08075
524537561.3439 -0.40552902 -179.59895 -55.270935 -155.09445 -55.560276 -156.97504 0.049123462 146.05438
524915062.28766 -0.40839657 -179.83185 -55.983967 -154.19298 -55.693432 -156.69402 0.042956524 146.00455
525292563.23141 -0.41456154 179.95483 -56.076366 -157.78026 -55.290653 -153.78554 0.040973656 145.98851
525670064.17516 -0.4197022 179.72276 -55.003693 -158.43335 -54.920059 -161.39015 0.040720902 145.97429
526047565.11891 -0.42569524 179.51595 -55.90041 -161.1243 -55.572453 -158.51289 0.043359526 145.90891
526425066.06267 -0.4339906 179.28668 -55.305706 -162.71339 -55.102913 -162.96219 0.044635702 145.87117
526802567.00642 -0.44065967 179.0827 -55.181053 -161.286 -55.562336 -157.7534 0.041031193 145.82733
527180067.95017 -0.4468669 178.86613 -55.090828 -159.88507 -55.467731 -157.21851 0.042391442 145.80049
527557568.89392 -0.4552376 178.64207 -54.62505 -163.02472 -55.443871 -163.04327 0.040071793 145.76712
527935069.83767 -0.46110672 178.45097 -55.059013 -163.80055 -54.454811 -164.95044 0.044624209 145.73412
528312570.78143 -0.46657455 178.25223 -54.437542 -165.01553 -54.604015 -168.42119 0.04149662 145.68948
528690071.72518 -0.47347641 178.04126 -54.666534 -168.67767 -54.332008 -165.83876 0.046665356 145.65796
529067572.66893 -0.47991547 177.8279 -55.223755 -166.38695 -55.188419 -170.64772 0.043936525 145.63033
529445073.61268 -0.48390549 177.61325 -54.994747 -166.82433 -55.224564 -167.81203 0.044997562 145.58871
529822574.55644 -0.49200466 177.40067 -54.566986 -169.71381 -54.674335 -170.90842 0.044146899 145.59908
530200075.50019 -0.49704504 177.18422 -54.756512 -169.20715 -54.687424 -171.06836 0.044004288 145.57909
530577576.44394 -0.50237691 176.98035 -54.97319 -171.83344 -54.532372 -173.61952 0.041481931 145.54329
530955077.38769 -0.50807339 176.76639 -54.647232 -173.97697 -54.56126 -171.29324 0.039816558 145.52701
531332578.33145 -0.51353449 176.54848 -54.748619 -172.18201 -54.607296 -172.26018 0.037919424 145.52248
531710079.2752 -0.51871836 176.35283 -54.817921 -176.34894 -54.850498 -174.23441 0.035604708 145.49916
532087580.21895 -0.52235025 176.16093 -54.250675 -176.18454 -54.625671 -176.24156 0.037294693 145.47331
532465081.1627 -0.528283 175.9536 -54.898495 -178.53442 -55.028202 -179.11205 0.032489937 145.43286
532842582.10646 -0.52931368 175.75726 -54.857212 -177.77269 -54.478451 -179.39511 0.032377254 145.4075
533220083.05021 -0.53067958 175.55254 -54.15123 -178.46416 -54.816399 -178.40964 0.032317318 145.349
533597583.99396 -0.53503501 175.35106 -54.762501 -179.3831 -54.74118 -178.09955 0.032700662 145.29135
533975084.93771 -0.53539425 175.15776 -54.419472 177.11304 -54.877934 176.26132 0.033856075 145.26462
534352585.88146 -0.53910059 174.95189 -54.44194 177.48553 -54.354134 177.77715 0.036044683 145.22414
534730086.82522 -0.53815919 174.74663 -54.590019 177.20851 -54.682159 176.95128 0.035343897 145.18164
535107587.76897 -0.5409044 174.5394 -55.00309 174.11263 -54.33197 175.05354 0.038690463 145.13011
535485088.71272 -0.53712434 174.31734 -54.727959 177.40289 -54.130871 170.58769 0.041950785 145.08064
535862589.65647 -0.53887117 174.10541 -55.0075 174.39607 -54.76371 173.87396 0.044669986 145.07964
536240090.60023 -0.54269832 173.8902 -54.959839 172.50037 -54.647449 173.06189 0.044899113 145.03746
536617591.54398 -0.54422987 173.66638 -54.628471 170.00928 -54.421261 175.54823 0.046423726 145.0183
536995092.48773 -0.54604596 173.45982 -54.518326 167.96487 -54.086018 172.73964 0.045572888 144.99002
537372593.43148 -0.54666662 173.22984 -54.391708 171.10977 -54.883823 169.42525 0.047591418 144.97655
537750094.37524 -0.5499925 173.01193 -54.821594 173.00423 -55.238708 173.0569 0.043372408 144.95416
538127595.31899 -0.55202955 172.77913 -54.847076 168.655 -54.893822 170.77556 0.043835137 144.92957
538505096.26274 -0.55629438 172.55234 -54.908241 169.82028 -54.244167 170.34166 0.048893806 144.93654
538882597.20649 -0.55771273 172.32668 -54.48333 169.50879 -54.209785 170.94661 0.049392309 144.92552
539260098.15025 -0.55909687 172.10611 -54.366776 169.2307 -54.58992 171.00974 0.047955278 144.90007
539637599.094 -0.56223661 171.86954 -54.701653 165.75652 -54.58115 169.42827 0.048927683 144.88004
540015100.03775 -0.56477284 171.6257 -54.971138 168.59047 -55.117397 171.08554 0.048492946 144.869
540392600.9815 -0.56950295 171.38777 -54.578442 169.79115 -54.703735 167.33073 0.051732529 144.82706
540770101.92525 -0.57161695 171.14302 -54.734894 164.04977 -54.622562 165.96202 0.053255793 144.82089
541147602.86901 -0.57748711 170.91191 -54.306583 165.74574 -54.379753 165.1629 0.05560755 144.7795
541525103.81276 -0.58354712 170.67078 -54.594048 166.7634 -54.081676 167.54446 0.057021074 144.7532
541902604.75651 -0.58661419 170.41724 -54.581303 168.964 -54.367039 165.30096 0.055278625 144.70926
542280105.70026 -0.59212953 170.19542 -54.615303 163.55556 -54.030602 164.60983 0.057328988 144.68326
542657606.64402 -0.5946312 169.95802 -53.754776 163.14664 -54.029877 164.21086 0.055067223 144.64816
543035107.58777 -0.59552461 169.69037 -53.796913 165.02493 -53.680351 164.73431 0.054469947 144.61858
543412608.53152 -0.60192555 169.4507 -53.520355 161.28236 -53.835781 166.67809 0.05412874 144.57034
543790109.47527 -0.60671675 169.20891 -53.825027 161.54295 -53.981361 167.27525 0.050809562 144.53479
544167610.41903 -0.60932994 168.95731 -54.52182 158.7542 -54.108887 160.812 0.046196654 144.4906
544545111.36278 -0.6122126 168.69279 -53.858826 162.15727 -54.132698 160.3134 0.04336565 144.44867
544922612.30653 -0.61696178 168.44646 -53.865921 164.5921 -54.314163 160.43481 0.039677072 144.42323
545300113.25028 -0.61965865 168.17421 -54.201588 160.76787 -54.230339 161.12761 0.041053839 144.39731
545677614.19404 -0.62468386 167.91348 -53.849392 160.49767 -54.112888 159.65263 0.036619339 144.36586
546055115.13779 -0.62989128 167.65514 -53.79443 163.08492 -54.661312 158.78348 0.03440427 144.31009
546432616.08154 -0.63129288 167.37347 -53.828724 159.76395 -54.285275 159.26976 0.030927435 144.29381
546810117.02529 -0.63588017 167.10907 -53.769741 164.35896 -53.902122 159.75777 0.034430694 144.25481
547187617.96904 -0.64471692 166.8405 -53.575123 161.37047 -53.61718 161.62924 0.03170627 144.22754
547565118.9128 -0.65042686 166.5885 -53.486378 159.90771 -53.294884 160.83545 0.034471616 144.17336
547942619.85655 -0.65948766 166.30452 -53.320396 159.67282 -53.026905 158.6452 0.034261975 144.11061
548320120.8003 -0.66601825 166.03011 -53.264755 161.31255 -53.330734 159.25682 0.036872044 144.07004
548697621.74405 -0.67545372 165.76105 -52.815426 161.26909 -52.896896 156.14673 0.037286356 144.03961
549075122.68781 -0.68470782 165.52519 -52.992481 160.88573 -52.784431 159.1154 0.035894774 143.99921
549452623.63156 -0.69491112 165.27293 -52.715611 160.19525 -52.545277 159.48149 0.039286885 143.94673
549830124.57531 -0.70370686 165.00929 -53.196857 157.14716 -52.818001 156.81261 0.038331445 143.91942
550207625.51906 -0.71472514 164.77559 -52.430157 159.39714 -52.467735 158.05347 0.037257008 143.87021
550585126.46282 -0.72465807 164.53455 -52.208878 155.54062 -52.289211 155.67014 0.034625739 143.83179
550962627.40657 -0.73722249 164.29095 -52.469776 156.71513 -52.28429 153.10475 0.034958672 143.79793
551340128.35032 -0.7471866 164.05258 -52.072029 153.92101 -52.050465 153.74702 0.033665054 143.76935
551717629.29407 -0.75765359 163.8252 -51.831417 154.51683 -52.335018 149.11946 0.035788432 143.75061
552095130.23783 -0.76903659 163.59517 -51.739021 150.52913 -52.170612 151.09344 0.036155254 143.71718
552472631.18158 -0.7817747 163.37175 -51.673283 150.83646 -51.87484 149.74484 0.034294147 143.7002
552850132.12533 -0.79020274 163.1366 -51.61726 150.08711 -51.613235 150.1129 0.035752177 143.67569
553227633.06908 -0.79787588 162.90463 -51.663101 147.12755 -51.786495 149.06615 0.036352694 143.6595
553605134.01284 -0.80956995 162.68648 -51.919453 147.43687 -51.644154 147.9088 0.039492443 143.62372
553982634.95659 -0.82007092 162.44337 -51.710785 143.5925 -51.802845 144.47986 0.042666245 143.64046
554360135.90034 -0.8291434 162.21445 -51.41909 145.73299 -51.402126 145.68288 0.049031015 143.61072
554737636.84409 -0.84215963 161.98251 -51.327316 146.07063 -51.037163 144.37868 0.050952654 143.59885
555115137.78784 -0.85261458 161.73788 -51.395306 144.72609 -51.428734 146.13206 0.05730281 143.57445
555492638.7316 -0.86373103 161.49677 -51.598 142.64645 -51.248516 143.36862 0.063065603 143.55219
555870139.67535 -0.8759473 161.27264 -51.429699 142.07335 -51.198376 142.0817 0.062118474 143.55072
556247640.6191 -0.88718718 161.05592 -51.272079 142.76054 -51.19326 140.71242 0.070336714 143.51535
556625141.56285 -0.90005708 160.83394 -51.394108 141.3243 -51.120705 140.10246 0.067752294 143.50053
557002642.50661 -0.90997225 160.60452 -51.011204 137.49406 -50.923878 139.60016 0.068059117 143.47517
557380143.45036 -0.92275214 160.39575 -50.800915 137.36578 -50.810833 140.03677 0.066546686 143.44418
557757644.39411 -0.93309832 160.1787 -50.679348 139.00703 -50.947559 138.40942 0.066615827 143.44662
558135145.33786 -0.94430411 159.9749 -50.633297 135.43251 -50.7365 136.11577 0.063509785 143.39746
558512646.28162 -0.9549368 159.75409 -50.614334 135.24199 -50.792526 136.21439 0.056857124 143.37614
558890147.22537 -0.96403748 159.55353 -50.348938 136.49139 -50.697784 134.35745 0.055140086 143.34334
559267648.16912 -0.97115391 159.37144 -50.680843 131.58568 -50.515694 134.77023 0.050415907 143.31715
559645149.11287 -0.97985232 159.18372 -50.153236 133.65094 -50.181141 133.79083 0.048118208 143.26501
560022650.05663 -0.98569137 158.99744 -50.304588 130.79076 -50.451111 132.51817 0.045420486 143.23042
560400151.00038 -0.99078608 158.79828 -50.170734 128.21349 -49.937191 130.59839 0.049092222 143.19272
560777651.94413 -0.9922834 158.61237 -50.219601 130.0403 -50.056442 127.82216 0.045008261 143.14844
561155152.88788 -0.99581134 158.42271 -49.931812 127.56618 -50.011803 128.40034 0.044503681 143.12813
561532653.83163 -0.99639964 158.24579 -50.102634 127.6312 -50.244724 126.03377 0.049398564 143.07733
561910154.77539 -0.99437672 158.04677 -50.335335 125.85598 -49.935959 125.48042 0.048564125 143.05608
562287655.71914 -0.99313372 157.82651 -49.884445 124.02522 -50.071232 123.93683 0.050928596 143.0161
562665156.66289 -0.98925257 157.61119 -49.852066 122.28917 -49.650578 121.89361 0.05627051 142.98302
563042657.60664 -0.98400193 157.38783 -49.76828 120.91888 -50.151627 121.03415 0.056777932 142.96925
563420158.5504 -0.97873306 157.17093 -49.547672 120.0516 -49.685394 120.44296 0.059360456 142.93405
563797659.49415 -0.97613627 156.95258 -49.65332 120.49918 -49.928902 117.76254 0.058002651 142.89812
564175160.4379 -0.97408772 156.69868 -49.807735 119.99174 -49.782017 117.39989 0.057636358 142.88133
564552661.38165 -0.96859348 156.43423 -50.090485 117.9551 -50.056583 118.1183 0.054604072 142.85641
564930162.32541 -0.96582872 156.17905 -50.204987 116.62399 -50.032726 114.20667 0.05404577 142.81538
565307663.26916 -0.96271122 155.89622 -50.203972 114.84362 -50.264633 114.71906 0.052148268 142.78685
565685164.21291 -0.9575243 155.58887 -50.452972 115.26461 -50.196987 114.884 0.045285597 142.74612
566062665.15666 -0.9548533 155.28915 -50.354736 113.55207 -50.212421 113.3898 0.042930391 142.7077
566440166.10042 -0.95558977 154.98143 -50.430748 114.08489 -50.319641 111.83118 0.039593454 142.70383
566817667.04417 -0.95601952 154.65343 -50.147728 114.38066 -50.256344 112.73344 0.037927259 142.6546
567195167.98792 -0.96566695 154.32234 -49.99881 112.00507 -50.118214 113.94794 0.034197647 142.59673
567572668.93167 -0.97218192 154.01718 -50.392593 112.8375 -50.242462 111.06019 0.034253404 142.5618
567950169.87542 -0.98141038 153.70943 -50.442307 112.71983 -50.116158 113.50819 0.03289865 142.52853
568327670.81918 -0.99110305 153.42894 -50.27396 113.56216 -50.124413 113.01271 0.036332395 142.49159
568705171.76293 -1.0004359 153.14143 -49.802814 112.28243 -49.858917 111.96768 0.043024939 142.42865
569082672.70668 -1.0061777 152.86578 -49.781292 111.08112 -50.325905 112.70574 0.044188287 142.39203
569460173.65043 -1.01424 152.58424 -50.233372 111.40713 -49.62447 110.5687 0.048097335 142.34737
569837674.59419 -1.0177416 152.29124 -49.641357 112.3457 -49.79665 109.6701 0.048156705 142.32283
570215175.53794 -1.0254453 151.98624 -49.768044 109.81232 -49.7771 108.55153 0.054126713 142.30602
570592676.48169 -1.0341769 151.66412 -49.477325 109.161 -49.92527 108.37348 0.057509929 142.26413
570970177.42544 -1.040247 151.3578 -49.811817 107.14519 -49.655777 107.33807 0.059081756 142.25229
571347678.3692 -1.0488727 151.03073 -49.400936 108.26594 -49.610493 106.68361 0.061496336 142.23984
571725179.31295 -1.0569885 150.73399 -49.782158 106.64362 -49.407425 106.54549 0.060657341 142.21187
572102680.2567 -1.0672845 150.41573 -49.383934 105.14753 -49.319935 106.14249 0.062962711 142.21696
572480181.20045 -1.0778306 150.09207 -49.326229 105.49552 -49.626019 104.0744 0.06159915 142.20924
