!Keysight Technologies,N5242B,MY48420860,A.13.80.08
!Date: Saturday, September 26, 2020 13:06:16
!Correction: S11(Full 2 Port(1,2)) 
!S21(Full 2 Port(1,2)) 
!S12(Full 2 Port(1,2)) 
!S22(Full 2 Port(1,2)) 
!S2P File: Measurements: S11, S21, S12, S22:
# Hz S  dB   R 50
500000000 -0.23129459 -166.17776 -63.045414 155.64519 -63.027317 145.81458 0.054241035 147.75696
500377500.94375 -0.23305404 -166.36343 -62.83054 147.88583 -62.299805 143.35104 0.0531587 147.75467
500755001.8875 -0.23849504 -166.5658 -61.980198 149.80803 -62.425541 145.86787 0.054054312 147.78152
501132502.83126 -0.24284272 -166.77423 -61.710571 152.97681 -62.819977 142.54176 0.05178187 147.79947
501510003.77501 -0.24446547 -166.98453 -62.62566 130.9704 -63.075317 147.74486 0.046879664 147.79813
501887504.71876 -0.24675721 -167.17628 -62.827099 144.12114 -62.237225 142.95416 0.04157614 147.80743
502265005.66251 -0.24955806 -167.38014 -63.25415 149.25029 -63.178108 139.97574 0.035857424 147.76942
502642506.60627 -0.25522456 -167.59343 -61.75576 143.43062 -62.188347 150.74883 0.029194444 147.74237
503020007.55002 -0.25751176 -167.78966 -61.670422 137.98947 -62.051792 143.99068 0.025008185 147.69753
503397508.49377 -0.26286909 -167.98033 -61.832397 147.97659 -61.074078 145.16748 0.022877052 147.63174
503775009.43752 -0.26335686 -168.17256 -62.107414 148.3873 -61.694542 144.02696 0.017051341 147.55551
504152510.38128 -0.26663703 -168.36792 -61.875664 137.33469 -62.45813 144.18628 0.020250052 147.49968
504530011.32503 -0.27003831 -168.55692 -60.732151 140.4761 -61.964985 141.33177 0.022530524 147.43874
504907512.26878 -0.27297887 -168.74416 -61.302589 143.79126 -60.992714 140.41057 0.028283922 147.38412
505285013.21253 -0.27332753 -168.93214 -60.713474 136.31976 -62.724365 132.83835 0.035590157 147.36072
505662514.15629 -0.27306408 -169.11856 -61.254326 136.56657 -61.424892 136.93454 0.042928651 147.32971
506040015.10004 -0.27344537 -169.29915 -60.974758 127.53734 -59.998444 133.81548 0.047897477 147.28542
506417516.04379 -0.27781534 -169.49011 -59.944904 125.97726 -61.848866 131.25304 0.052999053 147.29446
506795016.98754 -0.27113584 -169.68097 -61.797318 126.61304 -62.404789 129.96973 0.062155809 147.3064
507172517.93129 -0.27100793 -169.86716 -61.528976 127.4334 -59.818764 128.8837 0.06328623 147.28387
507550018.87505 -0.27134588 -170.08211 -61.072792 132 -61.413624 131.3004 0.065296136 147.32353
507927519.8188 -0.2698392 -170.28091 -60.749763 129.52869 -61.020618 128.15511 0.061762281 147.32678
508305020.76255 -0.27172238 -170.47238 -61.256447 128.45337 -61.586029 126.66615 0.06177238 147.34412
508682521.7063 -0.26993373 -170.68204 -61.393501 139.71909 -60.863483 131.06598 0.05400911 147.34879
509060022.65006 -0.26937541 -170.88899 -61.583969 129.49091 -61.552193 117.60516 0.048303712 147.32576
509437523.59381 -0.26953387 -171.08372 -60.226414 129.12709 -61.221066 125.15363 0.042264335 147.31485
509815024.53756 -0.27068526 -171.28441 -60.41663 118.01308 -60.408474 125.81277 0.03498093 147.29102
510192525.48131 -0.27102315 -171.48381 -61.675968 127.66838 -61.419258 116.40436 0.02394324 147.20627
510570026.42507 -0.27311018 -171.69536 -61.42659 122.8908 -60.573524 120.27074 0.017460924 147.15385
510947527.36882 -0.27391955 -171.89427 -60.269043 113.78587 -61.18898 121.1553 0.014016726 147.07228
511325028.31257 -0.27640203 -172.10721 -61.253899 121.76188 -60.365688 124.30418 0.011643717 146.99646
511702529.25632 -0.27757904 -172.3288 -60.187218 118.42089 -60.630276 115.52989 0.012402539 146.91162
512080030.20008 -0.27765715 -172.52971 -59.863598 112.67973 -60.736012 108.43315 0.013428169 146.82832
512457531.14383 -0.27820069 -172.74356 -61.088085 112.56528 -60.684769 117.78316 0.019042032 146.75771
512835032.08758 -0.28146699 -172.97264 -60.990353 109.90234 -60.284256 117.73911 0.023043355 146.71947
513212533.03133 -0.28387025 -173.17657 -61.172363 117.12504 -59.946678 119.7346 0.030105678 146.66388
513590033.97508 -0.28768465 -173.40392 -61.477932 106.74996 -60.872498 116.85677 0.037557576 146.62576
513967534.91884 -0.29133841 -173.61925 -60.159592 115.41413 -61.046776 118.48862 0.042864166 146.59871
514345035.86259 -0.29423812 -173.83722 -60.137638 107.48619 -60.283966 110.19589 0.049878884 146.60362
514722536.80634 -0.29585037 -174.05731 -60.072517 112.72506 -60.706722 105.66933 0.054375976 146.63602
515100037.75009 -0.29901299 -174.29269 -60.837105 119.40665 -60.632835 114.92128 0.056657858 146.63657
515477538.69385 -0.30145726 -174.50377 -60.196136 104.20891 -59.894066 112.57805 0.055685412 146.66908
515855039.6376 -0.30601153 -174.73277 -59.749718 111.0426 -60.023445 109.04498 0.05544509 146.69202
516232540.58135 -0.30867139 -174.96101 -60.040543 110.88496 -60.101292 105.79933 0.051512089 146.69312
516610041.5251 -0.31297547 -175.17899 -60.030159 111.61068 -59.211674 118.89388 0.050344568 146.67442
516987542.46886 -0.31532943 -175.40074 -61.49781 109.53749 -59.434238 107.80428 0.043712176 146.67342
517365043.41261 -0.31607363 -175.63248 -60.157032 108.79362 -59.76318 104.93283 0.037784725 146.64963
517742544.35636 -0.32257032 -175.85332 -59.747074 106.01313 -59.648975 116.08058 0.036942802 146.62373
518120045.30011 -0.32642868 -176.07788 -58.984528 108.71736 -59.024178 104.99329 0.032692857 146.54985
518497546.24387 -0.33124715 -176.30171 -59.571144 111.81392 -59.812748 109.19736 0.030835561 146.49748
518875047.18762 -0.33807254 -176.51749 -60.116337 105.96319 -59.217121 107.90721 0.030322403 146.43594
519252548.13137 -0.34049746 -176.72267 -59.390472 107.77302 -59.130184 105.46491 0.03192408 146.37268
519630049.07512 -0.34745562 -176.9463 -59.60001 106.05761 -59.348309 106.50715 0.03283862 146.30412
520007550.01888 -0.35026282 -177.15015 -59.650383 107.00242 -59.290676 103.8393 0.039500181 146.241
520385050.96263 -0.35369295 -177.33727 -59.430588 102.18472 -58.413254 99.688568 0.043632969 146.19945
520762551.90638 -0.35640216 -177.55135 -59.355782 99.500725 -59.520473 102.61989 0.047087785 146.14719
521140052.85013 -0.3608537 -177.75778 -58.095032 99.126091 -59.244942 95.318253 0.05559276 146.10155
521517553.79388 -0.35931614 -177.98326 -59.003098 96.626976 -59.58046 100.96792 0.056418799 146.08086
521895054.73764 -0.36440349 -178.18115 -59.381474 98.948982 -58.609303 92.09774 0.05760514 146.07382
522272555.68139 -0.36684656 -178.39383 -58.341965 100.06445 -58.467648 100.66188 0.058584753 146.07841
522650056.62514 -0.36637971 -178.61668 -59.134811 99.836273 -58.408203 96.995255 0.056219641 146.08275
523027557.56889 -0.3723115 -178.82114 -58.33284 94.39537 -58.864944 93.654854 0.055638216 146.09129
523405058.51265 -0.37541604 -179.06245 -59.42627 96.404152 -59.19833 98.945496 0.052215695 146.08562
523782559.4564 -0.37754956 -179.26358 -59.087101 94.058655 -59.298428 90.811104 0.049459472 146.08243
524160060.40015 -0.38249585 -179.47856 -59.031883 90.910454 -59.057255 90.903191 0.040845308 146.08914
524537561.3439 -0.38927335 -179.71487 -59.589783 93.996063 -59.038387 95.718193 0.040470716 146.0648
524915062.28766 -0.39446175 -179.94606 -58.916054 89.065392 -58.447407 90.825188 0.034507874 146.02074
525292563.23141 -0.39933217 179.83574 -57.890507 92.303993 -58.516029 93.145439 0.030073207 146.01262
525670064.17516 -0.40685436 179.59943 -57.892128 89.978043 -58.325722 88.951332 0.030109886 145.95731
526047565.11891 -0.41288388 179.37997 -58.269127 90.626076 -58.605995 94.683975 0.032950386 145.90564
526425066.06267 -0.42081562 179.15407 -58.378345 88.583214 -57.56934 91.58036 0.032748509 145.82561
526802567.00642 -0.42961004 178.94971 -57.273861 88.738159 -58.232224 90.861389 0.02937611 145.77284
527180067.95017 -0.4358882 178.72192 -57.759827 85.490135 -58.997101 93.590027 0.035771642 145.71819
527557568.89392 -0.44529593 178.52003 -57.078751 88.167755 -57.79044 88.478539 0.035264112 145.67091
527935069.83767 -0.45025992 178.30156 -58.23177 89.372299 -58.069992 86.976959 0.04016944 145.62483
528312570.78143 -0.45574269 178.09589 -57.973408 91.367836 -57.515759 91.57991 0.040706292 145.58232
528690071.72518 -0.4655818 177.87909 -57.648079 87.252083 -57.12949 86.897873 0.042538978 145.55489
529067572.66893 -0.4727827 177.66637 -57.886997 85.950623 -57.427155 90.554588 0.043548148 145.51006
529445073.61268 -0.47699252 177.4558 -57.335026 88.272781 -57.220497 85.710655 0.043218259 145.49631
529822574.55644 -0.48456964 177.24316 -57.649395 78.735863 -56.651459 85.784843 0.043069869 145.48024
530200075.50019 -0.4908624 177.02698 -57.141262 84.899475 -56.641106 81.448753 0.039453693 145.49564
530577576.44394 -0.49981198 176.81786 -55.990582 81.973663 -56.899158 84.03035 0.036103211 145.48366
530955077.38769 -0.50415617 176.60692 -56.758289 82.782379 -56.646973 85.280045 0.034725927 145.46516
531332578.33145 -0.51054192 176.38557 -56.455296 75.226738 -56.827717 82.050339 0.030487845 145.47462
531710079.2752 -0.51516533 176.18434 -56.648464 78.569717 -56.193695 80.446663 0.027843744 145.45995
532087580.21895 -0.51864839 175.98802 -57.20369 77.004509 -56.492538 77.671379 0.027875407 145.4574
532465081.1627 -0.5269509 175.79912 -56.360184 77.183922 -56.469662 80.993279 0.022875525 145.4257
532842582.10646 -0.52967554 175.5768 -56.676105 79.881752 -56.164768 75.270683 0.025382608 145.39754
533220083.05021 -0.53044152 175.37222 -56.258492 75.988892 -56.604725 74.852196 0.023957688 145.35056
533597583.99396 -0.5359143 175.18079 -56.737534 72.215836 -55.867786 70.479897 0.027283536 145.27736
533975084.93771 -0.53789574 174.98755 -56.179111 72.156189 -57.042828 71.787888 0.025845876 145.22594
534352585.88146 -0.54168981 174.76099 -56.109146 73.96183 -56.364426 70.914566 0.029152093 145.18411
534730086.82522 -0.54495746 174.56952 -55.873356 73.101601 -56.235855 67.928177 0.029897401 145.12234
535107587.76897 -0.54612601 174.36052 -55.904747 73.066315 -55.930279 70.710014 0.032713454 145.06297
535485088.71272 -0.54568923 174.15694 -55.994419 67.984749 -56.181789 69.38652 0.036895692 144.98962
535862589.65647 -0.54912508 173.94872 -55.566357 64.100311 -55.944813 69.845627 0.038742792 144.97827
536240090.60023 -0.55477482 173.73096 -55.428848 64.297516 -55.213501 66.865837 0.037898563 144.92215
536617591.54398 -0.5576753 173.52602 -55.68317 71.853676 -55.25745 66.215424 0.040895928 144.89706
536995092.48773 -0.55823332 173.32018 -55.208855 65.800308 -55.664177 63.766285 0.038003668 144.86598
537372593.43148 -0.5611251 173.10089 -55.934383 63.756287 -55.011974 61.50211 0.040629569 144.85329
537750094.37524 -0.56404579 172.90375 -55.296299 67.340347 -56.01741 60.412403 0.035003856 144.83485
538127595.31899 -0.56649452 172.68988 -55.872715 60.037567 -55.441006 62.345844 0.035541818 144.8228
538505096.26274 -0.56732047 172.47552 -54.878872 58.821426 -55.646667 66.047592 0.03752825 144.83543
538882597.20649 -0.57047147 172.26744 -55.893627 58.600761 -55.586655 63.116631 0.042107891 144.84045
539260098.15025 -0.57099432 172.0405 -55.613316 58.115574 -54.936153 61.633156 0.038167682 144.83041
539637599.094 -0.57154053 171.81241 -55.044098 59.499054 -55.320831 57.321789 0.043561254 144.82913
540015100.03775 -0.57257926 171.5834 -55.312878 57.07513 -55.274586 55.269756 0.042843249 144.83524
540392600.9815 -0.57406795 171.34248 -55.495693 56.000034 -54.906094 54.113487 0.047650106 144.80968
540770101.92525 -0.57607925 171.09268 -54.890701 55.064327 -54.68718 55.537281 0.049034778 144.79036
541147602.86901 -0.57924473 170.86307 -55.103622 55.947971 -55.208397 55.847633 0.05344782 144.76683
541525103.81276 -0.58170247 170.61829 -54.545555 50.904694 -54.154709 54.039921 0.056445476 144.74028
541902604.75651 -0.58259887 170.36133 -53.991188 54.049095 -54.646446 53.263428 0.055588722 144.68547
542280105.70026 -0.5899455 170.10904 -54.358265 50.355949 -54.474407 51.748775 0.057555452 144.64294
542657606.64402 -0.59016401 169.85918 -54.103512 49.217529 -54.852917 52.106583 0.054291427 144.59717
543035107.58777 -0.59259385 169.59474 -54.270508 46.729977 -54.752872 47.454441 0.049528483 144.55222
543412608.53152 -0.59746301 169.3399 -54.447838 47.508835 -54.175343 50.885677 0.048450436 144.49292
543790109.47527 -0.60249126 169.07829 -54.897301 48.55209 -54.549091 46.10627 0.045020331 144.42992
544167610.41903 -0.60556692 168.82394 -54.822891 48.541313 -54.215485 43.465286 0.040871475 144.37512
544545111.36278 -0.60920572 168.55359 -54.725822 43.363888 -54.141972 45.965515 0.033529676 144.31818
544922612.30653 -0.61303222 168.29982 -53.882107 42.97348 -54.35746 43.152786 0.030473979 144.29158
545300113.25028 -0.61589313 168.01917 -54.317226 45.412968 -54.092285 40.832943 0.029833067 144.26012
545677614.19404 -0.62074226 167.745 -54.489616 41.730446 -53.854122 41.950676 0.025520608 144.23711
546055115.13779 -0.62541533 167.47198 -54.513653 39.593231 -54.45583 43.529766 0.025504299 144.18225
546432616.08154 -0.62889987 167.19449 -54.143112 37.148296 -53.734459 40.684765 0.022228675 144.19116
546810117.02529 -0.63474983 166.91034 -54.275143 40.855568 -54.574642 38.648979 0.027878545 144.17075
547187617.96904 -0.63934731 166.61356 -54.232227 40.198261 -53.895054 40.711224 0.027623011 144.1468
547565118.9128 -0.64802414 166.36086 -53.784576 40.259205 -54.819607 37.655563 0.031244151 144.11438
547942619.85655 -0.65693778 166.05823 -53.695992 39.957939 -54.196892 36.415077 0.034900118 144.08267
548320120.8003 -0.66681725 165.7675 -54.25214 38.874073 -53.798733 35.345234 0.038253248 144.05527
548697621.74405 -0.67602539 165.48085 -54.185268 39.969265 -54.144291 36.862122 0.040606681 144.01669
549075122.68781 -0.68695515 165.22618 -53.885727 39.818253 -54.130856 34.912464 0.038001314 143.97913
549452623.63156 -0.70138639 164.95406 -53.112297 35.250713 -53.763519 33.656651 0.041175805 143.92711
549830124.57531 -0.71530259 164.69923 -54.023861 31.318171 -54.186192 35.170326 0.040531196 143.88432
550207625.51906 -0.72789353 164.43636 -53.847351 34.994549 -52.993286 32.922741 0.035519972 143.82204
550585126.46282 -0.74024004 164.18275 -53.389702 30.123367 -53.187588 30.641506 0.033303026 143.77449
550962627.40657 -0.75423199 163.94518 -53.352993 32.275414 -53.660503 33.14373 0.029352259 143.73048
551340128.35032 -0.77048379 163.69911 -52.754505 29.485268 -52.935223 29.986399 0.02409783 143.68167
551717629.29407 -0.78397775 163.45415 -53.154568 25.621368 -52.88446 29.640951 0.023350997 143.63565
552095130.23783 -0.79829431 163.23788 -52.859612 28.022121 -52.960327 32.312469 0.022779102 143.57875
552472631.18158 -0.81534374 163.00783 -52.67421 27.946424 -52.649666 25.957439 0.020721629 143.54268
552850132.12533 -0.82745439 162.79437 -53.279121 27.634327 -52.733284 23.774107 0.02336375 143.51762
553227633.06908 -0.83787376 162.55983 -52.37743 26.755537 -52.901756 23.766657 0.026032103 143.50711
553605134.01284 -0.85381782 162.34521 -52.814327 23.429731 -52.583778 22.73551 0.031849902 143.48364
553982634.95659 -0.864398 162.10785 -53.129032 23.391535 -52.884785 22.682816 0.036454197 143.49496
554360135.90034 -0.87879992 161.88681 -52.886219 21.322199 -52.782173 22.06859 0.043132663 143.52032
554737636.84409 -0.89382982 161.66389 -52.448456 20.153791 -52.699936 19.728703 0.052597016 143.52014
555115137.78784 -0.90871859 161.43892 -52.35778 20.317339 -52.650681 18.369022 0.05803768 143.50728
555492638.7316 -0.92303902 161.19936 -52.393078 17.809996 -52.631908 16.19171 0.067121916 143.50723
555870139.67535 -0.93857789 160.99969 -52.545845 15.344393 -52.663013 18.875362 0.067290016 143.53514
556247640.6191 -0.95387036 160.78976 -52.615448 19.525845 -52.139702 15.089827 0.074126564 143.50897
556625141.56285 -0.96943706 160.56879 -52.356857 15.772614 -52.282959 16.367666 0.072479144 143.49521
557002642.50661 -0.98337895 160.37207 -52.128098 16.002893 -52.493961 11.950466 0.069268309 143.47081
557380143.45036 -0.99629205 160.1747 -52.448429 14.012127 -52.468998 14.651813 0.065221325 143.45532
557757644.39411 -1.0115144 159.99483 -51.983932 11.345237 -51.974636 13.821289 0.061483297 143.42148
558135145.33786 -1.0230958 159.8102 -52.077019 9.1975822 -51.907692 11.676508 0.05290198 143.35509
558512646.28162 -1.03592 159.61601 -51.838596 9.0018988 -51.867409 7.4444237 0.045929372 143.31047
558890147.22537 -1.0467124 159.4299 -51.322102 6.4467359 -51.914368 5.0225658 0.036425397 143.25362
559267648.16912 -1.054576 159.27344 -51.777901 6.7887158 -51.943291 7.473465 0.03278926 143.19043
559645149.11287 -1.0630903 159.11583 -51.939899 3.8404622 -51.959686 5.9827452 0.028031992 143.12097
560022650.05663 -1.0700912 158.94734 -51.955669 5.0078478 -51.910343 1.4754542 0.02599613 143.07217
560400151.00038 -1.0741185 158.77165 -51.411472 -0.3221105 -51.894062 3.0517025 0.028310243 143.02118
560777651.94413 -1.0764142 158.61339 -51.785526 -1.3719736 -51.841263 0.7579965 0.02879424 142.97743
561155152.88788 -1.0805699 158.43863 -51.781139 -0.34893331 -51.913231 1.5445864 0.031787459 142.95404
561532653.83163 -1.0815287 158.28352 -52.036854 0.69367677 -51.888195 -4.855823 0.039946247 142.91389
561910154.77539 -1.0779407 158.11424 -51.643112 -5.1167941 -52.058701 -2.0832167 0.044172201 142.91281
562287655.71914 -1.0747805 157.92255 -51.9995 -3.4203241 -51.952404 -3.7163956 0.051044188 142.89891
562665156.66289 -1.0723913 157.73112 -51.77607 -4.4252939 -51.665962 -3.8798394 0.057091422 142.89827
563042657.60664 -1.0648317 157.52147 -52.181625 -5.7233896 -52.135727 -8.2271433 0.059633505 142.91315
563420158.5504 -1.0589701 157.31841 -52.095104 -9.5828085 -51.813679 -6.2864432 0.063093156 142.9023
563797659.49415 -1.0539871 157.10736 -52.269409 -4.4103508 -51.892197 -8.7042847 0.063058197 142.88206
564175160.4379 -1.0464239 156.87764 -52.201241 -8.1763067 -52.116253 -8.6236343 0.061490711 142.8907
564552661.38165 -1.0397531 156.62019 -52.555874 -11.665348 -52.254002 -9.8886871 0.054811858 142.86707
564930162.32541 -1.0351582 156.3633 -51.800232 -10.206615 -52.522972 -10.825 0.049591996 142.83257
565307663.26916 -1.028572 156.08669 -52.681087 -11.842574 -52.374233 -11.917986 0.043042053 142.78584
565685164.21291 -1.022549 155.78658 -52.532169 -11.032096 -52.542938 -13.614579 0.034063503 142.72572
566062665.15666 -1.0191566 155.47755 -52.523602 -10.77575 -52.505798 -11.573511 0.027190858 142.66869
566440166.10042 -1.0195616 155.15962 -52.569187 -10.283094 -53.048485 -10.926379 0.021016959 142.63048
566817667.04417 -1.0215706 154.83276 -52.296467 -9.7255363 -52.555218 -10.837633 0.017699763 142.54272
567195167.98792 -1.0304679 154.5098 -52.463318 -7.8806791 -52.838314 -8.6727724 0.012522232 142.47795
567572668.93167 -1.0382048 154.2021 -52.745628 -9.8679361 -52.324226 -8.6456738 0.013396283 142.41681
567950169.87542 -1.0487916 153.90613 -52.466572 -11.985963 -52.195438 -10.18163 0.015010755 142.36244
568327670.81918 -1.0586715 153.617 -52.015591 -6.5416493 -52.568535 -11.284884 0.021226756 142.32799
568705171.76293 -1.0698961 153.34207 -52.172245 -10.227954 -52.156578 -10.640692 0.030162159 142.27695
569082672.70668 -1.0756729 153.08636 -51.724819 -13.274857 -52.004921 -9.9361258 0.038632259 142.25018
569460173.65043 -1.0862247 152.80127 -51.639427 -11.686352 -51.849442 -11.415935 0.046730526 142.23012
569837674.59419 -1.0889047 152.51988 -51.875153 -12.093666 -51.679222 -13.984415 0.051868401 142.23164
570215175.53794 -1.0961707 152.2316 -51.08083 -13.839534 -51.743736 -12.720667 0.059912171 142.2428
570592676.48169 -1.1053123 151.91855 -51.608051 -14.512916 -51.685589 -14.961923 0.066781893 142.24213
570970177.42544 -1.1121248 151.60873 -51.507019 -15.969136 -51.278656 -16.393801 0.068262927 142.24826
571347678.3692 -1.1220623 151.2999 -51.136036 -16.195013 -51.25816 -15.973722 0.068555646 142.25777
571725179.31295 -1.1317774 151.00494 -51.286392 -17.132357 -51.37952 -18.577711 0.066818371 142.2491
572102680.2567 -1.1421216 150.69731 -51.041332 -16.803738 -51.008965 -18.631914 0.064980842 142.25247
572480181.20045 -1.1523019 150.39203 -51.348083 -17.575098 -50.779469 -17.902863 0.060982898 142.24918
572857682.14421 -1.1636997 150.09625 -50.749657 -19.312044 -50.987164 -18.11146 0.053203546 142.20195
