!Keysight Technologies,N5242B,MY48420860,A.13.80.08
!Date: Saturday, September 26, 2020 13:22:18
!Correction: S11(Full 2 Port(1,2)) 
!S21(Full 2 Port(1,2)) 
!S12(Full 2 Port(1,2)) 
!S22(Full 2 Port(1,2)) 
!S2P File: Measurements: S11, S21, S12, S22:
# Hz S  dB   R 50
500000000 -0.23891704 -166.16797 -63.609287 48.95343 -65.114594 47.175785 -0.0082851332 147.53816
500377500.94375 -0.24232355 -166.35719 -63.600239 45.200947 -65.109764 49.88332 -0.00363062 147.51752
500755001.8875 -0.24637051 -166.55743 -64.997284 62.484299 -64.438774 46.178982 -0.0017248405 147.53693
501132502.83126 -0.25078321 -166.76524 -64.194099 36.597523 -64.149246 41.345276 0.00097266695 147.52693
501510003.77501 -0.25256214 -166.96445 -63.793941 42.013824 -63.355118 48.360214 0.0035402465 147.52444
501887504.71876 -0.2561093 -167.15805 -63.732262 49.296753 -64.183189 45.710831 0.0037161703 147.52917
502265005.66251 -0.25720143 -167.37032 -63.139057 46.167065 -64.575951 43.393761 0.0021025208 147.51457
502642506.60627 -0.26362634 -167.57677 -64.193016 34.223228 -64.257629 45.728134 0.0012974981 147.50044
503020007.55002 -0.26406562 -167.75864 -63.543404 57.097092 -64.221527 36.299473 0.0012770795 147.48689
503397508.49377 -0.27103871 -167.96449 -64.37674 53.819466 -62.225388 47.275654 -0.00020803069 147.44487
503775009.43752 -0.27035245 -168.15692 -63.654026 36.234325 -63.360271 40.579105 -0.0029234639 147.40425
504152510.38128 -0.2749455 -168.34879 -62.982334 34.222191 -64.547859 32.667332 -0.00053089572 147.3822
504530011.32503 -0.27523944 -168.54018 -64.18734 49.705097 -62.691673 34.800903 0.0015828928 147.34195
504907512.26878 -0.27809653 -168.72043 -63.390362 40.97168 -62.943905 29.18017 0.0042036795 147.30289
505285013.21253 -0.2798287 -168.90883 -63.394268 30.332226 -62.80661 27.423233 0.0068586986 147.29585
505662514.15629 -0.27871129 -169.09813 -62.466805 33.149925 -64.077621 39.312775 0.011171653 147.26254
506040015.10004 -0.27956674 -169.27612 -62.889866 33.855583 -62.911186 34.792778 0.014458288 147.2309
506417516.04379 -0.28163791 -169.47685 -62.494949 36.473843 -62.725368 40.656128 0.017449994 147.2236
506795016.98754 -0.27747044 -169.65196 -64.352638 18.179516 -62.912754 22.499046 0.025264323 147.21739
507172517.93129 -0.27843976 -169.84888 -64.115219 20.335543 -62.842369 30.934303 0.027128167 147.21033
507550018.87505 -0.27762058 -170.06352 -62.232605 24.630678 -63.453827 24.073116 0.033640418 147.22099
507927519.8188 -0.27827433 -170.26125 -62.961597 35.070423 -64.631783 43.898281 0.033594687 147.22231
508305020.76255 -0.27699143 -170.44891 -63.149967 14.332802 -62.151646 33.214729 0.036664661 147.22
508682521.7063 -0.27789605 -170.65276 -62.895988 32.146954 -63.011368 29.847073 0.035626214 147.23267
509060022.65006 -0.27795219 -170.85101 -62.815525 19.44611 -64.078331 15.163094 0.035759602 147.21597
509437523.59381 -0.27545029 -171.05113 -64.491676 18.967587 -63.55793 27.456795 0.030255223 147.215
509815024.53756 -0.27738199 -171.25641 -61.980976 23.304733 -63.452408 25.371593 0.0286058 147.1946
510192525.48131 -0.27835944 -171.46222 -63.525566 32.86932 -64.478546 28.235769 0.021014756 147.14813
510570026.42507 -0.28066942 -171.65282 -62.293205 16.321608 -63.140121 28.623167 0.017155413 147.10898
510947527.36882 -0.28056115 -171.86346 -64.178841 16.591787 -64.814201 18.032879 0.015903331 147.04951
511325028.31257 -0.28257832 -172.06409 -62.257046 24.023975 -62.779942 28.821127 0.0089784767 146.98553
511702529.25632 -0.28412551 -172.27538 -62.029263 18.530075 -63.140438 26.342384 0.0064899526 146.93594
512080030.20008 -0.28460491 -172.48459 -62.807064 24.662039 -62.3647 22.62928 0.0028562001 146.87283
512457531.14383 -0.28493777 -172.69414 -61.974113 10.830528 -63.663658 19.413464 0.004069611 146.79794
512835032.08758 -0.28673232 -172.90146 -62.015591 12.067319 -63.247486 15.218734 0.0027595896 146.76376
513212533.03133 -0.29190296 -173.13084 -63.205688 26.433969 -62.218597 20.092354 0.0055723405 146.71645
513590033.97508 -0.29325682 -173.34441 -63.029881 26.446426 -62.177917 15.052911 0.0086103668 146.66142
513967534.91884 -0.29595128 -173.55022 -62.530361 18.097921 -62.322014 19.011333 0.011542032 146.61864
514345035.86259 -0.29888093 -173.76485 -61.196056 15.255177 -63.479706 18.371811 0.016625443 146.61249
514722536.80634 -0.29950142 -174.00099 -62.790054 21.886961 -62.497318 18.694178 0.021759503 146.61153
515100037.75009 -0.30580115 -174.22688 -62.660965 12.985047 -61.542896 14.161661 0.024430605 146.60327
515477538.69385 -0.30824459 -174.44313 -61.903416 27.325264 -62.300179 15.824613 0.02632764 146.61978
515855039.6376 -0.31006667 -174.65405 -61.840679 19.221235 -61.842682 12.232674 0.029250234 146.61569
516232540.58135 -0.31391349 -174.87714 -61.843662 15.161784 -61.177734 24.765888 0.029340394 146.60709
516610041.5251 -0.31729349 -175.10014 -61.016685 24.608244 -62.011459 12.418156 0.027721856 146.60028
516987542.46886 -0.31963459 -175.3329 -60.356785 13.233216 -61.588604 16.603598 0.025236726 146.58989
517365043.41261 -0.32217124 -175.54816 -62.476433 19.967148 -62.025566 9.865571 0.018662356 146.56001
517742544.35636 -0.32601961 -175.77609 -60.897892 11.93946 -61.202614 12.131584 0.021224832 146.54315
518120045.30011 -0.33116728 -175.99713 -61.087704 15.395967 -60.793709 12.711395 0.013704398 146.4864
518497546.24387 -0.33542272 -176.20767 -61.655422 13.249724 -61.301983 8.5528831 0.01090591 146.43367
518875047.18762 -0.34027967 -176.43373 -60.849319 14.736934 -60.96735 8.0045938 0.0048236875 146.38245
519252548.13137 -0.34546176 -176.64633 -61.233761 15.947003 -60.640179 0.93185872 0.0031132502 146.32053
519630049.07512 -0.34646982 -176.8672 -61.645603 13.264658 -60.848537 5.0394616 -0.00059794 146.26167
520007550.01888 -0.35220963 -177.0616 -60.894951 12.238137 -60.630421 8.5747242 -0.00079934049 146.1741
520385050.96263 -0.35374889 -177.25288 -60.010155 8.0022144 -60.475819 4.9801917 0.00056957267 146.138
520762551.90638 -0.35772333 -177.46393 -59.728172 4.6690969 -59.181831 8.0950451 0.00072707125 146.0802
521140052.85013 -0.35903251 -177.66689 -59.851768 3.8768275 -61.261238 11.676922 0.0034605467 146.02153
521517553.79388 -0.36182851 -177.8755 -58.939827 -1.1776571 -59.567585 2.6474764 0.0048618969 145.98045
521895054.73764 -0.36338079 -178.08376 -59.987461 0.18434712 -60.13261 6.3886189 0.006408486 145.95285
522272555.68139 -0.36419493 -178.3063 -59.556431 -0.041316114 -59.039673 3.7055783 0.0073941476 145.94478
522650056.62514 -0.36516413 -178.51833 -60.097527 5.1808023 -59.828224 -0.56692588 0.0096913772 145.91994
523027557.56889 -0.37064487 -178.7298 -59.757061 3.7708712 -59.573307 -0.72707343 0.012658508 145.91277
523405058.51265 -0.37173456 -178.95634 -59.793835 3.65359 -59.762043 -1.2247851 0.014091538 145.89828
523782559.4564 -0.37485883 -179.17422 -59.414051 0.57784241 -58.916218 -3.7565119 0.011186645 145.89742
524160060.40015 -0.37788725 -179.39201 -59.100159 -5.6789751 -59.443417 -3.1458583 0.010053041 145.88591
524537561.3439 -0.38353959 -179.62013 -59.368073 -5.2608457 -59.326992 -3.2852745 0.0084410552 145.87096
524915062.28766 -0.38920867 -179.84985 -59.197121 -9.2306919 -58.778286 -7.7069063 0.0047052572 145.82338
525292563.23141 -0.39334616 179.92065 -59.195004 -6.6860499 -58.789295 -9.0848656 0.0034292401 145.81209
525670064.17516 -0.39938161 179.69931 -59.055893 -5.2615018 -58.321228 -9.243556 0.0021217756 145.79085
526047565.11891 -0.40498471 179.46822 -58.581455 -9.9126835 -59.270222 -6.222394 0.0016336738 145.73378
526425066.06267 -0.41347954 179.25851 -58.224953 -7.3680949 -58.580318 -14.241656 -0.0015352714 145.68301
526802567.00642 -0.42020887 179.04861 -59.133224 -14.291501 -59.382271 -15.692885 -0.0019503105 145.6407
527180067.95017 -0.42787662 178.80928 -58.033699 -17.169136 -58.893425 -9.9159479 -0.0016477292 145.58318
527557568.89392 -0.43629277 178.59991 -57.947254 -22.504387 -57.838787 -15.407476 -0.0016950463 145.56563
527935069.83767 -0.44150808 178.38884 -57.692162 -11.77907 -59.110935 -11.670403 0.00070437597 145.5127
528312570.78143 -0.45021147 178.17906 -58.737877 -19.423998 -58.454067 -17.546602 0.0021304132 145.48698
528690071.72518 -0.45726639 177.9696 -58.970657 -15.88111 -58.337246 -15.628119 0.0050108694 145.46214
529067572.66893 -0.46325633 177.76202 -58.387367 -14.598265 -58.030495 -18.702971 0.008868617 145.42154
529445073.61268 -0.46840084 177.54282 -58.215794 -20.606104 -57.904568 -20.306179 0.010782612 145.3996
529822574.55644 -0.47374678 177.338 -57.313248 -23.629013 -58.330734 -23.968771 0.013137553 145.4081
530200075.50019 -0.47916529 177.10596 -57.680782 -18.64588 -57.586357 -20.850306 0.016361371 145.40433
530577576.44394 -0.48710367 176.91516 -58.396965 -24.314642 -57.67355 -25.109861 0.014964163 145.39545
530955077.38769 -0.49278232 176.6871 -57.105412 -24.257088 -57.263359 -28.077801 0.020241588 145.39417
531332578.33145 -0.49920395 176.47627 -57.311005 -23.641205 -57.46899 -24.354679 0.018484961 145.40262
531710079.2752 -0.50440311 176.26782 -57.214489 -30.889511 -57.45911 -24.715712 0.018748695 145.40147
532087580.21895 -0.50770658 176.06596 -57.42395 -29.499706 -58.150417 -34.568043 0.019539269 145.39203
532465081.1627 -0.51458281 175.86417 -57.174225 -28.668159 -57.636997 -32.625942 0.015465881 145.36687
532842582.10646 -0.5184952 175.67075 -57.549767 -28.704813 -56.495079 -32.18586 0.015576393 145.34361
533220083.05021 -0.52042508 175.44991 -56.57439 -33.041382 -56.701969 -32.180382 0.015166993 145.30798
533597583.99396 -0.5252282 175.27455 -57.499287 -36.281803 -57.336559 -30.333416 0.01499591 145.25008
533975084.93771 -0.52603036 175.07253 -56.709099 -35.569057 -56.92281 -34.067772 0.012042915 145.21344
534352585.88146 -0.52826667 174.86339 -57.142162 -39.275642 -56.931686 -39.421776 0.012906481 145.17853
534730086.82522 -0.53022939 174.65868 -57.817799 -43.538612 -56.898624 -39.079079 0.012876124 145.13126
535107587.76897 -0.531533 174.4651 -57.664654 -41.763271 -56.976395 -40.33073 0.01546014 145.07658
535485088.71272 -0.52962554 174.25397 -57.55579 -43.749775 -57.513531 -40.583805 0.018097062 145.0244
535862589.65647 -0.5312044 174.04256 -56.45483 -43.454018 -56.653812 -42.069668 0.02060212 145.0197
536240090.60023 -0.53542405 173.83719 -56.91991 -42.705696 -56.536385 -43.689114 0.02193827 144.97237
536617591.54398 -0.53668451 173.61989 -56.658951 -42.58242 -56.573452 -44.812218 0.023925217 144.94633
536995092.48773 -0.53716546 173.40961 -56.752113 -51.831955 -56.713211 -45.661514 0.027432116 144.92496
537372593.43148 -0.5387916 173.1963 -56.98225 -47.514591 -56.772602 -45.374985 0.02870018 144.92677
537750094.37524 -0.53807527 172.98135 -57.47142 -45.176941 -57.212429 -48.159458 0.026379783 144.91132
538127595.31899 -0.53924257 172.75537 -57.132782 -47.565754 -58.331646 -51.415352 0.027384099 144.89337
538505096.26274 -0.5407235 172.5369 -57.002937 -52.750229 -57.047741 -44.742676 0.032146748 144.91138
538882597.20649 -0.541228 172.3157 -57.179951 -58.423397 -57.48262 -49.282646 0.034622058 144.91365
539260098.15025 -0.54269069 172.08572 -57.602745 -54.458385 -57.663387 -49.047703 0.03174179 144.88531
539637599.094 -0.54145598 171.84439 -56.164852 -55.596176 -56.931419 -54.220428 0.032696724 144.87915
540015100.03775 -0.54431832 171.61816 -57.736729 -50.508354 -57.248486 -50.145432 0.030139349 144.8838
540392600.9815 -0.54423046 171.36783 -57.91156 -55.272079 -56.841148 -54.576923 0.030818257 144.84526
540770101.92525 -0.54332751 171.11238 -56.668293 -57.495098 -57.08548 -54.788265 0.029750412 144.82529
541147602.86901 -0.54733074 170.88472 -57.262703 -55.711819 -57.311893 -55.212807 0.030335477 144.78239
541525103.81276 -0.54833078 170.60777 -56.660995 -56.713234 -57.078976 -52.420586 0.028924515 144.74307
541902604.75651 -0.55128706 170.35042 -57.369137 -57.288841 -56.888432 -54.11467 0.026224861 144.67719
542280105.70026 -0.55462539 170.09245 -56.894669 -57.945606 -56.726456 -55.448215 0.024234068 144.64128
542657606.64402 -0.55818701 169.8316 -57.415516 -65.130402 -56.542015 -58.441387 0.022198085 144.59224
543035107.58777 -0.56033283 169.54346 -56.976929 -55.949448 -57.146633 -60.720875 0.017336318 144.54694
543412608.53152 -0.56643468 169.2794 -56.936348 -57.360126 -57.197609 -59.324802 0.018263044 144.49289
543790109.47527 -0.57254624 169.00536 -56.568123 -63.34631 -56.501373 -59.178802 0.015576997 144.43736
544167610.41903 -0.57685554 168.74127 -55.823746 -60.6339 -56.74152 -60.094452 0.010491204 144.40543
544545111.36278 -0.58172107 168.46608 -56.364048 -60.382412 -56.95327 -66.006058 0.0082322145 144.34935
544922612.30653 -0.58925515 168.19469 -55.989132 -63.28492 -56.569771 -63.626328 0.0051025385 144.31618
545300113.25028 -0.59259206 167.91679 -56.287102 -63.119549 -57.297966 -63.89069 0.0040290486 144.28436
545677614.19404 -0.59910935 167.64026 -56.97842 -58.059742 -57.117085 -65.799194 0.0016283821 144.25211
546055115.13779 -0.60646307 167.36987 -57.307789 -63.120663 -56.739357 -62.548927 0.00045948211 144.19119
546432616.08154 -0.60903019 167.09029 -56.920593 -61.200756 -56.298454 -64.875381 -0.004023693 144.18932
546810117.02529 -0.61598307 166.80507 -56.804726 -65.88147 -55.921947 -64.837532 -0.0024615817 144.14607
547187617.96904 -0.6234889 166.51573 -56.490158 -69.029099 -56.319443 -63.672993 -0.0060314047 144.10797
547565118.9128 -0.63196218 166.25163 -56.293579 -69.584045 -56.189896 -65.631599 -0.0050311224 144.05571
547942619.85655 -0.64065474 165.96724 -56.765255 -65.742706 -56.067291 -67.970451 -0.0055906875 143.99887
548320120.8003 -0.65034515 165.68988 -56.75209 -67.003693 -55.86935 -67.374672 -0.0039465646 143.95528
548697621.74405 -0.66164863 165.39436 -55.658428 -68.605446 -56.03756 -65.48365 -0.0060872496 143.92087
549075122.68781 -0.6734165 165.13522 -55.549938 -72.10054 -55.998543 -65.238548 -0.00767995 143.86476
549452623.63156 -0.68688399 164.88565 -56.064308 -63.823959 -55.40229 -67.314514 -0.0062227235 143.79698
549830124.57531 -0.69873089 164.61766 -55.717579 -71.603905 -55.944263 -65.591751 -0.0044989353 143.76155
550207625.51906 -0.71406502 164.36064 -55.516628 -71.158646 -55.566536 -69.024429 -0.0059758662 143.70729
550585126.46282 -0.7242676 164.11143 -55.302513 -75.487259 -55.152744 -68.735146 -0.0064090141 143.68437
550962627.40657 -0.74069172 163.86775 -55.369804 -69.954353 -55.115299 -74.12664 -0.005898667 143.63599
551340128.35032 -0.7556408 163.63457 -54.829205 -74.389221 -55.161427 -73.850555 -0.0040841307 143.60965
551717629.29407 -0.76920885 163.39793 -55.00227 -74.209595 -54.72028 -76.422157 -0.0038091668 143.57854
552095130.23783 -0.78365529 163.18465 -54.698185 -76.768768 -55.026669 -77.161461 -0.0007433375 143.55583
552472631.18158 -0.79782653 162.94713 -54.53717 -77.091377 -54.299847 -74.551163 -0.00042037328 143.53757
552850132.12533 -0.8116414 162.73639 -54.238235 -77.491943 -54.619225 -80.033417 0.0019442824 143.53134
553227633.06908 -0.82097703 162.51047 -54.372791 -77.168739 -54.935551 -78.002899 0.0050693392 143.52153
553605134.01284 -0.83512962 162.30591 -54.154499 -83.309235 -54.061523 -78.40509 0.010204654 143.51953
553982634.95659 -0.84733659 162.07803 -54.036709 -83.773392 -54.41053 -82.514931 0.015679659 143.51578
554360135.90034 -0.86044449 161.85446 -54.216705 -79.941391 -54.342232 -85.042236 0.019613734 143.52713
554737636.84409 -0.87534797 161.6306 -54.112671 -85.143753 -53.884544 -82.726662 0.024690764 143.51389
555115137.78784 -0.88848734 161.40854 -53.97567 -86.584366 -54.418045 -86.802704 0.029633781 143.5231
555492638.7316 -0.90146166 161.16757 -54.226135 -87.980186 -54.633156 -86.202263 0.037158795 143.49927
555870139.67535 -0.91463912 160.95929 -53.848553 -86.990341 -54.222824 -88.802124 0.037165161 143.50439
556247640.6191 -0.92995739 160.7523 -54.191845 -85.481491 -54.425762 -87.715492 0.041125368 143.47498
556625141.56285 -0.94379723 160.5325 -53.738586 -92.427368 -54.139107 -88.412842 0.042129543 143.46472
557002642.50661 -0.956321 160.33257 -53.708782 -91.347023 -53.960224 -90.356262 0.043521654 143.43855
557380143.45036 -0.96954364 160.1273 -53.59013 -90.265831 -53.475376 -89.229286 0.04213953 143.42448
557757644.39411 -0.98200494 159.9333 -53.855412 -94.825737 -53.576336 -93.16394 0.04086782 143.41974
558135145.33786 -0.99318433 159.74481 -53.690868 -92.722389 -53.36134 -96.320145 0.040058952 143.36238
558512646.28162 -1.0043788 159.53931 -53.614231 -98.84671 -53.334583 -93.425545 0.033180684 143.3419
558890147.22537 -1.0147307 159.36557 -53.237045 -94.17733 -53.258213 -94.453468 0.031110741 143.31006
559267648.16912 -1.0232233 159.1869 -52.975288 -94.319664 -53.225643 -99.734657 0.02738627 143.28981
559645149.11287 -1.0299891 159.02928 -53.049263 -99.594879 -53.193516 -96.409348 0.023652146 143.23708
560022650.05663 -1.036862 158.8457 -53.034996 -98.186127 -52.823551 -99.771416 0.021714907 143.21547
560400151.00038 -1.0411975 158.67342 -53.007801 -102.3799 -53.095982 -102.34845 0.02660159 143.1817
560777651.94413 -1.0427182 158.48758 -53.35424 -104.31135 -53.283291 -104.74972 0.023278937 143.15262
561155152.88788 -1.0452555 158.30516 -53.079285 -103.1946 -52.852077 -101.81848 0.024194669 143.11331
561532653.83163 -1.0431043 158.14764 -53.261593 -104.4082 -52.558861 -105.91431 0.027869457 143.07266
561910154.77539 -1.0410408 157.95007 -52.984554 -106.67804 -52.875076 -107.27971 0.027649032 143.0498
562287655.71914 -1.0382241 157.7541 -52.878811 -108.14452 -52.833584 -108.13216 0.028781377 143.01355
562665156.66289 -1.0339595 157.53897 -52.946724 -109.67237 -52.883942 -109.42756 0.033274248 142.98463
563042657.60664 -1.0304186 157.32436 -52.320137 -109.78353 -52.677097 -112.4633 0.033102624 142.97151
563420158.5504 -1.0245525 157.09669 -52.926945 -112.90914 -53.118694 -112.14069 0.035764042 142.94159
563797659.49415 -1.0185339 156.87892 -52.912434 -115.87286 -52.626354 -116.10152 0.034685921 142.90666
564175160.4379 -1.0123736 156.63924 -52.706966 -112.48731 -52.844055 -114.68832 0.03368327 142.87712
564552661.38165 -1.008231 156.38704 -52.633553 -113.92781 -52.770496 -113.45516 0.028360568 142.86575
564930162.32541 -1.002001 156.13028 -52.695824 -113.94241 -53.044846 -115.66933 0.029694393 142.81865
565307663.26916 -0.99463397 155.845 -53.363697 -115.67815 -53.143536 -115.92623 0.025338043 142.78699
565685164.21291 -0.99040806 155.53197 -53.22773 -121.5761 -52.813236 -116.46008 0.018068604 142.7417
566062665.15666 -0.98428029 155.2368 -52.942505 -121.22858 -52.927158 -118.58646 0.015036763 142.69464
566440166.10042 -0.98571223 154.90248 -53.24086 -117.73009 -52.630711 -122.30194 0.011378344 142.67548
566817667.04417 -0.98889583 154.56165 -52.923897 -124.13006 -53.480785 -121.46297 0.0064597125 142.61835
567195167.98792 -0.99498934 154.22784 -52.833759 -122.31969 -53.615345 -121.78185 0.0037465061 142.55588
567572668.93167 -1.0022688 153.90033 -53.349472 -122.63195 -53.446247 -122.07148 -0.0014259358 142.50356
567950169.87542 -1.0098959 153.58058 -52.753006 -120.98914 -53.362179 -120.95647 -0.0011085663 142.46823
568327670.81918 -1.0205963 153.2809 -53.149681 -123.88533 -52.769939 -122.46305 0.0015089678 142.40875
568705171.76293 -1.0320739 152.995 -52.789722 -124.86562 -52.948555 -121.84113 0.0049198708 142.35042
569082672.70668 -1.0400671 152.71303 -52.722912 -126.45141 -52.819523 -125.56187 0.0069931699 142.30087
569460173.65043 -1.050939 152.41589 -52.847176 -124.63191 -52.669804 -124.91715 0.0091368938 142.25516
569837674.59419 -1.054004 152.12973 -52.671902 -128.49692 -52.732735 -123.54303 0.0095043592 142.21559
570215175.53794 -1.0649836 151.82088 -52.961685 -126.58641 -52.862442 -126.59989 0.015193224 142.19035
570592676.48169 -1.0725492 151.49104 -52.217606 -126.54596 -52.612968 -128.66739 0.017376548 142.15005
570970177.42544 -1.082261 151.17714 -52.998299 -127.50646 -52.426186 -127.26334 0.020942288 142.1313
571347678.3692 -1.0897802 150.85384 -52.199051 -127.41599 -52.188736 -126.99815 0.021223312 142.11168
571725179.31295 -1.1011963 150.54111 -52.718063 -129.27113 -52.204659 -129.60355 0.022605183 142.09402
