!Keysight Technologies,N5242B,MY48420860,A.13.80.08
!Date: Saturday, September 26, 2020 11:46:58
!Correction: S11(Full 2 Port(1,2)) 
!S21(Full 2 Port(1,2)) 
!S12(Full 2 Port(1,2)) 
!S22(Full 2 Port(1,2)) 
!S2P File: Measurements: S11, S21, S12, S22:
# Hz S  dB   R 50
500000000 -0.23730938 -166.31099 -58.958832 141.94559 -59.207157 134.35556 -0.0022953167 147.3273
500377500.94375 -0.23876867 -166.49707 -59.747311 135.58751 -58.237179 137.20685 -0.0012603524 147.30559
500755001.8875 -0.24220565 -166.69748 -58.811584 136.62317 -58.718136 137.75636 -0.00091260427 147.32187
501132502.83126 -0.2437593 -166.90825 -58.331295 137.86342 -58.461109 140.11562 0.0018231617 147.30383
501510003.77501 -0.24816422 -167.11626 -58.652302 135.18581 -58.506828 134.04326 0.0035480871 147.295
501887504.71876 -0.24984372 -167.30373 -57.531174 135.82402 -58.065563 137.21658 0.0043493728 147.32291
502265005.66251 -0.25095958 -167.50633 -58.493618 139.24512 -57.406582 136.67381 0.0032619981 147.28815
502642506.60627 -0.25503072 -167.72542 -58.512756 134.5524 -58.201935 133.88107 0.0033512795 147.27383
503020007.55002 -0.25768089 -167.92052 -57.683186 135.04691 -57.627316 135.0329 -4.3804434e-005 147.25684
503397508.49377 -0.26341036 -168.12094 -56.777008 135.55661 -57.556213 131.31752 0.00085060217 147.21907
503775009.43752 -0.26336777 -168.31961 -57.525791 136.0304 -58.036121 132.12556 -0.0021375532 147.17192
504152510.38128 -0.26751235 -168.50958 -57.020882 135.58717 -57.214539 133.05682 -0.0027184046 147.17012
504530011.32503 -0.26929125 -168.70842 -57.108044 128.86517 -57.021679 130.70816 0.00068241061 147.12
504907512.26878 -0.27226007 -168.89862 -57.340786 125.9884 -57.487663 129.68385 0.0020824061 147.08035
505285013.21253 -0.27178937 -169.0872 -56.940926 130.27316 -57.124168 128.20546 0.0059729349 147.06979
505662514.15629 -0.27213082 -169.29152 -56.860836 126.70259 -57.853683 128.37306 0.0082545849 147.02127
506040015.10004 -0.27305949 -169.47409 -57.667706 131.31345 -56.792171 132.90692 0.010009558 146.97552
506417516.04379 -0.27709606 -169.68848 -56.85635 125.29671 -56.709625 125.94933 0.012005824 146.95596
506795016.98754 -0.27373084 -169.86844 -57.224342 123.23037 -57.434696 128.97394 0.018001115 146.95844
507172517.93129 -0.27579865 -170.06238 -56.690434 126.44736 -56.570564 128.01947 0.01706446 146.93756
507550018.87505 -0.27886453 -170.28319 -56.569443 128.33292 -57.263039 128.02695 0.02280158 146.94701
507927519.8188 -0.27535358 -170.48158 -57.310036 124.43899 -57.124012 126.11784 0.024200723 146.92363
508305020.76255 -0.27711037 -170.67427 -57.608158 127.16388 -57.317455 127.52386 0.02210342 146.92093
508682521.7063 -0.27763358 -170.8912 -56.951035 127.7045 -56.577293 124.36211 0.022139551 146.93124
509060022.65006 -0.27833396 -171.09052 -57.036861 127.96711 -56.621967 124.83152 0.023940085 146.90454
509437523.59381 -0.27835956 -171.28381 -56.657326 124.4778 -57.175045 119.04225 0.02037809 146.89082
509815024.53756 -0.28002542 -171.49164 -56.777164 122.21378 -57.57465 121.57455 0.017004658 146.86362
510192525.48131 -0.28061262 -171.69475 -56.249432 122.33772 -56.206078 123.3344 0.011211185 146.81743
510570026.42507 -0.28347689 -171.89171 -57.17746 121.1777 -57.255386 122.4599 0.0078520719 146.77417
510947527.36882 -0.28526476 -172.1089 -57.113121 119.74866 -57.105755 124.87668 0.0065232087 146.73119
511325028.31257 -0.28809291 -172.31963 -56.06348 123.01179 -56.590225 124.30392 0.0025906286 146.66975
511702529.25632 -0.29001805 -172.52324 -56.764538 122.54057 -56.732151 120.78178 -0.00098006113 146.61592
512080030.20008 -0.29141372 -172.72676 -56.68956 121.70848 -56.033512 122.49457 -0.0039329673 146.55307
512457531.14383 -0.29171991 -172.95412 -55.871483 124.4542 -56.576084 121.5356 -0.0025459335 146.48967
512835032.08758 -0.29556751 -173.15843 -55.774525 118.84893 -56.373173 121.57265 -0.0020030658 146.45589
513212533.03133 -0.29946986 -173.36903 -56.418694 119.49036 -56.352352 120.02712 -0.0019390363 146.40257
513590033.97508 -0.30345365 -173.57742 -56.747211 116.70676 -55.865108 123.86298 0.0025230495 146.34006
513967534.91884 -0.30580142 -173.79507 -56.02951 121.22099 -56.105003 115.83353 0.0033624836 146.30324
514345035.86259 -0.30905908 -173.99954 -56.254364 114.89819 -55.572144 118.59764 0.006327339 146.29916
514722536.80634 -0.31253067 -174.23022 -56.247734 114.88036 -55.564541 114.2654 0.012056792 146.28682
515100037.75009 -0.31690043 -174.45776 -55.796535 116.69496 -56.019745 115.04895 0.012313281 146.25613
515477538.69385 -0.320456 -174.65849 -56.083214 119.8569 -56.463371 115.08665 0.014728306 146.27119
515855039.6376 -0.32426962 -174.86987 -55.92794 118.31568 -55.573723 115.43483 0.013928088 146.26144
516232540.58135 -0.32889166 -175.08638 -55.834522 118.28948 -55.675625 115.89312 0.013929086 146.26147
516610041.5251 -0.3346293 -175.29506 -55.557804 118.28356 -55.39991 116.40668 0.017042153 146.22954
516987542.46886 -0.33479854 -175.50656 -54.910408 113.38482 -55.133556 114.71327 0.015482572 146.20799
517365043.41261 -0.33750784 -175.72963 -55.052319 113.51868 -55.411633 115.15781 0.0097455392 146.20821
517742544.35636 -0.34216323 -175.94168 -55.314213 114.82948 -55.38876 110.24652 0.010076719 146.18916
518120045.30011 -0.34570596 -176.15501 -55.213428 113.47917 -55.593483 113.91867 0.0048801783 146.14456
518497546.24387 -0.35133898 -176.36176 -55.322575 114.91874 -55.380703 116.08591 0.00065158936 146.07918
518875047.18762 -0.35476831 -176.57986 -55.628334 117.60242 -54.963585 112.38676 -0.000254974 146.04599
519252548.13137 -0.35778546 -176.76967 -54.67112 114.85931 -55.053074 108.50675 -0.0032070447 145.99133
519630049.07512 -0.36268044 -176.99077 -55.042126 111.04718 -55.357105 111.58778 -0.0060219024 145.93004
520007550.01888 -0.36509636 -177.1835 -54.275749 109.86094 -54.853821 113.20059 -0.0047919918 145.87051
520385050.96263 -0.36725175 -177.37244 -53.994286 109.54588 -54.714958 110.01728 -0.0032352458 145.82671
520762551.90638 -0.36871874 -177.58432 -54.071796 110.9035 -54.701115 109.25488 -0.00098453299 145.77528
521140052.85013 -0.37098145 -177.78619 -54.343014 110.9217 -54.758484 109.56695 0.00022388541 145.71658
521517553.79388 -0.37119144 -177.99815 -53.899139 111.54912 -54.141426 107.29364 -5.1004441e-005 145.68639
521895054.73764 -0.37190241 -178.21854 -53.82008 108.79919 -54.556206 111.66312 0.0044375798 145.65152
522272555.68139 -0.37277111 -178.41539 -53.981331 106.91776 -54.653896 110.33795 0.0037723873 145.62587
522650056.62514 -0.37286156 -178.62556 -54.707306 106.02715 -54.019379 110.85999 0.0067471876 145.63484
523027557.56889 -0.37731972 -178.83511 -53.979599 104.31039 -54.680965 105.45661 0.0073998021 145.61206
523405058.51265 -0.37779883 -179.05716 -53.887039 105.95042 -54.107437 108.40947 0.0095202941 145.61098
523782559.4564 -0.37668151 -179.27863 -53.811008 106.71371 -54.219276 108.32541 0.010111978 145.60603
524160060.40015 -0.38184726 -179.49377 -53.799774 106.91932 -53.55352 104.73562 0.0074808351 145.61061
524537561.3439 -0.38460344 -179.72136 -54.021748 103.86605 -54.300442 102.54137 0.0091447448 145.58974
524915062.28766 -0.38722262 -179.97464 -53.874237 100.70089 -53.580605 103.12573 0.0047094668 145.55328
525292563.23141 -0.39205924 179.80569 -54.042923 104.68781 -53.830643 106.38106 0.0046417038 145.54893
525670064.17516 -0.3968794 179.5677 -53.987862 102.16965 -53.673298 104.15868 0.0021095774 145.52914
526047565.11891 -0.40064994 179.34276 -53.307762 99.989792 -54.020329 102.98789 0.0040745651 145.48466
526425066.06267 -0.40668628 179.11913 -53.750069 99.806908 -53.596817 103.16389 0.00095997116 145.42427
526802567.00642 -0.41203439 178.90544 -53.967354 101.37276 -53.97057 100.71242 0.00019778873 145.38437
527180067.95017 -0.4177345 178.66179 -53.400578 100.1266 -53.216137 98.679665 -0.00073015178 145.34023
527557568.89392 -0.42393243 178.42694 -53.207512 101.95407 -53.373238 101.07059 -0.00214695 145.30383
527935069.83767 -0.42984661 178.22322 -53.977577 99.088829 -53.755497 101.29349 0.001162748 145.26631
528312570.78143 -0.43498641 177.99176 -53.559105 99.312172 -53.219524 98.881195 0.0013287192 145.21788
528690071.72518 -0.44356728 177.77176 -53.510208 98.756821 -53.146816 102.01421 0.0050890963 145.19891
529067572.66893 -0.44811496 177.54437 -53.155052 99.788284 -53.525204 97.219398 0.0030140339 145.14883
529445073.61268 -0.45501226 177.33298 -52.774727 96.016182 -53.157314 99.298203 0.0074008941 145.11707
529822574.55644 -0.45986184 177.10565 -53.424683 98.060799 -52.698032 95.169975 0.010469718 145.09044
530200075.50019 -0.46541932 176.88121 -52.936256 96.339905 -52.864079 98.868004 0.011564802 145.1046
530577576.44394 -0.47384584 176.6611 -52.88818 96.134193 -52.942421 96.223183 0.011128328 145.09212
530955077.38769 -0.47946659 176.43343 -52.374989 95.173035 -53.221493 97.844284 0.012726313 145.08665
531332578.33145 -0.48494861 176.20143 -52.571285 96.206596 -52.634315 93.917282 0.014148582 145.07372
531710079.2752 -0.49009702 175.99409 -52.714981 97.135132 -52.59716 94.67672 0.011618908 145.07442
532087580.21895 -0.49542916 175.78271 -52.81855 94.548874 -52.342346 95.312531 0.013109945 145.04797
532465081.1627 -0.50260305 175.55693 -52.298058 96.982956 -52.505943 95.64856 0.010218863 145.03183
532842582.10646 -0.50582701 175.33876 -52.061966 93.863708 -52.438709 93.213036 0.0092704687 145.01752
533220083.05021 -0.50839043 175.12752 -52.360996 92.825829 -52.22213 90.138329 0.0083635291 144.98863
533597583.99396 -0.51634622 174.90733 -52.419472 88.533409 -51.996601 91.306076 0.0080005378 144.92268
533975084.93771 -0.51919955 174.69781 -52.173752 90.888268 -51.892197 90.77774 0.0060022208 144.87819
534352585.88146 -0.52517438 174.47278 -52.234974 90.455963 -52.077293 89.598328 0.0052819941 144.84792
534730086.82522 -0.53010851 174.26945 -51.977928 86.556915 -51.746681 90.153557 0.0048060836 144.79745
535107587.76897 -0.53236735 174.0596 -51.546604 87.589668 -51.757809 87.817627 0.0055636656 144.74045
535485088.71272 -0.53609264 173.83157 -52.05011 91.760796 -51.97459 87.193428 0.0076618628 144.67288
535862589.65647 -0.5398581 173.61578 -51.853138 85.450455 -51.451469 89.116707 0.0071768062 144.66457
536240090.60023 -0.54554808 173.40335 -51.595749 86.493408 -51.650482 86.265106 0.010513037 144.61357
536617591.54398 -0.54886085 173.17926 -51.902557 83.868355 -52.096638 87.090355 0.013322294 144.5869
536995092.48773 -0.55240214 172.96561 -51.611702 85.091866 -51.678379 86.167458 0.010610273 144.55623
537372593.43148 -0.55804324 172.75612 -51.372566 85.997612 -51.654888 83.122726 0.013875989 144.54462
537750094.37524 -0.56043684 172.54506 -51.43243 86.173569 -51.393406 85.437103 0.011833067 144.51189
538127595.31899 -0.56319046 172.31273 -51.454247 85.559601 -51.329597 83.952461 0.012773877 144.49501
538505096.26274 -0.5685699 172.09277 -51.388561 84.14827 -50.98037 82.433861 0.014842477 144.50085
538882597.20649 -0.57209754 171.88055 -51.28434 81.435608 -51.349628 81.259796 0.019208493 144.49002
539260098.15025 -0.57625127 171.64528 -51.022221 83.525032 -51.477451 80.243744 0.01773504 144.47223
539637599.094 -0.58078843 171.42732 -51.045429 78.782623 -51.083954 79.606964 0.019518668 144.45934
540015100.03775 -0.58303839 171.20792 -51.458698 78.379555 -50.96019 79.721237 0.016208857 144.45105
540392600.9815 -0.58733475 170.97638 -51.076187 81.062935 -51.157505 78.97541 0.019293966 144.41316
540770101.92525 -0.5893268 170.72192 -51.194893 79.461769 -51.149464 78.658195 0.016771972 144.39421
541147602.86901 -0.59585214 170.51538 -51.090004 75.862755 -51.025234 78.24057 0.016558364 144.35138
541525103.81276 -0.59837461 170.26579 -51.020794 77.922241 -51.02475 79.515587 0.01728653 144.31816
541902604.75651 -0.60287458 170.02402 -51.108463 77.924248 -50.992889 78.164291 0.014276535 144.25623
542280105.70026 -0.60757667 169.78923 -50.652912 76.766685 -51.131588 75.068886 0.012604722 144.21608
542657606.64402 -0.61325902 169.54276 -51.153152 74.638489 -50.990959 75.128624 0.013645759 144.17618
543035107.58777 -0.61597598 169.29385 -51.051941 74.174744 -50.652172 77.100304 0.0072999662 144.1259
543412608.53152 -0.62219238 169.05417 -50.897381 78.302155 -50.946777 76.909286 0.0079223616 144.06779
543790109.47527 -0.63160276 168.80109 -51.320171 74.573494 -50.895462 73.836678 0.0071061314 144.01768
544167610.41903 -0.6349622 168.5769 -50.937454 73.90818 -50.802784 74.526863 0.0050514955 143.97946
544545111.36278 -0.64122421 168.32118 -50.935795 74.219162 -50.67165 74.71772 0.0041559241 143.93013
544922612.30653 -0.64473081 168.09276 -50.748501 74.223183 -50.74588 72.464455 0.0012085891 143.90944
545300113.25028 -0.64737254 167.8456 -50.829109 72.715202 -50.685398 75.109352 0.0055459179 143.88535
545677614.19404 -0.65329146 167.59557 -50.39093 71.493584 -50.80608 74.075859 0.0038755557 143.86331
546055115.13779 -0.65783536 167.354 -50.69479 70.527901 -50.319668 74.312988 0.003284819 143.82416
546432616.08154 -0.66005176 167.09367 -50.461845 71.187614 -50.483273 72.899345 -0.00021451025 143.83357
546810117.02529 -0.66364908 166.83675 -50.31583 71.217216 -50.403847 70.434303 0.0027051885 143.78909
547187617.96904 -0.66883481 166.57478 -50.048565 71.505829 -50.439335 70.287094 0.0027509585 143.7654
547565118.9128 -0.67346615 166.32947 -49.976238 71.423042 -50.188137 71.29435 0.0012872211 143.72966
547942619.85655 -0.6813243 166.06433 -50.245392 71.728729 -50.323498 70.952469 0.00032544319 143.69548
548320120.8003 -0.68614948 165.79897 -49.967705 70.281517 -49.859261 69.905586 0.0023625372 143.65297
548697621.74405 -0.69122732 165.52135 -49.657238 69.45668 -49.891571 70.078651 0.0017748591 143.60687
549075122.68781 -0.69667661 165.27708 -50.030544 68.519958 -49.868076 67.766006 -0.0012128912 143.56885
549452623.63156 -0.70450866 165.01787 -49.595116 68.56385 -49.858582 68.512344 -0.0017296062 143.5144
549830124.57531 -0.71207166 164.75967 -49.568676 66.316017 -49.736359 68.324074 -0.00060921407 143.47385
550207625.51906 -0.71859914 164.49913 -49.679985 67.294716 -49.765522 65.754967 -0.0030951779 143.42262
550585126.46282 -0.72754389 164.24048 -49.49712 67.687225 -49.486088 65.830658 -0.0042625819 143.36691
550962627.40657 -0.73563826 163.97484 -49.640347 63.375832 -49.312798 67.556107 -0.0069906693 143.32959
551340128.35032 -0.74491608 163.72121 -49.15274 65.740753 -49.445473 64.427628 -0.0061004446 143.29524
551717629.29407 -0.75483179 163.43968 -49.383633 64.874687 -49.232487 64.749298 -0.0041494588 143.2617
552095130.23783 -0.76443386 163.20461 -49.117016 65.04657 -49.307671 64.468414 -0.0028593112 143.23216
552472631.18158 -0.77833635 162.94115 -48.971905 63.708851 -49.391811 63.295631 -0.0038495541 143.20047
552850132.12533 -0.78741956 162.69458 -49.231503 63.195534 -49.005718 63.138973 -0.00093628099 143.18474
553227633.06908 -0.79620731 162.42839 -49.033173 62.355045 -48.913834 61.362461 0.0013638788 143.16766
553605134.01284 -0.80992246 162.18275 -49.074543 61.242298 -48.910538 60.991116 0.0052151098 143.15402
553982634.95659 -0.82261676 161.92725 -48.907471 59.222317 -49.011604 59.705574 0.0091002677 143.1582
554360135.90034 -0.83590907 161.68983 -48.495747 58.233871 -48.760307 59.774406 0.015545394 143.16637
554737636.84409 -0.85051739 161.4516 -48.514206 58.953617 -48.546349 58.198349 0.015761321 143.16194
555115137.78784 -0.86323708 161.2077 -48.672916 58.378944 -48.775143 57.402004 0.022745976 143.14452
555492638.7316 -0.8762511 160.97127 -48.51236 57.268391 -48.619698 57.798607 0.02668689 143.12428
555870139.67535 -0.88862324 160.75061 -48.388771 56.40649 -48.439152 55.744465 0.026696702 143.13632
556247640.6191 -0.90191644 160.51057 -48.350899 57.722946 -48.380955 57.517094 0.029810231 143.08163
556625141.56285 -0.91303611 160.27095 -48.542046 56.888947 -48.426292 55.558933 0.025390934 143.07094
557002642.50661 -0.92401487 160.05016 -48.815346 56.203846 -48.257717 55.29425 0.025976356 143.04112
557380143.45036 -0.93651319 159.81847 -48.119423 54.278488 -48.175262 53.791843 0.024458889 143.01958
557757644.39411 -0.94748122 159.59236 -48.092663 54.377567 -48.412918 54.134872 0.022215588 143.00452
558135145.33786 -0.96052849 159.36101 -48.275593 54.868793 -48.289375 52.584099 0.02003745 142.92882
558512646.28162 -0.97194141 159.118 -47.982105 52.303509 -48.042435 53.194061 0.014529674 142.9222
558890147.22537 -0.9817766 158.90009 -48.064167 50.96616 -48.095379 52.68565 0.014381992 142.87811
559267648.16912 -0.99203539 158.68399 -48.373177 50.929546 -48.02615 52.324669 0.013317316 142.85693
559645149.11287 -1.0013605 158.46439 -48.025723 50.458939 -48.014725 51.147041 0.011776679 142.79042
560022650.05663 -1.0128068 158.24809 -47.977333 49.345062 -47.95303 50.081291 0.010333555 142.77487
560400151.00038 -1.0213178 158.02925 -47.753986 49.634956 -48.084435 50.144264 0.014216084 142.73541
560777651.94413 -1.0302283 157.81595 -47.69664 48.789345 -47.864685 48.886833 0.014246348 142.68887
561155152.88788 -1.0392346 157.59106 -47.871685 47.481159 -47.490524 48.922371 0.01413372 142.67816
561532653.83163 -1.0488988 157.38962 -47.469578 47.462189 -47.552269 48.421886 0.020283556 142.64383
561910154.77539 -1.0548683 157.17726 -47.389889 47.39167 -47.708656 46.932442 0.022112072 142.63321
562287655.71914 -1.0599873 156.95723 -47.513962 45.904408 -47.699089 45.197659 0.02267443 142.61212
562665156.66289 -1.0697199 156.73485 -47.613895 46.446457 -47.391865 44.913635 0.025894849 142.58641
563042657.60664 -1.0728219 156.53308 -47.387081 45.271744 -47.442902 45.363537 0.025120933 142.57639
563420158.5504 -1.0773457 156.32101 -47.429054 43.55883 -47.369228 43.954575 0.028490562 142.5511
563797659.49415 -1.0795041 156.1118 -47.300919 44.135838 -47.384132 44.388988 0.027291832 142.51999
564175160.4379 -1.0845574 155.88393 -47.440231 41.419243 -47.369854 42.774502 0.02555288 142.49976
564552661.38165 -1.0876465 155.67123 -47.235023 42.740776 -47.312069 41.485767 0.023357406 142.47083
564930162.32541 -1.0897712 155.44255 -47.18203 41.532223 -47.508984 40.259335 0.021077266 142.42664
565307663.26916 -1.0912619 155.18855 -47.04546 41.707497 -47.248058 41.326542 0.017962107 142.39961
565685164.21291 -1.0926335 154.9308 -47.13002 41.494709 -47.30862 40.188381 0.012849823 142.34944
566062665.15666 -1.0948038 154.67038 -47.051537 41.08427 -47.098068 40.214859 0.0092845233 142.30258
566440166.10042 -1.0986167 154.40794 -47.234055 39.065975 -47.282379 38.750999 0.0081431651 142.27617
566817667.04417 -1.1041886 154.10963 -47.124481 37.964031 -47.086224 39.569054 0.0065340744 142.22649
567195167.98792 -1.1148514 153.83914 -46.890556 38.75621 -46.915932 38.206223 0.0014892068 142.18167
567572668.93167 -1.1219225 153.5625 -46.952076 37.641373 -46.763592 38.561024 0.0029056144 142.12425
567950169.87542 -1.1337209 153.2845 -46.763172 36.401302 -46.818058 39.515888 0.0028699909 142.09282
568327670.81918 -1.1441982 153.04993 -46.829754 37.616238 -46.881897 37.299858 0.0048070191 142.04593
568705171.76293 -1.1551803 152.80162 -46.693615 34.586426 -46.792358 35.086411 0.0095280893 141.99802
569082672.70668 -1.1627231 152.56628 -46.564667 35.14875 -46.591789 34.655445 0.010316192 141.97079
569460173.65043 -1.173651 152.32272 -46.645393 34.869781 -46.680267 35.856522 0.011935714 141.94191
569837674.59419 -1.1756431 152.08365 -46.799706 33.859821 -46.491005 34.301224 0.0085396795 141.89853
570215175.53794 -1.1842458 151.83359 -46.369053 34.076015 -46.50729 34.60622 0.012865029 141.87582
570592676.48169 -1.188063 151.56146 -46.515926 33.180984 -46.358753 32.915089 0.016208844 141.83037
570970177.42544 -1.1947843 151.29163 -46.336926 32.595863 -46.519421 33.326881 0.016807616 141.81625
571347678.3692 -1.2009562 151.02084 -46.389214 29.921871 -46.239975 32.485428 0.016181028 141.7907
571725179.31295 -1.2050472 150.74648 -46.590702 30.938629 -46.256363 31.370014 0.014104567 141.75703
572102680.2567 -1.2114532 150.45227 -46.450638 31.651773 -46.305698 30.696926 0.014223424 141.73131
572480181.20045 -1.2185198 150.17322 -46.07737 31.246664 -46.262463 30.599928 0.012834903 141.70845
