!Keysight Technologies,N5242B,MY48420860,A.13.80.08
!Date: Saturday, September 26, 2020 12:17:24
!Correction: S11(Full 2 Port(1,2)) 
!S21(Full 2 Port(1,2)) 
!S12(Full 2 Port(1,2)) 
!S22(Full 2 Port(1,2)) 
!S2P File: Measurements: S11, S21, S12, S22:
# Hz S  dB   R 50
500000000 -0.24220696 -166.27878 -58.483944 64.086967 -59.344131 68.750366 0.018054167 147.68971
500377500.94375 -0.24408005 -166.48221 -58.674004 70.281639 -58.136017 73.584793 0.017368054 147.64821
500755001.8875 -0.24811164 -166.67271 -58.348965 70.762001 -58.53196 68.505707 0.017282071 147.6376
501132502.83126 -0.25110129 -166.88177 -58.261963 64.142136 -59.353893 66.214615 0.016641032 147.62679
501510003.77501 -0.25454774 -167.09607 -58.519592 68.254372 -58.461384 67.611397 0.017952841 147.60391
501887504.71876 -0.25713506 -167.28735 -58.726368 70.556076 -58.528877 71.484123 0.017283203 147.60094
502265005.66251 -0.25940424 -167.4958 -58.179447 66.976418 -58.008148 61.624043 0.016290149 147.56465
502642506.60627 -0.26380506 -167.70589 -58.076229 58.443771 -58.589359 64.254372 0.018315798 147.54631
503020007.55002 -0.26543945 -167.90245 -58.249271 63.268253 -58.629665 65.820618 0.017826216 147.52406
503397508.49377 -0.27111474 -168.10101 -59.592506 66.01403 -57.932335 69.77404 0.019046113 147.4982
503775009.43752 -0.27446613 -168.29329 -57.911278 61.166153 -58.160233 64.877975 0.017451076 147.45201
504152510.38128 -0.27492529 -168.49789 -56.753391 63.852749 -57.495182 61.33984 0.020521345 147.43361
504530011.32503 -0.27774006 -168.69231 -57.906757 61.382263 -58.977043 58.101906 0.023904376 147.41286
504907512.26878 -0.28100261 -168.88425 -57.466778 63.555 -57.968895 64.90081 0.025984649 147.38847
505285013.21253 -0.28153697 -169.08469 -57.507004 60.18924 -57.777115 62.265678 0.027385749 147.38048
505662514.15629 -0.28320792 -169.27182 -58.246613 60.86808 -57.772758 59.235828 0.029655874 147.35159
506040015.10004 -0.28394777 -169.45427 -57.580044 61.404331 -56.963169 60.208351 0.027821334 147.30307
506417516.04379 -0.28912678 -169.66669 -57.557205 64.926071 -57.699547 57.234566 0.028316211 147.29689
506795016.98754 -0.28444391 -169.8437 -57.303783 56.264854 -57.637348 52.831787 0.033375748 147.2724
507172517.93129 -0.28663617 -170.04428 -57.669147 55.876808 -56.867668 60.968121 0.031625394 147.24046
507550018.87505 -0.28821132 -170.26378 -57.247673 59.101704 -57.128532 55.856865 0.030731535 147.22437
507927519.8188 -0.28905845 -170.46233 -57.775906 56.422596 -57.152081 60.97459 0.028853903 147.19243
508305020.76255 -0.28887022 -170.64075 -57.858128 61.143192 -56.43047 58.513096 0.028924862 147.1826
508682521.7063 -0.28833833 -170.85394 -57.205151 55.250786 -57.139587 51.726933 0.025407409 147.15868
509060022.65006 -0.29053298 -171.0631 -57.070751 57.913589 -56.636757 57.262531 0.025433805 147.11197
509437523.59381 -0.29068291 -171.2496 -57.053715 56.443218 -56.830322 55.620525 0.023581171 147.08543
509815024.53756 -0.29325566 -171.45198 -56.329277 52.341885 -57.548382 50.939312 0.023237905 147.06636
510192525.48131 -0.29516059 -171.65477 -56.93829 51.640144 -56.594105 58.57209 0.018845782 147.01979
510570026.42507 -0.29828918 -171.8439 -56.301552 51.313297 -56.56039 54.351807 0.018682854 146.9735
510947527.36882 -0.30065563 -172.05191 -56.273388 52.123253 -56.737415 48.94529 0.01964565 146.93997
511325028.31257 -0.30271855 -172.26758 -55.943275 49.258495 -56.975853 50.725567 0.018565934 146.88577
511702529.25632 -0.30468291 -172.47404 -56.027374 50.119083 -56.306725 47.52396 0.018412046 146.85385
512080030.20008 -0.30605939 -172.67404 -55.987289 51.04287 -55.845963 52.999058 0.017832115 146.81609
512457531.14383 -0.30931577 -172.87389 -56.212234 50.296532 -56.107967 49.647766 0.020643501 146.76707
512835032.08758 -0.31120712 -173.08722 -55.946594 51.602055 -56.244774 47.776958 0.019286955 146.74277
513212533.03133 -0.3160924 -173.29189 -56.317005 50.64328 -55.936817 51.910923 0.018769661 146.72089
513590033.97508 -0.31948134 -173.50174 -56.239204 50.351002 -56.623333 45.585098 0.023318475 146.66467
513967534.91884 -0.32228231 -173.72115 -56.075562 48.003063 -56.206108 48.202789 0.020984625 146.62852
514345035.86259 -0.32610407 -173.923 -55.296078 48.890778 -55.388668 50.566929 0.021982349 146.6214
514722536.80634 -0.32647359 -174.13461 -55.692104 44.988014 -55.31702 47.360657 0.022740457 146.59151
515100037.75009 -0.33167168 -174.35802 -54.778442 43.487736 -55.458126 47.986706 0.021895878 146.57137
515477538.69385 -0.33741051 -174.57158 -55.706177 47.218029 -55.265404 44.968754 0.021842521 146.56113
515855039.6376 -0.3390806 -174.78041 -54.8535 41.835842 -54.982891 43.584576 0.021862695 146.52409
516232540.58135 -0.34379011 -175.00497 -56.054596 41.608212 -55.050724 41.459438 0.018026844 146.51498
516610041.5251 -0.34788817 -175.2094 -54.910225 39.254112 -55.456024 41.636005 0.021964081 146.46825
516987542.46886 -0.34986046 -175.4325 -55.705719 44.399944 -55.447803 43.24194 0.019689638 146.44743
517365043.41261 -0.35270324 -175.65045 -54.100548 43.567665 -55.022022 42.391918 0.01742629 146.41721
517742544.35636 -0.35781744 -175.87024 -54.92482 37.245167 -54.435734 44.738937 0.022142509 146.40257
518120045.30011 -0.36273068 -176.0735 -55.295902 35.299953 -54.14407 37.26218 0.020893833 146.37109
518497546.24387 -0.36773884 -176.2784 -54.754864 39.547958 -53.858227 41.796791 0.020204404 146.31924
518875047.18762 -0.37347266 -176.49699 -54.331169 38.29134 -55.000652 39.341946 0.021511264 146.28902
519252548.13137 -0.37529314 -176.69893 -54.449562 34.74818 -54.446281 35.596676 0.022759276 146.27747
519630049.07512 -0.37824321 -176.90656 -54.581875 37.285179 -54.18293 36.625034 0.020186665 146.22542
520007550.01888 -0.38198686 -177.11078 -54.450768 36.476349 -54.294102 36.45042 0.023866612 146.19255
520385050.96263 -0.38389188 -177.30121 -54.319061 35.35783 -53.905293 35.743793 0.025080094 146.16312
520762551.90638 -0.3875775 -177.48175 -53.972328 35.06712 -53.91177 36.077713 0.024947699 146.11658
521140052.85013 -0.39140084 -177.6963 -54.304012 31.365015 -53.7719 35.47406 0.027087988 146.0881
521517553.79388 -0.39221919 -177.89136 -53.735226 32.993225 -53.755127 29.604485 0.022711653 146.0563
521895054.73764 -0.39326951 -178.09706 -54.082081 31.957205 -54.685097 33.387226 0.025194569 146.02757
522272555.68139 -0.39426363 -178.29745 -54.327244 30.615961 -53.866699 32.661045 0.022381406 146.00087
522650056.62514 -0.39390928 -178.49568 -53.521439 31.701469 -53.613621 29.361795 0.019422278 145.99992
523027557.56889 -0.3957676 -178.70253 -53.745224 32.310352 -54.253334 29.884626 0.021893954 145.95633
523405058.51265 -0.39783746 -178.92924 -53.785694 26.411337 -53.73838 29.904884 0.020831035 145.93806
523782559.4564 -0.39755899 -179.13882 -53.569508 29.019894 -53.415016 27.160378 0.022014901 145.90477
524160060.40015 -0.399508 -179.35049 -53.580688 27.298641 -53.681866 27.228912 0.020062404 145.88947
524537561.3439 -0.40360007 -179.57071 -53.423138 28.050161 -53.360706 30.024714 0.02078413 145.86264
524915062.28766 -0.40728155 -179.80066 -53.186699 26.925724 -53.565048 27.25527 0.02008976 145.81946
525292563.23141 -0.41011566 179.96947 -52.903042 26.128466 -53.66468 26.439451 0.020722417 145.81702
525670064.17516 -0.41559589 179.73872 -52.857315 24.397928 -52.913105 23.629126 0.022494677 145.79103
526047565.11891 -0.41790941 179.5162 -53.164608 23.907593 -53.274788 26.637331 0.025453495 145.75591
526425066.06267 -0.42560884 179.29451 -53.499622 21.031916 -53.442116 23.932793 0.023894776 145.72049
526802567.00642 -0.43095994 179.07458 -52.990261 19.54756 -53.073044 22.773252 0.02499971 145.70531
527180067.95017 -0.43703473 178.84605 -53.138008 22.760078 -52.951431 24.577621 0.025713151 145.67545
527557568.89392 -0.44395256 178.62741 -53.079967 18.856207 -53.099773 20.990358 0.022544427 145.64229
527935069.83767 -0.44757423 178.41814 -52.583775 23.277851 -52.965725 20.298756 0.025582308 145.61801
528312570.78143 -0.45084769 178.1868 -52.940182 18.830532 -53.113533 21.018652 0.022360649 145.59431
528690071.72518 -0.45966324 177.95804 -52.501526 18.498344 -53.147572 18.838982 0.022767505 145.55698
529067572.66893 -0.4661797 177.73993 -53.064808 18.557493 -52.394001 18.101469 0.020754702 145.49295
529445073.61268 -0.4709754 177.51628 -52.924713 18.38026 -52.829117 16.598919 0.019128572 145.47678
529822574.55644 -0.47930768 177.29643 -52.459972 17.220547 -52.974686 16.097466 0.017361913 145.43921
530200075.50019 -0.48343572 177.06506 -52.736382 17.749332 -52.904739 14.650665 0.014936352 145.42218
530577576.44394 -0.49215597 176.84251 -52.328896 17.265083 -52.951176 17.404003 0.015924441 145.37698
530955077.38769 -0.49840817 176.61575 -52.283901 15.645739 -52.873287 12.017709 0.015024599 145.34271
531332578.33145 -0.50449526 176.4046 -52.247585 12.514765 -52.904125 15.068489 0.01530782 145.3342
531710079.2752 -0.51312441 176.19283 -53.084099 12.270305 -52.593426 15.269336 0.014691776 145.30618
532087580.21895 -0.51661748 175.98587 -52.297699 13.929232 -52.373238 9.0310793 0.01769319 145.27391
532465081.1627 -0.52371025 175.76953 -52.494579 13.116483 -52.505424 10.582352 0.015592569 145.24382
532842582.10646 -0.52797067 175.561 -52.36092 13.445627 -51.914387 10.52805 0.019416653 145.22618
533220083.05021 -0.53083688 175.3416 -51.947586 9.7589731 -52.697502 10.936257 0.019931085 145.19392
533597583.99396 -0.5382756 175.14633 -51.90601 9.2685318 -52.513172 11.172336 0.021884877 145.14294
533975084.93771 -0.53922468 174.95299 -52.378429 6.6245866 -52.332096 5.810678 0.021662358 145.11749
534352585.88146 -0.54531312 174.73724 -52.388233 5.4874024 -51.945057 7.1052699 0.023868965 145.07791
534730086.82522 -0.54838955 174.5264 -52.246975 5.8917694 -52.199261 8.6407909 0.025043774 145.06429
535107587.76897 -0.55118132 174.32164 -52.012966 6.1544361 -52.187759 5.8111925 0.025569757 145.02562
535485088.71272 -0.55228955 174.10036 -52.103436 6.8835711 -52.137486 5.6349821 0.026696349 144.99196
535862589.65647 -0.55560523 173.88968 -52.349041 5.4588046 -52.206589 3.6589038 0.026340956 144.98997
536240090.60023 -0.5606544 173.68454 -52.278397 4.8032565 -52.137936 4.514112 0.024848407 144.94093
536617591.54398 -0.56494218 173.46812 -51.861824 4.327394 -52.23909 2.7012234 0.025581332 144.91348
536995092.48773 -0.56725931 173.25896 -52.098309 2.2927351 -51.844597 2.1841383 0.0232674 144.87514
537372593.43148 -0.57017726 173.05545 -51.761642 3.3287818 -51.661465 3.4653494 0.025259985 144.8474
537750094.37524 -0.57366264 172.84215 -52.015842 2.7666626 -52.048737 3.0527 0.020271469 144.82213
538127595.31899 -0.57601088 172.63071 -51.856014 6.9971261 -52.170227 1.5424773 0.020623978 144.80354
538505096.26274 -0.5806253 172.40527 -51.620903 1.4376489 -51.955425 2.5801251 0.024414716 144.78436
538882597.20649 -0.58403331 172.19736 -51.683533 0.57183713 -51.791309 3.0354269 0.027058469 144.77045
539260098.15025 -0.58525902 171.96555 -51.553738 2.7117212 -51.786812 1.0314474 0.027294416 144.73705
539637599.094 -0.58858645 171.73759 -51.816563 0.019679293 -51.977169 0.381641 0.027225772 144.71394
540015100.03775 -0.59224957 171.51598 -51.859558 -1.7205346 -51.514095 0.53723848 0.029008646 144.70219
540392600.9815 -0.59747058 171.28804 -51.535557 0.88785696 -51.530319 -0.7983892 0.032301594 144.67117
540770101.92525 -0.60044408 171.04201 -51.400719 0.14234921 -51.383617 0.91702944 0.033739634 144.65434
541147602.86901 -0.6046797 170.82596 -51.428989 1.922577 -51.393147 -0.16244033 0.034308154 144.63342
541525103.81276 -0.6128248 170.59238 -50.97699 -2.8041151 -51.2603 -1.4412024 0.036260139 144.59926
541902604.75651 -0.61523831 170.3681 -50.885387 -2.642271 -51.295799 -2.3060865 0.03346042 144.56841
542280105.70026 -0.62161052 170.12556 -50.666222 -2.4988875 -50.969669 -4.7561989 0.032675181 144.51747
542657606.64402 -0.62665939 169.9063 -50.883755 -3.3157918 -51.015888 -4.2316284 0.029340561 144.48802
543035107.58777 -0.62954426 169.65987 -50.617546 -4.0623975 -50.790047 -4.5952473 0.026102526 144.45067
543412608.53152 -0.6324333 169.43842 -50.855751 -5.1634674 -50.882698 -5.7568965 0.023998654 144.39026
543790109.47527 -0.63948512 169.20403 -50.787148 -5.1696677 -50.99189 -7.0951343 0.021853369 144.34438
544167610.41903 -0.64293575 168.97516 -50.934792 -7.3852582 -51.050446 -7.1134405 0.016722908 144.3125
544545111.36278 -0.64499503 168.72429 -50.942886 -8.7070704 -50.945446 -6.0506616 0.016198801 144.26605
544922612.30653 -0.64875174 168.4929 -50.911251 -6.8837643 -50.707405 -8.2530737 0.012788991 144.23627
545300113.25028 -0.65036821 168.24471 -50.758694 -8.830533 -50.783657 -5.0939956 0.014644176 144.1879
545677614.19404 -0.65276295 167.9964 -50.568317 -8.6200294 -50.355911 -7.7672086 0.012628145 144.16351
546055115.13779 -0.65775627 167.743 -50.429749 -6.8902688 -50.405216 -8.5619574 0.013859262 144.12167
546432616.08154 -0.65864336 167.48518 -50.39743 -6.7069874 -50.463692 -6.8377528 0.013935813 144.12248
546810117.02529 -0.66024965 167.22272 -50.304398 -8.9907522 -50.507412 -8.1139822 0.015021831 144.08632
547187617.96904 -0.66658497 166.96681 -50.284786 -9.8798256 -50.05648 -8.4544039 0.013934406 144.04988
547565118.9128 -0.67005342 166.71367 -50.115276 -10.203288 -50.447975 -10.067619 0.018054178 144.00954
547942619.85655 -0.6771003 166.45076 -49.954815 -11.054868 -49.872608 -9.9092894 0.017861733 143.97824
548320120.8003 -0.68364847 166.1819 -49.97736 -10.543581 -49.836807 -10.603675 0.020355694 143.94209
548697621.74405 -0.68948269 165.91074 -49.888603 -10.047194 -49.764812 -9.1460829 0.019032314 143.91228
549075122.68781 -0.69441992 165.67073 -49.724785 -11.940757 -49.695961 -12.68038 0.017629955 143.86729
549452623.63156 -0.70361549 165.42317 -49.604107 -14.02115 -49.76215 -12.030292 0.0169618 143.84117
549830124.57531 -0.70954591 165.16214 -49.56612 -11.580667 -49.473862 -13.123757 0.018440759 143.79282
550207625.51906 -0.71809369 164.91571 -49.370647 -14.440803 -49.341141 -14.289839 0.01353824 143.73683
550585126.46282 -0.72659016 164.64873 -49.133636 -17.265736 -48.793518 -14.839583 0.013126696 143.70078
550962627.40657 -0.73465192 164.40686 -49.20166 -13.809464 -48.991726 -16.602554 0.0086067626 143.67564
551340128.35032 -0.74572521 164.1752 -49.032188 -17.271223 -48.873802 -17.38199 0.010224245 143.61562
551717629.29407 -0.75302327 163.92168 -48.943466 -18.714607 -49.21299 -17.509308 0.0093097966 143.59454
552095130.23783 -0.76394993 163.69093 -48.675549 -19.175301 -48.705555 -19.276497 0.0095235556 143.55106
552472631.18158 -0.77371001 163.44948 -48.840782 -19.760612 -48.659496 -21.220406 0.0090975724 143.53133
552850132.12533 -0.78366661 163.21342 -48.385342 -20.608847 -48.211327 -20.905697 0.010373648 143.5051
553227633.06908 -0.79120409 162.95737 -48.691734 -21.794807 -48.772675 -21.569607 0.013755695 143.47055
553605134.01284 -0.80283529 162.73511 -48.556305 -20.524385 -48.392235 -21.257227 0.017864764 143.45541
553982634.95659 -0.81320673 162.49632 -48.370163 -23.61521 -48.368328 -24.800556 0.021499148 143.45372
554360135.90034 -0.82536978 162.26491 -48.267841 -23.414164 -48.455025 -26.0261 0.025498897 143.45222
554737636.84409 -0.83742058 162.04088 -48.315617 -25.814342 -48.40749 -26.711798 0.030331608 143.43243
555115137.78784 -0.8472113 161.81273 -48.301483 -24.10162 -48.43869 -25.561882 0.033606555 143.41032
555492638.7316 -0.85888553 161.57611 -48.278652 -28.611887 -48.104889 -28.605452 0.039423153 143.39842
555870139.67535 -0.86846286 161.36111 -48.248661 -29.758783 -48.033958 -29.441706 0.038329903 143.38524
556247640.6191 -0.87870449 161.15735 -47.991917 -29.547712 -47.94511 -29.688791 0.042860854 143.3539
556625141.56285 -0.88894325 160.91414 -48.215279 -29.739771 -48.2337 -30.327349 0.043057643 143.33556
557002642.50661 -0.89543879 160.69359 -47.76627 -30.963915 -48.14801 -32.375626 0.039330442 143.30917
557380143.45036 -0.90548295 160.46049 -47.86887 -29.792692 -48.076488 -31.499292 0.036630377 143.28622
557757644.39411 -0.91302699 160.2321 -47.958336 -33.154099 -47.749363 -33.438927 0.035356916 143.2738
558135145.33786 -0.92407966 160.01205 -47.60413 -34.234867 -47.877403 -35.085957 0.034296062 143.20723
558512646.28162 -0.93285781 159.77771 -47.908611 -35.828678 -47.721977 -34.966843 0.028503653 143.21442
558890147.22537 -0.93969649 159.56573 -47.651169 -37.276627 -47.695759 -37.852913 0.027551031 143.16879
559267648.16912 -0.94740885 159.35957 -47.519348 -36.563911 -47.743221 -36.773392 0.026082486 143.14093
559645149.11287 -0.95450133 159.15149 -47.646229 -38.191143 -47.544212 -38.198212 0.023330403 143.08972
560022650.05663 -0.96049339 158.92981 -47.588188 -39.910587 -47.84317 -39.157455 0.024782961 143.07477
560400151.00038 -0.96577638 158.71776 -47.637909 -41.277489 -47.740139 -39.230389 0.027642129 143.03839
560777651.94413 -0.969109 158.51042 -47.479225 -42.519688 -47.580959 -41.273037 0.028767504 143.01709
561155152.88788 -0.97498107 158.27821 -47.633083 -41.522774 -47.740776 -41.510204 0.028104601 142.98401
561532653.83163 -0.97504133 158.08383 -47.499722 -43.978672 -47.479725 -43.725029 0.033879004 142.94498
561910154.77539 -0.97687775 157.84908 -47.771111 -42.578823 -47.578785 -43.089981 0.033950403 142.93468
562287655.71914 -0.97751862 157.62247 -47.306324 -45.375763 -47.748264 -46.037437 0.034871958 142.91685
562665156.66289 -0.97964513 157.38077 -47.584713 -45.119465 -47.667213 -44.889599 0.037802909 142.89072
563042657.60664 -0.97759819 157.15439 -47.610756 -45.610481 -47.677216 -47.18935 0.03780118 142.86475
563420158.5504 -0.97893751 156.91927 -47.822304 -46.907173 -47.574627 -48.341793 0.039721776 142.84216
563797659.49415 -0.97915357 156.66922 -47.651421 -48.523922 -47.572247 -48.81324 0.038245615 142.8058
564175160.4379 -0.98057073 156.41754 -47.896015 -49.070553 -47.85033 -50.877518 0.035622679 142.77473
564552661.38165 -0.98125851 156.14745 -47.843208 -51.314659 -47.651741 -51.468853 0.031104345 142.74251
564930162.32541 -0.98399258 155.89662 -47.755756 -52.096382 -47.64027 -50.042271 0.029246449 142.69807
565307663.26916 -0.98570377 155.62437 -47.904388 -51.651604 -47.769676 -50.726273 0.028686458 142.67445
565685164.21291 -0.98665923 155.33763 -47.799259 -52.376965 -48.007053 -53.304699 0.021760656 142.63269
566062665.15666 -0.98825133 155.05836 -47.577106 -52.180706 -47.799683 -51.708912 0.018566761 142.58362
566440166.10042 -0.99552399 154.76497 -47.807262 -53.54335 -47.845951 -51.889812 0.018909378 142.56184
566817667.04417 -1.0016804 154.45776 -47.776325 -52.125046 -47.845695 -53.298725 0.016106544 142.52783
567195167.98792 -1.0119625 154.17445 -47.980259 -52.263432 -47.854683 -51.311146 0.01493634 142.47855
567572668.93167 -1.0228908 153.90308 -47.761501 -53.71582 -47.903202 -51.529938 0.016158774 142.44833
567950169.87542 -1.0343775 153.62926 -47.735641 -54.113285 -47.817791 -51.975166 0.017493509 142.41591
568327670.81918 -1.0435338 153.38615 -47.50872 -53.848259 -47.635685 -54.046555 0.019600641 142.37637
568705171.76293 -1.0545644 153.13052 -47.729347 -54.047604 -47.620319 -54.883369 0.024418667 142.33357
569082672.70668 -1.0618576 152.90398 -47.600037 -52.968426 -47.519428 -55.183094 0.025865946 142.30548
569460173.65043 -1.0694878 152.6487 -47.722385 -54.438614 -47.483871 -55.475063 0.025858074 142.26793
569837674.59419 -1.0720634 152.38048 -47.569302 -57.286011 -47.460934 -55.856922 0.025817826 142.2381
570215175.53794 -1.0792118 152.11693 -47.476997 -55.229942 -47.455982 -57.049011 0.028456308 142.21448
570592676.48169 -1.0853032 151.84041 -47.658089 -56.88871 -47.54615 -56.892879 0.029127572 142.16216
570970177.42544 -1.0907161 151.5876 -47.723183 -55.642334 -47.709881 -56.723789 0.030833807 142.16046
571347678.3692 -1.0961238 151.28242 -47.305286 -56.333126 -47.613686 -56.497601 0.02807373 142.11685
571725179.31295 -1.1007569 151.00769 -47.236038 -57.053169 -47.407928 -58.29932 0.027531669 142.07903
572102680.2567 -1.1056225 150.71078 -47.149193 -57.590858 -47.401207 -57.896503 0.029378803 142.06958
572480181.20045 -1.1126891 150.41409 -47.410061 -57.01149 -47.291397 -57.588085 0.028496938 142.04596
