!Keysight Technologies,N5242B,MY48420860,A.13.80.08
!Date: Saturday, September 26, 2020 12:44:56
!Correction: S11(Full 2 Port(1,2)) 
!S21(Full 2 Port(1,2)) 
!S12(Full 2 Port(1,2)) 
!S22(Full 2 Port(1,2)) 
!S2P File: Measurements: S11, S21, S12, S22:
# Hz S  dB   R 50
500000000 -0.23023622 -166.20218 -60.614025 -31.101341 -61.980488 -29.431887 0.032679725 147.68684
500377500.94375 -0.23320496 -166.4041 -61.166096 -24.125116 -61.463764 -30.151171 0.034937646 147.66176
500755001.8875 -0.23597902 -166.59319 -61.908524 -33.465527 -62.353642 -21.10602 0.035507653 147.66689
501132502.83126 -0.23846138 -166.81606 -61.156387 -25.986431 -60.875343 -26.989584 0.034601469 147.66295
501510003.77501 -0.24185407 -167.02051 -60.723446 -35.417324 -61.332901 -28.163376 0.035081327 147.66232
501887504.71876 -0.24522412 -167.20934 -60.272087 -29.620373 -60.669891 -33.756573 0.034041241 147.66084
502265005.66251 -0.24659228 -167.41592 -60.153564 -37.038269 -60.80225 -33.478588 0.029856114 147.64433
502642506.60627 -0.25139904 -167.63126 -60.587608 -36.754002 -60.390053 -33.887402 0.029530857 147.61575
503020007.55002 -0.25374353 -167.83203 -60.554951 -30.654121 -60.553413 -31.53314 0.027497714 147.6022
503397508.49377 -0.25803426 -168.02435 -60.649525 -33.793583 -60.03371 -39.684181 0.02601256 147.55511
503775009.43752 -0.26123577 -168.21483 -59.656445 -34.801796 -60.694775 -39.784092 0.021462927 147.51224
504152510.38128 -0.26439095 -168.40265 -61.130035 -39.800907 -61.263527 -34.626213 0.025552616 147.48393
504530011.32503 -0.267012 -168.60448 -59.580349 -35.397751 -60.858322 -36.853615 0.028228102 147.44724
504907512.26878 -0.26685253 -168.8036 -60.447277 -38.095863 -60.297089 -44.78389 0.029664824 147.39639
505285013.21253 -0.2692374 -168.98941 -60.332916 -35.261131 -60.416935 -39.29789 0.03082861 147.39481
505662514.15629 -0.27179793 -169.17683 -59.834164 -37.315201 -59.945518 -41.296944 0.034732617 147.35316
506040015.10004 -0.27057394 -169.36435 -60.100548 -43.897762 -60.201038 -39.361473 0.037219547 147.31111
506417516.04379 -0.27318457 -169.55655 -59.872932 -46.345486 -59.827091 -49.385578 0.038775809 147.30312
506795016.98754 -0.26950264 -169.75671 -60.478134 -38.665997 -59.792393 -49.261074 0.044706572 147.29285
507172517.93129 -0.27219263 -169.94366 -60.245827 -40.338863 -60.205719 -43.34457 0.042890731 147.26572
507550018.87505 -0.27211732 -170.16145 -59.820686 -54.884876 -59.779594 -48.07431 0.04619031 147.2626
507927519.8188 -0.27124658 -170.36102 -60.187458 -50.174473 -59.610016 -50.387283 0.044772044 147.23817
508305020.76255 -0.27212909 -170.54408 -60.002567 -42.744217 -59.528378 -42.142265 0.045959286 147.23582
508682521.7063 -0.27193677 -170.75446 -60.793056 -51.922256 -59.397533 -51.641891 0.038871806 147.22186
509060022.65006 -0.27318189 -170.96344 -59.108963 -50.7407 -59.6395 -50.964809 0.038201891 147.2032
509437523.59381 -0.27194166 -171.14552 -59.574814 -46.827465 -59.631424 -46.163303 0.034411073 147.16684
509815024.53756 -0.27450281 -171.35126 -60.833694 -47.096943 -59.753262 -53.436699 0.029783353 147.15324
510192525.48131 -0.27577606 -171.56311 -60.410316 -53.803997 -60.158478 -52.592083 0.023854274 147.09377
510570026.42507 -0.27700529 -171.75681 -59.762321 -50.496239 -59.137016 -51.009449 0.020834649 147.04399
510947527.36882 -0.27827173 -171.96767 -60.064129 -52.79221 -59.606606 -54.636299 0.02038555 146.9924
511325028.31257 -0.2792331 -172.17664 -58.825825 -51.921021 -60.112789 -57.162308 0.018505804 146.94415
511702529.25632 -0.28147927 -172.38461 -59.430992 -57.263531 -58.91074 -56.90387 0.017076351 146.8941
512080030.20008 -0.28375784 -172.58676 -60.154587 -59.154041 -59.393353 -57.340675 0.016435379 146.83281
512457531.14383 -0.28383908 -172.79425 -59.544193 -56.698582 -59.070484 -43.436687 0.019539908 146.76929
512835032.08758 -0.28844827 -173.01367 -58.774921 -60.067314 -59.491241 -52.178402 0.022377798 146.74707
513212533.03133 -0.29194257 -173.22673 -59.14698 -54.377373 -59.258835 -59.631638 0.024851516 146.71025
513590033.97508 -0.29319614 -173.45007 -58.257633 -55.923073 -57.965427 -53.633469 0.027123677 146.66286
513967534.91884 -0.29554942 -173.66356 -59.507778 -55.698399 -59.04771 -57.744755 0.030592378 146.62134
514345035.86259 -0.29897508 -173.87834 -59.182415 -55.290901 -58.857391 -55.561493 0.032198992 146.63614
514722536.80634 -0.30030513 -174.10028 -58.717747 -47.603565 -58.657383 -59.412102 0.038442649 146.62521
515100037.75009 -0.30465543 -174.32317 -58.433083 -54.436481 -59.64291 -62.030918 0.038512677 146.6028
515477538.69385 -0.30854562 -174.54341 -58.582458 -60.034889 -59.144566 -52.27441 0.037828859 146.62413
515855039.6376 -0.30986458 -174.75742 -58.645058 -47.332893 -57.986546 -60.290222 0.036712855 146.6171
516232540.58135 -0.31438097 -174.98965 -57.739677 -57.043816 -58.099846 -59.606998 0.036320791 146.59615
516610041.5251 -0.31768364 -175.20316 -57.727829 -63.544994 -58.518723 -57.938911 0.036525998 146.5601
516987542.46886 -0.32054067 -175.42349 -58.206795 -56.115059 -58.448318 -63.088833 0.034182508 146.55984
517365043.41261 -0.32340771 -175.64732 -59.593948 -63.63522 -57.893486 -58.503639 0.0294881 146.53311
517742544.35636 -0.32819292 -175.86612 -58.950947 -66.991394 -58.280361 -64.059654 0.033364359 146.51068
518120045.30011 -0.33327678 -176.07605 -57.872902 -71.148094 -57.87014 -60.539135 0.02879663 146.4501
518497546.24387 -0.33827057 -176.29103 -57.549454 -60.118465 -58.472942 -61.006287 0.028118119 146.41278
518875047.18762 -0.34056461 -176.50468 -58.108292 -68.318405 -57.756634 -63.009903 0.028382244 146.37506
519252548.13137 -0.3456566 -176.7027 -57.651871 -61.316452 -57.170532 -63.653961 0.027946535 146.3353
519630049.07512 -0.34910753 -176.92403 -57.138737 -66.297035 -57.964989 -64.797089 0.030058565 146.28458
520007550.01888 -0.35160807 -177.13072 -57.910213 -63.713387 -57.139488 -61.865772 0.032866567 146.24696
520385050.96263 -0.35356975 -177.31816 -57.165241 -70.577583 -57.732361 -67.189415 0.035034459 146.21204
520762551.90638 -0.35689494 -177.51634 -57.527542 -66.344727 -57.715179 -65.569366 0.035420403 146.15842
521140052.85013 -0.35795522 -177.73051 -56.971985 -67.357124 -56.979755 -65.216675 0.041717287 146.13542
521517553.79388 -0.36011642 -177.93341 -57.75457 -67.618095 -57.725216 -63.894241 0.04222529 146.11414
521895054.73764 -0.35943231 -178.14787 -57.221302 -68.484863 -57.730415 -70.560638 0.042725671 146.10005
522272555.68139 -0.36146379 -178.36548 -57.10545 -73.122063 -57.190933 -72.927643 0.042505048 146.08134
522650056.62514 -0.36213028 -178.56137 -57.27092 -73.224274 -56.794807 -70.689407 0.041512765 146.07368
523027557.56889 -0.36471516 -178.78833 -57.338932 -62.966217 -57.210987 -74.864136 0.040772159 146.05673
523405058.51265 -0.36614513 -179.02248 -57.603821 -74.139183 -57.438751 -73.891174 0.038068812 146.03336
523782559.4564 -0.36555845 -179.23323 -57.824223 -73.921486 -57.255642 -70.385773 0.038825374 146.02789
524160060.40015 -0.36967003 -179.45975 -57.36512 -72.638954 -57.342457 -71.691322 0.033685803 146.00465
524537561.3439 -0.37487394 -179.69756 -57.30862 -72.514328 -57.005222 -74.744286 0.032515436 145.98473
524915062.28766 -0.3777059 -179.93375 -56.291439 -70.46508 -57.345989 -73.489624 0.027109159 145.93335
525292563.23141 -0.3802107 179.82471 -56.262623 -68.355095 -57.58902 -75.973892 0.027200745 145.92149
525670064.17516 -0.38776374 179.58397 -57.053703 -75.67041 -56.586807 -68.229004 0.026237706 145.88522
526047565.11891 -0.39129218 179.36516 -57.127819 -72.634193 -57.158955 -72.417801 0.02728725 145.8383
526425066.06267 -0.39832523 179.13164 -56.847939 -72.252838 -56.337284 -72.723068 0.029758822 145.79512
526802567.00642 -0.40594387 178.90433 -56.481117 -74.000534 -56.731617 -75.752449 0.027854118 145.74602
527180067.95017 -0.41305664 178.65382 -56.9697 -77.228439 -56.158112 -79.650009 0.030198161 145.71964
527557568.89392 -0.4202632 178.42505 -55.921131 -77.971466 -56.070904 -77.329666 0.028813779 145.67604
527935069.83767 -0.42795247 178.19707 -55.908657 -79.621605 -55.806343 -71.906921 0.032247145 145.64713
528312570.78143 -0.43451121 177.96889 -55.911999 -79.228531 -55.687969 -76.634323 0.0320829 145.61044
528690071.72518 -0.44388542 177.73201 -55.76989 -78.875732 -55.950363 -78.934441 0.034261294 145.5782
529067572.66893 -0.45407498 177.51909 -55.560158 -76.699104 -55.408913 -81.373665 0.034943864 145.53297
529445073.61268 -0.46058333 177.28407 -55.454487 -86.205276 -55.559601 -80.830437 0.032497499 145.51378
529822574.55644 -0.46864155 177.06976 -55.573128 -77.338219 -55.974339 -79.262024 0.032051694 145.50494
530200075.50019 -0.47758654 176.84329 -55.257622 -77.178833 -55.401749 -83.25972 0.030496117 145.49855
530577576.44394 -0.48698065 176.6288 -55.303879 -81.284264 -55.277309 -83.569679 0.027940568 145.46227
530955077.38769 -0.4950271 176.4101 -55.660278 -81.946609 -55.180462 -84.416977 0.026220703 145.44882
531332578.33145 -0.50351816 176.19595 -54.722099 -85.02774 -54.676849 -83.598831 0.02355721 145.43558
531710079.2752 -0.50898522 175.99623 -55.060478 -86.69722 -54.825172 -86.905663 0.022322111 145.40373
532087580.21895 -0.51578742 175.80807 -54.83152 -90.064857 -55.491154 -84.424828 0.022813054 145.39102
532465081.1627 -0.52361178 175.58945 -54.89962 -85.140282 -55.176064 -87.155525 0.0177918 145.34349
532842582.10646 -0.52649951 175.39575 -54.982208 -87.735146 -54.948647 -89.602921 0.021632206 145.31949
533220083.05021 -0.53056312 175.1848 -54.529285 -89.25663 -54.817883 -87.668358 0.020537928 145.2709
533597583.99396 -0.53729326 174.9995 -54.617527 -87.98716 -54.39003 -91.604027 0.022247208 145.20663
533975084.93771 -0.54021937 174.80397 -54.655739 -89.204018 -54.675594 -87.685547 0.023471277 145.1689
534352585.88146 -0.54629934 174.59135 -54.336754 -89.675629 -54.042789 -88.852043 0.024354363 145.13557
534730086.82522 -0.54942816 174.40407 -54.141602 -93.265915 -54.780869 -90.379257 0.028314635 145.09413
535107587.76897 -0.55111176 174.216 -54.535137 -94.414375 -54.080391 -94.412468 0.029297164 145.04367
535485088.71272 -0.55330139 173.99522 -54.653397 -95.466507 -54.331635 -93.406082 0.032641634 144.98473
535862589.65647 -0.55431855 173.79129 -54.601025 -95.138023 -54.443481 -93.342857 0.03307895 144.99431
536240090.60023 -0.56020564 173.58347 -54.476997 -95.222198 -53.972187 -95.232422 0.03444048 144.95107
536617591.54398 -0.56372941 173.38622 -53.582741 -98.074593 -53.900509 -97.248421 0.03684311 144.92719
536995092.48773 -0.56512123 173.16808 -54.468693 -99.263863 -54.012127 -94.849594 0.033623345 144.88988
537372593.43148 -0.56485116 172.97313 -54.346142 -100.58276 -54.252018 -96.436226 0.035621729 144.88852
537750094.37524 -0.56746662 172.76787 -54.286873 -101.60991 -53.796478 -98.791039 0.030306993 144.85866
538127595.31899 -0.57088763 172.5419 -53.736378 -101.16242 -54.289257 -102.69498 0.03116305 144.84106
538505096.26274 -0.57087618 172.3174 -53.537987 -104.32519 -54.116917 -99.64164 0.032011721 144.83826
538882597.20649 -0.57484078 172.10143 -53.76638 -107.50532 -53.952526 -101.98707 0.035919465 144.82402
539260098.15025 -0.57605767 171.88148 -54.214848 -102.53441 -53.46394 -101.82262 0.033726033 144.80524
539637599.094 -0.57856995 171.64299 -53.637112 -106.90342 -53.967468 -107.99838 0.035534732 144.78378
540015100.03775 -0.5821104 171.41412 -53.57523 -109.49714 -53.916973 -106.66515 0.037215602 144.77664
540392600.9815 -0.584593 171.18068 -53.779217 -108.48164 -53.806042 -108.13567 0.039032716 144.73047
540770101.92525 -0.58572507 170.9368 -53.679424 -108.36847 -53.95433 -106.48665 0.040240906 144.7099
541147602.86901 -0.59089857 170.71309 -54.093445 -107.13623 -53.876934 -110.00311 0.042365037 144.67877
541525103.81276 -0.59533983 170.46239 -53.539318 -108.24007 -53.916145 -106.86615 0.044979051 144.65399
541902604.75651 -0.59877998 170.21892 -53.657475 -111.28582 -53.7542 -110.47961 0.042482231 144.6106
542280105.70026 -0.6031307 169.96338 -53.327473 -112.22984 -53.487617 -108.97531 0.04529744 144.58278
542657606.64402 -0.60545987 169.7348 -53.239182 -112.34096 -53.488007 -105.80529 0.043535512 144.55046
543035107.58777 -0.60918278 169.46625 -53.546871 -110.16404 -53.546616 -108.64813 0.040761441 144.51488
543412608.53152 -0.61274952 169.22647 -53.439682 -110.51598 -53.825741 -109.7146 0.0395227 144.46346
543790109.47527 -0.61931497 168.96967 -53.313347 -107.98607 -53.806519 -113.82394 0.037014313 144.41328
544167610.41903 -0.62186116 168.72514 -53.61832 -113.47813 -53.716892 -111.91335 0.032650538 144.37425
544545111.36278 -0.62598038 168.4695 -53.380302 -110.31019 -53.749409 -112.64752 0.029334581 144.32887
544922612.30653 -0.63063842 168.21443 -53.554493 -113.45731 -53.114979 -112.38768 0.0260989 144.30359
545300113.25028 -0.63323218 167.95 -53.323631 -113.04048 -53.575027 -113.69281 0.025226006 144.27901
545677614.19404 -0.63708949 167.69183 -53.050674 -114.23425 -52.852158 -114.11452 0.022288045 144.26324
546055115.13779 -0.64124107 167.41707 -53.104126 -117.12967 -53.355492 -117.80208 0.020664908 144.19446
546432616.08154 -0.64322758 167.13899 -53.344032 -113.85522 -53.252033 -114.27064 0.017806768 144.18604
546810117.02529 -0.64736247 166.86858 -53.218449 -113.54063 -53.537987 -117.02719 0.020839171 144.14494
547187617.96904 -0.65284836 166.57701 -53.125149 -118.08811 -53.003929 -118.30808 0.018956486 144.11208
547565118.9128 -0.66196388 166.31143 -52.92424 -117.56905 -53.185539 -115.50532 0.022522403 144.07166
547942619.85655 -0.66905421 166.02458 -53.062649 -117.46037 -52.947605 -117.11832 0.021636063 144.02716
548320120.8003 -0.67679447 165.75233 -52.939293 -115.65323 -52.973835 -115.90477 0.024829356 143.98483
548697621.74405 -0.68629676 165.45024 -52.605961 -117.54256 -53.038784 -117.99744 0.027255503 143.93871
549075122.68781 -0.69600618 165.21347 -52.647266 -117.37029 -53.341461 -117.04076 0.023829535 143.90739
549452623.63156 -0.70856953 164.94658 -52.339897 -116.67851 -52.476231 -116.8253 0.025890974 143.85449
549830124.57531 -0.71822673 164.67818 -52.740208 -119.51701 -52.728806 -116.98793 0.029119367 143.81999
550207625.51906 -0.73127609 164.42145 -52.312222 -115.74307 -52.434444 -119.48819 0.024873883 143.76843
550585126.46282 -0.74270087 164.16266 -52.372475 -120.41277 -52.296093 -117.32352 0.022855563 143.72894
550962627.40657 -0.75595731 163.91806 -51.89959 -120.41515 -51.837975 -117.44121 0.020991202 143.70001
551340128.35032 -0.76867551 163.66829 -51.823811 -119.1499 -51.978519 -121.25833 0.022637058 143.66447
551717629.29407 -0.78075117 163.41786 -52.06385 -122.51411 -51.598179 -123.61181 0.022058012 143.63499
552095130.23783 -0.79626441 163.18475 -51.79166 -119.89774 -51.964352 -120.57306 0.020721724 143.60199
552472631.18158 -0.81231987 162.94305 -51.478836 -123.84816 -51.715832 -122.89185 0.019145932 143.57753
552850132.12533 -0.82331783 162.7155 -51.394253 -120.46674 -51.566776 -124.15545 0.020580456 143.55383
553227633.06908 -0.83576256 162.46234 -50.964722 -122.82329 -51.243011 -123.91246 0.022159364 143.54327
553605134.01284 -0.8512907 162.24896 -51.204578 -125.39389 -51.153896 -126.75754 0.027044881 143.51479
553982634.95659 -0.86499411 162.02303 -51.260937 -126.0302 -51.051571 -127.07729 0.029469598 143.50732
554360135.90034 -0.87854713 161.80479 -51.264835 -126.58344 -50.912746 -127.21531 0.034016941 143.51091
554737636.84409 -0.89602816 161.58888 -50.776821 -128.74271 -51.066025 -127.47363 0.037602827 143.50325
555115137.78784 -0.90754044 161.35379 -50.820656 -130.43655 -50.825909 -129.49348 0.045417804 143.4823
555492638.7316 -0.92078185 161.13382 -50.690269 -130.00549 -50.592503 -129.10483 0.051185135 143.46693
555870139.67535 -0.93329155 160.92943 -50.708706 -134.9984 -50.595287 -130.82138 0.052442633 143.47052
556247640.6191 -0.94730383 160.71693 -50.581974 -132.40312 -50.452869 -134.38409 0.058730986 143.4279
556625141.56285 -0.95917946 160.48143 -50.702633 -131.60553 -50.451286 -133.42317 0.057593688 143.40431
557002642.50661 -0.96965075 160.27531 -50.464252 -134.35786 -50.241238 -134.00102 0.056246281 143.38318
557380143.45036 -0.98312777 160.06503 -50.292889 -135.76318 -50.283813 -133.70486 0.056386806 143.36551
557757644.39411 -0.99690348 159.85835 -50.470123 -137.51964 -50.302662 -137.5899 0.053564239 143.33955
558135145.33786 -1.0084518 159.64795 -50.602169 -135.45064 -50.329193 -138.18764 0.050985374 143.28177
558512646.28162 -1.0205662 159.44681 -50.136314 -137.53259 -49.982452 -137.10808 0.047366373 143.27663
558890147.22537 -1.0308571 159.25078 -50.039837 -138.58141 -50.044479 -140.10161 0.041886304 143.24687
559267648.16912 -1.0384228 159.06502 -50.123722 -138.80701 -50.118824 -140.6394 0.038698107 143.19444
559645149.11287 -1.0466839 158.88429 -50.040127 -141.30045 -49.831978 -141.2411 0.035232618 143.14677
560022650.05663 -1.0542471 158.68886 -49.832729 -142.66293 -49.937855 -141.69672 0.034488957 143.12326
560400151.00038 -1.0604841 158.49338 -49.812927 -143.11017 -49.822388 -143.85809 0.037712522 143.08044
560777651.94413 -1.0655859 158.30074 -50.034924 -140.88039 -49.567734 -144.68932 0.034186255 143.04793
561155152.88788 -1.0696683 158.09787 -49.767548 -145.6011 -49.57682 -144.81615 0.033943906 143.02237
561532653.83163 -1.0736997 157.92349 -49.800354 -147.44807 -49.974579 -146.49834 0.039841108 142.98033
561910154.77539 -1.0756109 157.71684 -49.910419 -148.2717 -49.864304 -146.8604 0.040388305 142.96614
562287655.71914 -1.0755866 157.50996 -49.577202 -149.75359 -49.708897 -149.36797 0.042706717 142.92519
562665156.66289 -1.0789814 157.30153 -49.672649 -148.48318 -49.723179 -149.85114 0.045217779 142.91846
563042657.60664 -1.0783819 157.09122 -49.649567 -151.43695 -49.713676 -149.2052 0.047115728 142.89337
563420158.5504 -1.0801991 156.87659 -49.742252 -150.64659 -49.603886 -151.74347 0.048700284 142.8558
563797659.49415 -1.0817628 156.67682 -49.933502 -152.67839 -49.840069 -152.95506 0.049263015 142.82896
564175160.4379 -1.0791436 156.45871 -49.851376 -153.31195 -49.850422 -152.55104 0.047382001 142.80623
564552661.38165 -1.0789666 156.22478 -49.685364 -154.77928 -49.695057 -154.68178 0.041822854 142.77914
564930162.32541 -1.0775332 155.99413 -49.916901 -155.60663 -49.576145 -152.35092 0.041877668 142.74094
565307663.26916 -1.073154 155.73801 -49.396633 -155.39069 -49.955486 -156.30594 0.038258664 142.70912
565685164.21291 -1.0718495 155.47282 -49.875149 -153.83963 -49.76223 -154.425 0.031291537 142.6636
566062665.15666 -1.0707008 155.18794 -49.747482 -155.81369 -49.636631 -155.78566 0.025983792 142.60902
566440166.10042 -1.071457 154.90343 -49.325073 -154.75743 -49.808186 -155.95749 0.02403201 142.59392
566817667.04417 -1.0729529 154.59383 -49.650906 -155.05144 -49.643085 -155.74591 0.022989739 142.53473
567195167.98792 -1.0831002 154.30634 -49.495029 -157.34468 -49.564777 -156.62903 0.020871276 142.49225
567572668.93167 -1.0894693 154.01691 -49.877953 -155.91725 -49.840614 -158.02481 0.018100709 142.44284
567950169.87542 -1.1002529 153.72266 -49.194317 -158.94749 -49.37384 -156.57938 0.020692099 142.40984
568327670.81918 -1.1092665 153.45099 -49.639679 -155.20656 -49.305103 -159.57037 0.023791028 142.37439
568705171.76293 -1.1195254 153.18948 -49.149254 -157.91469 -49.109146 -158.64542 0.031131426 142.32605
569082672.70668 -1.126281 152.94144 -49.124523 -160.73598 -48.968414 -159.54904 0.033237215 142.29706
569460173.65043 -1.1370648 152.67445 -49.030678 -159.76144 -49.169922 -160.96422 0.037553448 142.26874
569837674.59419 -1.1389459 152.41414 -48.814194 -158.51437 -49.207363 -161.20819 0.03628204 142.23421
570215175.53794 -1.1471038 152.13077 -49.043594 -161.4265 -48.990814 -164.13089 0.043055367 142.22556
570592676.48169 -1.1522428 151.8434 -49.028767 -162.6143 -48.96571 -163.11972 0.045270212 142.19038
570970177.42544 -1.1601144 151.54912 -48.777542 -164.07394 -48.972401 -162.38625 0.048258755 142.18266
571347678.3692 -1.1670265 151.2541 -48.674789 -164.77025 -48.919292 -164.71318 0.048321601 142.16466
571725179.31295 -1.175053 150.9597 -48.783791 -166.71811 -48.771721 -164.32368 0.049823005 142.15231
