!Keysight Technologies,N5242B,MY48420860,A.13.80.08
!Date: Saturday, September 26, 2020 13:12:22
!Correction: S11(Full 2 Port(1,2)) 
!S21(Full 2 Port(1,2)) 
!S12(Full 2 Port(1,2)) 
!S22(Full 2 Port(1,2)) 
!S2P File: Measurements: S11, S21, S12, S22:
# Hz S  dB   R 50
500000000 -0.23115052 -166.17957 -63.545937 152.55438 -62.146992 152.26839 -0.034185883 147.24634
500377500.94375 -0.23198086 -166.3614 -61.939709 151.30415 -63.080452 151.72333 -0.034538075 147.22409
500755001.8875 -0.23650873 -166.55891 -62.338005 156.14046 -63.955311 147.95761 -0.034261398 147.23935
501132502.83126 -0.23963027 -166.77095 -62.064926 152.24042 -61.643757 155.38072 -0.036848433 147.22754
501510003.77501 -0.2414955 -166.97836 -64.056946 147.78877 -64.681366 155.70665 -0.038804349 147.22958
501887504.71876 -0.24529611 -167.17857 -62.627857 144.5307 -62.078041 156.70285 -0.040739592 147.22661
502265005.66251 -0.24794102 -167.38591 -63.198708 155.1138 -62.011433 152.672 -0.043310568 147.19804
502642506.60627 -0.25377825 -167.59822 -61.912731 151.73466 -63.679829 143.12457 -0.045474764 147.15761
503020007.55002 -0.25259963 -167.78752 -62.514565 143.16594 -62.530712 153.68298 -0.047114104 147.12364
503397508.49377 -0.25879583 -167.99277 -63.295448 141.6037 -63.06041 143.54356 -0.044498306 147.06483
503775009.43752 -0.26224774 -168.18346 -61.750092 146.22075 -63.248943 141.82825 -0.046771504 147.02422
504152510.38128 -0.26461336 -168.37608 -63.625828 144.9541 -61.684151 147.61113 -0.038454499 147.00505
504530011.32503 -0.2674917 -168.57153 -62.207493 142.3228 -63.16502 135.94337 -0.033567049 146.9872
504907512.26878 -0.26941183 -168.76352 -62.2878 136.37532 -61.733086 142.34904 -0.025901616 146.93759
505285013.21253 -0.27019435 -168.95036 -62.343281 142.39087 -62.135464 144.99515 -0.018361107 146.95978
505662514.15629 -0.27157259 -169.14026 -62.072628 125.04295 -62.126705 136.33961 -0.0090685943 146.93753
506040015.10004 -0.27112147 -169.32074 -60.757206 143.71938 -61.051315 137.18112 -0.0059302333 146.91975
506417516.04379 -0.27566293 -169.51324 -62.30938 131.55779 -60.57119 136.3959 -0.002027611 146.94922
506795016.98754 -0.27080062 -169.69449 -60.545017 133.94543 -60.846657 130.70308 0.0061786687 146.95815
507172517.93129 -0.27277336 -169.88969 -62.148552 130.56401 -61.782349 139.99255 0.0079156682 146.95537
507550018.87505 -0.27154577 -170.11055 -60.714024 139.07913 -62.884834 127.45889 0.0097703282 146.99132
507927519.8188 -0.27202982 -170.31561 -62.775032 125.02954 -60.399139 129.3299 0.0074011749 146.98848
508305020.76255 -0.27357182 -170.49843 -62.078651 124.11214 -60.820633 127.37997 0.0025874309 146.97838
508682521.7063 -0.27254692 -170.69075 -61.277412 126.58195 -61.960609 121.85274 -0.0050097946 146.9724
509060022.65006 -0.27371636 -170.89641 -60.939674 128.03029 -62.45705 127.7039 -0.0070408722 146.92773
509437523.59381 -0.27238569 -171.08809 -61.350208 133.30975 -62.222095 122.12138 -0.012037518 146.90981
509815024.53756 -0.27617744 -171.29526 -61.24683 126.49696 -61.270077 128.54732 -0.018584248 146.87607
510192525.48131 -0.27393898 -171.50221 -61.200329 123.61634 -60.38282 121.23177 -0.023795882 146.82111
510570026.42507 -0.27693906 -171.69206 -61.884174 124.71345 -61.824467 125.62689 -0.026632903 146.75031
510947527.36882 -0.27797467 -171.90399 -61.012051 117.09673 -61.358807 117.22836 -0.02548236 146.69057
511325028.31257 -0.27985206 -172.10912 -60.891911 120.40547 -61.619259 122.2763 -0.026101967 146.63965
511702529.25632 -0.28108343 -172.31294 -61.441299 114.34937 -61.911884 122.69762 -0.024850501 146.58549
512080030.20008 -0.28220317 -172.52213 -61.056416 108.57782 -61.952488 126.16418 -0.023605449 146.52023
512457531.14383 -0.28137377 -172.7298 -61.039349 125.60923 -60.846687 124.42959 -0.018310627 146.47458
512835032.08758 -0.28271645 -172.94881 -62.336418 113.33117 -60.586834 124.06958 -0.014498177 146.46359
513212533.03133 -0.28839821 -173.16608 -61.290318 117.47307 -61.231361 119.11 -0.0136713 146.44035
513590033.97508 -0.29026166 -173.37372 -61.60508 115.75466 -60.990486 114.16443 -0.0080097876 146.40755
513967534.91884 -0.29222205 -173.59657 -61.849304 124.90147 -61.433693 114.09118 -0.0085263671 146.38255
514345035.86259 -0.29390264 -173.80684 -60.699703 123.00365 -61.276859 113.29103 -0.006529782 146.3853
514722536.80634 -0.29592669 -174.04295 -60.86108 116.75866 -62.124954 114.79568 -0.0065824753 146.37875
515100037.75009 -0.3012003 -174.26479 -61.18922 119.51222 -60.240334 115.96321 -0.010240403 146.36447
515477538.69385 -0.30386281 -174.48936 -60.375961 123.09366 -62.235043 120.99644 -0.014946738 146.36465
515855039.6376 -0.30727875 -174.6945 -60.319477 121.3604 -60.817062 117.87383 -0.018728936 146.33371
516232540.58135 -0.31095833 -174.92314 -60.666916 118.57509 -61.437588 113.66506 -0.02378303 146.31152
516610041.5251 -0.31341398 -175.15356 -60.309269 107.44376 -60.072067 110.42834 -0.025385065 146.25044
516987542.46886 -0.31579611 -175.37749 -61.052193 111.44705 -60.419521 107.14542 -0.029426051 146.21118
517365043.41261 -0.3176333 -175.60364 -61.046459 114.83444 -60.543701 111.23882 -0.033068914 146.16393
517742544.35636 -0.322561 -175.82079 -60.465698 117.18004 -60.115723 106.9473 -0.032785326 146.12433
518120045.30011 -0.32743129 -176.04857 -60.358028 110.13219 -60.081745 111.37785 -0.035244644 146.05728
518497546.24387 -0.33127388 -176.26283 -60.478752 108.43893 -60.004105 110.87855 -0.034707632 145.99562
518875047.18762 -0.33631751 -176.49054 -59.73386 114.47483 -60.454403 110.94746 -0.033954609 145.95193
519252548.13137 -0.34028515 -176.68932 -59.927761 105.89965 -60.374447 108.7396 -0.031396225 145.90468
519630049.07512 -0.3433387 -176.91115 -59.682396 114.01465 -59.757496 111.23231 -0.030018628 145.85963
520007550.01888 -0.34816754 -177.12326 -60.239918 108.45531 -59.826687 106.15458 -0.026636953 145.82364
520385050.96263 -0.34942585 -177.32043 -60.509033 107.91766 -59.192211 106.88909 -0.023663782 145.79028
520762551.90638 -0.35307238 -177.53214 -59.665073 104.98854 -59.597149 100.40772 -0.022972837 145.75868
521140052.85013 -0.35672957 -177.73653 -59.456028 103.71421 -59.578457 100.80782 -0.019073613 145.73018
521517553.79388 -0.35795152 -177.94879 -58.470509 106.46938 -58.646614 103.43624 -0.024277942 145.70973
521895054.73764 -0.36050576 -178.16026 -59.798538 101.41372 -59.747131 96.28643 -0.025669405 145.68967
522272555.68139 -0.36161357 -178.3699 -59.951214 103.4641 -58.867855 98.88105 -0.028926907 145.66133
522650056.62514 -0.36422622 -178.5807 -60.20528 95.924431 -59.783741 99.341148 -0.033295047 145.64435
523027557.56889 -0.36695093 -178.79907 -59.228573 100.31822 -60.043728 99.97142 -0.037603024 145.60559
523405058.51265 -0.37104467 -179.02817 -59.404003 97.104401 -58.98568 103.47177 -0.040328804 145.5645
523782559.4564 -0.37057665 -179.23909 -59.327732 98.643631 -59.123959 101.23197 -0.044019189 145.51852
524160060.40015 -0.37692872 -179.46779 -59.567486 111.02924 -59.326118 103.11658 -0.048206877 145.48358
524537561.3439 -0.3807514 -179.69635 -59.639442 101.29502 -60.314777 97.479546 -0.047962777 145.44685
524915062.28766 -0.38683662 -179.93388 -59.591785 102.48042 -58.881466 98.508797 -0.049220331 145.38455
525292563.23141 -0.39136189 179.82857 -58.927677 91.012741 -59.378136 101.33877 -0.045085434 145.35649
525670064.17516 -0.3999517 179.59666 -58.200165 100.88238 -59.209106 94.900688 -0.04237571 145.32411
526047565.11891 -0.40443078 179.37563 -58.675091 97.453171 -58.549328 97.019234 -0.036501437 145.29153
526425066.06267 -0.41416368 179.14845 -59.228214 97.14151 -58.680088 98.874695 -0.031467229 145.25145
526802567.00642 -0.42071885 178.93251 -58.65226 100.03858 -58.69722 95.569962 -0.029256286 145.2307
527180067.95017 -0.42876557 178.69637 -59.244011 95.343521 -59.217655 90.504135 -0.024720453 145.22847
527557568.89392 -0.43802017 178.48224 -57.575123 98.456764 -58.031418 96.626862 -0.020972785 145.22122
527935069.83767 -0.44580886 178.26822 -57.250061 92.900253 -58.369347 97.260559 -0.017264262 145.20328
528312570.78143 -0.45090264 178.05777 -58.426601 96.954636 -58.562817 93.414383 -0.017493354 145.19824
528690071.72518 -0.4634029 177.839 -57.92123 92.51535 -57.720608 96.67289 -0.015539713 145.18945
529067572.66893 -0.47019866 177.62421 -57.69146 91.999672 -57.733776 90.975685 -0.020679388 145.16049
529445073.61268 -0.47678781 177.41814 -57.203377 91.288681 -57.428333 91.104454 -0.021482021 145.16069
529822574.55644 -0.48498222 177.19395 -56.83762 86.850014 -57.336479 87.38311 -0.024375277 145.13722
530200075.50019 -0.49036196 176.97871 -57.331955 90.760498 -56.855564 88.362572 -0.026745776 145.12976
530577576.44394 -0.4977915 176.78667 -57.926159 86.701591 -57.82082 90.151878 -0.029620953 145.08701
530955077.38769 -0.50487226 176.5706 -57.700695 92.557297 -57.530273 89.303406 -0.033112515 145.05313
531332578.33145 -0.51174927 176.35368 -56.95578 88.753464 -57.385376 87.993835 -0.033354327 145.03386
531710079.2752 -0.51871324 176.16069 -56.662994 81.114365 -56.431263 86.63633 -0.034160115 144.99191
532087580.21895 -0.52185643 175.96744 -57.305771 83.159904 -57.108517 86.765205 -0.029116152 144.97751
532465081.1627 -0.5298807 175.759 -57.185505 83.750031 -57.01902 88.803337 -0.030785102 144.93521
532842582.10646 -0.53280979 175.56174 -56.457764 80.393539 -56.716717 80.31028 -0.0246098 144.90695
533220083.05021 -0.53603077 175.35811 -56.651112 78.146996 -57.357216 79.228279 -0.021425482 144.86667
533597583.99396 -0.54006976 175.17758 -56.439434 79.444374 -56.267342 74.115288 -0.015933588 144.8235
533975084.93771 -0.54110968 174.99089 -56.359592 75.853371 -56.4897 76.11274 -0.010632678 144.81493
534352585.88146 -0.54498196 174.77844 -56.195084 74.982552 -56.515724 78.242683 -0.0063352264 144.79845
534730086.82522 -0.54633361 174.58684 -55.836407 72.986259 -56.568321 77.641388 -0.0074866097 144.78674
535107587.76897 -0.54750878 174.38809 -56.283718 76.556557 -56.099751 73.239449 -0.0037788416 144.76712
535485088.71272 -0.5459044 174.17043 -56.179356 72.354767 -56.299305 72.894012 -0.00028714992 144.73613
535862589.65647 -0.54725039 173.95691 -56.036793 73.173241 -56.401943 73.283867 -0.0019597965 144.76401
536240090.60023 -0.55091816 173.74632 -55.869308 66.770142 -56.675453 69.393837 -0.006314829 144.72359
536617591.54398 -0.55208057 173.53175 -56.050034 67.512688 -55.840527 73.012566 -0.0068780384 144.69521
536995092.48773 -0.55485541 173.323 -55.936699 65.738037 -55.856178 65.763748 -0.01367815 144.66284
537372593.43148 -0.55658907 173.10291 -56.098305 65.738754 -55.690453 68.258347 -0.017342506 144.6335
537750094.37524 -0.55918688 172.89442 -55.399845 65.41748 -56.232391 67.600189 -0.022944547 144.59137
538127595.31899 -0.56028461 172.67804 -55.365192 60.93808 -55.7299 63.109417 -0.02555323 144.55283
538505096.26274 -0.56231159 172.44487 -56.075848 64.397392 -55.26313 65.273056 -0.025173821 144.52322
538882597.20649 -0.56605077 172.23105 -56.0397 67.27243 -56.003323 62.033916 -0.024678603 144.4919
539260098.15025 -0.56794327 172.0036 -56.498795 63.173985 -55.932423 63.704342 -0.022566088 144.43799
539637599.094 -0.56782627 171.75974 -55.641994 58.310192 -55.684299 60.566833 -0.019577859 144.4153
540015100.03775 -0.57248437 171.54816 -55.639565 65.467224 -55.308212 62.925304 -0.016406462 144.38966
540392600.9815 -0.57467151 171.3075 -55.307003 60.124516 -55.083298 62.331188 -0.0097575439 144.35442
540770101.92525 -0.57613152 171.05121 -55.11145 60.210865 -55.053654 59.708683 -0.0060005151 144.3474
541147602.86901 -0.57971752 170.81909 -55.1889 57.307991 -55.711914 58.158543 -0.0016474539 144.32559
541525103.81276 -0.58398867 170.57382 -55.737682 55.283901 -55.151031 56.024139 0.0014190263 144.32065
541902604.75651 -0.58860737 170.31422 -55.154171 55.811954 -54.48468 57.162388 0.0009459217 144.28322
542280105.70026 -0.59173167 170.07582 -55.064747 56.125206 -55.669212 53.802822 0.00071409391 144.26768
542657606.64402 -0.59640163 169.83818 -55.087563 56.263428 -55.379341 53.560169 -0.0044239149 144.24507
543035107.58777 -0.59769535 169.56006 -55.547512 50.561272 -54.978634 52.542152 -0.010869402 144.23285
543412608.53152 -0.60376203 169.31508 -55.757175 49.516682 -54.882557 50.26754 -0.015886819 144.18463
543790109.47527 -0.60847366 169.05605 -55.352436 53.021042 -55.525658 51.12484 -0.023556469 144.12839
544167610.41903 -0.61346471 168.80795 -55.137348 49.804379 -54.925991 52.62265 -0.034560308 144.07654
544545111.36278 -0.61701936 168.54767 -54.86124 47.54855 -55.255814 46.248859 -0.042943966 144.00687
544922612.30653 -0.62203914 168.29497 -54.981228 48.252773 -55.198784 46.149059 -0.050595693 143.955
545300113.25028 -0.62334365 168.02362 -55.651638 44.153652 -54.766987 42.689816 -0.053406678 143.89182
545677614.19404 -0.62965924 167.76605 -55.080757 47.92308 -54.586277 45.978348 -0.058693793 143.83705
546055115.13779 -0.63615233 167.4986 -55.067333 46.493378 -54.633045 42.588211 -0.059673358 143.74374
546432616.08154 -0.6386441 167.218 -54.975163 46.955982 -54.856075 42.433174 -0.061375201 143.71375
546810117.02529 -0.64189667 166.94441 -54.541424 47.338131 -55.214012 43.403873 -0.05686903 143.64534
547187617.96904 -0.64900976 166.66226 -54.905876 41.806969 -54.313721 41.767395 -0.052410316 143.59837
547565118.9128 -0.65607673 166.40038 -54.826988 41.703178 -54.691742 43.105553 -0.048287749 143.54015
547942619.85655 -0.66679507 166.12395 -54.804691 42.424004 -54.49176 41.381466 -0.043981835 143.50467
548320120.8003 -0.67201287 165.84355 -55.095291 43.304729 -54.809528 40.601006 -0.038838647 143.45694
548697621.74405 -0.68095481 165.54788 -54.979424 41.77314 -55.11533 40.260921 -0.033348054 143.43442
549075122.68781 -0.6901384 165.29512 -54.680317 39.990761 -55.029552 38.29911 -0.034730315 143.42413
549452623.63156 -0.70319945 165.03476 -54.630455 39.604347 -54.272083 39.696278 -0.03193732 143.38422
549830124.57531 -0.71270585 164.76439 -54.131805 36.377781 -54.257999 42.596127 -0.032325134 143.37242
550207625.51906 -0.72484875 164.51196 -54.061699 38.390308 -54.881691 39.935493 -0.035568863 143.34277
550585126.46282 -0.73761374 164.259 -53.44796 38.214798 -54.366226 39.62714 -0.040648375 143.32793
550962627.40657 -0.7502287 164.00259 -53.64444 33.950378 -53.718597 37.410946 -0.043626759 143.30125
551340128.35032 -0.76558083 163.76166 -53.908165 35.191711 -53.914566 35.678452 -0.048125692 143.2601
551717629.29407 -0.77672845 163.50732 -53.382576 34.711433 -53.413555 32.658207 -0.050245814 143.23347
552095130.23783 -0.79209769 163.27811 -53.35561 32.989681 -53.593086 33.156452 -0.050268628 143.18459
552472631.18158 -0.80725974 163.0405 -53.336605 34.100143 -53.465309 32.254112 -0.055439524 143.15744
552850132.12533 -0.82086152 162.81522 -53.592766 33.361454 -54.086525 32.557293 -0.053345427 143.10138
553227633.06908 -0.83145326 162.58226 -53.298187 30.931034 -53.304802 28.887012 -0.049125962 143.06473
553605134.01284 -0.84652776 162.3522 -53.286629 29.137604 -53.360516 30.398226 -0.042796604 143.03838
553982634.95659 -0.86223346 162.11798 -53.308784 27.680586 -53.147858 27.738806 -0.035565224 143.04123
554360135.90034 -0.87574834 161.90311 -53.550327 23.909157 -53.558018 27.494219 -0.025647268 143.03079
554737636.84409 -0.89221793 161.68782 -53.208679 23.605997 -52.895897 28.912849 -0.017204646 143.0248
555115137.78784 -0.90516424 161.46358 -53.119213 26.099354 -53.050793 25.917177 -0.0078111812 143.01761
555492638.7316 -0.92067695 161.23907 -53.053078 21.693022 -53.215755 23.137066 0.003649411 143.0177
555870139.67535 -0.93639505 161.03659 -53.012688 20.315001 -53.065887 20.8564 0.0079716099 143.04033
556247640.6191 -0.95100945 160.83978 -53.199257 22.608944 -52.881912 20.907232 0.015299443 143.0416
556625141.56285 -0.9643932 160.63345 -52.597778 17.790577 -52.843079 18.829226 0.014118829 143.03745
557002642.50661 -0.97789329 160.43358 -53.144176 18.031116 -52.792633 16.881506 0.013587217 143.0376
557380143.45036 -0.99001992 160.2438 -52.382618 14.042691 -52.725834 16.999054 0.010523193 143.04175
557757644.39411 -1.00234 160.04999 -52.765652 12.570111 -52.841534 15.075527 0.0069049303 143.04831
558135145.33786 -1.0142839 159.87003 -52.649765 14.812332 -52.692013 14.604809 0.0015183304 143.00439
558512646.28162 -1.0258548 159.66818 -52.769306 13.316039 -52.550114 14.572943 -0.007931117 142.98622
558890147.22537 -1.036018 159.48926 -52.791279 10.168266 -52.773685 13.074154 -0.014201273 142.95506
559267648.16912 -1.0416899 159.33377 -53.187618 9.677495 -52.559414 10.044907 -0.019242942 142.91582
559645149.11287 -1.0494206 159.16548 -52.616886 10.106981 -52.441216 11.561816 -0.025377342 142.85277
560022650.05663 -1.0535299 158.99225 -52.648296 10.429402 -52.612938 6.8257899 -0.026810503 142.8183
560400151.00038 -1.0567782 158.81691 -52.52158 9.0874281 -52.662273 5.644896 -0.024329247 142.7599
560777651.94413 -1.0571194 158.64508 -52.550797 5.4675865 -52.601387 4.6659112 -0.024200112 142.70155
561155152.88788 -1.0596051 158.45541 -52.674374 4.2931314 -52.825104 5.6076279 -0.02319984 142.66422
561532653.83163 -1.0573484 158.27905 -52.555759 4.7951503 -52.782852 3.4765637 -0.014121752 142.6147
561910154.77539 -1.055075 158.07301 -52.53223 1.8282765 -52.730488 3.894372 -0.010304867 142.58923
562287655.71914 -1.0515404 157.8687 -52.731377 1.7488812 -52.765942 2.1628504 -0.0036346475 142.56566
562665156.66289 -1.0491358 157.64882 -52.852955 2.3234785 -52.9757 1.1511838 0.00068752066 142.543
563042657.60664 -1.0455467 157.42369 -52.996895 1.0210145 -52.931133 1.5034448 0.0049430993 142.53998
563420158.5504 -1.0400366 157.209 -52.679516 -0.976403 -52.871307 -1.8892109 0.0065333648 142.53087
563797659.49415 -1.0372008 156.98834 -52.951324 1.6259685 -52.599598 -5.1398129 0.0074231196 142.511
564175160.4379 -1.0316647 156.75211 -52.721909 -2.8992434 -52.804588 -6.5045962 0.0071511609 142.5072
564552661.38165 -1.0294521 156.49344 -52.696892 -3.2347989 -53.146759 -5.1614676 -0.0012166405 142.4857
564930162.32541 -1.0256976 156.23056 -52.680489 -1.3724234 -52.970146 -1.956484 -0.0052218297 142.45911
565307663.26916 -1.0227573 155.9416 -53.325359 -4.4668441 -53.066109 -5.2615433 -0.012271149 142.42024
565685164.21291 -1.0228299 155.64876 -53.313202 -6.7371759 -53.10527 -5.8566279 -0.021798788 142.38339
566062665.15666 -1.0188928 155.35373 -52.781647 -5.6947675 -52.980282 -7.5056829 -0.029254999 142.32742
566440166.10042 -1.0230811 155.04439 -53.044556 -7.049686 -53.16235 -3.2317626 -0.034504231 142.28331
566817667.04417 -1.0279804 154.72682 -52.839344 -7.3392763 -53.528618 -6.9841924 -0.039021745 142.21822
567195167.98792 -1.0385276 154.42203 -52.905094 -7.0982146 -53.293995 -5.3892789 -0.042850077 142.15485
567572668.93167 -1.0451047 154.13286 -52.691719 -6.101212 -53.103729 -2.962518 -0.046267539 142.08473
567950169.87542 -1.0546678 153.8407 -53.162766 -10.607776 -52.528004 -7.2192717 -0.043287806 142.02155
568327670.81918 -1.0647928 153.57222 -52.916393 -2.7362382 -52.698887 -6.9305267 -0.039680336 141.96472
568705171.76293 -1.0766567 153.29967 -52.527393 -7.2733088 -52.665756 -7.4353509 -0.032039929 141.90036
569082672.70668 -1.0816902 153.0538 -52.44997 -8.311552 -53.218594 -6.9606261 -0.027618803 141.86136
569460173.65043 -1.0896987 152.79669 -52.051449 -7.5668731 -52.450645 -6.2037787 -0.02181042 141.8241
569837674.59419 -1.0926039 152.51489 -52.238861 -7.9047165 -51.943329 -6.4635453 -0.020012343 141.78979
570215175.53794 -1.0997406 152.22905 -51.945385 -8.3549881 -52.325779 -10.396601 -0.013862077 141.77263
570592676.48169 -1.1063867 151.91495 -52.465843 -12.743243 -52.475723 -7.1554966 -0.010996772 141.74765
570970177.42544 -1.1106348 151.61438 -52.962124 -8.6286087 -52.189053 -11.896013 -0.01048419 141.73526
571347678.3692 -1.1182517 151.32425 -51.89119 -13.117489 -52.457417 -9.955122 -0.010743929 141.71878
571725179.31295 -1.1250813 151.01292 -52.161377 -12.858312 -52.391872 -8.826664 -0.012408567 141.69107
572102680.2567 -1.1346835 150.7084 -52.781414 -14.011075 -52.320938 -11.300322 -0.016716879 141.69655
