!Keysight Technologies,N5242B,MY48420860,A.13.80.08
!Date: Saturday, September 26, 2020 11:44:00
!Correction: S11(Full 2 Port(1,2)) 
!S21(Full 2 Port(1,2)) 
!S12(Full 2 Port(1,2)) 
!S22(Full 2 Port(1,2)) 
!S2P File: Measurements: S11, S21, S12, S22:
# Hz S  dB   R 50
500000000 -0.24920051 -166.34137 -64.541359 118.07002 -63.346611 123.42931 -0.005055876 147.31543
500377500.94375 -0.25179932 -166.53955 -63.89233 121.09719 -67.143036 132.55229 -0.0031342818 147.27336
500755001.8875 -0.25689057 -166.72154 -65.492706 122.56049 -65.083786 121.28806 -0.0017180291 147.2849
501132502.83126 -0.25797495 -166.94206 -62.982185 124.82717 -64.243935 122.52641 -0.00085726514 147.25899
501510003.77501 -0.2620672 -167.14362 -64.596214 122.75838 -64.582436 133.81433 -0.00029124322 147.25919
501887504.71876 -0.26453373 -167.33304 -63.825882 119.63613 -64.412155 114.6001 5.3765052e-005 147.2674
502265005.66251 -0.26568577 -167.53674 -65.868027 132.02919 -63.846329 124.13187 -0.0019138026 147.2312
502642506.60627 -0.27057704 -167.74747 -65.395538 134.74879 -64.253998 123.19522 -0.0010686448 147.22542
503020007.55002 -0.27461019 -167.9574 -63.555786 110.77709 -62.935226 131.3521 -0.00097353588 147.21013
503397508.49377 -0.27871859 -168.15312 -64.215027 126.83614 -63.792034 120.37599 0.0011098053 147.18018
503775009.43752 -0.28286535 -168.33894 -61.938126 122.64868 -63.689552 124.88161 -0.0013121616 147.14157
504152510.38128 -0.2854026 -168.54039 -64.736305 117.6468 -64.220818 113.87064 0.003105839 147.12491
504530011.32503 -0.28826979 -168.74187 -62.95974 115.89016 -63.483418 111.73296 0.00096037309 147.0556
504907512.26878 -0.29327402 -168.9183 -64.114098 107.65289 -62.666656 112.18634 0.0027607202 147.0249
505285013.21253 -0.29451466 -169.10153 -63.856659 103.59838 -64.178223 109.29018 0.0057035647 147.02515
505662514.15629 -0.29634356 -169.29539 -62.246853 112.45392 -62.115707 110.1111 0.011125427 146.99788
506040015.10004 -0.29898757 -169.47601 -62.087086 104.69019 -62.391399 103.62603 0.011217787 146.94844
506417516.04379 -0.30291617 -169.66194 -62.452694 105.62659 -62.858185 112.956 0.014088032 146.94505
506795016.98754 -0.29805979 -169.8419 -62.306595 103.49986 -63.027134 105.75063 0.016393103 146.93633
507172517.93129 -0.30154687 -170.01926 -62.553165 112.69961 -63.953747 104.94754 0.017774696 146.9102
507550018.87505 -0.30233708 -170.23065 -63.164623 113.44324 -62.437271 101.47546 0.021050971 146.92001
507927519.8188 -0.29989561 -170.4269 -63.203964 103.34468 -62.877922 101.11751 0.019343978 146.87802
508305020.76255 -0.30199319 -170.60506 -63.344891 105.38251 -64.207458 97.899498 0.019481555 146.88448
508682521.7063 -0.30075067 -170.80214 -62.36853 101.88481 -63.682831 106.20597 0.01473758 146.87517
509060022.65006 -0.30128589 -171.00777 -62.865276 93.056877 -64.369812 86.99514 0.01534951 146.83615
509437523.59381 -0.30025864 -171.18933 -60.889336 100.43633 -63.206558 94.586357 0.012922485 146.81734
509815024.53756 -0.30182031 -171.40175 -63.969601 101.35289 -63.414394 99.585167 0.010801887 146.79683
510192525.48131 -0.30254123 -171.58887 -63.291023 100.57201 -61.899605 102.7813 0.0060588308 146.74582
510570026.42507 -0.30472505 -171.78293 -62.58588 94.902191 -63.380589 97.842674 0.0042687049 146.6965
510947527.36882 -0.30531457 -171.99435 -63.75248 92.014496 -63.85928 99.400543 0.0053395438 146.67015
511325028.31257 -0.30612773 -172.20425 -62.141464 106.12257 -65.270264 96.820541 0.0018411175 146.60878
511702529.25632 -0.30860937 -172.3976 -64.39994 93.297356 -64.221191 96.499557 0.0018219966 146.56357
512080030.20008 -0.30896783 -172.60577 -62.159023 95.570198 -63.227924 102.89979 0.00025806087 146.49942
512457531.14383 -0.31117016 -172.81757 -62.469112 91.945183 -62.308491 102.88014 0.0047275675 146.453
512835032.08758 -0.31384954 -173.02742 -63.146839 95.064804 -62.52243 88.371094 0.0037335195 146.43338
513212533.03133 -0.31420785 -173.2419 -62.370556 92.728531 -62.861729 96.382935 0.0055117486 146.39206
513590033.97508 -0.31971437 -173.44386 -63.72998 104.40011 -62.707436 94.697182 0.0062534232 146.34273
513967534.91884 -0.32146114 -173.6691 -62.714046 97.802559 -62.732185 94.428856 0.0079350732 146.31017
514345035.86259 -0.32499874 -173.86638 -62.934299 90.857094 -61.544426 98.165558 0.0098353783 146.30043
514722536.80634 -0.32745814 -174.08421 -62.730156 99.269112 -63.904663 97.172279 0.011769616 146.28859
515100037.75009 -0.3306652 -174.30144 -63.911629 83.166428 -62.523491 98.625084 0.011608917 146.2524
515477538.69385 -0.33301395 -174.508 -62.69038 95.426933 -62.028431 92.165756 0.01103775 146.26045
515855039.6376 -0.33544186 -174.73087 -62.915638 92.797203 -62.882301 94.380028 0.0091564814 146.23734
516232540.58135 -0.33797035 -174.94791 -61.635178 90.254158 -64.478081 78.370735 0.0081295418 146.21246
516610041.5251 -0.34253731 -175.14583 -62.764507 97.006622 -62.034092 87.968628 0.0095738946 146.1767
516987542.46886 -0.34183824 -175.36584 -63.964275 105.21893 -62.899406 87.467583 0.0065054484 146.15393
517365043.41261 -0.34427804 -175.5836 -62.402081 92.495476 -62.382362 92.975273 0.0010860279 146.1217
517742544.35636 -0.34827584 -175.79263 -61.796066 92.79702 -62.086941 99.270615 0.0028998214 146.1008
518120045.30011 -0.35248637 -176.01204 -62.533672 97.71981 -61.984886 87.987526 -0.00095791032 146.04744
518497546.24387 -0.35495523 -176.22052 -61.896816 92.524658 -62.005081 93.443741 0.00055171159 146.00391
518875047.18762 -0.3589054 -176.42879 -62.288464 81.492332 -62.796429 98.102913 -0.00049974525 145.9549
519252548.13137 -0.36213857 -176.63094 -62.765335 87.562386 -61.086079 86.462769 -0.00077127042 145.92297
519630049.07512 -0.36316991 -176.84283 -61.819218 87.366646 -62.991734 94.892021 -0.0018323419 145.87332
520007550.01888 -0.36495212 -177.05844 -63.199532 90.958939 -61.06308 95.121727 0.0011478723 145.83218
520385050.96263 -0.36735108 -177.252 -61.572617 85.023598 -63.488335 84.43676 0.0020120987 145.79684
520762551.90638 -0.36672869 -177.45482 -61.139435 92.835266 -61.468067 84.749222 0.0024865577 145.74664
521140052.85013 -0.37055197 -177.67465 -62.303036 82.365051 -62.762573 84.760841 0.0058176033 145.71964
521517553.79388 -0.37129992 -177.88393 -62.677895 95.29525 -61.160538 91.519714 0.004801244 145.68292
521895054.73764 -0.3703486 -178.09325 -60.741753 88.24894 -61.469757 83.924507 0.0057805944 145.66096
522272555.68139 -0.3720572 -178.3313 -61.603535 87.073952 -61.769047 81.724976 0.0037489857 145.63818
522650056.62514 -0.37258664 -178.53165 -62.087845 81.860321 -63.343819 85.199005 0.0035380446 145.63284
523027557.56889 -0.37287229 -178.7532 -60.968243 88.941734 -62.883301 87.639412 0.0031598841 145.58858
523405058.51265 -0.37524953 -178.99452 -61.718155 82.037109 -62.077595 92.779343 0.00045926208 145.5815
523782559.4564 -0.37624124 -179.21376 -61.090172 84.249435 -60.824478 84.93148 0.0018537944 145.55389
524160060.40015 -0.38055053 -179.45787 -60.808624 83.388229 -61.177334 87.778778 -0.0036214276 145.5266
524537561.3439 -0.38587284 -179.68715 -60.804264 74.273888 -61.4785 87.924019 -0.0013309999 145.52043
524915062.28766 -0.38839883 -179.92458 -61.099606 78.49408 -61.55138 77.329773 -0.0045428798 145.45074
525292563.23141 -0.3924233 179.84189 -60.548759 84.917984 -60.995441 83.521713 -0.005268014 145.43269
525670064.17516 -0.39859983 179.59982 -60.743202 85.78466 -60.466366 89.228409 -0.0039328542 145.40778
526047565.11891 -0.40373212 179.37198 -60.156635 81.619652 -59.947155 75.887238 0.00014127274 145.36295
526425066.06267 -0.41400069 179.13646 -60.209343 82.269135 -60.494633 78.161774 0.0014445075 145.3304
526802567.00642 -0.41903207 178.90875 -60.925987 81.763817 -60.897285 84.321243 0.00016257349 145.30013
527180067.95017 -0.42597145 178.65807 -59.987633 79.626816 -60.085033 73.250908 0.003773134 145.26862
527557568.89392 -0.43477046 178.44949 -59.401493 82.927681 -59.514923 80.802765 0.0028657489 145.25046
527935069.83767 -0.4430736 178.2254 -59.581238 84.070206 -60.033966 79.444725 0.0071381624 145.22116
528312570.78143 -0.45162719 178.00809 -59.777695 81.100693 -59.921387 70.006958 0.0059823673 145.19855
528690071.72518 -0.46184117 177.79333 -60.503757 76.375427 -59.244049 79.167053 0.007631605 145.17422
529067572.66893 -0.47104216 177.57744 -60.099827 77.109459 -59.491455 74.284019 0.0082253162 145.13972
529445073.61268 -0.47558889 177.36566 -59.854755 77.647461 -59.760441 78.680038 0.0070508709 145.11295
529822574.55644 -0.48512051 177.15981 -59.281181 72.5121 -58.680672 72.947273 0.0064475099 145.09177
530200075.50019 -0.49121487 176.93533 -58.657833 69.831978 -59.307907 76.20948 0.005733219 145.08246
530577576.44394 -0.49997729 176.72554 -59.919632 74.703537 -59.310917 74.460129 0.0032877016 145.06073
530955077.38769 -0.50631046 176.51198 -59.816044 74.968506 -60.070126 75.295181 0.0046276781 145.03304
531332578.33145 -0.51457947 176.29303 -59.483173 71.040817 -60.078041 66.414162 0.0015232295 145.01457
531710079.2752 -0.52221292 176.09225 -59.550922 73.240097 -59.665321 71.128662 0.0013293501 144.99921
532087580.21895 -0.52867079 175.89923 -59.566948 67.12323 -58.313461 65.339859 0.0035244364 144.97017
532465081.1627 -0.53586644 175.69731 -59.225746 65.830765 -59.33218 65.755753 0.00026588299 144.92041
532842582.10646 -0.53920007 175.5009 -58.992897 64.413109 -59.501427 68.45005 0.0023968657 144.90907
533220083.05021 -0.54238003 175.3035 -58.690521 63.201599 -58.997135 63.136642 0.0036470662 144.84987
533597583.99396 -0.54941642 175.11383 -57.921165 72.106857 -59.056931 70.879601 0.0058182869 144.79993
533975084.93771 -0.55365139 174.92664 -59.731388 69.646149 -58.811169 58.616863 0.0058973189 144.77808
534352585.88146 -0.55889773 174.72319 -58.513519 64.411072 -58.369392 66.617981 0.0061704107 144.74413
534730086.82522 -0.56063938 174.53387 -57.596783 56.099442 -58.516979 61.200714 0.0064856145 144.72092
535107587.76897 -0.56355542 174.34822 -58.823441 57.995861 -58.545811 63.219555 0.0092721488 144.67365
535485088.71272 -0.56545764 174.13445 -57.485596 57.197693 -58.394211 58.204655 0.011852731 144.63353
535862589.65647 -0.56450993 173.94174 -57.860115 58.035522 -58.960735 52.847321 0.01172399 144.63707
536240090.60023 -0.56897855 173.74365 -58.110237 59.259651 -58.321117 60.046818 0.010803572 144.59929
536617591.54398 -0.57146025 173.54234 -57.568375 59.875687 -58.289577 56.792717 0.013990365 144.56966
536995092.48773 -0.57171047 173.33591 -58.556408 51.04388 -59.321781 52.150826 0.0088297306 144.5443
537372593.43148 -0.574 173.14705 -58.955406 46.810398 -58.813553 55.529915 0.010570064 144.51549
537750094.37524 -0.57470262 172.93153 -58.323318 50.734138 -58.081806 52.905964 0.0067847567 144.48402
538127595.31899 -0.57498771 172.71686 -58.05621 51.937504 -58.379642 49.022408 0.0068157129 144.46468
538505096.26274 -0.57576472 172.50435 -57.737755 51.264439 -58.230309 49.014252 0.0078365561 144.44505
538882597.20649 -0.57669967 172.27397 -58.377296 45.183571 -58.329205 49.772564 0.0099358335 144.42764
539260098.15025 -0.57847005 172.0602 -58.649803 43.906483 -59.277462 46.257427 0.0092047602 144.39536
539637599.094 -0.57742763 171.83411 -58.929852 47.926544 -58.805779 44.955437 0.0096168593 144.35779
540015100.03775 -0.58006519 171.60817 -57.836926 41.545536 -58.10268 47.459442 0.00844632 144.34009
540392600.9815 -0.57935214 171.38127 -58.224022 43.817261 -58.3713 40.548462 0.011758531 144.30283
540770101.92525 -0.58090013 171.13774 -58.32642 38.963604 -59.149994 40.362679 0.012806008 144.2771
541147602.86901 -0.58180141 170.91399 -59.648251 42.964817 -58.245346 45.239536 0.01583308 144.25078
541525103.81276 -0.58381689 170.66949 -57.520702 43.007637 -59.052353 47.670631 0.017362548 144.20651
541902604.75651 -0.58693624 170.41145 -58.426136 40.524448 -58.36264 38.57896 0.015940553 144.16988
542280105.70026 -0.58920091 170.16922 -58.56496 38.731438 -58.146286 44.747978 0.016049882 144.13495
542657606.64402 -0.59189087 169.93015 -59.355858 36.681072 -58.059216 36.418983 0.015933858 144.10429
543035107.58777 -0.59597164 169.66084 -58.837173 39.905853 -58.66679 38.870346 0.011809846 144.0775
543412608.53152 -0.59870899 169.42143 -59.123207 39.479965 -59.195309 40.860622 0.013623785 144.0394
543790109.47527 -0.60303068 169.17674 -58.290806 40.634132 -59.040749 38.585278 0.0080624809 143.97955
544167610.41903 -0.60637885 168.93047 -58.942684 42.495785 -59.412342 44.174633 0.0057088146 143.94905
544545111.36278 -0.60741037 168.66814 -59.681538 46.436954 -59.586678 40.35236 0.0023289369 143.9155
544922612.30653 -0.61319739 168.42632 -59.588219 40.532585 -59.661476 36.780731 -0.00033597357 143.88881
545300113.25028 -0.61447799 168.16748 -59.036919 42.379269 -58.914444 42.705475 8.3902843e-005 143.85281
545677614.19404 -0.6174379 167.9005 -59.156269 37.096596 -59.656902 43.819462 -0.002606164 143.8261
546055115.13779 -0.62226593 167.64604 -59.175716 36.417217 -58.245129 46.855953 -0.0036939129 143.78262
546432616.08154 -0.62340665 167.38669 -59.807114 50.433537 -58.903694 41.582787 -0.0054430668 143.77449
546810117.02529 -0.62546682 167.11522 -58.68531 45.953403 -58.95789 35.544651 -0.0032414782 143.71367
547187617.96904 -0.63117522 166.83247 -58.330364 44.829266 -58.248287 44.029877 -0.0044548339 143.6917
547565118.9128 -0.63542342 166.58678 -58.945004 38.719986 -59.030388 39.667816 -0.0044236402 143.63594
547942619.85655 -0.64036173 166.31491 -59.399166 47.032818 -59.032116 43.047703 -0.0013668957 143.58046
548320120.8003 -0.64363831 166.02289 -58.633263 44.462185 -58.171436 44.410172 0.0014740634 143.549
548697621.74405 -0.65123767 165.741 -58.400509 44.59853 -58.837402 43.041245 0.0030543371 143.51149
549075122.68781 -0.65673548 165.47568 -57.768658 37.72311 -58.429142 42.997078 -0.00091244269 143.47836
549452623.63156 -0.66561067 165.20479 -58.468143 47.425491 -58.134987 47.011307 0.00031818901 143.42947
549830124.57531 -0.67552149 164.93912 -58.011032 43.620983 -57.873482 42.344486 0.0025491079 143.39786
550207625.51906 -0.68309331 164.66516 -56.565166 44.059582 -56.982635 43.215172 -0.00088794949 143.34895
550585126.46282 -0.69138747 164.41379 -57.386196 33.485168 -57.452835 43.542316 -0.0020058223 143.32826
550962627.40657 -0.70152056 164.12964 -57.326851 39.555199 -58.137363 44.824551 -0.0053437389 143.29097
551340128.35032 -0.71304899 163.88612 -57.157528 39.892567 -57.38493 44.816254 -0.0054446687 143.24893
551717629.29407 -0.72164088 163.61649 -57.753574 37.212025 -57.634129 37.845398 -0.004416809 143.2346
552095130.23783 -0.73325163 163.37183 -57.279537 39.440533 -57.172874 37.45155 -0.0042831283 143.20026
552472631.18158 -0.74684173 163.10872 -57.983566 37.014866 -56.941921 36.417908 -0.0055692778 143.18854
552850132.12533 -0.75654376 162.86635 -56.969715 37.863018 -56.303787 32.667019 -0.0033573234 143.1568
553227633.06908 -0.76641625 162.60384 -56.662296 32.023705 -56.787411 33.663715 -0.00071684271 143.12611
553605134.01284 -0.78067213 162.3575 -56.916374 33.569019 -56.716434 34.569801 3.7423411e-005 143.1095
553982634.95659 -0.79300565 162.11472 -56.447693 32.97382 -56.000847 33.877392 0.0044028033 143.09956
554360135.90034 -0.80533499 161.87164 -56.18494 35.052353 -56.04792 29.515379 0.0068410118 143.09081
554737636.84409 -0.82017726 161.629 -56.553604 29.228275 -56.600822 30.904455 0.011863466 143.06662
555115137.78784 -0.83199018 161.39261 -56.401871 29.758448 -56.404041 28.168549 0.017065704 143.05554
555492638.7316 -0.8451317 161.15141 -56.477406 29.817314 -56.177292 29.740656 0.021047896 143.03305
555870139.67535 -0.85855442 160.91644 -55.91507 29.096445 -56.362522 25.740503 0.020523971 143.02835
556247640.6191 -0.87190062 160.69209 -56.042469 28.168545 -56.134571 25.773546 0.028996632 143.00336
556625141.56285 -0.88502717 160.45578 -56.630577 26.084694 -56.110275 22.237532 0.024454953 142.97122
557002642.50661 -0.8955484 160.21445 -56.177341 26.266556 -56.24287 27.942564 0.025863891 142.9579
557380143.45036 -0.9090935 160.0054 -55.922596 27.46405 -56.65575 22.548859 0.025432013 142.92911
557757644.39411 -0.92231697 159.78156 -56.020512 17.142096 -55.918083 21.369629 0.023211366 142.92007
558135145.33786 -0.93433511 159.56938 -56.011719 23.274004 -56.562721 20.689514 0.020945441 142.86876
558512646.28162 -0.94507134 159.34134 -55.997662 17.657129 -55.950756 26.512657 0.016683508 142.854
558890147.22537 -0.95611137 159.12614 -56.147415 21.052082 -56.172379 20.843227 0.014972772 142.81747
559267648.16912 -0.96408814 158.94485 -56.090996 21.361376 -56.210964 23.452707 0.011627993 142.79691
559645149.11287 -0.97468483 158.72188 -56.335247 21.912962 -55.562027 19.992979 0.01189955 142.7536
560022650.05663 -0.98173606 158.52065 -56.337448 15.866166 -56.286713 20.843653 0.0097018117 142.72589
560400151.00038 -0.98940128 158.30304 -56.153717 16.497425 -56.495796 16.333235 0.011767861 142.70564
560777651.94413 -0.99585432 158.09818 -56.20216 18.353796 -55.842995 22.240711 0.013071031 142.65596
561155152.88788 -1.0040922 157.87325 -56.33773 14.649807 -55.628674 21.491329 0.013243104 142.62979
561532653.83163 -1.0083658 157.68784 -56.024857 19.603848 -56.431 19.304546 0.01611541 142.58267
561910154.77539 -1.0163847 157.46761 -56.510136 16.857998 -56.232044 17.839495 0.015954457 142.56964
562287655.71914 -1.0205621 157.24146 -56.312016 17.448828 -56.040195 17.460707 0.01993856 142.53065
562665156.66289 -1.0263213 157.03775 -56.213882 15.234517 -56.835571 19.029142 0.022692319 142.51846
563042657.60664 -1.0317062 156.82246 -55.965733 15.70657 -55.904373 16.616882 0.024970133 142.50299
563420158.5504 -1.035779 156.62181 -55.803223 13.86481 -55.744766 14.743969 0.027432647 142.45937
563797659.49415 -1.0382605 156.42455 -55.096985 17.487278 -55.526077 11.333462 0.026136335 142.41664
564175160.4379 -1.0405458 156.22902 -55.920879 13.738203 -55.157394 17.530111 0.024857486 142.42236
564552661.38165 -1.0427991 156.01266 -55.643261 12.478109 -55.148098 13.783897 0.021026628 142.38414
564930162.32541 -1.0413848 155.80481 -55.883717 11.709293 -55.096703 15.121426 0.01831283 142.36111
565307663.26916 -1.0371852 155.56653 -55.487553 9.7986164 -55.187595 9.0804815 0.017981192 142.33006
565685164.21291 -1.0329667 155.32564 -55.394218 9.9459858 -55.035488 9.824029 0.011859436 142.28157
566062665.15666 -1.0300274 155.05574 -54.843037 8.2747288 -55.188038 14.14708 0.0097576948 142.23561
566440166.10042 -1.0310718 154.7822 -54.756401 8.7954388 -54.830906 9.815402 0.0078193536 142.23032
566817667.04417 -1.0311527 154.48236 -54.662937 11.136602 -54.975796 7.9739294 0.0049515045 142.18506
567195167.98792 -1.0345837 154.18913 -55.374943 4.9294171 -55.112514 3.7564206 0.0024639682 142.13246
567572668.93167 -1.0403458 153.90445 -55.100109 6.4328804 -55.348179 7.5257101 0.0025585329 142.09096
567950169.87542 -1.0483842 153.60355 -54.925468 4.2710023 -54.695427 4.1831379 0.0014868442 142.05559
568327670.81918 -1.0548906 153.32678 -54.892448 2.7403591 -55.784874 3.1166217 0.0034570498 142.01027
568705171.76293 -1.0652783 153.06848 -54.964718 2.8095207 -55.055107 2.2250309 0.0066305846 141.96049
569082672.70668 -1.0709636 152.82684 -55.542027 0.39163193 -54.744366 2.3409951 0.010041818 141.92551
569460173.65043 -1.0792731 152.56294 -54.616337 4.0684228 -55.212673 1.6751527 0.011207143 141.8761
569837674.59419 -1.0797955 152.30898 -54.602543 0.22608501 -54.619862 2.9992123 0.0093250088 141.83809
570215175.53794 -1.0880567 152.04422 -54.660267 -3.0127647 -54.565414 -1.14565 0.013892415 141.82018
570592676.48169 -1.0919737 151.75067 -54.57156 -5.8789158 -54.449596 -0.51436847 0.013566488 141.77176
570970177.42544 -1.0948291 151.45973 -54.827976 -3.7814178 -54.569405 -2.318125 0.015280388 141.74686
571347678.3692 -1.1006637 151.17883 -54.931526 -2.358052 -54.739788 -3.6173639 0.013667484 141.72066
571725179.31295 -1.1052785 150.88495 -54.828434 -3.5577023 -55.143547 -4.8763285 0.011441073 141.67706
572102680.2567 -1.1104968 150.59509 -54.690083 -1.1006691 -55.091469 -3.3286123 0.012060264 141.66406
572480181.20045 -1.1181234 150.2942 -55.287476 -1.3934952 -54.448498 -3.6583352 0.011317384 141.64363
