!Keysight Technologies,N5242B,MY48420860,A.13.80.08
!Date: Saturday, September 26, 2020 12:14:28
!Correction: S11(Full 2 Port(1,2)) 
!S21(Full 2 Port(1,2)) 
!S12(Full 2 Port(1,2)) 
!S22(Full 2 Port(1,2)) 
!S2P File: Measurements: S11, S21, S12, S22:
# Hz S  dB   R 50
500000000 -0.23466305 -166.27493 -64.970726 28.618708 -64.781105 19.049639 0.018680809 147.70198
500377500.94375 -0.23708029 -166.46953 -64.448578 29.672777 -63.797848 28.194727 0.018925996 147.68861
500755001.8875 -0.23985761 -166.67079 -64.807251 30.300638 -63.920948 25.23793 0.020302506 147.69273
501132502.83126 -0.2442973 -166.87733 -64.619987 18.651617 -62.332874 28.814642 0.018401224 147.68285
501510003.77501 -0.24740292 -167.0892 -64.157944 22.367514 -63.631317 20.894852 0.017526453 147.6675
501887504.71876 -0.24834953 -167.27786 -63.298786 23.129669 -62.613335 18.726913 0.015465036 147.67384
502265005.66251 -0.25073081 -167.47989 -63.177216 13.952433 -64.053467 18.437185 0.013356544 147.64072
502642506.60627 -0.25412834 -167.68803 -64.143478 9.3961163 -64.605835 12.214042 0.013479571 147.61057
503020007.55002 -0.25950712 -167.89194 -62.276169 20.252014 -64.374962 19.778837 0.010196035 147.59282
503397508.49377 -0.26354146 -168.0929 -65.084625 16.499706 -64.362183 1.3542671 0.010737619 147.54387
503775009.43752 -0.26377001 -168.2916 -64.951767 20.561195 -65.156563 20.057079 0.0078892363 147.5043
504152510.38128 -0.26695588 -168.47957 -63.65078 15.970823 -64.320091 9.3241892 0.011309387 147.46898
504530011.32503 -0.26960737 -168.6862 -63.518681 15.166717 -64.093185 11.772499 0.014498365 147.42847
504907512.26878 -0.27308351 -168.87634 -63.099724 20.147738 -62.900272 2.9406874 0.015525051 147.38817
505285013.21253 -0.27346703 -169.07858 -63.704021 17.331299 -63.295677 12.781159 0.020766227 147.379
505662514.15629 -0.27633575 -169.26523 -64.180046 13.990014 -63.891151 15.172779 0.021931475 147.34654
506040015.10004 -0.27748314 -169.44989 -66.580711 17.409735 -64.675728 2.2431722 0.024890011 147.29965
506417516.04379 -0.28107315 -169.65718 -62.922733 8.3893995 -67.398422 -8.6090164 0.026547963 147.30934
506795016.98754 -0.27566379 -169.83206 -64.105621 12.699822 -64.629616 12.134106 0.031720247 147.28134
507172517.93129 -0.27815306 -170.01241 -64.250031 -7.3948264 -64.202354 11.893307 0.032361221 147.26147
507550018.87505 -0.28000984 -170.23126 -64.578415 19.153839 -64.974731 5.0715604 0.03247045 147.26587
507927519.8188 -0.27988902 -170.42911 -63.709301 9.975338 -63.560146 1.6896248 0.029245814 147.24284
508305020.76255 -0.28085589 -170.60858 -64.606468 0.46145564 -62.507763 -3.0699193 0.028466128 147.22568
508682521.7063 -0.28217819 -170.81786 -63.598816 12.880725 -64.905823 5.3084927 0.025615757 147.22157
509060022.65006 -0.28122324 -171.02084 -65.29332 11.350258 -64.100952 3.6310935 0.023928078 147.18129
509437523.59381 -0.28214455 -171.20883 -63.524181 5.7820249 -63.728233 11.755072 0.020880563 147.17154
509815024.53756 -0.28409591 -171.40855 -63.698288 5.9075966 -64.401245 0.36714345 0.016592538 147.12427
510192525.48131 -0.2834385 -171.61079 -65.401093 4.6855383 -64.470154 10.435195 0.013043587 147.07799
510570026.42507 -0.28638488 -171.80128 -63.213837 6.6375947 -63.788097 2.3859246 0.010653954 147.02483
510947527.36882 -0.28697741 -172.01918 -62.521763 14.668991 -63.862167 2.5137501 0.012165196 146.97752
511325028.31257 -0.29039383 -172.21268 -64.307816 8.4715328 -64.7341 7.8251753 0.0086145094 146.92758
511702529.25632 -0.29089132 -172.42868 -64.856583 13.74557 -64.55899 9.0166273 0.010160399 146.87689
512080030.20008 -0.29128078 -172.61646 -62.644577 11.176234 -62.845894 10.427732 0.010098072 146.82462
512457531.14383 -0.29226559 -172.82259 -62.730583 8.7225723 -65.280647 3.096813 0.014680835 146.78224
512835032.08758 -0.29561058 -173.02831 -62.748611 7.4184642 -64.349792 3.6198092 0.014923314 146.76166
513212533.03133 -0.29767722 -173.25523 -65.003967 1.2845178 -63.968479 5.0639777 0.015644604 146.73674
513590033.97508 -0.30061042 -173.45027 -64.634727 8.4624014 -62.154587 5.3204403 0.018968208 146.68976
513967534.91884 -0.30181944 -173.66747 -64.440735 10.316928 -63.231136 2.5140841 0.018652475 146.66217
514345035.86259 -0.30580387 -173.87888 -63.363827 9.1786442 -62.793934 1.3255894 0.020966619 146.66106
514722536.80634 -0.30614081 -174.10063 -63.294155 1.6345327 -62.970329 9.1438217 0.024871038 146.65009
515100037.75009 -0.31094286 -174.325 -60.870617 14.447522 -63.891151 1.4032406 0.021902014 146.62106
515477538.69385 -0.31301349 -174.52794 -62.613323 5.3642654 -61.455429 8.3844957 0.019863162 146.63232
515855039.6376 -0.31530666 -174.75023 -61.010937 9.893878 -64.195236 2.7508929 0.019032275 146.6058
516232540.58135 -0.31741828 -174.9691 -63.183796 10.136451 -63.048637 3.4182384 0.015104393 146.58287
516610041.5251 -0.3218067 -175.18251 -61.871326 10.541087 -61.915096 -3.4823763 0.018115327 146.54628
516987542.46886 -0.32318375 -175.40575 -62.176628 4.9837155 -62.221489 9.2333107 0.012296851 146.5094
517365043.41261 -0.32378462 -175.62502 -62.450806 -4.1128759 -63.212502 -0.89297724 0.010816081 146.46397
517742544.35636 -0.32823229 -175.84439 -62.475998 5.1868176 -61.794624 7.3617196 0.012293156 146.44621
518120045.30011 -0.33294758 -176.0712 -61.338303 5.9447098 -63.578667 14.225972 0.010659879 146.38332
518497546.24387 -0.33615988 -176.28372 -61.304329 3.3608935 -61.829319 2.7948847 0.009574946 146.33096
518875047.18762 -0.33938342 -176.51619 -60.193432 -2.260649 -61.295204 -3.2185254 0.010225288 146.28355
519252548.13137 -0.34248936 -176.71014 -60.556118 0.19444497 -60.767612 5.0811338 0.010727691 146.25838
519630049.07512 -0.34332639 -176.9245 -61.165569 6.6836152 -60.212265 2.0967841 0.012738767 146.21498
520007550.01888 -0.34905207 -177.14296 -60.701782 1.940487 -59.264099 0.33454838 0.016853865 146.19601
520385050.96263 -0.35137597 -177.33873 -61.311413 -2.1995034 -60.395603 -8.098115 0.017324379 146.16759
520762551.90638 -0.35246062 -177.5545 -61.519333 -1.7983959 -60.588535 9.2236423 0.021027807 146.12413
521140052.85013 -0.35670477 -177.75798 -61.568855 2.8531671 -59.871372 -0.49597564 0.023982041 146.10072
521517553.79388 -0.35555363 -177.98355 -60.475868 -6.6205726 -60.578659 -1.7698516 0.024888275 146.08549
521895054.73764 -0.35893306 -178.19113 -59.246788 -12.023709 -61.416092 -10.455189 0.024369527 146.06763
522272555.68139 -0.36019728 -178.4126 -61.502518 -7.2276235 -59.903 -8.742753 0.023038253 146.06181
522650056.62514 -0.3588973 -178.60953 -60.17437 -5.6705742 -59.970627 -4.3795085 0.021657035 146.05896
523027557.56889 -0.36056066 -178.83226 -59.746265 -7.2391663 -60.426228 -3.7008824 0.021508098 146.02766
523405058.51265 -0.3641853 -179.06293 -59.966854 -2.2897456 -60.21703 -14.969767 0.018321352 145.99988
523782559.4564 -0.36556971 -179.28072 -60.162121 -7.3463731 -59.984478 -5.6993823 0.017583478 145.96931
524160060.40015 -0.36798972 -179.50818 -59.142925 -11.188831 -60.009899 -14.422761 0.014756184 145.96182
524537561.3439 -0.37259203 -179.73579 -59.787552 -10.600063 -60.32338 -11.415296 0.01645555 145.92209
524915062.28766 -0.37595153 -179.98524 -59.871998 -7.1769238 -59.017796 -12.615823 0.012467131 145.87222
525292563.23141 -0.37892485 179.78165 -59.485939 -13.444983 -59.747772 -12.128171 0.011824459 145.84917
525670064.17516 -0.38574731 179.54402 -59.784683 -16.003462 -59.360912 -11.490698 0.014291652 145.82774
526047565.11891 -0.38983107 179.32123 -58.260509 -16.756462 -59.289627 -9.2331543 0.017420249 145.79111
526425066.06267 -0.39668834 179.08188 -58.619907 -12.392182 -59.150391 -13.640682 0.017945468 145.73949
526802567.00642 -0.40442106 178.86269 -58.896988 -17.899979 -58.816242 -15.897773 0.018142156 145.71899
527180067.95017 -0.41148159 178.61053 -59.164253 -17.98423 -59.496376 -16.486496 0.019570446 145.69519
527557568.89392 -0.41935366 178.3847 -59.0923 -17.474358 -58.783398 -14.437897 0.020986537 145.67683
527935069.83767 -0.4261997 178.1676 -59.622013 -14.138373 -57.91349 -19.794378 0.022896761 145.63969
528312570.78143 -0.43423522 177.95135 -59.83559 -21.89204 -59.714825 -19.455196 0.018798525 145.62553
528690071.72518 -0.44363078 177.71466 -59.574726 -20.620363 -58.969093 -19.546064 0.022873841 145.59242
529067572.66893 -0.45241931 177.49466 -58.505764 -17.445051 -59.058044 -24.366114 0.018029017 145.56406
529445073.61268 -0.45839137 177.27065 -58.543663 -22.457855 -59.874107 -21.380243 0.018735185 145.53108
529822574.55644 -0.46656081 177.04868 -58.200405 -25.365988 -58.400169 -25.397081 0.015544396 145.50465
530200075.50019 -0.47537977 176.82593 -59.725628 -20.043854 -59.300598 -21.363384 0.014097524 145.47906
530577576.44394 -0.48361886 176.62242 -59.49033 -27.086914 -58.870239 -27.474743 0.011407691 145.4558
530955077.38769 -0.49011821 176.4062 -58.562656 -29.658003 -57.975296 -26.370243 0.010049764 145.42854
531332578.33145 -0.49842691 176.17744 -58.300503 -24.227434 -58.231304 -23.326279 0.0069597121 145.39252
531710079.2752 -0.50603116 175.96791 -58.551788 -27.894716 -58.814152 -29.103975 0.0089733098 145.35963
532087580.21895 -0.51104289 175.7774 -59.155762 -25.934315 -57.805157 -26.641766 0.010106479 145.3159
532465081.1627 -0.52121568 175.55748 -58.740437 -28.65962 -58.58313 -29.887358 0.0055321134 145.26936
532842582.10646 -0.52674866 175.37985 -58.94099 -27.217239 -57.96048 -28.950279 0.010906343 145.2491
533220083.05021 -0.52825814 175.16888 -57.510029 -36.505924 -57.909931 -31.538767 0.010961433 145.20789
533597583.99396 -0.53509963 174.9639 -58.428127 -33.824066 -57.257923 -34.403351 0.015235923 145.14795
533975084.93771 -0.53693748 174.77626 -58.272633 -30.209122 -58.434097 -31.803215 0.017379073 145.13196
534352585.88146 -0.54164851 174.5806 -57.757355 -35.394646 -58.12915 -38.938271 0.020805605 145.10387
534730086.82522 -0.54692352 174.38651 -57.228531 -35.724136 -57.94978 -37.75563 0.020665152 145.08716
535107587.76897 -0.54774904 174.20334 -57.667332 -35.428139 -57.790745 -37.985912 0.022624122 145.06477
535485088.71272 -0.54945362 173.98123 -57.607277 -34.011124 -57.534737 -40.274494 0.024453482 145.03046
535862589.65647 -0.54835659 173.77904 -58.485001 -39.060619 -58.093151 -40.873135 0.026560076 145.04152
536240090.60023 -0.55463946 173.57852 -58.130592 -42.662102 -57.877121 -42.896763 0.024294041 145.00873
536617591.54398 -0.55717021 173.36444 -58.122139 -41.985523 -57.164623 -44.841103 0.027265303 144.98012
536995092.48773 -0.55834484 173.17046 -58.677124 -45.099144 -57.74905 -42.549889 0.021349169 144.94908
537372593.43148 -0.55774748 172.96703 -57.840157 -44.817425 -58.244183 -44.462818 0.022809818 144.92729
537750094.37524 -0.55889767 172.75201 -58.574581 -41.573574 -58.042831 -46.745064 0.017632008 144.90475
538127595.31899 -0.56005603 172.53395 -58.023731 -49.881474 -57.612198 -47.646801 0.016113326 144.86694
538505096.26274 -0.55942196 172.29755 -58.004242 -44.542397 -57.310894 -50.620354 0.019133558 144.84741
538882597.20649 -0.56155318 172.0863 -58.485603 -46.083076 -58.017323 -44.774876 0.020125905 144.82524
539260098.15025 -0.56431043 171.84903 -58.32539 -56.329559 -58.593922 -49.480942 0.017674102 144.78163
539637599.094 -0.56416816 171.61543 -57.733482 -48.482559 -58.076042 -52.806164 0.019350156 144.74689
540015100.03775 -0.56747615 171.37831 -57.470108 -57.222015 -57.595524 -50.096722 0.020799024 144.74509
540392600.9815 -0.56879121 171.15097 -57.715023 -47.312965 -58.282887 -48.724312 0.024926655 144.67947
540770101.92525 -0.5708735 170.88712 -58.113346 -46.264297 -58.121201 -56.371208 0.025986796 144.67079
541147602.86901 -0.5746392 170.66054 -57.996902 -45.360756 -58.606251 -49.784996 0.028209351 144.65424
541525103.81276 -0.58008915 170.39932 -57.984032 -44.666832 -58.254093 -50.253998 0.029764285 144.60164
541902604.75651 -0.58234638 170.16026 -58.768257 -47.182495 -58.117683 -52.814899 0.027698545 144.57628
542280105.70026 -0.58690333 169.91331 -58.068062 -53.928276 -59.181332 -52.109291 0.030314252 144.54138
542657606.64402 -0.59064811 169.6692 -58.799694 -55.855923 -58.148365 -54.159393 0.027850417 144.51865
543035107.58777 -0.59407794 169.40031 -59.20232 -49.266735 -58.66748 -51.860447 0.022250479 144.49225
543412608.53152 -0.59834737 169.15787 -58.555603 -50.230389 -58.965599 -56.889553 0.021528494 144.44571
543790109.47527 -0.6058479 168.89445 -58.22644 -48.002106 -58.77441 -52.508434 0.02076211 144.41016
544167610.41903 -0.60974067 168.6425 -58.643677 -56.389603 -58.57114 -44.952404 0.015105013 144.36908
544545111.36278 -0.61183864 168.38123 -57.74527 -52.549274 -58.023949 -52.060783 0.012235238 144.32491
544922612.30653 -0.61851573 168.12862 -58.385761 -49.831123 -59.048935 -55.721123 0.0080594085 144.29515
545300113.25028 -0.62175727 167.86806 -58.922459 -49.070782 -59.389584 -52.500847 0.0093817599 144.25644
545677614.19404 -0.62483454 167.6048 -57.46167 -49.825901 -59.626751 -49.923317 0.0067046159 144.23834
546055115.13779 -0.63127333 167.35228 -57.82449 -43.516441 -58.388485 -49.32058 0.0056526391 144.17099
546432616.08154 -0.63337517 167.08676 -57.534355 -45.795898 -58.584465 -48.982197 0.0039377073 144.15865
546810117.02529 -0.63779795 166.8093 -57.823555 -57.586166 -57.938927 -47.968643 0.007082969 144.12405
547187617.96904 -0.64220464 166.53015 -57.742203 -48.380295 -57.547596 -48.991734 0.0093395552 144.08766
547565118.9128 -0.64903122 166.2751 -57.658787 -44.190346 -57.813435 -50.434097 0.010994517 144.04541
547942619.85655 -0.65484071 165.99129 -57.540718 -46.580528 -57.85783 -52.785233 0.014041844 143.99466
548320120.8003 -0.66167867 165.71095 -57.10231 -44.221588 -57.501007 -46.415813 0.016978789 143.96201
548697621.74405 -0.66855413 165.41232 -57.355461 -44.89859 -57.191032 -49.977379 0.018602515 143.93484
549075122.68781 -0.67655331 165.1541 -56.928146 -51.222115 -57.258312 -45.597374 0.014932336 143.9162
549452623.63156 -0.68767685 164.88957 -56.46051 -54.407242 -56.165588 -49.956902 0.018193681 143.86464
549830124.57531 -0.69878018 164.60405 -56.874023 -51.838253 -57.479298 -47.751675 0.016451141 143.84834
550207625.51906 -0.70864749 164.34695 -57.151348 -45.542046 -56.069649 -49.537086 0.014946171 143.80029
550585126.46282 -0.71937549 164.08516 -56.249214 -54.099388 -56.430752 -49.430695 0.011726315 143.76906
550962627.40657 -0.73117751 163.8226 -55.610134 -54.395164 -55.796307 -48.393627 0.0088464273 143.74113
551340128.35032 -0.74413109 163.55217 -55.758369 -53.218945 -55.274456 -55.627819 0.0070520216 143.70915
551717629.29407 -0.75456631 163.3013 -55.739563 -55.705837 -55.883385 -55.531399 0.0079832831 143.67857
552095130.23783 -0.77034342 163.05174 -55.826317 -56.354824 -56.202137 -53.586567 0.0051792567 143.62735
552472631.18158 -0.78403229 162.79938 -55.339546 -53.87244 -55.028355 -55.54583 0.0025777686 143.60712
552850132.12533 -0.7965706 162.56494 -54.660217 -57.433144 -54.921345 -54.41684 0.0051445677 143.57069
553227633.06908 -0.80767 162.29636 -55.773575 -61.093647 -54.807945 -61.585522 0.0074990289 143.54742
553605134.01284 -0.82443476 162.06526 -55.04171 -58.220211 -55.405495 -58.997726 0.0092549156 143.51828
553982634.95659 -0.8401202 161.8282 -54.615437 -61.512287 -54.67767 -59.967438 0.012921619 143.50978
554360135.90034 -0.85601413 161.58656 -54.719715 -60.596447 -54.464169 -62.514317 0.019458616 143.48972
554737636.84409 -0.87201339 161.36964 -54.650852 -64.068344 -54.445618 -61.658489 0.025222346 143.46649
555115137.78784 -0.88477415 161.13335 -54.480709 -63.003803 -54.903503 -62.419365 0.029234333 143.45126
555492638.7316 -0.90156537 160.89389 -54.342293 -66.922104 -54.32653 -63.144642 0.034910388 143.42412
555870139.67535 -0.9160037 160.6871 -53.953049 -65.849236 -54.737728 -66.516548 0.036357101 143.43764
556247640.6191 -0.93311071 160.47214 -54.020496 -67.223038 -53.950794 -65.820488 0.039727584 143.39748
556625141.56285 -0.94674325 160.25034 -54.170311 -69.899765 -54.410973 -65.214142 0.039162286 143.38428
557002642.50661 -0.95937234 160.03947 -53.838104 -72.213882 -53.826893 -69.267738 0.039683264 143.36104
557380143.45036 -0.97384173 159.83702 -53.643005 -68.569099 -54.293522 -69.332352 0.034947436 143.34714
557757644.39411 -0.98858911 159.63727 -53.942287 -71.551125 -54.045162 -74.88633 0.034087833 143.33592
558135145.33786 -1.000554 159.42906 -53.690952 -72.733788 -54.167648 -70.461136 0.031089451 143.29362
558512646.28162 -1.0140508 159.2164 -53.634697 -75.319267 -53.551228 -75.314919 0.02639721 143.27664
558890147.22537 -1.0236439 159.03305 -53.623791 -77.027451 -53.680016 -75.739265 0.023927104 143.24405
559267648.16912 -1.0332161 158.86086 -53.22644 -75.038208 -53.69059 -76.998779 0.021482782 143.2153
559645149.11287 -1.0422046 158.66222 -53.819122 -76.927177 -53.466927 -79.590546 0.01910622 143.17062
560022650.05663 -1.0495601 158.47314 -53.447937 -81.858643 -53.777058 -78.399284 0.017835157 143.14618
560400151.00038 -1.0551864 158.26852 -53.529278 -83.380295 -53.360863 -82.297707 0.022389878 143.10002
560777651.94413 -1.0591304 158.0793 -53.687721 -81.823372 -54.259933 -80.485214 0.021632168 143.05927
561155152.88788 -1.064952 157.85945 -53.291309 -83.024582 -53.596546 -81.273346 0.022351081 143.03539
561532653.83163 -1.0689589 157.67007 -53.415924 -84.061836 -53.493576 -82.807404 0.028520573 142.99908
561910154.77539 -1.0752206 157.48119 -53.243454 -80.368874 -53.358238 -85.548759 0.029687606 142.98639
562287655.71914 -1.0775889 157.24884 -53.606319 -84.937859 -52.947906 -84.224228 0.032471865 142.95486
562665156.66289 -1.081537 157.03459 -52.835758 -87.003868 -53.444107 -87.111053 0.03635801 142.93604
563042657.60664 -1.0853964 156.82892 -53.416054 -88.190712 -53.941719 -87.737091 0.037343547 142.92162
563420158.5504 -1.0874842 156.61342 -53.472462 -90.992462 -53.680958 -90.551666 0.038849406 142.89163
563797659.49415 -1.0917844 156.41971 -53.093475 -90.151672 -53.615353 -89.623466 0.037965316 142.85593
564175160.4379 -1.0915356 156.21532 -53.623749 -89.714897 -53.551071 -91.11026 0.034386162 142.85999
564552661.38165 -1.0928354 155.97508 -53.00856 -91.545837 -53.494267 -92.540146 0.029718382 142.8129
564930162.32541 -1.0926478 155.76671 -53.165081 -93.443619 -53.597416 -92.983475 0.027170151 142.7811
565307663.26916 -1.0909605 155.51828 -53.10994 -96.467049 -53.281929 -95.080193 0.025675751 142.74783
565685164.21291 -1.0914458 155.26949 -53.93288 -94.359077 -53.372192 -95.563438 0.017691551 142.70592
566062665.15666 -1.0891287 155.0127 -53.2761 -94.986893 -53.38295 -98.156616 0.013360173 142.66129
566440166.10042 -1.0912944 154.75227 -53.753712 -99.364891 -53.711479 -95.699608 0.012177379 142.64191
566817667.04417 -1.09416 154.45041 -53.666161 -100.74355 -53.663357 -96.765053 0.0091764079 142.58437
567195167.98792 -1.1014967 154.17816 -53.651783 -99.254326 -53.939655 -96.709137 0.0093658166 142.5403
567572668.93167 -1.1074188 153.90526 -53.800171 -98.824409 -53.915337 -97.901878 0.0079691801 142.47952
567950169.87542 -1.1153539 153.63271 -53.731033 -99.150421 -53.767174 -98.873016 0.0077924076 142.45265
568327670.81918 -1.124279 153.38068 -53.925987 -99.925591 -53.857075 -102.52365 0.010990297 142.4061
568705171.76293 -1.135312 153.11833 -54.159706 -102.21993 -53.898045 -104.16599 0.017704492 142.37717
569082672.70668 -1.1404012 152.89679 -53.571327 -101.78249 -53.448872 -98.760582 0.02252651 142.33606
569460173.65043 -1.1468939 152.63763 -54.16819 -103.68285 -53.438221 -99.763252 0.024216121 142.30348
569837674.59419 -1.1480236 152.39322 -53.92947 -102.57485 -54.464199 -101.32936 0.023869842 142.2719
570215175.53794 -1.1555537 152.12907 -53.503651 -98.364441 -53.683521 -103.35152 0.029036632 142.24809
570592676.48169 -1.1585811 151.84259 -54.647118 -103.95737 -53.923172 -101.51432 0.028766947 142.2081
570970177.42544 -1.1623098 151.56183 -54.080978 -100.22375 -53.817719 -103.05277 0.031479686 142.20917
571347678.3692 -1.1650885 151.28212 -53.68121 -100.18009 -54.122063 -104.70102 0.029796066 142.17203
571725179.31295 -1.1704135 150.98096 -53.973999 -104.93494 -54.423042 -102.90704 0.02709139 142.15543
