!Keysight Technologies,N5242B,MY48420860,A.13.80.08
!Date: Saturday, September 26, 2020 12:49:42
!Correction: S11(Full 2 Port(1,2)) 
!S21(Full 2 Port(1,2)) 
!S12(Full 2 Port(1,2)) 
!S22(Full 2 Port(1,2)) 
!S2P File: Measurements: S11, S21, S12, S22:
# Hz S  dB   R 50
500000000 -0.23510617 -166.24174 -67.002876 -51.96085 -65.051453 -50.38509 0.042715978 147.63045
500377500.94375 -0.23731722 -166.43713 -65.118187 -43.359917 -63.896149 -49.318497 0.044795111 147.64195
500755001.8875 -0.23965438 -166.63518 -64.024818 -52.696522 -65.27697 -47.412594 0.043548733 147.65831
501132502.83126 -0.24221775 -166.84007 -65.131622 -49.827614 -63.454582 -44.920914 0.042165708 147.65472
501510003.77501 -0.24522999 -167.05013 -65.181114 -52.934193 -64.671043 -46.241013 0.040535182 147.66721
501887504.71876 -0.24976425 -167.25798 -65.308907 -48.383987 -65.959709 -56.212227 0.037094425 147.66872
502265005.66251 -0.25215268 -167.4523 -65.567673 -58.797379 -64.54184 -58.468796 0.031025467 147.6254
502642506.60627 -0.25654843 -167.6857 -66.046677 -59.670555 -63.538128 -57.199806 0.028795011 147.61043
503020007.55002 -0.25829005 -167.8714 -64.714722 -49.960217 -62.988228 -54.163883 0.024454596 147.58232
503397508.49377 -0.26343569 -168.07224 -61.381321 -49.747669 -64.200737 -59.448956 0.021668969 147.53026
503775009.43752 -0.26596028 -168.2778 -64.814171 -45.253941 -63.935246 -57.743206 0.018591706 147.46558
504152510.38128 -0.27193844 -168.4577 -63.03611 -53.088577 -63.161251 -57.715412 0.019716704 147.42
504530011.32503 -0.27402574 -168.66086 -62.519951 -59.084148 -64.126678 -56.548542 0.020759242 147.35907
504907512.26878 -0.27652985 -168.84567 -63.782585 -53.268272 -62.190063 -59.945026 0.025436971 147.31203
505285013.21253 -0.27870965 -169.03513 -62.471924 -59.943203 -62.373756 -62.941574 0.032415759 147.28711
505662514.15629 -0.28008011 -169.23305 -62.980286 -55.448288 -63.116234 -66.31974 0.035222076 147.25645
506040015.10004 -0.28077725 -169.40709 -62.470055 -71.017464 -61.825203 -69.617584 0.040509615 147.21024
506417516.04379 -0.2847383 -169.60306 -63.060902 -66.280449 -62.486099 -73.076614 0.044117093 147.22363
506795016.98754 -0.28262815 -169.79999 -63.059032 -65.93206 -62.874149 -70.344353 0.05232716 147.21898
507172517.93129 -0.28455433 -169.97908 -64.505653 -65.534172 -61.285496 -65.525063 0.051627014 147.20253
507550018.87505 -0.28565913 -170.18874 -62.561501 -75.607239 -62.945454 -70.296257 0.054164872 147.218
507927519.8188 -0.28560889 -170.38593 -63.0672 -72.24604 -62.834236 -71.779648 0.054424193 147.21587
508305020.76255 -0.28614271 -170.558 -62.219402 -71.571198 -61.55212 -75.947151 0.052361313 147.21022
508682521.7063 -0.28581673 -170.76134 -61.995998 -76.321945 -62.488949 -67.475914 0.045828443 147.2083
509060022.65006 -0.2859768 -170.96967 -61.75951 -75.582245 -63.007214 -80.486366 0.04491964 147.18761
509437523.59381 -0.28634876 -171.14685 -62.601696 -69.54747 -63.199677 -72.34156 0.037648708 147.17198
509815024.53756 -0.28906053 -171.34132 -64.163254 -87.40609 -62.40789 -71.43837 0.031717595 147.14261
510192525.48131 -0.28830099 -171.55069 -62.723984 -78.301476 -63.023575 -83.416786 0.022941867 147.08754
510570026.42507 -0.29095256 -171.73849 -62.555019 -79.898109 -64.186424 -76.547951 0.019182988 147.01369
510947527.36882 -0.29333103 -171.93568 -63.12915 -73.845169 -63.234684 -80.786774 0.017804051 146.95724
511325028.31257 -0.29551011 -172.15109 -62.926655 -82.23468 -64.028748 -78.534378 0.014903371 146.88745
511702529.25632 -0.29543394 -172.34938 -63.071907 -83.777969 -63.427162 -83.363312 0.01198594 146.82608
512080030.20008 -0.29817042 -172.54401 -63.793243 -77.81105 -63.343307 -78.351891 0.015053815 146.75078
512457531.14383 -0.29682529 -172.76051 -62.265362 -68.782623 -61.707127 -67.261009 0.019189904 146.69124
512835032.08758 -0.30207014 -172.96686 -62.18153 -79.441696 -63.286671 -70.774139 0.022477841 146.66241
513212533.03133 -0.30216837 -173.18614 -63.880047 -71.513161 -63.151112 -69.433609 0.026181737 146.62097
513590033.97508 -0.3045122 -173.39441 -64.068176 -81.254829 -62.04731 -85.033295 0.033598803 146.58734
513967534.91884 -0.30711058 -173.60603 -64.718903 -77.421455 -62.54438 -89.434669 0.038472429 146.5575
514345035.86259 -0.31251943 -173.81267 -63.042198 -78.533272 -62.1991 -74.814079 0.042049855 146.57758
514722536.80634 -0.31072649 -174.03003 -63.258938 -78.29847 -61.509483 -85.613213 0.047506705 146.58595
515100037.75009 -0.31542271 -174.26123 -63.17326 -81.477959 -62.870602 -82.583992 0.047314141 146.56935
515477538.69385 -0.3175967 -174.47446 -62.92519 -78.600708 -61.759571 -87.444214 0.046424557 146.59058
515855039.6376 -0.32064521 -174.69235 -63.97887 -72.632645 -63.077335 -79.655121 0.046096962 146.60121
516232540.58135 -0.32201287 -174.91525 -63.072712 -78.492287 -62.722881 -86.764992 0.04281475 146.59021
516610041.5251 -0.32677916 -175.1299 -62.174015 -79.58744 -62.838268 -83.789108 0.041924354 146.55632
516987542.46886 -0.32697386 -175.35127 -61.054474 -89.840088 -62.639896 -83.218582 0.03660341 146.54527
517365043.41261 -0.32984495 -175.56863 -62.22242 -91.789818 -60.96212 -84.899139 0.032879528 146.51218
517742544.35636 -0.33355331 -175.78766 -61.637501 -79.070839 -61.297287 -83.057762 0.031743329 146.47984
518120045.30011 -0.33793184 -176.01224 -63.086563 -90.048737 -62.038277 -91.822433 0.028614109 146.42683
518497546.24387 -0.34101155 -176.229 -61.347286 -84.41333 -61.306801 -87.095482 0.026095418 146.37241
518875047.18762 -0.34453198 -176.4559 -63.828682 -87.293068 -61.675636 -89.172058 0.027806332 146.3165
519252548.13137 -0.34826899 -176.65614 -61.318138 -87.332077 -60.790325 -91.691208 0.030440917 146.25787
519630049.07512 -0.35000655 -176.87802 -61.42482 -84.208344 -61.333221 -92.808342 0.031335518 146.20619
520007550.01888 -0.35472393 -177.08304 -61.527214 -80.69075 -61.268032 -76.77668 0.032753658 146.16534
520385050.96263 -0.35650393 -177.28398 -62.606098 -87.217331 -61.57901 -92.972748 0.039255399 146.12914
520762551.90638 -0.35873419 -177.49158 -61.072147 -87.144051 -60.386642 -90.094971 0.042543426 146.07863
521140052.85013 -0.36118627 -177.71449 -62.022282 -94.049973 -61.302666 -87.437088 0.049730256 146.06738
521517553.79388 -0.36237824 -177.89973 -62.006588 -91.260361 -61.456528 -87.412918 0.051694259 146.04857
521895054.73764 -0.3630923 -178.12488 -61.276157 -96.221939 -61.215427 -91.659256 0.052044775 146.03633
522272555.68139 -0.36502412 -178.33475 -61.439026 -95.752525 -61.674767 -82.167709 0.050253592 146.03532
522650056.62514 -0.36518025 -178.54204 -60.727528 -99.438553 -60.209831 -97.314423 0.048088979 146.04257
523027557.56889 -0.36818191 -178.76086 -60.624687 -93.132401 -60.028633 -93.32515 0.046179127 146.03461
523405058.51265 -0.36930862 -178.99594 -60.552158 -95.42804 -60.490845 -85.60302 0.04265479 146.00397
523782559.4564 -0.3708615 -179.21927 -60.983032 -90.873444 -61.913712 -95.976784 0.040648703 145.99698
524160060.40015 -0.37592855 -179.43941 -62.527088 -94.608345 -60.971497 -93.793488 0.033438195 145.98064
524537561.3439 -0.37991729 -179.67549 -61.311787 -85.795067 -60.181789 -90.939041 0.032388993 145.96454
524915062.28766 -0.38286713 -179.92537 -59.964333 -96.658707 -60.810383 -98.77169 0.027442763 145.8884
525292563.23141 -0.3882162 179.84047 -60.354801 -91.662651 -61.05069 -91.760719 0.024127476 145.86099
525670064.17516 -0.39399281 179.59393 -61.04454 -95.127563 -60.821705 -91.755127 0.023912679 145.81067
526047565.11891 -0.39946941 179.36415 -60.459904 -92.381981 -59.722633 -93.494339 0.026232144 145.74847
526425066.06267 -0.40830937 179.12007 -59.825977 -97.090332 -59.6731 -96.056213 0.027452853 145.6981
526802567.00642 -0.41529208 178.90015 -59.590996 -89.776215 -59.468296 -92.430443 0.025960322 145.6566
527180067.95017 -0.42410946 178.64728 -60.377621 -97.15023 -60.603107 -93.828827 0.030648189 145.61046
527557568.89392 -0.43637186 178.41324 -59.619301 -91.580521 -60.24345 -95.838341 0.032053106 145.58191
527935069.83767 -0.44211689 178.20334 -59.178345 -93.653313 -58.618225 -98.383812 0.036144711 145.54272
528312570.78143 -0.45230472 177.98785 -58.206886 -90.766937 -59.191292 -98.705276 0.036701053 145.5275
528690071.72518 -0.46221596 177.75237 -59.048279 -101.15865 -58.402027 -101.71398 0.04151874 145.4906
529067572.66893 -0.47265223 177.54488 -58.846287 -99.742958 -59.059483 -103.77658 0.03837736 145.46541
529445073.61268 -0.47949669 177.3439 -60.077499 -98.045479 -58.829636 -103.69504 0.039154813 145.44518
529822574.55644 -0.48908865 177.12148 -58.344883 -101.34048 -59.803726 -108.81383 0.035679173 145.44156
530200075.50019 -0.49699184 176.90211 -58.990623 -105.55684 -58.990162 -108.72569 0.034020301 145.42107
530577576.44394 -0.50589788 176.69727 -58.005531 -105.02485 -59.435802 -106.62346 0.03040028 145.41455
530955077.38769 -0.51269895 176.4915 -58.993973 -110.42297 -58.066532 -107.12141 0.02781767 145.40358
531332578.33145 -0.52229416 176.26701 -57.575912 -106.37135 -58.645596 -105.90524 0.02389821 145.38651
531710079.2752 -0.52972168 176.08292 -57.395168 -112.07652 -57.576561 -108.80025 0.020543186 145.35521
532087580.21895 -0.53657693 175.8979 -58.495178 -108.69824 -58.800789 -110.44007 0.021235224 145.32634
532465081.1627 -0.5437243 175.69185 -57.960571 -109.0311 -58.270981 -108.41971 0.017164072 145.27391
532842582.10646 -0.54898214 175.50674 -58.562557 -111.04366 -58.024242 -116.943 0.019154022 145.24483
533220083.05021 -0.55215257 175.30354 -58.082161 -113.38147 -58.233685 -116.55766 0.018624786 145.19499
533597583.99396 -0.55850697 175.13637 -58.068764 -114.47887 -58.152393 -108.67844 0.020397134 145.12372
533975084.93771 -0.56072342 174.94116 -58.004684 -113.98954 -57.649952 -111.10358 0.023993602 145.08398
534352585.88146 -0.56400859 174.74217 -57.158691 -112.9628 -57.925648 -118.68677 0.027720707 145.04077
534730086.82522 -0.56728864 174.54803 -57.191658 -114.7382 -57.145332 -112.97653 0.028891867 145.0191
535107587.76897 -0.57013404 174.37157 -57.172424 -118.08937 -58.135227 -118.29467 0.032418307 144.9662
535485088.71272 -0.56797713 174.1683 -56.861485 -118.99598 -57.358772 -119.07227 0.036227919 144.91266
535862589.65647 -0.57146174 173.97861 -58.101433 -122.40566 -57.3256 -113.83297 0.039369926 144.91069
536240090.60023 -0.57499844 173.77348 -57.955246 -119.2308 -57.32547 -118.40928 0.038580745 144.87866
536617591.54398 -0.57566607 173.57112 -56.526146 -118.74094 -57.173752 -125.86948 0.039201848 144.86861
536995092.48773 -0.57818782 173.35297 -57.031933 -122.63838 -57.129131 -123.19318 0.037927583 144.82968
537372593.43148 -0.57978374 173.15862 -56.992046 -126.04996 -56.691856 -125.45429 0.038216621 144.8273
537750094.37524 -0.57864296 172.95164 -56.734383 -131.11732 -56.481869 -128.5549 0.033366837 144.80016
538127595.31899 -0.58049947 172.7406 -56.943653 -124.28378 -56.68372 -132.86281 0.031619608 144.78528
538505096.26274 -0.58120793 172.51781 -56.909061 -128.48866 -56.93885 -127.99384 0.03343603 144.77917
538882597.20649 -0.58544266 172.30827 -57.269489 -130.60777 -57.371273 -137.00381 0.035792392 144.76309
539260098.15025 -0.58503503 172.07651 -57.337292 -127.76372 -57.324436 -128.19496 0.031785052 144.71771
539637599.094 -0.58595842 171.86301 -57.396236 -126.67221 -56.883518 -126.92557 0.036006182 144.71033
540015100.03775 -0.58882546 171.63478 -56.268497 -131.91907 -57.368107 -135.29475 0.035827868 144.70384
540392600.9815 -0.58865803 171.40669 -57.422085 -138.4088 -57.230438 -132.87724 0.040893696 144.66272
540770101.92525 -0.59018672 171.15947 -57.494606 -133.16974 -57.409367 -135.56696 0.043051958 144.6412
541147602.86901 -0.59498525 170.92705 -56.870537 -139.53038 -57.085602 -134.68529 0.047482353 144.61993
541525103.81276 -0.59713185 170.68414 -57.763298 -141.26714 -57.447521 -137.90152 0.05153558 144.59023
541902604.75651 -0.60014325 170.43292 -57.483505 -141.19855 -57.227215 -138.00154 0.049675211 144.55196
542280105.70026 -0.6019215 170.18167 -57.381748 -140.15775 -56.818275 -139.83548 0.05112556 144.5284
542657606.64402 -0.60903317 169.93375 -57.751419 -134.61375 -56.712498 -133.61534 0.052189726 144.49661
543035107.58777 -0.60992843 169.67192 -57.680225 -138.77678 -57.707191 -141.0201 0.047782391 144.44739
543412608.53152 -0.61520839 169.42241 -57.08614 -141.66835 -57.745289 -141.7419 0.046108447 144.40358
543790109.47527 -0.6200676 169.17931 -56.569073 -149.64668 -56.795128 -141.3708 0.043830596 144.37843
544167610.41903 -0.62355882 168.93831 -57.358509 -144.07286 -57.876045 -136.56339 0.037303608 144.34181
544545111.36278 -0.62686366 168.67677 -56.423939 -139.1544 -56.811081 -138.61557 0.033639677 144.29781
544922612.30653 -0.63217479 168.43991 -57.484524 -143.21104 -57.399048 -138.68726 0.027636567 144.26128
545300113.25028 -0.6353339 168.17384 -57.63184 -143.76968 -57.504612 -140.89763 0.026349882 144.2256
545677614.19404 -0.63783479 167.92207 -57.690876 -142.49692 -57.572624 -142.54175 0.021866249 144.20107
546055115.13779 -0.64439863 167.66954 -57.093151 -142.76028 -57.594177 -143.09184 0.020518878 144.13361
546432616.08154 -0.64389145 167.39935 -56.806732 -140.40433 -57.072243 -141.7039 0.0189713 144.12097
546810117.02529 -0.64714992 167.13152 -57.086395 -136.77428 -57.16 -140.72685 0.01907835 144.07512
547187617.96904 -0.65321505 166.85855 -56.683125 -142.50394 -56.863869 -138.57501 0.022424372 144.04964
547565118.9128 -0.65780616 166.60399 -57.251667 -143.7693 -56.481758 -143.27919 0.024233427 144.00763
547942619.85655 -0.66544122 166.3199 -57.319859 -141.33505 -56.811501 -144.6626 0.027405845 143.96152
548320120.8003 -0.6690492 166.05464 -56.731346 -142.07629 -57.19241 -147.2827 0.031325981 143.9261
548697621.74405 -0.6763854 165.77103 -57.395828 -149.60828 -56.323318 -144.52312 0.033100199 143.89436
549075122.68781 -0.68500525 165.5172 -56.713253 -147.08107 -57.027752 -141.69795 0.031762548 143.84883
549452623.63156 -0.69563192 165.24763 -56.815155 -145.8736 -56.435738 -142.9238 0.034141533 143.80843
549830124.57531 -0.70438892 164.97899 -56.372715 -145.612 -56.578266 -142.63591 0.034780502 143.76939
550207625.51906 -0.71583486 164.72812 -56.029652 -144.03636 -55.827538 -144.86664 0.031186244 143.7401
550585126.46282 -0.72387749 164.4769 -56.129936 -143.57123 -56.794682 -142.45412 0.030446652 143.69226
550962627.40657 -0.73550409 164.21278 -55.840801 -144.9502 -55.14011 -145.24022 0.02659907 143.66769
551340128.35032 -0.75022352 163.97229 -55.959164 -143.147 -56.299473 -145.53233 0.026048731 143.62453
551717629.29407 -0.75980115 163.71457 -55.81218 -147.46974 -56.064266 -148.88374 0.023882385 143.58894
552095130.23783 -0.77329826 163.4964 -55.201626 -147.81186 -55.820618 -147.36647 0.022470778 143.5414
552472631.18158 -0.7858777 163.2496 -55.325504 -146.32359 -55.50655 -149.62616 0.019010819 143.51761
552850132.12533 -0.79744208 163.02809 -55.252647 -149.19768 -55.479874 -149.25101 0.018601676 143.47823
553227633.06908 -0.80619711 162.77632 -55.253983 -152.33014 -55.336647 -149.12131 0.022895494 143.4754
553605134.01284 -0.81960309 162.54849 -55.26104 -153.70363 -55.411011 -151.22913 0.027186446 143.43839
553982634.95659 -0.83276457 162.32072 -55.55302 -151.44312 -55.088757 -148.24307 0.030721389 143.44041
554360135.90034 -0.84598035 162.0947 -54.862083 -150.24321 -54.892002 -156.34465 0.035211287 143.41109
554737636.84409 -0.86026531 161.87346 -54.353394 -150.03569 -54.466839 -153.53542 0.042092394 143.41975
555115137.78784 -0.87226754 161.65109 -54.715427 -154.07715 -55.149029 -153.722 0.05011148 143.40759
555492638.7316 -0.88612872 161.41806 -54.270271 -156.46815 -54.529057 -156.73904 0.056861755 143.39104
555870139.67535 -0.89540541 161.20981 -54.870094 -157.48015 -54.657837 -157.81113 0.061055698 143.40219
556247640.6191 -0.90959823 160.99712 -54.470493 -162.38113 -54.399345 -155.29192 0.066478744 143.36671
556625141.56285 -0.92060065 160.77271 -54.485126 -162.51134 -54.492943 -155.38875 0.065966196 143.36293
557002642.50661 -0.93063265 160.57286 -54.386818 -161.1779 -54.406654 -159.81349 0.065094307 143.33217
557380143.45036 -0.94056213 160.36205 -54.004925 -163.21922 -54.221626 -158.69893 0.060879383 143.31642
557757644.39411 -0.95046765 160.15961 -54.959091 -164.47807 -54.508602 -164.19991 0.057810415 143.30869
558135145.33786 -0.95847428 159.95107 -53.847542 -165.30318 -53.945271 -164.21814 0.055209652 143.24225
558512646.28162 -0.96603042 159.74484 -54.036324 -164.02629 -54.356407 -167.47267 0.046783112 143.22231
558890147.22537 -0.97293013 159.54707 -53.816368 -166.88165 -54.209419 -168.14182 0.04067136 143.18491
559267648.16912 -0.97611248 159.35382 -54.016338 -166.65311 -53.940971 -167.24936 0.036276501 143.14462
559645149.11287 -0.9806419 159.15047 -53.943691 -168.03993 -53.828758 -170.07805 0.032896779 143.07021
560022650.05663 -0.98411644 158.92999 -53.705013 -170.92276 -54.309532 -170.19612 0.029904537 143.04538
560400151.00038 -0.98646969 158.69572 -54.349159 -168.35847 -54.106411 -167.87015 0.031871393 143.00272
560777651.94413 -0.98872346 158.47652 -53.904652 -170.06514 -54.004242 -170.40746 0.029825032 142.95512
561155152.88788 -0.99189442 158.23213 -53.501118 -171.90842 -54.296528 -173.59239 0.031050637 142.90605
561532653.83163 -0.99601007 158.01468 -53.812557 -175.36594 -54.020706 -174.46599 0.038887333 142.87309
561910154.77539 -0.99830252 157.7774 -54.445961 -177.164 -53.865826 -175.44626 0.039520487 142.85959
562287655.71914 -1.0017501 157.53221 -54.044674 -176.51967 -54.56068 -174.02316 0.045007613 142.82648
562665156.66289 -1.0085783 157.30145 -53.895649 -177.35143 -53.944504 -174.17389 0.050988659 142.81078
563042657.60664 -1.0102584 157.06445 -54.864433 -176.74321 -53.82893 -177.36882 0.053225193 142.81023
563420158.5504 -1.0152267 156.83701 -54.060974 -176.52531 -54.021206 -176.37498 0.05651119 142.78296
563797659.49415 -1.0195931 156.61621 -53.879765 -173.76366 -53.876633 -175.74663 0.057342384 142.7606
564175160.4379 -1.0228113 156.3943 -54.115776 -176.54126 -54.093826 178.45038 0.056226593 142.75201
564552661.38165 -1.0247629 156.15561 -54.33049 -176.69325 -53.810307 -176.80247 0.048140489 142.72607
564930162.32541 -1.0285798 155.93434 -54.02615 -178.54231 -53.69743 -177.84706 0.045728624 142.6915
565307663.26916 -1.0264827 155.68565 -54.019535 -178.46759 -53.89537 -176.46739 0.043221347 142.65742
565685164.21291 -1.0281341 155.43631 -54.039806 179.7997 -53.538353 178.3531 0.033094101 142.60674
566062665.15666 -1.0272576 155.16075 -53.965847 177.87482 -53.724781 -179.23788 0.026451245 142.55115
566440166.10042 -1.0280161 154.8941 -53.187969 -176.10231 -53.89175 176.68146 0.022569675 142.52003
566817667.04417 -1.0318029 154.61186 -53.746944 177.27411 -53.733391 -177.1306 0.018662216 142.45883
567195167.98792 -1.0376371 154.31868 -53.479626 -178.09468 -53.927456 177.93475 0.014781163 142.37842
567572668.93167 -1.0449066 154.03137 -53.054768 176.89154 -53.262169 177.95143 0.014182624 142.32919
567950169.87542 -1.0518875 153.74611 -53.627266 177.5583 -53.196384 176.3947 0.014978692 142.29755
568327670.81918 -1.0593569 153.48825 -52.868473 177.3969 -53.398991 179.26581 0.020844251 142.23131
568705171.76293 -1.0703984 153.22543 -53.172379 175.18109 -53.146099 175.6263 0.028451124 142.18275
569082672.70668 -1.0767508 152.96866 -53.082905 174.94922 -53.201077 178.504 0.034974113 142.16991
569460173.65043 -1.0858147 152.69875 -53.205662 175.26897 -53.117908 170.63065 0.042340286 142.14354
569837674.59419 -1.0867616 152.44434 -52.877911 171.31825 -52.931385 175.79323 0.043572534 142.1181
570215175.53794 -1.0945969 152.15968 -52.683304 172.15285 -52.739342 170.6281 0.052693192 142.12231
570592676.48169 -1.0982456 151.86765 -52.357582 168.96626 -52.642235 174.53252 0.056469146 142.09618
570970177.42544 -1.1044388 151.58159 -52.912582 171.18111 -52.75692 171.67821 0.058990806 142.10919
571347678.3692 -1.1092305 151.28741 -52.844055 171.08766 -53.054745 169.83362 0.058938567 142.10469
571725179.31295 -1.1158202 150.99371 -52.7206 169.1595 -52.736362 168.78908 0.058312591 142.09712
