!Keysight Technologies,N5242B,MY48420860,A.13.80.08
!Date: Saturday, September 26, 2020 12:51:43
!Correction: S11(Full 2 Port(1,2)) 
!S21(Full 2 Port(1,2)) 
!S12(Full 2 Port(1,2)) 
!S22(Full 2 Port(1,2)) 
!S2P File: Measurements: S11, S21, S12, S22:
# Hz S  dB   R 50
500000000 -0.23417884 -166.20403 -64.539146 -148.99942 -66.052505 -155.0593 0.037222464 147.71718
500377500.94375 -0.23780283 -166.40919 -64.670563 -143.92488 -66.857399 -143.12074 0.039603058 147.70464
500755001.8875 -0.24094354 -166.60551 -64.229263 -149.83641 -66.470932 -143.53366 0.036552627 147.70923
501132502.83126 -0.24521193 -166.81683 -66.265327 -142.00688 -65.916779 -161.68779 0.038300365 147.70467
501510003.77501 -0.24759372 -167.01474 -63.426071 -151.24582 -65.194183 -140.09514 0.036050253 147.7059
501887504.71876 -0.25096199 -167.20949 -63.444561 -140.66518 -66.559761 -161.71638 0.032867845 147.69815
502265005.66251 -0.25351778 -167.4167 -65.599174 -150.02058 -64.914253 -158.6503 0.03025973 147.68225
502642506.60627 -0.26002523 -167.62392 -64.779968 -158.36293 -63.607872 -133.2722 0.026794847 147.65819
503020007.55002 -0.26242638 -167.83543 -64.033348 -160.55699 -63.087448 -150.85486 0.023782052 147.64992
503397508.49377 -0.26622975 -168.02068 -65.04406 -152.77481 -64.12014 -164.02388 0.023117311 147.61229
503775009.43752 -0.26953003 -168.22781 -64.804306 -155.13605 -64.106316 -151.39932 0.017847691 147.55116
504152510.38128 -0.27363271 -168.4213 -63.600113 -164.08794 -64.610329 -149.20445 0.023291495 147.5313
504530011.32503 -0.27639428 -168.60855 -62.881775 -163.46797 -63.726974 -145.29062 0.025571711 147.49615
504907512.26878 -0.28000653 -168.79045 -63.207611 -156.03247 -63.174984 -162.67439 0.028994821 147.45392
505285013.21253 -0.27940819 -168.97061 -64.730942 -165.09016 -64.159142 -168.98492 0.032644048 147.4404
505662514.15629 -0.28382009 -169.16295 -61.761936 -159.36194 -64.475815 -155.6796 0.037066758 147.40765
506040015.10004 -0.28501108 -169.33981 -63.918316 -171.60851 -61.669945 -160.2739 0.040221434 147.3559
506417516.04379 -0.28784931 -169.52516 -64.538895 -168.97174 -62.76741 -161.26509 0.044158135 147.33884
506795016.98754 -0.28284192 -169.70688 -61.922497 -166.02003 -65.627953 -165.41687 0.05106971 147.33578
507172517.93129 -0.28373206 -169.90257 -62.241726 -174.84142 -63.491306 -160.47583 0.05158589 147.31139
507550018.87505 -0.28493366 -170.09361 -63.725349 -167.8898 -64.93129 -166.34296 0.051840346 147.31615
507927519.8188 -0.28454569 -170.29004 -63.675507 -167.07933 -63.833141 -161.2719 0.049941789 147.29283
508305020.76255 -0.28508288 -170.47626 -64.179337 -163.25142 -64.424614 -167.02121 0.047911417 147.28134
508682521.7063 -0.28337923 -170.6788 -63.670723 -165.4976 -64.392258 -173.4213 0.04317734 147.2805
509060022.65006 -0.28324518 -170.87531 -63.515221 -175.32773 -65.247284 -179.01775 0.04188082 147.25755
509437523.59381 -0.28292146 -171.05621 -63.552715 176.55476 -62.268097 -175.01099 0.036334243 147.23207
509815024.53756 -0.28353083 -171.26544 -63.973064 -168.43401 -65.998978 -175.55945 0.030775007 147.20685
510192525.48131 -0.2849659 -171.46352 -63.378242 -170.3911 -63.689827 179.99518 0.02181234 147.13976
510570026.42507 -0.28528389 -171.65004 -65.37455 -179.85706 -62.66119 -179.13441 0.020665025 147.10518
510947527.36882 -0.28759265 -171.85362 -63.869419 178.15456 -63.584885 -176.24651 0.020598365 147.05212
511325028.31257 -0.28733307 -172.07431 -64.17894 176.25157 -63.788441 177.45427 0.017444937 146.9964
511702529.25632 -0.29000679 -172.27115 -63.420959 -173.25922 -63.818367 176.7027 0.016938934 146.96045
512080030.20008 -0.2892828 -172.47934 -64.038719 178.14182 -63.222687 -175.01955 0.018278539 146.8844
512457531.14383 -0.29071146 -172.69855 -64.959244 -174.65909 -64.138641 177.5771 0.022704242 146.8252
512835032.08758 -0.29101706 -172.90363 -63.805801 -176.40331 -64.081009 179.31764 0.025697326 146.80658
513212533.03133 -0.294117 -173.11754 -65.252213 179.63904 -64.59536 178.37444 0.029076304 146.76447
513590033.97508 -0.2973884 -173.33539 -63.533695 -176.37839 -63.599243 -167.79169 0.035952989 146.73248
513967534.91884 -0.29911876 -173.56253 -63.220314 176.43015 -64.06398 -174.81328 0.037152316 146.69267
514345035.86259 -0.30035791 -173.77028 -63.820324 174.72156 -63.47245 176.16518 0.042124461 146.69086
514722536.80634 -0.30327865 -173.99121 -65.513535 -175.40361 -64.30336 -174.23352 0.044838749 146.68422
515100037.75009 -0.30668828 -174.22012 -63.455372 -177.51328 -63.354183 -171.37384 0.04599468 146.66939
515477538.69385 -0.30914995 -174.43042 -62.880165 -173.70209 -63.640839 -171.56494 0.041900769 146.69559
515855039.6376 -0.31217673 -174.64178 -62.416649 -172.7439 -62.779373 -175.29335 0.042522322 146.66795
516232540.58135 -0.3155129 -174.87286 -63.489552 -175.98439 -62.840569 -173.16644 0.038979098 146.65869
516610041.5251 -0.31768051 -175.08432 -62.891186 -173.26448 -63.329224 -177.68257 0.039452236 146.64363
516987542.46886 -0.32045561 -175.30862 -62.793507 -178.99651 -63.334503 -172.04637 0.033776816 146.61578
517365043.41261 -0.32181418 -175.52495 -62.284111 -168.16914 -61.546059 -179.98183 0.030966938 146.58749
517742544.35636 -0.32678112 -175.75122 -62.175884 -174.879 -62.042698 -178.17139 0.031967081 146.55994
518120045.30011 -0.33003235 -175.96634 -60.850986 174.58279 -62.473854 164.47229 0.027656868 146.52188
518497546.24387 -0.33494866 -176.18263 -61.672558 179.45909 -61.632504 170.72031 0.028636543 146.46387
518875047.18762 -0.33705777 -176.40974 -61.850323 175.879 -61.829872 179.52206 0.029869871 146.4353
519252548.13137 -0.34100306 -176.61946 -62.349941 -177.75835 -61.362598 175.25531 0.031427328 146.39063
519630049.07512 -0.34410718 -176.82521 -62.098289 174.32445 -60.961632 178.6367 0.033292759 146.33958
520007550.01888 -0.34698579 -177.02315 -61.550816 174.55786 -61.008793 175.82617 0.039162934 146.30164
520385050.96263 -0.34906155 -177.23877 -61.380363 170.4209 -61.301807 176.23917 0.042413075 146.27229
520762551.90638 -0.35282084 -177.43112 -61.165062 168.78659 -60.841442 172.31866 0.044321623 146.22922
521140052.85013 -0.35491836 -177.64909 -60.332085 161.59813 -60.71439 166.68076 0.049196292 146.19987
521517553.79388 -0.35369498 -177.86021 -61.263947 172.46571 -61.173637 167.91754 0.048455752 146.18797
521895054.73764 -0.35640964 -178.06361 -61.099037 171.0845 -61.466846 154.91655 0.050267112 146.16064
522272555.68139 -0.3571305 -178.26778 -60.300213 166.44473 -60.150421 167.603 0.046255819 146.12874
522650056.62514 -0.35601795 -178.48993 -60.806393 166.22968 -60.470638 169.771 0.044741575 146.14432
523027557.56889 -0.36085615 -178.69835 -59.72533 169.62576 -60.755402 160.86272 0.042755861 146.1299
523405058.51265 -0.36136433 -178.94203 -61.219219 156.93079 -60.110474 159.27783 0.038062602 146.09152
523782559.4564 -0.36241394 -179.15646 -60.094635 160.73628 -59.611805 161.25223 0.034579214 146.05771
524160060.40015 -0.36578131 -179.37903 -61.926155 163.86803 -60.35368 153.62244 0.02881382 146.036
524537561.3439 -0.36894363 -179.6095 -60.503029 160.21066 -60.727474 157.01596 0.030204074 146.0195
524915062.28766 -0.37280306 -179.86385 -60.240696 163.02313 -60.806145 158.63875 0.022957491 145.96756
525292563.23141 -0.37749416 179.90034 -60.85873 160.62762 -60.71143 149.14619 0.024449455 145.94571
525670064.17516 -0.38253194 179.65552 -60.151115 156.04677 -60.151691 159.05782 0.023526274 145.90839
526047565.11891 -0.38569736 179.43275 -58.771477 157.48584 -59.985992 154.98648 0.027720597 145.85069
526425066.06267 -0.39538136 179.19614 -60.620293 159.33864 -59.312641 152.87442 0.029738519 145.8159
526802567.00642 -0.40231293 178.97401 -60.621029 156.21739 -60.074764 151.58711 0.028539883 145.77879
527180067.95017 -0.40912974 178.7319 -60.027233 153.87242 -61.050285 150.77586 0.034662068 145.74274
527557568.89392 -0.41774005 178.48413 -60.453674 151.25038 -60.353893 152.84435 0.034868445 145.70996
527935069.83767 -0.42518887 178.27304 -60.030483 148.20882 -59.718563 149.53561 0.038693234 145.67807
528312570.78143 -0.43194792 178.05632 -60.124763 149.19025 -59.389252 145.50471 0.037929676 145.64693
528690071.72518 -0.44346881 177.83081 -58.894535 145.30972 -60.313866 147.12006 0.037657682 145.63405
529067572.66893 -0.45183364 177.60825 -59.049786 154.79779 -59.513233 144.1898 0.038872506 145.58571
529445073.61268 -0.45727983 177.37859 -59.35899 142.38795 -59.947422 139.89522 0.035961445 145.58032
529822574.55644 -0.46640173 177.15938 -58.184113 144.92165 -59.996292 151.55341 0.032698318 145.54047
530200075.50019 -0.47328398 176.94235 -59.715809 145.06876 -59.261776 146.66916 0.030111061 145.53738
530577576.44394 -0.48369539 176.73083 -59.550392 144.95686 -60.017128 148.54665 0.027249981 145.51219
530955077.38769 -0.49012271 176.5123 -59.598221 141.65573 -59.51091 144.54286 0.02277327 145.4765
531332578.33145 -0.49713948 176.29762 -59.6133 141.09111 -58.654194 139.51888 0.019202378 145.4767
531710079.2752 -0.505427 176.09935 -60.089321 138.22469 -59.400284 146.66728 0.016364042 145.44153
532087580.21895 -0.51085091 175.90807 -60.416767 144.84309 -59.257103 142.44197 0.015638592 145.40068
532465081.1627 -0.51984233 175.70766 -58.990711 140.65224 -59.500061 139.11479 0.012787004 145.35916
532842582.10646 -0.52489871 175.5119 -58.898861 140.24721 -59.366337 134.58145 0.015168248 145.32397
533220083.05021 -0.52597356 175.31259 -58.043694 138.67436 -59.530979 136.29916 0.018339204 145.27373
533597583.99396 -0.53238201 175.12193 -58.305397 138.00563 -58.841892 139.935 0.022203036 145.22258
533975084.93771 -0.53467935 174.92802 -60.211998 136.30957 -59.579582 138.54652 0.024382589 145.16856
534352585.88146 -0.53849876 174.73398 -57.960697 134.76775 -58.4534 132.83328 0.028004311 145.136
534730086.82522 -0.54181242 174.5414 -58.558865 130.72566 -59.768742 136.14203 0.030869961 145.11555
535107587.76897 -0.54274094 174.35178 -59.565998 139.0249 -59.253796 130.29778 0.035059519 145.0692
535485088.71272 -0.54313481 174.13879 -58.206375 131.01888 -59.549931 127.60455 0.037392057 145.02966
535862589.65647 -0.54232067 173.93704 -59.217796 124.02353 -59.459755 132.01772 0.039176151 145.03069
536240090.60023 -0.54788828 173.743 -59.07925 129.20731 -58.679829 129.37834 0.039121538 144.99457
536617591.54398 -0.54733753 173.52885 -57.798286 134.27673 -58.272518 130.37209 0.038557079 144.98372
536995092.48773 -0.54774827 173.32024 -58.73275 124.29081 -58.907169 128.65331 0.035585538 144.95287
537372593.43148 -0.54987675 173.10957 -58.674248 128.93524 -57.924034 124.37754 0.037703481 144.93472
537750094.37524 -0.55043465 172.90247 -58.127308 129.34726 -58.814018 124.24838 0.028660974 144.92006
538127595.31899 -0.5502978 172.67502 -58.701702 126.59966 -59.330231 129.25191 0.02800056 144.89169
538505096.26274 -0.55049157 172.44981 -59.042435 127.98258 -58.327232 127.93846 0.028889973 144.88081
538882597.20649 -0.55271667 172.21829 -58.896416 118.08514 -57.865143 124.16196 0.030345902 144.86969
539260098.15025 -0.55511349 171.98961 -58.738243 127.93032 -59.046131 125.21718 0.029049097 144.82539
539637599.094 -0.55503738 171.74675 -58.156082 120.06998 -58.804462 124.12209 0.032079555 144.78989
540015100.03775 -0.55719626 171.5143 -58.978073 115.43954 -59.261257 119.26804 0.032615706 144.79187
540392600.9815 -0.56090409 171.26991 -59.427937 116.40104 -58.731647 123.11241 0.039035942 144.75047
540770101.92525 -0.56076699 171.01317 -58.106617 119.39974 -58.160858 116.10201 0.041469131 144.74873
541147602.86901 -0.56668949 170.78441 -58.178413 118.66764 -58.755768 123.00404 0.045758821 144.7084
541525103.81276 -0.56837255 170.52679 -58.576508 109.02717 -58.426342 114.5685 0.050614834 144.68175
541902604.75651 -0.57220447 170.267 -57.998787 108.29609 -57.765259 115.6461 0.050656654 144.65462
542280105.70026 -0.57615417 170.01659 -57.896015 121.67421 -58.162506 112.50389 0.055212207 144.61964
542657606.64402 -0.5814206 169.7617 -59.429825 109.62311 -58.091007 111.12818 0.051780712 144.59801
543035107.58777 -0.58524477 169.4902 -58.959339 113.86152 -58.610462 116.66585 0.050705083 144.57156
543412608.53152 -0.58939916 169.24568 -59.499069 111.07518 -57.609653 118.18642 0.049604136 144.51813
543790109.47527 -0.597372 168.97333 -58.300301 120.47491 -58.734161 110.69946 0.042793281 144.50349
544167610.41903 -0.60052896 168.7299 -57.719017 114.27575 -58.407177 110.65866 0.039183788 144.46957
544545111.36278 -0.60410583 168.46828 -58.972149 111.82121 -58.625145 114.26242 0.033710662 144.42647
544922612.30653 -0.6112591 168.21306 -58.63068 109.75552 -59.216244 111.79326 0.027327422 144.38875
545300113.25028 -0.61288744 167.95715 -58.507114 110.80132 -59.410095 111.34126 0.025640102 144.36186
545677614.19404 -0.61962205 167.69589 -57.880428 113.74794 -59.36499 108.04617 0.019888058 144.3261
546055115.13779 -0.62449878 167.42635 -58.640209 117.77724 -59.65028 113.88594 0.016280593 144.25916
546432616.08154 -0.62686628 167.1514 -59.148529 111.20378 -58.792442 119.07919 0.013521791 144.23772
546810117.02529 -0.63061017 166.87294 -59.297543 112.85284 -58.673954 110.81661 0.016864084 144.20007
547187617.96904 -0.63810837 166.60184 -58.298267 114.32841 -59.124107 113.98645 0.016142093 144.15231
547565118.9128 -0.64650351 166.34021 -58.345963 111.70388 -59.579098 110.6991 0.018845692 144.09727
547942619.85655 -0.65437585 166.05727 -59.106724 118.53027 -58.792812 115.39139 0.023180684 144.06076
548320120.8003 -0.66143715 165.79832 -58.344818 112.50755 -57.771145 112.83695 0.027448045 144.00793
548697621.74405 -0.66973042 165.51135 -57.395771 109.99304 -57.742218 108.36944 0.031510677 143.97601
549075122.68781 -0.67980838 165.2495 -58.26897 106.4234 -57.546722 112.5982 0.03019573 143.93906
549452623.63156 -0.69049221 164.99629 -58.928509 109.43592 -56.981586 107.50323 0.03347104 143.88681
549830124.57531 -0.70150393 164.72417 -57.508083 116.87287 -57.625736 112.57575 0.037042331 143.8712
550207625.51906 -0.71358967 164.48221 -57.512562 107.05321 -56.789173 106.47545 0.035527304 143.82693
550585126.46282 -0.72115982 164.21689 -57.267822 109.02974 -56.909988 109.90305 0.032187674 143.80869
550962627.40657 -0.73462886 163.97737 -57.053459 106.30579 -56.542454 108.48133 0.030355042 143.78268
551340128.35032 -0.74602246 163.72858 -56.155869 114.10495 -56.431797 109.82278 0.027628232 143.75232
551717629.29407 -0.75570798 163.47455 -56.213017 107.78133 -56.240959 105.3623 0.025403809 143.72878
552095130.23783 -0.76953906 163.2386 -56.441795 106.36258 -56.251141 103.3646 0.023773078 143.69835
552472631.18158 -0.7837612 162.97864 -56.436989 104.54952 -56.274784 101.37765 0.018974911 143.67659
552850132.12533 -0.79446697 162.76115 -55.720821 101.28973 -55.918064 103.88253 0.019544834 143.65376
553227633.06908 -0.80524057 162.50667 -56.259438 101.80297 -55.545055 102.35484 0.020208992 143.62523
553605134.01284 -0.81977642 162.27786 -55.825092 104.7625 -55.919411 97.327301 0.023748817 143.59592
553982634.95659 -0.83413255 162.03137 -55.408356 94.889786 -55.744492 101.543 0.027502667 143.58167
554360135.90034 -0.84853113 161.79678 -55.691315 96.817093 -55.972839 99.134506 0.034350097 143.57765
554737636.84409 -0.86354905 161.57909 -55.381901 96.781357 -55.677967 94.133728 0.038133807 143.54996
555115137.78784 -0.87560999 161.35512 -55.492638 96.72747 -55.91412 94.099579 0.046610702 143.53676
555492638.7316 -0.88751006 161.11369 -55.592461 96.27037 -55.522457 93.387558 0.053347822 143.49791
555870139.67535 -0.90016097 160.88979 -55.45192 93.123978 -55.753117 93.590897 0.056921147 143.51274
556247640.6191 -0.91354203 160.66466 -55.302605 89.806824 -55.424263 91.759453 0.062850013 143.46986
556625141.56285 -0.92796826 160.4355 -55.896015 91.858597 -55.489742 91.687637 0.063967459 143.45679
557002642.50661 -0.93754047 160.2049 -55.451492 90.124298 -55.879971 92.347488 0.063451245 143.4369
557380143.45036 -0.9515903 159.98976 -55.167637 89.884125 -55.03986 89.500099 0.062715933 143.43037
557757644.39411 -0.96436822 159.7756 -54.794708 95.315262 -55.018372 89.639313 0.06051128 143.40549
558135145.33786 -0.97593218 159.55963 -54.848148 91.059021 -54.84642 87.862465 0.056799766 143.37303
558512646.28162 -0.98801708 159.33966 -55.01366 86.010391 -55.250835 88.619804 0.048973046 143.35861
558890147.22537 -0.99821723 159.12511 -54.488255 85.66407 -55.094711 85.92205 0.043595415 143.32697
559267648.16912 -1.00582 158.91687 -54.678814 79.334038 -55.277908 86.165176 0.039532132 143.29294
559645149.11287 -1.0170486 158.71884 -54.577454 81.740997 -54.852467 85.078911 0.035132181 143.24236
560022650.05663 -1.0269312 158.50105 -53.887547 86.893608 -54.343178 83.11573 0.031298667 143.21785
560400151.00038 -1.035556 158.28708 -54.92503 83.118874 -54.795715 80.779282 0.030882679 143.1799
560777651.94413 -1.0429952 158.09584 -54.203087 79.682793 -54.282429 77.696953 0.029944371 143.1326
561155152.88788 -1.0519652 157.88065 -53.741051 79.74675 -54.591991 81.215004 0.03141069 143.09647
561532653.83163 -1.058511 157.68962 -55.186615 78.977989 -54.994598 78.037453 0.035798971 143.0479
561910154.77539 -1.0655363 157.49239 -54.425537 75.43956 -54.68383 77.650154 0.038260527 143.0237
562287655.71914 -1.0708723 157.29836 -53.927757 74.67382 -54.249451 72.545868 0.042721786 142.98421
562665156.66289 -1.0769106 157.10062 -54.496891 73.538322 -55.120865 72.291367 0.0472943 142.96065
563042657.60664 -1.0810561 156.90944 -54.681324 72.759315 -53.866657 71.538445 0.048730493 142.92186
563420158.5504 -1.0833001 156.70908 -53.967133 71.591202 -54.560905 71.245529 0.053723935 142.90048
563797659.49415 -1.0850062 156.5174 -54.249184 71.738342 -54.969841 68.68042 0.054360218 142.87386
564175160.4379 -1.0852916 156.32445 -54.978893 67.332497 -54.665489 67.186806 0.053619877 142.85391
564552661.38165 -1.0861938 156.09532 -54.165421 62.535355 -53.971416 69.14122 0.049383935 142.83929
564930162.32541 -1.0862509 155.89073 -54.501282 67.743294 -54.527336 67.502846 0.047164161 142.80879
565307663.26916 -1.0826803 155.66571 -54.542133 65.534302 -53.985458 64.091789 0.046016604 142.77873
565685164.21291 -1.0829816 155.42128 -54.605022 66.348206 -54.558746 64.888191 0.036702681 142.73233
566062665.15666 -1.07809 155.15775 -54.206188 63.368462 -54.390442 62.387947 0.031327818 142.69673
566440166.10042 -1.078774 154.88364 -54.577316 62.38839 -55.163765 61.188744 0.027085438 142.68832
566817667.04417 -1.0794408 154.58522 -54.239563 60.06596 -54.92572 63.597359 0.025767349 142.64362
567195167.98792 -1.0852801 154.3085 -54.108707 57.178749 -54.38596 59.936275 0.020739442 142.58846
567572668.93167 -1.0900203 154.01952 -54.56815 59.655651 -54.876759 63.608234 0.018244442 142.55286
567950169.87542 -1.0988998 153.72003 -54.19025 58.557663 -54.702408 60.763058 0.019050114 142.51245
568327670.81918 -1.1067151 153.45935 -54.930286 62.076611 -54.455086 59.228596 0.023231465 142.47125
568705171.76293 -1.1173379 153.19661 -54.750912 61.334682 -54.586361 58.681503 0.03093637 142.42001
569082672.70668 -1.1244241 152.94412 -55.015305 59.877975 -54.854031 58.741493 0.033482257 142.38164
569460173.65043 -1.1347755 152.68861 -54.659954 60.806519 -54.740681 56.041771 0.039754048 142.33636
569837674.59419 -1.1386604 152.43016 -54.658611 57.386833 -55.0252 55.655823 0.03902794 142.31094
570215175.53794 -1.1463513 152.16348 -55.016827 59.350815 -55.489204 57.096214 0.04699941 142.28473
570592676.48169 -1.1516511 151.88223 -54.276802 57.426598 -54.842308 58.771736 0.050834227 142.25307
570970177.42544 -1.1556615 151.61084 -54.657341 52.297535 -54.869137 55.057358 0.052691605 142.24515
571347678.3692 -1.1607522 151.31183 -55.046944 53.89064 -54.787189 55.724808 0.054999959 142.23209
571725179.31295 -1.1690956 151.02197 -54.594341 52.486198 -54.611217 56.863937 0.051954649 142.20638
572102680.2567 -1.1740453 150.72058 -54.600033 55.022736 -54.827011 54.200218 0.052391745 142.19635
572480181.20045 -1.1818904 150.43584 -54.511879 55.261162 -54.418026 53.068146 0.050086603 142.18811
572857682.14421 -1.1912512 150.13841 -54.583263 57.523067 -54.47142 55.734428 0.046088278 142.15273
