!Keysight Technologies,N5242B,MY48420860,A.13.80.08
!Date: Saturday, September 26, 2020 13:13:30
!Correction: S11(Full 2 Port(1,2)) 
!S21(Full 2 Port(1,2)) 
!S12(Full 2 Port(1,2)) 
!S22(Full 2 Port(1,2)) 
!S2P File: Measurements: S11, S21, S12, S22:
# Hz S  dB   R 50
500000000 -0.23163123 -166.187 -64.409798 128.01305 -65.704391 139.48067 -0.029341089 147.11993
500377500.94375 -0.23374493 -166.39348 -64.244591 115.22895 -63.424316 128.65681 -0.030772926 147.12672
500755001.8875 -0.23746122 -166.57959 -64.641129 127.25867 -64.04303 129.50716 -0.030974511 147.14879
501132502.83126 -0.23900816 -166.80164 -65.991165 119.77192 -65.473839 116.9101 -0.032183312 147.15216
501510003.77501 -0.24217503 -167.00644 -62.706451 123.56162 -64.750313 123.87185 -0.034117144 147.14891
501887504.71876 -0.24681944 -167.19678 -63.813755 123.80639 -66.61525 132.90903 -0.038200036 147.15582
502265005.66251 -0.25034407 -167.4079 -63.599678 126.56651 -64.108269 124.90083 -0.042630631 147.12973
502642506.60627 -0.25252807 -167.61478 -62.375149 119.34077 -64.213936 105.59535 -0.044904325 147.10063
503020007.55002 -0.25555846 -167.83302 -64.806046 122.11913 -64.568626 128.04156 -0.046979107 147.0565
503397508.49377 -0.26196259 -168.02431 -65.188675 122.11302 -64.522667 116.93921 -0.048272211 147.01634
503775009.43752 -0.26408282 -168.22551 -64.192108 120.96767 -64.771233 115.17168 -0.050058808 146.95323
504152510.38128 -0.26759028 -168.40019 -63.341759 118.95843 -64.987198 105.79198 -0.044569492 146.92622
504530011.32503 -0.27132583 -168.61205 -64.812584 119.00394 -63.687675 115.7509 -0.036667418 146.8708
504907512.26878 -0.27350157 -168.80563 -63.690395 113.4246 -62.9347 122.14114 -0.029636135 146.83873
505285013.21253 -0.27509171 -168.98746 -62.960384 113.31263 -64.48793 106.42484 -0.02270842 146.83958
505662514.15629 -0.27684432 -169.17574 -65.067741 121.32159 -62.579575 106.14764 -0.014473021 146.81659
506040015.10004 -0.27753311 -169.3559 -62.129585 107.57039 -63.188496 108.8511 -0.007571205 146.79202
506417516.04379 -0.28074196 -169.55153 -62.256382 106.29355 -63.284809 114.78694 -0.0016221309 146.80719
506795016.98754 -0.27611005 -169.73578 -63.368809 104.8112 -62.999107 95.995399 0.0070624864 146.83527
507172517.93129 -0.27748024 -169.92424 -62.100376 100.94696 -62.932392 105.59162 0.0074200514 146.83073
507550018.87505 -0.27983508 -170.13672 -61.630459 104.17545 -63.702389 102.52226 0.010011346 146.85074
507927519.8188 -0.27874368 -170.32956 -62.455734 101.1688 -63.166008 99.75412 0.0095878206 146.86618
508305020.76255 -0.27912906 -170.51004 -61.631035 84.263412 -62.460407 96.253906 0.0069122701 146.88609
508682521.7063 -0.27927858 -170.7171 -63.218662 97.500862 -63.093163 95.132622 0.0036758019 146.88286
509060022.65006 -0.28010404 -170.93089 -63.149902 84.620331 -62.081211 88.291985 -0.0021610451 146.86641
509437523.59381 -0.27987584 -171.10936 -63.932526 97.684402 -63.874161 94.793304 -0.010251749 146.84265
509815024.53756 -0.28161621 -171.3031 -62.513 101.18967 -62.453121 89.234138 -0.016020644 146.81885
510192525.48131 -0.2828314 -171.51126 -64.947769 90.27874 -63.561035 93.630112 -0.023216307 146.74997
510570026.42507 -0.28425562 -171.70865 -62.078823 92.206192 -62.243385 87.834366 -0.027457997 146.69203
510947527.36882 -0.28525284 -171.91249 -62.913525 83.038033 -62.129448 89.833267 -0.028555052 146.63782
511325028.31257 -0.28746635 -172.11713 -63.216 86.435883 -63.141144 86.139183 -0.031879865 146.56036
511702529.25632 -0.28881848 -172.33138 -62.574017 84.216499 -62.883823 85.218414 -0.030979117 146.48921
512080030.20008 -0.2885811 -172.53116 -61.52993 90.913689 -61.901283 82.902245 -0.029198967 146.4306
512457531.14383 -0.29068208 -172.73721 -62.299286 84.402153 -62.13662 87.084885 -0.023212742 146.3716
512835032.08758 -0.29278076 -172.94521 -63.70211 93.120308 -63.221947 87.337074 -0.019590432 146.3389
513212533.03133 -0.29511133 -173.16403 -63.956516 83.423553 -62.775291 88.425186 -0.016510759 146.29205
513590033.97508 -0.29950106 -173.38417 -62.162369 83.554359 -61.724369 81.744392 -0.011184304 146.2612
513967534.91884 -0.30277511 -173.6008 -62.454815 93.503929 -61.456005 78.644875 -0.0092224916 146.22244
514345035.86259 -0.30738252 -173.81194 -63.495384 89.396973 -62.517921 75.989197 -0.0067371484 146.243
514722536.80634 -0.30690813 -174.02994 -62.706814 84.514793 -62.721397 82.999474 -0.0031648763 146.24048
515100037.75009 -0.31102404 -174.25658 -63.125851 86.610512 -62.537739 78.374069 -0.0065966235 146.23468
515477538.69385 -0.31573415 -174.47675 -62.589439 83.252312 -62.702969 76.128204 -0.0096082203 146.25
515855039.6376 -0.31794274 -174.69096 -62.853008 80.092346 -63.377033 81.833466 -0.01192349 146.23277
516232540.58135 -0.31931815 -174.92738 -63.459469 80.993637 -62.390541 84.242607 -0.018020228 146.21468
516610041.5251 -0.32380038 -175.12729 -64.041832 84.433975 -61.331604 75.948982 -0.019800428 146.18941
516987542.46886 -0.32549766 -175.34882 -60.479057 83.80867 -61.635799 77.449959 -0.026441896 146.15054
517365043.41261 -0.32896966 -175.5602 -63.231216 78.053879 -63.31665 74.793076 -0.0328632 146.11693
517742544.35636 -0.33327922 -175.78325 -62.204609 80.451897 -61.920296 71.442787 -0.032152675 146.08397
518120045.30011 -0.33805877 -176.00119 -61.037041 77.060059 -61.703846 73.093369 -0.037513111 146.01695
518497546.24387 -0.34159014 -176.21291 -62.333145 72.363083 -62.838642 79.918854 -0.037790321 145.94046
518875047.18762 -0.34487611 -176.43295 -62.653229 82.421509 -61.230293 72.607224 -0.03816513 145.88667
519252548.13137 -0.35037011 -176.6349 -61.021008 73.234032 -61.940704 73.875481 -0.036922984 145.82362
519630049.07512 -0.35245925 -176.85699 -62.513882 79.227493 -61.747597 72.50042 -0.035698883 145.74588
520007550.01888 -0.35676911 -177.06387 -61.4175 75.60775 -62.755535 66.211304 -0.031712402 145.69815
520385050.96263 -0.35957414 -177.25673 -61.986614 67.636177 -61.355534 72.175232 -0.030901495 145.67067
520762551.90638 -0.36234641 -177.47408 -61.409981 68.661354 -62.065468 74.891373 -0.026814226 145.60384
521140052.85013 -0.36392727 -177.66992 -62.135479 69.249466 -61.655128 77.728882 -0.022670018 145.57727
521517553.79388 -0.36497846 -177.87492 -60.383038 69.124893 -60.268185 69.275276 -0.023148743 145.54878
521895054.73764 -0.36607882 -178.07889 -61.225899 70.273499 -61.957546 69.021545 -0.022881744 145.51971
522272555.68139 -0.36621493 -178.30406 -60.992428 67.340668 -61.821747 73.922348 -0.025790995 145.49478
522650056.62514 -0.36807933 -178.50998 -61.936989 68.246742 -60.842903 70.184212 -0.029244296 145.49782
523027557.56889 -0.37086663 -178.71736 -60.66124 60.251347 -61.083122 58.453533 -0.032966923 145.48235
523405058.51265 -0.37099946 -178.95688 -61.454144 73.229225 -61.222404 69.689034 -0.036347836 145.45395
523782559.4564 -0.37355408 -179.16963 -61.450901 63.35989 -61.160946 67.262001 -0.039375525 145.43503
524160060.40015 -0.37725076 -179.39806 -61.177933 53.17408 -61.203442 69.016586 -0.04378983 145.40567
524537561.3439 -0.38196576 -179.62621 -61.844662 55.848244 -61.142822 66.660622 -0.044334866 145.37628
524915062.28766 -0.38497716 -179.86708 -60.910362 67.902786 -61.745358 59.995419 -0.047157697 145.3251
525292563.23141 -0.39147007 179.89871 -60.716877 68.394562 -61.553879 65.794159 -0.046585981 145.30376
525670064.17516 -0.39647859 179.65665 -59.988361 67.151581 -61.2855 64.000298 -0.0451511 145.26218
526047565.11891 -0.40081412 179.43634 -60.099041 66.136261 -61.046169 60.865784 -0.042319003 145.21164
526425066.06267 -0.41351458 179.19342 -60.865063 58.569344 -59.996449 56.257519 -0.037902471 145.16438
526802567.00642 -0.41922072 178.97417 -60.853523 67.551842 -60.71978 57.601185 -0.037297934 145.11824
527180067.95017 -0.42802185 178.73315 -59.552628 60.899017 -59.852859 56.296345 -0.031895384 145.07976
527557568.89392 -0.43661961 178.49498 -59.30328 50.609314 -60.684399 54.758469 -0.029784156 145.06277
527935069.83767 -0.44581884 178.28258 -60.122135 56.310589 -60.010712 55.993382 -0.024767881 145.03574
528312570.78143 -0.45359221 178.07021 -59.978481 55.472279 -60.572311 57.164532 -0.024019748 145.00345
528690071.72518 -0.46267173 177.858 -60.219814 58.565342 -60.41198 54.971535 -0.021350965 144.98538
529067572.66893 -0.47284785 177.63672 -60.093483 50.494167 -60.180538 59.873131 -0.022149427 144.96822
529445073.61268 -0.47848147 177.43004 -58.65797 57.237701 -59.484859 55.037601 -0.0213653 144.93954
529822574.55644 -0.48888123 177.20726 -59.548256 53.390049 -59.858528 50.388794 -0.024592306 144.93721
530200075.50019 -0.49658757 176.99654 -59.51321 48.593327 -59.582718 53.36097 -0.025802556 144.95105
530577576.44394 -0.50572252 176.79846 -59.516781 54.636925 -58.901405 48.826008 -0.027605904 144.92352
530955077.38769 -0.51259202 176.59233 -58.880661 50.482391 -58.685169 48.879089 -0.028821006 144.90179
531332578.33145 -0.52075201 176.37328 -59.226433 44.250549 -58.593937 47.739567 -0.030072216 144.91309
531710079.2752 -0.52794409 176.18643 -59.134998 46.65696 -59.005009 46.25127 -0.03140628 144.8999
532087580.21895 -0.53352559 176.00284 -58.73019 46.223717 -58.945122 46.054695 -0.03026408 144.86952
532465081.1627 -0.54181558 175.79962 -58.597729 39.480091 -58.611542 47.42625 -0.03316028 144.84619
532842582.10646 -0.54415745 175.61223 -59.477894 37.065907 -58.390945 40.558384 -0.027063198 144.83888
533220083.05021 -0.54783869 175.42059 -59.004055 41.241085 -59.031418 46.08812 -0.022647254 144.79048
533597583.99396 -0.5537501 175.23566 -58.846645 42.198189 -58.398533 41.029533 -0.02219728 144.72137
533975084.93771 -0.55482644 175.05464 -57.817974 41.124603 -59.078434 40.404434 -0.020160027 144.6962
534352585.88146 -0.5580951 174.86505 -58.356953 41.332016 -58.855667 33.729614 -0.015922546 144.66104
534730086.82522 -0.55953997 174.68092 -57.943039 32.26186 -59.042404 31.594677 -0.014675935 144.62553
535107587.76897 -0.55932719 174.49918 -58.703335 34.504288 -58.359261 33.259159 -0.013135088 144.58984
535485088.71272 -0.55891657 174.29669 -58.852509 30.895607 -59.339165 30.712509 -0.010935844 144.53644
535862589.65647 -0.55641001 174.10104 -58.365955 33.802948 -58.525871 35.314678 -0.0098608015 144.53403
536240090.60023 -0.56039429 173.88779 -59.564266 39.057423 -58.776909 30.04578 -0.012579297 144.48776
536617591.54398 -0.56119126 173.67896 -58.529369 35.992496 -58.658474 34.829674 -0.010467136 144.47171
536995092.48773 -0.56092954 173.46783 -58.25919 23.984516 -58.167992 30.745575 -0.018242933 144.43605
537372593.43148 -0.56040126 173.25584 -58.675785 35.641171 -58.553688 30.768499 -0.017594095 144.4236
537750094.37524 -0.56063998 173.04874 -58.132523 30.961353 -58.592876 27.150557 -0.021775011 144.3945
538127595.31899 -0.56098318 172.81712 -58.052299 26.771412 -58.372654 25.922958 -0.025048239 144.36375
538505096.26274 -0.56055832 172.59125 -58.675179 30.528961 -58.41346 20.782068 -0.019758787 144.37022
538882597.20649 -0.56391871 172.37326 -57.931259 19.609434 -58.650417 27.933489 -0.019731551 144.35693
539260098.15025 -0.5650267 172.15623 -58.486565 25.145462 -58.470497 21.088114 -0.020621357 144.31796
539637599.094 -0.56779331 171.89687 -58.898838 18.776556 -59.307873 22.904909 -0.017236084 144.30931
540015100.03775 -0.56852961 171.67551 -58.920567 27.071262 -58.400269 25.0793 -0.017966077 144.29655
540392600.9815 -0.5712232 171.42529 -58.702045 25.085238 -58.220581 24.189884 -0.010108333 144.2625
540770101.92525 -0.57258677 171.17223 -58.102535 22.235126 -57.999901 24.246986 -0.011014748 144.25255
541147602.86901 -0.57558942 170.94315 -58.452179 26.63534 -58.533367 20.7558 -0.0073646544 144.21713
541525103.81276 -0.58065242 170.68469 -57.621346 26.26869 -58.211601 20.720154 -0.0052130981 144.19797
541902604.75651 -0.58400321 170.43779 -57.748062 23.691477 -58.503319 22.421881 -0.0081430376 144.14493
542280105.70026 -0.58885884 170.18948 -58.729374 24.140413 -57.970154 22.802832 -0.0074985232 144.10121
542657606.64402 -0.59308338 169.94551 -58.519176 19.238781 -58.018353 18.71545 -0.011911553 144.06293
543035107.58777 -0.59610051 169.68361 -57.991497 21.984751 -57.29871 22.213551 -0.020179467 144.02008
543412608.53152 -0.60205293 169.43884 -58.380836 18.846123 -57.754391 15.610068 -0.025188845 143.95697
543790109.47527 -0.60814106 169.18159 -57.415134 19.667828 -57.880108 14.953231 -0.029013967 143.90292
544167610.41903 -0.61038262 168.93701 -56.829205 21.501188 -56.615685 12.367256 -0.037442695 143.83942
544545111.36278 -0.6144557 168.68112 -57.198761 13.532158 -57.652248 18.702568 -0.045719586 143.78098
544922612.30653 -0.61898702 168.43451 -58.022938 14.259439 -57.799198 12.562715 -0.051458232 143.74344
545300113.25028 -0.62048376 168.17554 -57.515648 14.054794 -57.980389 17.321115 -0.052536223 143.68199
545677614.19404 -0.62419194 167.92033 -57.708385 17.466988 -57.425098 13.786654 -0.057912037 143.64516
546055115.13779 -0.62975585 167.65196 -58.130119 12.366178 -57.682076 15.69201 -0.056603629 143.58598
546432616.08154 -0.63142222 167.38034 -57.544788 8.1848221 -57.188007 10.667405 -0.059731454 143.56339
546810117.02529 -0.63628387 167.11032 -57.773811 13.866419 -56.859516 9.4610138 -0.054785363 143.51381
547187617.96904 -0.64089674 166.83711 -57.089844 10.628615 -56.909313 10.401196 -0.053867172 143.46869
547565118.9128 -0.64750916 166.57852 -56.673988 7.0605016 -56.903046 6.5735011 -0.050517157 143.44234
547942619.85655 -0.6556651 166.29698 -56.961182 11.743753 -57.168919 9.1743479 -0.045942213 143.38539
548320120.8003 -0.66270387 166.01901 -56.75639 5.7676435 -57.402134 12.243169 -0.040932946 143.34735
548697621.74405 -0.67085093 165.7406 -56.778194 11.143818 -56.27359 5.0280495 -0.039859083 143.32602
549075122.68781 -0.68124914 165.50333 -57.095779 5.4326138 -56.491627 9.3540001 -0.040424772 143.29195
549452623.63156 -0.68943954 165.23659 -57.759014 8.4430056 -56.174767 5.0363169 -0.038701687 143.25505
549830124.57531 -0.69960356 164.97708 -56.496437 8.9241486 -56.327446 10.177255 -0.0402693 143.2025
550207625.51906 -0.70950866 164.72075 -56.287231 8.3084402 -56.630573 6.8891506 -0.043475229 143.16823
550585126.46282 -0.72096723 164.48103 -56.007313 2.9859843 -56.075977 7.9180589 -0.046798225 143.13402
550962627.40657 -0.73187035 164.23138 -55.988483 3.1259105 -56.484356 5.0530028 -0.050864976 143.09067
551340128.35032 -0.742769 164.00337 -56.567345 5.7031856 -56.16785 5.1285729 -0.053348295 143.03963
551717629.29407 -0.75067639 163.74954 -56.2122 3.0999875 -55.33884 0.38796178 -0.055115908 143.00711
552095130.23783 -0.76553875 163.52568 -55.469597 -0.86937338 -55.960426 1.5648726 -0.054073226 142.96362
552472631.18158 -0.7766993 163.29103 -55.633385 -3.2844288 -55.730385 -1.0895334 -0.056458447 142.94388
552850132.12533 -0.78717059 163.05591 -55.983356 -0.61106133 -55.829342 0.82618815 -0.051790483 142.91292
553227633.06908 -0.79510427 162.8127 -55.639194 -5.3458071 -55.183037 -2.2243311 -0.048970055 142.88657
553605134.01284 -0.80825049 162.58551 -55.557629 -6.3963456 -55.431362 -4.1803298 -0.042996269 142.87181
553982634.95659 -0.81992924 162.35666 -55.295643 -7.9965544 -55.13129 -3.7313695 -0.035114836 142.88371
554360135.90034 -0.82940036 162.12384 -55.422382 -7.6209555 -55.362686 -9.7270041 -0.025440227 142.89166
554737636.84409 -0.84306759 161.89708 -55.253841 -6.7055488 -55.077499 -5.3699322 -0.016205434 142.90038
555115137.78784 -0.85259175 161.65672 -54.313145 -10.096954 -55.031551 -8.2227468 -0.0061660334 142.89912
555492638.7316 -0.86513984 161.42653 -55.45631 -7.210618 -54.804699 -14.445425 0.0013193745 142.90752
555870139.67535 -0.87467366 161.19601 -54.492149 -15.686575 -54.642555 -15.002937 0.0044481559 142.92322
556247640.6191 -0.88883334 160.97197 -54.619576 -16.434589 -54.966091 -13.79309 0.010172097 142.91371
556625141.56285 -0.89970458 160.72617 -54.839756 -13.354567 -54.614376 -13.719106 0.010810701 142.90889
557002642.50661 -0.90979642 160.50638 -54.853951 -18.901457 -54.458889 -13.106131 0.0085200137 142.90562
557380143.45036 -0.92229682 160.2811 -55.017757 -13.713603 -54.654396 -15.85942 0.0040782993 142.88333
557757644.39411 -0.93168843 160.06952 -54.523972 -21.325413 -54.964611 -20.454712 0.0012682496 142.87459
558135145.33786 -0.94443119 159.85081 -54.745937 -19.792208 -54.283466 -19.696779 -0.0045135058 142.81487
558512646.28162 -0.95483607 159.6347 -54.527039 -19.515699 -54.573277 -19.964323 -0.014908652 142.79826
558890147.22537 -0.96459472 159.41801 -54.123913 -25.100813 -54.418568 -20.766069 -0.019820534 142.76025
559267648.16912 -0.97164899 159.21944 -54.781578 -22.90543 -54.250191 -24.324497 -0.026192077 142.70309
559645149.11287 -0.9797014 159.01534 -53.806671 -27.38279 -54.288048 -23.437191 -0.029448971 142.64894
560022650.05663 -0.9876008 158.81519 -54.690449 -24.324146 -54.115417 -25.749031 -0.031547733 142.6109
560400151.00038 -0.99365014 158.61345 -53.971909 -25.98782 -53.912701 -27.775309 -0.027739964 142.56947
560777651.94413 -0.99551207 158.39455 -54.139797 -27.609861 -54.297237 -29.788109 -0.025996268 142.53468
561155152.88788 -1.0013258 158.18932 -54.273777 -30.10841 -54.294346 -31.767088 -0.023623059 142.48518
561532653.83163 -1.0029105 158.00246 -54.127491 -30.945799 -54.219021 -28.976274 -0.01349909 142.45683
561910154.77539 -1.0055076 157.78337 -54.194427 -34.417171 -54.317268 -31.846165 -0.0096725645 142.45261
562287655.71914 -1.0058806 157.55647 -53.810009 -32.588741 -54.111385 -35.540562 -0.0058599911 142.43867
562665156.66289 -1.0102186 157.32707 -54.10022 -33.61451 -53.938835 -35.033531 0.0013290046 142.43456
563042657.60664 -1.0093379 157.10168 -54.448151 -35.639107 -54.617561 -37.416695 0.0039244867 142.41486
563420158.5504 -1.0108007 156.88373 -54.144783 -37.78537 -54.112862 -36.64415 0.0058739171 142.40059
563797659.49415 -1.011768 156.66725 -54.116219 -38.953171 -54.430168 -43.637913 0.0049183602 142.37569
564175160.4379 -1.0121473 156.43938 -54.213707 -40.578648 -53.902306 -44.423477 0.0023816095 142.37978
564552661.38165 -1.0108714 156.18726 -54.557014 -41.237213 -54.559963 -39.621117 -0.0046101911 142.34555
564930162.32541 -1.0113486 155.93803 -54.048996 -43.176643 -55.145382 -43.904816 -0.010076207 142.30757
565307663.26916 -1.0081679 155.67981 -54.084885 -41.435833 -54.393623 -43.996525 -0.016574439 142.27684
565685164.21291 -1.0074064 155.40877 -54.445515 -42.744946 -54.313213 -45.174274 -0.027017539 142.20285
566062665.15666 -1.0062543 155.11217 -54.486893 -45.153706 -54.081043 -43.322079 -0.034656689 142.1425
566440166.10042 -1.0093875 154.81992 -54.156818 -48.126408 -54.756565 -47.480324 -0.040493727 142.11127
566817667.04417 -1.0128566 154.5015 -54.522285 -47.780312 -54.528034 -45.284088 -0.045269374 142.02882
567195167.98792 -1.0212595 154.20888 -54.655746 -47.731087 -54.426479 -46.623604 -0.049723413 141.96951
567572668.93167 -1.0283557 153.90147 -54.616211 -49.430466 -55.269672 -51.908848 -0.048695352 141.89903
567950169.87542 -1.0388572 153.60948 -54.923336 -51.786774 -54.33522 -50.635815 -0.047208209 141.85666
568327670.81918 -1.0492141 153.33363 -54.558815 -48.775768 -54.517456 -50.175255 -0.044678759 141.80202
568705171.76293 -1.0619369 153.05313 -54.28286 -46.841835 -55.021946 -48.830456 -0.03451426 141.73721
569082672.70668 -1.070664 152.80603 -54.767864 -48.555599 -54.642277 -46.584435 -0.02880797 141.70381
569460173.65043 -1.0808541 152.53825 -54.304855 -49.507229 -54.348106 -49.052902 -0.02208334 141.6765
569837674.59419 -1.0844504 152.27412 -54.079567 -50.016785 -54.306908 -51.907642 -0.019599376 141.65137
570215175.53794 -1.0938317 152.00078 -54.716015 -51.131287 -54.84375 -49.200722 -0.015753312 141.6364
570592676.48169 -1.1006393 151.69766 -54.609859 -50.718311 -54.436996 -53.059917 -0.01203272 141.61705
570970177.42544 -1.1073384 151.40741 -54.317554 -53.726955 -54.464733 -52.574074 -0.0098889768 141.61539
571347678.3692 -1.1147683 151.11169 -54.441776 -54.227753 -54.57555 -52.436863 -0.01361075 141.60229
571725179.31295 -1.1230381 150.81783 -54.299206 -55.128281 -54.008324 -51.959389 -0.015064149 141.56929
