!Keysight Technologies,N5242B,MY48420860,A.13.80.08
!Date: Saturday, September 26, 2020 13:16:49
!Correction: S11(Full 2 Port(1,2)) 
!S21(Full 2 Port(1,2)) 
!S12(Full 2 Port(1,2)) 
!S22(Full 2 Port(1,2)) 
!S2P File: Measurements: S11, S21, S12, S22:
# Hz S  dB   R 50
500000000 -0.23301859 -166.17433 -68.828781 1.8713142 -67.056999 10.588204 -0.022110378 147.30182
500377500.94375 -0.23758274 -166.37061 -66.936821 14.743852 -67.118591 9.1484737 -0.020534843 147.28041
500755001.8875 -0.2402322 -166.5724 -66.024986 29.222115 -67.423752 24.414022 -0.020137958 147.27599
501132502.83126 -0.24370015 -166.79224 -67.717598 21.87459 -66.216324 17.732428 -0.018556634 147.27264
501510003.77501 -0.24571359 -166.99312 -67.792656 6.0052314 -65.527611 26.344957 -0.018931003 147.27983
501887504.71876 -0.25032607 -167.18034 -68.34433 19.875765 -67.899849 23.043056 -0.022726366 147.27438
502265005.66251 -0.25248075 -167.39738 -66.909088 19.011892 -67.297516 6.9997249 -0.022257444 147.27617
502642506.60627 -0.25662306 -167.616 -64.625206 16.563362 -67.766899 19.739206 -0.024868332 147.25676
503020007.55002 -0.25804272 -167.80646 -65.868675 23.627403 -66.051071 9.9825802 -0.026134459 147.24574
503397508.49377 -0.26713273 -167.99219 -63.320534 18.299486 -66.091377 4.2500801 -0.025928179 147.21434
503775009.43752 -0.26835164 -168.18283 -65.315804 12.390804 -69.2817 9.0504904 -0.027812097 147.17589
504152510.38128 -0.2722235 -168.37665 -66.616592 2.7688041 -66.442184 -0.15314661 -0.023518283 147.15346
504530011.32503 -0.27604613 -168.56953 -65.569107 11.207261 -65.553986 15.866523 -0.01881372 147.11612
504907512.26878 -0.27819341 -168.75217 -64.777496 20.58473 -65.416626 17.166515 -0.011455164 147.09598
505285013.21253 -0.28009439 -168.94455 -66.018753 0.20955443 -66.286461 -8.8477135 -0.0048613911 147.09663
505662514.15629 -0.28181204 -169.13182 -64.335518 12.481375 -65.484337 -1.0162772 0.0010626629 147.06934
506040015.10004 -0.28257608 -169.31329 -67.420555 8.6848259 -64.482742 6.6208601 0.0032116775 147.02782
506417516.04379 -0.28390998 -169.5179 -65.191902 11.559603 -64.36277 14.612864 0.0072688041 147.04156
506795016.98754 -0.27826789 -169.67833 -65.69072 6.6129375 -63.921593 5.4266911 0.016159823 147.02737
507172517.93129 -0.28037581 -169.86583 -65.323181 4.2551193 -63.713093 13.074543 0.016727908 147.01193
507550018.87505 -0.28058976 -170.06046 -64.21418 8.2954836 -64.204559 2.4761305 0.019687226 147.02205
507927519.8188 -0.28122815 -170.26244 -63.84811 -2.6972899 -64.646881 -6.078372 0.016812632 147.02834
508305020.76255 -0.2806347 -170.44986 -64.187332 -3.6249795 -65.060928 13.683962 0.017640058 147.01398
508682521.7063 -0.28040719 -170.64238 -64.456085 -1.1536862 -65.778297 1.1558934 0.011824418 147.0244
509060022.65006 -0.2798562 -170.84378 -63.91777 2.0806055 -64.284012 -6.2160983 0.0099472888 146.9828
509437523.59381 -0.27900845 -171.03766 -63.901691 -4.5065675 -65.52494 -6.5465546 0.0030136479 146.9735
509815024.53756 -0.27981189 -171.24298 -66.437729 -13.803325 -65.006111 -5.3167791 0.00020688257 146.9411
510192525.48131 -0.27996951 -171.44212 -64.390305 -1.9142523 -64.182678 -4.2441239 -0.0070333839 146.89226
510570026.42507 -0.28054583 -171.63643 -63.356041 -8.8657913 -64.686447 -8.5640469 -0.0099283122 146.86166
510947527.36882 -0.28319249 -171.84004 -64.339043 -6.9283681 -65.949211 -1.9574703 -0.0096756676 146.80513
511325028.31257 -0.28343678 -172.05391 -64.617805 -16.240061 -64.824707 -2.8478727 -0.011790661 146.76059
511702529.25632 -0.28473249 -172.25633 -66.467178 -6.3613324 -63.883755 -13.513803 -0.013002122 146.71288
512080030.20008 -0.28557137 -172.44572 -65.237511 -15.350459 -63.345768 -14.424258 -0.012451592 146.65761
512457531.14383 -0.28785223 -172.67778 -64.353004 -17.373146 -66.455864 -10.284215 -0.0078466982 146.59622
512835032.08758 -0.28848201 -172.88127 -64.651138 -4.3285375 -64.646568 -6.339344 -0.0055330754 146.57147
513212533.03133 -0.29130778 -173.10727 -64.420654 -5.2243876 -64.436752 -18.468077 -7.5251519e-005 146.53105
513590033.97508 -0.29396057 -173.31665 -64.342857 -11.094737 -64.286461 -14.16019 0.0024487951 146.48302
513967534.91884 -0.29708248 -173.53703 -64.771149 -14.590322 -63.740414 -9.6013641 0.0031266611 146.4761
514345035.86259 -0.29920021 -173.73816 -64.428963 -17.036272 -64.457207 -12.070776 0.0053419345 146.45529
514722536.80634 -0.2994642 -173.95433 -64.036118 -10.294646 -64.204025 -15.445199 0.008331839 146.4436
515100037.75009 -0.30441952 -174.18759 -64.021606 -17.665998 -63.148701 -14.319 0.006098967 146.41432
515477538.69385 -0.3079012 -174.40369 -64.296059 -13.637587 -62.951138 -10.998942 0.0022588854 146.42923
515855039.6376 -0.30888963 -174.61256 -63.228374 -21.244612 -65.2015 -26.164785 6.4969907e-005 146.40254
516232540.58135 -0.31310654 -174.83427 -64.654327 -23.122412 -64.86557 -18.06555 -0.0029876162 146.38173
516610041.5251 -0.31342861 -175.05394 -63.458939 -16.3421 -63.276924 -22.806252 -0.0054002116 146.33662
516987542.46886 -0.31645015 -175.27621 -62.835064 -21.501928 -62.639931 -20.231251 -0.010230246 146.31148
517365043.41261 -0.31580424 -175.49365 -65.027603 -15.02378 -62.824646 -23.719324 -0.013747778 146.27138
517742544.35636 -0.31955099 -175.71634 -63.929554 -22.75794 -63.605854 -21.543919 -0.013353955 146.24905
518120045.30011 -0.32361209 -175.93654 -64.061615 -22.106356 -63.393337 -20.647627 -0.017423302 146.18961
518497546.24387 -0.32793733 -176.15616 -62.808323 -22.150221 -63.383827 -19.955652 -0.017656054 146.14293
518875047.18762 -0.33021116 -176.38191 -61.87376 -27.685469 -61.770191 -21.368992 -0.016153743 146.10043
519252548.13137 -0.33322266 -176.58492 -62.722359 -25.787064 -62.54565 -20.586609 -0.015482212 146.0556
519630049.07512 -0.33581159 -176.81909 -62.393806 -32.406448 -63.321407 -28.552183 -0.013805307 145.99858
520007550.01888 -0.33910492 -177.0267 -61.902431 -29.351238 -64.107689 -23.49576 -0.011992009 145.96007
520385050.96263 -0.34117776 -177.22099 -61.321671 -26.360876 -63.188557 -25.603987 -0.0073035927 145.92833
520762551.90638 -0.34445459 -177.44069 -62.385921 -27.418737 -61.672539 -27.390894 -0.0087447306 145.87975
521140052.85013 -0.34662884 -177.66379 -62.802139 -35.461227 -62.673401 -28.151264 -0.0039146189 145.83284
521517553.79388 -0.34679613 -177.8645 -60.754253 -25.920309 -62.981522 -25.465326 -0.0076641343 145.80244
521895054.73764 -0.34774935 -178.07648 -62.025295 -42.453411 -62.798813 -31.722179 -0.0092490418 145.77467
522272555.68139 -0.34840807 -178.30356 -63.387524 -35.092224 -61.236435 -34.929409 -0.010329135 145.7381
522650056.62514 -0.34832311 -178.50438 -62.960194 -41.042587 -62.557243 -38.424931 -0.014945786 145.72777
523027557.56889 -0.35218155 -178.73463 -61.388927 -32.586971 -62.159992 -37.674034 -0.017632132 145.70978
523405058.51265 -0.35514116 -178.96902 -61.605042 -27.207964 -63.229828 -32.619865 -0.021145293 145.6604
523782559.4564 -0.35472852 -179.19456 -62.050659 -33.644131 -60.79623 -30.001368 -0.024529096 145.63666
524160060.40015 -0.35905966 -179.42052 -62.091347 -43.551426 -61.504124 -36.67054 -0.028154206 145.58842
524537561.3439 -0.36561161 -179.66501 -62.142784 -38.401112 -61.127842 -36.506184 -0.027326496 145.57404
524915062.28766 -0.36832255 -179.90251 -60.359428 -36.905846 -62.393902 -35.771797 -0.029736407 145.50917
525292563.23141 -0.37457511 179.86633 -62.467457 -36.897076 -61.298817 -41.518734 -0.030065892 145.49591
525670064.17516 -0.38151026 179.61862 -61.377857 -47.704109 -61.103294 -40.6544 -0.027611852 145.46068
526047565.11891 -0.38636893 179.38525 -60.432129 -40.529572 -61.806873 -33.630135 -0.020512918 145.42026
526425066.06267 -0.39395875 179.14754 -61.115562 -40.846706 -60.138973 -46.405689 -0.018824611 145.38345
526802567.00642 -0.40370503 178.92554 -60.45536 -43.098427 -59.831032 -43.045452 -0.016219186 145.34813
527180067.95017 -0.41034314 178.68008 -60.214985 -46.446342 -61.480648 -43.369072 -0.010921189 145.32227
527557568.89392 -0.41960785 178.45299 -60.626945 -42.328796 -60.526279 -43.167057 -0.01046811 145.31537
527935069.83767 -0.42775151 178.24019 -60.755924 -50.23951 -60.487484 -47.836784 -0.0047659045 145.29654
528312570.78143 -0.43593955 178.01485 -60.101013 -45.401871 -61.089615 -47.46838 -0.0027275924 145.29381
528690071.72518 -0.44633585 177.79927 -60.442158 -51.282402 -60.624989 -50.161324 -0.0027471075 145.26031
529067572.66893 -0.45553112 177.58385 -61.277378 -57.127659 -59.661304 -54.756733 -0.0025079472 145.22989
529445073.61268 -0.46192774 177.37213 -60.651573 -54.045738 -59.718246 -45.795731 -0.0060514258 145.2164
529822574.55644 -0.47273123 177.14761 -59.879917 -55.674709 -60.603039 -51.95364 -0.00771495 145.19331
530200075.50019 -0.48075801 176.9332 -58.966049 -60.098965 -59.929642 -53.202595 -0.0094351526 145.21075
530577576.44394 -0.48724383 176.73026 -59.752056 -47.592049 -60.094547 -53.831799 -0.012842344 145.16774
530955077.38769 -0.49450919 176.51146 -59.339699 -58.45166 -59.732094 -53.178288 -0.013952957 145.14024
531332578.33145 -0.50218815 176.29865 -60.140259 -57.829334 -60.357002 -58.511211 -0.018394601 145.13235
531710079.2752 -0.50862819 176.10529 -59.519386 -58.642372 -58.617706 -57.559441 -0.020237343 145.10019
532087580.21895 -0.51537871 175.90427 -59.831516 -67.436172 -61.068016 -55.195461 -0.016536212 145.07375
532465081.1627 -0.52330589 175.69746 -60.547699 -63.368626 -60.019604 -58.552078 -0.017030783 145.04401
532842582.10646 -0.52695346 175.50696 -59.855644 -61.369648 -59.936306 -57.989311 -0.014213913 145.02397
533220083.05021 -0.53229856 175.29172 -59.022411 -59.717453 -59.421062 -61.963661 -0.0090962527 144.9735
533597583.99396 -0.53570002 175.11079 -59.515766 -66.05423 -59.701286 -66.221352 -0.0062859063 144.93083
533975084.93771 -0.54001826 174.93184 -59.680187 -69.108528 -60.071201 -67.296379 -0.0017128247 144.89587
534352585.88146 -0.54436803 174.70567 -59.685841 -62.019642 -59.69236 -64.105598 0.0030641148 144.88733
534730086.82522 -0.54647893 174.52872 -58.935932 -69.569801 -58.768421 -72.462845 0.0063524344 144.86673
535107587.76897 -0.54661572 174.34061 -59.744831 -72.242226 -59.722618 -67.87635 0.0086652255 144.83156
535485088.71272 -0.54815912 174.13522 -58.431244 -69.447899 -59.387379 -72.310478 0.011449087 144.79277
535862589.65647 -0.54860395 173.93356 -59.373463 -70.868217 -58.955708 -71.277916 0.011610606 144.79756
536240090.60023 -0.55294669 173.71956 -58.189468 -72.381149 -59.06945 -74.142372 0.0086921314 144.77623
536617591.54398 -0.55544686 173.49835 -58.934544 -70.220917 -59.104572 -72.663498 0.0082531013 144.73801
536995092.48773 -0.55721778 173.30467 -58.637146 -74.887337 -58.499035 -75.317535 0.0050613796 144.7202
537372593.43148 -0.5589186 173.08832 -58.765533 -76.750427 -58.843472 -75.43042 0.0014199932 144.7043
537750094.37524 -0.56052035 172.89204 -58.566032 -79.506256 -58.899445 -82.568916 -0.0044485582 144.67273
538127595.31899 -0.55994898 172.66634 -57.701214 -81.075027 -58.289009 -81.993965 -0.0060112178 144.64229
538505096.26274 -0.56227493 172.44029 -59.195866 -82.144043 -58.537903 -78.273994 -0.0056162137 144.61682
538882597.20649 -0.56578928 172.22504 -58.788994 -85.713921 -58.486973 -82.687172 -0.0046339263 144.61171
539260098.15025 -0.56474423 172.00185 -58.670898 -89.092201 -58.964291 -79.237495 -0.0058279792 144.56308
539637599.094 -0.5674054 171.76193 -58.574234 -86.045677 -58.725937 -84.001755 -0.0051272321 144.54361
540015100.03775 -0.56911039 171.53595 -58.716793 -88.681229 -58.714043 -90.643547 -0.00058050989 144.51492
540392600.9815 -0.57346517 171.30995 -58.946774 -87.469772 -58.381069 -84.961235 0.0030034771 144.47729
540770101.92525 -0.57388097 171.04359 -58.934586 -89.059036 -58.205952 -92.2827 0.004797284 144.45311
541147602.86901 -0.57512975 170.82257 -59.059509 -89.820007 -58.100403 -91.564507 0.010344932 144.41376
541525103.81276 -0.58173996 170.5601 -58.253471 -87.544601 -58.442226 -91.951241 0.015034669 144.40451
541902604.75651 -0.58463079 170.30984 -59.174267 -91.478989 -58.143608 -96.232971 0.012431075 144.36551
542280105.70026 -0.589894 170.06274 -57.884243 -96.673744 -58.477974 -87.267097 0.012613745 144.34253
542657606.64402 -0.59397584 169.82195 -58.276173 -96.009644 -59.390511 -96.806465 0.012269602 144.29881
543035107.58777 -0.59594703 169.54921 -58.592178 -101.21293 -58.768925 -100.36837 0.0048658564 144.27512
543412608.53152 -0.60239261 169.30095 -59.263477 -98.454971 -59.030556 -99.537727 0.0030982711 144.22925
543790109.47527 -0.60858005 169.03294 -58.51416 -97.417152 -58.555695 -100.22482 -0.0066842497 144.20137
544167610.41903 -0.61288387 168.80264 -60.156345 -102.3997 -59.067993 -102.1066 -0.013136886 144.15079
544545111.36278 -0.61716467 168.53508 -59.260422 -102.37012 -58.804558 -97.336945 -0.020224983 144.09627
544922612.30653 -0.62172377 168.28325 -58.684601 -100.65285 -59.233433 -97.526611 -0.026534757 144.05653
545300113.25028 -0.6271143 168.01933 -58.419842 -102.74242 -59.057434 -96.801414 -0.032054871 144.00502
545677614.19404 -0.62982744 167.75404 -59.278152 -100.90952 -58.923458 -100.45161 -0.036623009 143.96295
546055115.13779 -0.63734204 167.49306 -58.837696 -109.19848 -59.371124 -103.55463 -0.039166111 143.87721
546432616.08154 -0.6403721 167.222 -59.681015 -98.098503 -58.901012 -101.4984 -0.044149421 143.85138
546810117.02529 -0.64526743 166.95322 -58.906754 -99.227463 -59.244659 -100.65582 -0.041197725 143.7961
547187617.96904 -0.65321028 166.68079 -58.980446 -98.241058 -58.023853 -105.46938 -0.039861273 143.7426
547565118.9128 -0.66033047 166.43742 -58.990826 -100.2302 -59.079311 -96.560966 -0.035974596 143.68925
547942619.85655 -0.66799277 166.15103 -59.686104 -97.24707 -60.166985 -104.54547 -0.033736918 143.61484
548320120.8003 -0.67479402 165.89508 -59.605957 -102.53069 -58.677235 -101.04404 -0.028023096 143.57918
548697621.74405 -0.68213528 165.61021 -59.299271 -99.138588 -58.820843 -102.72906 -0.024456438 143.53535
549075122.68781 -0.69039595 165.37209 -58.100368 -103.94585 -58.798878 -95.245949 -0.023484487 143.50029
549452623.63156 -0.70149601 165.11505 -58.271641 -102.32246 -58.337074 -97.026955 -0.021604776 143.45628
549830124.57531 -0.7097947 164.85683 -57.979725 -102.92553 -58.296322 -105.41879 -0.017929412 143.43172
550207625.51906 -0.71953243 164.60785 -58.800133 -104.00342 -57.960304 -101.41397 -0.019292219 143.39499
550585126.46282 -0.72918069 164.35144 -58.954502 -99.567436 -57.373676 -103.83092 -0.022227539 143.37183
550962627.40657 -0.73974735 164.0939 -57.599495 -107.40073 -57.822048 -105.74029 -0.02592285 143.35391
551340128.35032 -0.75207931 163.85155 -57.863457 -106.87455 -57.296055 -104.95703 -0.027483845 143.31966
551717629.29407 -0.76155144 163.59882 -56.173286 -105.8272 -57.563866 -104.34398 -0.028772742 143.31064
552095130.23783 -0.77560729 163.35573 -57.326618 -106.95038 -57.473728 -108.59961 -0.030302828 143.28233
552472631.18158 -0.78961688 163.12004 -56.90155 -107.25735 -56.95916 -108.38837 -0.033337381 143.2574
552850132.12533 -0.79980057 162.89169 -55.902527 -111.84927 -57.036514 -109.883 -0.030737624 143.2258
553227633.06908 -0.80862367 162.64249 -56.165524 -113.95914 -56.799969 -107.84458 -0.028626299 143.21068
553605134.01284 -0.82313275 162.40956 -56.923759 -114.31795 -56.14402 -114.24247 -0.025442913 143.19487
553982634.95659 -0.83583987 162.17194 -55.939434 -113.83906 -56.57119 -111.81473 -0.02166093 143.19579
554360135.90034 -0.84792012 161.94046 -55.944412 -117.80679 -56.199467 -115.49387 -0.013144539 143.16708
554737636.84409 -0.86305344 161.711 -55.447487 -122.42867 -56.708214 -116.27238 -0.0055017285 143.15746
555115137.78784 -0.87572819 161.46579 -56.129009 -121.97236 -55.838917 -117.47861 0.0038595581 143.1423
555492638.7316 -0.88721174 161.23529 -55.884315 -117.77992 -55.924576 -122.38062 0.011979677 143.12421
555870139.67535 -0.90166068 160.99763 -56.458714 -124.19003 -55.871574 -124.99252 0.016110765 143.13043
556247640.6191 -0.91661191 160.77907 -56.155346 -125.33676 -56.351257 -124.10709 0.025171107 143.10736
556625141.56285 -0.92977351 160.54048 -55.674126 -122.7457 -55.860447 -123.06544 0.024685472 143.09705
557002642.50661 -0.94088501 160.32187 -55.817593 -121.95271 -55.226856 -125.87491 0.02619887 143.08022
557380143.45036 -0.95757228 160.11389 -56.130726 -122.1231 -55.713863 -127.44691 0.023265878 143.0742
557757644.39411 -0.97074294 159.89868 -55.614597 -128.04816 -55.337803 -128.01131 0.023979304 143.08344
558135145.33786 -0.98360628 159.69162 -56.229355 -131.48022 -55.956947 -125.61691 0.019775096 143.04292
558512646.28162 -0.99551088 159.48274 -55.970894 -128.68385 -55.389797 -129.67212 0.011213487 143.04489
558890147.22537 -1.0058022 159.28333 -56.122429 -131.04175 -55.706028 -132.2175 0.0064857961 143.02415
559267648.16912 -1.0147828 159.09068 -56.382652 -131.15169 -55.787098 -133.38776 0.00026422122 143.00014
559645149.11287 -1.0253061 158.90059 -55.295296 -135.53076 -55.75518 -136.59833 -0.0049950522 142.93684
560022650.05663 -1.0327034 158.70662 -55.826881 -136.80161 -55.400085 -136.21745 -0.0059650233 142.91991
560400151.00038 -1.0392672 158.49527 -55.891857 -134.76862 -55.791969 -137.44576 -0.0040845564 142.88716
560777651.94413 -1.0458328 158.29823 -55.767765 -138.97021 -55.838428 -139.8446 -0.0059399442 142.84647
561155152.88788 -1.0516386 158.1169 -55.004314 -137.11746 -55.409435 -139.1665 -0.0077967495 142.80626
561532653.83163 -1.0585188 157.91847 -55.800968 -137.90553 -55.495865 -139.65625 -0.0014892407 142.77011
561910154.77539 -1.0619953 157.72084 -55.26223 -138.61214 -55.584709 -140.60696 0.0028691618 142.72813
562287655.71914 -1.0660075 157.51373 -55.195419 -140.51421 -55.560112 -138.60318 0.0055452716 142.68517
562665156.66289 -1.0720586 157.3165 -55.057636 -145.68024 -55.422466 -141.96541 0.010842729 142.65829
563042657.60664 -1.0723367 157.11769 -55.484512 -144.04227 -55.168949 -145.60625 0.013781719 142.62802
563420158.5504 -1.0751628 156.9281 -54.711201 -141.52937 -55.12133 -141.67444 0.016766837 142.58748
563797659.49415 -1.076534 156.74153 -55.069496 -147.84929 -55.141224 -144.78075 0.016764909 142.55434
564175160.4379 -1.0750105 156.54097 -54.748528 -149.49683 -55.062725 -145.39517 0.015375473 142.54001
564552661.38165 -1.0724593 156.33702 -55.066681 -143.54808 -55.368263 -148.40186 0.0099307401 142.50813
564930162.32541 -1.0714965 156.12518 -55.468632 -148.17358 -54.438656 -149.62395 0.0077349199 142.4762
565307663.26916 -1.0657971 155.88039 -54.987453 -148.49698 -54.940811 -148.11761 0.0024626651 142.44269
565685164.21291 -1.0619633 155.62149 -54.547268 -147.33951 -54.423431 -149.65106 -0.0045128549 142.40617
566062665.15666 -1.0556786 155.36771 -54.37767 -151.76978 -54.37392 -152.52669 -0.010828734 142.35927
566440166.10042 -1.0561016 155.08409 -54.942856 -149.61328 -54.537991 -149.47545 -0.01439446 142.35768
566817667.04417 -1.0553011 154.7818 -54.49477 -154.89539 -54.411263 -150.50769 -0.018710896 142.28908
567195167.98792 -1.0603749 154.48399 -54.868118 -154.81506 -54.396275 -154.22229 -0.024016004 142.25151
567572668.93167 -1.0644486 154.18881 -54.119228 -153.51082 -54.243389 -157.52663 -0.026660923 142.20319
567950169.87542 -1.0739574 153.89154 -54.000488 -156.0369 -54.54179 -155.54269 -0.026574513 142.16336
568327670.81918 -1.0813786 153.62277 -53.838074 -157.68665 -54.68557 -155.33063 -0.023143115 142.11005
568705171.76293 -1.0915583 153.345 -54.296078 -155.67841 -54.149841 -157.81654 -0.01762188 142.05667
569082672.70668 -1.0998735 153.08383 -54.427704 -161.97894 -54.634537 -159.10364 -0.01674304 142.00781
569460173.65043 -1.1091615 152.82945 -54.111385 -157.73586 -54.641396 -162.94936 -0.010153601 141.94795
569837674.59419 -1.1127186 152.5771 -53.688755 -161.80771 -54.478363 -159.77922 -0.010937231 141.90833
570215175.53794 -1.1202155 152.30843 -54.569855 -162.01096 -54.066654 -164.22803 -0.0051273378 141.87395
570592676.48169 -1.1249449 152.01096 -54.059956 -164.26253 -54.425438 -164.32988 -0.0029573457 141.82236
570970177.42544 -1.1290998 151.72005 -54.309906 -163.21158 -53.840187 -169.13252 -0.0016885804 141.80573
