!Agilent Technologies,E8364B,US42250235,A.06.04.32
!Agilent E8364B: A.06.04.32
!Date: Friday, January 15, 2021 16:23:58
!Correction: S11(Full 2 Port(1,2)) S21(Full 2 Port(1,2)) S12(Full 2 Port(1,2)) S22(Full 2 Port(1,2)) 
!S2P File: Measurements: S11, S21, S12, S22:
# Hz S  dB   R 50
500000000 -1.327458e-001 -1.295566e+002 -6.102818e+001 4.532816e+001 -6.261481e+001 3.583330e+001 -1.582398e-001 1.353030e+002
500625000 -1.279966e-001 -1.297947e+002 -6.443273e+001 2.899911e+001 -6.153029e+001 3.357450e+001 -1.566228e-001 1.352184e+002
501250000 -1.394914e-001 -1.300060e+002 -6.029654e+001 2.769295e+001 -6.295071e+001 3.412000e+001 -1.569314e-001 1.351561e+002
501875000 -1.423431e-001 -1.302978e+002 -6.019486e+001 3.022580e+001 -6.369131e+001 6.010229e+001 -1.514830e-001 1.350879e+002
502500000 -1.396675e-001 -1.305488e+002 -6.178265e+001 2.261094e+001 -6.045456e+001 3.696927e+001 -1.578824e-001 1.350879e+002
503125000 -1.510101e-001 -1.308219e+002 -6.171128e+001 2.330458e+001 -6.165356e+001 2.970503e+001 -1.566743e-001 1.349018e+002
503750000 -1.493717e-001 -1.310480e+002 -6.065597e+001 2.856755e+001 -6.159301e+001 3.141645e+001 -1.659451e-001 1.348416e+002
504375000 -1.532202e-001 -1.312493e+002 -5.936993e+001 2.199340e+001 -6.311453e+001 1.102035e+001 -1.666216e-001 1.347679e+002
505000000 -1.643035e-001 -1.315144e+002 -5.997290e+001 2.674393e+001 -6.045096e+001 2.273492e+001 -1.711508e-001 1.347028e+002
505625000 -1.609495e-001 -1.317653e+002 -6.316611e+001 3.457453e+001 -6.051963e+001 2.629838e+001 -1.641367e-001 1.345681e+002
506250000 -1.669438e-001 -1.320232e+002 -6.194661e+001 1.432542e+001 -6.143502e+001 1.939877e+001 -1.755968e-001 1.343789e+002
506875000 -1.648733e-001 -1.322513e+002 -6.251694e+001 2.973889e+001 -6.087816e+001 1.227778e+001 -1.747022e-001 1.342323e+002
507500000 -1.679122e-001 -1.325278e+002 -5.922822e+001 2.039386e+001 -5.920541e+001 2.658789e+001 -1.786294e-001 1.339726e+002
508125000 -1.721022e-001 -1.327856e+002 -6.031686e+001 2.538319e+001 -6.108722e+001 1.682667e+001 -1.853696e-001 1.338281e+002
508750000 -1.798589e-001 -1.329515e+002 -5.910618e+001 2.032092e+001 -6.068363e+001 1.681681e+001 -1.832862e-001 1.335922e+002
509375000 -1.816940e-001 -1.332986e+002 -5.832856e+001 1.486059e+001 -5.870812e+001 2.414354e+001 -1.765780e-001 1.334757e+002
510000000 -1.798798e-001 -1.335378e+002 -6.218687e+001 1.474169e+001 -5.975804e+001 1.296389e+001 -1.968708e-001 1.332154e+002
510625000 -1.861169e-001 -1.337304e+002 -6.142947e+001 1.897079e+000 -5.954041e+001 1.426080e+001 -1.855556e-001 1.331003e+002
511250000 -1.919477e-001 -1.339668e+002 -6.104649e+001 1.253763e+001 -5.812683e+001 1.103472e+001 -1.918464e-001 1.327279e+002
511875000 -1.921940e-001 -1.342896e+002 -5.820358e+001 3.596959e+000 -6.183067e+001 4.242838e+000 -1.846759e-001 1.325604e+002
512500000 -1.980342e-001 -1.345854e+002 -5.964664e+001 3.359480e+000 -6.046136e+001 -3.921908e-001 -1.851989e-001 1.323570e+002
513125000 -2.090283e-001 -1.348441e+002 -5.975069e+001 -8.126182e-001 -6.156017e+001 6.319939e+000 -1.892634e-001 1.322122e+002
513750000 -2.121430e-001 -1.351362e+002 -5.865388e+001 8.709412e+000 -5.996862e+001 1.729104e+001 -1.826846e-001 1.320116e+002
514375000 -2.182693e-001 -1.354675e+002 -6.010612e+001 3.114367e+001 -5.781759e+001 -8.570468e+000 -1.758959e-001 1.318254e+002
515000000 -2.208058e-001 -1.357113e+002 -6.128233e+001 1.217111e+001 -5.923823e+001 9.427274e+000 -1.693530e-001 1.316523e+002
515625000 -2.310485e-001 -1.360936e+002 -6.024492e+001 1.122958e+001 -5.806147e+001 -3.160315e+000 -1.615014e-001 1.316036e+002
516250000 -2.423902e-001 -1.363666e+002 -6.013019e+001 6.862016e+000 -6.003888e+001 -2.450606e-001 -1.710760e-001 1.315118e+002
516875000 -2.599142e-001 -1.367189e+002 -6.101068e+001 -1.477290e+000 -5.880512e+001 4.956429e+000 -1.610264e-001 1.314897e+002
517500000 -2.602715e-001 -1.370026e+002 -5.896844e+001 4.279430e+000 -5.986913e+001 -7.383366e+000 -1.550474e-001 1.313708e+002
518125000 -2.585579e-001 -1.373563e+002 -5.897891e+001 -1.140056e+001 -6.027283e+001 -8.530127e+000 -1.456515e-001 1.313259e+002
518750000 -2.647381e-001 -1.376567e+002 -5.802238e+001 -4.168529e+000 -5.903461e+001 -1.214847e+001 -1.546734e-001 1.313491e+002
519375000 -2.786080e-001 -1.379313e+002 -5.957336e+001 -1.236302e+001 -5.881099e+001 -7.777788e+000 -1.442706e-001 1.313375e+002
520000000 -2.817558e-001 -1.382759e+002 -5.828959e+001 -1.091078e+001 -6.187130e+001 -3.304674e+000 -1.465911e-001 1.312884e+002
520625000 -2.853246e-001 -1.386154e+002 -6.009312e+001 -1.151411e+001 -5.938667e+001 -8.892676e+000 -1.401841e-001 1.312505e+002
521250000 -2.938397e-001 -1.389854e+002 -5.980969e+001 -2.265519e+001 -5.794638e+001 -1.129117e+001 -1.424954e-001 1.313294e+002
521875000 -2.890311e-001 -1.393382e+002 -5.720730e+001 -2.612402e+001 -5.874538e+001 -2.075258e+001 -1.360276e-001 1.313733e+002
522500000 -2.945554e-001 -1.396560e+002 -5.803946e+001 -3.051984e+001 -5.892944e+001 -1.590101e+001 -1.333597e-001 1.313303e+002
523125000 -3.037107e-001 -1.399939e+002 -5.905400e+001 -2.026633e+001 -5.893193e+001 -2.246951e+001 -1.334556e-001 1.313585e+002
523750000 -2.990119e-001 -1.403527e+002 -5.728930e+001 -1.680826e+001 -5.833710e+001 -1.997136e+001 -1.453515e-001 1.314041e+002
524375000 -3.096076e-001 -1.406299e+002 -5.814326e+001 -2.129532e+001 -5.823543e+001 -2.558713e+001 -1.429364e-001 1.313946e+002
525000000 -3.120302e-001 -1.410297e+002 -5.932272e+001 -2.141893e+001 -5.779570e+001 -1.895108e+001 -1.426000e-001 1.314353e+002
525625000 -3.284772e-001 -1.412651e+002 -5.812414e+001 -3.182375e+001 -6.032485e+001 -3.193678e+001 -1.509739e-001 1.313828e+002
526250000 -3.164837e-001 -1.416320e+002 -6.097751e+001 -2.237650e+001 -5.785628e+001 -3.758197e+001 -1.506107e-001 1.314350e+002
526875000 -3.334971e-001 -1.419518e+002 -5.873319e+001 -3.352902e+001 -5.803254e+001 -1.973818e+001 -1.397236e-001 1.314222e+002
527500000 -3.426841e-001 -1.422550e+002 -6.052063e+001 -2.387457e+001 -5.830228e+001 -2.810953e+001 -1.453193e-001 1.314201e+002
528125000 -3.562731e-001 -1.426133e+002 -5.766816e+001 -3.432381e+001 -5.754480e+001 -3.229839e+001 -1.572451e-001 1.314808e+002
528750000 -3.572479e-001 -1.428962e+002 -5.886616e+001 -3.715947e+001 -5.975845e+001 -2.087340e+001 -1.445987e-001 1.315578e+002
529375000 -3.604677e-001 -1.431918e+002 -5.758078e+001 -4.884194e+001 -5.841389e+001 -2.448186e+001 -1.529113e-001 1.315277e+002
530000000 -3.661908e-001 -1.436252e+002 -5.744160e+001 -4.266007e+001 -5.852873e+001 -3.245976e+001 -1.526227e-001 1.315448e+002
530625000 -3.769732e-001 -1.438893e+002 -5.944689e+001 -1.946274e+001 -5.791140e+001 -3.558325e+001 -1.456644e-001 1.315850e+002
531250000 -3.773049e-001 -1.442556e+002 -5.915129e+001 -4.219238e+001 -5.850346e+001 -3.849981e+001 -1.444823e-001 1.315483e+002
531875000 -3.973569e-001 -1.445764e+002 -5.759113e+001 -5.204974e+001 -5.718662e+001 -3.982420e+001 -1.528643e-001 1.315108e+002
532500000 -3.976268e-001 -1.448778e+002 -5.763528e+001 -3.132814e+001 -5.915771e+001 -4.069947e+001 -1.537750e-001 1.315434e+002
533125000 -3.983337e-001 -1.452414e+002 -5.791549e+001 -4.194874e+001 -5.941848e+001 -2.932371e+001 -1.596147e-001 1.315438e+002
533750000 -4.062273e-001 -1.456455e+002 -5.910640e+001 -4.114191e+001 -5.870316e+001 -4.987207e+001 -1.687548e-001 1.315457e+002
534375000 -4.086040e-001 -1.460023e+002 -5.904145e+001 -2.842142e+001 -5.770034e+001 -3.280809e+001 -1.554668e-001 1.314503e+002
535000000 -4.271055e-001 -1.462854e+002 -5.767191e+001 -4.830341e+001 -5.886701e+001 -3.736231e+001 -1.571972e-001 1.314250e+002
535625000 -4.355289e-001 -1.466860e+002 -5.767950e+001 -3.052749e+001 -5.691802e+001 -4.284892e+001 -1.538849e-001 1.313675e+002
536250000 -4.441082e-001 -1.470574e+002 -5.755276e+001 -5.381025e+001 -5.791682e+001 -4.158021e+001 -1.532603e-001 1.312775e+002
536875000 -4.592294e-001 -1.474005e+002 -5.816718e+001 -5.198785e+001 -5.702874e+001 -4.995679e+001 -1.692386e-001 1.312188e+002
537500000 -4.617104e-001 -1.477084e+002 -5.625154e+001 -5.000504e+001 -5.639914e+001 -4.360638e+001 -1.627020e-001 1.311561e+002
538125000 -4.739172e-001 -1.481011e+002 -5.743471e+001 -6.203799e+001 -5.688788e+001 -4.169273e+001 -1.751491e-001 1.310550e+002
538750000 -4.853725e-001 -1.484027e+002 -5.659707e+001 -4.448483e+001 -5.662554e+001 -4.789583e+001 -1.733600e-001 1.310115e+002
539375000 -4.948598e-001 -1.487442e+002 -5.770638e+001 -5.664256e+001 -5.679576e+001 -5.187160e+001 -1.637257e-001 1.309404e+002
540000000 -4.979633e-001 -1.490923e+002 -5.680763e+001 -6.124829e+001 -5.772886e+001 -5.878654e+001 -1.645074e-001 1.307439e+002
540625000 -4.978964e-001 -1.494329e+002 -5.607947e+001 -4.489058e+001 -5.741141e+001 -5.348886e+001 -1.742555e-001 1.307059e+002
541250000 -5.058323e-001 -1.497341e+002 -5.685518e+001 -5.221026e+001 -5.572611e+001 -5.845509e+001 -1.669037e-001 1.306734e+002
541875000 -5.159201e-001 -1.500495e+002 -5.681095e+001 -5.506243e+001 -5.621376e+001 -6.274635e+001 -1.727254e-001 1.305515e+002
542500000 -5.095193e-001 -1.503868e+002 -5.626998e+001 -5.929506e+001 -5.600331e+001 -6.339263e+001 -1.691587e-001 1.305003e+002
543125000 -5.202249e-001 -1.507194e+002 -5.605257e+001 -6.683460e+001 -5.734706e+001 -5.907821e+001 -1.622552e-001 1.303721e+002
543750000 -5.276572e-001 -1.510940e+002 -5.602105e+001 -5.929797e+001 -5.694288e+001 -5.825234e+001 -1.717705e-001 1.303932e+002
544375000 -5.372336e-001 -1.515265e+002 -5.689528e+001 -5.884996e+001 -5.556235e+001 -7.032457e+001 -1.617041e-001 1.302850e+002
545000000 -5.392397e-001 -1.517787e+002 -5.537297e+001 -6.719403e+001 -5.672950e+001 -6.539204e+001 -1.653779e-001 1.302849e+002
545625000 -5.462487e-001 -1.522245e+002 -5.517084e+001 -7.014446e+001 -5.700873e+001 -5.937851e+001 -1.683413e-001 1.302340e+002
546250000 -5.638732e-001 -1.525264e+002 -5.533574e+001 -7.130711e+001 -5.537392e+001 -6.350539e+001 -1.710194e-001 1.301220e+002
546875000 -5.739506e-001 -1.529685e+002 -5.554940e+001 -7.002550e+001 -5.605611e+001 -6.976279e+001 -1.720720e-001 1.301816e+002
547500000 -5.947856e-001 -1.533297e+002 -5.456070e+001 -7.634776e+001 -5.675512e+001 -6.783049e+001 -1.692161e-001 1.300978e+002
548125000 -6.161305e-001 -1.536623e+002 -5.620744e+001 -7.034523e+001 -5.554613e+001 -7.747627e+001 -1.705179e-001 1.299709e+002
548750000 -6.268304e-001 -1.540357e+002 -5.539760e+001 -7.289980e+001 -5.474782e+001 -7.219577e+001 -1.773696e-001 1.299128e+002
549375000 -6.466958e-001 -1.543873e+002 -5.504427e+001 -7.627206e+001 -5.512148e+001 -7.846632e+001 -1.800009e-001 1.296967e+002
550000000 -6.601720e-001 -1.546866e+002 -5.469761e+001 -7.977350e+001 -5.455078e+001 -7.628643e+001 -1.844118e-001 1.296677e+002
550625000 -6.798058e-001 -1.550586e+002 -5.425499e+001 -8.588730e+001 -5.516464e+001 -8.054406e+001 -1.796853e-001 1.295050e+002
551250000 -6.900066e-001 -1.553832e+002 -5.467434e+001 -8.455437e+001 -5.470702e+001 -8.103674e+001 -1.827901e-001 1.293169e+002
551875000 -7.028614e-001 -1.557233e+002 -5.420990e+001 -8.281933e+001 -5.534764e+001 -8.228777e+001 -1.835357e-001 1.292307e+002
552500000 -7.113754e-001 -1.561172e+002 -5.441227e+001 -8.563324e+001 -5.484919e+001 -9.278542e+001 -1.804117e-001 1.290302e+002
553125000 -7.219561e-001 -1.564188e+002 -5.466601e+001 -9.357932e+001 -5.460324e+001 -8.936556e+001 -1.898271e-001 1.289318e+002
553750000 -7.337071e-001 -1.567910e+002 -5.588955e+001 -9.017773e+001 -5.492136e+001 -9.125346e+001 -1.937690e-001 1.286818e+002
554375000 -7.471288e-001 -1.570915e+002 -5.418712e+001 -9.216037e+001 -5.511610e+001 -9.240160e+001 -1.865505e-001 1.285710e+002
555000000 -7.537332e-001 -1.575059e+002 -5.484884e+001 -9.768094e+001 -5.510419e+001 -9.735991e+001 -1.899372e-001 1.284735e+002
555625000 -7.680536e-001 -1.578412e+002 -5.482407e+001 -8.953253e+001 -5.464238e+001 -9.252660e+001 -1.798618e-001 1.283375e+002
556250000 -7.899773e-001 -1.581818e+002 -5.496859e+001 -9.559265e+001 -5.413922e+001 -9.806939e+001 -1.826597e-001 1.281995e+002
556875000 -7.967575e-001 -1.585442e+002 -5.470887e+001 -9.596745e+001 -5.528038e+001 -9.894140e+001 -1.797051e-001 1.281416e+002
557500000 -8.219040e-001 -1.588516e+002 -5.499587e+001 -1.035707e+002 -5.517928e+001 -9.839265e+001 -1.726337e-001 1.280247e+002
558125000 -8.378422e-001 -1.592051e+002 -5.448762e+001 -8.796162e+001 -5.464009e+001 -9.833116e+001 -1.727819e-001 1.280099e+002
558750000 -8.499068e-001 -1.594925e+002 -5.393015e+001 -1.054387e+002 -5.423136e+001 -9.763946e+001 -1.573494e-001 1.279421e+002
559375000 -8.779285e-001 -1.598289e+002 -5.398346e+001 -9.899352e+001 -5.365742e+001 -1.030426e+002 -1.596117e-001 1.279845e+002
560000000 -8.910200e-001 -1.601580e+002 -5.474447e+001 -9.933037e+001 -5.445397e+001 -1.043745e+002 -1.416049e-001 1.279411e+002
560625000 -9.055786e-001 -1.603949e+002 -5.375651e+001 -1.039067e+002 -5.346612e+001 -1.041072e+002 -1.467591e-001 1.280275e+002
561250000 -9.178503e-001 -1.607675e+002 -5.407804e+001 -1.039526e+002 -5.330293e+001 -1.074771e+002 -1.517230e-001 1.280453e+002
561875000 -9.347282e-001 -1.611047e+002 -5.401777e+001 -1.109435e+002 -5.442126e+001 -1.053307e+002 -1.528503e-001 1.280988e+002
562500000 -9.546950e-001 -1.614085e+002 -5.442328e+001 -1.048606e+002 -5.352326e+001 -1.053798e+002 -1.426408e-001 1.281357e+002
563125000 -9.626081e-001 -1.617679e+002 -5.278763e+001 -1.081664e+002 -5.368465e+001 -1.044461e+002 -1.382663e-001 1.281756e+002
563750000 -9.838515e-001 -1.621518e+002 -5.397619e+001 -1.138049e+002 -5.371103e+001 -1.121325e+002 -1.461249e-001 1.282137e+002
564375000 -1.001571e+000 -1.625197e+002 -5.347524e+001 -1.110777e+002 -5.317649e+001 -1.108796e+002 -1.491472e-001 1.282807e+002
565000000 -1.020445e+000 -1.629548e+002 -5.281432e+001 -1.210339e+002 -5.255552e+001 -1.186956e+002 -1.552621e-001 1.282467e+002
565625000 -1.045772e+000 -1.633430e+002 -5.281703e+001 -1.179011e+002 -5.405968e+001 -1.169208e+002 -1.597971e-001 1.282836e+002
566250000 -1.071554e+000 -1.637814e+002 -5.326411e+001 -1.174061e+002 -5.360454e+001 -1.184494e+002 -1.689489e-001 1.282663e+002
566875000 -1.108973e+000 -1.642017e+002 -5.363232e+001 -1.252062e+002 -5.339054e+001 -1.129808e+002 -1.650802e-001 1.281993e+002
567500000 -1.145199e+000 -1.646556e+002 -5.302914e+001 -1.248176e+002 -5.306027e+001 -1.238456e+002 -1.661581e-001 1.281491e+002
568125000 -1.175017e+000 -1.649570e+002 -5.288734e+001 -1.235090e+002 -5.353780e+001 -1.212590e+002 -1.658755e-001 1.281412e+002
568750000 -1.209302e+000 -1.654038e+002 -5.321353e+001 -1.258572e+002 -5.261787e+001 -1.180175e+002 -1.770700e-001 1.280844e+002
569375000 -1.238609e+000 -1.657195e+002 -5.239622e+001 -1.244061e+002 -5.300730e+001 -1.207434e+002 -1.754968e-001 1.280421e+002
570000000 -1.269926e+000 -1.661228e+002 -5.284642e+001 -1.276269e+002 -5.238248e+001 -1.235596e+002 -1.723852e-001 1.279040e+002
570625000 -1.289629e+000 -1.664774e+002 -5.212764e+001 -1.229711e+002 -5.239373e+001 -1.201398e+002 -1.730811e-001 1.278975e+002
571250000 -1.322527e+000 -1.668146e+002 -5.273204e+001 -1.320085e+002 -5.251692e+001 -1.205989e+002 -1.761687e-001 1.278249e+002
571875000 -1.361817e+000 -1.671229e+002 -5.204997e+001 -1.310963e+002 -5.180149e+001 -1.311483e+002 -1.672931e-001 1.277344e+002
572500000 -1.378221e+000 -1.675600e+002 -5.173559e+001 -1.344528e+002 -5.255453e+001 -1.351232e+002 -1.788649e-001 1.276706e+002
573125000 -1.400564e+000 -1.678173e+002 -5.265339e+001 -1.350418e+002 -5.177842e+001 -1.315080e+002 -1.642766e-001 1.276632e+002
573750000 -1.415394e+000 -1.680939e+002 -5.249474e+001 -1.375052e+002 -5.194460e+001 -1.378848e+002 -1.879102e-001 1.275798e+002
574375000 -1.436932e+000 -1.684421e+002 -5.208167e+001 -1.391855e+002 -5.241588e+001 -1.398378e+002 -1.790978e-001 1.275586e+002
575000000 -1.452356e+000 -1.688333e+002 -5.171293e+001 -1.372490e+002 -5.160438e+001 -1.377625e+002 -1.741829e-001 1.274863e+002
575625000 -1.471312e+000 -1.691597e+002 -5.106571e+001 -1.423272e+002 -5.196816e+001 -1.414530e+002 -1.787060e-001 1.274347e+002
576250000 -1.488904e+000 -1.695412e+002 -5.142690e+001 -1.438283e+002 -5.163855e+001 -1.439299e+002 -1.828993e-001 1.273732e+002
576875000 -1.504206e+000 -1.698790e+002 -5.178413e+001 -1.477859e+002 -5.217696e+001 -1.463299e+002 -1.794787e-001 1.273110e+002
577500000 -1.537316e+000 -1.702213e+002 -5.194365e+001 -1.469328e+002 -5.143106e+001 -1.441709e+002 -1.743359e-001 1.271808e+002
578125000 -1.555863e+000 -1.705780e+002 -5.139452e+001 -1.481429e+002 -5.141792e+001 -1.482562e+002 -1.800669e-001 1.271227e+002
578750000 -1.563568e+000 -1.708891e+002 -5.163639e+001 -1.554747e+002 -5.200559e+001 -1.535576e+002 -1.890415e-001 1.268989e+002
579375000 -1.578005e+000 -1.712851e+002 -5.138630e+001 -1.520665e+002 -5.149681e+001 -1.478000e+002 -1.923277e-001 1.267604e+002
580000000 -1.591146e+000 -1.716275e+002 -5.176538e+001 -1.558451e+002 -5.188475e+001 -1.453806e+002 -1.979537e-001 1.266446e+002
580625000 -1.605038e+000 -1.720452e+002 -5.096533e+001 -1.542430e+002 -5.108321e+001 -1.518579e+002 -1.935752e-001 1.264225e+002
581250000 -1.633283e+000 -1.724567e+002 -5.075080e+001 -1.539790e+002 -5.134404e+001 -1.551485e+002 -2.036652e-001 1.262155e+002
581875000 -1.644429e+000 -1.729036e+002 -5.133906e+001 -1.564174e+002 -5.179456e+001 -1.593811e+002 -2.021336e-001 1.260097e+002
582500000 -1.669231e+000 -1.733071e+002 -5.069739e+001 -1.610147e+002 -5.157637e+001 -1.629502e+002 -2.093165e-001 1.257850e+002
583125000 -1.682203e+000 -1.738134e+002 -5.124789e+001 -1.642776e+002 -5.094949e+001 -1.593748e+002 -2.210531e-001 1.255154e+002
583750000 -1.709359e+000 -1.742333e+002 -5.086938e+001 -1.642499e+002 -5.108865e+001 -1.619564e+002 -2.286121e-001 1.252503e+002
584375000 -1.732238e+000 -1.746712e+002 -5.067419e+001 -1.692969e+002 -5.051714e+001 -1.657878e+002 -2.123725e-001 1.250693e+002
585000000 -1.758800e+000 -1.751236e+002 -5.133080e+001 -1.646350e+002 -5.088760e+001 -1.689104e+002 -2.108018e-001 1.248872e+002
585625000 -1.791978e+000 -1.755189e+002 -5.050544e+001 -1.678831e+002 -5.062110e+001 -1.725181e+002 -1.991880e-001 1.246679e+002
586250000 -1.803737e+000 -1.759680e+002 -5.135207e+001 -1.727883e+002 -5.059608e+001 -1.713450e+002 -2.025949e-001 1.246467e+002
586875000 -1.822188e+000 -1.764254e+002 -5.153314e+001 -1.710704e+002 -5.089390e+001 -1.689201e+002 -1.972215e-001 1.244359e+002
587500000 -1.835702e+000 -1.768415e+002 -5.080645e+001 -1.681906e+002 -5.081411e+001 -1.754272e+002 -1.928841e-001 1.242208e+002
588125000 -1.844322e+000 -1.772705e+002 -5.117886e+001 -1.739095e+002 -5.074365e+001 -1.754390e+002 -1.811665e-001 1.242441e+002
588750000 -1.863958e+000 -1.777374e+002 -5.033804e+001 -1.772415e+002 -5.078854e+001 -1.738499e+002 -1.881250e-001 1.241533e+002
589375000 -1.876713e+000 -1.782068e+002 -5.041975e+001 -1.772789e+002 -5.089770e+001 -1.782376e+002 -1.683864e-001 1.240068e+002
590000000 -1.911074e+000 -1.786684e+002 -5.102987e+001 -1.783642e+002 -5.057514e+001 1.784848e+002 -1.709350e-001 1.240615e+002
590625000 -1.938971e+000 -1.790800e+002 -5.067919e+001 1.797615e+002 -5.058372e+001 1.793199e+002 -1.588110e-001 1.239800e+002
591250000 -1.967893e+000 -1.794957e+002 -5.063657e+001 1.744339e+002 -5.045618e+001 -1.781369e+002 -1.652937e-001 1.240331e+002
591875000 -2.008669e+000 -1.798314e+002 -5.067631e+001 -1.799931e+002 -5.077470e+001 1.772531e+002 -1.581702e-001 1.240789e+002
592500000 -2.048324e+000 1.798752e+002 -5.021378e+001 1.731104e+002 -5.052308e+001 1.771574e+002 -1.513309e-001 1.241466e+002
593125000 -2.084884e+000 1.796598e+002 -5.028949e+001 1.770756e+002 -5.061652e+001 1.738005e+002 -1.516621e-001 1.242010e+002
593750000 -2.109038e+000 1.793904e+002 -4.982336e+001 1.755961e+002 -4.970624e+001 1.729817e+002 -1.456445e-001 1.242949e+002
594375000 -2.134801e+000 1.792278e+002 -5.055494e+001 1.694155e+002 -5.029264e+001 1.736223e+002 -1.485315e-001 1.243316e+002
595000000 -2.147445e+000 1.789945e+002 -4.985679e+001 1.730762e+002 -5.017334e+001 1.744024e+002 -1.530699e-001 1.244088e+002
