!Agilent Technologies,E8364B,US42250235,A.06.04.32
!Agilent E8364B: A.06.04.32
!Date: Friday, January 15, 2021 16:22:55
!Correction: S11(Full 2 Port(1,2)) S21(Full 2 Port(1,2)) S12(Full 2 Port(1,2)) S22(Full 2 Port(1,2)) 
!S2P File: Measurements: S11, S21, S12, S22:
# Hz S  dB   R 50
500000000 -1.062124e-001 -1.294149e+002 -5.746209e+001 -1.829267e+001 -5.733771e+001 -1.230137e+001 -1.528955e-001 1.356146e+002
500625000 -1.122294e-001 -1.295788e+002 -5.655958e+001 -1.797674e+001 -5.528636e+001 -1.882340e+001 -1.599125e-001 1.355901e+002
501250000 -1.218546e-001 -1.298071e+002 -5.698145e+001 -1.990929e+001 -5.716174e+001 -1.966329e+001 -1.636812e-001 1.355043e+002
501875000 -1.221764e-001 -1.300947e+002 -5.625768e+001 -2.259644e+001 -5.768900e+001 -2.636788e+001 -1.530062e-001 1.354441e+002
502500000 -1.154934e-001 -1.303807e+002 -5.705472e+001 -2.260441e+001 -5.548472e+001 -2.424966e+001 -1.635173e-001 1.354258e+002
503125000 -1.223820e-001 -1.306372e+002 -5.553428e+001 -2.067792e+001 -5.618304e+001 -2.723293e+001 -1.652502e-001 1.353052e+002
503750000 -1.210849e-001 -1.308749e+002 -5.584387e+001 -3.399096e+001 -5.678030e+001 -2.244069e+001 -1.650696e-001 1.352031e+002
504375000 -1.317079e-001 -1.311554e+002 -5.573679e+001 -3.277728e+001 -5.651577e+001 -2.193148e+001 -1.779778e-001 1.351767e+002
505000000 -1.337137e-001 -1.314158e+002 -5.628780e+001 -3.129694e+001 -5.793080e+001 -3.047029e+001 -1.764817e-001 1.350128e+002
505625000 -1.337375e-001 -1.316426e+002 -5.629454e+001 -3.421651e+001 -5.584060e+001 -3.273468e+001 -1.717800e-001 1.349064e+002
506250000 -1.397590e-001 -1.318987e+002 -5.474231e+001 -2.230420e+001 -5.653809e+001 -2.610794e+001 -1.913916e-001 1.347232e+002
506875000 -1.280315e-001 -1.321319e+002 -5.654099e+001 -2.963953e+001 -5.687003e+001 -3.528349e+001 -1.819090e-001 1.345399e+002
507500000 -1.369290e-001 -1.324372e+002 -5.490923e+001 -3.263556e+001 -5.557280e+001 -2.001655e+001 -1.871045e-001 1.343269e+002
508125000 -1.377240e-001 -1.326547e+002 -5.573865e+001 -3.436380e+001 -5.501086e+001 -2.999554e+001 -1.865022e-001 1.341619e+002
508750000 -1.449090e-001 -1.328625e+002 -5.557798e+001 -3.154608e+001 -5.738625e+001 -3.560094e+001 -1.887325e-001 1.339110e+002
509375000 -1.406563e-001 -1.331691e+002 -5.590799e+001 -2.963663e+001 -5.551506e+001 -2.698090e+001 -1.881943e-001 1.337725e+002
510000000 -1.437533e-001 -1.334675e+002 -5.489154e+001 -4.015758e+001 -5.604655e+001 -3.135124e+001 -2.021257e-001 1.335241e+002
510625000 -1.472498e-001 -1.336718e+002 -5.601853e+001 -3.512773e+001 -5.512186e+001 -3.294046e+001 -1.875386e-001 1.333914e+002
511250000 -1.604484e-001 -1.339422e+002 -5.483247e+001 -3.788036e+001 -5.453200e+001 -3.862319e+001 -2.046808e-001 1.330849e+002
511875000 -1.544223e-001 -1.342433e+002 -5.611943e+001 -3.323117e+001 -5.590305e+001 -3.868151e+001 -1.869549e-001 1.328580e+002
512500000 -1.588089e-001 -1.345000e+002 -5.443445e+001 -3.500402e+001 -5.504821e+001 -4.150356e+001 -1.927675e-001 1.326693e+002
513125000 -1.671039e-001 -1.348044e+002 -5.571424e+001 -3.976586e+001 -5.472164e+001 -3.330961e+001 -1.924515e-001 1.325536e+002
513750000 -1.761199e-001 -1.350791e+002 -5.470617e+001 -3.831949e+001 -5.473235e+001 -3.555883e+001 -1.920169e-001 1.323678e+002
514375000 -1.769983e-001 -1.353983e+002 -5.492829e+001 -3.639743e+001 -5.540418e+001 -3.816880e+001 -1.837267e-001 1.321392e+002
515000000 -1.832338e-001 -1.356920e+002 -5.414263e+001 -3.816758e+001 -5.465938e+001 -3.461629e+001 -1.787560e-001 1.320233e+002
515625000 -1.905781e-001 -1.360703e+002 -5.401731e+001 -4.176307e+001 -5.542813e+001 -3.771399e+001 -1.774829e-001 1.319477e+002
516250000 -1.951362e-001 -1.363980e+002 -5.399231e+001 -3.594453e+001 -5.341908e+001 -4.195953e+001 -1.751351e-001 1.318396e+002
516875000 -2.091356e-001 -1.367154e+002 -5.398434e+001 -4.036309e+001 -5.598851e+001 -3.745535e+001 -1.616883e-001 1.318341e+002
517500000 -2.051753e-001 -1.370079e+002 -5.463614e+001 -4.532690e+001 -5.412391e+001 -3.977731e+001 -1.704751e-001 1.317295e+002
518125000 -2.128816e-001 -1.373657e+002 -5.437025e+001 -4.221044e+001 -5.444000e+001 -4.467673e+001 -1.627006e-001 1.316072e+002
518750000 -2.234557e-001 -1.377366e+002 -5.487757e+001 -4.850917e+001 -5.445676e+001 -4.588215e+001 -1.586389e-001 1.316705e+002
519375000 -2.330983e-001 -1.380341e+002 -5.367057e+001 -5.015509e+001 -5.369003e+001 -4.620015e+001 -1.448662e-001 1.316063e+002
520000000 -2.306347e-001 -1.383600e+002 -5.391352e+001 -5.436465e+001 -5.441937e+001 -4.213583e+001 -1.506380e-001 1.316578e+002
520625000 -2.311758e-001 -1.387613e+002 -5.343301e+001 -4.559364e+001 -5.413821e+001 -4.785716e+001 -1.431501e-001 1.316212e+002
521250000 -2.428617e-001 -1.391177e+002 -5.315127e+001 -5.316543e+001 -5.339166e+001 -4.897538e+001 -1.409389e-001 1.316600e+002
521875000 -2.425773e-001 -1.395071e+002 -5.334075e+001 -5.101801e+001 -5.402894e+001 -4.946459e+001 -1.355990e-001 1.316889e+002
522500000 -2.478153e-001 -1.397635e+002 -5.356690e+001 -5.371102e+001 -5.333207e+001 -4.245618e+001 -1.476824e-001 1.316995e+002
523125000 -2.589911e-001 -1.401597e+002 -5.283488e+001 -4.868394e+001 -5.337015e+001 -5.274897e+001 -1.428851e-001 1.317291e+002
523750000 -2.593367e-001 -1.404615e+002 -5.230716e+001 -5.759060e+001 -5.331315e+001 -4.924245e+001 -1.459924e-001 1.317310e+002
524375000 -2.760001e-001 -1.408642e+002 -5.218179e+001 -5.564687e+001 -5.334916e+001 -5.789963e+001 -1.391976e-001 1.317234e+002
525000000 -2.744721e-001 -1.411273e+002 -5.283665e+001 -5.793264e+001 -5.263073e+001 -5.291406e+001 -1.400219e-001 1.317778e+002
525625000 -2.878702e-001 -1.414553e+002 -5.254900e+001 -5.503424e+001 -5.234116e+001 -5.465151e+001 -1.507384e-001 1.317514e+002
526250000 -2.827614e-001 -1.417448e+002 -5.245955e+001 -5.804100e+001 -5.256208e+001 -5.641371e+001 -1.483129e-001 1.317896e+002
526875000 -2.950438e-001 -1.421204e+002 -5.174870e+001 -6.164061e+001 -5.150198e+001 -6.407853e+001 -1.387454e-001 1.317468e+002
527500000 -3.021473e-001 -1.423870e+002 -5.342277e+001 -6.189137e+001 -5.314240e+001 -6.144188e+001 -1.469450e-001 1.317962e+002
528125000 -3.125892e-001 -1.427488e+002 -5.247142e+001 -5.808249e+001 -5.338951e+001 -6.561901e+001 -1.496712e-001 1.318572e+002
528750000 -3.099589e-001 -1.430600e+002 -5.241928e+001 -6.044283e+001 -5.190427e+001 -6.534051e+001 -1.459759e-001 1.319350e+002
529375000 -3.226485e-001 -1.433638e+002 -5.197579e+001 -6.940784e+001 -5.289698e+001 -6.330382e+001 -1.447011e-001 1.318625e+002
530000000 -3.215728e-001 -1.437941e+002 -5.132586e+001 -6.248525e+001 -5.244215e+001 -6.576797e+001 -1.552349e-001 1.319031e+002
530625000 -3.272899e-001 -1.440802e+002 -5.163162e+001 -6.674301e+001 -5.222400e+001 -6.720872e+001 -1.489589e-001 1.318648e+002
531250000 -3.313369e-001 -1.444764e+002 -5.201971e+001 -6.848604e+001 -5.238710e+001 -6.579325e+001 -1.447767e-001 1.319021e+002
531875000 -3.585197e-001 -1.448169e+002 -5.182068e+001 -6.799229e+001 -5.187180e+001 -6.555377e+001 -1.558925e-001 1.319109e+002
532500000 -3.533214e-001 -1.451198e+002 -5.096590e+001 -6.831937e+001 -5.134371e+001 -6.491403e+001 -1.633569e-001 1.318825e+002
533125000 -3.557042e-001 -1.455351e+002 -5.084122e+001 -7.181017e+001 -5.179867e+001 -7.216674e+001 -1.635608e-001 1.319166e+002
533750000 -3.671829e-001 -1.459181e+002 -5.073010e+001 -6.990108e+001 -5.180363e+001 -7.114156e+001 -1.697388e-001 1.318969e+002
534375000 -3.704155e-001 -1.463005e+002 -5.085165e+001 -7.401394e+001 -5.106403e+001 -6.795065e+001 -1.524036e-001 1.318323e+002
535000000 -3.782601e-001 -1.466222e+002 -5.095323e+001 -7.095642e+001 -5.199547e+001 -7.239098e+001 -1.689707e-001 1.317701e+002
535625000 -3.908179e-001 -1.470711e+002 -5.094915e+001 -7.145449e+001 -5.109044e+001 -7.435828e+001 -1.674903e-001 1.317334e+002
536250000 -3.975717e-001 -1.474442e+002 -5.072921e+001 -7.527134e+001 -5.056659e+001 -7.760226e+001 -1.611865e-001 1.316109e+002
536875000 -4.108735e-001 -1.478117e+002 -5.018715e+001 -7.463845e+001 -5.091323e+001 -7.399426e+001 -1.671799e-001 1.315139e+002
537500000 -4.143530e-001 -1.481565e+002 -5.064184e+001 -8.108151e+001 -5.113064e+001 -7.377625e+001 -1.634879e-001 1.314977e+002
538125000 -4.278016e-001 -1.485144e+002 -5.080239e+001 -8.216887e+001 -5.115038e+001 -8.101431e+001 -1.756356e-001 1.314400e+002
538750000 -4.471015e-001 -1.489025e+002 -5.004200e+001 -8.167451e+001 -5.035500e+001 -7.424885e+001 -1.707639e-001 1.313195e+002
539375000 -4.587038e-001 -1.492547e+002 -4.970514e+001 -8.725674e+001 -5.075527e+001 -8.194527e+001 -1.715715e-001 1.312864e+002
540000000 -4.616034e-001 -1.495781e+002 -5.000909e+001 -8.218802e+001 -5.054303e+001 -7.842812e+001 -1.761650e-001 1.311428e+002
540625000 -4.719472e-001 -1.499772e+002 -5.005090e+001 -8.357646e+001 -4.993018e+001 -8.181190e+001 -1.727040e-001 1.310827e+002
541250000 -4.786950e-001 -1.503000e+002 -5.065272e+001 -8.878463e+001 -5.018707e+001 -8.043492e+001 -1.683530e-001 1.310126e+002
541875000 -4.954306e-001 -1.506572e+002 -4.977595e+001 -8.286896e+001 -4.947989e+001 -8.251223e+001 -1.772774e-001 1.308920e+002
542500000 -5.044035e-001 -1.509992e+002 -5.006872e+001 -8.738004e+001 -4.987368e+001 -8.603953e+001 -1.668435e-001 1.308509e+002
543125000 -5.112695e-001 -1.514010e+002 -4.977447e+001 -9.036791e+001 -5.007155e+001 -8.576832e+001 -1.756790e-001 1.307493e+002
543750000 -5.164865e-001 -1.516908e+002 -4.928650e+001 -9.015557e+001 -4.972116e+001 -8.502328e+001 -1.784834e-001 1.307271e+002
544375000 -5.394762e-001 -1.520653e+002 -4.948144e+001 -8.853458e+001 -4.993502e+001 -8.803112e+001 -1.711667e-001 1.306440e+002
545000000 -5.370841e-001 -1.523984e+002 -4.929849e+001 -9.016405e+001 -4.945652e+001 -8.704888e+001 -1.664270e-001 1.306278e+002
545625000 -5.537128e-001 -1.527662e+002 -4.874859e+001 -9.738759e+001 -4.954125e+001 -9.080682e+001 -1.699131e-001 1.305985e+002
546250000 -5.758383e-001 -1.531243e+002 -4.936987e+001 -9.683499e+001 -4.954877e+001 -9.137669e+001 -1.720503e-001 1.305015e+002
546875000 -5.885394e-001 -1.535381e+002 -4.897778e+001 -9.237189e+001 -4.950394e+001 -9.231811e+001 -1.720982e-001 1.305043e+002
547500000 -6.030939e-001 -1.538867e+002 -4.900962e+001 -9.817396e+001 -4.920483e+001 -9.016698e+001 -1.686135e-001 1.303785e+002
548125000 -6.221026e-001 -1.542146e+002 -4.917023e+001 -9.574583e+001 -4.877230e+001 -9.736614e+001 -1.748800e-001 1.303101e+002
548750000 -6.434054e-001 -1.546377e+002 -4.860392e+001 -9.518562e+001 -4.884944e+001 -9.673724e+001 -1.786682e-001 1.303004e+002
549375000 -6.566451e-001 -1.550002e+002 -4.882961e+001 -9.967062e+001 -4.887841e+001 -9.582573e+001 -1.801578e-001 1.300324e+002
550000000 -6.753237e-001 -1.553192e+002 -4.823994e+001 -1.003067e+002 -4.863774e+001 -9.885533e+001 -1.885642e-001 1.300433e+002
550625000 -6.947876e-001 -1.556950e+002 -4.820571e+001 -1.027480e+002 -4.855423e+001 -9.763719e+001 -1.846480e-001 1.298684e+002
551250000 -7.020884e-001 -1.560216e+002 -4.807969e+001 -1.025870e+002 -4.829494e+001 -1.037051e+002 -1.908240e-001 1.297469e+002
551875000 -7.187690e-001 -1.563869e+002 -4.840660e+001 -1.016692e+002 -4.807870e+001 -1.022706e+002 -1.881073e-001 1.296081e+002
552500000 -7.406045e-001 -1.567877e+002 -4.792428e+001 -1.018542e+002 -4.819193e+001 -1.084789e+002 -1.907427e-001 1.293928e+002
553125000 -7.463070e-001 -1.570827e+002 -4.753344e+001 -1.066800e+002 -4.828609e+001 -1.042815e+002 -1.934786e-001 1.292798e+002
553750000 -7.718440e-001 -1.574595e+002 -4.797718e+001 -1.074156e+002 -4.790704e+001 -1.034555e+002 -2.017779e-001 1.290596e+002
554375000 -7.828540e-001 -1.577603e+002 -4.767350e+001 -1.092260e+002 -4.756044e+001 -1.074619e+002 -1.934011e-001 1.289323e+002
555000000 -7.940689e-001 -1.581362e+002 -4.756806e+001 -1.069167e+002 -4.775433e+001 -1.079438e+002 -1.924584e-001 1.287932e+002
555625000 -8.188085e-001 -1.585001e+002 -4.780045e+001 -1.087315e+002 -4.811896e+001 -1.114815e+002 -1.809181e-001 1.287443e+002
556250000 -8.309672e-001 -1.588451e+002 -4.719221e+001 -1.125082e+002 -4.769037e+001 -1.112302e+002 -1.847068e-001 1.285437e+002
556875000 -8.530924e-001 -1.592133e+002 -4.735215e+001 -1.143383e+002 -4.741752e+001 -1.125364e+002 -1.917674e-001 1.285471e+002
557500000 -8.755887e-001 -1.595511e+002 -4.735689e+001 -1.144690e+002 -4.773453e+001 -1.116227e+002 -1.775341e-001 1.284365e+002
558125000 -8.964726e-001 -1.598718e+002 -4.720160e+001 -1.185932e+002 -4.717117e+001 -1.121885e+002 -1.801698e-001 1.283753e+002
558750000 -9.134148e-001 -1.601457e+002 -4.717734e+001 -1.176685e+002 -4.699528e+001 -1.156492e+002 -1.639994e-001 1.283295e+002
559375000 -9.344538e-001 -1.604955e+002 -4.716170e+001 -1.168510e+002 -4.691882e+001 -1.174307e+002 -1.628256e-001 1.283491e+002
560000000 -9.612462e-001 -1.607817e+002 -4.689148e+001 -1.172689e+002 -4.698207e+001 -1.173019e+002 -1.493063e-001 1.283315e+002
560625000 -9.771696e-001 -1.610718e+002 -4.687167e+001 -1.212696e+002 -4.708611e+001 -1.187522e+002 -1.457857e-001 1.283982e+002
561250000 -1.002792e+000 -1.614319e+002 -4.661756e+001 -1.214707e+002 -4.680340e+001 -1.208490e+002 -1.579836e-001 1.283648e+002
561875000 -1.017426e+000 -1.617627e+002 -4.684885e+001 -1.220693e+002 -4.679712e+001 -1.225397e+002 -1.583817e-001 1.284338e+002
562500000 -1.042681e+000 -1.620641e+002 -4.626975e+001 -1.211520e+002 -4.667754e+001 -1.224643e+002 -1.501860e-001 1.285187e+002
563125000 -1.057132e+000 -1.623582e+002 -4.617399e+001 -1.234842e+002 -4.659121e+001 -1.231426e+002 -1.466939e-001 1.285296e+002
563750000 -1.086272e+000 -1.627655e+002 -4.635310e+001 -1.272319e+002 -4.673406e+001 -1.270417e+002 -1.605179e-001 1.285472e+002
564375000 -1.118474e+000 -1.630891e+002 -4.646413e+001 -1.286652e+002 -4.606409e+001 -1.245807e+002 -1.523295e-001 1.286008e+002
565000000 -1.139946e+000 -1.635027e+002 -4.601301e+001 -1.284345e+002 -4.617189e+001 -1.283514e+002 -1.575493e-001 1.286012e+002
565625000 -1.164910e+000 -1.638228e+002 -4.563263e+001 -1.298302e+002 -4.611037e+001 -1.267096e+002 -1.594894e-001 1.286470e+002
566250000 -1.193231e+000 -1.642700e+002 -4.559653e+001 -1.307857e+002 -4.574922e+001 -1.306306e+002 -1.698630e-001 1.286056e+002
566875000 -1.232802e+000 -1.646321e+002 -4.533282e+001 -1.318522e+002 -4.593843e+001 -1.299259e+002 -1.713929e-001 1.285771e+002
567500000 -1.271206e+000 -1.650733e+002 -4.557177e+001 -1.360482e+002 -4.560587e+001 -1.335258e+002 -1.745552e-001 1.285109e+002
568125000 -1.302017e+000 -1.654280e+002 -4.567497e+001 -1.346461e+002 -4.551798e+001 -1.337132e+002 -1.811248e-001 1.285212e+002
568750000 -1.335497e+000 -1.658469e+002 -4.506780e+001 -1.398908e+002 -4.551506e+001 -1.344804e+002 -1.809302e-001 1.284552e+002
569375000 -1.371778e+000 -1.661547e+002 -4.516424e+001 -1.376970e+002 -4.541489e+001 -1.362154e+002 -1.791480e-001 1.283784e+002
570000000 -1.399623e+000 -1.665426e+002 -4.504907e+001 -1.393313e+002 -4.482883e+001 -1.373211e+002 -1.751081e-001 1.283066e+002
570625000 -1.425412e+000 -1.668899e+002 -4.484993e+001 -1.409392e+002 -4.535466e+001 -1.380091e+002 -1.784021e-001 1.282488e+002
571250000 -1.455428e+000 -1.672274e+002 -4.478194e+001 -1.416790e+002 -4.504850e+001 -1.395845e+002 -1.860408e-001 1.282325e+002
571875000 -1.499803e+000 -1.675586e+002 -4.468318e+001 -1.437267e+002 -4.512453e+001 -1.436855e+002 -1.713350e-001 1.281558e+002
572500000 -1.533904e+000 -1.679622e+002 -4.445555e+001 -1.425030e+002 -4.503012e+001 -1.448452e+002 -1.819473e-001 1.280506e+002
573125000 -1.558060e+000 -1.681900e+002 -4.452629e+001 -1.474830e+002 -4.444831e+001 -1.449596e+002 -1.758138e-001 1.280326e+002
573750000 -1.581269e+000 -1.685264e+002 -4.440955e+001 -1.482274e+002 -4.482863e+001 -1.472493e+002 -1.929179e-001 1.279029e+002
574375000 -1.614138e+000 -1.687985e+002 -4.403254e+001 -1.500492e+002 -4.483359e+001 -1.499234e+002 -1.808018e-001 1.279830e+002
575000000 -1.632481e+000 -1.691310e+002 -4.394244e+001 -1.515221e+002 -4.422249e+001 -1.495487e+002 -1.819919e-001 1.278590e+002
575625000 -1.668509e+000 -1.693878e+002 -4.400479e+001 -1.535911e+002 -4.447956e+001 -1.508294e+002 -1.891668e-001 1.277691e+002
576250000 -1.684050e+000 -1.696872e+002 -4.407884e+001 -1.554760e+002 -4.446978e+001 -1.530173e+002 -1.870572e-001 1.277138e+002
576875000 -1.698889e+000 -1.699834e+002 -4.396357e+001 -1.568714e+002 -4.414394e+001 -1.543784e+002 -1.834609e-001 1.276468e+002
577500000 -1.730108e+000 -1.702883e+002 -4.403592e+001 -1.587481e+002 -4.432538e+001 -1.567938e+002 -1.856841e-001 1.275457e+002
578125000 -1.751256e+000 -1.706003e+002 -4.386314e+001 -1.569509e+002 -4.453627e+001 -1.578692e+002 -1.896944e-001 1.274738e+002
578750000 -1.766140e+000 -1.709197e+002 -4.357147e+001 -1.615379e+002 -4.410241e+001 -1.599864e+002 -1.972124e-001 1.273039e+002
579375000 -1.788850e+000 -1.712337e+002 -4.360423e+001 -1.631412e+002 -4.403982e+001 -1.614200e+002 -1.921274e-001 1.271250e+002
580000000 -1.813139e+000 -1.715030e+002 -4.398952e+001 -1.644330e+002 -4.461756e+001 -1.621862e+002 -2.062766e-001 1.269653e+002
580625000 -1.837889e+000 -1.718291e+002 -4.386651e+001 -1.651617e+002 -4.392590e+001 -1.639891e+002 -2.071949e-001 1.268054e+002
581250000 -1.855400e+000 -1.721679e+002 -4.355238e+001 -1.679452e+002 -4.387541e+001 -1.660116e+002 -2.135565e-001 1.266048e+002
581875000 -1.874150e+000 -1.724874e+002 -4.332416e+001 -1.671918e+002 -4.369708e+001 -1.668786e+002 -2.126089e-001 1.263992e+002
582500000 -1.892148e+000 -1.727573e+002 -4.357715e+001 -1.717904e+002 -4.403276e+001 -1.692214e+002 -2.173176e-001 1.262157e+002
583125000 -1.903863e+000 -1.732005e+002 -4.352042e+001 -1.710616e+002 -4.383194e+001 -1.711304e+002 -2.315528e-001 1.259055e+002
583750000 -1.924759e+000 -1.736106e+002 -4.365620e+001 -1.723696e+002 -4.394202e+001 -1.724984e+002 -2.360775e-001 1.256881e+002
584375000 -1.933943e+000 -1.739958e+002 -4.336357e+001 -1.746924e+002 -4.385631e+001 -1.741708e+002 -2.218423e-001 1.254744e+002
585000000 -1.948811e+000 -1.744081e+002 -4.354927e+001 -1.765741e+002 -4.414791e+001 -1.748485e+002 -2.101650e-001 1.252225e+002
585625000 -1.978917e+000 -1.748143e+002 -4.357665e+001 -1.760554e+002 -4.413925e+001 -1.761795e+002 -2.146321e-001 1.250583e+002
586250000 -1.986008e+000 -1.752139e+002 -4.339317e+001 -1.778381e+002 -4.388031e+001 -1.758191e+002 -2.053799e-001 1.249783e+002
586875000 -2.003447e+000 -1.756487e+002 -4.339157e+001 -1.788150e+002 -4.392203e+001 -1.788515e+002 -2.007829e-001 1.247500e+002
587500000 -2.025069e+000 -1.760576e+002 -4.317828e+001 -1.796948e+002 -4.378119e+001 1.795929e+002 -1.971564e-001 1.246682e+002
588125000 -2.038107e+000 -1.764322e+002 -4.336360e+001 1.792663e+002 -4.362864e+001 -1.796010e+002 -1.931499e-001 1.245436e+002
588750000 -2.054376e+000 -1.768177e+002 -4.355848e+001 1.757007e+002 -4.401722e+001 -1.799014e+002 -1.926459e-001 1.245274e+002
589375000 -2.074276e+000 -1.771836e+002 -4.336651e+001 1.778479e+002 -4.391912e+001 1.779680e+002 -1.750542e-001 1.244276e+002
590000000 -2.092237e+000 -1.775548e+002 -4.305437e+001 1.755238e+002 -4.362074e+001 1.768239e+002 -1.720759e-001 1.244257e+002
590625000 -2.115620e+000 -1.778590e+002 -4.318148e+001 1.743103e+002 -4.383396e+001 1.744668e+002 -1.685270e-001 1.243686e+002
591250000 -2.134685e+000 -1.782402e+002 -4.316372e+001 1.711823e+002 -4.360920e+001 1.733248e+002 -1.667071e-001 1.244150e+002
591875000 -2.151549e+000 -1.785123e+002 -4.321559e+001 1.714646e+002 -4.359034e+001 1.734841e+002 -1.642783e-001 1.244270e+002
592500000 -2.168510e+000 -1.788069e+002 -4.305932e+001 1.697189e+002 -4.339324e+001 1.711083e+002 -1.608045e-001 1.245173e+002
593125000 -2.194989e+000 -1.790716e+002 -4.315263e+001 1.696631e+002 -4.355108e+001 1.719877e+002 -1.655116e-001 1.246026e+002
593750000 -2.214191e+000 -1.793711e+002 -4.280478e+001 1.687046e+002 -4.347936e+001 1.717638e+002 -1.477905e-001 1.246699e+002
594375000 -2.223699e+000 -1.795528e+002 -4.309303e+001 1.675157e+002 -4.344182e+001 1.693944e+002 -1.485366e-001 1.247247e+002
595000000 -2.236670e+000 -1.798633e+002 -4.299826e+001 1.662146e+002 -4.346264e+001 1.661181e+002 -1.638800e-001 1.247861e+002
