!Agilent Technologies,E8364B,US42250235,A.06.04.32
!Agilent E8364B: A.06.04.32
!Date: Friday, January 15, 2021 16:23:29
!Correction: S11(Full 2 Port(1,2)) S21(Full 2 Port(1,2)) S12(Full 2 Port(1,2)) S22(Full 2 Port(1,2)) 
!S2P File: Measurements: S11, S21, S12, S22:
# Hz S  dB   R 50
500000000 -1.260137e-001 -1.296069e+002 -5.938451e+001 -1.293883e+002 -5.880062e+001 -1.193060e+002 -1.525749e-001 1.356041e+002
500625000 -1.324645e-001 -1.298493e+002 -6.156025e+001 -1.237983e+002 -5.798908e+001 -1.146867e+002 -1.620288e-001 1.355125e+002
501250000 -1.418453e-001 -1.300392e+002 -5.852015e+001 -1.095913e+002 -5.965789e+001 -1.056969e+002 -1.545496e-001 1.354136e+002
501875000 -1.404726e-001 -1.303776e+002 -5.778871e+001 -1.200440e+002 -5.952287e+001 -1.262010e+002 -1.561826e-001 1.353891e+002
502500000 -1.461963e-001 -1.306015e+002 -5.862380e+001 -1.203024e+002 -5.730495e+001 -1.231659e+002 -1.489017e-001 1.353446e+002
503125000 -1.548420e-001 -1.308382e+002 -5.659626e+001 -1.216582e+002 -5.799695e+001 -1.205331e+002 -1.588899e-001 1.351735e+002
503750000 -1.500556e-001 -1.310757e+002 -5.896362e+001 -1.253976e+002 -5.892585e+001 -1.147791e+002 -1.665496e-001 1.350692e+002
504375000 -1.614967e-001 -1.313538e+002 -5.718055e+001 -1.286189e+002 -5.860328e+001 -1.244514e+002 -1.702786e-001 1.350090e+002
505000000 -1.673572e-001 -1.316715e+002 -5.799644e+001 -1.377950e+002 -5.824984e+001 -1.298427e+002 -1.743925e-001 1.349803e+002
505625000 -1.638462e-001 -1.318427e+002 -5.859577e+001 -1.288764e+002 -5.814249e+001 -1.290484e+002 -1.704686e-001 1.347974e+002
506250000 -1.716711e-001 -1.321463e+002 -5.902876e+001 -1.360280e+002 -5.804661e+001 -1.308190e+002 -1.738131e-001 1.346800e+002
506875000 -1.663692e-001 -1.323604e+002 -5.695380e+001 -1.276488e+002 -5.763071e+001 -1.270145e+002 -1.698585e-001 1.344713e+002
507500000 -1.698442e-001 -1.326144e+002 -5.664327e+001 -1.357864e+002 -5.915618e+001 -1.346798e+002 -1.829422e-001 1.342462e+002
508125000 -1.805610e-001 -1.328551e+002 -5.851964e+001 -1.304050e+002 -5.758445e+001 -1.358923e+002 -1.829676e-001 1.340957e+002
508750000 -1.830308e-001 -1.330732e+002 -5.599172e+001 -1.320120e+002 -5.822548e+001 -1.296191e+002 -1.839144e-001 1.339025e+002
509375000 -1.889199e-001 -1.333983e+002 -5.749267e+001 -1.321018e+002 -5.803165e+001 -1.413220e+002 -1.887535e-001 1.337217e+002
510000000 -1.894224e-001 -1.336640e+002 -5.639347e+001 -1.341549e+002 -5.733876e+001 -1.331074e+002 -2.053133e-001 1.334564e+002
510625000 -1.917761e-001 -1.338860e+002 -5.758349e+001 -1.478189e+002 -5.726725e+001 -1.407395e+002 -1.914568e-001 1.332621e+002
511250000 -2.010807e-001 -1.341112e+002 -5.871328e+001 -1.357155e+002 -5.695518e+001 -1.415053e+002 -1.940921e-001 1.329930e+002
511875000 -2.048483e-001 -1.344733e+002 -5.588541e+001 -1.395146e+002 -5.838301e+001 -1.391542e+002 -1.894022e-001 1.327663e+002
512500000 -2.123258e-001 -1.346894e+002 -5.633517e+001 -1.414819e+002 -5.715460e+001 -1.467005e+002 -1.805998e-001 1.326292e+002
513125000 -2.195121e-001 -1.350148e+002 -5.603172e+001 -1.417694e+002 -5.728876e+001 -1.467406e+002 -1.864083e-001 1.325003e+002
513750000 -2.323901e-001 -1.352999e+002 -5.712909e+001 -1.448767e+002 -5.641965e+001 -1.377581e+002 -1.860960e-001 1.322704e+002
514375000 -2.379211e-001 -1.355930e+002 -5.648479e+001 -1.496098e+002 -5.598175e+001 -1.537785e+002 -1.801509e-001 1.320673e+002
515000000 -2.446347e-001 -1.358544e+002 -5.599610e+001 -1.415709e+002 -5.694365e+001 -1.505665e+002 -1.726268e-001 1.319849e+002
515625000 -2.567279e-001 -1.362266e+002 -5.592127e+001 -1.470969e+002 -5.680138e+001 -1.525723e+002 -1.614553e-001 1.318630e+002
516250000 -2.650833e-001 -1.365389e+002 -5.659761e+001 -1.405152e+002 -5.784747e+001 -1.468196e+002 -1.725105e-001 1.316765e+002
516875000 -2.796959e-001 -1.368498e+002 -5.548885e+001 -1.481608e+002 -5.570120e+001 -1.500407e+002 -1.588265e-001 1.316968e+002
517500000 -2.880839e-001 -1.371353e+002 -5.581104e+001 -1.431901e+002 -5.516866e+001 -1.508401e+002 -1.587980e-001 1.316478e+002
518125000 -2.903713e-001 -1.374699e+002 -5.656660e+001 -1.516203e+002 -5.572980e+001 -1.554606e+002 -1.593190e-001 1.315923e+002
518750000 -3.011113e-001 -1.377801e+002 -5.621301e+001 -1.469476e+002 -5.573448e+001 -1.519404e+002 -1.538304e-001 1.315849e+002
519375000 -3.173069e-001 -1.380201e+002 -5.578562e+001 -1.589135e+002 -5.440154e+001 -1.572750e+002 -1.446841e-001 1.315551e+002
520000000 -3.176702e-001 -1.384069e+002 -5.549270e+001 -1.555648e+002 -5.587303e+001 -1.529841e+002 -1.449656e-001 1.315808e+002
520625000 -3.210918e-001 -1.387319e+002 -5.587070e+001 -1.599501e+002 -5.540018e+001 -1.607925e+002 -1.417339e-001 1.314854e+002
521250000 -3.248859e-001 -1.390587e+002 -5.575857e+001 -1.637809e+002 -5.525300e+001 -1.588150e+002 -1.410934e-001 1.315759e+002
521875000 -3.279809e-001 -1.394159e+002 -5.542828e+001 -1.594280e+002 -5.574189e+001 -1.670405e+002 -1.358975e-001 1.316093e+002
522500000 -3.347211e-001 -1.396879e+002 -5.455208e+001 -1.631325e+002 -5.593040e+001 -1.620247e+002 -1.330049e-001 1.315984e+002
523125000 -3.490071e-001 -1.400292e+002 -5.447059e+001 -1.635281e+002 -5.540287e+001 -1.594362e+002 -1.388748e-001 1.315901e+002
523750000 -3.462774e-001 -1.403716e+002 -5.544587e+001 -1.616947e+002 -5.460229e+001 -1.614967e+002 -1.374135e-001 1.316561e+002
524375000 -3.574296e-001 -1.406454e+002 -5.538208e+001 -1.651059e+002 -5.522204e+001 -1.686003e+002 -1.335694e-001 1.316900e+002
525000000 -3.625187e-001 -1.410013e+002 -5.479043e+001 -1.658576e+002 -5.641164e+001 -1.698024e+002 -1.457980e-001 1.317240e+002
525625000 -3.739566e-001 -1.411889e+002 -5.487785e+001 -1.696668e+002 -5.507980e+001 -1.700988e+002 -1.550468e-001 1.316695e+002
526250000 -3.694021e-001 -1.415310e+002 -5.456565e+001 -1.693961e+002 -5.547020e+001 -1.720969e+002 -1.501809e-001 1.317278e+002
526875000 -3.818702e-001 -1.418574e+002 -5.434546e+001 -1.751609e+002 -5.545602e+001 -1.767960e+002 -1.453358e-001 1.317154e+002
527500000 -3.912025e-001 -1.421313e+002 -5.502584e+001 -1.761946e+002 -5.500120e+001 1.782700e+002 -1.432166e-001 1.317014e+002
528125000 -4.045949e-001 -1.424821e+002 -5.457399e+001 -1.700520e+002 -5.584089e+001 -1.764812e+002 -1.477437e-001 1.318037e+002
528750000 -3.962234e-001 -1.427661e+002 -5.511307e+001 1.798248e+002 -5.442628e+001 1.789111e+002 -1.436476e-001 1.318440e+002
529375000 -4.120040e-001 -1.431027e+002 -5.433508e+001 -1.708678e+002 -5.500678e+001 1.745201e+002 -1.428570e-001 1.317935e+002
530000000 -4.125761e-001 -1.434191e+002 -5.449038e+001 -1.774418e+002 -5.321713e+001 -1.797049e+002 -1.407055e-001 1.318345e+002
530625000 -4.205149e-001 -1.437701e+002 -5.435308e+001 1.767394e+002 -5.483821e+001 1.748894e+002 -1.492991e-001 1.318179e+002
531250000 -4.263494e-001 -1.441146e+002 -5.473457e+001 1.797804e+002 -5.509096e+001 -1.767538e+002 -1.356520e-001 1.317872e+002
531875000 -4.371257e-001 -1.443692e+002 -5.360095e+001 -1.779989e+002 -5.454735e+001 1.728652e+002 -1.491794e-001 1.318034e+002
532500000 -4.437224e-001 -1.446621e+002 -5.348475e+001 1.745488e+002 -5.416223e+001 1.766430e+002 -1.522750e-001 1.318483e+002
533125000 -4.455033e-001 -1.450290e+002 -5.352748e+001 1.791534e+002 -5.547647e+001 1.684110e+002 -1.532717e-001 1.318499e+002
533750000 -4.498496e-001 -1.454150e+002 -5.431572e+001 1.709329e+002 -5.439212e+001 1.758177e+002 -1.679596e-001 1.317623e+002
534375000 -4.545216e-001 -1.457330e+002 -5.433686e+001 1.712834e+002 -5.414799e+001 1.782193e+002 -1.637114e-001 1.317661e+002
535000000 -4.701492e-001 -1.460685e+002 -5.399318e+001 1.763223e+002 -5.487210e+001 1.736592e+002 -1.611016e-001 1.317144e+002
535625000 -4.781038e-001 -1.464494e+002 -5.289784e+001 1.695825e+002 -5.421723e+001 1.706705e+002 -1.549567e-001 1.316443e+002
536250000 -4.839325e-001 -1.468040e+002 -5.344679e+001 1.713242e+002 -5.343008e+001 1.728286e+002 -1.544628e-001 1.315875e+002
536875000 -4.910506e-001 -1.471518e+002 -5.344410e+001 1.637677e+002 -5.327373e+001 1.622846e+002 -1.670781e-001 1.314617e+002
537500000 -4.953220e-001 -1.474606e+002 -5.245763e+001 1.688878e+002 -5.367051e+001 1.648254e+002 -1.570512e-001 1.314593e+002
538125000 -5.056439e-001 -1.477620e+002 -5.367327e+001 1.671312e+002 -5.294006e+001 1.686400e+002 -1.683555e-001 1.313726e+002
538750000 -5.217691e-001 -1.481517e+002 -5.305445e+001 1.659883e+002 -5.345066e+001 1.591734e+002 -1.652049e-001 1.312615e+002
539375000 -5.344540e-001 -1.484982e+002 -5.343826e+001 1.620647e+002 -5.403711e+001 1.671065e+002 -1.669562e-001 1.311829e+002
540000000 -5.291954e-001 -1.487827e+002 -5.284470e+001 1.661982e+002 -5.343723e+001 1.645675e+002 -1.691117e-001 1.310684e+002
540625000 -5.374271e-001 -1.491306e+002 -5.320509e+001 1.609490e+002 -5.336470e+001 1.581398e+002 -1.717776e-001 1.310043e+002
541250000 -5.506266e-001 -1.494021e+002 -5.263689e+001 1.603548e+002 -5.300108e+001 1.582231e+002 -1.649283e-001 1.309393e+002
541875000 -5.589665e-001 -1.496945e+002 -5.368383e+001 1.592487e+002 -5.306216e+001 1.537025e+002 -1.757211e-001 1.308047e+002
542500000 -5.619861e-001 -1.500336e+002 -5.332091e+001 1.506495e+002 -5.268455e+001 1.557684e+002 -1.620018e-001 1.307409e+002
543125000 -5.601850e-001 -1.503652e+002 -5.227647e+001 1.520577e+002 -5.280949e+001 1.498185e+002 -1.681171e-001 1.306400e+002
543750000 -5.604554e-001 -1.506675e+002 -5.293226e+001 1.567979e+002 -5.223877e+001 1.482430e+002 -1.684483e-001 1.306389e+002
544375000 -5.784991e-001 -1.510077e+002 -5.249898e+001 1.551058e+002 -5.262880e+001 1.491408e+002 -1.663660e-001 1.306170e+002
545000000 -5.696931e-001 -1.513148e+002 -5.223512e+001 1.522894e+002 -5.300060e+001 1.508335e+002 -1.601298e-001 1.305057e+002
545625000 -5.797532e-001 -1.516522e+002 -5.285297e+001 1.537207e+002 -5.341442e+001 1.511342e+002 -1.638306e-001 1.305482e+002
546250000 -6.050912e-001 -1.520106e+002 -5.231613e+001 1.473445e+002 -5.272115e+001 1.495488e+002 -1.697244e-001 1.303993e+002
546875000 -6.087244e-001 -1.523898e+002 -5.230619e+001 1.505905e+002 -5.164707e+001 1.489188e+002 -1.779367e-001 1.304696e+002
547500000 -6.233540e-001 -1.527140e+002 -5.224837e+001 1.480736e+002 -5.120964e+001 1.456239e+002 -1.682541e-001 1.303549e+002
548125000 -6.378523e-001 -1.530260e+002 -5.266343e+001 1.452793e+002 -5.261028e+001 1.457433e+002 -1.692698e-001 1.302424e+002
548750000 -6.440958e-001 -1.534049e+002 -5.174866e+001 1.450119e+002 -5.199607e+001 1.384886e+002 -1.751792e-001 1.301739e+002
549375000 -6.581343e-001 -1.537065e+002 -5.193779e+001 1.445241e+002 -5.216216e+001 1.400518e+002 -1.743379e-001 1.299475e+002
550000000 -6.629787e-001 -1.540189e+002 -5.134743e+001 1.443194e+002 -5.134166e+001 1.404166e+002 -1.848155e-001 1.299207e+002
550625000 -6.761605e-001 -1.543528e+002 -5.171882e+001 1.374998e+002 -5.146276e+001 1.391257e+002 -1.812233e-001 1.297690e+002
551250000 -6.756399e-001 -1.546971e+002 -5.182285e+001 1.380189e+002 -5.154354e+001 1.386364e+002 -1.831450e-001 1.296140e+002
551875000 -6.914441e-001 -1.550238e+002 -5.124593e+001 1.351607e+002 -5.204189e+001 1.374917e+002 -1.818870e-001 1.294633e+002
552500000 -6.889286e-001 -1.553754e+002 -5.130209e+001 1.361164e+002 -5.202498e+001 1.359012e+002 -1.808072e-001 1.293070e+002
553125000 -6.927291e-001 -1.556925e+002 -5.143997e+001 1.397421e+002 -5.166009e+001 1.332869e+002 -1.872836e-001 1.291999e+002
553750000 -7.019149e-001 -1.560667e+002 -5.152626e+001 1.310980e+002 -5.175289e+001 1.288579e+002 -1.934518e-001 1.290031e+002
554375000 -7.082034e-001 -1.564121e+002 -5.122888e+001 1.323764e+002 -5.249007e+001 1.289811e+002 -1.862262e-001 1.288801e+002
555000000 -7.163388e-001 -1.567492e+002 -5.089949e+001 1.334062e+002 -5.183460e+001 1.293841e+002 -1.921902e-001 1.287299e+002
555625000 -7.328333e-001 -1.570995e+002 -5.191653e+001 1.259389e+002 -5.269860e+001 1.283850e+002 -1.738333e-001 1.286818e+002
556250000 -7.410846e-001 -1.575009e+002 -5.127949e+001 1.298221e+002 -5.183573e+001 1.300038e+002 -1.787256e-001 1.285094e+002
556875000 -7.424815e-001 -1.578314e+002 -5.185012e+001 1.264566e+002 -5.126406e+001 1.277024e+002 -1.795837e-001 1.284462e+002
557500000 -7.593578e-001 -1.581446e+002 -5.133086e+001 1.250354e+002 -5.172033e+001 1.235108e+002 -1.812699e-001 1.283198e+002
558125000 -7.636557e-001 -1.584267e+002 -5.120876e+001 1.301706e+002 -5.164051e+001 1.286249e+002 -1.820384e-001 1.283504e+002
558750000 -7.800002e-001 -1.588071e+002 -5.118190e+001 1.272414e+002 -5.174970e+001 1.266693e+002 -1.636146e-001 1.282528e+002
559375000 -7.912896e-001 -1.591461e+002 -5.134110e+001 1.221881e+002 -5.113321e+001 1.259100e+002 -1.574844e-001 1.282637e+002
560000000 -8.089763e-001 -1.594195e+002 -5.075510e+001 1.234099e+002 -5.124458e+001 1.239465e+002 -1.522267e-001 1.282378e+002
560625000 -8.175829e-001 -1.597471e+002 -5.133552e+001 1.272366e+002 -5.081077e+001 1.247639e+002 -1.466948e-001 1.282785e+002
561250000 -8.212180e-001 -1.600785e+002 -5.032116e+001 1.244944e+002 -5.121728e+001 1.202698e+002 -1.380538e-001 1.283159e+002
561875000 -8.305027e-001 -1.604188e+002 -5.066504e+001 1.206445e+002 -5.040564e+001 1.206727e+002 -1.444871e-001 1.283510e+002
562500000 -8.442776e-001 -1.607508e+002 -5.027525e+001 1.195785e+002 -5.131796e+001 1.191520e+002 -1.497698e-001 1.284863e+002
563125000 -8.466981e-001 -1.611027e+002 -5.119402e+001 1.182105e+002 -5.090037e+001 1.211097e+002 -1.459370e-001 1.284782e+002
563750000 -8.678583e-001 -1.614903e+002 -5.049716e+001 1.187816e+002 -5.041590e+001 1.148435e+002 -1.462641e-001 1.285283e+002
564375000 -8.852719e-001 -1.618836e+002 -5.038785e+001 1.127611e+002 -5.053975e+001 1.127806e+002 -1.503141e-001 1.285982e+002
565000000 -8.921703e-001 -1.623299e+002 -5.072993e+001 1.165412e+002 -5.069860e+001 1.174865e+002 -1.539496e-001 1.285576e+002
565625000 -9.157823e-001 -1.627374e+002 -4.976020e+001 1.154953e+002 -5.064153e+001 1.137594e+002 -1.629809e-001 1.285735e+002
566250000 -9.254001e-001 -1.631955e+002 -5.013917e+001 1.115831e+002 -5.069012e+001 1.088914e+002 -1.669165e-001 1.285712e+002
566875000 -9.547104e-001 -1.636115e+002 -5.050747e+001 1.073591e+002 -5.068803e+001 1.086848e+002 -1.634989e-001 1.284916e+002
567500000 -9.794426e-001 -1.641041e+002 -5.003875e+001 1.091378e+002 -5.031821e+001 1.115966e+002 -1.652902e-001 1.284988e+002
568125000 -1.004793e+000 -1.644859e+002 -5.049001e+001 1.067428e+002 -5.009452e+001 1.108531e+002 -1.701579e-001 1.284338e+002
568750000 -1.022600e+000 -1.648897e+002 -4.931343e+001 1.081026e+002 -5.009674e+001 1.106199e+002 -1.697214e-001 1.283168e+002
569375000 -1.045178e+000 -1.653591e+002 -5.038292e+001 1.102050e+002 -4.925505e+001 1.094953e+002 -1.767005e-001 1.283389e+002
570000000 -1.064831e+000 -1.657526e+002 -5.005571e+001 1.068580e+002 -4.989127e+001 1.059295e+002 -1.853947e-001 1.282384e+002
570625000 -1.078348e+000 -1.662079e+002 -5.032817e+001 1.070002e+002 -4.955423e+001 1.050420e+002 -1.741407e-001 1.281656e+002
571250000 -1.097741e+000 -1.666244e+002 -4.919353e+001 1.040473e+002 -4.995372e+001 1.054823e+002 -1.743194e-001 1.281376e+002
571875000 -1.123026e+000 -1.670454e+002 -5.005108e+001 1.041783e+002 -4.900673e+001 1.024843e+002 -1.696491e-001 1.280856e+002
572500000 -1.148308e+000 -1.674762e+002 -4.945521e+001 1.023963e+002 -4.939709e+001 9.900964e+001 -1.809181e-001 1.280313e+002
573125000 -1.168567e+000 -1.678721e+002 -4.964316e+001 9.966847e+001 -4.907440e+001 1.020772e+002 -1.632897e-001 1.279805e+002
573750000 -1.183068e+000 -1.682844e+002 -4.897977e+001 9.916293e+001 -4.907211e+001 1.018986e+002 -1.791181e-001 1.278832e+002
574375000 -1.204139e+000 -1.686806e+002 -4.890467e+001 9.597487e+001 -4.853016e+001 1.029394e+002 -1.819952e-001 1.279163e+002
575000000 -1.221986e+000 -1.691054e+002 -4.860350e+001 9.558309e+001 -4.894744e+001 9.647815e+001 -1.685201e-001 1.278011e+002
575625000 -1.239632e+000 -1.695114e+002 -4.793344e+001 9.745038e+001 -4.928644e+001 9.447981e+001 -1.744488e-001 1.277715e+002
576250000 -1.249762e+000 -1.699337e+002 -4.860988e+001 9.536543e+001 -4.859412e+001 9.527518e+001 -1.782500e-001 1.276355e+002
576875000 -1.265703e+000 -1.703667e+002 -4.835313e+001 9.129075e+001 -4.855415e+001 9.306766e+001 -1.803654e-001 1.276165e+002
577500000 -1.300959e+000 -1.707569e+002 -4.839976e+001 9.451768e+001 -4.858002e+001 9.039608e+001 -1.902146e-001 1.274652e+002
578125000 -1.314283e+000 -1.712144e+002 -4.806586e+001 9.311888e+001 -4.805541e+001 9.090405e+001 -1.839273e-001 1.274459e+002
578750000 -1.324478e+000 -1.716188e+002 -4.800405e+001 8.841174e+001 -4.832872e+001 8.599886e+001 -1.830257e-001 1.272789e+002
579375000 -1.344169e+000 -1.720634e+002 -4.796207e+001 8.959953e+001 -4.783534e+001 8.725585e+001 -1.838030e-001 1.270588e+002
580000000 -1.363110e+000 -1.724557e+002 -4.762301e+001 8.372585e+001 -4.812468e+001 8.765256e+001 -2.013624e-001 1.269233e+002
580625000 -1.389899e+000 -1.729557e+002 -4.732291e+001 8.482440e+001 -4.749747e+001 8.652914e+001 -1.926151e-001 1.267954e+002
581250000 -1.411996e+000 -1.733925e+002 -4.798868e+001 8.086086e+001 -4.781960e+001 8.486481e+001 -2.022111e-001 1.265593e+002
581875000 -1.422472e+000 -1.739007e+002 -4.823986e+001 7.802116e+001 -4.788662e+001 8.111365e+001 -2.070904e-001 1.263461e+002
582500000 -1.451830e+000 -1.743831e+002 -4.743390e+001 7.976580e+001 -4.774958e+001 7.894389e+001 -2.097456e-001 1.260910e+002
583125000 -1.458619e+000 -1.750072e+002 -4.749520e+001 7.824091e+001 -4.764167e+001 7.948097e+001 -2.155306e-001 1.258476e+002
583750000 -1.491565e+000 -1.755001e+002 -4.797142e+001 7.606460e+001 -4.774027e+001 7.709570e+001 -2.182527e-001 1.256532e+002
584375000 -1.507360e+000 -1.760221e+002 -4.797938e+001 7.730698e+001 -4.774836e+001 7.592136e+001 -2.126518e-001 1.254318e+002
585000000 -1.531076e+000 -1.766145e+002 -4.744157e+001 7.591868e+001 -4.714807e+001 7.311623e+001 -2.055434e-001 1.252154e+002
585625000 -1.578389e+000 -1.770960e+002 -4.691999e+001 7.515558e+001 -4.764241e+001 7.149317e+001 -1.977196e-001 1.250098e+002
586250000 -1.595296e+000 -1.776585e+002 -4.722184e+001 7.260031e+001 -4.708662e+001 7.445409e+001 -1.984453e-001 1.249503e+002
586875000 -1.617206e+000 -1.781641e+002 -4.691732e+001 7.344449e+001 -4.737492e+001 7.314716e+001 -2.021546e-001 1.247053e+002
587500000 -1.663296e+000 -1.786757e+002 -4.712925e+001 6.853436e+001 -4.680327e+001 6.916064e+001 -1.823708e-001 1.245036e+002
588125000 -1.684587e+000 -1.791846e+002 -4.704108e+001 6.900128e+001 -4.733178e+001 6.877079e+001 -1.827257e-001 1.244860e+002
588750000 -1.705353e+000 -1.796931e+002 -4.709842e+001 6.744698e+001 -4.714703e+001 6.999773e+001 -1.850907e-001 1.244540e+002
589375000 -1.728434e+000 1.798079e+002 -4.657830e+001 6.678521e+001 -4.692049e+001 6.350035e+001 -1.645616e-001 1.242990e+002
590000000 -1.767855e+000 1.793534e+002 -4.661432e+001 6.342304e+001 -4.694560e+001 6.402155e+001 -1.694251e-001 1.243878e+002
590625000 -1.805958e+000 1.788496e+002 -4.694236e+001 6.542789e+001 -4.708194e+001 6.442155e+001 -1.666642e-001 1.242785e+002
591250000 -1.837470e+000 1.783515e+002 -4.705284e+001 6.549136e+001 -4.668263e+001 6.030936e+001 -1.545427e-001 1.243145e+002
591875000 -1.887066e+000 1.779312e+002 -4.685936e+001 6.181308e+001 -4.691032e+001 6.242344e+001 -1.505798e-001 1.243492e+002
592500000 -1.918749e+000 1.775422e+002 -4.633517e+001 6.012564e+001 -4.662986e+001 6.126547e+001 -1.557202e-001 1.244760e+002
593125000 -1.967301e+000 1.772277e+002 -4.613385e+001 5.830146e+001 -4.666289e+001 5.718235e+001 -1.567046e-001 1.245352e+002
593750000 -2.004080e+000 1.768181e+002 -4.614999e+001 6.045090e+001 -4.626504e+001 5.750574e+001 -1.447138e-001 1.245871e+002
594375000 -2.038172e+000 1.764975e+002 -4.651515e+001 5.524643e+001 -4.615129e+001 5.499440e+001 -1.493818e-001 1.246605e+002
595000000 -2.078170e+000 1.761393e+002 -4.623011e+001 5.539123e+001 -4.609238e+001 5.510628e+001 -1.604508e-001 1.247253e+002
595625000 -2.105776e+000 1.757503e+002 -4.617200e+001 5.349221e+001 -4.627525e+001 5.328039e+001 -1.475648e-001 1.248004e+002
