!Agilent Technologies,E8364B,US42250235,A.06.04.32
!Agilent E8364B: A.06.04.32
!Date: Friday, January 15, 2021 16:15:44
!Correction: S11(Full 2 Port(1,2)) S21(Full 2 Port(1,2)) S12(Full 2 Port(1,2)) S22(Full 2 Port(1,2)) 
!S2P File: Measurements: S11, S21, S12, S22:
# Hz S  dB   R 50
500000000 -1.263261e-001 -1.294286e+002 -6.055257e+001 -1.651331e+002 -6.002764e+001 -1.740403e+002 -1.601009e-001 1.360489e+002
500625000 -1.381280e-001 -1.296629e+002 -6.183968e+001 -1.773781e+002 -6.287845e+001 1.789332e+002 -1.584072e-001 1.359793e+002
501250000 -1.411394e-001 -1.299140e+002 -5.961917e+001 -1.711085e+002 -6.224514e+001 -1.655006e+002 -1.587310e-001 1.359168e+002
501875000 -1.317778e-001 -1.301889e+002 -6.037416e+001 1.795263e+002 -6.203434e+001 -1.687616e+002 -1.537976e-001 1.358649e+002
502500000 -1.322951e-001 -1.304512e+002 -5.980720e+001 -1.712905e+002 -5.966467e+001 1.789092e+002 -1.550267e-001 1.358674e+002
503125000 -1.461686e-001 -1.307296e+002 -6.240651e+001 -1.794009e+002 -6.072440e+001 -1.647171e+002 -1.610725e-001 1.357057e+002
503750000 -1.416776e-001 -1.309491e+002 -5.848452e+001 -1.668676e+002 -5.999628e+001 -1.610791e+002 -1.608230e-001 1.355661e+002
504375000 -1.454382e-001 -1.312520e+002 -6.011743e+001 -1.697648e+002 -5.994719e+001 1.703350e+002 -1.811725e-001 1.355300e+002
505000000 -1.544590e-001 -1.314701e+002 -6.042338e+001 1.757518e+002 -5.965881e+001 1.789043e+002 -1.766856e-001 1.354885e+002
505625000 -1.468673e-001 -1.317133e+002 -6.004583e+001 -1.765721e+002 -6.084898e+001 1.713586e+002 -1.707210e-001 1.353427e+002
506250000 -1.583061e-001 -1.319822e+002 -6.092951e+001 1.788521e+002 -5.954129e+001 1.712639e+002 -1.799256e-001 1.351305e+002
506875000 -1.521150e-001 -1.322419e+002 -5.925113e+001 -1.641246e+002 -6.012218e+001 1.764690e+002 -1.790007e-001 1.349711e+002
507500000 -1.567112e-001 -1.325050e+002 -5.998761e+001 -1.762329e+002 -6.190508e+001 -1.754233e+002 -1.854550e-001 1.347824e+002
508125000 -1.631872e-001 -1.327274e+002 -6.140186e+001 -1.684136e+002 -6.006479e+001 -1.670691e+002 -1.919558e-001 1.346022e+002
508750000 -1.637168e-001 -1.329247e+002 -6.117072e+001 1.699564e+002 -6.077430e+001 -1.763807e+002 -1.947106e-001 1.343710e+002
509375000 -1.727689e-001 -1.332798e+002 -6.249401e+001 1.737423e+002 -6.234110e+001 1.649026e+002 -1.824994e-001 1.342486e+002
510000000 -1.702228e-001 -1.335299e+002 -5.990138e+001 1.746057e+002 -6.119189e+001 1.697886e+002 -1.894092e-001 1.339739e+002
510625000 -1.772727e-001 -1.337485e+002 -6.069250e+001 1.538928e+002 -6.177441e+001 1.788468e+002 -1.793826e-001 1.338635e+002
511250000 -1.859403e-001 -1.339909e+002 -5.860522e+001 1.709575e+002 -5.958429e+001 1.631584e+002 -1.955405e-001 1.335621e+002
511875000 -1.819223e-001 -1.343214e+002 -6.025296e+001 1.711918e+002 -6.083091e+001 1.660492e+002 -1.828857e-001 1.333458e+002
512500000 -1.844379e-001 -1.345615e+002 -6.149434e+001 1.531916e+002 -5.972086e+001 1.674568e+002 -1.911640e-001 1.331354e+002
513125000 -2.026517e-001 -1.348639e+002 -5.798805e+001 1.720932e+002 -5.904391e+001 1.677351e+002 -1.950648e-001 1.330690e+002
513750000 -2.031908e-001 -1.351245e+002 -5.897272e+001 1.476860e+002 -5.942332e+001 1.604460e+002 -1.922156e-001 1.328423e+002
514375000 -2.118670e-001 -1.354491e+002 -5.951565e+001 1.645003e+002 -5.875296e+001 1.648474e+002 -1.846350e-001 1.326389e+002
515000000 -2.193777e-001 -1.356753e+002 -5.988855e+001 1.599881e+002 -6.019324e+001 1.546450e+002 -1.727656e-001 1.325366e+002
515625000 -2.218423e-001 -1.361003e+002 -5.880758e+001 1.709446e+002 -5.994836e+001 1.623511e+002 -1.677146e-001 1.323998e+002
516250000 -2.347557e-001 -1.363584e+002 -5.825682e+001 1.633168e+002 -5.808109e+001 1.547752e+002 -1.734471e-001 1.322801e+002
516875000 -2.476509e-001 -1.366462e+002 -5.886908e+001 1.643952e+002 -5.925284e+001 1.611081e+002 -1.631463e-001 1.323014e+002
517500000 -2.445696e-001 -1.369826e+002 -5.811191e+001 1.698213e+002 -5.920505e+001 1.542898e+002 -1.669976e-001 1.322200e+002
518125000 -2.497359e-001 -1.373505e+002 -5.965479e+001 1.683653e+002 -5.915707e+001 1.646330e+002 -1.599614e-001 1.321427e+002
518750000 -2.547536e-001 -1.376602e+002 -5.809687e+001 1.626494e+002 -5.935533e+001 1.490321e+002 -1.562687e-001 1.321608e+002
519375000 -2.695838e-001 -1.379396e+002 -5.962349e+001 1.566402e+002 -5.809806e+001 1.445848e+002 -1.475654e-001 1.321278e+002
520000000 -2.657978e-001 -1.383055e+002 -5.715201e+001 1.559946e+002 -5.865744e+001 1.556807e+002 -1.482712e-001 1.321209e+002
520625000 -2.751980e-001 -1.386590e+002 -5.952021e+001 1.535808e+002 -5.782939e+001 1.521511e+002 -1.531858e-001 1.321124e+002
521250000 -2.801731e-001 -1.389796e+002 -5.916284e+001 1.457913e+002 -5.836386e+001 1.554116e+002 -1.446113e-001 1.321016e+002
521875000 -2.806542e-001 -1.393778e+002 -5.728444e+001 1.555688e+002 -5.891970e+001 1.464266e+002 -1.362588e-001 1.321524e+002
522500000 -2.850594e-001 -1.396575e+002 -5.896842e+001 1.502485e+002 -5.931764e+001 1.573868e+002 -1.411023e-001 1.321711e+002
523125000 -2.936842e-001 -1.400591e+002 -5.768018e+001 1.579894e+002 -5.885769e+001 1.617278e+002 -1.430927e-001 1.322287e+002
523750000 -2.996534e-001 -1.403485e+002 -5.856610e+001 1.390780e+002 -5.977401e+001 1.490114e+002 -1.437731e-001 1.322239e+002
524375000 -3.098524e-001 -1.406921e+002 -5.842700e+001 1.621228e+002 -5.797708e+001 1.557216e+002 -1.363790e-001 1.321907e+002
525000000 -3.077313e-001 -1.410468e+002 -5.765961e+001 1.394488e+002 -5.898896e+001 1.515097e+002 -1.456095e-001 1.322284e+002
525625000 -3.217365e-001 -1.412596e+002 -5.728376e+001 1.478154e+002 -5.850869e+001 1.458142e+002 -1.608301e-001 1.322195e+002
526250000 -3.125104e-001 -1.416130e+002 -5.851379e+001 1.397582e+002 -5.868598e+001 1.414923e+002 -1.512643e-001 1.322290e+002
526875000 -3.220525e-001 -1.419832e+002 -5.863642e+001 1.500596e+002 -5.750774e+001 1.439730e+002 -1.471219e-001 1.322547e+002
527500000 -3.307948e-001 -1.423268e+002 -5.647916e+001 1.438538e+002 -5.693889e+001 1.425386e+002 -1.425072e-001 1.322972e+002
528125000 -3.515722e-001 -1.426070e+002 -5.732133e+001 1.367720e+002 -5.910876e+001 1.469995e+002 -1.482280e-001 1.323574e+002
528750000 -3.380325e-001 -1.429304e+002 -5.749974e+001 1.490437e+002 -5.835067e+001 1.417036e+002 -1.418899e-001 1.324324e+002
529375000 -3.567841e-001 -1.432640e+002 -5.821914e+001 1.341108e+002 -5.790001e+001 1.410809e+002 -1.491811e-001 1.323693e+002
530000000 -3.611657e-001 -1.436870e+002 -5.675290e+001 1.462955e+002 -5.654185e+001 1.313484e+002 -1.454131e-001 1.323995e+002
530625000 -3.655865e-001 -1.439386e+002 -5.811053e+001 1.332783e+002 -5.781135e+001 1.286135e+002 -1.550287e-001 1.323429e+002
531250000 -3.697213e-001 -1.443130e+002 -5.744230e+001 1.301407e+002 -5.803381e+001 1.352876e+002 -1.448731e-001 1.323605e+002
531875000 -3.826127e-001 -1.446721e+002 -5.681792e+001 1.338189e+002 -5.709206e+001 1.237842e+002 -1.547288e-001 1.323476e+002
532500000 -3.857608e-001 -1.449460e+002 -5.734297e+001 1.323476e+002 -5.702571e+001 1.311898e+002 -1.486695e-001 1.323507e+002
533125000 -3.902684e-001 -1.453054e+002 -5.709152e+001 1.326912e+002 -5.789323e+001 1.262302e+002 -1.586103e-001 1.323561e+002
533750000 -3.962076e-001 -1.457257e+002 -5.667002e+001 1.320441e+002 -5.513714e+001 1.317119e+002 -1.702558e-001 1.323512e+002
534375000 -4.114210e-001 -1.460790e+002 -5.679026e+001 1.289660e+002 -5.612930e+001 1.253929e+002 -1.575614e-001 1.322890e+002
535000000 -4.151018e-001 -1.464168e+002 -5.660417e+001 1.360627e+002 -5.813060e+001 1.290197e+002 -1.590201e-001 1.322601e+002
535625000 -4.163079e-001 -1.467960e+002 -5.612312e+001 1.270281e+002 -5.581052e+001 1.251123e+002 -1.586365e-001 1.321963e+002
536250000 -4.283223e-001 -1.472176e+002 -5.643795e+001 1.240987e+002 -5.568949e+001 1.269807e+002 -1.592162e-001 1.320892e+002
536875000 -4.366128e-001 -1.475959e+002 -5.615852e+001 1.152702e+002 -5.667665e+001 1.247439e+002 -1.718565e-001 1.320431e+002
537500000 -4.462416e-001 -1.478917e+002 -5.579697e+001 1.204791e+002 -5.558177e+001 1.200999e+002 -1.617667e-001 1.320263e+002
538125000 -4.608388e-001 -1.482928e+002 -5.606106e+001 1.131838e+002 -5.525518e+001 1.240095e+002 -1.748138e-001 1.319320e+002
538750000 -4.777477e-001 -1.486610e+002 -5.557749e+001 1.204235e+002 -5.639072e+001 1.246304e+002 -1.734856e-001 1.318705e+002
539375000 -4.882744e-001 -1.489751e+002 -5.618466e+001 1.179041e+002 -5.570352e+001 1.158055e+002 -1.620900e-001 1.317411e+002
540000000 -4.985088e-001 -1.492721e+002 -5.517643e+001 1.128603e+002 -5.615255e+001 1.170516e+002 -1.653099e-001 1.316307e+002
540625000 -5.020817e-001 -1.496906e+002 -5.719028e+001 1.173508e+002 -5.547596e+001 1.209985e+002 -1.644250e-001 1.315545e+002
541250000 -5.137193e-001 -1.499736e+002 -5.523884e+001 1.140863e+002 -5.720055e+001 1.087686e+002 -1.657304e-001 1.315137e+002
541875000 -5.281873e-001 -1.502803e+002 -5.526373e+001 1.129475e+002 -5.426538e+001 1.105931e+002 -1.767829e-001 1.314128e+002
542500000 -5.330586e-001 -1.505994e+002 -5.650356e+001 1.057170e+002 -5.544621e+001 1.098732e+002 -1.653657e-001 1.313766e+002
543125000 -5.351880e-001 -1.509740e+002 -5.552647e+001 1.129581e+002 -5.625124e+001 1.034478e+002 -1.713160e-001 1.312588e+002
543750000 -5.399057e-001 -1.512742e+002 -5.574191e+001 1.068384e+002 -5.542300e+001 1.019801e+002 -1.743203e-001 1.312336e+002
544375000 -5.494515e-001 -1.516771e+002 -5.585428e+001 1.039603e+002 -5.516938e+001 1.033095e+002 -1.724674e-001 1.311618e+002
545000000 -5.503622e-001 -1.519879e+002 -5.601930e+001 9.981625e+001 -5.547535e+001 9.962888e+001 -1.665716e-001 1.311747e+002
545625000 -5.640969e-001 -1.523360e+002 -5.514098e+001 1.120613e+002 -5.463012e+001 1.092206e+002 -1.673905e-001 1.310677e+002
546250000 -5.889981e-001 -1.526531e+002 -5.551988e+001 1.017246e+002 -5.479583e+001 1.016031e+002 -1.777631e-001 1.310095e+002
546875000 -5.942061e-001 -1.530877e+002 -5.594350e+001 1.093890e+002 -5.540563e+001 1.096811e+002 -1.722309e-001 1.309862e+002
547500000 -6.146617e-001 -1.534448e+002 -5.454593e+001 1.063730e+002 -5.514180e+001 1.016497e+002 -1.752974e-001 1.309260e+002
548125000 -6.300609e-001 -1.537784e+002 -5.439855e+001 1.062877e+002 -5.468715e+001 1.063497e+002 -1.706276e-001 1.308213e+002
548750000 -6.430491e-001 -1.541767e+002 -5.530997e+001 1.004063e+002 -5.557336e+001 1.006982e+002 -1.803254e-001 1.307467e+002
549375000 -6.631238e-001 -1.545042e+002 -5.324545e+001 1.070025e+002 -5.480887e+001 1.048227e+002 -1.867528e-001 1.305170e+002
550000000 -6.702030e-001 -1.548684e+002 -5.433050e+001 9.603111e+001 -5.468381e+001 9.768787e+001 -1.818593e-001 1.304930e+002
550625000 -6.898996e-001 -1.551931e+002 -5.447364e+001 9.489277e+001 -5.500337e+001 9.984338e+001 -1.849591e-001 1.303360e+002
551250000 -6.946579e-001 -1.555390e+002 -5.494141e+001 9.696322e+001 -5.405204e+001 9.758427e+001 -1.926140e-001 1.302260e+002
551875000 -7.109848e-001 -1.559191e+002 -5.406361e+001 9.642917e+001 -5.368559e+001 9.794572e+001 -1.915518e-001 1.300908e+002
552500000 -7.247798e-001 -1.562494e+002 -5.409967e+001 9.724162e+001 -5.397101e+001 9.195683e+001 -1.837291e-001 1.298901e+002
553125000 -7.341231e-001 -1.565944e+002 -5.380081e+001 8.280462e+001 -5.439376e+001 9.214895e+001 -1.916378e-001 1.297959e+002
553750000 -7.537526e-001 -1.569747e+002 -5.368274e+001 9.408315e+001 -5.322436e+001 8.813900e+001 -1.913634e-001 1.296100e+002
554375000 -7.569442e-001 -1.572446e+002 -5.396363e+001 8.819956e+001 -5.336738e+001 8.441390e+001 -1.899081e-001 1.294262e+002
555000000 -7.715280e-001 -1.576447e+002 -5.302881e+001 8.257656e+001 -5.383847e+001 8.567055e+001 -1.902402e-001 1.293409e+002
555625000 -7.994381e-001 -1.579875e+002 -5.349154e+001 8.362560e+001 -5.318155e+001 7.905204e+001 -1.843976e-001 1.292930e+002
556250000 -8.132595e-001 -1.583622e+002 -5.326218e+001 7.929689e+001 -5.433006e+001 7.507008e+001 -1.787255e-001 1.291400e+002
556875000 -8.125440e-001 -1.587004e+002 -5.355518e+001 8.052937e+001 -5.400591e+001 7.303091e+001 -1.819530e-001 1.290364e+002
557500000 -8.452627e-001 -1.589943e+002 -5.266782e+001 7.714777e+001 -5.477827e+001 7.145397e+001 -1.838557e-001 1.290113e+002
558125000 -8.511328e-001 -1.593502e+002 -5.401618e+001 7.770308e+001 -5.369307e+001 7.572041e+001 -1.743230e-001 1.289659e+002
558750000 -8.637220e-001 -1.596642e+002 -5.332327e+001 8.289283e+001 -5.365323e+001 7.671309e+001 -1.597837e-001 1.289057e+002
559375000 -8.941476e-001 -1.599982e+002 -5.422011e+001 8.199486e+001 -5.328080e+001 7.835863e+001 -1.635271e-001 1.288855e+002
560000000 -9.107097e-001 -1.603303e+002 -5.385365e+001 8.173573e+001 -5.375881e+001 7.420026e+001 -1.454280e-001 1.288690e+002
560625000 -9.244277e-001 -1.605806e+002 -5.425829e+001 7.099173e+001 -5.400529e+001 7.807375e+001 -1.457956e-001 1.288958e+002
561250000 -9.410684e-001 -1.609059e+002 -5.387413e+001 7.437727e+001 -5.293734e+001 6.866199e+001 -1.492092e-001 1.289301e+002
561875000 -9.660558e-001 -1.612325e+002 -5.318596e+001 7.671183e+001 -5.397269e+001 7.300858e+001 -1.515898e-001 1.289724e+002
562500000 -9.858579e-001 -1.615775e+002 -5.344751e+001 7.121750e+001 -5.345542e+001 7.556361e+001 -1.488255e-001 1.290766e+002
563125000 -9.921867e-001 -1.618654e+002 -5.240170e+001 6.963131e+001 -5.344484e+001 7.060031e+001 -1.421496e-001 1.291144e+002
563750000 -1.020375e+000 -1.622581e+002 -5.256755e+001 6.924400e+001 -5.261251e+001 6.965574e+001 -1.587645e-001 1.291477e+002
564375000 -1.041910e+000 -1.626087e+002 -5.234737e+001 6.525246e+001 -5.268328e+001 6.655509e+001 -1.595824e-001 1.292200e+002
565000000 -1.061348e+000 -1.630372e+002 -5.209856e+001 6.623487e+001 -5.259148e+001 6.265147e+001 -1.569051e-001 1.292141e+002
565625000 -1.083465e+000 -1.633800e+002 -5.153292e+001 6.177452e+001 -5.270483e+001 6.244808e+001 -1.581353e-001 1.292244e+002
566250000 -1.102105e+000 -1.638534e+002 -5.201062e+001 6.079110e+001 -5.160566e+001 6.299121e+001 -1.657051e-001 1.292022e+002
566875000 -1.143911e+000 -1.642531e+002 -5.154502e+001 6.260482e+001 -5.183935e+001 6.518684e+001 -1.644312e-001 1.291346e+002
567500000 -1.174826e+000 -1.646584e+002 -5.154412e+001 5.958992e+001 -5.144348e+001 5.920174e+001 -1.632229e-001 1.291077e+002
568125000 -1.208153e+000 -1.650815e+002 -5.178359e+001 5.708001e+001 -5.203241e+001 5.599710e+001 -1.769736e-001 1.290945e+002
568750000 -1.242993e+000 -1.654509e+002 -5.154613e+001 5.638140e+001 -5.178186e+001 5.755125e+001 -1.806267e-001 1.290153e+002
569375000 -1.270570e+000 -1.657876e+002 -5.194623e+001 6.118809e+001 -5.195773e+001 5.849032e+001 -1.756184e-001 1.290250e+002
570000000 -1.296810e+000 -1.662610e+002 -5.155468e+001 5.915198e+001 -5.176051e+001 5.275196e+001 -1.756091e-001 1.288760e+002
570625000 -1.325663e+000 -1.665423e+002 -5.143642e+001 5.784985e+001 -5.174794e+001 5.463857e+001 -1.825861e-001 1.288148e+002
571250000 -1.353370e+000 -1.669960e+002 -5.156629e+001 5.643827e+001 -5.156567e+001 4.948919e+001 -1.707470e-001 1.288357e+002
571875000 -1.391839e+000 -1.673426e+002 -5.120407e+001 5.398327e+001 -5.156057e+001 5.049093e+001 -1.749992e-001 1.287408e+002
572500000 -1.421249e+000 -1.676930e+002 -5.089811e+001 5.090100e+001 -5.083073e+001 4.911767e+001 -1.769573e-001 1.286670e+002
573125000 -1.445478e+000 -1.680128e+002 -5.151586e+001 5.102531e+001 -5.109387e+001 4.713095e+001 -1.633933e-001 1.286150e+002
573750000 -1.472530e+000 -1.682930e+002 -5.102015e+001 4.588041e+001 -5.101671e+001 4.363114e+001 -1.810405e-001 1.285414e+002
574375000 -1.491222e+000 -1.686048e+002 -5.102634e+001 4.811921e+001 -5.199425e+001 4.419093e+001 -1.805510e-001 1.285462e+002
575000000 -1.515396e+000 -1.689747e+002 -5.137970e+001 3.888494e+001 -5.166373e+001 4.334048e+001 -1.729924e-001 1.284514e+002
575625000 -1.535504e+000 -1.692795e+002 -5.043765e+001 4.343282e+001 -5.219584e+001 4.189152e+001 -1.789768e-001 1.284133e+002
576250000 -1.549519e+000 -1.696127e+002 -5.157106e+001 4.001134e+001 -5.096169e+001 4.295887e+001 -1.886567e-001 1.283216e+002
576875000 -1.570277e+000 -1.699250e+002 -5.064134e+001 4.005602e+001 -5.109072e+001 4.123549e+001 -1.874745e-001 1.282481e+002
577500000 -1.596302e+000 -1.702522e+002 -5.038816e+001 4.365085e+001 -5.111946e+001 3.971315e+001 -1.807388e-001 1.280841e+002
578125000 -1.617250e+000 -1.705876e+002 -5.025251e+001 3.816609e+001 -5.018591e+001 3.755265e+001 -1.910491e-001 1.280512e+002
578750000 -1.634205e+000 -1.709315e+002 -5.025055e+001 3.632183e+001 -5.029900e+001 4.006460e+001 -1.942799e-001 1.278827e+002
579375000 -1.649547e+000 -1.712662e+002 -5.074356e+001 3.300420e+001 -5.079290e+001 3.677975e+001 -2.007088e-001 1.277286e+002
580000000 -1.662113e+000 -1.715230e+002 -4.996933e+001 3.230469e+001 -5.025340e+001 3.460183e+001 -2.061492e-001 1.275537e+002
580625000 -1.681576e+000 -1.719047e+002 -4.948512e+001 3.412186e+001 -5.078770e+001 3.314573e+001 -2.033643e-001 1.274176e+002
581250000 -1.703967e+000 -1.722426e+002 -5.009314e+001 2.574881e+001 -4.993040e+001 2.607006e+001 -2.103433e-001 1.271980e+002
581875000 -1.707321e+000 -1.726424e+002 -4.953386e+001 1.982060e+001 -5.002567e+001 2.534581e+001 -2.160352e-001 1.269923e+002
582500000 -1.728666e+000 -1.730180e+002 -5.042076e+001 2.373645e+001 -5.026361e+001 2.571605e+001 -2.133987e-001 1.268062e+002
583125000 -1.735951e+000 -1.735698e+002 -4.977608e+001 2.388765e+001 -4.994635e+001 2.555446e+001 -2.270940e-001 1.264821e+002
583750000 -1.764030e+000 -1.739995e+002 -5.078545e+001 2.249606e+001 -5.002449e+001 2.468370e+001 -2.174044e-001 1.263125e+002
584375000 -1.779988e+000 -1.744262e+002 -4.996315e+001 2.063198e+001 -5.051914e+001 1.823763e+001 -2.184287e-001 1.261101e+002
585000000 -1.796962e+000 -1.749175e+002 -5.001045e+001 2.002866e+001 -5.013808e+001 1.830694e+001 -2.233415e-001 1.258632e+002
585625000 -1.828925e+000 -1.752898e+002 -5.041210e+001 2.285910e+001 -5.060295e+001 2.180275e+001 -2.099673e-001 1.256570e+002
586250000 -1.844422e+000 -1.757622e+002 -4.964060e+001 1.650201e+001 -5.009195e+001 1.747244e+001 -2.021984e-001 1.255887e+002
586875000 -1.856794e+000 -1.762150e+002 -4.989101e+001 1.596407e+001 -5.028986e+001 1.087350e+001 -2.006787e-001 1.253727e+002
587500000 -1.885761e+000 -1.766360e+002 -4.979052e+001 1.753488e+001 -5.003493e+001 1.302118e+001 -1.908542e-001 1.252586e+002
588125000 -1.901982e+000 -1.770226e+002 -5.020608e+001 8.945997e+000 -4.960495e+001 1.461337e+001 -1.899121e-001 1.251425e+002
588750000 -1.921160e+000 -1.774163e+002 -4.990248e+001 9.893810e+000 -5.022884e+001 1.084391e+001 -1.821507e-001 1.251036e+002
589375000 -1.935232e+000 -1.778314e+002 -4.971291e+001 1.443669e+001 -4.990744e+001 1.390288e+001 -1.776947e-001 1.249640e+002
590000000 -1.961879e+000 -1.783032e+002 -4.922872e+001 1.346804e+001 -5.016490e+001 1.038319e+001 -1.715996e-001 1.249992e+002
590625000 -1.986355e+000 -1.786553e+002 -4.974816e+001 8.880605e+000 -4.977285e+001 1.104235e+001 -1.677987e-001 1.249609e+002
591250000 -2.008038e+000 -1.790547e+002 -4.959142e+001 1.063326e+001 -4.893732e+001 5.766820e+000 -1.642518e-001 1.249528e+002
591875000 -2.045500e+000 -1.793453e+002 -4.978437e+001 9.878751e+000 -4.964465e+001 2.885956e+000 -1.568924e-001 1.250265e+002
592500000 -2.069910e+000 -1.796402e+002 -4.875288e+001 7.166751e+000 -4.923272e+001 1.092518e+000 -1.538512e-001 1.250715e+002
593125000 -2.094503e+000 -1.799305e+002 -4.997478e+001 7.220090e+000 -4.963945e+001 1.808368e+000 -1.586872e-001 1.251565e+002
593750000 -2.117334e+000 1.797831e+002 -4.912246e+001 5.192300e+000 -4.934243e+001 -3.301639e+000 -1.518927e-001 1.252306e+002
594375000 -2.136985e+000 1.795625e+002 -4.931446e+001 5.219106e+000 -4.896090e+001 2.929376e+000 -1.397582e-001 1.253263e+002
595000000 -2.151725e+000 1.792903e+002 -4.888602e+001 4.083432e-001 -4.917334e+001 3.132329e-001 -1.538564e-001 1.253768e+002
595625000 -2.163751e+000 1.790134e+002 -4.890448e+001 4.029232e-001 -4.918271e+001 -4.016232e+000 -1.605998e-001 1.253995e+002
596250000 -2.175316e+000 1.787511e+002 -4.880983e+001 -2.904769e+000 -4.889750e+001 -4.438373e+000 -1.522706e-001 1.255021e+002
