!Agilent Technologies,E8364B,US42250235,A.06.04.32
!Agilent E8364B: A.06.04.32
!Date: Friday, January 15, 2021 16:23:47
!Correction: S11(Full 2 Port(1,2)) S21(Full 2 Port(1,2)) S12(Full 2 Port(1,2)) S22(Full 2 Port(1,2)) 
!S2P File: Measurements: S11, S21, S12, S22:
# Hz S  dB   R 50
500000000 -9.888902e-002 -1.295233e+002 -6.014600e+001 1.279463e+002 -6.116236e+001 1.310410e+002 -1.605599e-001 1.354525e+002
500625000 -1.105088e-001 -1.297994e+002 -6.047557e+001 1.301836e+002 -5.879930e+001 1.335048e+002 -1.560874e-001 1.354627e+002
501250000 -1.134712e-001 -1.300448e+002 -6.295169e+001 1.098876e+002 -5.971663e+001 1.284862e+002 -1.584787e-001 1.353596e+002
501875000 -1.044508e-001 -1.303023e+002 -6.250307e+001 1.245260e+002 -6.167503e+001 1.278678e+002 -1.591145e-001 1.353398e+002
502500000 -1.097375e-001 -1.305578e+002 -6.177485e+001 1.097006e+002 -5.989477e+001 1.243759e+002 -1.476136e-001 1.353009e+002
503125000 -1.217104e-001 -1.308488e+002 -5.902939e+001 1.192431e+002 -6.241927e+001 1.155998e+002 -1.563097e-001 1.351630e+002
503750000 -1.115882e-001 -1.310659e+002 -6.037983e+001 1.151471e+002 -6.024536e+001 1.211637e+002 -1.600185e-001 1.350297e+002
504375000 -1.281040e-001 -1.313897e+002 -6.139993e+001 1.208616e+002 -6.070469e+001 1.094587e+002 -1.736738e-001 1.350137e+002
505000000 -1.285632e-001 -1.316490e+002 -6.025089e+001 1.104693e+002 -6.029416e+001 1.210964e+002 -1.742999e-001 1.348985e+002
505625000 -1.288665e-001 -1.318706e+002 -6.137047e+001 1.147068e+002 -5.936987e+001 1.265001e+002 -1.784684e-001 1.347811e+002
506250000 -1.355873e-001 -1.321712e+002 -6.258648e+001 1.144113e+002 -6.017006e+001 1.031664e+002 -1.831228e-001 1.346096e+002
506875000 -1.365464e-001 -1.323928e+002 -5.942028e+001 1.096509e+002 -6.017057e+001 1.130759e+002 -1.752380e-001 1.343810e+002
507500000 -1.440132e-001 -1.326922e+002 -5.921101e+001 1.134076e+002 -6.057343e+001 1.199547e+002 -1.844321e-001 1.342010e+002
508125000 -1.501814e-001 -1.329269e+002 -6.039551e+001 1.050694e+002 -6.053543e+001 1.161833e+002 -1.805777e-001 1.340645e+002
508750000 -1.467055e-001 -1.331224e+002 -6.096784e+001 1.076067e+002 -6.006587e+001 1.072967e+002 -1.783766e-001 1.338168e+002
509375000 -1.560713e-001 -1.334873e+002 -5.780833e+001 1.017423e+002 -5.919943e+001 9.791993e+001 -1.817658e-001 1.336676e+002
510000000 -1.533144e-001 -1.337575e+002 -5.957048e+001 1.078804e+002 -6.088673e+001 1.064675e+002 -1.889651e-001 1.334907e+002
510625000 -1.659302e-001 -1.339434e+002 -5.854370e+001 8.825117e+001 -6.016681e+001 1.146349e+002 -1.796430e-001 1.332572e+002
511250000 -1.682060e-001 -1.341781e+002 -6.021570e+001 9.585044e+001 -5.899523e+001 1.023267e+002 -1.915022e-001 1.329658e+002
511875000 -1.713376e-001 -1.345458e+002 -5.886391e+001 1.040142e+002 -6.111737e+001 9.138569e+001 -1.830688e-001 1.327454e+002
512500000 -1.693956e-001 -1.347852e+002 -5.997162e+001 1.006774e+002 -6.009424e+001 9.862199e+001 -1.813044e-001 1.325498e+002
513125000 -1.890386e-001 -1.350939e+002 -5.936594e+001 9.411832e+001 -6.000042e+001 1.115083e+002 -1.871530e-001 1.324318e+002
513750000 -1.913831e-001 -1.353725e+002 -6.088488e+001 9.235909e+001 -6.027713e+001 9.555070e+001 -1.847415e-001 1.322229e+002
514375000 -1.996924e-001 -1.357051e+002 -5.944056e+001 1.048283e+002 -5.876481e+001 9.954475e+001 -1.765097e-001 1.321094e+002
515000000 -2.019341e-001 -1.360150e+002 -5.938872e+001 8.762020e+001 -5.777640e+001 1.047753e+002 -1.678161e-001 1.319021e+002
515625000 -2.191883e-001 -1.363646e+002 -6.051944e+001 9.546047e+001 -5.725926e+001 9.875233e+001 -1.702092e-001 1.318134e+002
516250000 -2.293829e-001 -1.366547e+002 -5.857471e+001 9.006254e+001 -5.869580e+001 9.790461e+001 -1.699417e-001 1.316883e+002
516875000 -2.433023e-001 -1.370080e+002 -5.718355e+001 9.127925e+001 -5.920624e+001 9.538609e+001 -1.557125e-001 1.316812e+002
517500000 -2.489693e-001 -1.373486e+002 -5.747135e+001 9.407587e+001 -5.850718e+001 8.883971e+001 -1.625532e-001 1.316255e+002
518125000 -2.490621e-001 -1.377058e+002 -5.840653e+001 8.078487e+001 -5.942085e+001 8.441225e+001 -1.594812e-001 1.315453e+002
518750000 -2.650539e-001 -1.380095e+002 -5.715403e+001 8.744688e+001 -5.916509e+001 8.705439e+001 -1.499340e-001 1.315569e+002
519375000 -2.767217e-001 -1.382758e+002 -5.801074e+001 8.906669e+001 -5.893882e+001 8.640172e+001 -1.393818e-001 1.315270e+002
520000000 -2.874176e-001 -1.386746e+002 -5.622972e+001 8.899232e+001 -5.738494e+001 8.606104e+001 -1.374419e-001 1.315055e+002
520625000 -2.903512e-001 -1.390034e+002 -5.744441e+001 8.617056e+001 -5.817894e+001 8.150990e+001 -1.398243e-001 1.314979e+002
521250000 -2.976291e-001 -1.393367e+002 -5.892876e+001 9.221936e+001 -5.839070e+001 7.586772e+001 -1.390977e-001 1.315579e+002
521875000 -2.965440e-001 -1.396898e+002 -5.701818e+001 8.203797e+001 -5.780179e+001 8.403448e+001 -1.338820e-001 1.316130e+002
522500000 -3.020181e-001 -1.400406e+002 -5.694013e+001 6.803628e+001 -5.802037e+001 7.827215e+001 -1.401544e-001 1.315179e+002
523125000 -3.165540e-001 -1.403923e+002 -5.773913e+001 7.838464e+001 -5.825548e+001 7.871593e+001 -1.390134e-001 1.315838e+002
523750000 -3.186751e-001 -1.406960e+002 -5.784934e+001 8.022470e+001 -5.721309e+001 6.711143e+001 -1.423235e-001 1.316418e+002
524375000 -3.353958e-001 -1.410805e+002 -5.748878e+001 7.760995e+001 -5.701145e+001 7.426704e+001 -1.340646e-001 1.316260e+002
525000000 -3.354712e-001 -1.413799e+002 -5.720872e+001 7.288277e+001 -5.726218e+001 7.492526e+001 -1.480398e-001 1.316818e+002
525625000 -3.554116e-001 -1.416500e+002 -5.818584e+001 7.841615e+001 -5.721026e+001 8.140567e+001 -1.480546e-001 1.316431e+002
526250000 -3.460974e-001 -1.419434e+002 -5.594519e+001 6.668224e+001 -5.755931e+001 8.147830e+001 -1.483870e-001 1.316337e+002
526875000 -3.592049e-001 -1.422994e+002 -5.697217e+001 6.196971e+001 -5.652974e+001 7.294941e+001 -1.398558e-001 1.316711e+002
527500000 -3.733884e-001 -1.426437e+002 -5.520176e+001 6.896915e+001 -5.733266e+001 6.195109e+001 -1.477021e-001 1.317216e+002
528125000 -3.918946e-001 -1.429207e+002 -5.450443e+001 6.163701e+001 -5.616204e+001 6.089101e+001 -1.536302e-001 1.316963e+002
528750000 -3.924470e-001 -1.432233e+002 -5.673355e+001 6.056152e+001 -5.660873e+001 6.496850e+001 -1.456163e-001 1.318077e+002
529375000 -4.055798e-001 -1.435569e+002 -5.521899e+001 6.516505e+001 -5.625060e+001 6.034952e+001 -1.352892e-001 1.317266e+002
530000000 -4.087191e-001 -1.439324e+002 -5.573583e+001 6.334793e+001 -5.504627e+001 6.238570e+001 -1.450736e-001 1.317431e+002
530625000 -4.195127e-001 -1.442068e+002 -5.681528e+001 4.399888e+001 -5.587511e+001 5.949137e+001 -1.453158e-001 1.317647e+002
531250000 -4.283455e-001 -1.445865e+002 -5.701647e+001 5.880366e+001 -5.659405e+001 5.891524e+001 -1.470464e-001 1.317429e+002
531875000 -4.507416e-001 -1.448693e+002 -5.607716e+001 5.973409e+001 -5.646078e+001 5.756418e+001 -1.469219e-001 1.317830e+002
532500000 -4.548359e-001 -1.451763e+002 -5.629295e+001 4.647045e+001 -5.595614e+001 6.266634e+001 -1.480694e-001 1.317681e+002
533125000 -4.574220e-001 -1.455428e+002 -5.703083e+001 4.607342e+001 -5.561739e+001 5.376908e+001 -1.508214e-001 1.317564e+002
533750000 -4.693989e-001 -1.459370e+002 -5.595061e+001 5.230571e+001 -5.531440e+001 4.644629e+001 -1.700234e-001 1.317559e+002
534375000 -4.832966e-001 -1.463003e+002 -5.568705e+001 5.064895e+001 -5.594819e+001 4.855714e+001 -1.539966e-001 1.316875e+002
535000000 -4.950787e-001 -1.466154e+002 -5.563654e+001 5.346232e+001 -5.652755e+001 5.075184e+001 -1.585446e-001 1.316541e+002
535625000 -5.024740e-001 -1.469526e+002 -5.564636e+001 4.737735e+001 -5.520065e+001 5.663576e+001 -1.668213e-001 1.315776e+002
536250000 -5.162341e-001 -1.473471e+002 -5.584645e+001 4.632618e+001 -5.490912e+001 4.642784e+001 -1.589465e-001 1.314614e+002
536875000 -5.363917e-001 -1.477036e+002 -5.496616e+001 3.908706e+001 -5.531490e+001 5.049510e+001 -1.642876e-001 1.314193e+002
537500000 -5.457057e-001 -1.479978e+002 -5.507467e+001 3.630706e+001 -5.441324e+001 4.207997e+001 -1.555772e-001 1.313542e+002
538125000 -5.650291e-001 -1.483479e+002 -5.453201e+001 3.772260e+001 -5.447987e+001 3.941731e+001 -1.709547e-001 1.312906e+002
538750000 -5.817535e-001 -1.486445e+002 -5.470948e+001 4.188364e+001 -5.496757e+001 4.131417e+001 -1.682922e-001 1.312162e+002
539375000 -5.912592e-001 -1.489145e+002 -5.394146e+001 3.766287e+001 -5.459578e+001 3.406364e+001 -1.669532e-001 1.311122e+002
540000000 -6.002427e-001 -1.491871e+002 -5.395029e+001 2.723249e+001 -5.547325e+001 3.687207e+001 -1.703517e-001 1.309967e+002
540625000 -6.077290e-001 -1.495190e+002 -5.395603e+001 2.877419e+001 -5.480597e+001 3.774868e+001 -1.671320e-001 1.309416e+002
541250000 -6.197687e-001 -1.497715e+002 -5.484256e+001 2.577640e+001 -5.437118e+001 3.568693e+001 -1.656144e-001 1.308568e+002
541875000 -6.284906e-001 -1.500649e+002 -5.351529e+001 3.010815e+001 -5.472247e+001 2.684030e+001 -1.766964e-001 1.307401e+002
542500000 -6.345518e-001 -1.503863e+002 -5.344123e+001 2.922853e+001 -5.355739e+001 3.791728e+001 -1.697838e-001 1.307343e+002
543125000 -6.374979e-001 -1.506822e+002 -5.318653e+001 3.292318e+001 -5.491608e+001 2.592505e+001 -1.647799e-001 1.306408e+002
543750000 -6.424878e-001 -1.510295e+002 -5.460690e+001 2.243416e+001 -5.427366e+001 2.420507e+001 -1.711892e-001 1.305572e+002
544375000 -6.526550e-001 -1.513089e+002 -5.543218e+001 2.217673e+001 -5.388564e+001 2.518668e+001 -1.615223e-001 1.305141e+002
545000000 -6.518848e-001 -1.516436e+002 -5.363465e+001 2.300545e+001 -5.427026e+001 2.484668e+001 -1.576521e-001 1.304919e+002
545625000 -6.634231e-001 -1.519816e+002 -5.350562e+001 2.656292e+001 -5.485859e+001 2.539547e+001 -1.641047e-001 1.304530e+002
546250000 -6.914677e-001 -1.522919e+002 -5.411077e+001 1.578972e+001 -5.430121e+001 1.585674e+001 -1.716564e-001 1.303773e+002
546875000 -6.973983e-001 -1.526702e+002 -5.313237e+001 1.546714e+001 -5.452511e+001 2.193310e+001 -1.688395e-001 1.304056e+002
547500000 -7.153771e-001 -1.529492e+002 -5.365415e+001 1.980806e+001 -5.510635e+001 1.964505e+001 -1.675941e-001 1.302873e+002
548125000 -7.397879e-001 -1.532788e+002 -5.371087e+001 1.430873e+001 -5.357830e+001 1.402415e+001 -1.673814e-001 1.301793e+002
548750000 -7.473218e-001 -1.535793e+002 -5.303484e+001 9.791883e+000 -5.315149e+001 1.399417e+001 -1.728357e-001 1.301115e+002
549375000 -7.718718e-001 -1.539092e+002 -5.348467e+001 1.635735e+001 -5.276937e+001 1.012365e+001 -1.784950e-001 1.299019e+002
550000000 -7.722124e-001 -1.541711e+002 -5.292580e+001 9.816068e+000 -5.335862e+001 1.743654e+001 -1.781012e-001 1.298586e+002
550625000 -7.877417e-001 -1.544849e+002 -5.360419e+001 9.847388e+000 -5.449071e+001 9.191278e+000 -1.815813e-001 1.297392e+002
551250000 -7.905868e-001 -1.547580e+002 -5.293719e+001 5.490851e+000 -5.285860e+001 9.898042e+000 -1.871158e-001 1.296004e+002
551875000 -8.108310e-001 -1.550477e+002 -5.287112e+001 6.689654e+000 -5.324348e+001 7.120053e+000 -1.829282e-001 1.294372e+002
552500000 -8.068559e-001 -1.553775e+002 -5.278838e+001 9.174274e+000 -5.291223e+001 6.933219e+000 -1.850280e-001 1.292706e+002
553125000 -8.095568e-001 -1.556353e+002 -5.258077e+001 -3.307474e-001 -5.305315e+001 8.456392e+000 -1.925218e-001 1.291595e+002
553750000 -8.189414e-001 -1.559834e+002 -5.286584e+001 3.948296e-001 -5.234777e+001 4.088844e+000 -1.875143e-001 1.289382e+002
554375000 -8.258520e-001 -1.562652e+002 -5.246141e+001 -1.660333e-001 -5.244728e+001 -1.266579e+000 -1.891388e-001 1.288286e+002
555000000 -8.320138e-001 -1.566275e+002 -5.252914e+001 -7.158783e+000 -5.293475e+001 -3.493025e+000 -1.892254e-001 1.287079e+002
555625000 -8.485368e-001 -1.568535e+002 -5.328841e+001 -7.478096e+000 -5.255581e+001 -9.777638e+000 -1.837914e-001 1.286152e+002
556250000 -8.528054e-001 -1.572411e+002 -5.284620e+001 -1.432093e+000 -5.297575e+001 -9.191376e+000 -1.813580e-001 1.284432e+002
556875000 -8.550751e-001 -1.575957e+002 -5.241102e+001 -9.229373e+000 -5.241518e+001 -6.832840e+000 -1.862658e-001 1.283515e+002
557500000 -8.625703e-001 -1.578560e+002 -5.358330e+001 -1.354785e+001 -5.362046e+001 -6.294472e+000 -1.718803e-001 1.282883e+002
558125000 -8.806008e-001 -1.581853e+002 -5.175645e+001 -1.230691e+001 -5.312948e+001 -1.426193e+001 -1.760122e-001 1.282630e+002
558750000 -8.817681e-001 -1.584404e+002 -5.315771e+001 -9.878131e+000 -5.288528e+001 -6.754518e+000 -1.628585e-001 1.282215e+002
559375000 -8.991442e-001 -1.588046e+002 -5.219508e+001 -1.548807e+001 -5.287608e+001 -1.453913e+001 -1.605828e-001 1.282308e+002
560000000 -9.102536e-001 -1.590918e+002 -5.248217e+001 -1.293748e+001 -5.247747e+001 -1.976535e+001 -1.444020e-001 1.282267e+002
560625000 -9.139839e-001 -1.593154e+002 -5.281015e+001 -1.543639e+001 -5.301848e+001 -1.077197e+001 -1.377719e-001 1.282015e+002
561250000 -9.285044e-001 -1.596644e+002 -5.251511e+001 -1.219529e+001 -5.287251e+001 -1.712613e+001 -1.381364e-001 1.282682e+002
561875000 -9.400437e-001 -1.599674e+002 -5.183054e+001 -1.821510e+001 -5.164075e+001 -1.547208e+001 -1.489116e-001 1.283055e+002
562500000 -9.497136e-001 -1.602533e+002 -5.179176e+001 -1.729361e+001 -5.231668e+001 -1.865164e+001 -1.423010e-001 1.284378e+002
563125000 -9.520440e-001 -1.605577e+002 -5.275132e+001 -1.727395e+001 -5.223578e+001 -2.040105e+001 -1.415854e-001 1.284156e+002
563750000 -9.671879e-001 -1.609513e+002 -5.306299e+001 -2.102696e+001 -5.224170e+001 -2.330230e+001 -1.481098e-001 1.284730e+002
564375000 -9.773750e-001 -1.612991e+002 -5.235666e+001 -2.156199e+001 -5.214762e+001 -2.026859e+001 -1.481308e-001 1.285144e+002
565000000 -9.889486e-001 -1.617222e+002 -5.210323e+001 -2.674590e+001 -5.272222e+001 -2.277993e+001 -1.569209e-001 1.285077e+002
565625000 -1.001571e+000 -1.621174e+002 -5.146303e+001 -2.489950e+001 -5.212978e+001 -2.155709e+001 -1.577919e-001 1.285217e+002
566250000 -1.018299e+000 -1.625720e+002 -5.200898e+001 -2.948790e+001 -5.195488e+001 -2.473405e+001 -1.630919e-001 1.285324e+002
566875000 -1.045300e+000 -1.629509e+002 -5.215782e+001 -3.055076e+001 -5.230496e+001 -2.934554e+001 -1.621086e-001 1.284444e+002
567500000 -1.061853e+000 -1.633953e+002 -5.193121e+001 -3.804682e+001 -5.256320e+001 -3.177620e+001 -1.650880e-001 1.284080e+002
568125000 -1.094667e+000 -1.637357e+002 -5.165256e+001 -2.887235e+001 -5.218367e+001 -2.864530e+001 -1.675884e-001 1.283763e+002
568750000 -1.112663e+000 -1.641112e+002 -5.193477e+001 -3.017698e+001 -5.124652e+001 -2.772128e+001 -1.702858e-001 1.283317e+002
569375000 -1.135291e+000 -1.644909e+002 -5.096627e+001 -3.739764e+001 -5.280899e+001 -3.221027e+001 -1.721918e-001 1.282359e+002
570000000 -1.150448e+000 -1.648907e+002 -5.233941e+001 -3.533063e+001 -5.198821e+001 -3.293304e+001 -1.730846e-001 1.281429e+002
570625000 -1.162903e+000 -1.652899e+002 -5.144557e+001 -3.534832e+001 -5.213099e+001 -3.903604e+001 -1.701694e-001 1.281921e+002
571250000 -1.177819e+000 -1.656384e+002 -5.173795e+001 -3.925497e+001 -5.248500e+001 -3.584163e+001 -1.771570e-001 1.281172e+002
571875000 -1.199349e+000 -1.660069e+002 -5.203539e+001 -4.744764e+001 -5.122911e+001 -4.280272e+001 -1.758644e-001 1.280098e+002
572500000 -1.209894e+000 -1.664143e+002 -5.212234e+001 -3.911537e+001 -5.172622e+001 -4.116899e+001 -1.784468e-001 1.279417e+002
573125000 -1.229457e+000 -1.667396e+002 -5.137580e+001 -4.237937e+001 -5.107281e+001 -4.215705e+001 -1.587861e-001 1.279383e+002
573750000 -1.226101e+000 -1.670880e+002 -5.158921e+001 -5.277591e+001 -5.123572e+001 -4.567503e+001 -1.773817e-001 1.278498e+002
574375000 -1.249233e+000 -1.674455e+002 -5.192166e+001 -4.627660e+001 -5.190446e+001 -4.418008e+001 -1.753084e-001 1.278109e+002
575000000 -1.254479e+000 -1.679008e+002 -5.154338e+001 -4.542456e+001 -5.153008e+001 -4.593723e+001 -1.758903e-001 1.277326e+002
575625000 -1.264497e+000 -1.682592e+002 -5.124668e+001 -4.664446e+001 -5.156035e+001 -4.742005e+001 -1.856851e-001 1.276848e+002
576250000 -1.277285e+000 -1.686646e+002 -5.160869e+001 -5.137010e+001 -5.213722e+001 -4.641988e+001 -1.830737e-001 1.276295e+002
576875000 -1.274981e+000 -1.691026e+002 -5.172263e+001 -5.071506e+001 -5.183480e+001 -4.883755e+001 -1.853116e-001 1.275573e+002
577500000 -1.297319e+000 -1.694868e+002 -5.173208e+001 -5.655135e+001 -5.175072e+001 -5.123656e+001 -1.761700e-001 1.274056e+002
578125000 -1.309390e+000 -1.698584e+002 -5.168926e+001 -5.181079e+001 -5.156916e+001 -5.120750e+001 -1.849273e-001 1.273909e+002
578750000 -1.311109e+000 -1.702957e+002 -5.073303e+001 -5.310046e+001 -5.206485e+001 -5.256265e+001 -1.871811e-001 1.271850e+002
579375000 -1.313544e+000 -1.706826e+002 -5.076261e+001 -5.799442e+001 -5.177198e+001 -5.717135e+001 -1.956312e-001 1.269761e+002
580000000 -1.321306e+000 -1.711190e+002 -5.146541e+001 -5.175745e+001 -5.101414e+001 -5.624886e+001 -1.927672e-001 1.268557e+002
580625000 -1.327956e+000 -1.716021e+002 -5.082469e+001 -6.193681e+001 -5.090775e+001 -5.626783e+001 -1.909239e-001 1.266557e+002
581250000 -1.341634e+000 -1.720702e+002 -5.141998e+001 -6.033596e+001 -5.124784e+001 -5.845791e+001 -1.998849e-001 1.264713e+002
581875000 -1.345195e+000 -1.726722e+002 -5.151233e+001 -6.125863e+001 -5.126168e+001 -5.955509e+001 -2.019404e-001 1.262807e+002
582500000 -1.369214e+000 -1.731237e+002 -5.132614e+001 -6.599960e+001 -5.103336e+001 -5.934882e+001 -2.059203e-001 1.260903e+002
583125000 -1.373990e+000 -1.737810e+002 -5.123181e+001 -6.152307e+001 -5.153258e+001 -6.683699e+001 -2.173989e-001 1.258205e+002
583750000 -1.399401e+000 -1.742854e+002 -5.094778e+001 -6.172609e+001 -5.070520e+001 -6.077648e+001 -2.190218e-001 1.255801e+002
584375000 -1.418885e+000 -1.748948e+002 -5.078823e+001 -6.264402e+001 -5.140449e+001 -6.525450e+001 -2.072032e-001 1.253769e+002
585000000 -1.433467e+000 -1.754133e+002 -5.089183e+001 -6.650146e+001 -5.043426e+001 -6.622221e+001 -2.148257e-001 1.251289e+002
585625000 -1.463977e+000 -1.759751e+002 -5.147649e+001 -6.329503e+001 -5.075330e+001 -5.978554e+001 -2.015767e-001 1.249791e+002
586250000 -1.484487e+000 -1.765156e+002 -5.110917e+001 -6.882417e+001 -5.100661e+001 -6.556442e+001 -2.014262e-001 1.248542e+002
586875000 -1.504405e+000 -1.770729e+002 -5.078890e+001 -6.971082e+001 -5.036988e+001 -6.752676e+001 -1.955004e-001 1.246669e+002
587500000 -1.534522e+000 -1.775695e+002 -4.963776e+001 -6.726721e+001 -5.040667e+001 -6.904334e+001 -1.911547e-001 1.245572e+002
588125000 -1.550296e+000 -1.780463e+002 -5.042041e+001 -7.268228e+001 -5.022582e+001 -7.495563e+001 -1.889066e-001 1.243858e+002
588750000 -1.562101e+000 -1.785697e+002 -5.025761e+001 -7.584668e+001 -5.016906e+001 -7.097453e+001 -1.827781e-001 1.243841e+002
589375000 -1.584668e+000 -1.791540e+002 -5.075221e+001 -7.082330e+001 -5.009677e+001 -7.448707e+001 -1.688074e-001 1.242364e+002
590000000 -1.616060e+000 -1.796710e+002 -5.045630e+001 -7.597713e+001 -5.043231e+001 -7.373802e+001 -1.675444e-001 1.242970e+002
590625000 -1.635601e+000 1.798106e+002 -5.036452e+001 -7.950196e+001 -5.070966e+001 -7.471342e+001 -1.639606e-001 1.242516e+002
591250000 -1.666264e+000 1.793378e+002 -5.077679e+001 -8.029806e+001 -5.035573e+001 -7.984663e+001 -1.583238e-001 1.242699e+002
591875000 -1.707181e+000 1.789145e+002 -5.048804e+001 -8.009052e+001 -5.024050e+001 -7.873479e+001 -1.579990e-001 1.243038e+002
592500000 -1.743765e+000 1.783968e+002 -5.006890e+001 -7.938418e+001 -5.015147e+001 -7.670279e+001 -1.521181e-001 1.244285e+002
593125000 -1.783366e+000 1.780683e+002 -5.041966e+001 -8.422656e+001 -4.999902e+001 -8.271078e+001 -1.523157e-001 1.244747e+002
593750000 -1.812598e+000 1.777198e+002 -4.996820e+001 -8.339446e+001 -4.962437e+001 -7.970596e+001 -1.392689e-001 1.245693e+002
594375000 -1.830344e+000 1.773441e+002 -5.015689e+001 -8.322956e+001 -4.963463e+001 -8.394945e+001 -1.447306e-001 1.246602e+002
595000000 -1.859106e+000 1.770000e+002 -4.972458e+001 -8.399118e+001 -4.949342e+001 -8.319938e+001 -1.573022e-001 1.246741e+002
595625000 -1.893260e+000 1.765890e+002 -4.935017e+001 -8.949495e+001 -4.946878e+001 -8.525065e+001 -1.438865e-001 1.247506e+002
