!Agilent Technologies,E8364B,US42250235,A.06.04.32
!Agilent E8364B: A.06.04.32
!Date: Friday, January 15, 2021 16:17:41
!Correction: S11(Full 2 Port(1,2)) S21(Full 2 Port(1,2)) S12(Full 2 Port(1,2)) S22(Full 2 Port(1,2)) 
!S2P File: Measurements: S11, S21, S12, S22:
# Hz S  dB   R 50
500000000 -1.225757e-001 -1.295665e+002 -6.173719e+001 7.561829e+001 -6.280486e+001 8.112354e+001 -1.583629e-001 1.351420e+002
500625000 -1.280408e-001 -1.297768e+002 -6.293274e+001 8.681075e+001 -6.137687e+001 5.977249e+001 -1.678437e-001 1.351262e+002
501250000 -1.331597e-001 -1.300207e+002 -6.307925e+001 8.035198e+001 -6.108303e+001 8.601067e+001 -1.564824e-001 1.350054e+002
501875000 -1.393454e-001 -1.302519e+002 -6.175042e+001 8.095265e+001 -6.332308e+001 7.824349e+001 -1.595651e-001 1.349585e+002
502500000 -1.364041e-001 -1.305529e+002 -5.984930e+001 8.621897e+001 -6.133467e+001 7.097440e+001 -1.664469e-001 1.349327e+002
503125000 -1.503753e-001 -1.307740e+002 -6.048670e+001 5.710276e+001 -6.283568e+001 7.453825e+001 -1.584806e-001 1.347717e+002
503750000 -1.450647e-001 -1.310146e+002 -6.230927e+001 7.309577e+001 -6.401081e+001 7.445370e+001 -1.703898e-001 1.347016e+002
504375000 -1.488612e-001 -1.312565e+002 -5.969808e+001 7.594864e+001 -6.128635e+001 8.169640e+001 -1.855453e-001 1.346122e+002
505000000 -1.623411e-001 -1.315679e+002 -6.007632e+001 6.530938e+001 -6.161851e+001 7.542767e+001 -1.811132e-001 1.345300e+002
505625000 -1.510113e-001 -1.317812e+002 -6.072129e+001 7.072945e+001 -6.021087e+001 6.949418e+001 -1.770883e-001 1.343889e+002
506250000 -1.567542e-001 -1.320786e+002 -6.480005e+001 7.115230e+001 -6.263556e+001 6.121288e+001 -1.873681e-001 1.342105e+002
506875000 -1.522176e-001 -1.322976e+002 -6.266290e+001 7.394169e+001 -5.914243e+001 5.954878e+001 -1.834605e-001 1.340426e+002
507500000 -1.594224e-001 -1.326078e+002 -6.147153e+001 7.691581e+001 -5.869949e+001 6.333028e+001 -1.924801e-001 1.338570e+002
508125000 -1.609191e-001 -1.328106e+002 -5.941779e+001 6.706064e+001 -6.053249e+001 6.835082e+001 -1.853298e-001 1.337315e+002
508750000 -1.601157e-001 -1.330368e+002 -5.957513e+001 6.816113e+001 -6.137775e+001 6.598362e+001 -1.903790e-001 1.334694e+002
509375000 -1.658339e-001 -1.333751e+002 -6.000552e+001 6.812312e+001 -5.960270e+001 4.625439e+001 -1.882094e-001 1.333080e+002
510000000 -1.692803e-001 -1.336036e+002 -6.024249e+001 5.593470e+001 -5.941461e+001 7.223275e+001 -2.025151e-001 1.330567e+002
510625000 -1.810084e-001 -1.338450e+002 -6.101700e+001 5.283287e+001 -5.983332e+001 5.358007e+001 -1.892390e-001 1.329075e+002
511250000 -1.864909e-001 -1.341786e+002 -5.911256e+001 4.770151e+001 -6.050291e+001 6.249278e+001 -2.021093e-001 1.326228e+002
511875000 -1.876359e-001 -1.344592e+002 -5.767834e+001 5.671652e+001 -5.954990e+001 4.028009e+001 -1.869020e-001 1.324103e+002
512500000 -1.886988e-001 -1.347602e+002 -5.908540e+001 4.583990e+001 -5.909634e+001 4.923633e+001 -1.964984e-001 1.322406e+002
513125000 -2.015689e-001 -1.350507e+002 -5.750716e+001 5.119418e+001 -6.000811e+001 5.026662e+001 -1.905193e-001 1.320445e+002
513750000 -2.167656e-001 -1.353148e+002 -5.874327e+001 3.723901e+001 -5.930349e+001 4.848032e+001 -1.968909e-001 1.319085e+002
514375000 -2.213306e-001 -1.356527e+002 -5.818692e+001 5.092304e+001 -6.058702e+001 5.410613e+001 -1.806229e-001 1.317096e+002
515000000 -2.293598e-001 -1.359255e+002 -5.839517e+001 4.118573e+001 -5.927619e+001 3.943612e+001 -1.730635e-001 1.315332e+002
515625000 -2.436127e-001 -1.362860e+002 -5.934380e+001 4.055263e+001 -5.903891e+001 5.620730e+001 -1.714099e-001 1.314415e+002
516250000 -2.522129e-001 -1.365547e+002 -5.980027e+001 3.627198e+001 -5.914824e+001 4.703790e+001 -1.760297e-001 1.313418e+002
516875000 -2.757566e-001 -1.369004e+002 -5.744227e+001 4.627159e+001 -5.882145e+001 3.995676e+001 -1.713267e-001 1.313345e+002
517500000 -2.749737e-001 -1.371734e+002 -5.757593e+001 3.645154e+001 -5.946404e+001 2.633759e+001 -1.660502e-001 1.312334e+002
518125000 -2.742361e-001 -1.375481e+002 -5.805142e+001 2.925937e+001 -5.900500e+001 4.502308e+001 -1.665885e-001 1.312233e+002
518750000 -2.912218e-001 -1.378459e+002 -5.742923e+001 4.371876e+001 -5.787142e+001 4.731565e+001 -1.679515e-001 1.312217e+002
519375000 -3.036577e-001 -1.381100e+002 -5.672994e+001 4.636496e+001 -5.840615e+001 4.149948e+001 -1.480899e-001 1.311654e+002
520000000 -3.120416e-001 -1.384405e+002 -5.883379e+001 2.817858e+001 -5.916240e+001 2.621167e+001 -1.545788e-001 1.311835e+002
520625000 -3.141174e-001 -1.387671e+002 -5.724953e+001 2.357417e+001 -5.689875e+001 2.969601e+001 -1.510834e-001 1.311513e+002
521250000 -3.192683e-001 -1.391303e+002 -5.868550e+001 2.196391e+001 -5.767000e+001 2.978010e+001 -1.463575e-001 1.311890e+002
521875000 -3.171608e-001 -1.394704e+002 -5.904132e+001 2.462319e+001 -5.775278e+001 2.900639e+001 -1.392834e-001 1.312206e+002
522500000 -3.233731e-001 -1.397943e+002 -5.716592e+001 2.358738e+001 -5.897878e+001 2.896191e+001 -1.488704e-001 1.311693e+002
523125000 -3.381852e-001 -1.401345e+002 -5.965126e+001 2.376033e+001 -5.759235e+001 2.683504e+001 -1.435307e-001 1.312426e+002
523750000 -3.399009e-001 -1.404421e+002 -5.713237e+001 3.102684e+001 -5.756020e+001 2.821191e+001 -1.408774e-001 1.312674e+002
524375000 -3.577675e-001 -1.407781e+002 -5.717265e+001 2.795344e+001 -5.739385e+001 2.482749e+001 -1.420068e-001 1.313023e+002
525000000 -3.564773e-001 -1.411086e+002 -5.825668e+001 2.319328e+001 -5.576238e+001 1.784641e+001 -1.484842e-001 1.313011e+002
525625000 -3.647028e-001 -1.413808e+002 -5.689917e+001 2.183748e+001 -5.705531e+001 2.439948e+001 -1.511688e-001 1.312770e+002
526250000 -3.739791e-001 -1.416443e+002 -5.759703e+001 1.021794e+001 -5.756817e+001 2.328080e+001 -1.540975e-001 1.313389e+002
526875000 -3.835172e-001 -1.420106e+002 -5.784687e+001 1.517429e+001 -5.645289e+001 1.536380e+001 -1.443935e-001 1.313495e+002
527500000 -3.888373e-001 -1.422578e+002 -5.680481e+001 6.919914e+000 -5.777641e+001 1.043492e+001 -1.487039e-001 1.312927e+002
528125000 -4.161168e-001 -1.425714e+002 -5.670272e+001 4.482525e+000 -5.702023e+001 1.943834e+001 -1.593926e-001 1.314190e+002
528750000 -4.136263e-001 -1.429200e+002 -5.628411e+001 3.314156e+000 -5.601564e+001 6.327455e+000 -1.511832e-001 1.314802e+002
529375000 -4.206593e-001 -1.432001e+002 -5.647523e+001 9.028524e+000 -5.667002e+001 7.202045e+000 -1.601256e-001 1.314110e+002
530000000 -4.200266e-001 -1.435458e+002 -5.770104e+001 3.949429e+000 -5.611884e+001 7.726069e+000 -1.524443e-001 1.314347e+002
530625000 -4.310185e-001 -1.438371e+002 -5.562816e+001 7.299097e+000 -5.666724e+001 6.087681e+000 -1.540827e-001 1.314313e+002
531250000 -4.320240e-001 -1.441729e+002 -5.731290e+001 4.964843e+000 -5.790129e+001 1.174127e+000 -1.487388e-001 1.314357e+002
531875000 -4.559612e-001 -1.444922e+002 -5.696016e+001 3.384096e+000 -5.745000e+001 7.979100e+000 -1.559124e-001 1.314017e+002
532500000 -4.483445e-001 -1.447712e+002 -5.730719e+001 -1.685681e+000 -5.676112e+001 -2.348494e+000 -1.564012e-001 1.314120e+002
533125000 -4.567957e-001 -1.451134e+002 -5.628418e+001 -5.941202e+000 -5.622123e+001 -6.372492e-001 -1.664213e-001 1.314362e+002
533750000 -4.637032e-001 -1.454892e+002 -5.635343e+001 5.388700e+000 -5.707989e+001 -4.585609e+000 -1.765284e-001 1.313723e+002
534375000 -4.722278e-001 -1.458279e+002 -5.643126e+001 -1.038957e+000 -5.488313e+001 -5.772096e+000 -1.624620e-001 1.312921e+002
535000000 -4.763185e-001 -1.461514e+002 -5.602526e+001 -3.169483e+000 -5.690894e+001 -3.060818e+000 -1.711757e-001 1.313177e+002
535625000 -4.815391e-001 -1.465401e+002 -5.646824e+001 -1.568426e-001 -5.596724e+001 -4.960279e+000 -1.671499e-001 1.312367e+002
536250000 -4.909708e-001 -1.468719e+002 -5.720642e+001 -9.965275e+000 -5.608128e+001 -6.913118e+000 -1.662356e-001 1.310771e+002
536875000 -4.977330e-001 -1.472303e+002 -5.649024e+001 -1.153670e+001 -5.701520e+001 -1.378540e+001 -1.735366e-001 1.310282e+002
537500000 -5.041060e-001 -1.475432e+002 -5.572215e+001 -1.199918e+001 -5.575881e+001 -1.396562e+001 -1.652247e-001 1.310515e+002
538125000 -5.129120e-001 -1.479178e+002 -5.509765e+001 -1.371352e+001 -5.615718e+001 -1.931715e+001 -1.739994e-001 1.309547e+002
538750000 -5.295756e-001 -1.482075e+002 -5.476241e+001 -2.029965e+001 -5.478970e+001 -1.293254e+001 -1.748008e-001 1.308678e+002
539375000 -5.358208e-001 -1.485748e+002 -5.619621e+001 -1.135284e+001 -5.520791e+001 -1.682808e+001 -1.772412e-001 1.308340e+002
540000000 -5.420634e-001 -1.489017e+002 -5.563172e+001 -2.307627e+001 -5.462025e+001 -2.837459e+001 -1.766746e-001 1.306503e+002
540625000 -5.464045e-001 -1.492546e+002 -5.485091e+001 -1.703581e+001 -5.499292e+001 -2.182344e+001 -1.748122e-001 1.305708e+002
541250000 -5.536577e-001 -1.495261e+002 -5.485545e+001 -1.491554e+001 -5.437165e+001 -1.844219e+001 -1.756618e-001 1.305327e+002
541875000 -5.634152e-001 -1.498423e+002 -5.544230e+001 -2.318281e+001 -5.525270e+001 -2.263020e+001 -1.804484e-001 1.304816e+002
542500000 -5.743783e-001 -1.501627e+002 -5.656863e+001 -2.826740e+001 -5.469524e+001 -2.796053e+001 -1.759557e-001 1.303526e+002
543125000 -5.732941e-001 -1.505361e+002 -5.526955e+001 -3.086806e+001 -5.447430e+001 -2.703608e+001 -1.645827e-001 1.302909e+002
543750000 -5.816114e-001 -1.508165e+002 -5.474912e+001 -2.681177e+001 -5.454523e+001 -2.845889e+001 -1.703035e-001 1.302835e+002
544375000 -5.948670e-001 -1.511228e+002 -5.389377e+001 -1.916130e+001 -5.555768e+001 -2.875480e+001 -1.665631e-001 1.301932e+002
545000000 -5.943518e-001 -1.514601e+002 -5.539660e+001 -2.372322e+001 -5.576366e+001 -2.882068e+001 -1.673113e-001 1.301590e+002
545625000 -6.057056e-001 -1.517869e+002 -5.450300e+001 -2.551013e+001 -5.498549e+001 -3.578437e+001 -1.702780e-001 1.301554e+002
546250000 -6.271833e-001 -1.521164e+002 -5.518265e+001 -3.708971e+001 -5.466446e+001 -3.193344e+001 -1.826689e-001 1.300172e+002
546875000 -6.395628e-001 -1.525329e+002 -5.424710e+001 -3.093516e+001 -5.370404e+001 -3.663547e+001 -1.777911e-001 1.300088e+002
547500000 -6.547170e-001 -1.528412e+002 -5.401689e+001 -3.952348e+001 -5.417820e+001 -3.807439e+001 -1.847377e-001 1.299389e+002
548125000 -6.705248e-001 -1.530944e+002 -5.468433e+001 -4.912864e+001 -5.433978e+001 -4.502426e+001 -1.734342e-001 1.298583e+002
548750000 -6.830689e-001 -1.534272e+002 -5.336217e+001 -4.135915e+001 -5.442247e+001 -3.954684e+001 -1.860857e-001 1.297961e+002
549375000 -6.937118e-001 -1.537274e+002 -5.315495e+001 -4.646833e+001 -5.367672e+001 -3.890155e+001 -1.897070e-001 1.295463e+002
550000000 -6.968586e-001 -1.540210e+002 -5.412994e+001 -4.741518e+001 -5.337573e+001 -4.626607e+001 -1.933482e-001 1.295461e+002
550625000 -6.976802e-001 -1.543194e+002 -5.346191e+001 -5.095457e+001 -5.412393e+001 -4.700452e+001 -1.930024e-001 1.293515e+002
551250000 -7.073171e-001 -1.546252e+002 -5.287206e+001 -4.890395e+001 -5.343628e+001 -5.044781e+001 -1.952976e-001 1.292379e+002
551875000 -7.100255e-001 -1.550005e+002 -5.313933e+001 -4.739119e+001 -5.309288e+001 -5.346984e+001 -1.909218e-001 1.290728e+002
552500000 -7.125890e-001 -1.553429e+002 -5.373132e+001 -4.716689e+001 -5.322729e+001 -5.434680e+001 -1.906879e-001 1.289426e+002
553125000 -7.079045e-001 -1.556810e+002 -5.297066e+001 -5.488328e+001 -5.454319e+001 -6.081921e+001 -1.934277e-001 1.287695e+002
553750000 -7.265422e-001 -1.560318e+002 -5.403112e+001 -5.931979e+001 -5.439361e+001 -5.865908e+001 -2.005741e-001 1.286120e+002
554375000 -7.232541e-001 -1.563838e+002 -5.357260e+001 -5.758961e+001 -5.354189e+001 -6.351008e+001 -1.941125e-001 1.284770e+002
555000000 -7.310434e-001 -1.567609e+002 -5.362860e+001 -6.129631e+001 -5.393643e+001 -6.107787e+001 -1.994471e-001 1.283339e+002
555625000 -7.397247e-001 -1.570848e+002 -5.370689e+001 -6.121493e+001 -5.354187e+001 -6.127008e+001 -1.894304e-001 1.282864e+002
556250000 -7.524960e-001 -1.574544e+002 -5.362107e+001 -6.676260e+001 -5.329872e+001 -6.193170e+001 -1.879096e-001 1.281037e+002
556875000 -7.604855e-001 -1.578412e+002 -5.372169e+001 -6.048465e+001 -5.362059e+001 -6.260107e+001 -1.900537e-001 1.280433e+002
557500000 -7.722266e-001 -1.581270e+002 -5.419814e+001 -6.734569e+001 -5.338302e+001 -6.835931e+001 -1.785847e-001 1.279590e+002
558125000 -7.793354e-001 -1.585061e+002 -5.408512e+001 -7.134222e+001 -5.386918e+001 -7.170245e+001 -1.875080e-001 1.278914e+002
558750000 -7.789917e-001 -1.588497e+002 -5.311095e+001 -7.055524e+001 -5.351134e+001 -6.991560e+001 -1.679876e-001 1.278679e+002
559375000 -7.929335e-001 -1.592098e+002 -5.356693e+001 -7.029744e+001 -5.282497e+001 -6.652690e+001 -1.630563e-001 1.278479e+002
560000000 -8.073857e-001 -1.595316e+002 -5.425335e+001 -7.064193e+001 -5.337252e+001 -6.989095e+001 -1.598344e-001 1.277997e+002
560625000 -8.229976e-001 -1.598501e+002 -5.305209e+001 -7.350861e+001 -5.334140e+001 -7.291425e+001 -1.607651e-001 1.278935e+002
561250000 -8.299466e-001 -1.602233e+002 -5.315017e+001 -7.534895e+001 -5.233749e+001 -7.497854e+001 -1.569233e-001 1.278711e+002
561875000 -8.506512e-001 -1.606117e+002 -5.437547e+001 -7.717607e+001 -5.299942e+001 -7.173156e+001 -1.613791e-001 1.279313e+002
562500000 -8.621035e-001 -1.609262e+002 -5.312148e+001 -7.540365e+001 -5.357234e+001 -7.311494e+001 -1.605945e-001 1.279999e+002
563125000 -8.725873e-001 -1.612639e+002 -5.292527e+001 -7.756415e+001 -5.320197e+001 -8.328154e+001 -1.488696e-001 1.279811e+002
563750000 -8.941433e-001 -1.617212e+002 -5.340408e+001 -8.511029e+001 -5.314102e+001 -7.759409e+001 -1.552002e-001 1.280599e+002
564375000 -9.149112e-001 -1.620557e+002 -5.275092e+001 -8.214962e+001 -5.311207e+001 -8.168337e+001 -1.602834e-001 1.280830e+002
565000000 -9.272945e-001 -1.625457e+002 -5.251630e+001 -8.061742e+001 -5.215932e+001 -7.945937e+001 -1.679546e-001 1.281222e+002
565625000 -9.521035e-001 -1.629277e+002 -5.262903e+001 -7.922750e+001 -5.253395e+001 -8.240154e+001 -1.699348e-001 1.280952e+002
566250000 -9.774069e-001 -1.634022e+002 -5.319111e+001 -8.211455e+001 -5.280558e+001 -8.649074e+001 -1.801200e-001 1.280953e+002
566875000 -1.007891e+000 -1.638345e+002 -5.200285e+001 -8.772260e+001 -5.156872e+001 -8.430804e+001 -1.682507e-001 1.280289e+002
567500000 -1.036658e+000 -1.642962e+002 -5.198361e+001 -9.374341e+001 -5.104902e+001 -8.748516e+001 -1.694779e-001 1.280153e+002
568125000 -1.074401e+000 -1.646631e+002 -5.236736e+001 -9.363908e+001 -5.172509e+001 -8.692757e+001 -1.833820e-001 1.279694e+002
568750000 -1.093196e+000 -1.650407e+002 -5.147666e+001 -9.129192e+001 -5.222134e+001 -9.206950e+001 -1.751223e-001 1.278688e+002
569375000 -1.126599e+000 -1.654503e+002 -5.163277e+001 -9.148045e+001 -5.167074e+001 -1.002254e+002 -1.797339e-001 1.278571e+002
570000000 -1.140222e+000 -1.658396e+002 -5.113330e+001 -9.488686e+001 -5.195213e+001 -8.732401e+001 -1.840606e-001 1.277439e+002
570625000 -1.161894e+000 -1.662528e+002 -5.203118e+001 -9.907125e+001 -5.183142e+001 -9.634439e+001 -1.817309e-001 1.277117e+002
571250000 -1.182659e+000 -1.665689e+002 -5.230523e+001 -1.030643e+002 -5.206848e+001 -1.032700e+002 -1.849931e-001 1.276950e+002
571875000 -1.207421e+000 -1.669978e+002 -5.201281e+001 -1.027270e+002 -5.229972e+001 -1.000458e+002 -1.795509e-001 1.276082e+002
572500000 -1.222895e+000 -1.673902e+002 -5.178914e+001 -1.062092e+002 -5.172438e+001 -1.084084e+002 -1.882718e-001 1.274838e+002
573125000 -1.237749e+000 -1.677795e+002 -5.172140e+001 -1.017315e+002 -5.131326e+001 -1.087425e+002 -1.706853e-001 1.275150e+002
573750000 -1.249466e+000 -1.681699e+002 -5.212704e+001 -1.061188e+002 -5.163947e+001 -1.078349e+002 -1.897827e-001 1.274442e+002
574375000 -1.264550e+000 -1.686206e+002 -5.217200e+001 -1.138599e+002 -5.110129e+001 -1.055419e+002 -1.814133e-001 1.274371e+002
575000000 -1.279129e+000 -1.690716e+002 -5.257727e+001 -1.144855e+002 -5.129405e+001 -1.084436e+002 -1.807479e-001 1.273469e+002
575625000 -1.302596e+000 -1.694636e+002 -5.174373e+001 -1.026075e+002 -5.246345e+001 -1.147868e+002 -1.917693e-001 1.272322e+002
576250000 -1.320363e+000 -1.699075e+002 -5.149395e+001 -1.117231e+002 -5.206189e+001 -1.176527e+002 -1.944946e-001 1.272014e+002
576875000 -1.340604e+000 -1.703449e+002 -5.218938e+001 -1.201289e+002 -5.128819e+001 -1.132630e+002 -1.908966e-001 1.271286e+002
577500000 -1.373909e+000 -1.707430e+002 -5.114759e+001 -1.145469e+002 -5.150422e+001 -1.138163e+002 -1.889775e-001 1.269932e+002
578125000 -1.395446e+000 -1.711628e+002 -5.167733e+001 -1.168965e+002 -5.133012e+001 -1.162636e+002 -1.912002e-001 1.269161e+002
578750000 -1.415180e+000 -1.716004e+002 -5.168921e+001 -1.188661e+002 -5.170603e+001 -1.223529e+002 -2.009530e-001 1.267199e+002
579375000 -1.424274e+000 -1.720227e+002 -5.124086e+001 -1.175800e+002 -5.096128e+001 -1.253738e+002 -1.991387e-001 1.266054e+002
580000000 -1.441713e+000 -1.724037e+002 -5.235263e+001 -1.203174e+002 -5.185977e+001 -1.217747e+002 -2.086381e-001 1.264411e+002
580625000 -1.476606e+000 -1.728889e+002 -5.213285e+001 -1.230791e+002 -5.137451e+001 -1.254519e+002 -2.092297e-001 1.262743e+002
581250000 -1.490030e+000 -1.733094e+002 -5.159080e+001 -1.240951e+002 -5.242148e+001 -1.227796e+002 -2.061703e-001 1.260903e+002
581875000 -1.513293e+000 -1.738291e+002 -5.109238e+001 -1.249320e+002 -5.112627e+001 -1.290952e+002 -2.137694e-001 1.258765e+002
582500000 -1.547426e+000 -1.742577e+002 -5.134510e+001 -1.279960e+002 -5.125526e+001 -1.276796e+002 -2.141543e-001 1.256480e+002
583125000 -1.566071e+000 -1.747917e+002 -5.151078e+001 -1.261303e+002 -5.094173e+001 -1.315418e+002 -2.200295e-001 1.253462e+002
583750000 -1.597539e+000 -1.753206e+002 -5.139703e+001 -1.320151e+002 -5.096253e+001 -1.303433e+002 -2.296063e-001 1.251667e+002
584375000 -1.625801e+000 -1.757890e+002 -5.201880e+001 -1.304159e+002 -5.143197e+001 -1.291824e+002 -2.155384e-001 1.249728e+002
585000000 -1.652444e+000 -1.763548e+002 -5.147992e+001 -1.313250e+002 -5.117298e+001 -1.332626e+002 -2.206150e-001 1.247472e+002
585625000 -1.696777e+000 -1.768155e+002 -5.098233e+001 -1.334217e+002 -5.150065e+001 -1.337215e+002 -2.128924e-001 1.245921e+002
586250000 -1.722987e+000 -1.772912e+002 -5.154152e+001 -1.323899e+002 -5.139279e+001 -1.358724e+002 -2.054349e-001 1.245433e+002
586875000 -1.748251e+000 -1.778354e+002 -5.089046e+001 -1.372753e+002 -5.083540e+001 -1.342711e+002 -1.998643e-001 1.243027e+002
587500000 -1.798157e+000 -1.783548e+002 -5.108699e+001 -1.384012e+002 -5.042928e+001 -1.362706e+002 -1.940572e-001 1.241060e+002
588125000 -1.828426e+000 -1.787820e+002 -5.099615e+001 -1.444953e+002 -5.042035e+001 -1.387771e+002 -1.901779e-001 1.240908e+002
588750000 -1.867732e+000 -1.792307e+002 -5.072011e+001 -1.401827e+002 -5.041030e+001 -1.370486e+002 -1.943727e-001 1.240147e+002
589375000 -1.898646e+000 -1.796326e+002 -5.023009e+001 -1.381949e+002 -5.034642e+001 -1.408160e+002 -1.802691e-001 1.239102e+002
590000000 -1.949650e+000 1.799738e+002 -5.122071e+001 -1.436482e+002 -5.018715e+001 -1.414998e+002 -1.843769e-001 1.238960e+002
590625000 -1.986365e+000 1.796148e+002 -5.028122e+001 -1.433802e+002 -5.055410e+001 -1.471765e+002 -1.731408e-001 1.238796e+002
591250000 -2.024707e+000 1.793235e+002 -5.007743e+001 -1.489430e+002 -4.974213e+001 -1.475878e+002 -1.704074e-001 1.238927e+002
591875000 -2.070414e+000 1.790872e+002 -4.986185e+001 -1.520028e+002 -4.970521e+001 -1.498036e+002 -1.659744e-001 1.239120e+002
592500000 -2.109293e+000 1.788406e+002 -5.025059e+001 -1.528764e+002 -4.980066e+001 -1.520450e+002 -1.633712e-001 1.240096e+002
593125000 -2.130440e+000 1.786815e+002 -5.010641e+001 -1.518656e+002 -4.937634e+001 -1.565137e+002 -1.655242e-001 1.240742e+002
593750000 -2.158690e+000 1.784568e+002 -4.971043e+001 -1.557870e+002 -4.970855e+001 -1.557595e+002 -1.520937e-001 1.241557e+002
594375000 -2.164321e+000 1.783055e+002 -5.014901e+001 -1.588946e+002 -4.944113e+001 -1.613056e+002 -1.469714e-001 1.242656e+002
595000000 -2.177198e+000 1.780677e+002 -4.972342e+001 -1.590910e+002 -4.957745e+001 -1.607909e+002 -1.621205e-001 1.242974e+002
