!Agilent Technologies,E8364B,US42250235,A.06.04.32
!Agilent E8364B: A.06.04.32
!Date: Friday, January 15, 2021 16:18:51
!Correction: S11(Full 2 Port(1,2)) S21(Full 2 Port(1,2)) S12(Full 2 Port(1,2)) S22(Full 2 Port(1,2)) 
!S2P File: Measurements: S11, S21, S12, S22:
# Hz S  dB   R 50
500000000 -1.267209e-001 -1.294583e+002 -6.267087e+001 2.148379e+001 -6.126609e+001 -1.250737e+000 -1.591862e-001 1.351723e+002
500625000 -1.313769e-001 -1.297088e+002 -6.057763e+001 4.603199e+000 -6.319651e+001 1.335207e+001 -1.674687e-001 1.351177e+002
501250000 -1.365112e-001 -1.299313e+002 -6.393787e+001 1.775921e+001 -6.414127e+001 2.299112e+000 -1.651969e-001 1.350509e+002
501875000 -1.316289e-001 -1.302291e+002 -6.236110e+001 1.388163e+001 -6.161053e+001 1.451846e+001 -1.583397e-001 1.349857e+002
502500000 -1.349923e-001 -1.304978e+002 -6.075281e+001 2.237306e+001 -6.303511e+001 -3.156341e-001 -1.594092e-001 1.349703e+002
503125000 -1.426803e-001 -1.307456e+002 -6.416483e+001 -1.648984e-001 -6.100415e+001 1.124944e+001 -1.664669e-001 1.348300e+002
503750000 -1.412067e-001 -1.309868e+002 -6.316273e+001 1.928925e+001 -6.083364e+001 8.265835e+000 -1.608346e-001 1.347094e+002
504375000 -1.520059e-001 -1.312371e+002 -6.100957e+001 -1.594773e+001 -6.049851e+001 6.610932e+000 -1.800302e-001 1.346210e+002
505000000 -1.502555e-001 -1.314973e+002 -6.119006e+001 -1.399141e+000 -6.185775e+001 -9.000447e+000 -1.804810e-001 1.345597e+002
505625000 -1.414522e-001 -1.317073e+002 -6.144413e+001 8.448080e+000 -6.047567e+001 2.320221e-001 -1.767274e-001 1.344702e+002
506250000 -1.557034e-001 -1.320225e+002 -6.269844e+001 -1.635935e+000 -6.320440e+001 -3.568806e+000 -1.900649e-001 1.342430e+002
506875000 -1.495190e-001 -1.322593e+002 -5.910413e+001 -1.609406e+000 -6.171447e+001 9.626616e+000 -1.801042e-001 1.341113e+002
507500000 -1.582546e-001 -1.325028e+002 -6.046497e+001 -4.736512e-001 -6.154921e+001 -4.731507e+000 -1.821947e-001 1.338965e+002
508125000 -1.564349e-001 -1.327377e+002 -6.015033e+001 -1.270826e+001 -6.225499e+001 -2.415789e+001 -1.869043e-001 1.337036e+002
508750000 -1.579066e-001 -1.330020e+002 -5.876384e+001 -5.039640e+000 -5.902560e+001 -1.321622e+001 -1.913167e-001 1.335044e+002
509375000 -1.617080e-001 -1.332834e+002 -6.266068e+001 -6.731359e+000 -6.083899e+001 -3.993837e-001 -1.912515e-001 1.332635e+002
510000000 -1.577899e-001 -1.335757e+002 -6.105375e+001 -1.244502e+001 -6.225695e+001 -1.256017e+001 -1.990426e-001 1.330974e+002
510625000 -1.767281e-001 -1.338277e+002 -5.884482e+001 -1.322127e+000 -6.037544e+001 -1.540709e+001 -1.878284e-001 1.329245e+002
511250000 -1.803071e-001 -1.340198e+002 -6.050531e+001 -1.786147e+001 -5.921838e+001 -1.357850e+001 -1.976202e-001 1.325799e+002
511875000 -1.769630e-001 -1.343900e+002 -6.041513e+001 -1.526214e+001 -5.969315e+001 -1.462665e+001 -1.867519e-001 1.324184e+002
512500000 -1.782706e-001 -1.346569e+002 -5.764619e+001 -2.913074e+001 -5.978252e+001 -1.187171e+001 -1.918542e-001 1.322167e+002
513125000 -1.966576e-001 -1.349848e+002 -5.866149e+001 -1.618947e+001 -6.105951e+001 -2.587467e+001 -1.830964e-001 1.320992e+002
513750000 -1.996963e-001 -1.352267e+002 -5.940707e+001 -1.455005e+001 -5.999171e+001 -1.893490e+001 -1.904434e-001 1.319111e+002
514375000 -2.021491e-001 -1.355390e+002 -5.938742e+001 -2.606516e+001 -5.937686e+001 -2.132168e+001 -1.818597e-001 1.317258e+002
515000000 -2.155522e-001 -1.357997e+002 -6.033851e+001 -1.931992e+001 -6.288198e+001 -3.416042e+001 -1.728956e-001 1.315882e+002
515625000 -2.272206e-001 -1.361857e+002 -5.970024e+001 -2.731612e+001 -5.914071e+001 -1.599476e+001 -1.780988e-001 1.314576e+002
516250000 -2.370612e-001 -1.364907e+002 -5.784077e+001 -3.875730e+001 -5.746907e+001 -2.840784e+001 -1.789088e-001 1.313544e+002
516875000 -2.472301e-001 -1.367747e+002 -5.891940e+001 -1.887140e+001 -5.906937e+001 -4.190528e+001 -1.701549e-001 1.313907e+002
517500000 -2.553165e-001 -1.370566e+002 -5.924862e+001 -3.313795e+001 -5.978233e+001 -1.706884e+001 -1.716192e-001 1.312667e+002
518125000 -2.522520e-001 -1.374276e+002 -5.978290e+001 -3.094940e+001 -5.814785e+001 -2.818892e+001 -1.568100e-001 1.311426e+002
518750000 -2.622399e-001 -1.377526e+002 -5.935478e+001 -4.712290e+001 -5.845525e+001 -3.702240e+001 -1.615235e-001 1.312070e+002
519375000 -2.737864e-001 -1.380196e+002 -5.805325e+001 -3.451718e+001 -5.947409e+001 -4.359558e+001 -1.437134e-001 1.311778e+002
520000000 -2.775786e-001 -1.383814e+002 -5.778363e+001 -3.262921e+001 -5.907901e+001 -3.620581e+001 -1.447979e-001 1.311337e+002
520625000 -2.852355e-001 -1.387293e+002 -5.739805e+001 -3.324854e+001 -5.894454e+001 -3.877414e+001 -1.457568e-001 1.311318e+002
521250000 -2.876421e-001 -1.390642e+002 -5.785701e+001 -2.973745e+001 -5.881124e+001 -4.119033e+001 -1.484352e-001 1.311892e+002
521875000 -2.859540e-001 -1.394417e+002 -5.752990e+001 -3.629446e+001 -5.875199e+001 -4.678550e+001 -1.409609e-001 1.312429e+002
522500000 -2.929854e-001 -1.397647e+002 -5.743098e+001 -3.893927e+001 -5.759636e+001 -4.045670e+001 -1.440524e-001 1.312026e+002
523125000 -3.009840e-001 -1.401107e+002 -5.916257e+001 -3.659217e+001 -5.769246e+001 -4.785261e+001 -1.463102e-001 1.312272e+002
523750000 -2.996441e-001 -1.404310e+002 -5.892239e+001 -4.173121e+001 -5.754874e+001 -4.192516e+001 -1.437970e-001 1.312506e+002
524375000 -3.149039e-001 -1.408030e+002 -5.898652e+001 -4.443451e+001 -5.710635e+001 -4.305830e+001 -1.401972e-001 1.312111e+002
525000000 -3.078186e-001 -1.411182e+002 -5.764309e+001 -5.276633e+001 -5.868819e+001 -4.658364e+001 -1.521174e-001 1.312756e+002
525625000 -3.302384e-001 -1.414084e+002 -5.850884e+001 -5.082777e+001 -5.773568e+001 -5.552876e+001 -1.533504e-001 1.312680e+002
526250000 -3.222297e-001 -1.417126e+002 -5.727190e+001 -3.607764e+001 -5.728527e+001 -4.954279e+001 -1.503942e-001 1.312792e+002
526875000 -3.357170e-001 -1.420110e+002 -5.874440e+001 -5.828957e+001 -5.723464e+001 -6.174891e+001 -1.430689e-001 1.312773e+002
527500000 -3.411475e-001 -1.423615e+002 -5.859734e+001 -5.144302e+001 -5.887241e+001 -5.091258e+001 -1.537946e-001 1.313148e+002
528125000 -3.608528e-001 -1.427368e+002 -5.773383e+001 -4.785069e+001 -5.881907e+001 -5.971938e+001 -1.557630e-001 1.314608e+002
528750000 -3.595211e-001 -1.430269e+002 -5.896515e+001 -6.011284e+001 -5.685398e+001 -6.448732e+001 -1.490476e-001 1.315120e+002
529375000 -3.734023e-001 -1.432947e+002 -5.715300e+001 -7.098218e+001 -5.620136e+001 -5.054125e+001 -1.517709e-001 1.313854e+002
530000000 -3.853713e-001 -1.436909e+002 -5.584835e+001 -6.818728e+001 -5.916361e+001 -5.772939e+001 -1.501226e-001 1.314134e+002
530625000 -3.846667e-001 -1.439731e+002 -5.732337e+001 -6.820252e+001 -5.754058e+001 -6.284908e+001 -1.514551e-001 1.314108e+002
531250000 -3.925095e-001 -1.443181e+002 -5.749174e+001 -6.342353e+001 -5.732391e+001 -5.882496e+001 -1.524064e-001 1.314324e+002
531875000 -4.102322e-001 -1.446523e+002 -5.675323e+001 -6.951706e+001 -5.784359e+001 -5.981137e+001 -1.574391e-001 1.314063e+002
532500000 -4.081640e-001 -1.449415e+002 -5.688574e+001 -7.993845e+001 -5.764133e+001 -6.483900e+001 -1.581524e-001 1.313945e+002
533125000 -4.075320e-001 -1.453524e+002 -5.827635e+001 -6.219516e+001 -5.723808e+001 -6.998420e+001 -1.644640e-001 1.313800e+002
533750000 -4.216840e-001 -1.456645e+002 -5.730984e+001 -6.325644e+001 -5.807973e+001 -7.492539e+001 -1.744023e-001 1.313654e+002
534375000 -4.277522e-001 -1.460452e+002 -5.652802e+001 -7.346272e+001 -5.692790e+001 -5.954258e+001 -1.633455e-001 1.313199e+002
535000000 -4.368791e-001 -1.463737e+002 -5.650489e+001 -7.025053e+001 -5.728897e+001 -6.781968e+001 -1.721415e-001 1.312867e+002
535625000 -4.428966e-001 -1.467786e+002 -5.667554e+001 -7.535242e+001 -5.712350e+001 -6.279658e+001 -1.694870e-001 1.312425e+002
536250000 -4.472575e-001 -1.471227e+002 -5.650481e+001 -7.383569e+001 -5.576398e+001 -7.504241e+001 -1.616974e-001 1.311101e+002
536875000 -4.593398e-001 -1.475500e+002 -5.546928e+001 -7.598154e+001 -5.606145e+001 -8.110672e+001 -1.729243e-001 1.310512e+002
537500000 -4.638619e-001 -1.478752e+002 -5.582417e+001 -7.851586e+001 -5.596542e+001 -7.581538e+001 -1.622597e-001 1.310293e+002
538125000 -4.732322e-001 -1.482549e+002 -5.525145e+001 -7.110924e+001 -5.635740e+001 -7.983440e+001 -1.724034e-001 1.309373e+002
538750000 -4.922740e-001 -1.486218e+002 -5.637498e+001 -7.937779e+001 -5.640443e+001 -7.724799e+001 -1.710425e-001 1.308580e+002
539375000 -5.053436e-001 -1.489641e+002 -5.364252e+001 -8.404114e+001 -5.521096e+001 -8.131613e+001 -1.742418e-001 1.307654e+002
540000000 -5.105411e-001 -1.492829e+002 -5.488923e+001 -8.310807e+001 -5.610534e+001 -8.534285e+001 -1.719433e-001 1.306382e+002
540625000 -5.231831e-001 -1.497003e+002 -5.561725e+001 -9.233820e+001 -5.550198e+001 -8.327890e+001 -1.752822e-001 1.306152e+002
541250000 -5.272343e-001 -1.499735e+002 -5.486308e+001 -8.264690e+001 -5.495742e+001 -8.774133e+001 -1.689141e-001 1.305329e+002
541875000 -5.425414e-001 -1.503065e+002 -5.602976e+001 -9.257243e+001 -5.588809e+001 -8.864620e+001 -1.813704e-001 1.304299e+002
542500000 -5.524527e-001 -1.506269e+002 -5.546451e+001 -9.377536e+001 -5.683476e+001 -8.951666e+001 -1.708431e-001 1.303654e+002
543125000 -5.602596e-001 -1.510244e+002 -5.488076e+001 -9.117299e+001 -5.465717e+001 -9.547668e+001 -1.681526e-001 1.302649e+002
543750000 -5.683219e-001 -1.513153e+002 -5.527211e+001 -1.008175e+002 -5.510091e+001 -9.127464e+001 -1.747083e-001 1.302886e+002
544375000 -5.824220e-001 -1.516530e+002 -5.445625e+001 -9.998856e+001 -5.511344e+001 -9.150586e+001 -1.674895e-001 1.301991e+002
545000000 -5.885395e-001 -1.519653e+002 -5.478340e+001 -9.861984e+001 -5.455565e+001 -9.590124e+001 -1.715412e-001 1.302021e+002
545625000 -6.101176e-001 -1.523265e+002 -5.512388e+001 -9.389594e+001 -5.443643e+001 -9.776550e+001 -1.664302e-001 1.301159e+002
546250000 -6.318404e-001 -1.526603e+002 -5.477201e+001 -9.906294e+001 -5.449255e+001 -1.018728e+002 -1.785956e-001 1.300205e+002
546875000 -6.474761e-001 -1.530557e+002 -5.393079e+001 -9.939232e+001 -5.376608e+001 -1.074581e+002 -1.796067e-001 1.300453e+002
547500000 -6.689369e-001 -1.533681e+002 -5.441240e+001 -1.104926e+002 -5.409409e+001 -1.073100e+002 -1.792016e-001 1.299405e+002
548125000 -6.906137e-001 -1.536230e+002 -5.374570e+001 -1.060471e+002 -5.464408e+001 -1.096369e+002 -1.731964e-001 1.298388e+002
548750000 -7.033513e-001 -1.539944e+002 -5.354996e+001 -1.043384e+002 -5.358561e+001 -1.077031e+002 -1.815739e-001 1.297743e+002
549375000 -7.214614e-001 -1.542858e+002 -5.394996e+001 -1.020265e+002 -5.327153e+001 -1.144664e+002 -1.880908e-001 1.295626e+002
550000000 -7.287185e-001 -1.545783e+002 -5.405822e+001 -1.102247e+002 -5.376326e+001 -1.101236e+002 -1.888285e-001 1.295070e+002
550625000 -7.424461e-001 -1.548470e+002 -5.320146e+001 -1.196451e+002 -5.426727e+001 -1.140523e+002 -1.913087e-001 1.293838e+002
551250000 -7.462589e-001 -1.551503e+002 -5.247343e+001 -1.192480e+002 -5.319421e+001 -1.135894e+002 -1.931310e-001 1.292470e+002
551875000 -7.550569e-001 -1.555115e+002 -5.282586e+001 -1.210118e+002 -5.351778e+001 -1.175414e+002 -1.929667e-001 1.290655e+002
552500000 -7.646405e-001 -1.558286e+002 -5.326451e+001 -1.222276e+002 -5.347824e+001 -1.265151e+002 -1.906892e-001 1.288746e+002
553125000 -7.642180e-001 -1.561190e+002 -5.237714e+001 -1.252631e+002 -5.377860e+001 -1.220434e+002 -1.946988e-001 1.287926e+002
553750000 -7.785026e-001 -1.565084e+002 -5.295642e+001 -1.288301e+002 -5.275809e+001 -1.298623e+002 -1.999993e-001 1.285430e+002
554375000 -7.795935e-001 -1.568126e+002 -5.398172e+001 -1.256588e+002 -5.329996e+001 -1.295733e+002 -1.970781e-001 1.284244e+002
555000000 -7.896954e-001 -1.571668e+002 -5.322968e+001 -1.263873e+002 -5.360770e+001 -1.338412e+002 -1.981222e-001 1.283593e+002
555625000 -8.067825e-001 -1.575085e+002 -5.253169e+001 -1.347183e+002 -5.353661e+001 -1.297818e+002 -1.849478e-001 1.282733e+002
556250000 -8.191367e-001 -1.578802e+002 -5.312193e+001 -1.335882e+002 -5.313254e+001 -1.326081e+002 -1.798333e-001 1.280870e+002
556875000 -8.183706e-001 -1.582271e+002 -5.412529e+001 -1.282358e+002 -5.309457e+001 -1.270585e+002 -1.857597e-001 1.280555e+002
557500000 -8.438284e-001 -1.584798e+002 -5.262456e+001 -1.329252e+002 -5.380899e+001 -1.343279e+002 -1.777560e-001 1.279279e+002
558125000 -8.494650e-001 -1.588589e+002 -5.332777e+001 -1.337989e+002 -5.278104e+001 -1.335720e+002 -1.718806e-001 1.278962e+002
558750000 -8.625621e-001 -1.591985e+002 -5.256022e+001 -1.360656e+002 -5.369408e+001 -1.371537e+002 -1.626228e-001 1.278570e+002
559375000 -8.791356e-001 -1.595909e+002 -5.272843e+001 -1.426750e+002 -5.360519e+001 -1.405499e+002 -1.628453e-001 1.278339e+002
560000000 -8.984529e-001 -1.598867e+002 -5.253687e+001 -1.409424e+002 -5.344802e+001 -1.371305e+002 -1.618364e-001 1.278274e+002
560625000 -9.097396e-001 -1.601726e+002 -5.210645e+001 -1.367830e+002 -5.202141e+001 -1.424593e+002 -1.548640e-001 1.278636e+002
561250000 -9.289950e-001 -1.605367e+002 -5.231651e+001 -1.448423e+002 -5.283569e+001 -1.425243e+002 -1.501967e-001 1.278648e+002
561875000 -9.477789e-001 -1.608455e+002 -5.258403e+001 -1.444587e+002 -5.195905e+001 -1.480393e+002 -1.549306e-001 1.279502e+002
562500000 -9.657537e-001 -1.611678e+002 -5.235544e+001 -1.481796e+002 -5.226007e+001 -1.447138e+002 -1.590884e-001 1.280074e+002
563125000 -9.715052e-001 -1.615642e+002 -5.211005e+001 -1.478173e+002 -5.272746e+001 -1.456600e+002 -1.415994e-001 1.280352e+002
563750000 -1.007672e+000 -1.618930e+002 -5.239215e+001 -1.527250e+002 -5.187957e+001 -1.515666e+002 -1.563447e-001 1.280721e+002
564375000 -1.024805e+000 -1.622379e+002 -5.129881e+001 -1.510565e+002 -5.119987e+001 -1.482266e+002 -1.579401e-001 1.281337e+002
565000000 -1.046446e+000 -1.626879e+002 -5.254193e+001 -1.522559e+002 -5.228563e+001 -1.546971e+002 -1.584292e-001 1.281133e+002
565625000 -1.073835e+000 -1.630425e+002 -5.186911e+001 -1.558836e+002 -5.191990e+001 -1.536769e+002 -1.631593e-001 1.280937e+002
566250000 -1.104078e+000 -1.634612e+002 -5.120895e+001 -1.547354e+002 -5.177203e+001 -1.580365e+002 -1.708562e-001 1.281338e+002
566875000 -1.141225e+000 -1.638006e+002 -5.154521e+001 -1.598553e+002 -5.132319e+001 -1.596828e+002 -1.744607e-001 1.280193e+002
567500000 -1.169047e+000 -1.642029e+002 -5.142527e+001 -1.657927e+002 -5.299007e+001 -1.588985e+002 -1.721349e-001 1.280420e+002
568125000 -1.205492e+000 -1.645557e+002 -5.140511e+001 -1.639707e+002 -5.197329e+001 -1.620618e+002 -1.807147e-001 1.279675e+002
568750000 -1.226824e+000 -1.648812e+002 -5.148988e+001 -1.630208e+002 -5.179912e+001 -1.655505e+002 -1.831174e-001 1.279314e+002
569375000 -1.260185e+000 -1.652321e+002 -5.196353e+001 -1.661222e+002 -5.169105e+001 -1.639030e+002 -1.824920e-001 1.278470e+002
570000000 -1.278318e+000 -1.655530e+002 -5.169918e+001 -1.708660e+002 -5.126199e+001 -1.648972e+002 -1.852592e-001 1.277503e+002
570625000 -1.305825e+000 -1.658969e+002 -5.144058e+001 -1.678688e+002 -5.159424e+001 -1.711620e+002 -1.806461e-001 1.277473e+002
571250000 -1.324176e+000 -1.662085e+002 -5.098040e+001 -1.741887e+002 -5.124034e+001 -1.675084e+002 -1.802450e-001 1.276996e+002
571875000 -1.341289e+000 -1.665144e+002 -5.086354e+001 -1.757461e+002 -5.142921e+001 -1.683491e+002 -1.778547e-001 1.276139e+002
572500000 -1.365204e+000 -1.668920e+002 -5.113407e+001 -1.728909e+002 -5.113927e+001 -1.774315e+002 -1.836482e-001 1.275503e+002
573125000 -1.375368e+000 -1.672203e+002 -5.153257e+001 -1.781097e+002 -5.119574e+001 -1.760938e+002 -1.750154e-001 1.274960e+002
573750000 -1.382594e+000 -1.675473e+002 -5.092995e+001 -1.776462e+002 -5.125325e+001 1.790625e+002 -1.839308e-001 1.274102e+002
574375000 -1.396915e+000 -1.679167e+002 -5.136452e+001 1.784621e+002 -5.161552e+001 -1.745410e+002 -1.803452e-001 1.274484e+002
575000000 -1.404463e+000 -1.683148e+002 -5.132440e+001 1.793159e+002 -5.107343e+001 1.790775e+002 -1.803885e-001 1.273563e+002
575625000 -1.426150e+000 -1.686621e+002 -5.044567e+001 1.749480e+002 -5.094342e+001 1.751556e+002 -1.825629e-001 1.272491e+002
576250000 -1.435362e+000 -1.690496e+002 -5.053558e+001 1.750507e+002 -5.121812e+001 1.721594e+002 -1.905137e-001 1.272423e+002
576875000 -1.445763e+000 -1.693840e+002 -5.093337e+001 1.714183e+002 -5.119417e+001 1.759778e+002 -1.894449e-001 1.271887e+002
577500000 -1.474822e+000 -1.697773e+002 -5.068193e+001 1.695148e+002 -5.091628e+001 1.752984e+002 -1.928315e-001 1.269552e+002
578125000 -1.482639e+000 -1.701154e+002 -5.086922e+001 1.662673e+002 -5.079916e+001 1.682276e+002 -1.937155e-001 1.269449e+002
578750000 -1.487968e+000 -1.704972e+002 -5.080177e+001 1.669681e+002 -5.066317e+001 1.668498e+002 -2.005638e-001 1.267876e+002
579375000 -1.494709e+000 -1.708518e+002 -5.031522e+001 1.663460e+002 -5.112970e+001 1.649046e+002 -2.039822e-001 1.265798e+002
580000000 -1.507469e+000 -1.712316e+002 -5.040200e+001 1.661039e+002 -5.056372e+001 1.631273e+002 -2.021528e-001 1.264223e+002
580625000 -1.520381e+000 -1.717272e+002 -5.047396e+001 1.643654e+002 -5.019781e+001 1.603129e+002 -1.983821e-001 1.262659e+002
581250000 -1.532400e+000 -1.721456e+002 -5.084614e+001 1.614604e+002 -5.012785e+001 1.614189e+002 -2.046817e-001 1.260741e+002
581875000 -1.550474e+000 -1.726033e+002 -5.042483e+001 1.612487e+002 -5.029144e+001 1.613682e+002 -2.097328e-001 1.258697e+002
582500000 -1.575409e+000 -1.730586e+002 -4.990268e+001 1.568096e+002 -5.071221e+001 1.561805e+002 -2.243526e-001 1.256357e+002
583125000 -1.589662e+000 -1.736335e+002 -5.038828e+001 1.602342e+002 -5.070360e+001 1.549468e+002 -2.243256e-001 1.254095e+002
583750000 -1.612508e+000 -1.740948e+002 -5.019283e+001 1.561606e+002 -5.027638e+001 1.517459e+002 -2.226821e-001 1.251362e+002
584375000 -1.634934e+000 -1.745992e+002 -5.059605e+001 1.511658e+002 -4.983830e+001 1.507724e+002 -2.264151e-001 1.249471e+002
585000000 -1.648196e+000 -1.751126e+002 -4.962558e+001 1.518286e+002 -5.063120e+001 1.524870e+002 -2.231969e-001 1.247486e+002
585625000 -1.689472e+000 -1.755320e+002 -5.040203e+001 1.503036e+002 -5.000489e+001 1.515052e+002 -2.098673e-001 1.246029e+002
586250000 -1.702242e+000 -1.760373e+002 -4.941021e+001 1.473439e+002 -4.963430e+001 1.462581e+002 -2.073304e-001 1.244805e+002
586875000 -1.723736e+000 -1.765638e+002 -5.068932e+001 1.450979e+002 -5.031381e+001 1.459666e+002 -2.016581e-001 1.243178e+002
587500000 -1.758253e+000 -1.769998e+002 -4.931713e+001 1.449881e+002 -4.981000e+001 1.473244e+002 -1.950869e-001 1.241392e+002
588125000 -1.782592e+000 -1.774343e+002 -5.000261e+001 1.453227e+002 -4.995563e+001 1.450196e+002 -1.960705e-001 1.240523e+002
588750000 -1.803725e+000 -1.778427e+002 -5.006698e+001 1.392930e+002 -5.097847e+001 1.437665e+002 -1.903416e-001 1.240463e+002
589375000 -1.829508e+000 -1.782670e+002 -5.019293e+001 1.387200e+002 -4.942789e+001 1.394995e+002 -1.716199e-001 1.239428e+002
590000000 -1.864862e+000 -1.786285e+002 -4.954878e+001 1.366811e+002 -4.975030e+001 1.417935e+002 -1.729821e-001 1.239215e+002
590625000 -1.890676e+000 -1.789071e+002 -4.966942e+001 1.368339e+002 -4.953061e+001 1.363689e+002 -1.668318e-001 1.238789e+002
591250000 -1.916675e+000 -1.792887e+002 -4.989130e+001 1.326152e+002 -4.935957e+001 1.375408e+002 -1.652030e-001 1.238789e+002
591875000 -1.954494e+000 -1.794672e+002 -4.960085e+001 1.353623e+002 -4.977177e+001 1.351289e+002 -1.608146e-001 1.239876e+002
592500000 -1.964653e+000 -1.797337e+002 -4.985963e+001 1.285728e+002 -4.931912e+001 1.312275e+002 -1.607858e-001 1.240057e+002
593125000 -1.983261e+000 -1.799639e+002 -4.896519e+001 1.301737e+002 -4.905700e+001 1.281588e+002 -1.599945e-001 1.240985e+002
593750000 -1.988371e+000 1.797814e+002 -4.953576e+001 1.259015e+002 -4.892416e+001 1.276804e+002 -1.472747e-001 1.241787e+002
594375000 -1.976262e+000 1.795405e+002 -4.939927e+001 1.254401e+002 -4.909330e+001 1.254339e+002 -1.454593e-001 1.241929e+002
595000000 -1.980760e+000 1.791730e+002 -4.989723e+001 1.264622e+002 -4.960241e+001 1.263334e+002 -1.600118e-001 1.243153e+002
