!Agilent Technologies,E8364B,US42250235,A.06.04.32
!Agilent E8364B: A.06.04.32
!Date: Friday, January 15, 2021 16:15:31
!Correction: S11(Full 2 Port(1,2)) S21(Full 2 Port(1,2)) S12(Full 2 Port(1,2)) S22(Full 2 Port(1,2)) 
!S2P File: Measurements: S11, S21, S12, S22:
# Hz S  dB   R 50
500000000 -1.189507e-001 -1.294424e+002 -6.452714e+001 1.573278e+002 -6.018647e+001 1.634367e+002 -1.591544e-001 1.360393e+002
500625000 -1.229867e-001 -1.297237e+002 -6.128583e+001 1.776367e+002 -6.272087e+001 1.723173e+002 -1.629231e-001 1.360526e+002
501250000 -1.343374e-001 -1.298948e+002 -6.022663e+001 1.586479e+002 -6.118353e+001 1.536272e+002 -1.633445e-001 1.359556e+002
501875000 -1.253254e-001 -1.301967e+002 -6.220675e+001 1.549032e+002 -6.015495e+001 1.452594e+002 -1.593651e-001 1.358599e+002
502500000 -1.248397e-001 -1.304732e+002 -6.148875e+001 1.539456e+002 -6.066919e+001 1.567721e+002 -1.579368e-001 1.358565e+002
503125000 -1.414081e-001 -1.307505e+002 -6.172169e+001 1.547976e+002 -6.218526e+001 1.563352e+002 -1.598528e-001 1.357331e+002
503750000 -1.297257e-001 -1.309478e+002 -6.121183e+001 1.575165e+002 -6.041998e+001 1.554550e+002 -1.548205e-001 1.355821e+002
504375000 -1.411265e-001 -1.311968e+002 -6.167414e+001 1.563577e+002 -6.170257e+001 1.606101e+002 -1.716691e-001 1.355650e+002
505000000 -1.434745e-001 -1.314881e+002 -6.494395e+001 1.570269e+002 -5.970316e+001 1.534711e+002 -1.817966e-001 1.354957e+002
505625000 -1.370317e-001 -1.317168e+002 -6.116315e+001 1.534798e+002 -5.931773e+001 1.592308e+002 -1.702232e-001 1.353437e+002
506250000 -1.435517e-001 -1.319953e+002 -5.920825e+001 1.580937e+002 -6.046716e+001 1.673102e+002 -1.853745e-001 1.351320e+002
506875000 -1.368556e-001 -1.322549e+002 -6.093717e+001 1.466404e+002 -5.780213e+001 1.604005e+002 -1.847503e-001 1.349842e+002
507500000 -1.466293e-001 -1.325010e+002 -5.989711e+001 1.474140e+002 -6.059270e+001 1.441343e+002 -1.861303e-001 1.347809e+002
508125000 -1.522059e-001 -1.327707e+002 -6.020251e+001 1.514349e+002 -6.019461e+001 1.544899e+002 -1.861108e-001 1.346111e+002
508750000 -1.540649e-001 -1.330098e+002 -5.994316e+001 1.426290e+002 -5.871982e+001 1.563283e+002 -1.898905e-001 1.343777e+002
509375000 -1.513304e-001 -1.333070e+002 -6.105088e+001 1.472326e+002 -6.027308e+001 1.418177e+002 -1.842773e-001 1.342433e+002
510000000 -1.531787e-001 -1.335869e+002 -6.039914e+001 1.420211e+002 -5.819205e+001 1.424689e+002 -1.939977e-001 1.339950e+002
510625000 -1.643622e-001 -1.338179e+002 -5.859011e+001 1.564453e+002 -6.011684e+001 1.383367e+002 -1.807139e-001 1.338729e+002
511250000 -1.653165e-001 -1.340759e+002 -5.752858e+001 1.521179e+002 -6.078175e+001 1.329407e+002 -1.962666e-001 1.335283e+002
511875000 -1.620303e-001 -1.343520e+002 -6.057507e+001 1.376579e+002 -5.724400e+001 1.441271e+002 -1.804811e-001 1.333604e+002
512500000 -1.698670e-001 -1.346894e+002 -5.949540e+001 1.371770e+002 -5.893417e+001 1.372870e+002 -1.872741e-001 1.331667e+002
513125000 -1.832690e-001 -1.349741e+002 -5.914167e+001 1.411072e+002 -6.110980e+001 1.512814e+002 -1.891602e-001 1.330573e+002
513750000 -1.874034e-001 -1.352552e+002 -6.083868e+001 1.340245e+002 -5.797877e+001 1.360497e+002 -1.871366e-001 1.328679e+002
514375000 -1.925241e-001 -1.355773e+002 -5.856200e+001 1.460336e+002 -5.944909e+001 1.252996e+002 -1.773645e-001 1.326074e+002
515000000 -1.953059e-001 -1.358210e+002 -5.976656e+001 1.397217e+002 -6.068132e+001 1.470552e+002 -1.692204e-001 1.325444e+002
515625000 -2.175953e-001 -1.362526e+002 -5.739205e+001 1.356101e+002 -5.907757e+001 1.325783e+002 -1.707845e-001 1.323856e+002
516250000 -2.209314e-001 -1.365795e+002 -5.944423e+001 1.265372e+002 -5.853850e+001 1.423609e+002 -1.695248e-001 1.323397e+002
516875000 -2.304711e-001 -1.368505e+002 -5.808892e+001 1.415760e+002 -5.731363e+001 1.316578e+002 -1.561323e-001 1.323108e+002
517500000 -2.348332e-001 -1.371891e+002 -5.800278e+001 1.349594e+002 -5.728263e+001 1.252154e+002 -1.656474e-001 1.321839e+002
518125000 -2.420930e-001 -1.375250e+002 -5.832756e+001 1.323706e+002 -5.960261e+001 1.256640e+002 -1.606482e-001 1.321407e+002
518750000 -2.533919e-001 -1.378568e+002 -5.989681e+001 1.220539e+002 -5.835262e+001 1.262273e+002 -1.571846e-001 1.321590e+002
519375000 -2.608193e-001 -1.381438e+002 -5.776476e+001 1.268843e+002 -5.885918e+001 1.246407e+002 -1.473517e-001 1.321254e+002
520000000 -2.640796e-001 -1.384906e+002 -5.715118e+001 1.220603e+002 -5.747305e+001 1.290697e+002 -1.450886e-001 1.320860e+002
520625000 -2.666252e-001 -1.388014e+002 -5.862268e+001 1.336708e+002 -5.816628e+001 1.196970e+002 -1.462911e-001 1.320953e+002
521250000 -2.763243e-001 -1.391559e+002 -5.937833e+001 1.179926e+002 -5.794651e+001 1.213353e+002 -1.467734e-001 1.321088e+002
521875000 -2.773485e-001 -1.395221e+002 -5.911399e+001 1.127388e+002 -5.770911e+001 1.274650e+002 -1.366841e-001 1.321957e+002
522500000 -2.768613e-001 -1.398236e+002 -5.732169e+001 1.212026e+002 -5.668972e+001 1.163781e+002 -1.375354e-001 1.321650e+002
523125000 -2.928000e-001 -1.402068e+002 -5.707336e+001 1.258536e+002 -5.750337e+001 1.187067e+002 -1.415925e-001 1.321911e+002
523750000 -2.872761e-001 -1.405459e+002 -5.867186e+001 1.178622e+002 -5.663701e+001 1.206052e+002 -1.486798e-001 1.322658e+002
524375000 -3.052585e-001 -1.408737e+002 -5.813703e+001 1.186738e+002 -5.727050e+001 1.253531e+002 -1.400770e-001 1.322344e+002
525000000 -3.018424e-001 -1.412355e+002 -5.720322e+001 1.198601e+002 -5.696966e+001 1.138643e+002 -1.480712e-001 1.322918e+002
525625000 -3.192272e-001 -1.415111e+002 -5.695833e+001 1.111888e+002 -5.732945e+001 1.084315e+002 -1.543004e-001 1.322199e+002
526250000 -3.189942e-001 -1.418319e+002 -5.589848e+001 1.137727e+002 -5.702896e+001 1.249114e+002 -1.502146e-001 1.322305e+002
526875000 -3.216451e-001 -1.421760e+002 -5.606595e+001 1.233077e+002 -5.688333e+001 1.028289e+002 -1.397827e-001 1.322935e+002
527500000 -3.308437e-001 -1.424926e+002 -5.647283e+001 1.127642e+002 -5.588223e+001 1.146623e+002 -1.499097e-001 1.322522e+002
528125000 -3.513089e-001 -1.428582e+002 -5.554402e+001 1.000651e+002 -5.510637e+001 1.060576e+002 -1.587797e-001 1.323425e+002
528750000 -3.451718e-001 -1.431780e+002 -5.762397e+001 1.118043e+002 -5.629445e+001 1.048976e+002 -1.483768e-001 1.324064e+002
529375000 -3.537883e-001 -1.435028e+002 -5.699416e+001 1.082674e+002 -5.673963e+001 1.096410e+002 -1.479970e-001 1.323667e+002
530000000 -3.676338e-001 -1.439014e+002 -5.571123e+001 1.000197e+002 -5.664484e+001 1.043376e+002 -1.503798e-001 1.323893e+002
530625000 -3.712173e-001 -1.441911e+002 -5.568599e+001 1.013052e+002 -5.619087e+001 9.893912e+001 -1.553752e-001 1.323789e+002
531250000 -3.801826e-001 -1.445640e+002 -5.491446e+001 9.970137e+001 -5.631463e+001 1.016471e+002 -1.486389e-001 1.324001e+002
531875000 -4.051073e-001 -1.448859e+002 -5.532586e+001 1.035251e+002 -5.594370e+001 1.019211e+002 -1.565259e-001 1.323301e+002
532500000 -4.024732e-001 -1.451857e+002 -5.572547e+001 9.210725e+001 -5.561003e+001 9.586201e+001 -1.549709e-001 1.323591e+002
533125000 -4.060819e-001 -1.455921e+002 -5.640482e+001 9.823410e+001 -5.667340e+001 9.794976e+001 -1.583630e-001 1.324342e+002
533750000 -4.181433e-001 -1.459667e+002 -5.616673e+001 9.834808e+001 -5.525184e+001 9.894930e+001 -1.620155e-001 1.323624e+002
534375000 -4.301182e-001 -1.463103e+002 -5.582805e+001 9.745721e+001 -5.565320e+001 9.502419e+001 -1.561877e-001 1.322474e+002
535000000 -4.368599e-001 -1.466655e+002 -5.648397e+001 8.961800e+001 -5.688231e+001 1.016962e+002 -1.680903e-001 1.322822e+002
535625000 -4.435153e-001 -1.470467e+002 -5.455297e+001 1.013028e+002 -5.529191e+001 9.365730e+001 -1.614830e-001 1.322177e+002
536250000 -4.574930e-001 -1.473923e+002 -5.587091e+001 9.533124e+001 -5.444060e+001 8.910190e+001 -1.517311e-001 1.320720e+002
536875000 -4.677377e-001 -1.478397e+002 -5.546254e+001 8.637412e+001 -5.545016e+001 9.265044e+001 -1.619594e-001 1.320871e+002
537500000 -4.780346e-001 -1.481627e+002 -5.516125e+001 9.047917e+001 -5.523163e+001 8.301614e+001 -1.633217e-001 1.320099e+002
538125000 -4.867125e-001 -1.485136e+002 -5.491845e+001 9.121782e+001 -5.424086e+001 9.069785e+001 -1.723215e-001 1.318977e+002
538750000 -5.072576e-001 -1.488681e+002 -5.458784e+001 8.062899e+001 -5.484981e+001 8.512613e+001 -1.741193e-001 1.318533e+002
539375000 -5.241221e-001 -1.492108e+002 -5.449585e+001 8.775586e+001 -5.390750e+001 8.262949e+001 -1.673399e-001 1.317736e+002
540000000 -5.303704e-001 -1.495279e+002 -5.426338e+001 8.377551e+001 -5.572989e+001 8.751250e+001 -1.714889e-001 1.316306e+002
540625000 -5.369065e-001 -1.499380e+002 -5.368811e+001 8.213564e+001 -5.482569e+001 8.349709e+001 -1.794682e-001 1.315769e+002
541250000 -5.453030e-001 -1.501844e+002 -5.377596e+001 8.126762e+001 -5.505983e+001 7.932100e+001 -1.635236e-001 1.315214e+002
541875000 -5.679187e-001 -1.505487e+002 -5.474784e+001 7.634412e+001 -5.418061e+001 8.352836e+001 -1.711399e-001 1.313722e+002
542500000 -5.781010e-001 -1.509012e+002 -5.445784e+001 7.620843e+001 -5.516231e+001 7.348974e+001 -1.691416e-001 1.313881e+002
543125000 -5.805640e-001 -1.512914e+002 -5.341013e+001 7.591354e+001 -5.398996e+001 7.544960e+001 -1.673882e-001 1.313042e+002
543750000 -5.929565e-001 -1.515926e+002 -5.307507e+001 7.332955e+001 -5.467775e+001 6.884232e+001 -1.717564e-001 1.312248e+002
544375000 -6.120509e-001 -1.519109e+002 -5.429656e+001 7.411401e+001 -5.414026e+001 7.264487e+001 -1.664844e-001 1.311904e+002
545000000 -6.112213e-001 -1.522583e+002 -5.469759e+001 7.913155e+001 -5.342625e+001 7.018291e+001 -1.660887e-001 1.311458e+002
545625000 -6.329694e-001 -1.526429e+002 -5.387930e+001 7.056470e+001 -5.416131e+001 7.272076e+001 -1.610439e-001 1.310784e+002
546250000 -6.585447e-001 -1.529299e+002 -5.399086e+001 6.905219e+001 -5.326977e+001 7.173637e+001 -1.737548e-001 1.309690e+002
546875000 -6.738667e-001 -1.533579e+002 -5.317768e+001 6.562964e+001 -5.350249e+001 6.990511e+001 -1.711130e-001 1.310156e+002
547500000 -6.893107e-001 -1.536426e+002 -5.326831e+001 6.851445e+001 -5.313404e+001 6.688787e+001 -1.799830e-001 1.309086e+002
548125000 -7.195191e-001 -1.539931e+002 -5.262881e+001 7.361786e+001 -5.321845e+001 6.440340e+001 -1.783347e-001 1.308252e+002
548750000 -7.405566e-001 -1.543662e+002 -5.278728e+001 5.968973e+001 -5.285917e+001 6.650445e+001 -1.803354e-001 1.307877e+002
549375000 -7.586996e-001 -1.546388e+002 -5.421393e+001 6.589606e+001 -5.288976e+001 5.829778e+001 -1.875345e-001 1.304945e+002
550000000 -7.745467e-001 -1.548828e+002 -5.204779e+001 5.951995e+001 -5.250457e+001 5.873310e+001 -1.873750e-001 1.305101e+002
550625000 -7.913768e-001 -1.551903e+002 -5.266844e+001 5.813787e+001 -5.175910e+001 5.728008e+001 -1.855410e-001 1.303168e+002
551250000 -8.059282e-001 -1.554805e+002 -5.249064e+001 5.613238e+001 -5.241410e+001 6.179924e+001 -1.967541e-001 1.302253e+002
551875000 -8.232912e-001 -1.557354e+002 -5.221013e+001 5.786710e+001 -5.295073e+001 5.990706e+001 -1.864973e-001 1.300654e+002
552500000 -8.300374e-001 -1.560720e+002 -5.235190e+001 5.348329e+001 -5.291468e+001 5.230871e+001 -1.877942e-001 1.299330e+002
553125000 -8.408657e-001 -1.563685e+002 -5.287027e+001 4.994444e+001 -5.161549e+001 5.540136e+001 -1.889031e-001 1.297380e+002
553750000 -8.560182e-001 -1.567395e+002 -5.242719e+001 5.111154e+001 -5.334037e+001 5.031079e+001 -1.936192e-001 1.295446e+002
554375000 -8.623708e-001 -1.570280e+002 -5.223718e+001 5.068319e+001 -5.201202e+001 4.523375e+001 -1.886290e-001 1.294473e+002
555000000 -8.786342e-001 -1.573289e+002 -5.232283e+001 5.259404e+001 -5.258127e+001 4.583883e+001 -1.928506e-001 1.293312e+002
555625000 -8.917118e-001 -1.576246e+002 -5.137957e+001 3.995516e+001 -5.225329e+001 4.202687e+001 -1.800236e-001 1.292695e+002
556250000 -9.017093e-001 -1.579183e+002 -5.220119e+001 3.969564e+001 -5.265376e+001 3.987239e+001 -1.863949e-001 1.291145e+002
556875000 -9.075485e-001 -1.582853e+002 -5.257493e+001 4.294366e+001 -5.195995e+001 3.730059e+001 -1.939934e-001 1.290377e+002
557500000 -9.277856e-001 -1.585434e+002 -5.213405e+001 3.432867e+001 -5.154852e+001 4.630555e+001 -1.764541e-001 1.289935e+002
558125000 -9.392114e-001 -1.588813e+002 -5.181129e+001 3.551036e+001 -5.176463e+001 4.128957e+001 -1.758482e-001 1.289332e+002
558750000 -9.506792e-001 -1.591643e+002 -5.201596e+001 3.679568e+001 -5.282035e+001 3.752732e+001 -1.697937e-001 1.288997e+002
559375000 -9.699014e-001 -1.595199e+002 -5.160337e+001 3.395895e+001 -5.248872e+001 3.425331e+001 -1.573476e-001 1.288778e+002
560000000 -9.897770e-001 -1.597905e+002 -5.167869e+001 4.101917e+001 -5.193786e+001 3.703136e+001 -1.420126e-001 1.288378e+002
560625000 -1.000781e+000 -1.600591e+002 -5.169220e+001 4.018345e+001 -5.143917e+001 3.835252e+001 -1.493042e-001 1.289399e+002
561250000 -1.015352e+000 -1.603769e+002 -5.135501e+001 3.429621e+001 -5.170753e+001 3.248527e+001 -1.510217e-001 1.289515e+002
561875000 -1.030081e+000 -1.607158e+002 -5.175921e+001 3.308801e+001 -5.194710e+001 2.965946e+001 -1.548216e-001 1.289917e+002
562500000 -1.049381e+000 -1.609759e+002 -5.119355e+001 3.225368e+001 -5.135616e+001 3.200849e+001 -1.439012e-001 1.290838e+002
563125000 -1.062489e+000 -1.612704e+002 -5.129842e+001 2.870805e+001 -5.178845e+001 2.988329e+001 -1.442379e-001 1.291168e+002
563750000 -1.080315e+000 -1.616213e+002 -5.170601e+001 3.062852e+001 -5.131533e+001 2.413446e+001 -1.555503e-001 1.290926e+002
564375000 -1.098058e+000 -1.619744e+002 -5.078646e+001 2.570065e+001 -5.101328e+001 2.722593e+001 -1.432756e-001 1.292011e+002
565000000 -1.118955e+000 -1.623372e+002 -5.085716e+001 2.416032e+001 -5.114179e+001 2.511413e+001 -1.555476e-001 1.291730e+002
565625000 -1.144784e+000 -1.627361e+002 -5.112032e+001 2.363671e+001 -5.115375e+001 2.384459e+001 -1.598738e-001 1.292307e+002
566250000 -1.169014e+000 -1.631414e+002 -5.111388e+001 2.635708e+001 -5.069119e+001 2.157432e+001 -1.651058e-001 1.291646e+002
566875000 -1.203914e+000 -1.634920e+002 -5.011454e+001 2.357354e+001 -5.057415e+001 1.780617e+001 -1.706203e-001 1.291522e+002
567500000 -1.235915e+000 -1.638840e+002 -5.086687e+001 1.883989e+001 -5.064784e+001 1.893142e+001 -1.747287e-001 1.291296e+002
568125000 -1.269212e+000 -1.641468e+002 -5.079127e+001 1.539546e+001 -5.046712e+001 1.770394e+001 -1.736448e-001 1.290801e+002
568750000 -1.304978e+000 -1.645345e+002 -5.124079e+001 1.866289e+001 -5.110194e+001 1.750984e+001 -1.776775e-001 1.290037e+002
569375000 -1.330886e+000 -1.648535e+002 -5.036520e+001 1.650862e+001 -5.048088e+001 1.683479e+001 -1.757634e-001 1.290094e+002
570000000 -1.353784e+000 -1.651868e+002 -4.971435e+001 9.136014e+000 -5.070971e+001 1.359711e+001 -1.737120e-001 1.288374e+002
570625000 -1.376137e+000 -1.654440e+002 -5.034595e+001 9.286890e+000 -4.989692e+001 1.292779e+001 -1.737742e-001 1.288851e+002
571250000 -1.396435e+000 -1.657274e+002 -5.021743e+001 1.208597e+001 -5.069008e+001 8.692379e+000 -1.817347e-001 1.288183e+002
571875000 -1.415808e+000 -1.660289e+002 -5.005143e+001 8.235469e+000 -5.039944e+001 4.863715e+000 -1.761615e-001 1.287067e+002
572500000 -1.425119e+000 -1.663474e+002 -5.007715e+001 2.925710e+000 -5.119646e+001 3.207263e+000 -1.821374e-001 1.286662e+002
573125000 -1.442754e+000 -1.666251e+002 -4.999589e+001 9.261206e+000 -5.010495e+001 7.150156e+000 -1.670023e-001 1.286232e+002
573750000 -1.440907e+000 -1.669203e+002 -5.003614e+001 -4.966032e-001 -5.016965e+001 1.961479e+000 -1.752264e-001 1.285589e+002
574375000 -1.446575e+000 -1.672104e+002 -4.981986e+001 1.077110e+000 -4.986727e+001 -3.499957e-001 -1.794209e-001 1.285787e+002
575000000 -1.454320e+000 -1.676222e+002 -4.982327e+001 -5.359370e+000 -4.968032e+001 -3.783358e+000 -1.763158e-001 1.284427e+002
575625000 -1.466324e+000 -1.679508e+002 -4.976564e+001 -2.787546e+000 -5.063073e+001 -3.188403e+000 -1.803396e-001 1.284460e+002
576250000 -1.468467e+000 -1.682872e+002 -5.070267e+001 -3.224900e+000 -4.960672e+001 -3.313060e+000 -1.870176e-001 1.282786e+002
576875000 -1.478308e+000 -1.686450e+002 -4.998373e+001 -6.845124e+000 -5.020965e+001 -5.767077e+000 -1.857422e-001 1.282475e+002
577500000 -1.489726e+000 -1.689591e+002 -4.927009e+001 -9.030085e+000 -5.028951e+001 -8.903174e+000 -1.949202e-001 1.280930e+002
578125000 -1.493030e+000 -1.693124e+002 -4.941595e+001 -1.203223e+001 -4.993999e+001 -8.395357e+000 -1.911067e-001 1.280395e+002
578750000 -1.504081e+000 -1.697278e+002 -4.976131e+001 -1.090954e+001 -4.956204e+001 -1.056325e+001 -1.927820e-001 1.278874e+002
579375000 -1.500670e+000 -1.700695e+002 -4.978786e+001 -1.470452e+001 -4.932537e+001 -1.516289e+001 -1.955910e-001 1.276834e+002
580000000 -1.505458e+000 -1.704549e+002 -4.980188e+001 -1.063811e+001 -4.994736e+001 -1.576212e+001 -2.022004e-001 1.275951e+002
580625000 -1.511656e+000 -1.708934e+002 -4.946574e+001 -1.420319e+001 -5.002967e+001 -1.490631e+001 -2.045978e-001 1.273562e+002
581250000 -1.522804e+000 -1.713247e+002 -4.992954e+001 -1.352438e+001 -5.007324e+001 -1.240116e+001 -2.084971e-001 1.271896e+002
581875000 -1.532604e+000 -1.718073e+002 -4.966536e+001 -1.623062e+001 -4.982895e+001 -1.504379e+001 -2.092556e-001 1.269835e+002
582500000 -1.549728e+000 -1.722191e+002 -5.051559e+001 -2.031788e+001 -5.005845e+001 -1.977223e+001 -2.181158e-001 1.267663e+002
583125000 -1.563966e+000 -1.727674e+002 -4.961984e+001 -2.027418e+001 -5.027874e+001 -1.711753e+001 -2.194424e-001 1.265368e+002
583750000 -1.576204e+000 -1.732349e+002 -4.974816e+001 -2.425790e+001 -4.992208e+001 -1.888169e+001 -2.242829e-001 1.262430e+002
584375000 -1.596200e+000 -1.737206e+002 -4.951158e+001 -2.287949e+001 -4.962934e+001 -1.896966e+001 -2.065981e-001 1.260620e+002
585000000 -1.600092e+000 -1.742400e+002 -5.005857e+001 -2.424241e+001 -4.964069e+001 -1.881397e+001 -2.103305e-001 1.258287e+002
585625000 -1.629653e+000 -1.746706e+002 -4.971795e+001 -2.767414e+001 -4.925017e+001 -2.474593e+001 -2.015163e-001 1.256588e+002
586250000 -1.635498e+000 -1.751650e+002 -4.935947e+001 -2.135445e+001 -5.009079e+001 -2.265257e+001 -1.978680e-001 1.256041e+002
586875000 -1.651958e+000 -1.756932e+002 -4.933529e+001 -2.653138e+001 -4.958279e+001 -2.575816e+001 -2.017824e-001 1.253764e+002
587500000 -1.667839e+000 -1.761838e+002 -4.932706e+001 -2.394103e+001 -4.966933e+001 -2.311023e+001 -1.971679e-001 1.252198e+002
588125000 -1.683061e+000 -1.766385e+002 -4.942184e+001 -3.178085e+001 -4.904744e+001 -2.797010e+001 -1.842063e-001 1.251340e+002
588750000 -1.699612e+000 -1.771024e+002 -4.950134e+001 -2.680364e+001 -4.954169e+001 -2.852205e+001 -1.895042e-001 1.250731e+002
589375000 -1.715325e+000 -1.775418e+002 -4.925998e+001 -2.917881e+001 -4.929389e+001 -2.962243e+001 -1.760509e-001 1.249318e+002
590000000 -1.737817e+000 -1.780030e+002 -4.854885e+001 -2.981612e+001 -4.949197e+001 -2.836449e+001 -1.736108e-001 1.249856e+002
590625000 -1.764696e+000 -1.783857e+002 -4.881697e+001 -3.492253e+001 -4.918038e+001 -3.476608e+001 -1.591920e-001 1.249675e+002
591250000 -1.784457e+000 -1.788030e+002 -4.874565e+001 -3.498425e+001 -4.894804e+001 -3.179657e+001 -1.640339e-001 1.249601e+002
591875000 -1.818007e+000 -1.790956e+002 -4.909969e+001 -3.447814e+001 -4.946197e+001 -3.583804e+001 -1.663892e-001 1.250138e+002
592500000 -1.835055e+000 -1.794774e+002 -4.871463e+001 -3.797851e+001 -4.875073e+001 -3.765731e+001 -1.565353e-001 1.250751e+002
593125000 -1.855640e+000 -1.797478e+002 -4.890057e+001 -3.891428e+001 -4.849376e+001 -3.910728e+001 -1.574464e-001 1.251554e+002
593750000 -1.867516e+000 1.799372e+002 -4.837057e+001 -3.842792e+001 -4.869207e+001 -4.296956e+001 -1.457602e-001 1.252395e+002
594375000 -1.866352e+000 1.796694e+002 -4.891098e+001 -4.106895e+001 -4.846328e+001 -4.564540e+001 -1.489829e-001 1.253286e+002
595000000 -1.876892e+000 1.793498e+002 -4.897816e+001 -4.480280e+001 -4.861245e+001 -4.518103e+001 -1.643104e-001 1.253852e+002
595625000 -1.877677e+000 1.789435e+002 -4.849546e+001 -4.474023e+001 -4.864018e+001 -4.363046e+001 -1.562500e-001 1.254320e+002
