!Agilent Technologies,E8364B,US42250235,A.06.04.32
!Agilent E8364B: A.06.04.32
!Date: Friday, January 15, 2021 16:19:05
!Correction: S11(Full 2 Port(1,2)) S21(Full 2 Port(1,2)) S12(Full 2 Port(1,2)) S22(Full 2 Port(1,2)) 
!S2P File: Measurements: S11, S21, S12, S22:
# Hz S  dB   R 50
500000000 -1.275304e-001 -1.295439e+002 -6.316868e+001 2.005199e+001 -6.187976e+001 2.011702e+001 -1.577077e-001 1.351256e+002
500625000 -1.295506e-001 -1.297932e+002 -5.965780e+001 2.102818e+001 -6.128191e+001 1.332322e+001 -1.632848e-001 1.351039e+002
501250000 -1.367922e-001 -1.299901e+002 -6.363950e+001 2.321814e+001 -6.186390e+001 1.762297e+001 -1.649464e-001 1.350682e+002
501875000 -1.384236e-001 -1.302286e+002 -6.364783e+001 2.322890e+001 -6.071818e+001 8.048095e+000 -1.512644e-001 1.349650e+002
502500000 -1.341017e-001 -1.305219e+002 -5.896012e+001 2.137668e+001 -6.176241e+001 1.771698e+000 -1.596833e-001 1.349699e+002
503125000 -1.500859e-001 -1.308089e+002 -6.529076e+001 2.156859e+001 -6.041363e+001 1.572217e+001 -1.625200e-001 1.348110e+002
503750000 -1.484558e-001 -1.310203e+002 -6.345349e+001 6.584801e+000 -6.175604e+001 -3.854203e+000 -1.654575e-001 1.347263e+002
504375000 -1.497503e-001 -1.313452e+002 -6.089857e+001 -4.690425e-001 -5.897997e+001 5.382236e+000 -1.797017e-001 1.346180e+002
505000000 -1.544659e-001 -1.315633e+002 -6.100686e+001 2.048325e+001 -6.264021e+001 -5.900021e+000 -1.827188e-001 1.345855e+002
505625000 -1.463142e-001 -1.318018e+002 -6.030030e+001 1.532265e+001 -6.325390e+001 -1.561020e+001 -1.766391e-001 1.344271e+002
506250000 -1.571052e-001 -1.320606e+002 -6.350880e+001 1.813570e+000 -6.088290e+001 1.130268e+001 -1.877522e-001 1.342211e+002
506875000 -1.529512e-001 -1.323108e+002 -6.294921e+001 1.035185e+000 -6.183285e+001 -1.681138e+001 -1.787900e-001 1.340340e+002
507500000 -1.609624e-001 -1.325580e+002 -5.925184e+001 1.020840e+000 -6.170482e+001 -9.488158e-001 -1.808583e-001 1.338456e+002
508125000 -1.636436e-001 -1.328065e+002 -5.971341e+001 1.168778e+001 -5.902956e+001 -5.129965e+000 -1.890658e-001 1.336728e+002
508750000 -1.580837e-001 -1.330275e+002 -5.995761e+001 1.004738e+001 -5.928195e+001 -9.962616e+000 -1.909298e-001 1.334658e+002
509375000 -1.675877e-001 -1.333467e+002 -6.032299e+001 -1.963302e+001 -5.833856e+001 -1.162360e+001 -1.810120e-001 1.333011e+002
510000000 -1.714008e-001 -1.335965e+002 -6.043774e+001 6.963085e-002 -6.020240e+001 -1.353773e+001 -1.995580e-001 1.330845e+002
510625000 -1.803245e-001 -1.338309e+002 -6.159685e+001 -8.796259e+000 -6.094783e+001 3.923630e-001 -1.840571e-001 1.329043e+002
511250000 -1.824279e-001 -1.340713e+002 -6.021616e+001 -1.286770e+001 -5.919167e+001 -2.475265e+001 -1.981808e-001 1.326309e+002
511875000 -1.866911e-001 -1.343997e+002 -5.824231e+001 -8.172398e+000 -5.894655e+001 -1.815192e+001 -1.888090e-001 1.324515e+002
512500000 -1.857893e-001 -1.346459e+002 -6.007286e+001 -1.822566e+001 -6.104469e+001 -1.438236e+001 -1.855407e-001 1.322019e+002
513125000 -1.949658e-001 -1.349582e+002 -6.017709e+001 -5.579671e+000 -5.990002e+001 -9.395658e+000 -1.921973e-001 1.321182e+002
513750000 -2.025611e-001 -1.352296e+002 -5.816906e+001 -8.392696e+000 -5.770074e+001 -1.675176e+001 -1.921529e-001 1.319253e+002
514375000 -2.195709e-001 -1.355460e+002 -6.304143e+001 -9.451427e+000 -5.975323e+001 -2.999405e+001 -1.829405e-001 1.317186e+002
515000000 -2.207375e-001 -1.357930e+002 -6.085338e+001 -1.833102e+001 -6.050674e+001 -2.169354e+001 -1.712785e-001 1.316112e+002
515625000 -2.260211e-001 -1.361685e+002 -5.965477e+001 -1.925116e+001 -6.080539e+001 -2.316433e+001 -1.680541e-001 1.314660e+002
516250000 -2.342735e-001 -1.364413e+002 -5.980649e+001 -1.827824e+001 -5.953667e+001 -3.414377e+001 -1.709943e-001 1.313503e+002
516875000 -2.508227e-001 -1.367960e+002 -5.907003e+001 -1.688544e+001 -6.056844e+001 -2.909165e+001 -1.663051e-001 1.313112e+002
517500000 -2.488310e-001 -1.371377e+002 -5.905873e+001 -2.248013e+001 -5.816821e+001 -2.059791e+001 -1.676978e-001 1.312954e+002
518125000 -2.550827e-001 -1.374516e+002 -5.882082e+001 -2.719282e+001 -5.775560e+001 -1.847415e+001 -1.590941e-001 1.311507e+002
518750000 -2.644259e-001 -1.377905e+002 -5.901376e+001 -2.730801e+001 -5.868234e+001 -1.667161e+001 -1.593533e-001 1.312095e+002
519375000 -2.777125e-001 -1.380312e+002 -5.786020e+001 -2.927957e+001 -5.882211e+001 -3.559348e+001 -1.481453e-001 1.311554e+002
520000000 -2.726481e-001 -1.384209e+002 -5.874478e+001 -2.340285e+001 -5.662355e+001 -3.223779e+001 -1.552580e-001 1.311514e+002
520625000 -2.835188e-001 -1.387775e+002 -5.817328e+001 -3.342832e+001 -5.836678e+001 -2.806257e+001 -1.379316e-001 1.311186e+002
521250000 -2.889441e-001 -1.390499e+002 -5.868808e+001 -3.574559e+001 -6.066449e+001 -2.689272e+001 -1.460675e-001 1.311799e+002
521875000 -2.880858e-001 -1.394518e+002 -5.702237e+001 -3.894845e+001 -5.762817e+001 -3.781441e+001 -1.354815e-001 1.312383e+002
522500000 -2.869210e-001 -1.397552e+002 -5.757640e+001 -4.128214e+001 -5.926149e+001 -3.893058e+001 -1.434477e-001 1.312259e+002
523125000 -3.087805e-001 -1.401227e+002 -5.787379e+001 -3.945758e+001 -5.853245e+001 -4.225845e+001 -1.410797e-001 1.312585e+002
523750000 -2.968186e-001 -1.404617e+002 -5.628300e+001 -4.697132e+001 -5.948974e+001 -3.784281e+001 -1.467432e-001 1.312297e+002
524375000 -3.097937e-001 -1.407796e+002 -5.792086e+001 -3.884478e+001 -5.751445e+001 -4.755630e+001 -1.436682e-001 1.312913e+002
525000000 -3.191747e-001 -1.411244e+002 -5.866238e+001 -5.029060e+001 -5.814018e+001 -4.463379e+001 -1.480599e-001 1.313075e+002
525625000 -3.254266e-001 -1.413989e+002 -5.776425e+001 -3.452968e+001 -5.632385e+001 -4.524001e+001 -1.544406e-001 1.312675e+002
526250000 -3.191377e-001 -1.417287e+002 -5.803162e+001 -4.687886e+001 -5.839272e+001 -4.700180e+001 -1.517414e-001 1.313279e+002
526875000 -3.319701e-001 -1.420819e+002 -5.712680e+001 -4.116800e+001 -5.784957e+001 -5.092039e+001 -1.389240e-001 1.313226e+002
527500000 -3.387027e-001 -1.423912e+002 -5.660688e+001 -5.270028e+001 -5.934460e+001 -4.628050e+001 -1.507218e-001 1.313343e+002
528125000 -3.582154e-001 -1.427238e+002 -5.730278e+001 -5.383271e+001 -5.701581e+001 -4.990579e+001 -1.534499e-001 1.314073e+002
528750000 -3.536791e-001 -1.430269e+002 -5.779480e+001 -5.175537e+001 -5.676421e+001 -5.285770e+001 -1.517145e-001 1.315040e+002
529375000 -3.636372e-001 -1.433698e+002 -5.786378e+001 -5.234897e+001 -5.704762e+001 -5.486072e+001 -1.619618e-001 1.314314e+002
530000000 -3.720173e-001 -1.437184e+002 -5.723706e+001 -5.657752e+001 -5.627134e+001 -5.822044e+001 -1.557222e-001 1.314297e+002
530625000 -3.827342e-001 -1.440201e+002 -5.667188e+001 -5.156318e+001 -5.725297e+001 -5.837308e+001 -1.465793e-001 1.314296e+002
531250000 -3.855587e-001 -1.443801e+002 -5.583010e+001 -6.122185e+001 -5.719799e+001 -6.005854e+001 -1.455020e-001 1.314506e+002
531875000 -4.011255e-001 -1.446779e+002 -5.753983e+001 -6.228068e+001 -5.775754e+001 -7.073479e+001 -1.553829e-001 1.314356e+002
532500000 -4.107372e-001 -1.449805e+002 -5.744268e+001 -6.723633e+001 -5.696157e+001 -6.550313e+001 -1.551646e-001 1.314085e+002
533125000 -4.112804e-001 -1.453966e+002 -5.615713e+001 -6.869199e+001 -5.645751e+001 -6.867823e+001 -1.674361e-001 1.314507e+002
533750000 -4.150835e-001 -1.457748e+002 -5.650335e+001 -7.081227e+001 -5.776426e+001 -7.155970e+001 -1.730052e-001 1.314031e+002
534375000 -4.267671e-001 -1.461290e+002 -5.655716e+001 -5.621572e+001 -5.624849e+001 -6.338316e+001 -1.555400e-001 1.313323e+002
535000000 -4.344250e-001 -1.464376e+002 -5.731494e+001 -6.714435e+001 -5.725544e+001 -6.543481e+001 -1.703911e-001 1.313294e+002
535625000 -4.408274e-001 -1.468732e+002 -5.652782e+001 -6.497086e+001 -5.772251e+001 -7.284083e+001 -1.640518e-001 1.312223e+002
536250000 -4.490582e-001 -1.472039e+002 -5.659794e+001 -7.016261e+001 -5.611558e+001 -5.957064e+001 -1.694519e-001 1.311178e+002
536875000 -4.557076e-001 -1.476068e+002 -5.552468e+001 -6.702345e+001 -5.575968e+001 -7.528392e+001 -1.762551e-001 1.310111e+002
537500000 -4.664703e-001 -1.478951e+002 -5.643725e+001 -7.640675e+001 -5.576650e+001 -7.411505e+001 -1.647773e-001 1.310083e+002
538125000 -4.742437e-001 -1.482889e+002 -5.485455e+001 -7.019268e+001 -5.662386e+001 -7.200071e+001 -1.773168e-001 1.309547e+002
538750000 -4.950459e-001 -1.486037e+002 -5.518646e+001 -7.169543e+001 -5.553648e+001 -7.380077e+001 -1.718125e-001 1.308551e+002
539375000 -5.002831e-001 -1.489816e+002 -5.658131e+001 -8.005876e+001 -5.574149e+001 -8.343456e+001 -1.747514e-001 1.307537e+002
540000000 -5.049883e-001 -1.493451e+002 -5.535900e+001 -7.526186e+001 -5.521601e+001 -8.142793e+001 -1.699663e-001 1.306439e+002
540625000 -5.172199e-001 -1.496924e+002 -5.536121e+001 -7.745643e+001 -5.536349e+001 -8.499888e+001 -1.796868e-001 1.306230e+002
541250000 -5.258967e-001 -1.499947e+002 -5.463869e+001 -7.906833e+001 -5.504128e+001 -8.577894e+001 -1.746356e-001 1.305529e+002
541875000 -5.347004e-001 -1.503105e+002 -5.549007e+001 -8.732748e+001 -5.576934e+001 -9.032626e+001 -1.825911e-001 1.304609e+002
542500000 -5.451555e-001 -1.506859e+002 -5.637826e+001 -9.093092e+001 -5.566761e+001 -8.242786e+001 -1.717277e-001 1.303759e+002
543125000 -5.557180e-001 -1.510231e+002 -5.574564e+001 -8.594372e+001 -5.479121e+001 -9.532262e+001 -1.724787e-001 1.302631e+002
543750000 -5.581235e-001 -1.513709e+002 -5.488630e+001 -8.319404e+001 -5.438670e+001 -9.605691e+001 -1.817167e-001 1.302618e+002
544375000 -5.726485e-001 -1.517412e+002 -5.387440e+001 -9.022742e+001 -5.462083e+001 -9.303629e+001 -1.608766e-001 1.302050e+002
545000000 -5.805429e-001 -1.520061e+002 -5.468557e+001 -9.901633e+001 -5.446370e+001 -9.562981e+001 -1.725426e-001 1.301550e+002
545625000 -5.994810e-001 -1.524084e+002 -5.460889e+001 -9.599214e+001 -5.441676e+001 -9.809914e+001 -1.726131e-001 1.300921e+002
546250000 -6.126123e-001 -1.527485e+002 -5.423528e+001 -9.609632e+001 -5.456775e+001 -9.358914e+001 -1.768165e-001 1.300180e+002
546875000 -6.319548e-001 -1.531260e+002 -5.477689e+001 -9.878284e+001 -5.430304e+001 -9.809184e+001 -1.720984e-001 1.300209e+002
547500000 -6.514321e-001 -1.534645e+002 -5.465695e+001 -9.605029e+001 -5.422268e+001 -9.436520e+001 -1.779332e-001 1.299608e+002
548125000 -6.710714e-001 -1.537398e+002 -5.469664e+001 -9.159082e+001 -5.454928e+001 -9.886817e+001 -1.765168e-001 1.298190e+002
548750000 -6.889129e-001 -1.541416e+002 -5.405292e+001 -1.053329e+002 -5.413861e+001 -1.032768e+002 -1.802843e-001 1.297728e+002
549375000 -7.117189e-001 -1.543792e+002 -5.358795e+001 -9.920547e+001 -5.383870e+001 -9.847066e+001 -1.831698e-001 1.295698e+002
550000000 -7.215620e-001 -1.546705e+002 -5.390859e+001 -1.043845e+002 -5.381802e+001 -1.070639e+002 -1.943067e-001 1.295420e+002
550625000 -7.361115e-001 -1.549832e+002 -5.320867e+001 -1.029953e+002 -5.408280e+001 -1.066152e+002 -1.881568e-001 1.293726e+002
551250000 -7.410109e-001 -1.552855e+002 -5.386330e+001 -1.068673e+002 -5.358957e+001 -1.051834e+002 -1.925362e-001 1.292158e+002
551875000 -7.544067e-001 -1.555961e+002 -5.321128e+001 -1.070990e+002 -5.332081e+001 -1.186888e+002 -1.920329e-001 1.290932e+002
552500000 -7.638304e-001 -1.559772e+002 -5.317772e+001 -1.123125e+002 -5.245570e+001 -1.207253e+002 -1.919544e-001 1.288860e+002
553125000 -7.603878e-001 -1.562797e+002 -5.363664e+001 -1.151852e+002 -5.265992e+001 -1.159862e+002 -1.911480e-001 1.288307e+002
553750000 -7.739210e-001 -1.566568e+002 -5.341858e+001 -1.154323e+002 -5.295324e+001 -1.157071e+002 -1.938120e-001 1.285703e+002
554375000 -7.797579e-001 -1.569722e+002 -5.301439e+001 -1.156240e+002 -5.273080e+001 -1.205808e+002 -1.935001e-001 1.284427e+002
555000000 -7.877485e-001 -1.573273e+002 -5.248085e+001 -1.221743e+002 -5.304449e+001 -1.215021e+002 -1.886761e-001 1.282865e+002
555625000 -8.075851e-001 -1.576594e+002 -5.340091e+001 -1.218285e+002 -5.263710e+001 -1.245771e+002 -1.786763e-001 1.282445e+002
556250000 -8.190495e-001 -1.580477e+002 -5.379916e+001 -1.273354e+002 -5.343823e+001 -1.253093e+002 -1.858979e-001 1.280851e+002
556875000 -8.226106e-001 -1.584057e+002 -5.319847e+001 -1.250051e+002 -5.320351e+001 -1.312397e+002 -1.891596e-001 1.280228e+002
557500000 -8.478070e-001 -1.587178e+002 -5.299268e+001 -1.263881e+002 -5.304809e+001 -1.329235e+002 -1.800666e-001 1.279185e+002
558125000 -8.623505e-001 -1.590498e+002 -5.351068e+001 -1.253051e+002 -5.286368e+001 -1.308363e+002 -1.834904e-001 1.279270e+002
558750000 -8.700186e-001 -1.593532e+002 -5.337868e+001 -1.283941e+002 -5.273956e+001 -1.278521e+002 -1.688315e-001 1.279029e+002
559375000 -8.945385e-001 -1.596863e+002 -5.273146e+001 -1.261475e+002 -5.308934e+001 -1.319229e+002 -1.611036e-001 1.278310e+002
560000000 -9.118521e-001 -1.599671e+002 -5.253833e+001 -1.338387e+002 -5.298641e+001 -1.328214e+002 -1.522929e-001 1.277638e+002
560625000 -9.202070e-001 -1.603063e+002 -5.299743e+001 -1.354022e+002 -5.283077e+001 -1.285075e+002 -1.527538e-001 1.278759e+002
561250000 -9.394857e-001 -1.606461e+002 -5.220029e+001 -1.372870e+002 -5.258370e+001 -1.394169e+002 -1.564967e-001 1.278725e+002
561875000 -9.573838e-001 -1.609574e+002 -5.182346e+001 -1.348384e+002 -5.239938e+001 -1.339125e+002 -1.527413e-001 1.279607e+002
562500000 -9.718113e-001 -1.612910e+002 -5.279569e+001 -1.359939e+002 -5.263328e+001 -1.421602e+002 -1.534317e-001 1.279802e+002
563125000 -9.885833e-001 -1.615723e+002 -5.241524e+001 -1.427070e+002 -5.191316e+001 -1.359165e+002 -1.454467e-001 1.280096e+002
563750000 -1.014214e+000 -1.619734e+002 -5.233467e+001 -1.408295e+002 -5.234489e+001 -1.476206e+002 -1.621813e-001 1.280493e+002
564375000 -1.030479e+000 -1.623662e+002 -5.211095e+001 -1.444509e+002 -5.190314e+001 -1.444029e+002 -1.597095e-001 1.280827e+002
565000000 -1.053501e+000 -1.627561e+002 -5.187674e+001 -1.479308e+002 -5.147211e+001 -1.493462e+002 -1.619133e-001 1.280955e+002
565625000 -1.081735e+000 -1.631384e+002 -5.136927e+001 -1.455596e+002 -5.207868e+001 -1.466601e+002 -1.650099e-001 1.281577e+002
566250000 -1.109530e+000 -1.636001e+002 -5.192078e+001 -1.454077e+002 -5.211917e+001 -1.509891e+002 -1.762471e-001 1.281026e+002
566875000 -1.147924e+000 -1.639406e+002 -5.258597e+001 -1.507283e+002 -5.132516e+001 -1.524831e+002 -1.638706e-001 1.280776e+002
567500000 -1.179652e+000 -1.643635e+002 -5.160765e+001 -1.466445e+002 -5.177748e+001 -1.532518e+002 -1.643444e-001 1.279933e+002
568125000 -1.214877e+000 -1.647133e+002 -5.168260e+001 -1.523618e+002 -5.214977e+001 -1.489691e+002 -1.733176e-001 1.279614e+002
568750000 -1.243659e+000 -1.650078e+002 -5.232331e+001 -1.513592e+002 -5.127934e+001 -1.565344e+002 -1.782646e-001 1.279396e+002
569375000 -1.276012e+000 -1.653766e+002 -5.194006e+001 -1.549691e+002 -5.131300e+001 -1.546189e+002 -1.776144e-001 1.278976e+002
570000000 -1.301053e+000 -1.657431e+002 -5.131033e+001 -1.616064e+002 -5.115586e+001 -1.583211e+002 -1.733580e-001 1.277883e+002
570625000 -1.323861e+000 -1.660712e+002 -5.104435e+001 -1.622203e+002 -5.101685e+001 -1.582213e+002 -1.778152e-001 1.277341e+002
571250000 -1.351989e+000 -1.664487e+002 -5.168193e+001 -1.613179e+002 -5.081532e+001 -1.620109e+002 -1.815499e-001 1.277310e+002
571875000 -1.378785e+000 -1.666886e+002 -5.129455e+001 -1.602430e+002 -5.063140e+001 -1.644171e+002 -1.752827e-001 1.276251e+002
572500000 -1.389024e+000 -1.670187e+002 -5.078947e+001 -1.647308e+002 -5.053259e+001 -1.670721e+002 -1.850062e-001 1.276104e+002
573125000 -1.411193e+000 -1.673070e+002 -5.075405e+001 -1.686872e+002 -5.024069e+001 -1.683025e+002 -1.687067e-001 1.275204e+002
573750000 -1.412079e+000 -1.675958e+002 -5.009060e+001 -1.686720e+002 -5.103726e+001 -1.737175e+002 -1.832181e-001 1.274585e+002
574375000 -1.429226e+000 -1.679338e+002 -5.029380e+001 -1.705309e+002 -5.023450e+001 -1.721860e+002 -1.765381e-001 1.274667e+002
575000000 -1.442109e+000 -1.682805e+002 -5.057426e+001 -1.725410e+002 -5.017551e+001 -1.706384e+002 -1.867394e-001 1.273775e+002
575625000 -1.452803e+000 -1.686497e+002 -5.064700e+001 -1.753685e+002 -5.073043e+001 -1.762630e+002 -1.851204e-001 1.272716e+002
576250000 -1.464798e+000 -1.689962e+002 -5.004131e+001 -1.747427e+002 -4.993607e+001 1.783056e+002 -1.950553e-001 1.272198e+002
576875000 -1.472016e+000 -1.693468e+002 -5.007352e+001 -1.762562e+002 -4.991934e+001 1.791112e+002 -1.868469e-001 1.271512e+002
577500000 -1.488163e+000 -1.696850e+002 -4.997423e+001 1.773434e+002 -5.024530e+001 1.792740e+002 -1.838090e-001 1.270063e+002
578125000 -1.499975e+000 -1.700780e+002 -5.045135e+001 1.797078e+002 -4.994703e+001 1.756988e+002 -1.905059e-001 1.269747e+002
578750000 -1.501990e+000 -1.704265e+002 -4.991230e+001 1.730585e+002 -4.971043e+001 1.704390e+002 -1.892418e-001 1.267776e+002
579375000 -1.509233e+000 -1.708323e+002 -5.024344e+001 1.726622e+002 -4.970259e+001 1.780507e+002 -2.004514e-001 1.266616e+002
580000000 -1.516919e+000 -1.711904e+002 -5.024081e+001 1.728855e+002 -5.041085e+001 1.701804e+002 -2.025774e-001 1.264930e+002
580625000 -1.533010e+000 -1.716919e+002 -5.095017e+001 1.733739e+002 -5.017314e+001 1.679957e+002 -2.020244e-001 1.262808e+002
581250000 -1.546076e+000 -1.720836e+002 -5.014071e+001 1.707944e+002 -5.034399e+001 1.693036e+002 -2.123115e-001 1.261508e+002
581875000 -1.561408e+000 -1.726020e+002 -5.064657e+001 1.682526e+002 -4.992262e+001 1.641655e+002 -2.144074e-001 1.258952e+002
582500000 -1.579275e+000 -1.730113e+002 -5.004735e+001 1.690151e+002 -4.972830e+001 1.625282e+002 -2.101652e-001 1.256732e+002
583125000 -1.598027e+000 -1.735733e+002 -5.064515e+001 1.615226e+002 -4.991745e+001 1.628041e+002 -2.285872e-001 1.254110e+002
583750000 -1.619379e+000 -1.740713e+002 -5.029567e+001 1.602456e+002 -4.938612e+001 1.596347e+002 -2.266487e-001 1.251795e+002
584375000 -1.639003e+000 -1.745052e+002 -4.990625e+001 1.615907e+002 -4.972449e+001 1.619366e+002 -2.206402e-001 1.249809e+002
585000000 -1.655452e+000 -1.749652e+002 -5.009101e+001 1.587528e+002 -4.951086e+001 1.598956e+002 -2.229591e-001 1.247978e+002
585625000 -1.686783e+000 -1.754864e+002 -4.947687e+001 1.566418e+002 -4.944437e+001 1.552580e+002 -2.011695e-001 1.245927e+002
586250000 -1.702471e+000 -1.759702e+002 -4.949851e+001 1.573806e+002 -4.961316e+001 1.572949e+002 -2.057060e-001 1.245227e+002
586875000 -1.714330e+000 -1.764345e+002 -4.891685e+001 1.553373e+002 -4.927250e+001 1.499918e+002 -2.037942e-001 1.242752e+002
587500000 -1.752359e+000 -1.769670e+002 -4.990200e+001 1.499818e+002 -4.922518e+001 1.551481e+002 -1.906100e-001 1.241427e+002
588125000 -1.769252e+000 -1.774387e+002 -4.926022e+001 1.519926e+002 -4.960367e+001 1.461000e+002 -1.908534e-001 1.241150e+002
588750000 -1.793283e+000 -1.778652e+002 -4.989853e+001 1.496222e+002 -4.930211e+001 1.480308e+002 -1.851666e-001 1.239987e+002
589375000 -1.817670e+000 -1.783205e+002 -4.915549e+001 1.453939e+002 -4.985344e+001 1.442110e+002 -1.719898e-001 1.238796e+002
590000000 -1.852479e+000 -1.787317e+002 -4.990894e+001 1.469617e+002 -4.936255e+001 1.435278e+002 -1.749566e-001 1.239389e+002
590625000 -1.880379e+000 -1.791095e+002 -4.928896e+001 1.418199e+002 -4.940523e+001 1.407856e+002 -1.692186e-001 1.238870e+002
591250000 -1.911672e+000 -1.794313e+002 -4.919575e+001 1.398742e+002 -4.889133e+001 1.357922e+002 -1.622776e-001 1.238793e+002
591875000 -1.949062e+000 -1.797192e+002 -4.925206e+001 1.416895e+002 -4.944955e+001 1.380567e+002 -1.586902e-001 1.239167e+002
592500000 -1.967514e+000 -1.799819e+002 -4.940349e+001 1.379186e+002 -4.941909e+001 1.377870e+002 -1.633079e-001 1.240569e+002
593125000 -1.994611e+000 1.798292e+002 -4.920755e+001 1.382810e+002 -4.951003e+001 1.385083e+002 -1.589499e-001 1.240753e+002
593750000 -2.009360e+000 1.795119e+002 -4.951994e+001 1.374707e+002 -4.930490e+001 1.320092e+002 -1.497818e-001 1.241511e+002
594375000 -2.015805e+000 1.793272e+002 -4.926648e+001 1.371790e+002 -4.931560e+001 1.347998e+002 -1.449382e-001 1.242416e+002
595000000 -2.026668e+000 1.790177e+002 -4.946298e+001 1.339591e+002 -4.907329e+001 1.311753e+002 -1.630767e-001 1.242526e+002
