!Agilent Technologies,E8364B,US42250235,A.06.04.32
!Agilent E8364B: A.06.04.32
!Date: Friday, January 15, 2021 16:13:32
!Correction: S11(Full 2 Port(1,2)) S21(Full 2 Port(1,2)) S12(Full 2 Port(1,2)) S22(Full 2 Port(1,2)) 
!S2P File: Measurements: S11, S21, S12, S22:
# Hz S  dB   R 50
500000000 -1.048067e-001 -1.295235e+002 -6.028381e+001 -4.788453e+001 -5.885334e+001 -5.722743e+001 -1.733846e-001 1.362103e+002
500625000 -9.816641e-002 -1.297465e+002 -5.862463e+001 -6.116828e+001 -5.819418e+001 -5.250296e+001 -1.733854e-001 1.361252e+002
501250000 -1.153401e-001 -1.300202e+002 -5.762425e+001 -5.305270e+001 -5.777066e+001 -4.180888e+001 -1.790696e-001 1.360423e+002
501875000 -1.036343e-001 -1.303256e+002 -5.821705e+001 -5.443422e+001 -5.847636e+001 -4.648130e+001 -1.709659e-001 1.360415e+002
502500000 -1.100461e-001 -1.305479e+002 -5.746840e+001 -6.351244e+001 -5.936672e+001 -5.480948e+001 -1.600161e-001 1.359909e+002
503125000 -1.150167e-001 -1.308449e+002 -5.729364e+001 -5.059999e+001 -5.845568e+001 -6.347042e+001 -1.736367e-001 1.358211e+002
503750000 -1.207711e-001 -1.311079e+002 -5.898268e+001 -6.881001e+001 -5.775520e+001 -6.128756e+001 -1.751050e-001 1.357711e+002
504375000 -1.251061e-001 -1.313408e+002 -5.691002e+001 -5.987532e+001 -5.841805e+001 -6.621825e+001 -1.911918e-001 1.357591e+002
505000000 -1.338688e-001 -1.316320e+002 -5.656338e+001 -5.498370e+001 -5.819553e+001 -6.007455e+001 -1.950744e-001 1.356487e+002
505625000 -1.321392e-001 -1.318809e+002 -5.699636e+001 -5.291959e+001 -5.745029e+001 -5.816113e+001 -1.871742e-001 1.355261e+002
506250000 -1.352362e-001 -1.321788e+002 -5.751849e+001 -5.833943e+001 -5.869928e+001 -5.845486e+001 -2.017791e-001 1.353320e+002
506875000 -1.354555e-001 -1.324142e+002 -5.866263e+001 -6.380208e+001 -5.921267e+001 -6.367503e+001 -1.901687e-001 1.351887e+002
507500000 -1.369754e-001 -1.326465e+002 -5.737047e+001 -6.373820e+001 -5.835923e+001 -6.172663e+001 -1.956785e-001 1.349566e+002
508125000 -1.443577e-001 -1.329118e+002 -5.867415e+001 -6.393532e+001 -5.791565e+001 -6.158514e+001 -1.994828e-001 1.347999e+002
508750000 -1.512329e-001 -1.331304e+002 -5.806586e+001 -7.264184e+001 -5.693513e+001 -6.307034e+001 -1.996006e-001 1.346219e+002
509375000 -1.559491e-001 -1.334715e+002 -5.715801e+001 -7.210651e+001 -5.753811e+001 -7.732236e+001 -2.035938e-001 1.344566e+002
510000000 -1.546061e-001 -1.337432e+002 -5.673540e+001 -7.444781e+001 -5.853045e+001 -6.841287e+001 -2.136762e-001 1.341963e+002
510625000 -1.601901e-001 -1.339737e+002 -5.618552e+001 -6.019710e+001 -5.579636e+001 -6.375824e+001 -1.987740e-001 1.340381e+002
511250000 -1.657977e-001 -1.341888e+002 -5.572448e+001 -6.729557e+001 -5.757740e+001 -6.691766e+001 -2.077770e-001 1.337080e+002
511875000 -1.677129e-001 -1.345298e+002 -5.706581e+001 -6.525671e+001 -5.751178e+001 -7.191471e+001 -1.996001e-001 1.335413e+002
512500000 -1.729556e-001 -1.348313e+002 -5.657077e+001 -7.425990e+001 -5.718938e+001 -7.225751e+001 -2.106731e-001 1.333184e+002
513125000 -1.820637e-001 -1.351154e+002 -5.657183e+001 -6.925185e+001 -5.683472e+001 -7.187997e+001 -2.121233e-001 1.332092e+002
513750000 -1.938604e-001 -1.353876e+002 -5.568118e+001 -7.730949e+001 -5.764730e+001 -8.169505e+001 -2.138156e-001 1.330318e+002
514375000 -1.917327e-001 -1.357105e+002 -5.714345e+001 -7.601585e+001 -5.698673e+001 -7.317700e+001 -1.974267e-001 1.328357e+002
515000000 -2.083586e-001 -1.360328e+002 -5.631346e+001 -7.260468e+001 -5.544875e+001 -7.103670e+001 -1.881490e-001 1.326875e+002
515625000 -2.162338e-001 -1.364134e+002 -5.676287e+001 -7.629189e+001 -5.618045e+001 -7.784529e+001 -1.871908e-001 1.325675e+002
516250000 -2.191162e-001 -1.367178e+002 -5.523007e+001 -7.959023e+001 -5.542414e+001 -7.526136e+001 -1.922544e-001 1.324635e+002
516875000 -2.380246e-001 -1.370493e+002 -5.588182e+001 -7.325319e+001 -5.612410e+001 -8.147047e+001 -1.779759e-001 1.324078e+002
517500000 -2.349452e-001 -1.373484e+002 -5.581726e+001 -7.747937e+001 -5.520607e+001 -7.261798e+001 -1.765848e-001 1.323888e+002
518125000 -2.433839e-001 -1.377369e+002 -5.412300e+001 -7.564086e+001 -5.504858e+001 -8.280205e+001 -1.732320e-001 1.323212e+002
518750000 -2.560759e-001 -1.380833e+002 -5.588714e+001 -7.650478e+001 -5.608624e+001 -8.214759e+001 -1.729421e-001 1.323248e+002
519375000 -2.677061e-001 -1.383590e+002 -5.495121e+001 -8.429825e+001 -5.546212e+001 -8.258556e+001 -1.676421e-001 1.322705e+002
520000000 -2.725767e-001 -1.387149e+002 -5.450299e+001 -9.461254e+001 -5.534573e+001 -8.180222e+001 -1.597262e-001 1.323124e+002
520625000 -2.806045e-001 -1.390993e+002 -5.429156e+001 -8.297832e+001 -5.547396e+001 -8.510440e+001 -1.565843e-001 1.322732e+002
521250000 -2.972177e-001 -1.394100e+002 -5.546283e+001 -8.688634e+001 -5.519400e+001 -8.620626e+001 -1.646964e-001 1.323402e+002
521875000 -2.937639e-001 -1.397688e+002 -5.468973e+001 -9.134514e+001 -5.501532e+001 -9.186420e+001 -1.451309e-001 1.323445e+002
522500000 -3.000417e-001 -1.401042e+002 -5.350007e+001 -9.589543e+001 -5.482819e+001 -8.784488e+001 -1.493324e-001 1.323498e+002
523125000 -3.137105e-001 -1.404606e+002 -5.457301e+001 -9.583124e+001 -5.513848e+001 -9.488202e+001 -1.622251e-001 1.324266e+002
523750000 -3.169463e-001 -1.407883e+002 -5.386535e+001 -9.010485e+001 -5.471315e+001 -9.228652e+001 -1.602308e-001 1.323796e+002
524375000 -3.383094e-001 -1.411577e+002 -5.530931e+001 -9.307398e+001 -5.491092e+001 -9.156245e+001 -1.533494e-001 1.323891e+002
525000000 -3.372217e-001 -1.415072e+002 -5.453968e+001 -9.408529e+001 -5.456419e+001 -9.219468e+001 -1.595116e-001 1.324359e+002
525625000 -3.526467e-001 -1.417066e+002 -5.401307e+001 -9.661192e+001 -5.439388e+001 -9.360215e+001 -1.710141e-001 1.324346e+002
526250000 -3.531380e-001 -1.420476e+002 -5.335787e+001 -9.407247e+001 -5.465256e+001 -9.617281e+001 -1.657579e-001 1.324440e+002
526875000 -3.701521e-001 -1.424105e+002 -5.388229e+001 -1.014555e+002 -5.351134e+001 -9.444901e+001 -1.544512e-001 1.324222e+002
527500000 -3.772836e-001 -1.426769e+002 -5.325173e+001 -1.019153e+002 -5.386531e+001 -9.690160e+001 -1.671175e-001 1.324018e+002
528125000 -3.969206e-001 -1.430330e+002 -5.389655e+001 -9.919199e+001 -5.459677e+001 -1.068512e+002 -1.694393e-001 1.324699e+002
528750000 -4.017307e-001 -1.433420e+002 -5.343547e+001 -1.044540e+002 -5.336194e+001 -1.016158e+002 -1.635659e-001 1.325879e+002
529375000 -4.031885e-001 -1.436567e+002 -5.412556e+001 -1.046186e+002 -5.332165e+001 -1.041350e+002 -1.658105e-001 1.324960e+002
530000000 -4.145214e-001 -1.440548e+002 -5.367535e+001 -1.076054e+002 -5.349219e+001 -1.030446e+002 -1.633749e-001 1.325533e+002
530625000 -4.272215e-001 -1.443367e+002 -5.345553e+001 -1.065346e+002 -5.460811e+001 -1.051565e+002 -1.675646e-001 1.324905e+002
531250000 -4.347692e-001 -1.446887e+002 -5.391646e+001 -1.046742e+002 -5.325808e+001 -1.056199e+002 -1.588342e-001 1.325028e+002
531875000 -4.463142e-001 -1.450002e+002 -5.349706e+001 -1.106861e+002 -5.273096e+001 -1.099158e+002 -1.676241e-001 1.324842e+002
532500000 -4.653841e-001 -1.453133e+002 -5.292874e+001 -1.134915e+002 -5.315603e+001 -1.084192e+002 -1.636017e-001 1.325544e+002
533125000 -4.694428e-001 -1.457141e+002 -5.298459e+001 -1.099768e+002 -5.282204e+001 -1.112636e+002 -1.791348e-001 1.325059e+002
533750000 -4.835190e-001 -1.460796e+002 -5.229608e+001 -1.052245e+002 -5.296898e+001 -1.082760e+002 -1.846309e-001 1.325098e+002
534375000 -4.980288e-001 -1.464677e+002 -5.285868e+001 -1.157465e+002 -5.249603e+001 -1.073079e+002 -1.713956e-001 1.324348e+002
535000000 -5.065026e-001 -1.467679e+002 -5.228928e+001 -1.082833e+002 -5.276118e+001 -1.126558e+002 -1.816592e-001 1.324239e+002
535625000 -5.201818e-001 -1.471197e+002 -5.213860e+001 -1.121958e+002 -5.188395e+001 -1.149031e+002 -1.767095e-001 1.323664e+002
536250000 -5.281516e-001 -1.474620e+002 -5.174707e+001 -1.127425e+002 -5.194738e+001 -1.141595e+002 -1.775825e-001 1.323110e+002
536875000 -5.476090e-001 -1.478280e+002 -5.152589e+001 -1.122569e+002 -5.255013e+001 -1.163818e+002 -1.803361e-001 1.322154e+002
537500000 -5.604481e-001 -1.481373e+002 -5.167172e+001 -1.170099e+002 -5.186503e+001 -1.135628e+002 -1.836189e-001 1.321668e+002
538125000 -5.678449e-001 -1.484950e+002 -5.166953e+001 -1.214580e+002 -5.170197e+001 -1.182167e+002 -1.862493e-001 1.321391e+002
538750000 -5.905129e-001 -1.488307e+002 -5.249120e+001 -1.233303e+002 -5.162883e+001 -1.211253e+002 -1.866386e-001 1.319884e+002
539375000 -6.115382e-001 -1.491134e+002 -5.097563e+001 -1.203307e+002 -5.211853e+001 -1.244712e+002 -1.840587e-001 1.319431e+002
540000000 -6.120027e-001 -1.494381e+002 -5.105260e+001 -1.267083e+002 -5.166090e+001 -1.242556e+002 -1.924890e-001 1.317941e+002
540625000 -6.363310e-001 -1.497823e+002 -5.118759e+001 -1.275355e+002 -5.152061e+001 -1.296431e+002 -1.930644e-001 1.317498e+002
541250000 -6.395054e-001 -1.500680e+002 -5.077695e+001 -1.299557e+002 -5.183776e+001 -1.296218e+002 -1.912862e-001 1.316614e+002
541875000 -6.587026e-001 -1.503639e+002 -5.136196e+001 -1.272418e+002 -5.116210e+001 -1.261713e+002 -1.986074e-001 1.315401e+002
542500000 -6.683077e-001 -1.506265e+002 -5.132874e+001 -1.304622e+002 -5.200470e+001 -1.334167e+002 -1.883360e-001 1.314802e+002
543125000 -6.741366e-001 -1.509924e+002 -5.151303e+001 -1.306680e+002 -5.108194e+001 -1.360086e+002 -1.832359e-001 1.314103e+002
543750000 -6.816660e-001 -1.511964e+002 -5.139726e+001 -1.337051e+002 -5.138984e+001 -1.345581e+002 -1.872168e-001 1.314019e+002
544375000 -6.932287e-001 -1.515531e+002 -5.091669e+001 -1.351955e+002 -5.116225e+001 -1.332500e+002 -1.849051e-001 1.313171e+002
545000000 -7.033418e-001 -1.518405e+002 -5.078513e+001 -1.366452e+002 -5.065813e+001 -1.381687e+002 -1.891947e-001 1.312807e+002
545625000 -7.166055e-001 -1.521735e+002 -5.110357e+001 -1.371120e+002 -5.063355e+001 -1.375688e+002 -1.879901e-001 1.311868e+002
546250000 -7.406390e-001 -1.524833e+002 -5.123183e+001 -1.393082e+002 -5.130898e+001 -1.402340e+002 -1.914812e-001 1.311535e+002
546875000 -7.464894e-001 -1.528322e+002 -5.036899e+001 -1.378024e+002 -5.058680e+001 -1.405238e+002 -1.868261e-001 1.311720e+002
547500000 -7.607108e-001 -1.531669e+002 -5.067949e+001 -1.433170e+002 -5.081442e+001 -1.420236e+002 -1.871306e-001 1.310817e+002
548125000 -7.838839e-001 -1.533817e+002 -5.079137e+001 -1.445095e+002 -5.117739e+001 -1.426892e+002 -1.874180e-001 1.309370e+002
548750000 -8.042714e-001 -1.538032e+002 -5.063844e+001 -1.438378e+002 -5.059859e+001 -1.451631e+002 -1.890611e-001 1.309361e+002
549375000 -8.173236e-001 -1.540475e+002 -5.053125e+001 -1.517589e+002 -5.006216e+001 -1.463795e+002 -1.962942e-001 1.306938e+002
550000000 -8.295222e-001 -1.543564e+002 -5.013008e+001 -1.453141e+002 -5.045495e+001 -1.471188e+002 -2.035610e-001 1.306473e+002
550625000 -8.483308e-001 -1.546122e+002 -5.076126e+001 -1.487229e+002 -5.038169e+001 -1.492918e+002 -2.027075e-001 1.305428e+002
551250000 -8.593543e-001 -1.548712e+002 -5.080837e+001 -1.490811e+002 -5.038266e+001 -1.519440e+002 -2.004775e-001 1.304191e+002
551875000 -8.702777e-001 -1.552155e+002 -5.006689e+001 -1.536049e+002 -4.976315e+001 -1.530095e+002 -2.081760e-001 1.302854e+002
552500000 -8.788737e-001 -1.554963e+002 -5.014376e+001 -1.521561e+002 -4.937284e+001 -1.545429e+002 -2.052315e-001 1.300940e+002
553125000 -8.840461e-001 -1.557783e+002 -5.022621e+001 -1.530968e+002 -5.006150e+001 -1.546206e+002 -2.057978e-001 1.299800e+002
553750000 -8.994538e-001 -1.560911e+002 -5.030406e+001 -1.546668e+002 -5.045098e+001 -1.572174e+002 -2.176310e-001 1.297793e+002
554375000 -9.052390e-001 -1.563744e+002 -4.985584e+001 -1.531426e+002 -5.051130e+001 -1.540086e+002 -2.125785e-001 1.296609e+002
555000000 -9.146861e-001 -1.566705e+002 -4.967185e+001 -1.565832e+002 -5.035115e+001 -1.596530e+002 -2.114245e-001 1.295191e+002
555625000 -9.216791e-001 -1.569208e+002 -4.961030e+001 -1.620110e+002 -5.045198e+001 -1.585257e+002 -2.039159e-001 1.293978e+002
556250000 -9.382865e-001 -1.572573e+002 -4.963591e+001 -1.607537e+002 -4.952950e+001 -1.612790e+002 -2.069126e-001 1.292691e+002
556875000 -9.403366e-001 -1.576082e+002 -5.020967e+001 -1.594542e+002 -5.035610e+001 -1.635228e+002 -2.085966e-001 1.291976e+002
557500000 -9.639916e-001 -1.578208e+002 -5.003338e+001 -1.650446e+002 -4.965923e+001 -1.626796e+002 -1.985701e-001 1.291225e+002
558125000 -9.755667e-001 -1.581254e+002 -4.940762e+001 -1.643042e+002 -4.950063e+001 -1.622166e+002 -1.914626e-001 1.290690e+002
558750000 -9.750380e-001 -1.583770e+002 -4.940576e+001 -1.701354e+002 -4.913069e+001 -1.667919e+002 -1.796066e-001 1.290840e+002
559375000 -9.983853e-001 -1.586765e+002 -4.931170e+001 -1.715850e+002 -4.938434e+001 -1.678159e+002 -1.788727e-001 1.290567e+002
560000000 -1.016632e+000 -1.589172e+002 -4.964812e+001 -1.652784e+002 -5.002360e+001 -1.682626e+002 -1.622636e-001 1.290516e+002
560625000 -1.024213e+000 -1.591948e+002 -4.980503e+001 -1.658988e+002 -4.970931e+001 -1.682537e+002 -1.696030e-001 1.290898e+002
561250000 -1.032897e+000 -1.594017e+002 -4.948953e+001 -1.706622e+002 -4.958739e+001 -1.688346e+002 -1.611114e-001 1.291575e+002
561875000 -1.044784e+000 -1.597176e+002 -4.849152e+001 -1.726346e+002 -4.954844e+001 -1.713318e+002 -1.674768e-001 1.292381e+002
562500000 -1.048048e+000 -1.600067e+002 -4.918661e+001 -1.733458e+002 -4.973256e+001 -1.757095e+002 -1.649753e-001 1.292907e+002
563125000 -1.053897e+000 -1.602509e+002 -4.924566e+001 -1.778419e+002 -4.970121e+001 -1.736969e+002 -1.606737e-001 1.293186e+002
563750000 -1.077770e+000 -1.605781e+002 -4.899052e+001 -1.747777e+002 -4.992665e+001 -1.786030e+002 -1.688926e-001 1.293582e+002
564375000 -1.087847e+000 -1.609042e+002 -4.909148e+001 -1.742971e+002 -4.905346e+001 -1.752159e+002 -1.713241e-001 1.294328e+002
565000000 -1.093137e+000 -1.612905e+002 -4.898505e+001 1.797440e+002 -4.939572e+001 -1.771623e+002 -1.638504e-001 1.294115e+002
565625000 -1.101726e+000 -1.616260e+002 -4.882115e+001 -1.796186e+002 -4.874825e+001 -1.794823e+002 -1.777520e-001 1.295045e+002
566250000 -1.127405e+000 -1.620144e+002 -4.924061e+001 -1.766256e+002 -4.893322e+001 1.792276e+002 -1.839367e-001 1.295047e+002
566875000 -1.144692e+000 -1.623636e+002 -4.872587e+001 -1.798899e+002 -4.875119e+001 1.785719e+002 -1.845945e-001 1.293502e+002
567500000 -1.162161e+000 -1.627910e+002 -4.942359e+001 -1.794548e+002 -4.861523e+001 1.792637e+002 -1.827543e-001 1.293216e+002
568125000 -1.190247e+000 -1.630790e+002 -4.872598e+001 1.797419e+002 -4.836927e+001 1.770756e+002 -1.926171e-001 1.292866e+002
568750000 -1.192899e+000 -1.634402e+002 -4.836929e+001 1.751010e+002 -4.890831e+001 1.763856e+002 -1.950412e-001 1.292047e+002
569375000 -1.219314e+000 -1.637962e+002 -4.856833e+001 1.711753e+002 -4.834401e+001 1.741112e+002 -1.958346e-001 1.291785e+002
570000000 -1.224450e+000 -1.641568e+002 -4.856033e+001 1.782887e+002 -4.829936e+001 1.703082e+002 -1.946720e-001 1.290382e+002
570625000 -1.234128e+000 -1.645566e+002 -4.839476e+001 1.710076e+002 -4.912492e+001 1.731641e+002 -1.954192e-001 1.290522e+002
571250000 -1.238947e+000 -1.649309e+002 -4.836247e+001 1.697784e+002 -4.867416e+001 1.714558e+002 -2.039262e-001 1.289856e+002
571875000 -1.261446e+000 -1.652820e+002 -4.840713e+001 1.732865e+002 -4.869654e+001 1.682457e+002 -1.945299e-001 1.289120e+002
572500000 -1.272762e+000 -1.656531e+002 -4.834492e+001 1.675494e+002 -4.791348e+001 1.679308e+002 -2.035280e-001 1.288265e+002
573125000 -1.278376e+000 -1.660444e+002 -4.822793e+001 1.634953e+002 -4.829145e+001 1.655307e+002 -1.768344e-001 1.287548e+002
573750000 -1.291218e+000 -1.663800e+002 -4.797399e+001 1.665573e+002 -4.812944e+001 1.648831e+002 -1.937938e-001 1.287393e+002
574375000 -1.297367e+000 -1.667228e+002 -4.764832e+001 1.661193e+002 -4.864423e+001 1.640129e+002 -1.902767e-001 1.286771e+002
575000000 -1.307722e+000 -1.671691e+002 -4.812765e+001 1.645093e+002 -4.841055e+001 1.627739e+002 -1.934325e-001 1.286052e+002
575625000 -1.310292e+000 -1.675091e+002 -4.862504e+001 1.631657e+002 -4.762962e+001 1.644189e+002 -1.939843e-001 1.285239e+002
576250000 -1.320842e+000 -1.679340e+002 -4.806464e+001 1.577551e+002 -4.808690e+001 1.585520e+002 -1.979383e-001 1.285434e+002
576875000 -1.322503e+000 -1.682809e+002 -4.815931e+001 1.600121e+002 -4.846165e+001 1.581275e+002 -1.996421e-001 1.284215e+002
577500000 -1.343333e+000 -1.686771e+002 -4.787234e+001 1.560994e+002 -4.842626e+001 1.584889e+002 -2.033845e-001 1.282578e+002
578125000 -1.344750e+000 -1.690924e+002 -4.738968e+001 1.550510e+002 -4.854491e+001 1.572288e+002 -2.036890e-001 1.282268e+002
578750000 -1.350458e+000 -1.695014e+002 -4.759994e+001 1.519072e+002 -4.752742e+001 1.536680e+002 -2.033083e-001 1.280939e+002
579375000 -1.355570e+000 -1.698746e+002 -4.803654e+001 1.516676e+002 -4.796474e+001 1.529620e+002 -2.076592e-001 1.279067e+002
580000000 -1.371874e+000 -1.703187e+002 -4.784122e+001 1.543146e+002 -4.810037e+001 1.516109e+002 -2.186938e-001 1.277347e+002
580625000 -1.377058e+000 -1.707133e+002 -4.739708e+001 1.506951e+002 -4.748675e+001 1.489245e+002 -2.171562e-001 1.275440e+002
581250000 -1.386181e+000 -1.711400e+002 -4.739608e+001 1.465091e+002 -4.768686e+001 1.486945e+002 -2.135464e-001 1.273513e+002
581875000 -1.388544e+000 -1.715787e+002 -4.759678e+001 1.463014e+002 -4.774319e+001 1.476065e+002 -2.269340e-001 1.272110e+002
582500000 -1.401518e+000 -1.719930e+002 -4.757331e+001 1.460829e+002 -4.813847e+001 1.443633e+002 -2.258911e-001 1.269371e+002
583125000 -1.401984e+000 -1.726056e+002 -4.816705e+001 1.466561e+002 -4.791872e+001 1.437761e+002 -2.337292e-001 1.266815e+002
583750000 -1.416744e+000 -1.731035e+002 -4.768864e+001 1.427409e+002 -4.775652e+001 1.442422e+002 -2.367775e-001 1.264211e+002
584375000 -1.427802e+000 -1.736059e+002 -4.794165e+001 1.443992e+002 -4.767664e+001 1.434173e+002 -2.215554e-001 1.262404e+002
585000000 -1.437270e+000 -1.741811e+002 -4.799672e+001 1.412457e+002 -4.757344e+001 1.444461e+002 -2.335561e-001 1.260215e+002
585625000 -1.464925e+000 -1.747038e+002 -4.712337e+001 1.428556e+002 -4.783435e+001 1.419543e+002 -2.177441e-001 1.258131e+002
586250000 -1.478208e+000 -1.752423e+002 -4.779551e+001 1.414951e+002 -4.785093e+001 1.396960e+002 -2.148355e-001 1.257226e+002
586875000 -1.484890e+000 -1.757779e+002 -4.722725e+001 1.417300e+002 -4.738129e+001 1.387359e+002 -2.133873e-001 1.254867e+002
587500000 -1.510184e+000 -1.762808e+002 -4.763853e+001 1.400218e+002 -4.791727e+001 1.395621e+002 -2.083108e-001 1.253696e+002
588125000 -1.529308e+000 -1.767177e+002 -4.740272e+001 1.365335e+002 -4.740840e+001 1.364551e+002 -1.989030e-001 1.252942e+002
588750000 -1.537405e+000 -1.772024e+002 -4.756160e+001 1.391604e+002 -4.735902e+001 1.388015e+002 -1.944118e-001 1.252458e+002
589375000 -1.544596e+000 -1.777115e+002 -4.785420e+001 1.366079e+002 -4.728042e+001 1.364322e+002 -1.796802e-001 1.251260e+002
590000000 -1.563365e+000 -1.781965e+002 -4.755620e+001 1.365272e+002 -4.744768e+001 1.360755e+002 -1.806407e-001 1.251708e+002
590625000 -1.576248e+000 -1.786687e+002 -4.726242e+001 1.317627e+002 -4.780556e+001 1.353127e+002 -1.743066e-001 1.250899e+002
591250000 -1.595926e+000 -1.791141e+002 -4.708112e+001 1.317580e+002 -4.748077e+001 1.333699e+002 -1.744002e-001 1.250930e+002
591875000 -1.620488e+000 -1.795639e+002 -4.748139e+001 1.301052e+002 -4.719336e+001 1.305267e+002 -1.657322e-001 1.251656e+002
592500000 -1.644973e+000 1.799820e+002 -4.716967e+001 1.294555e+002 -4.756386e+001 1.310917e+002 -1.595029e-001 1.252288e+002
593125000 -1.664766e+000 1.796067e+002 -4.717375e+001 1.303700e+002 -4.740046e+001 1.320342e+002 -1.693401e-001 1.253669e+002
593750000 -1.690465e+000 1.791734e+002 -4.718721e+001 1.291686e+002 -4.710588e+001 1.283151e+002 -1.579364e-001 1.254526e+002
594375000 -1.700401e+000 1.788200e+002 -4.715732e+001 1.281167e+002 -4.707880e+001 1.266058e+002 -1.629184e-001 1.254854e+002
595000000 -1.712715e+000 1.784165e+002 -4.738295e+001 1.289382e+002 -4.681321e+001 1.253712e+002 -1.713081e-001 1.254780e+002
