!Agilent Technologies,E8364B,US42250235,A.06.04.32
!Agilent E8364B: A.06.04.32
!Date: Friday, January 15, 2021 16:09:58
!Correction: S11(Full 2 Port(1,2)) S21(Full 2 Port(1,2)) S12(Full 2 Port(1,2)) S22(Full 2 Port(1,2)) 
!S2P File: Measurements: S11, S21, S12, S22:
# Hz S  dB   R 50
500000000 -9.912947e-002 -1.294648e+002 -5.901605e+001 1.495914e+002 -5.969212e+001 1.456348e+002 -1.606449e-001 1.363145e+002
500625000 -9.749722e-002 -1.297005e+002 -6.159913e+001 1.474480e+002 -5.858496e+001 1.624478e+002 -1.625600e-001 1.362447e+002
501250000 -1.098212e-001 -1.299839e+002 -6.084568e+001 1.498499e+002 -6.027534e+001 1.512632e+002 -1.615640e-001 1.362361e+002
501875000 -1.032468e-001 -1.302572e+002 -5.768472e+001 1.532468e+002 -5.863709e+001 1.602709e+002 -1.594682e-001 1.361321e+002
502500000 -1.023157e-001 -1.305376e+002 -5.853685e+001 1.588894e+002 -5.801068e+001 1.438438e+002 -1.611824e-001 1.361781e+002
503125000 -1.103780e-001 -1.308109e+002 -5.890031e+001 1.500786e+002 -5.910190e+001 1.437894e+002 -1.572693e-001 1.360270e+002
503750000 -1.087770e-001 -1.310366e+002 -5.989847e+001 1.463272e+002 -5.859436e+001 1.454286e+002 -1.632731e-001 1.358904e+002
504375000 -1.182476e-001 -1.313335e+002 -5.836886e+001 1.550364e+002 -5.863815e+001 1.411031e+002 -1.744089e-001 1.358164e+002
505000000 -1.294965e-001 -1.316427e+002 -5.889784e+001 1.505849e+002 -5.942126e+001 1.487030e+002 -1.802832e-001 1.357267e+002
505625000 -1.258204e-001 -1.318516e+002 -5.832952e+001 1.495628e+002 -5.990089e+001 1.519151e+002 -1.727825e-001 1.356265e+002
506250000 -1.239177e-001 -1.321923e+002 -5.855070e+001 1.483416e+002 -5.849613e+001 1.534774e+002 -1.849746e-001 1.354650e+002
506875000 -1.293238e-001 -1.323817e+002 -6.022220e+001 1.418642e+002 -5.850085e+001 1.469134e+002 -1.755482e-001 1.353037e+002
507500000 -1.366697e-001 -1.326383e+002 -5.822185e+001 1.450552e+002 -5.788884e+001 1.500643e+002 -1.841467e-001 1.350750e+002
508125000 -1.377668e-001 -1.328948e+002 -5.876812e+001 1.494000e+002 -5.729245e+001 1.401880e+002 -1.821006e-001 1.349403e+002
508750000 -1.357259e-001 -1.331059e+002 -5.702332e+001 1.532976e+002 -5.798471e+001 1.442726e+002 -1.854328e-001 1.347229e+002
509375000 -1.476016e-001 -1.334378e+002 -5.887246e+001 1.463773e+002 -5.834362e+001 1.456117e+002 -1.856967e-001 1.345905e+002
510000000 -1.467955e-001 -1.336736e+002 -5.690672e+001 1.366471e+002 -5.830046e+001 1.385350e+002 -1.996752e-001 1.342995e+002
510625000 -1.548443e-001 -1.338879e+002 -5.674684e+001 1.419284e+002 -5.779328e+001 1.364444e+002 -1.828499e-001 1.341410e+002
511250000 -1.531755e-001 -1.341399e+002 -5.691716e+001 1.566904e+002 -5.691829e+001 1.413057e+002 -1.974032e-001 1.338633e+002
511875000 -1.601323e-001 -1.344734e+002 -5.627050e+001 1.344425e+002 -5.861561e+001 1.493251e+002 -1.877821e-001 1.336379e+002
512500000 -1.587225e-001 -1.347054e+002 -5.872260e+001 1.384667e+002 -5.784407e+001 1.478198e+002 -1.926588e-001 1.334328e+002
513125000 -1.755756e-001 -1.349983e+002 -5.753999e+001 1.497667e+002 -5.778265e+001 1.359301e+002 -1.978411e-001 1.333621e+002
513750000 -1.818192e-001 -1.353012e+002 -5.787634e+001 1.381798e+002 -5.813950e+001 1.368316e+002 -1.901761e-001 1.331447e+002
514375000 -1.826130e-001 -1.355979e+002 -5.837595e+001 1.403360e+002 -5.738476e+001 1.393243e+002 -1.804285e-001 1.328987e+002
515000000 -1.917365e-001 -1.359021e+002 -5.772574e+001 1.318689e+002 -5.629589e+001 1.428031e+002 -1.776933e-001 1.328031e+002
515625000 -1.965094e-001 -1.362174e+002 -5.811222e+001 1.352831e+002 -5.811041e+001 1.280164e+002 -1.679834e-001 1.326876e+002
516250000 -2.019632e-001 -1.365957e+002 -5.688678e+001 1.321537e+002 -5.659957e+001 1.347178e+002 -1.805786e-001 1.325413e+002
516875000 -2.187565e-001 -1.368969e+002 -5.842165e+001 1.253127e+002 -5.622801e+001 1.316377e+002 -1.614287e-001 1.325304e+002
517500000 -2.172203e-001 -1.372167e+002 -5.654917e+001 1.381572e+002 -5.856752e+001 1.405813e+002 -1.693204e-001 1.324713e+002
518125000 -2.164126e-001 -1.375622e+002 -5.731313e+001 1.344083e+002 -5.721228e+001 1.351462e+002 -1.645889e-001 1.324032e+002
518750000 -2.336677e-001 -1.379187e+002 -5.753002e+001 1.339404e+002 -5.702884e+001 1.337955e+002 -1.492382e-001 1.324006e+002
519375000 -2.332972e-001 -1.381671e+002 -5.727197e+001 1.296903e+002 -5.690376e+001 1.339381e+002 -1.464290e-001 1.324387e+002
520000000 -2.402945e-001 -1.385402e+002 -5.592635e+001 1.206465e+002 -5.585187e+001 1.340267e+002 -1.454151e-001 1.324045e+002
520625000 -2.444769e-001 -1.389207e+002 -5.503149e+001 1.272147e+002 -5.682970e+001 1.293426e+002 -1.398320e-001 1.324050e+002
521250000 -2.555666e-001 -1.392543e+002 -5.576865e+001 1.295022e+002 -5.636240e+001 1.320092e+002 -1.450976e-001 1.324293e+002
521875000 -2.550742e-001 -1.396383e+002 -5.644320e+001 1.341489e+002 -5.592456e+001 1.305346e+002 -1.295934e-001 1.324836e+002
522500000 -2.577928e-001 -1.399635e+002 -5.537692e+001 1.275048e+002 -5.607368e+001 1.368204e+002 -1.326903e-001 1.325098e+002
523125000 -2.636557e-001 -1.403263e+002 -5.483812e+001 1.310842e+002 -5.625711e+001 1.362305e+002 -1.435024e-001 1.325178e+002
523750000 -2.702173e-001 -1.406593e+002 -5.584565e+001 1.240423e+002 -5.611601e+001 1.320886e+002 -1.441177e-001 1.325558e+002
524375000 -2.797546e-001 -1.410310e+002 -5.506415e+001 1.271694e+002 -5.736189e+001 1.234398e+002 -1.326515e-001 1.325122e+002
525000000 -2.788037e-001 -1.413442e+002 -5.593449e+001 1.287067e+002 -5.676398e+001 1.263496e+002 -1.484493e-001 1.325376e+002
525625000 -2.969453e-001 -1.416520e+002 -5.629267e+001 1.279791e+002 -5.544637e+001 1.211099e+002 -1.519622e-001 1.325277e+002
526250000 -2.939314e-001 -1.419502e+002 -5.462303e+001 1.299048e+002 -5.544610e+001 1.246113e+002 -1.450258e-001 1.325592e+002
526875000 -2.984318e-001 -1.423345e+002 -5.584299e+001 1.269489e+002 -5.603110e+001 1.279295e+002 -1.486830e-001 1.325604e+002
527500000 -3.015456e-001 -1.426760e+002 -5.519523e+001 1.169818e+002 -5.684275e+001 1.201832e+002 -1.483996e-001 1.325291e+002
528125000 -3.232512e-001 -1.429964e+002 -5.542005e+001 1.205477e+002 -5.556582e+001 1.180018e+002 -1.512701e-001 1.326531e+002
528750000 -3.256715e-001 -1.433351e+002 -5.603425e+001 1.276366e+002 -5.597234e+001 1.197884e+002 -1.466592e-001 1.326645e+002
529375000 -3.322268e-001 -1.436764e+002 -5.510077e+001 1.261911e+002 -5.613527e+001 1.293629e+002 -1.533063e-001 1.326012e+002
530000000 -3.493623e-001 -1.440760e+002 -5.409423e+001 1.202809e+002 -5.516183e+001 1.215960e+002 -1.517327e-001 1.326551e+002
530625000 -3.548791e-001 -1.443653e+002 -5.484998e+001 1.204360e+002 -5.488432e+001 1.267406e+002 -1.532480e-001 1.326400e+002
531250000 -3.669973e-001 -1.447411e+002 -5.463383e+001 1.204065e+002 -5.425620e+001 1.205341e+002 -1.500763e-001 1.326436e+002
531875000 -3.800450e-001 -1.450337e+002 -5.468489e+001 1.187441e+002 -5.516615e+001 1.217936e+002 -1.522107e-001 1.326484e+002
532500000 -3.832969e-001 -1.453360e+002 -5.573528e+001 1.170169e+002 -5.517005e+001 1.163497e+002 -1.546417e-001 1.326776e+002
533125000 -3.934551e-001 -1.457477e+002 -5.413622e+001 1.164532e+002 -5.491161e+001 1.201525e+002 -1.648797e-001 1.326505e+002
533750000 -4.072855e-001 -1.461270e+002 -5.367704e+001 1.170392e+002 -5.515809e+001 1.200576e+002 -1.694140e-001 1.326581e+002
534375000 -4.124331e-001 -1.465051e+002 -5.458886e+001 1.200287e+002 -5.389579e+001 1.206289e+002 -1.465373e-001 1.325580e+002
535000000 -4.249101e-001 -1.467815e+002 -5.448449e+001 1.260728e+002 -5.406031e+001 1.178435e+002 -1.632415e-001 1.325742e+002
535625000 -4.327069e-001 -1.471909e+002 -5.460157e+001 1.199470e+002 -5.428960e+001 1.171143e+002 -1.492166e-001 1.325236e+002
536250000 -4.446002e-001 -1.475213e+002 -5.362502e+001 1.200736e+002 -5.390505e+001 1.125435e+002 -1.618376e-001 1.323736e+002
536875000 -4.558246e-001 -1.479331e+002 -5.413251e+001 1.186709e+002 -5.465042e+001 1.204939e+002 -1.709903e-001 1.323702e+002
537500000 -4.574307e-001 -1.482039e+002 -5.459119e+001 1.183077e+002 -5.354394e+001 1.177238e+002 -1.657657e-001 1.322975e+002
538125000 -4.632449e-001 -1.485633e+002 -5.341639e+001 1.168096e+002 -5.357161e+001 1.150418e+002 -1.708748e-001 1.322853e+002
538750000 -4.879759e-001 -1.489142e+002 -5.356004e+001 1.169390e+002 -5.312659e+001 1.196901e+002 -1.798353e-001 1.321306e+002
539375000 -4.938393e-001 -1.492861e+002 -5.359824e+001 1.182646e+002 -5.353131e+001 1.127902e+002 -1.728375e-001 1.320751e+002
540000000 -4.982756e-001 -1.496354e+002 -5.298283e+001 1.159417e+002 -5.276719e+001 1.110047e+002 -1.785166e-001 1.319004e+002
540625000 -5.085780e-001 -1.500158e+002 -5.290636e+001 1.132184e+002 -5.349995e+001 1.158885e+002 -1.776942e-001 1.318886e+002
541250000 -5.180659e-001 -1.502804e+002 -5.270635e+001 1.145612e+002 -5.294896e+001 1.117229e+002 -1.715810e-001 1.317781e+002
541875000 -5.272552e-001 -1.506544e+002 -5.270596e+001 1.092047e+002 -5.250236e+001 1.080574e+002 -1.766124e-001 1.316455e+002
542500000 -5.369399e-001 -1.509726e+002 -5.284845e+001 1.079906e+002 -5.291494e+001 1.038289e+002 -1.721769e-001 1.316130e+002
543125000 -5.442110e-001 -1.513486e+002 -5.207262e+001 1.084825e+002 -5.346622e+001 1.056731e+002 -1.682947e-001 1.314759e+002
543750000 -5.491914e-001 -1.516241e+002 -5.244862e+001 1.100078e+002 -5.250523e+001 1.045993e+002 -1.756749e-001 1.314338e+002
544375000 -5.661637e-001 -1.519716e+002 -5.253181e+001 1.056105e+002 -5.261192e+001 1.059929e+002 -1.642604e-001 1.314106e+002
545000000 -5.662874e-001 -1.522963e+002 -5.164504e+001 1.060908e+002 -5.236773e+001 1.088297e+002 -1.697838e-001 1.314242e+002
545625000 -5.786616e-001 -1.526528e+002 -5.167561e+001 1.065247e+002 -5.204302e+001 1.071861e+002 -1.686076e-001 1.313134e+002
546250000 -6.010296e-001 -1.529686e+002 -5.215301e+001 1.071708e+002 -5.209566e+001 1.041114e+002 -1.724744e-001 1.312446e+002
546875000 -6.091909e-001 -1.533782e+002 -5.225578e+001 1.026017e+002 -5.221443e+001 1.020311e+002 -1.751816e-001 1.312476e+002
547500000 -6.246552e-001 -1.537204e+002 -5.206530e+001 1.042112e+002 -5.250774e+001 1.050403e+002 -1.765448e-001 1.311799e+002
548125000 -6.373406e-001 -1.540024e+002 -5.169912e+001 1.059201e+002 -5.175563e+001 9.767361e+001 -1.773260e-001 1.311129e+002
548750000 -6.458840e-001 -1.544609e+002 -5.211203e+001 1.018742e+002 -5.222741e+001 9.989324e+001 -1.773022e-001 1.310580e+002
549375000 -6.603317e-001 -1.547955e+002 -5.145424e+001 1.009283e+002 -5.174702e+001 1.017279e+002 -1.847542e-001 1.308088e+002
550000000 -6.701674e-001 -1.551911e+002 -5.192510e+001 1.005924e+002 -5.148977e+001 9.773513e+001 -1.860894e-001 1.307960e+002
550625000 -6.877609e-001 -1.555446e+002 -5.204513e+001 9.552082e+001 -5.193286e+001 9.785655e+001 -1.830644e-001 1.306221e+002
551250000 -6.955922e-001 -1.559375e+002 -5.177090e+001 1.031905e+002 -5.164291e+001 1.007842e+002 -1.881489e-001 1.305244e+002
551875000 -7.172455e-001 -1.562848e+002 -5.054276e+001 9.704852e+001 -5.070856e+001 1.003313e+002 -1.847077e-001 1.303652e+002
552500000 -7.301456e-001 -1.566782e+002 -5.082962e+001 9.457040e+001 -5.110257e+001 9.781235e+001 -1.859654e-001 1.301521e+002
553125000 -7.372082e-001 -1.569949e+002 -5.152531e+001 9.207845e+001 -5.137057e+001 9.662286e+001 -1.913156e-001 1.300352e+002
553750000 -7.615175e-001 -1.573840e+002 -5.108080e+001 9.344296e+001 -5.033020e+001 9.810292e+001 -1.941760e-001 1.298765e+002
554375000 -7.704405e-001 -1.577218e+002 -5.048898e+001 9.123529e+001 -5.062668e+001 9.479730e+001 -1.931122e-001 1.297231e+002
555000000 -7.823931e-001 -1.581070e+002 -5.010660e+001 9.601062e+001 -5.075422e+001 9.035568e+001 -1.987142e-001 1.295880e+002
555625000 -8.130411e-001 -1.584033e+002 -5.019170e+001 8.973668e+001 -5.015979e+001 9.648828e+001 -1.773278e-001 1.295199e+002
556250000 -8.258836e-001 -1.587872e+002 -5.021607e+001 9.447484e+001 -4.994089e+001 9.234560e+001 -1.889214e-001 1.294000e+002
556875000 -8.393074e-001 -1.591487e+002 -4.992558e+001 8.636798e+001 -5.041149e+001 9.053762e+001 -1.908276e-001 1.293161e+002
557500000 -8.681665e-001 -1.594588e+002 -5.030274e+001 9.202693e+001 -4.990305e+001 8.815987e+001 -1.750731e-001 1.292185e+002
558125000 -8.849345e-001 -1.597480e+002 -5.010081e+001 8.737421e+001 -5.058869e+001 8.947814e+001 -1.810546e-001 1.292385e+002
558750000 -8.944643e-001 -1.600925e+002 -5.018864e+001 9.107819e+001 -5.019901e+001 8.932649e+001 -1.695115e-001 1.291560e+002
559375000 -9.203563e-001 -1.603866e+002 -4.995948e+001 8.868399e+001 -4.989170e+001 8.755463e+001 -1.626214e-001 1.291531e+002
560000000 -9.464585e-001 -1.606947e+002 -4.984631e+001 8.930843e+001 -5.044037e+001 8.915191e+001 -1.544779e-001 1.291265e+002
560625000 -9.533962e-001 -1.609551e+002 -4.985420e+001 8.418368e+001 -5.017611e+001 8.793049e+001 -1.464765e-001 1.292197e+002
561250000 -9.742534e-001 -1.613167e+002 -4.963587e+001 8.798860e+001 -4.951714e+001 8.817936e+001 -1.394952e-001 1.292706e+002
561875000 -9.951527e-001 -1.616134e+002 -4.945837e+001 8.410979e+001 -5.026415e+001 8.779727e+001 -1.429374e-001 1.293223e+002
562500000 -1.017831e+000 -1.619195e+002 -4.912614e+001 8.340806e+001 -4.964214e+001 8.297305e+001 -1.469622e-001 1.294141e+002
563125000 -1.028849e+000 -1.622206e+002 -4.913031e+001 8.001042e+001 -4.965296e+001 8.372686e+001 -1.360763e-001 1.294231e+002
563750000 -1.053089e+000 -1.625810e+002 -4.944191e+001 8.149443e+001 -4.942623e+001 8.260840e+001 -1.537194e-001 1.294832e+002
564375000 -1.078650e+000 -1.628659e+002 -4.906062e+001 8.180174e+001 -4.961464e+001 8.146674e+001 -1.461034e-001 1.295281e+002
565000000 -1.090570e+000 -1.633222e+002 -4.896598e+001 8.519760e+001 -4.914360e+001 8.114407e+001 -1.504159e-001 1.295152e+002
565625000 -1.112898e+000 -1.636733e+002 -4.902265e+001 7.991650e+001 -4.862990e+001 7.917643e+001 -1.637831e-001 1.295641e+002
566250000 -1.137017e+000 -1.641280e+002 -4.867986e+001 7.796828e+001 -4.887850e+001 8.197998e+001 -1.596868e-001 1.295767e+002
566875000 -1.167920e+000 -1.645048e+002 -4.862057e+001 8.098724e+001 -4.858358e+001 7.681155e+001 -1.564887e-001 1.294878e+002
567500000 -1.186174e+000 -1.649502e+002 -4.836851e+001 7.704266e+001 -4.840793e+001 7.660622e+001 -1.671181e-001 1.294984e+002
568125000 -1.218452e+000 -1.653271e+002 -4.804265e+001 7.807344e+001 -4.819610e+001 7.457388e+001 -1.775425e-001 1.294418e+002
568750000 -1.241359e+000 -1.657424e+002 -4.806249e+001 7.895476e+001 -4.841724e+001 7.303640e+001 -1.800529e-001 1.293630e+002
569375000 -1.268419e+000 -1.661923e+002 -4.798690e+001 7.454575e+001 -4.820819e+001 7.403536e+001 -1.823433e-001 1.293379e+002
570000000 -1.290411e+000 -1.666527e+002 -4.792429e+001 7.256823e+001 -4.819637e+001 7.580429e+001 -1.811938e-001 1.291790e+002
570625000 -1.314412e+000 -1.669876e+002 -4.723135e+001 7.202662e+001 -4.795960e+001 7.354960e+001 -1.736186e-001 1.292044e+002
571250000 -1.336360e+000 -1.674377e+002 -4.765061e+001 7.439223e+001 -4.756349e+001 7.346541e+001 -1.797345e-001 1.291709e+002
571875000 -1.359389e+000 -1.678638e+002 -4.798085e+001 7.450242e+001 -4.796430e+001 6.929885e+001 -1.711739e-001 1.289963e+002
572500000 -1.393139e+000 -1.682870e+002 -4.759245e+001 7.502578e+001 -4.774631e+001 7.067612e+001 -1.799400e-001 1.289774e+002
573125000 -1.418417e+000 -1.687248e+002 -4.741408e+001 6.895103e+001 -4.767180e+001 6.881147e+001 -1.699064e-001 1.289417e+002
573750000 -1.440113e+000 -1.690827e+002 -4.717102e+001 7.236771e+001 -4.762904e+001 7.033188e+001 -1.777643e-001 1.288374e+002
574375000 -1.473889e+000 -1.695145e+002 -4.715581e+001 7.021644e+001 -4.711931e+001 6.633452e+001 -1.772583e-001 1.288361e+002
575000000 -1.506331e+000 -1.699495e+002 -4.675257e+001 6.764304e+001 -4.746039e+001 6.790164e+001 -1.785238e-001 1.287150e+002
575625000 -1.538501e+000 -1.703280e+002 -4.724629e+001 6.509528e+001 -4.707725e+001 6.707219e+001 -1.809948e-001 1.287286e+002
576250000 -1.566326e+000 -1.706987e+002 -4.705220e+001 6.602245e+001 -4.723239e+001 6.568148e+001 -1.907942e-001 1.285811e+002
576875000 -1.593752e+000 -1.710680e+002 -4.684431e+001 6.535863e+001 -4.700466e+001 6.053522e+001 -1.875779e-001 1.285232e+002
577500000 -1.639034e+000 -1.713609e+002 -4.672049e+001 6.369638e+001 -4.685012e+001 6.436336e+001 -1.820109e-001 1.284108e+002
578125000 -1.666319e+000 -1.717298e+002 -4.678116e+001 6.282383e+001 -4.713884e+001 6.247530e+001 -1.848890e-001 1.283759e+002
578750000 -1.693304e+000 -1.720981e+002 -4.667598e+001 6.075360e+001 -4.688753e+001 6.053058e+001 -1.915045e-001 1.281788e+002
579375000 -1.722382e+000 -1.723891e+002 -4.632949e+001 5.858454e+001 -4.660401e+001 5.931636e+001 -2.032105e-001 1.280085e+002
580000000 -1.754897e+000 -1.726824e+002 -4.652117e+001 5.590896e+001 -4.649768e+001 5.680415e+001 -2.032362e-001 1.278541e+002
580625000 -1.782651e+000 -1.730209e+002 -4.662131e+001 5.687029e+001 -4.674051e+001 5.914082e+001 -2.048916e-001 1.276549e+002
581250000 -1.803173e+000 -1.733323e+002 -4.642325e+001 5.570160e+001 -4.665470e+001 5.813068e+001 -2.109647e-001 1.275183e+002
581875000 -1.843325e+000 -1.736740e+002 -4.660789e+001 5.712450e+001 -4.623473e+001 5.394005e+001 -2.154433e-001 1.272685e+002
582500000 -1.864400e+000 -1.739591e+002 -4.633941e+001 5.330270e+001 -4.620174e+001 5.341484e+001 -2.128582e-001 1.270065e+002
583125000 -1.882935e+000 -1.744515e+002 -4.649349e+001 5.302265e+001 -4.634182e+001 5.207427e+001 -2.256502e-001 1.267120e+002
583750000 -1.896006e+000 -1.748219e+002 -4.602517e+001 5.135662e+001 -4.597112e+001 5.348516e+001 -2.300856e-001 1.265232e+002
584375000 -1.910923e+000 -1.751947e+002 -4.601254e+001 4.908901e+001 -4.623105e+001 5.289566e+001 -2.173516e-001 1.262981e+002
585000000 -1.919082e+000 -1.756482e+002 -4.625608e+001 5.049221e+001 -4.639289e+001 5.316608e+001 -2.195843e-001 1.261006e+002
585625000 -1.952002e+000 -1.761075e+002 -4.636813e+001 5.096287e+001 -4.571593e+001 5.115037e+001 -2.080437e-001 1.258879e+002
586250000 -1.951603e+000 -1.765781e+002 -4.620599e+001 4.973620e+001 -4.580573e+001 4.747715e+001 -2.055157e-001 1.257826e+002
586875000 -1.977372e+000 -1.770760e+002 -4.549364e+001 4.982969e+001 -4.595019e+001 4.867098e+001 -2.071781e-001 1.256020e+002
587500000 -2.002207e+000 -1.775855e+002 -4.544166e+001 4.782990e+001 -4.542618e+001 4.760204e+001 -1.902064e-001 1.254497e+002
588125000 -2.027876e+000 -1.780481e+002 -4.535167e+001 4.752477e+001 -4.555710e+001 4.598619e+001 -1.852881e-001 1.253347e+002
588750000 -2.054222e+000 -1.784934e+002 -4.572095e+001 4.635730e+001 -4.555514e+001 4.686873e+001 -1.845350e-001 1.253449e+002
589375000 -2.079107e+000 -1.789855e+002 -4.533749e+001 4.677401e+001 -4.550360e+001 4.503251e+001 -1.649302e-001 1.252165e+002
590000000 -2.114818e+000 -1.793874e+002 -4.519945e+001 4.404935e+001 -4.537219e+001 4.567902e+001 -1.714096e-001 1.252719e+002
590625000 -2.144152e+000 -1.798384e+002 -4.516695e+001 4.538792e+001 -4.507318e+001 4.320628e+001 -1.635368e-001 1.252156e+002
591250000 -2.184218e+000 1.798328e+002 -4.482383e+001 3.999076e+001 -4.498267e+001 4.224625e+001 -1.668873e-001 1.252413e+002
591875000 -2.226912e+000 1.794819e+002 -4.505587e+001 4.062189e+001 -4.509993e+001 4.014019e+001 -1.635210e-001 1.252944e+002
592500000 -2.269956e+000 1.791469e+002 -4.453324e+001 4.144140e+001 -4.492919e+001 3.948733e+001 -1.522588e-001 1.253575e+002
593125000 -2.304822e+000 1.788932e+002 -4.463201e+001 3.946786e+001 -4.493642e+001 3.649264e+001 -1.585004e-001 1.254553e+002
593750000 -2.343336e+000 1.786421e+002 -4.442032e+001 3.790074e+001 -4.460439e+001 3.751549e+001 -1.470378e-001 1.255262e+002
594375000 -2.374613e+000 1.784239e+002 -4.484512e+001 3.575900e+001 -4.474072e+001 3.638269e+001 -1.469238e-001 1.255475e+002
595000000 -2.394701e+000 1.781333e+002 -4.470031e+001 3.627570e+001 -4.443034e+001 3.482950e+001 -1.541426e-001 1.256809e+002
595625000 -2.426195e+000 1.778222e+002 -4.452750e+001 3.399716e+001 -4.418341e+001 3.259424e+001 -1.481141e-001 1.257097e+002
596250000 -2.468762e+000 1.775889e+002 -4.469862e+001 3.325228e+001 -4.432545e+001 3.260360e+001 -1.580706e-001 1.257267e+002
