!Agilent Technologies,E8364B,US42250235,A.06.04.32
!Agilent E8364B: A.06.04.32
!Date: Friday, January 15, 2021 16:13:58
!Correction: S11(Full 2 Port(1,2)) S21(Full 2 Port(1,2)) S12(Full 2 Port(1,2)) S22(Full 2 Port(1,2)) 
!S2P File: Measurements: S11, S21, S12, S22:
# Hz S  dB   R 50
500000000 -1.098282e-001 -1.295094e+002 -5.825412e+001 -5.759324e+001 -6.068663e+001 -7.220705e+001 -1.697955e-001 1.361644e+002
500625000 -1.070577e-001 -1.297720e+002 -6.056712e+001 -4.938576e+001 -5.950825e+001 -6.307479e+001 -1.763179e-001 1.361731e+002
501250000 -1.189715e-001 -1.300042e+002 -5.900082e+001 -6.753754e+001 -5.829166e+001 -5.739582e+001 -1.747939e-001 1.361034e+002
501875000 -1.118744e-001 -1.303081e+002 -5.942210e+001 -5.980454e+001 -5.781532e+001 -6.206548e+001 -1.678589e-001 1.360732e+002
502500000 -1.093377e-001 -1.305320e+002 -5.870831e+001 -6.114882e+001 -5.774006e+001 -6.395617e+001 -1.635625e-001 1.360224e+002
503125000 -1.208324e-001 -1.308717e+002 -6.146407e+001 -7.053999e+001 -5.832671e+001 -6.400896e+001 -1.712772e-001 1.359143e+002
503750000 -1.221387e-001 -1.310758e+002 -5.884156e+001 -6.512039e+001 -5.797183e+001 -7.700142e+001 -1.678816e-001 1.358134e+002
504375000 -1.329382e-001 -1.313670e+002 -5.931962e+001 -8.153051e+001 -5.858669e+001 -7.209102e+001 -1.853619e-001 1.357437e+002
505000000 -1.403529e-001 -1.316437e+002 -5.977018e+001 -6.762794e+001 -5.899885e+001 -6.837766e+001 -1.836190e-001 1.356433e+002
505625000 -1.336939e-001 -1.318608e+002 -5.908415e+001 -7.401906e+001 -5.904337e+001 -6.220672e+001 -1.844677e-001 1.355552e+002
506250000 -1.465170e-001 -1.321608e+002 -5.779492e+001 -8.128756e+001 -5.944476e+001 -6.866743e+001 -1.805425e-001 1.353821e+002
506875000 -1.441445e-001 -1.324051e+002 -5.882059e+001 -6.890520e+001 -6.004343e+001 -7.520196e+001 -1.877798e-001 1.352010e+002
507500000 -1.523319e-001 -1.326404e+002 -6.033512e+001 -7.012026e+001 -5.937808e+001 -8.371076e+001 -1.899834e-001 1.350162e+002
508125000 -1.548914e-001 -1.329171e+002 -5.687099e+001 -6.904549e+001 -5.872223e+001 -8.434510e+001 -1.964619e-001 1.348445e+002
508750000 -1.590579e-001 -1.331636e+002 -5.725475e+001 -7.500368e+001 -5.760949e+001 -7.450414e+001 -1.935007e-001 1.346420e+002
509375000 -1.679484e-001 -1.334627e+002 -6.004087e+001 -7.391135e+001 -5.714077e+001 -6.613409e+001 -2.017486e-001 1.345221e+002
510000000 -1.698495e-001 -1.337307e+002 -5.785740e+001 -7.447166e+001 -5.912682e+001 -7.676112e+001 -2.066641e-001 1.342318e+002
510625000 -1.773093e-001 -1.339449e+002 -5.786200e+001 -7.011163e+001 -5.766389e+001 -7.820087e+001 -1.886005e-001 1.340659e+002
511250000 -1.799765e-001 -1.341892e+002 -5.718568e+001 -7.902733e+001 -5.806799e+001 -7.732379e+001 -2.039462e-001 1.337599e+002
511875000 -1.789277e-001 -1.344909e+002 -5.656964e+001 -7.758305e+001 -5.882389e+001 -8.217688e+001 -1.958332e-001 1.336367e+002
512500000 -1.878636e-001 -1.347557e+002 -5.727521e+001 -8.109847e+001 -5.795277e+001 -7.834084e+001 -1.936707e-001 1.333513e+002
513125000 -2.033402e-001 -1.350446e+002 -5.724118e+001 -8.340392e+001 -5.757287e+001 -7.725323e+001 -2.049619e-001 1.332086e+002
513750000 -2.073696e-001 -1.352879e+002 -5.718491e+001 -7.972935e+001 -5.960450e+001 -8.267886e+001 -1.994634e-001 1.330817e+002
514375000 -2.154041e-001 -1.356218e+002 -5.732991e+001 -9.204984e+001 -6.153569e+001 -7.619998e+001 -1.800569e-001 1.328457e+002
515000000 -2.179439e-001 -1.359242e+002 -5.819711e+001 -8.182699e+001 -5.834770e+001 -7.978366e+001 -1.810569e-001 1.327133e+002
515625000 -2.327799e-001 -1.363290e+002 -5.650663e+001 -7.736105e+001 -5.858038e+001 -8.788371e+001 -1.783133e-001 1.326284e+002
516250000 -2.306292e-001 -1.365704e+002 -5.619450e+001 -8.185444e+001 -5.824932e+001 -9.444073e+001 -1.775500e-001 1.324660e+002
516875000 -2.462101e-001 -1.369037e+002 -5.820492e+001 -8.663058e+001 -5.868590e+001 -9.112810e+001 -1.709627e-001 1.324915e+002
517500000 -2.454738e-001 -1.372528e+002 -5.735188e+001 -9.265448e+001 -5.884609e+001 -9.453488e+001 -1.761958e-001 1.323922e+002
518125000 -2.446230e-001 -1.375954e+002 -5.703140e+001 -9.072487e+001 -5.671445e+001 -8.786354e+001 -1.649648e-001 1.323723e+002
518750000 -2.600570e-001 -1.379424e+002 -5.693287e+001 -8.247005e+001 -5.625761e+001 -8.716303e+001 -1.593550e-001 1.323870e+002
519375000 -2.725853e-001 -1.382106e+002 -5.688445e+001 -8.726514e+001 -5.617811e+001 -8.441673e+001 -1.505334e-001 1.323233e+002
520000000 -2.737363e-001 -1.385574e+002 -5.599018e+001 -9.283200e+001 -5.751041e+001 -9.158333e+001 -1.557987e-001 1.322993e+002
520625000 -2.820233e-001 -1.389612e+002 -5.713063e+001 -8.812180e+001 -5.540757e+001 -9.498840e+001 -1.449494e-001 1.322899e+002
521250000 -2.896614e-001 -1.393010e+002 -5.683727e+001 -9.559233e+001 -5.587901e+001 -9.666238e+001 -1.510769e-001 1.323807e+002
521875000 -2.931153e-001 -1.396575e+002 -5.650825e+001 -9.179021e+001 -5.674566e+001 -9.536987e+001 -1.385389e-001 1.324277e+002
522500000 -2.929699e-001 -1.400013e+002 -5.637630e+001 -9.808394e+001 -5.530988e+001 -9.779476e+001 -1.512535e-001 1.323828e+002
523125000 -3.117170e-001 -1.403718e+002 -5.547761e+001 -9.548341e+001 -5.609411e+001 -9.180755e+001 -1.454805e-001 1.324402e+002
523750000 -3.084834e-001 -1.406719e+002 -5.683700e+001 -9.650524e+001 -5.555423e+001 -9.849366e+001 -1.429859e-001 1.324698e+002
524375000 -3.306864e-001 -1.410385e+002 -5.682888e+001 -1.050579e+002 -5.600880e+001 -1.079313e+002 -1.425817e-001 1.324124e+002
525000000 -3.286385e-001 -1.413818e+002 -5.505886e+001 -9.934515e+001 -5.644864e+001 -9.670602e+001 -1.621672e-001 1.324753e+002
525625000 -3.480721e-001 -1.416428e+002 -5.459557e+001 -9.774921e+001 -5.631271e+001 -1.020980e+002 -1.583134e-001 1.324628e+002
526250000 -3.490330e-001 -1.419886e+002 -5.449841e+001 -1.019095e+002 -5.615559e+001 -9.611093e+001 -1.560383e-001 1.325049e+002
526875000 -3.641822e-001 -1.423478e+002 -5.506994e+001 -1.029805e+002 -5.429564e+001 -1.066611e+002 -1.537365e-001 1.324421e+002
527500000 -3.765147e-001 -1.426469e+002 -5.396086e+001 -1.053033e+002 -5.405861e+001 -1.087575e+002 -1.566082e-001 1.324589e+002
528125000 -3.977266e-001 -1.429594e+002 -5.453321e+001 -1.086544e+002 -5.396899e+001 -1.112608e+002 -1.512464e-001 1.325424e+002
528750000 -3.940938e-001 -1.432842e+002 -5.409984e+001 -1.066322e+002 -5.511325e+001 -1.089429e+002 -1.554226e-001 1.325943e+002
529375000 -4.110695e-001 -1.436369e+002 -5.376670e+001 -1.085060e+002 -5.464917e+001 -1.092234e+002 -1.569781e-001 1.325057e+002
530000000 -4.239723e-001 -1.440157e+002 -5.332222e+001 -1.126064e+002 -5.488894e+001 -1.158823e+002 -1.660810e-001 1.325722e+002
530625000 -4.319531e-001 -1.442872e+002 -5.342019e+001 -1.141263e+002 -5.437097e+001 -1.138958e+002 -1.649984e-001 1.325495e+002
531250000 -4.421144e-001 -1.446128e+002 -5.389161e+001 -1.127438e+002 -5.445389e+001 -1.166073e+002 -1.475641e-001 1.325572e+002
531875000 -4.665887e-001 -1.448992e+002 -5.475929e+001 -1.224138e+002 -5.457976e+001 -1.176744e+002 -1.602843e-001 1.325249e+002
532500000 -4.695306e-001 -1.452021e+002 -5.444230e+001 -1.239669e+002 -5.371528e+001 -1.190778e+002 -1.537449e-001 1.325710e+002
533125000 -4.773268e-001 -1.455681e+002 -5.431648e+001 -1.236190e+002 -5.366412e+001 -1.157430e+002 -1.691676e-001 1.325747e+002
533750000 -4.991921e-001 -1.459042e+002 -5.424886e+001 -1.237743e+002 -5.349078e+001 -1.158946e+002 -1.767628e-001 1.325405e+002
534375000 -4.965653e-001 -1.462765e+002 -5.347792e+001 -1.273184e+002 -5.398998e+001 -1.261503e+002 -1.586079e-001 1.325135e+002
535000000 -5.147684e-001 -1.465704e+002 -5.327338e+001 -1.209018e+002 -5.397915e+001 -1.171301e+002 -1.615443e-001 1.324379e+002
535625000 -5.259450e-001 -1.469247e+002 -5.484642e+001 -1.235341e+002 -5.433752e+001 -1.231799e+002 -1.603010e-001 1.324550e+002
536250000 -5.333355e-001 -1.472689e+002 -5.364491e+001 -1.226533e+002 -5.360752e+001 -1.289953e+002 -1.647217e-001 1.323476e+002
536875000 -5.437593e-001 -1.476127e+002 -5.329702e+001 -1.272396e+002 -5.445069e+001 -1.302396e+002 -1.747853e-001 1.322531e+002
537500000 -5.527861e-001 -1.479033e+002 -5.302153e+001 -1.317553e+002 -5.345353e+001 -1.313835e+002 -1.724711e-001 1.322490e+002
538125000 -5.737606e-001 -1.482598e+002 -5.304612e+001 -1.353504e+002 -5.349161e+001 -1.253721e+002 -1.801552e-001 1.321892e+002
538750000 -5.828960e-001 -1.486033e+002 -5.342778e+001 -1.283695e+002 -5.354818e+001 -1.317857e+002 -1.821173e-001 1.320293e+002
539375000 -5.925136e-001 -1.488696e+002 -5.308717e+001 -1.268602e+002 -5.347807e+001 -1.309311e+002 -1.771711e-001 1.319574e+002
540000000 -5.996322e-001 -1.492354e+002 -5.273920e+001 -1.274209e+002 -5.314194e+001 -1.355079e+002 -1.845494e-001 1.318231e+002
540625000 -6.211751e-001 -1.495547e+002 -5.249992e+001 -1.385229e+002 -5.326937e+001 -1.366617e+002 -1.751403e-001 1.317990e+002
541250000 -6.257110e-001 -1.497697e+002 -5.395571e+001 -1.384553e+002 -5.289266e+001 -1.357596e+002 -1.718987e-001 1.316848e+002
541875000 -6.372470e-001 -1.500730e+002 -5.288430e+001 -1.422449e+002 -5.388697e+001 -1.345498e+002 -1.845239e-001 1.315869e+002
542500000 -6.425359e-001 -1.503926e+002 -5.269171e+001 -1.369350e+002 -5.287266e+001 -1.405246e+002 -1.840615e-001 1.315532e+002
543125000 -6.470112e-001 -1.507100e+002 -5.321521e+001 -1.365617e+002 -5.267930e+001 -1.404158e+002 -1.739661e-001 1.314179e+002
543750000 -6.443988e-001 -1.510171e+002 -5.279259e+001 -1.404894e+002 -5.242802e+001 -1.416714e+002 -1.767306e-001 1.313683e+002
544375000 -6.602654e-001 -1.513111e+002 -5.306211e+001 -1.434611e+002 -5.274634e+001 -1.392509e+002 -1.765862e-001 1.313328e+002
545000000 -6.617109e-001 -1.516417e+002 -5.261186e+001 -1.379814e+002 -5.373838e+001 -1.393485e+002 -1.724953e-001 1.312991e+002
545625000 -6.756195e-001 -1.519448e+002 -5.236718e+001 -1.404056e+002 -5.286829e+001 -1.387622e+002 -1.761308e-001 1.312659e+002
546250000 -6.898060e-001 -1.523193e+002 -5.238879e+001 -1.445762e+002 -5.256169e+001 -1.417274e+002 -1.812584e-001 1.312121e+002
546875000 -6.966152e-001 -1.526326e+002 -5.158892e+001 -1.387865e+002 -5.256251e+001 -1.426088e+002 -1.784475e-001 1.312034e+002
547500000 -7.150052e-001 -1.529979e+002 -5.304131e+001 -1.513077e+002 -5.200049e+001 -1.454964e+002 -1.788348e-001 1.311438e+002
548125000 -7.295515e-001 -1.532706e+002 -5.222059e+001 -1.476422e+002 -5.271701e+001 -1.432222e+002 -1.749320e-001 1.310291e+002
548750000 -7.385289e-001 -1.536488e+002 -5.196940e+001 -1.475621e+002 -5.187020e+001 -1.441457e+002 -1.819005e-001 1.309638e+002
549375000 -7.677360e-001 -1.539926e+002 -5.187699e+001 -1.505848e+002 -5.169401e+001 -1.454891e+002 -1.877762e-001 1.307692e+002
550000000 -7.737072e-001 -1.543299e+002 -5.177945e+001 -1.522396e+002 -5.107377e+001 -1.509713e+002 -1.871160e-001 1.307405e+002
550625000 -7.837381e-001 -1.546201e+002 -5.111769e+001 -1.520214e+002 -5.184082e+001 -1.509576e+002 -1.924247e-001 1.305851e+002
551250000 -7.942873e-001 -1.549596e+002 -5.187921e+001 -1.513820e+002 -5.168547e+001 -1.497025e+002 -1.915729e-001 1.304847e+002
551875000 -8.097100e-001 -1.552261e+002 -5.169912e+001 -1.554361e+002 -5.146188e+001 -1.558266e+002 -1.976340e-001 1.302986e+002
552500000 -8.235501e-001 -1.555761e+002 -5.126373e+001 -1.557891e+002 -5.198257e+001 -1.597902e+002 -1.971870e-001 1.301412e+002
553125000 -8.252670e-001 -1.558372e+002 -5.138844e+001 -1.568914e+002 -5.142708e+001 -1.541476e+002 -2.040449e-001 1.300561e+002
553750000 -8.477669e-001 -1.562095e+002 -5.056486e+001 -1.549982e+002 -5.086100e+001 -1.591518e+002 -2.068220e-001 1.298466e+002
554375000 -8.566121e-001 -1.564865e+002 -5.037611e+001 -1.604247e+002 -5.106198e+001 -1.574479e+002 -1.968881e-001 1.296509e+002
555000000 -8.599616e-001 -1.568380e+002 -5.079650e+001 -1.623204e+002 -5.098852e+001 -1.635361e+002 -2.037415e-001 1.296153e+002
555625000 -8.790174e-001 -1.570496e+002 -5.134989e+001 -1.656363e+002 -5.092500e+001 -1.646690e+002 -1.937615e-001 1.294847e+002
556250000 -8.905368e-001 -1.573872e+002 -5.121995e+001 -1.689482e+002 -5.107314e+001 -1.641230e+002 -1.931062e-001 1.293410e+002
556875000 -9.036732e-001 -1.577384e+002 -5.111291e+001 -1.691431e+002 -5.108776e+001 -1.700655e+002 -1.951525e-001 1.292558e+002
557500000 -9.230132e-001 -1.580123e+002 -5.022853e+001 -1.658108e+002 -5.089685e+001 -1.675702e+002 -1.913843e-001 1.291490e+002
558125000 -9.436928e-001 -1.582583e+002 -5.036118e+001 -1.665564e+002 -5.082231e+001 -1.672638e+002 -1.839810e-001 1.291056e+002
558750000 -9.532631e-001 -1.585830e+002 -5.068116e+001 -1.686638e+002 -5.080170e+001 -1.705693e+002 -1.722703e-001 1.291162e+002
559375000 -9.617391e-001 -1.587935e+002 -5.036180e+001 -1.759600e+002 -5.066457e+001 -1.688056e+002 -1.705060e-001 1.291454e+002
560000000 -9.925945e-001 -1.590076e+002 -5.007615e+001 -1.715304e+002 -5.019962e+001 -1.723154e+002 -1.542882e-001 1.290478e+002
560625000 -9.936005e-001 -1.592742e+002 -5.006633e+001 -1.699780e+002 -5.085833e+001 -1.748960e+002 -1.609156e-001 1.291646e+002
561250000 -1.000547e+000 -1.595673e+002 -5.010587e+001 -1.754672e+002 -4.995750e+001 -1.766575e+002 -1.534768e-001 1.291688e+002
561875000 -1.001669e+000 -1.598238e+002 -4.940263e+001 -1.781290e+002 -5.094168e+001 -1.752971e+002 -1.567408e-001 1.292341e+002
562500000 -1.014157e+000 -1.601135e+002 -4.985787e+001 -1.783797e+002 -4.964985e+001 -1.790350e+002 -1.611129e-001 1.293087e+002
563125000 -1.017107e+000 -1.603956e+002 -4.983067e+001 1.770068e+002 -5.063453e+001 -1.785058e+002 -1.533933e-001 1.293583e+002
563750000 -1.029024e+000 -1.607642e+002 -4.948507e+001 1.783644e+002 -5.047593e+001 1.799740e+002 -1.695500e-001 1.293827e+002
564375000 -1.037579e+000 -1.610409e+002 -4.991140e+001 1.795901e+002 -5.011102e+001 -1.782686e+002 -1.652846e-001 1.294455e+002
565000000 -1.050638e+000 -1.614692e+002 -4.984437e+001 1.769448e+002 -4.957158e+001 1.767259e+002 -1.592917e-001 1.294298e+002
565625000 -1.061756e+000 -1.618073e+002 -5.002728e+001 1.775770e+002 -4.979097e+001 1.781588e+002 -1.664885e-001 1.294562e+002
566250000 -1.077452e+000 -1.622137e+002 -4.965747e+001 1.699108e+002 -5.001447e+001 1.728179e+002 -1.689888e-001 1.294763e+002
566875000 -1.102090e+000 -1.625805e+002 -4.965112e+001 1.716351e+002 -4.927800e+001 1.746259e+002 -1.715759e-001 1.293555e+002
567500000 -1.117010e+000 -1.630021e+002 -4.964501e+001 1.722041e+002 -4.965724e+001 1.701214e+002 -1.833585e-001 1.293831e+002
568125000 -1.141285e+000 -1.633514e+002 -4.992944e+001 1.721870e+002 -4.980244e+001 1.727542e+002 -1.776541e-001 1.293429e+002
568750000 -1.154737e+000 -1.637230e+002 -4.972858e+001 1.693400e+002 -4.948261e+001 1.716740e+002 -1.917898e-001 1.292549e+002
569375000 -1.168185e+000 -1.640867e+002 -4.966029e+001 1.639937e+002 -5.001881e+001 1.694222e+002 -1.887303e-001 1.291854e+002
570000000 -1.181426e+000 -1.645088e+002 -4.947150e+001 1.641615e+002 -4.997520e+001 1.699887e+002 -1.897775e-001 1.290604e+002
570625000 -1.188410e+000 -1.649168e+002 -4.928804e+001 1.687051e+002 -4.962879e+001 1.669559e+002 -1.935176e-001 1.290724e+002
571250000 -1.204687e+000 -1.653301e+002 -4.970266e+001 1.671232e+002 -4.947230e+001 1.657050e+002 -1.864968e-001 1.289988e+002
571875000 -1.217801e+000 -1.657308e+002 -4.886314e+001 1.611290e+002 -4.944991e+001 1.631348e+002 -1.856020e-001 1.289263e+002
572500000 -1.236170e+000 -1.661368e+002 -4.996548e+001 1.617935e+002 -5.006956e+001 1.632130e+002 -1.933903e-001 1.288957e+002
573125000 -1.250160e+000 -1.665044e+002 -5.027374e+001 1.589568e+002 -4.938459e+001 1.641515e+002 -1.806845e-001 1.288097e+002
573750000 -1.262497e+000 -1.668989e+002 -4.906549e+001 1.611453e+002 -4.954251e+001 1.594490e+002 -1.980577e-001 1.287634e+002
574375000 -1.272542e+000 -1.672588e+002 -4.900116e+001 1.573994e+002 -4.915376e+001 1.614988e+002 -1.839335e-001 1.287631e+002
575000000 -1.292279e+000 -1.677092e+002 -4.856120e+001 1.603790e+002 -4.911410e+001 1.600964e+002 -1.822680e-001 1.286789e+002
575625000 -1.302632e+000 -1.680563e+002 -4.904410e+001 1.581221e+002 -4.872042e+001 1.604477e+002 -1.857546e-001 1.286455e+002
576250000 -1.310665e+000 -1.684056e+002 -4.875106e+001 1.526248e+002 -4.896825e+001 1.583468e+002 -1.945744e-001 1.285134e+002
576875000 -1.315023e+000 -1.688365e+002 -4.879110e+001 1.557228e+002 -4.877995e+001 1.577799e+002 -1.930894e-001 1.285067e+002
577500000 -1.332463e+000 -1.692077e+002 -4.837120e+001 1.518886e+002 -4.862460e+001 1.550727e+002 -1.924209e-001 1.283073e+002
578125000 -1.344826e+000 -1.696130e+002 -4.881716e+001 1.540033e+002 -4.909971e+001 1.545473e+002 -1.967461e-001 1.282763e+002
578750000 -1.354881e+000 -1.700355e+002 -4.843495e+001 1.492796e+002 -4.840650e+001 1.525007e+002 -2.008275e-001 1.281231e+002
579375000 -1.366425e+000 -1.704410e+002 -4.857348e+001 1.477901e+002 -4.887289e+001 1.504934e+002 -2.001852e-001 1.279677e+002
580000000 -1.385278e+000 -1.708231e+002 -4.848568e+001 1.511140e+002 -4.870127e+001 1.463338e+002 -2.067600e-001 1.278149e+002
580625000 -1.399539e+000 -1.712969e+002 -4.846254e+001 1.452809e+002 -4.746516e+001 1.488215e+002 -2.151080e-001 1.276232e+002
581250000 -1.412802e+000 -1.717225e+002 -4.830449e+001 1.447367e+002 -4.833923e+001 1.455568e+002 -2.141292e-001 1.274538e+002
581875000 -1.423820e+000 -1.721120e+002 -4.801622e+001 1.419164e+002 -4.879825e+001 1.467820e+002 -2.264884e-001 1.272856e+002
582500000 -1.443948e+000 -1.725473e+002 -4.862784e+001 1.418512e+002 -4.853320e+001 1.398513e+002 -2.263143e-001 1.269933e+002
583125000 -1.439242e+000 -1.730863e+002 -4.828133e+001 1.418591e+002 -4.847998e+001 1.390250e+002 -2.331566e-001 1.266852e+002
583750000 -1.456123e+000 -1.735650e+002 -4.843678e+001 1.377009e+002 -4.859658e+001 1.419484e+002 -2.315455e-001 1.264972e+002
584375000 -1.458394e+000 -1.740728e+002 -4.853107e+001 1.362247e+002 -4.858578e+001 1.406668e+002 -2.245083e-001 1.262396e+002
585000000 -1.481663e+000 -1.746489e+002 -4.844936e+001 1.396360e+002 -4.839833e+001 1.373842e+002 -2.333181e-001 1.260562e+002
585625000 -1.505334e+000 -1.751606e+002 -4.858652e+001 1.366936e+002 -4.839729e+001 1.382140e+002 -2.182890e-001 1.258724e+002
586250000 -1.516783e+000 -1.757088e+002 -4.869781e+001 1.377580e+002 -4.866138e+001 1.385700e+002 -2.194960e-001 1.257639e+002
586875000 -1.534793e+000 -1.762505e+002 -4.870496e+001 1.385398e+002 -4.876875e+001 1.353535e+002 -2.120979e-001 1.255487e+002
587500000 -1.568138e+000 -1.767503e+002 -4.845908e+001 1.355000e+002 -4.883207e+001 1.320194e+002 -2.048206e-001 1.254293e+002
588125000 -1.576794e+000 -1.772132e+002 -4.866202e+001 1.333665e+002 -4.833066e+001 1.344931e+002 -2.006694e-001 1.253336e+002
588750000 -1.596951e+000 -1.776489e+002 -4.876490e+001 1.340442e+002 -4.838076e+001 1.323723e+002 -1.957823e-001 1.253029e+002
589375000 -1.609375e+000 -1.781737e+002 -4.814528e+001 1.322871e+002 -4.816730e+001 1.326439e+002 -1.759637e-001 1.252085e+002
590000000 -1.632408e+000 -1.786248e+002 -4.828908e+001 1.293106e+002 -4.850849e+001 1.302263e+002 -1.783956e-001 1.252421e+002
590625000 -1.650715e+000 -1.791015e+002 -4.763273e+001 1.300061e+002 -4.849487e+001 1.331311e+002 -1.749412e-001 1.251988e+002
591250000 -1.674854e+000 -1.795606e+002 -4.774874e+001 1.291162e+002 -4.804419e+001 1.294091e+002 -1.671171e-001 1.252561e+002
591875000 -1.705360e+000 -1.799850e+002 -4.820444e+001 1.297064e+002 -4.843628e+001 1.308643e+002 -1.712935e-001 1.252511e+002
592500000 -1.736159e+000 1.795942e+002 -4.797319e+001 1.258032e+002 -4.813340e+001 1.291844e+002 -1.603497e-001 1.252864e+002
593125000 -1.756286e+000 1.792534e+002 -4.788323e+001 1.258981e+002 -4.752843e+001 1.285865e+002 -1.688122e-001 1.253725e+002
593750000 -1.779454e+000 1.788368e+002 -4.747501e+001 1.246938e+002 -4.732906e+001 1.284987e+002 -1.596850e-001 1.254867e+002
594375000 -1.788429e+000 1.785386e+002 -4.701468e+001 1.250728e+002 -4.747010e+001 1.261548e+002 -1.558043e-001 1.255896e+002
595000000 -1.814049e+000 1.781584e+002 -4.745737e+001 1.254585e+002 -4.720477e+001 1.224747e+002 -1.714570e-001 1.256163e+002
