!Agilent Technologies,E8364B,US42250235,A.06.04.32
!Agilent E8364B: A.06.04.32
!Date: Friday, January 15, 2021 16:18:21
!Correction: S11(Full 2 Port(1,2)) S21(Full 2 Port(1,2)) S12(Full 2 Port(1,2)) S22(Full 2 Port(1,2)) 
!S2P File: Measurements: S11, S21, S12, S22:
# Hz S  dB   R 50
500000000 -1.174132e-001 -1.295404e+002 -6.351179e+001 1.539452e+002 -6.035410e+001 1.243052e+002 -1.543677e-001 1.353573e+002
500625000 -1.228388e-001 -1.297964e+002 -6.237756e+001 1.235338e+002 -6.143150e+001 1.056734e+002 -1.650018e-001 1.352914e+002
501250000 -1.285787e-001 -1.300269e+002 -6.113602e+001 1.010766e+002 -6.069532e+001 1.000722e+002 -1.618407e-001 1.352702e+002
501875000 -1.257847e-001 -1.302792e+002 -6.292997e+001 9.405125e+001 -6.011604e+001 8.804015e+001 -1.577640e-001 1.351986e+002
502500000 -1.283310e-001 -1.305613e+002 -6.265302e+001 1.050302e+002 -6.188321e+001 9.742862e+001 -1.552955e-001 1.351525e+002
503125000 -1.370655e-001 -1.308879e+002 -5.970992e+001 1.056830e+002 -6.160157e+001 1.058061e+002 -1.647795e-001 1.350148e+002
503750000 -1.346985e-001 -1.310971e+002 -6.044433e+001 1.039127e+002 -5.993521e+001 1.054712e+002 -1.703906e-001 1.349225e+002
504375000 -1.400724e-001 -1.313864e+002 -5.965489e+001 1.095017e+002 -5.960999e+001 8.800928e+001 -1.819091e-001 1.348507e+002
505000000 -1.514863e-001 -1.316578e+002 -5.954278e+001 9.506720e+001 -5.817765e+001 9.971999e+001 -1.749563e-001 1.347690e+002
505625000 -1.480918e-001 -1.318719e+002 -6.086718e+001 1.026254e+002 -5.989410e+001 9.450932e+001 -1.827217e-001 1.346086e+002
506250000 -1.539089e-001 -1.321439e+002 -6.203819e+001 9.594190e+001 -5.859674e+001 8.158344e+001 -1.837878e-001 1.344509e+002
506875000 -1.569476e-001 -1.323836e+002 -6.162032e+001 9.429302e+001 -6.012337e+001 8.349932e+001 -1.898238e-001 1.342538e+002
507500000 -1.635662e-001 -1.326492e+002 -6.018063e+001 9.297917e+001 -6.088195e+001 9.222408e+001 -1.856804e-001 1.340476e+002
508125000 -1.706100e-001 -1.328943e+002 -5.814316e+001 8.858560e+001 -5.935025e+001 8.625824e+001 -1.894573e-001 1.337978e+002
508750000 -1.696221e-001 -1.330867e+002 -6.031435e+001 9.054288e+001 -6.015219e+001 8.210602e+001 -1.932291e-001 1.336627e+002
509375000 -1.830518e-001 -1.333804e+002 -5.858793e+001 9.258554e+001 -6.065149e+001 7.992680e+001 -1.858247e-001 1.334584e+002
510000000 -1.858242e-001 -1.336835e+002 -6.005506e+001 8.518954e+001 -6.190970e+001 7.881124e+001 -1.989358e-001 1.333189e+002
510625000 -1.931644e-001 -1.338794e+002 -5.963320e+001 7.039091e+001 -5.898333e+001 7.863331e+001 -1.858161e-001 1.330992e+002
511250000 -1.965592e-001 -1.341252e+002 -5.899366e+001 6.719604e+001 -5.969065e+001 7.207423e+001 -1.914884e-001 1.328071e+002
511875000 -1.930700e-001 -1.344153e+002 -6.125356e+001 7.881744e+001 -6.014497e+001 7.735339e+001 -1.880717e-001 1.325973e+002
512500000 -1.939525e-001 -1.346653e+002 -5.942236e+001 7.504706e+001 -5.924096e+001 6.917912e+001 -1.905235e-001 1.324475e+002
513125000 -2.123729e-001 -1.349683e+002 -6.179296e+001 7.653305e+001 -5.879774e+001 7.738137e+001 -1.897473e-001 1.322832e+002
513750000 -2.110827e-001 -1.352798e+002 -5.934538e+001 7.605592e+001 -6.088646e+001 8.331840e+001 -1.851223e-001 1.320862e+002
514375000 -2.213884e-001 -1.355916e+002 -6.016223e+001 6.796972e+001 -5.942177e+001 7.446590e+001 -1.798964e-001 1.319225e+002
515000000 -2.294429e-001 -1.358778e+002 -5.931771e+001 7.989384e+001 -6.112957e+001 7.380473e+001 -1.764720e-001 1.317988e+002
515625000 -2.382178e-001 -1.362026e+002 -5.942649e+001 7.199584e+001 -5.984262e+001 6.662426e+001 -1.713264e-001 1.316859e+002
516250000 -2.405378e-001 -1.365293e+002 -5.846004e+001 7.612646e+001 -5.773854e+001 7.688861e+001 -1.780776e-001 1.315693e+002
516875000 -2.659395e-001 -1.368518e+002 -5.856910e+001 6.771866e+001 -6.095075e+001 5.799643e+001 -1.596705e-001 1.315522e+002
517500000 -2.608614e-001 -1.371902e+002 -5.832043e+001 6.977664e+001 -5.903066e+001 6.598752e+001 -1.700754e-001 1.314484e+002
518125000 -2.640133e-001 -1.375459e+002 -5.890490e+001 7.572047e+001 -5.954110e+001 6.679945e+001 -1.586255e-001 1.314363e+002
518750000 -2.775935e-001 -1.378696e+002 -5.791921e+001 6.666949e+001 -5.855836e+001 6.497641e+001 -1.543989e-001 1.314790e+002
519375000 -2.832118e-001 -1.381438e+002 -5.845356e+001 5.845288e+001 -5.904744e+001 5.952764e+001 -1.466588e-001 1.313673e+002
520000000 -2.908167e-001 -1.385206e+002 -6.064642e+001 4.975860e+001 -5.919470e+001 6.089552e+001 -1.509052e-001 1.313477e+002
520625000 -2.930809e-001 -1.388826e+002 -5.812765e+001 6.623514e+001 -5.853888e+001 6.126630e+001 -1.453957e-001 1.313361e+002
521250000 -3.012265e-001 -1.391448e+002 -5.903006e+001 4.765719e+001 -5.812431e+001 6.061288e+001 -1.436386e-001 1.313719e+002
521875000 -3.064912e-001 -1.395679e+002 -5.868898e+001 5.491128e+001 -5.876846e+001 6.623423e+001 -1.376953e-001 1.314506e+002
522500000 -3.125560e-001 -1.398560e+002 -5.759810e+001 5.647984e+001 -5.854464e+001 5.194884e+001 -1.450782e-001 1.314102e+002
523125000 -3.259922e-001 -1.402052e+002 -5.810687e+001 5.679155e+001 -5.757288e+001 5.729150e+001 -1.438142e-001 1.314666e+002
523750000 -3.298845e-001 -1.405447e+002 -5.913957e+001 4.796010e+001 -5.732190e+001 5.251794e+001 -1.438184e-001 1.314609e+002
524375000 -3.451692e-001 -1.408698e+002 -5.734319e+001 6.433121e+001 -5.864420e+001 4.542347e+001 -1.450680e-001 1.314771e+002
525000000 -3.499657e-001 -1.411720e+002 -5.880567e+001 5.096843e+001 -5.861831e+001 4.536281e+001 -1.387300e-001 1.314842e+002
525625000 -3.606292e-001 -1.414763e+002 -5.928817e+001 4.268444e+001 -5.717979e+001 5.293771e+001 -1.483990e-001 1.315353e+002
526250000 -3.670518e-001 -1.417885e+002 -5.715760e+001 5.891970e+001 -5.819831e+001 4.684520e+001 -1.510408e-001 1.315607e+002
526875000 -3.768178e-001 -1.421345e+002 -5.837338e+001 5.331302e+001 -5.829536e+001 4.961254e+001 -1.398348e-001 1.315459e+002
527500000 -3.850820e-001 -1.424201e+002 -5.695079e+001 4.013069e+001 -5.997040e+001 4.690894e+001 -1.494397e-001 1.315344e+002
528125000 -4.108576e-001 -1.427701e+002 -6.004505e+001 4.877474e+001 -5.804861e+001 4.248100e+001 -1.549722e-001 1.315972e+002
528750000 -4.053302e-001 -1.430019e+002 -5.791245e+001 3.138851e+001 -5.769723e+001 2.733515e+001 -1.495047e-001 1.316920e+002
529375000 -4.189889e-001 -1.433176e+002 -5.789566e+001 3.552203e+001 -5.762860e+001 2.534783e+001 -1.552775e-001 1.316018e+002
530000000 -4.288070e-001 -1.436324e+002 -5.713747e+001 4.703173e+001 -5.792884e+001 3.655903e+001 -1.528820e-001 1.316303e+002
530625000 -4.344174e-001 -1.439221e+002 -5.733134e+001 3.900013e+001 -5.649812e+001 2.780793e+001 -1.476355e-001 1.316500e+002
531250000 -4.352655e-001 -1.443017e+002 -5.782438e+001 2.775593e+001 -5.717788e+001 3.057470e+001 -1.496049e-001 1.316557e+002
531875000 -4.554138e-001 -1.445867e+002 -5.806481e+001 2.807911e+001 -5.790824e+001 2.886260e+001 -1.604093e-001 1.316032e+002
532500000 -4.534789e-001 -1.448537e+002 -5.676810e+001 2.541572e+001 -5.731171e+001 3.309309e+001 -1.556524e-001 1.316069e+002
533125000 -4.588163e-001 -1.452225e+002 -5.751161e+001 2.856420e+001 -5.735840e+001 2.970419e+001 -1.632709e-001 1.316513e+002
533750000 -4.655793e-001 -1.456479e+002 -5.703137e+001 3.722056e+001 -5.835421e+001 2.914598e+001 -1.707477e-001 1.315675e+002
534375000 -4.722751e-001 -1.459331e+002 -5.757347e+001 2.092727e+001 -5.565180e+001 3.340218e+001 -1.611378e-001 1.314828e+002
535000000 -4.852613e-001 -1.462587e+002 -5.787081e+001 2.541944e+001 -5.672215e+001 2.619536e+001 -1.691947e-001 1.315390e+002
535625000 -4.929067e-001 -1.466433e+002 -5.718578e+001 2.506364e+001 -5.598108e+001 2.783048e+001 -1.622021e-001 1.314309e+002
536250000 -5.008883e-001 -1.469819e+002 -5.680861e+001 2.179931e+001 -5.621957e+001 1.512948e+001 -1.665001e-001 1.313221e+002
536875000 -5.143551e-001 -1.473694e+002 -5.733901e+001 2.600120e+001 -5.653024e+001 2.130872e+001 -1.740577e-001 1.312603e+002
537500000 -5.196342e-001 -1.476197e+002 -5.741678e+001 1.452583e+001 -5.652739e+001 2.103981e+001 -1.644938e-001 1.312075e+002
538125000 -5.255604e-001 -1.479805e+002 -5.805581e+001 1.749374e+001 -5.651833e+001 2.428892e+001 -1.733908e-001 1.311458e+002
538750000 -5.428176e-001 -1.483263e+002 -5.584281e+001 2.262194e+001 -5.666110e+001 1.843912e+001 -1.752048e-001 1.310612e+002
539375000 -5.526262e-001 -1.486151e+002 -5.635572e+001 1.322183e+001 -5.679870e+001 1.186927e+001 -1.692639e-001 1.309815e+002
540000000 -5.515762e-001 -1.489522e+002 -5.659531e+001 9.299172e+000 -5.688102e+001 1.622532e+001 -1.766676e-001 1.309055e+002
540625000 -5.595444e-001 -1.492728e+002 -5.738282e+001 1.075053e+001 -5.629827e+001 1.313029e+001 -1.748175e-001 1.308119e+002
541250000 -5.693029e-001 -1.495428e+002 -5.514372e+001 1.237411e+001 -5.563438e+001 1.220106e+001 -1.661956e-001 1.307663e+002
541875000 -5.742801e-001 -1.498437e+002 -5.697370e+001 1.236060e+000 -5.643390e+001 5.847553e+000 -1.746306e-001 1.306369e+002
542500000 -5.830458e-001 -1.501733e+002 -5.678423e+001 8.139138e+000 -5.628983e+001 2.018740e+001 -1.726153e-001 1.305970e+002
543125000 -5.829070e-001 -1.505140e+002 -5.757758e+001 1.360344e+000 -5.613452e+001 3.967794e+000 -1.738341e-001 1.304614e+002
543750000 -5.838367e-001 -1.508420e+002 -5.614465e+001 5.688143e+000 -5.635072e+001 2.405000e+000 -1.730763e-001 1.304884e+002
544375000 -5.960277e-001 -1.511639e+002 -5.695906e+001 2.343118e+000 -5.530979e+001 8.944063e+000 -1.662011e-001 1.304173e+002
545000000 -5.989537e-001 -1.514846e+002 -5.461326e+001 8.026694e+000 -5.516903e+001 4.453233e+000 -1.648930e-001 1.303324e+002
545625000 -6.069400e-001 -1.518653e+002 -5.646199e+001 5.684980e+000 -5.575533e+001 7.047941e+000 -1.699159e-001 1.303716e+002
546250000 -6.181103e-001 -1.522008e+002 -5.613760e+001 4.218158e+000 -5.530272e+001 3.574547e-001 -1.731912e-001 1.302833e+002
546875000 -6.310543e-001 -1.526024e+002 -5.556453e+001 -1.190466e+000 -5.481670e+001 -2.576702e+000 -1.786264e-001 1.302550e+002
547500000 -6.493403e-001 -1.529028e+002 -5.563016e+001 -2.046195e+000 -5.539108e+001 -1.590127e+000 -1.740671e-001 1.301904e+002
548125000 -6.658031e-001 -1.532177e+002 -5.602610e+001 -1.256650e+000 -5.512721e+001 -7.228621e+000 -1.751787e-001 1.300615e+002
548750000 -6.789488e-001 -1.536343e+002 -5.574941e+001 -4.149217e+000 -5.583720e+001 -2.996805e+000 -1.835868e-001 1.299955e+002
549375000 -6.875073e-001 -1.539184e+002 -5.448920e+001 -2.443089e+000 -5.521782e+001 -3.987585e+000 -1.863799e-001 1.297423e+002
550000000 -6.996648e-001 -1.542689e+002 -5.481191e+001 -5.880966e+000 -5.559390e+001 -2.783503e+000 -1.847614e-001 1.297471e+002
550625000 -7.162764e-001 -1.546199e+002 -5.401429e+001 -1.672709e+001 -5.536787e+001 -5.592770e+000 -1.865786e-001 1.295916e+002
551250000 -7.257054e-001 -1.549355e+002 -5.463428e+001 -1.482730e+001 -5.405776e+001 -1.697123e+001 -1.860822e-001 1.294405e+002
551875000 -7.327462e-001 -1.552570e+002 -5.345016e+001 -1.539722e+001 -5.427403e+001 -1.124571e+001 -1.878373e-001 1.292552e+002
552500000 -7.512391e-001 -1.556194e+002 -5.469183e+001 -1.294207e+001 -5.509891e+001 -1.490286e+001 -1.872309e-001 1.291678e+002
553125000 -7.489982e-001 -1.558881e+002 -5.519239e+001 -1.405474e+001 -5.295324e+001 -1.658356e+001 -1.901040e-001 1.290180e+002
553750000 -7.669694e-001 -1.562406e+002 -5.445749e+001 -2.588851e+001 -5.376859e+001 -1.821102e+001 -2.038954e-001 1.288202e+002
554375000 -7.733617e-001 -1.565682e+002 -5.391856e+001 -1.641954e+001 -5.539078e+001 -2.222479e+001 -1.900491e-001 1.286761e+002
555000000 -7.884055e-001 -1.569014e+002 -5.480544e+001 -2.713927e+001 -5.449078e+001 -2.361711e+001 -1.824889e-001 1.285570e+002
555625000 -8.020954e-001 -1.571690e+002 -5.408580e+001 -1.743061e+001 -5.395019e+001 -2.225866e+001 -1.796364e-001 1.285196e+002
556250000 -8.116289e-001 -1.575182e+002 -5.452993e+001 -2.249537e+001 -5.347022e+001 -2.338672e+001 -1.888321e-001 1.283372e+002
556875000 -8.136411e-001 -1.578452e+002 -5.442092e+001 -2.701286e+001 -5.378940e+001 -2.554918e+001 -1.830747e-001 1.282869e+002
557500000 -8.351860e-001 -1.581279e+002 -5.468834e+001 -3.271745e+001 -5.412886e+001 -2.073454e+001 -1.810457e-001 1.281696e+002
558125000 -8.434533e-001 -1.584399e+002 -5.409874e+001 -3.026198e+001 -5.378232e+001 -2.307527e+001 -1.799426e-001 1.281492e+002
558750000 -8.399650e-001 -1.586959e+002 -5.413198e+001 -3.288255e+001 -5.370551e+001 -2.972338e+001 -1.712297e-001 1.280626e+002
559375000 -8.596281e-001 -1.590335e+002 -5.391805e+001 -3.202603e+001 -5.413873e+001 -3.555416e+001 -1.647998e-001 1.281376e+002
560000000 -8.745052e-001 -1.593348e+002 -5.264545e+001 -3.485941e+001 -5.350415e+001 -3.531364e+001 -1.622799e-001 1.280490e+002
560625000 -8.772303e-001 -1.595956e+002 -5.413286e+001 -3.890525e+001 -5.356595e+001 -3.659449e+001 -1.539515e-001 1.281078e+002
561250000 -8.851402e-001 -1.599485e+002 -5.357919e+001 -3.991697e+001 -5.250391e+001 -4.243621e+001 -1.534586e-001 1.281106e+002
561875000 -8.978477e-001 -1.603217e+002 -5.391479e+001 -4.586818e+001 -5.443223e+001 -3.882592e+001 -1.494785e-001 1.281696e+002
562500000 -9.106063e-001 -1.606379e+002 -5.408279e+001 -4.271762e+001 -5.477562e+001 -3.880479e+001 -1.510531e-001 1.282321e+002
563125000 -9.092449e-001 -1.609681e+002 -5.372666e+001 -4.172018e+001 -5.413851e+001 -4.345227e+001 -1.391768e-001 1.282701e+002
563750000 -9.344438e-001 -1.613145e+002 -5.475100e+001 -4.649915e+001 -5.307936e+001 -4.427945e+001 -1.562357e-001 1.282958e+002
564375000 -9.447331e-001 -1.617377e+002 -5.404154e+001 -4.491804e+001 -5.426536e+001 -4.021945e+001 -1.584798e-001 1.283843e+002
565000000 -9.593539e-001 -1.621365e+002 -5.427728e+001 -4.704115e+001 -5.422766e+001 -4.303278e+001 -1.617939e-001 1.283252e+002
565625000 -9.742891e-001 -1.624946e+002 -5.347365e+001 -4.544181e+001 -5.393134e+001 -4.870940e+001 -1.669085e-001 1.283508e+002
566250000 -9.929140e-001 -1.629774e+002 -5.488109e+001 -4.867284e+001 -5.381929e+001 -4.747240e+001 -1.663669e-001 1.283573e+002
566875000 -1.017871e+000 -1.633794e+002 -5.479927e+001 -4.731931e+001 -5.421424e+001 -5.189179e+001 -1.628804e-001 1.283101e+002
567500000 -1.039806e+000 -1.638659e+002 -5.500561e+001 -5.779445e+001 -5.321441e+001 -4.825957e+001 -1.770969e-001 1.282984e+002
568125000 -1.061760e+000 -1.642429e+002 -5.400133e+001 -6.098655e+001 -5.359866e+001 -5.128432e+001 -1.762855e-001 1.282161e+002
568750000 -1.082905e+000 -1.646212e+002 -5.399529e+001 -4.728292e+001 -5.326805e+001 -5.175163e+001 -1.787359e-001 1.281538e+002
569375000 -1.107791e+000 -1.650442e+002 -5.399733e+001 -5.255329e+001 -5.388401e+001 -4.948460e+001 -1.857169e-001 1.281150e+002
570000000 -1.123234e+000 -1.654706e+002 -5.441245e+001 -5.302766e+001 -5.322315e+001 -5.565000e+001 -1.800462e-001 1.280019e+002
570625000 -1.138880e+000 -1.658834e+002 -5.441619e+001 -6.007296e+001 -5.252879e+001 -5.345127e+001 -1.794118e-001 1.279956e+002
571250000 -1.158762e+000 -1.662966e+002 -5.356348e+001 -5.843482e+001 -5.276014e+001 -6.494624e+001 -1.779700e-001 1.279348e+002
571875000 -1.185674e+000 -1.667552e+002 -5.311983e+001 -5.673552e+001 -5.313900e+001 -6.418988e+001 -1.736967e-001 1.278987e+002
572500000 -1.210974e+000 -1.671619e+002 -5.287526e+001 -6.141277e+001 -5.315699e+001 -6.256997e+001 -1.759716e-001 1.278208e+002
573125000 -1.230292e+000 -1.675463e+002 -5.343256e+001 -6.335484e+001 -5.247600e+001 -6.821051e+001 -1.728853e-001 1.277397e+002
573750000 -1.246993e+000 -1.679646e+002 -5.443840e+001 -7.157291e+001 -5.325835e+001 -6.544328e+001 -1.826917e-001 1.276651e+002
574375000 -1.262810e+000 -1.683554e+002 -5.405880e+001 -6.414330e+001 -5.347826e+001 -7.198383e+001 -1.799308e-001 1.276584e+002
575000000 -1.284777e+000 -1.687845e+002 -5.421129e+001 -7.361098e+001 -5.325108e+001 -7.457498e+001 -1.807194e-001 1.275545e+002
575625000 -1.302036e+000 -1.691880e+002 -5.468266e+001 -7.749313e+001 -5.264499e+001 -7.539837e+001 -1.780101e-001 1.275439e+002
576250000 -1.316612e+000 -1.695614e+002 -5.381246e+001 -7.520080e+001 -5.326447e+001 -7.242982e+001 -1.966820e-001 1.274562e+002
576875000 -1.332912e+000 -1.699541e+002 -5.344498e+001 -6.967974e+001 -5.284313e+001 -7.340386e+001 -1.889720e-001 1.274518e+002
577500000 -1.351686e+000 -1.703533e+002 -5.261441e+001 -7.178100e+001 -5.325375e+001 -7.581290e+001 -1.867198e-001 1.272181e+002
578125000 -1.375098e+000 -1.707951e+002 -5.303293e+001 -7.567251e+001 -5.271476e+001 -7.103503e+001 -1.867658e-001 1.271931e+002
578750000 -1.388119e+000 -1.711731e+002 -5.326262e+001 -7.776473e+001 -5.345129e+001 -7.728914e+001 -1.965165e-001 1.270110e+002
579375000 -1.413594e+000 -1.715824e+002 -5.373992e+001 -7.818773e+001 -5.241920e+001 -8.092731e+001 -1.995957e-001 1.268270e+002
580000000 -1.429855e+000 -1.719695e+002 -5.353244e+001 -8.208916e+001 -5.256299e+001 -7.783573e+001 -2.035050e-001 1.266853e+002
580625000 -1.452302e+000 -1.724375e+002 -5.315042e+001 -8.204890e+001 -5.278384e+001 -8.204957e+001 -2.033867e-001 1.265238e+002
581250000 -1.474822e+000 -1.728334e+002 -5.323065e+001 -7.776314e+001 -5.327279e+001 -8.092339e+001 -2.145144e-001 1.263586e+002
581875000 -1.483651e+000 -1.732852e+002 -5.313989e+001 -8.450406e+001 -5.312482e+001 -8.142821e+001 -2.154714e-001 1.261565e+002
582500000 -1.503537e+000 -1.737105e+002 -5.225259e+001 -7.807324e+001 -5.223748e+001 -8.432849e+001 -2.218372e-001 1.258993e+002
583125000 -1.514644e+000 -1.742555e+002 -5.267882e+001 -8.415611e+001 -5.220538e+001 -8.597404e+001 -2.231579e-001 1.256162e+002
583750000 -1.543748e+000 -1.747491e+002 -5.284100e+001 -8.588238e+001 -5.219693e+001 -8.273187e+001 -2.337649e-001 1.254236e+002
584375000 -1.556999e+000 -1.752742e+002 -5.291378e+001 -8.672234e+001 -5.302495e+001 -8.860080e+001 -2.148850e-001 1.252276e+002
585000000 -1.581294e+000 -1.758200e+002 -5.349081e+001 -8.631860e+001 -5.205597e+001 -8.740797e+001 -2.194092e-001 1.249707e+002
585625000 -1.609528e+000 -1.762777e+002 -5.279650e+001 -8.850957e+001 -5.236542e+001 -9.175050e+001 -2.001536e-001 1.247739e+002
586250000 -1.629919e+000 -1.768163e+002 -5.403470e+001 -8.696474e+001 -5.201447e+001 -9.007462e+001 -2.056414e-001 1.247194e+002
586875000 -1.652280e+000 -1.773255e+002 -5.347731e+001 -9.213928e+001 -5.161722e+001 -9.306771e+001 -2.028778e-001 1.245375e+002
587500000 -1.684776e+000 -1.778084e+002 -5.262960e+001 -8.815625e+001 -5.195636e+001 -8.815131e+001 -1.946395e-001 1.243524e+002
588125000 -1.699279e+000 -1.782524e+002 -5.209016e+001 -9.428432e+001 -5.224697e+001 -9.303246e+001 -1.846165e-001 1.243261e+002
588750000 -1.722447e+000 -1.787338e+002 -5.229274e+001 -9.176476e+001 -5.238567e+001 -9.656142e+001 -1.808457e-001 1.242095e+002
589375000 -1.737873e+000 -1.792391e+002 -5.207299e+001 -9.935777e+001 -5.157939e+001 -9.777801e+001 -1.741202e-001 1.241029e+002
590000000 -1.766640e+000 -1.797835e+002 -5.322881e+001 -9.809930e+001 -5.177740e+001 -1.008437e+002 -1.750135e-001 1.241570e+002
590625000 -1.796031e+000 1.797590e+002 -5.229110e+001 -9.810038e+001 -5.156926e+001 -9.883646e+001 -1.729339e-001 1.241146e+002
591250000 -1.829481e+000 1.793253e+002 -5.242115e+001 -1.011685e+002 -5.181527e+001 -1.016910e+002 -1.657521e-001 1.241319e+002
591875000 -1.880542e+000 1.788968e+002 -5.243039e+001 -1.048783e+002 -5.208006e+001 -1.015555e+002 -1.634276e-001 1.241388e+002
592500000 -1.910187e+000 1.785493e+002 -5.144375e+001 -9.731197e+001 -5.254805e+001 -1.037589e+002 -1.512056e-001 1.241843e+002
593125000 -1.948571e+000 1.781687e+002 -5.274015e+001 -1.053943e+002 -5.166359e+001 -1.032480e+002 -1.589506e-001 1.242810e+002
593750000 -1.980308e+000 1.777965e+002 -5.172870e+001 -1.025889e+002 -5.172188e+001 -1.062490e+002 -1.393305e-001 1.243411e+002
594375000 -2.005557e+000 1.775086e+002 -5.201788e+001 -1.026734e+002 -5.151336e+001 -1.088293e+002 -1.496377e-001 1.244763e+002
595000000 -2.041968e+000 1.771694e+002 -5.309417e+001 -1.068455e+002 -5.177277e+001 -1.038347e+002 -1.648430e-001 1.245038e+002
595625000 -2.070861e+000 1.767842e+002 -5.097795e+001 -1.025141e+002 -5.159486e+001 -1.108629e+002 -1.545072e-001 1.245300e+002
