!Agilent Technologies,E8364B,US42250235,A.06.04.32
!Agilent E8364B: A.06.04.32
!Date: Friday, January 15, 2021 16:20:52
!Correction: S11(Full 2 Port(1,2)) S21(Full 2 Port(1,2)) S12(Full 2 Port(1,2)) S22(Full 2 Port(1,2)) 
!S2P File: Measurements: S11, S21, S12, S22:
# Hz S  dB   R 50
500000000 -1.186631e-001 -1.295748e+002 -6.153922e+001 1.187057e+001 -6.125790e+001 2.786468e+000 -1.569841e-001 1.351944e+002
500625000 -1.193590e-001 -1.297518e+002 -6.211964e+001 -5.394534e+000 -6.397687e+001 1.587352e+001 -1.605365e-001 1.352015e+002
501250000 -1.336489e-001 -1.299904e+002 -6.770996e+001 2.657278e+001 -6.068603e+001 8.946473e+000 -1.592822e-001 1.351136e+002
501875000 -1.241738e-001 -1.302675e+002 -6.314920e+001 2.580234e+001 -6.298405e+001 1.754190e+001 -1.514987e-001 1.350829e+002
502500000 -1.258023e-001 -1.305735e+002 -6.226861e+001 8.700953e+000 -6.251902e+001 -8.514066e+000 -1.484248e-001 1.350308e+002
503125000 -1.409717e-001 -1.307742e+002 -6.071729e+001 7.629199e+000 -6.242191e+001 1.297059e+001 -1.597002e-001 1.349085e+002
503750000 -1.349914e-001 -1.310317e+002 -5.993625e+001 -6.558015e+000 -6.128210e+001 3.605263e+000 -1.605167e-001 1.347643e+002
504375000 -1.492914e-001 -1.312956e+002 -6.331441e+001 -6.144719e+000 -6.161142e+001 -1.188026e+001 -1.756935e-001 1.347137e+002
505000000 -1.498890e-001 -1.315576e+002 -6.149180e+001 -7.620282e+000 -6.182306e+001 -3.576241e+000 -1.737415e-001 1.346426e+002
505625000 -1.552518e-001 -1.317887e+002 -6.106825e+001 -2.090299e+001 -6.164424e+001 5.668001e-001 -1.732817e-001 1.344768e+002
506250000 -1.512912e-001 -1.320796e+002 -5.967371e+001 -2.050420e+000 -6.147473e+001 -9.692614e+000 -1.846040e-001 1.342631e+002
506875000 -1.525124e-001 -1.323165e+002 -6.038918e+001 -6.347821e-001 -6.132008e+001 3.175299e+000 -1.773736e-001 1.341236e+002
507500000 -1.581841e-001 -1.325634e+002 -6.085110e+001 -3.944633e+000 -6.111228e+001 -5.804315e+000 -1.824809e-001 1.338952e+002
508125000 -1.639461e-001 -1.328515e+002 -6.230866e+001 -1.435959e+001 -6.120678e+001 -5.168584e+000 -1.804927e-001 1.337104e+002
508750000 -1.667721e-001 -1.330233e+002 -6.024308e+001 -1.480747e+001 -6.105547e+001 -1.824379e+001 -1.825796e-001 1.335112e+002
509375000 -1.670482e-001 -1.333296e+002 -5.783027e+001 -1.118909e+001 -5.877863e+001 -1.867005e+001 -1.824587e-001 1.333083e+002
510000000 -1.676826e-001 -1.335945e+002 -6.123949e+001 -2.019665e+001 -5.951493e+001 -1.340802e+001 -1.927485e-001 1.331552e+002
510625000 -1.747641e-001 -1.338210e+002 -6.190880e+001 -1.246043e+001 -5.948577e+001 -2.709748e+001 -1.827388e-001 1.329740e+002
511250000 -1.759790e-001 -1.340570e+002 -5.980120e+001 -3.341088e+001 -6.004166e+001 -1.356813e+001 -1.929598e-001 1.326963e+002
511875000 -1.744847e-001 -1.344044e+002 -6.006313e+001 -1.824381e+001 -5.907430e+001 -2.846780e+001 -1.839728e-001 1.324738e+002
512500000 -1.758460e-001 -1.346372e+002 -5.990135e+001 -2.778597e+001 -6.124500e+001 -3.057121e+001 -1.896955e-001 1.322429e+002
513125000 -1.919437e-001 -1.349859e+002 -6.000014e+001 -2.380395e+001 -5.988531e+001 -2.574178e+001 -1.841601e-001 1.321775e+002
513750000 -1.984323e-001 -1.352307e+002 -6.258048e+001 -1.027677e+001 -6.031730e+001 -2.081399e+001 -1.863545e-001 1.319283e+002
514375000 -1.958462e-001 -1.355744e+002 -5.986432e+001 -2.265182e+001 -6.067518e+001 -3.462749e+001 -1.807675e-001 1.317428e+002
515000000 -2.060739e-001 -1.358256e+002 -5.899884e+001 -2.114025e+001 -6.090696e+001 -1.935573e+001 -1.674901e-001 1.316347e+002
515625000 -2.165680e-001 -1.362325e+002 -6.241103e+001 -2.867743e+001 -6.101542e+001 -2.350615e+001 -1.679740e-001 1.315164e+002
516250000 -2.232184e-001 -1.365015e+002 -5.913945e+001 -2.752755e+001 -5.971730e+001 -2.876611e+001 -1.711909e-001 1.314001e+002
516875000 -2.405801e-001 -1.368302e+002 -5.963403e+001 -4.598836e+001 -5.882505e+001 -3.828253e+001 -1.583292e-001 1.314099e+002
517500000 -2.418710e-001 -1.371446e+002 -5.821692e+001 -3.890299e+001 -5.975443e+001 -3.315147e+001 -1.593363e-001 1.313151e+002
518125000 -2.422063e-001 -1.375219e+002 -5.867147e+001 -4.380689e+001 -5.875200e+001 -3.628696e+001 -1.622134e-001 1.312525e+002
518750000 -2.493612e-001 -1.378540e+002 -6.109918e+001 -2.494974e+001 -5.977284e+001 -2.893172e+001 -1.510533e-001 1.312956e+002
519375000 -2.613528e-001 -1.380988e+002 -5.918013e+001 -3.367966e+001 -5.836752e+001 -4.329072e+001 -1.407600e-001 1.312935e+002
520000000 -2.712153e-001 -1.384822e+002 -5.840921e+001 -4.710734e+001 -5.882389e+001 -3.147341e+001 -1.515274e-001 1.312210e+002
520625000 -2.712350e-001 -1.388331e+002 -5.800481e+001 -3.814629e+001 -5.855788e+001 -4.509166e+001 -1.409537e-001 1.311578e+002
521250000 -2.734382e-001 -1.391824e+002 -5.872835e+001 -5.186206e+001 -5.843077e+001 -3.982767e+001 -1.438334e-001 1.312375e+002
521875000 -2.760901e-001 -1.395484e+002 -5.864904e+001 -4.780446e+001 -5.874131e+001 -4.737360e+001 -1.276760e-001 1.312639e+002
522500000 -2.842917e-001 -1.398621e+002 -5.844345e+001 -5.062727e+001 -5.834226e+001 -4.633115e+001 -1.350088e-001 1.312660e+002
523125000 -2.955725e-001 -1.402602e+002 -5.701109e+001 -4.430122e+001 -5.939829e+001 -5.315310e+001 -1.425346e-001 1.312971e+002
523750000 -2.974073e-001 -1.405760e+002 -5.636205e+001 -5.746320e+001 -5.894541e+001 -4.213456e+001 -1.338976e-001 1.313210e+002
524375000 -3.107301e-001 -1.409279e+002 -5.744677e+001 -5.156150e+001 -5.717249e+001 -6.424164e+001 -1.336415e-001 1.313244e+002
525000000 -3.182165e-001 -1.412702e+002 -5.653885e+001 -5.121364e+001 -5.700389e+001 -5.264699e+001 -1.444483e-001 1.313539e+002
525625000 -3.317756e-001 -1.415531e+002 -5.871344e+001 -5.711338e+001 -5.808891e+001 -6.063007e+001 -1.489603e-001 1.313607e+002
526250000 -3.223635e-001 -1.418616e+002 -5.646559e+001 -5.651341e+001 -5.772529e+001 -5.645423e+001 -1.518924e-001 1.313422e+002
526875000 -3.421103e-001 -1.422356e+002 -5.756777e+001 -5.314305e+001 -5.808457e+001 -7.166581e+001 -1.320100e-001 1.314225e+002
527500000 -3.515292e-001 -1.425403e+002 -5.594363e+001 -6.262661e+001 -5.837162e+001 -7.656866e+001 -1.443263e-001 1.313748e+002
528125000 -3.669604e-001 -1.428814e+002 -5.746259e+001 -7.007381e+001 -5.813261e+001 -6.379981e+001 -1.478415e-001 1.314410e+002
528750000 -3.735088e-001 -1.431389e+002 -5.756807e+001 -6.682040e+001 -5.641535e+001 -7.241690e+001 -1.411766e-001 1.315288e+002
529375000 -3.769991e-001 -1.434877e+002 -5.513441e+001 -6.872620e+001 -5.909607e+001 -6.959354e+001 -1.466071e-001 1.314882e+002
530000000 -3.882411e-001 -1.438386e+002 -5.709050e+001 -7.648745e+001 -5.743366e+001 -7.622774e+001 -1.440454e-001 1.314976e+002
530625000 -4.000012e-001 -1.441830e+002 -5.748355e+001 -6.271332e+001 -5.679910e+001 -6.744083e+001 -1.467898e-001 1.315428e+002
531250000 -3.990541e-001 -1.444675e+002 -5.795501e+001 -7.330059e+001 -5.743087e+001 -7.892738e+001 -1.426907e-001 1.314804e+002
531875000 -4.252880e-001 -1.447974e+002 -5.659262e+001 -7.209061e+001 -5.662683e+001 -7.177437e+001 -1.624286e-001 1.314451e+002
532500000 -4.260778e-001 -1.450565e+002 -5.693988e+001 -7.484436e+001 -5.756123e+001 -6.694294e+001 -1.464132e-001 1.315161e+002
533125000 -4.322216e-001 -1.454300e+002 -5.789660e+001 -8.275027e+001 -5.563045e+001 -7.783022e+001 -1.575581e-001 1.315294e+002
533750000 -4.365905e-001 -1.458007e+002 -5.642790e+001 -7.671889e+001 -5.723223e+001 -8.851999e+001 -1.667046e-001 1.314466e+002
534375000 -4.454710e-001 -1.461637e+002 -5.640946e+001 -8.537174e+001 -5.615856e+001 -8.025346e+001 -1.508630e-001 1.313773e+002
535000000 -4.572156e-001 -1.464664e+002 -5.690511e+001 -8.668905e+001 -5.639675e+001 -8.200862e+001 -1.594312e-001 1.313571e+002
535625000 -4.601929e-001 -1.468902e+002 -5.629079e+001 -8.204461e+001 -5.723700e+001 -7.446054e+001 -1.509764e-001 1.313314e+002
536250000 -4.640034e-001 -1.472204e+002 -5.520085e+001 -9.174208e+001 -5.628208e+001 -8.382913e+001 -1.559676e-001 1.311847e+002
536875000 -4.800886e-001 -1.475822e+002 -5.542770e+001 -9.217462e+001 -5.587591e+001 -8.699226e+001 -1.613664e-001 1.310984e+002
537500000 -4.870882e-001 -1.478888e+002 -5.575008e+001 -8.318405e+001 -5.634311e+001 -9.383392e+001 -1.571292e-001 1.310672e+002
538125000 -4.948364e-001 -1.482555e+002 -5.624565e+001 -9.313996e+001 -5.701742e+001 -8.955003e+001 -1.725259e-001 1.310369e+002
538750000 -5.155022e-001 -1.485814e+002 -5.570925e+001 -1.002736e+002 -5.584588e+001 -9.081652e+001 -1.660835e-001 1.309389e+002
539375000 -5.218071e-001 -1.489481e+002 -5.609436e+001 -1.009593e+002 -5.693043e+001 -9.380637e+001 -1.613044e-001 1.308425e+002
540000000 -5.281883e-001 -1.493056e+002 -5.650208e+001 -1.018713e+002 -5.550457e+001 -9.521425e+001 -1.665617e-001 1.307264e+002
540625000 -5.317129e-001 -1.496061e+002 -5.564688e+001 -9.393436e+001 -5.486625e+001 -9.616887e+001 -1.685993e-001 1.306319e+002
541250000 -5.421024e-001 -1.498907e+002 -5.654026e+001 -9.883624e+001 -5.547703e+001 -9.535356e+001 -1.570116e-001 1.305981e+002
541875000 -5.509635e-001 -1.502582e+002 -5.529422e+001 -9.710950e+001 -5.541608e+001 -1.028714e+002 -1.676074e-001 1.304747e+002
542500000 -5.546281e-001 -1.505637e+002 -5.427861e+001 -1.052993e+002 -5.508429e+001 -1.072190e+002 -1.669109e-001 1.304442e+002
543125000 -5.565768e-001 -1.509182e+002 -5.493243e+001 -9.774194e+001 -5.557310e+001 -1.082243e+002 -1.578404e-001 1.303185e+002
543750000 -5.617895e-001 -1.512699e+002 -5.614436e+001 -1.088724e+002 -5.425592e+001 -1.015967e+002 -1.716526e-001 1.302937e+002
544375000 -5.799335e-001 -1.515963e+002 -5.602392e+001 -1.054488e+002 -5.535041e+001 -1.114462e+002 -1.637477e-001 1.302560e+002
545000000 -5.785244e-001 -1.519525e+002 -5.439227e+001 -1.146205e+002 -5.491236e+001 -1.024832e+002 -1.612911e-001 1.302382e+002
545625000 -5.962613e-001 -1.523781e+002 -5.572317e+001 -1.107065e+002 -5.548617e+001 -1.134362e+002 -1.604737e-001 1.301883e+002
546250000 -6.155120e-001 -1.527147e+002 -5.471606e+001 -1.150762e+002 -5.582856e+001 -1.106863e+002 -1.664573e-001 1.300495e+002
546875000 -6.259819e-001 -1.531487e+002 -5.420907e+001 -1.127221e+002 -5.503366e+001 -1.123912e+002 -1.660893e-001 1.300829e+002
547500000 -6.459470e-001 -1.534945e+002 -5.399472e+001 -1.100629e+002 -5.486260e+001 -1.133796e+002 -1.700567e-001 1.299656e+002
548125000 -6.718848e-001 -1.537750e+002 -5.456742e+001 -1.180298e+002 -5.411724e+001 -1.138928e+002 -1.677038e-001 1.298639e+002
548750000 -6.846419e-001 -1.541883e+002 -5.518805e+001 -1.190555e+002 -5.443169e+001 -1.174747e+002 -1.803001e-001 1.298722e+002
549375000 -7.062566e-001 -1.544941e+002 -5.496621e+001 -1.180696e+002 -5.475224e+001 -1.206332e+002 -1.763632e-001 1.296145e+002
550000000 -7.203727e-001 -1.548238e+002 -5.379716e+001 -1.203770e+002 -5.591213e+001 -1.188483e+002 -1.832449e-001 1.295751e+002
550625000 -7.469593e-001 -1.551204e+002 -5.458317e+001 -1.231459e+002 -5.425298e+001 -1.204184e+002 -1.848910e-001 1.294358e+002
551250000 -7.588740e-001 -1.554270e+002 -5.465353e+001 -1.240702e+002 -5.344842e+001 -1.277877e+002 -1.844044e-001 1.293235e+002
551875000 -7.902184e-001 -1.557239e+002 -5.466496e+001 -1.275076e+002 -5.435439e+001 -1.267503e+002 -1.844191e-001 1.291252e+002
552500000 -7.924171e-001 -1.560239e+002 -5.448999e+001 -1.316725e+002 -5.341009e+001 -1.264473e+002 -1.859232e-001 1.289791e+002
553125000 -8.022082e-001 -1.563234e+002 -5.436962e+001 -1.292678e+002 -5.379962e+001 -1.284300e+002 -1.935898e-001 1.288226e+002
553750000 -8.237576e-001 -1.566512e+002 -5.387444e+001 -1.333751e+002 -5.399144e+001 -1.332118e+002 -1.895294e-001 1.286542e+002
554375000 -8.224242e-001 -1.569090e+002 -5.344042e+001 -1.330853e+002 -5.284152e+001 -1.372746e+002 -1.893487e-001 1.285109e+002
555000000 -8.367152e-001 -1.572449e+002 -5.334357e+001 -1.377502e+002 -5.293031e+001 -1.407307e+002 -1.884144e-001 1.283817e+002
555625000 -8.576562e-001 -1.574755e+002 -5.294697e+001 -1.434389e+002 -5.447256e+001 -1.411154e+002 -1.746242e-001 1.283231e+002
556250000 -8.758924e-001 -1.578356e+002 -5.370998e+001 -1.414643e+002 -5.347111e+001 -1.384094e+002 -1.794316e-001 1.281231e+002
556875000 -8.696361e-001 -1.581833e+002 -5.302396e+001 -1.414936e+002 -5.265890e+001 -1.420352e+002 -1.822084e-001 1.281180e+002
557500000 -8.903547e-001 -1.584405e+002 -5.319923e+001 -1.439116e+002 -5.306431e+001 -1.442338e+002 -1.684033e-001 1.279616e+002
558125000 -9.082680e-001 -1.587146e+002 -5.354798e+001 -1.449112e+002 -5.330831e+001 -1.441578e+002 -1.782718e-001 1.279378e+002
558750000 -9.049230e-001 -1.589946e+002 -5.258039e+001 -1.508857e+002 -5.294123e+001 -1.462509e+002 -1.587149e-001 1.278902e+002
559375000 -9.233506e-001 -1.593538e+002 -5.374520e+001 -1.469524e+002 -5.299392e+001 -1.497282e+002 -1.655267e-001 1.279165e+002
560000000 -9.322389e-001 -1.596541e+002 -5.366489e+001 -1.561465e+002 -5.345899e+001 -1.515891e+002 -1.484105e-001 1.279244e+002
560625000 -9.483019e-001 -1.599125e+002 -5.263794e+001 -1.496974e+002 -5.387810e+001 -1.549596e+002 -1.567082e-001 1.279363e+002
561250000 -9.601929e-001 -1.602327e+002 -5.289488e+001 -1.487159e+002 -5.343870e+001 -1.556567e+002 -1.492143e-001 1.279229e+002
561875000 -9.637918e-001 -1.605376e+002 -5.330885e+001 -1.539644e+002 -5.275222e+001 -1.544328e+002 -1.428581e-001 1.280476e+002
562500000 -9.880329e-001 -1.608747e+002 -5.243502e+001 -1.544304e+002 -5.311914e+001 -1.501356e+002 -1.469354e-001 1.280431e+002
563125000 -9.921632e-001 -1.611783e+002 -5.264640e+001 -1.630461e+002 -5.269811e+001 -1.582886e+002 -1.404427e-001 1.280900e+002
563750000 -1.017252e+000 -1.615746e+002 -5.278046e+001 -1.589100e+002 -5.268837e+001 -1.596891e+002 -1.484818e-001 1.281322e+002
564375000 -1.030291e+000 -1.618930e+002 -5.188176e+001 -1.590762e+002 -5.162954e+001 -1.597011e+002 -1.549875e-001 1.282061e+002
565000000 -1.044745e+000 -1.623206e+002 -5.270635e+001 -1.646897e+002 -5.265851e+001 -1.631749e+002 -1.519666e-001 1.281465e+002
565625000 -1.067866e+000 -1.626533e+002 -5.197969e+001 -1.677347e+002 -5.193480e+001 -1.656743e+002 -1.500399e-001 1.281779e+002
566250000 -1.084642e+000 -1.631085e+002 -5.211675e+001 -1.641633e+002 -5.199837e+001 -1.664512e+002 -1.633419e-001 1.282197e+002
566875000 -1.113886e+000 -1.635062e+002 -5.185515e+001 -1.692702e+002 -5.235001e+001 -1.647151e+002 -1.719525e-001 1.281046e+002
567500000 -1.132894e+000 -1.639261e+002 -5.279214e+001 -1.712561e+002 -5.210159e+001 -1.719641e+002 -1.637561e-001 1.280981e+002
568125000 -1.166088e+000 -1.642775e+002 -5.171574e+001 -1.764377e+002 -5.155375e+001 -1.711401e+002 -1.687459e-001 1.280236e+002
568750000 -1.190159e+000 -1.646492e+002 -5.177758e+001 -1.741006e+002 -5.169499e+001 -1.755233e+002 -1.754303e-001 1.280141e+002
569375000 -1.210622e+000 -1.650298e+002 -5.108173e+001 -1.733946e+002 -5.136623e+001 -1.779165e+002 -1.820784e-001 1.279449e+002
570000000 -1.234637e+000 -1.654169e+002 -5.166459e+001 -1.778203e+002 -5.135735e+001 -1.788142e+002 -1.728075e-001 1.278540e+002
570625000 -1.246399e+000 -1.658078e+002 -5.145699e+001 1.774524e+002 -5.197345e+001 1.778688e+002 -1.674886e-001 1.278432e+002
571250000 -1.269506e+000 -1.661914e+002 -5.091176e+001 1.735255e+002 -5.204405e+001 1.747991e+002 -1.772856e-001 1.277730e+002
571875000 -1.294793e+000 -1.665532e+002 -5.182284e+001 1.781856e+002 -5.171844e+001 1.747626e+002 -1.671128e-001 1.277034e+002
572500000 -1.314015e+000 -1.669191e+002 -5.132535e+001 1.727085e+002 -5.241851e+001 1.732747e+002 -1.756932e-001 1.276377e+002
573125000 -1.332655e+000 -1.672813e+002 -5.177722e+001 1.717139e+002 -5.173215e+001 1.747052e+002 -1.725404e-001 1.275523e+002
573750000 -1.348314e+000 -1.676371e+002 -5.179982e+001 1.709123e+002 -5.115723e+001 1.708603e+002 -1.885641e-001 1.275087e+002
574375000 -1.371607e+000 -1.679534e+002 -5.167589e+001 1.690709e+002 -5.093158e+001 1.725430e+002 -1.727827e-001 1.275289e+002
575000000 -1.382431e+000 -1.683598e+002 -5.258479e+001 1.657716e+002 -5.126147e+001 1.712189e+002 -1.723549e-001 1.273935e+002
575625000 -1.402199e+000 -1.686774e+002 -5.140607e+001 1.676905e+002 -5.229417e+001 1.687418e+002 -1.821859e-001 1.273825e+002
576250000 -1.422294e+000 -1.690192e+002 -5.138528e+001 1.636579e+002 -5.162236e+001 1.656974e+002 -1.893818e-001 1.272954e+002
576875000 -1.429325e+000 -1.693979e+002 -5.218184e+001 1.645249e+002 -5.102677e+001 1.648362e+002 -1.795811e-001 1.272482e+002
577500000 -1.452690e+000 -1.697533e+002 -5.063031e+001 1.622003e+002 -5.166415e+001 1.611149e+002 -1.859010e-001 1.270982e+002
578125000 -1.464854e+000 -1.701055e+002 -5.091464e+001 1.627782e+002 -5.149142e+001 1.614615e+002 -1.838073e-001 1.269923e+002
578750000 -1.471786e+000 -1.704687e+002 -5.147240e+001 1.585119e+002 -5.081966e+001 1.603988e+002 -1.817495e-001 1.268782e+002
579375000 -1.482252e+000 -1.707645e+002 -5.143969e+001 1.591470e+002 -5.113156e+001 1.579112e+002 -1.927465e-001 1.266403e+002
580000000 -1.493886e+000 -1.711630e+002 -5.097139e+001 1.552884e+002 -5.067280e+001 1.542078e+002 -2.055733e-001 1.265555e+002
580625000 -1.505417e+000 -1.715425e+002 -5.042799e+001 1.559270e+002 -5.055523e+001 1.551174e+002 -1.924446e-001 1.263460e+002
581250000 -1.520313e+000 -1.719752e+002 -5.146061e+001 1.489076e+002 -5.062461e+001 1.537240e+002 -2.045618e-001 1.261516e+002
581875000 -1.528531e+000 -1.724112e+002 -5.140746e+001 1.549030e+002 -5.069506e+001 1.478639e+002 -2.061774e-001 1.259505e+002
582500000 -1.539500e+000 -1.728300e+002 -5.035151e+001 1.472647e+002 -5.041307e+001 1.487821e+002 -2.059279e-001 1.257299e+002
583125000 -1.545647e+000 -1.733752e+002 -5.025466e+001 1.440269e+002 -5.068516e+001 1.509211e+002 -2.205028e-001 1.254532e+002
583750000 -1.563548e+000 -1.738787e+002 -5.140550e+001 1.463694e+002 -5.042136e+001 1.465996e+002 -2.181195e-001 1.252065e+002
584375000 -1.581517e+000 -1.743777e+002 -5.022955e+001 1.412716e+002 -5.017468e+001 1.436360e+002 -2.111713e-001 1.250685e+002
585000000 -1.597301e+000 -1.748804e+002 -5.062702e+001 1.393045e+002 -5.102691e+001 1.391773e+002 -2.031231e-001 1.248145e+002
585625000 -1.617107e+000 -1.753106e+002 -5.129914e+001 1.385994e+002 -5.028135e+001 1.399110e+002 -2.023016e-001 1.246081e+002
586250000 -1.630130e+000 -1.758161e+002 -5.084697e+001 1.365813e+002 -5.024743e+001 1.402281e+002 -2.047397e-001 1.245250e+002
586875000 -1.641217e+000 -1.763148e+002 -5.081081e+001 1.356336e+002 -5.052375e+001 1.368230e+002 -1.949506e-001 1.243632e+002
587500000 -1.663676e+000 -1.768661e+002 -5.051608e+001 1.342167e+002 -5.023613e+001 1.355457e+002 -1.814969e-001 1.242118e+002
588125000 -1.677050e+000 -1.773169e+002 -5.088363e+001 1.333028e+002 -5.035574e+001 1.334407e+002 -1.848378e-001 1.241379e+002
588750000 -1.688357e+000 -1.778735e+002 -5.082455e+001 1.354987e+002 -5.032733e+001 1.362306e+002 -1.835886e-001 1.240657e+002
589375000 -1.705281e+000 -1.783309e+002 -5.098996e+001 1.293567e+002 -5.049669e+001 1.296339e+002 -1.636921e-001 1.239967e+002
590000000 -1.727989e+000 -1.788594e+002 -4.997883e+001 1.236577e+002 -5.063225e+001 1.289027e+002 -1.616389e-001 1.239779e+002
590625000 -1.750732e+000 -1.793456e+002 -5.033950e+001 1.250514e+002 -5.026750e+001 1.256151e+002 -1.681472e-001 1.239304e+002
591250000 -1.785090e+000 -1.798104e+002 -4.994175e+001 1.246433e+002 -4.984901e+001 1.265388e+002 -1.632511e-001 1.238648e+002
591875000 -1.822703e+000 1.797880e+002 -5.014524e+001 1.235866e+002 -5.030196e+001 1.241430e+002 -1.523048e-001 1.239701e+002
592500000 -1.855513e+000 1.794115e+002 -5.011438e+001 1.220107e+002 -4.986330e+001 1.216776e+002 -1.605652e-001 1.240676e+002
593125000 -1.885674e+000 1.791467e+002 -5.006966e+001 1.161564e+002 -4.976200e+001 1.192027e+002 -1.609262e-001 1.241121e+002
593750000 -1.909131e+000 1.787665e+002 -5.108207e+001 1.179006e+002 -4.951196e+001 1.169673e+002 -1.491631e-001 1.241945e+002
594375000 -1.925902e+000 1.785067e+002 -5.079612e+001 1.165713e+002 -4.972763e+001 1.135475e+002 -1.350725e-001 1.242645e+002
595000000 -1.944212e+000 1.781791e+002 -4.990194e+001 1.194800e+002 -5.064206e+001 1.160613e+002 -1.519901e-001 1.243427e+002
