!Agilent Technologies,E8364B,US42250235,A.06.04.32
!Agilent E8364B: A.06.04.32
!Date: Friday, January 15, 2021 16:16:20
!Correction: S11(Full 2 Port(1,2)) S21(Full 2 Port(1,2)) S12(Full 2 Port(1,2)) S22(Full 2 Port(1,2)) 
!S2P File: Measurements: S11, S21, S12, S22:
# Hz S  dB   R 50
500000000 -1.183085e-001 -1.294425e+002 -6.358064e+001 -1.696512e+002 -6.822835e+001 1.696548e+002 -1.561549e-001 1.360321e+002
500625000 -1.156075e-001 -1.297345e+002 -6.426694e+001 -1.707888e+002 -6.643369e+001 1.768433e+002 -1.667403e-001 1.360760e+002
501250000 -1.227180e-001 -1.299411e+002 -7.239216e+001 1.541145e+002 -6.590997e+001 1.364502e+002 -1.660245e-001 1.359685e+002
501875000 -1.248471e-001 -1.302614e+002 -7.088751e+001 1.512172e+002 -6.755364e+001 1.666650e+002 -1.544150e-001 1.359110e+002
502500000 -1.227304e-001 -1.304799e+002 -6.129702e+001 1.524635e+002 -6.638091e+001 1.793241e+002 -1.609008e-001 1.358986e+002
503125000 -1.415141e-001 -1.307302e+002 -6.289660e+001 1.550416e+002 -6.446758e+001 1.546774e+002 -1.595994e-001 1.357499e+002
503750000 -1.382134e-001 -1.309914e+002 -6.394041e+001 1.617516e+002 -6.406824e+001 1.630079e+002 -1.659357e-001 1.356169e+002
504375000 -1.503292e-001 -1.312596e+002 -6.112662e+001 1.678816e+002 -6.525727e+001 1.506574e+002 -1.770438e-001 1.356045e+002
505000000 -1.492669e-001 -1.315445e+002 -6.418008e+001 -1.772212e+002 -6.453960e+001 1.622234e+002 -1.731497e-001 1.355055e+002
505625000 -1.460804e-001 -1.317483e+002 -6.567774e+001 1.739408e+002 -6.830274e+001 1.447744e+002 -1.792427e-001 1.353813e+002
506250000 -1.530012e-001 -1.320440e+002 -6.478105e+001 1.634335e+002 -6.397497e+001 1.683123e+002 -1.784105e-001 1.352108e+002
506875000 -1.530538e-001 -1.322409e+002 -6.405296e+001 1.668799e+002 -6.669770e+001 1.623451e+002 -1.768342e-001 1.349954e+002
507500000 -1.535935e-001 -1.325066e+002 -6.476987e+001 1.416332e+002 -6.585618e+001 1.492577e+002 -1.839733e-001 1.347978e+002
508125000 -1.574164e-001 -1.327683e+002 -6.400574e+001 1.674118e+002 -6.373913e+001 1.544889e+002 -1.897781e-001 1.346249e+002
508750000 -1.620680e-001 -1.329698e+002 -6.187733e+001 1.584455e+002 -6.545477e+001 1.663607e+002 -1.885459e-001 1.344528e+002
509375000 -1.672229e-001 -1.332701e+002 -6.625744e+001 1.325354e+002 -6.178104e+001 1.614178e+002 -1.826121e-001 1.343233e+002
510000000 -1.641250e-001 -1.335677e+002 -6.270039e+001 1.627520e+002 -6.524889e+001 1.596005e+002 -1.948887e-001 1.340659e+002
510625000 -1.716480e-001 -1.337292e+002 -6.442449e+001 1.319107e+002 -6.892394e+001 1.394451e+002 -1.823835e-001 1.338878e+002
511250000 -1.832639e-001 -1.340003e+002 -6.348841e+001 1.486709e+002 -6.492022e+001 1.478387e+002 -1.937740e-001 1.335818e+002
511875000 -1.763785e-001 -1.343391e+002 -6.465331e+001 1.315556e+002 -6.420775e+001 1.438648e+002 -1.820181e-001 1.334422e+002
512500000 -1.758131e-001 -1.345300e+002 -6.413420e+001 1.359449e+002 -6.494392e+001 1.363915e+002 -1.878835e-001 1.331838e+002
513125000 -1.865385e-001 -1.348290e+002 -6.229644e+001 1.173111e+002 -6.333230e+001 1.400786e+002 -1.905242e-001 1.331345e+002
513750000 -1.999523e-001 -1.351505e+002 -6.698279e+001 1.337935e+002 -6.665051e+001 1.620476e+002 -1.951988e-001 1.329293e+002
514375000 -2.056903e-001 -1.355004e+002 -6.344969e+001 1.293303e+002 -6.186026e+001 1.451448e+002 -1.786280e-001 1.327522e+002
515000000 -2.082757e-001 -1.357600e+002 -6.396901e+001 1.295414e+002 -6.358574e+001 1.278672e+002 -1.709460e-001 1.325748e+002
515625000 -2.133301e-001 -1.361356e+002 -7.027919e+001 1.349479e+002 -6.408656e+001 1.381186e+002 -1.675242e-001 1.325289e+002
516250000 -2.150380e-001 -1.364149e+002 -6.453211e+001 1.299351e+002 -6.574775e+001 1.335174e+002 -1.722414e-001 1.323903e+002
516875000 -2.335250e-001 -1.367461e+002 -6.375702e+001 1.680341e+002 -6.417245e+001 1.404563e+002 -1.656897e-001 1.323661e+002
517500000 -2.277710e-001 -1.370625e+002 -6.464725e+001 1.095839e+002 -6.325782e+001 1.313600e+002 -1.697112e-001 1.322393e+002
518125000 -2.268923e-001 -1.374085e+002 -6.152045e+001 1.480976e+002 -6.714349e+001 1.340810e+002 -1.594128e-001 1.321825e+002
518750000 -2.413607e-001 -1.377428e+002 -6.294308e+001 1.425783e+002 -6.396489e+001 1.482751e+002 -1.559474e-001 1.322330e+002
519375000 -2.478100e-001 -1.380289e+002 -6.425558e+001 1.265639e+002 -6.474603e+001 1.256129e+002 -1.564954e-001 1.321951e+002
520000000 -2.483042e-001 -1.384420e+002 -6.073012e+001 1.304764e+002 -6.602477e+001 1.407051e+002 -1.470561e-001 1.321313e+002
520625000 -2.518907e-001 -1.388345e+002 -6.421808e+001 1.580599e+002 -6.598547e+001 1.293082e+002 -1.405694e-001 1.321795e+002
521250000 -2.670572e-001 -1.392055e+002 -6.301075e+001 1.322718e+002 -6.301614e+001 1.241303e+002 -1.456461e-001 1.322231e+002
521875000 -2.652066e-001 -1.395812e+002 -6.490536e+001 1.415441e+002 -6.291015e+001 1.184857e+002 -1.364512e-001 1.321978e+002
522500000 -2.750329e-001 -1.399373e+002 -6.305630e+001 1.359741e+002 -6.400650e+001 1.052957e+002 -1.430755e-001 1.322098e+002
523125000 -2.884746e-001 -1.402719e+002 -6.444314e+001 1.207621e+002 -6.176765e+001 1.293074e+002 -1.447082e-001 1.322946e+002
523750000 -2.844256e-001 -1.406374e+002 -6.547342e+001 9.704690e+001 -6.315794e+001 1.276997e+002 -1.421770e-001 1.323177e+002
524375000 -3.046018e-001 -1.409802e+002 -6.340926e+001 1.140743e+002 -6.116870e+001 1.304841e+002 -1.358197e-001 1.322815e+002
525000000 -3.139547e-001 -1.412915e+002 -6.282492e+001 1.303705e+002 -6.601593e+001 1.127418e+002 -1.471249e-001 1.323244e+002
525625000 -3.269784e-001 -1.415853e+002 -6.310860e+001 1.236135e+002 -6.251096e+001 1.365975e+002 -1.459953e-001 1.323005e+002
526250000 -3.220405e-001 -1.419257e+002 -6.206054e+001 1.317552e+002 -6.129843e+001 1.262187e+002 -1.534789e-001 1.323492e+002
526875000 -3.411831e-001 -1.422731e+002 -6.307936e+001 1.302704e+002 -6.265984e+001 1.454399e+002 -1.420592e-001 1.323663e+002
527500000 -3.585358e-001 -1.425750e+002 -6.251328e+001 1.010489e+002 -6.213455e+001 1.323074e+002 -1.439749e-001 1.323464e+002
528125000 -3.731379e-001 -1.429464e+002 -6.090691e+001 1.246608e+002 -6.239965e+001 9.597750e+001 -1.494255e-001 1.324111e+002
528750000 -3.681457e-001 -1.432229e+002 -6.262511e+001 1.118888e+002 -6.174331e+001 1.082195e+002 -1.447506e-001 1.325172e+002
529375000 -3.846003e-001 -1.435401e+002 -6.525580e+001 1.133695e+002 -6.361899e+001 1.143232e+002 -1.512828e-001 1.324480e+002
530000000 -4.035139e-001 -1.438670e+002 -6.479026e+001 1.121938e+002 -6.338411e+001 9.916670e+001 -1.467955e-001 1.324532e+002
530625000 -4.143338e-001 -1.441531e+002 -6.316079e+001 1.118984e+002 -6.364736e+001 1.119267e+002 -1.496207e-001 1.324263e+002
531250000 -4.164692e-001 -1.444902e+002 -6.004166e+001 1.163173e+002 -6.062951e+001 1.034215e+002 -1.419372e-001 1.324614e+002
531875000 -4.304973e-001 -1.448069e+002 -6.531732e+001 1.218780e+002 -6.104313e+001 1.041438e+002 -1.552195e-001 1.323983e+002
532500000 -4.406455e-001 -1.450368e+002 -6.192059e+001 1.031801e+002 -6.047656e+001 8.934455e+001 -1.603656e-001 1.324901e+002
533125000 -4.384955e-001 -1.453991e+002 -6.154736e+001 9.338525e+001 -6.148565e+001 1.108837e+002 -1.604235e-001 1.324311e+002
533750000 -4.476603e-001 -1.457571e+002 -6.315245e+001 1.038063e+002 -6.301415e+001 1.114596e+002 -1.756868e-001 1.324166e+002
534375000 -4.527320e-001 -1.461320e+002 -6.456772e+001 9.232813e+001 -6.376347e+001 1.032306e+002 -1.541564e-001 1.322975e+002
535000000 -4.555081e-001 -1.464415e+002 -6.290593e+001 1.026701e+002 -6.198059e+001 9.010602e+001 -1.654612e-001 1.323369e+002
535625000 -4.664938e-001 -1.468194e+002 -6.332834e+001 1.002168e+002 -6.100027e+001 1.096458e+002 -1.703313e-001 1.322494e+002
536250000 -4.761867e-001 -1.471739e+002 -6.280111e+001 8.653009e+001 -6.166608e+001 9.551015e+001 -1.597876e-001 1.321825e+002
536875000 -4.862078e-001 -1.475307e+002 -6.309991e+001 9.730230e+001 -6.328336e+001 9.283881e+001 -1.685888e-001 1.320837e+002
537500000 -4.870293e-001 -1.478320e+002 -6.152894e+001 9.219898e+001 -6.070529e+001 9.768739e+001 -1.664714e-001 1.321134e+002
538125000 -4.934708e-001 -1.482243e+002 -6.209513e+001 9.415531e+001 -6.043397e+001 8.454635e+001 -1.760581e-001 1.320036e+002
538750000 -5.143016e-001 -1.485587e+002 -6.005143e+001 9.351748e+001 -6.060960e+001 1.021085e+002 -1.731497e-001 1.318840e+002
539375000 -5.224302e-001 -1.488963e+002 -6.340570e+001 9.676867e+001 -6.181826e+001 9.639171e+001 -1.689906e-001 1.318432e+002
540000000 -5.363806e-001 -1.492926e+002 -6.144417e+001 6.938921e+001 -6.230460e+001 9.341695e+001 -1.707983e-001 1.316844e+002
540625000 -5.418957e-001 -1.495916e+002 -6.190011e+001 8.791541e+001 -6.234372e+001 8.226470e+001 -1.718550e-001 1.316190e+002
541250000 -5.417432e-001 -1.499144e+002 -5.978733e+001 8.034465e+001 -6.094558e+001 8.916207e+001 -1.630142e-001 1.315945e+002
541875000 -5.603034e-001 -1.502219e+002 -6.027760e+001 9.413722e+001 -6.279851e+001 8.058528e+001 -1.759835e-001 1.314137e+002
542500000 -5.699319e-001 -1.505456e+002 -6.116755e+001 6.899810e+001 -5.931983e+001 7.552469e+001 -1.587447e-001 1.314429e+002
543125000 -5.699541e-001 -1.509104e+002 -6.068809e+001 7.776885e+001 -6.173035e+001 7.009177e+001 -1.651794e-001 1.313210e+002
543750000 -5.778295e-001 -1.512657e+002 -6.272941e+001 6.704820e+001 -5.908760e+001 7.370809e+001 -1.773706e-001 1.312845e+002
544375000 -5.862212e-001 -1.515748e+002 -6.122113e+001 7.646847e+001 -6.235682e+001 7.806128e+001 -1.636661e-001 1.312545e+002
545000000 -5.940511e-001 -1.519351e+002 -5.906180e+001 7.932363e+001 -6.041184e+001 8.212428e+001 -1.665270e-001 1.311984e+002
545625000 -6.007611e-001 -1.523225e+002 -6.135125e+001 8.372667e+001 -6.085698e+001 7.522008e+001 -1.635937e-001 1.311908e+002
546250000 -6.294402e-001 -1.526507e+002 -5.981398e+001 8.351435e+001 -6.185194e+001 8.007906e+001 -1.687796e-001 1.310677e+002
546875000 -6.399658e-001 -1.530946e+002 -6.275942e+001 6.660625e+001 -6.081643e+001 7.405910e+001 -1.708096e-001 1.310496e+002
547500000 -6.606973e-001 -1.534147e+002 -6.081600e+001 8.166018e+001 -6.382763e+001 7.152643e+001 -1.780805e-001 1.309822e+002
548125000 -6.864424e-001 -1.536883e+002 -6.113066e+001 8.789591e+001 -6.059090e+001 8.106686e+001 -1.719071e-001 1.308940e+002
548750000 -7.049125e-001 -1.540947e+002 -6.001766e+001 8.034631e+001 -6.184014e+001 7.414355e+001 -1.837209e-001 1.308126e+002
549375000 -7.196959e-001 -1.544340e+002 -6.046049e+001 7.457886e+001 -5.998547e+001 6.684419e+001 -1.868536e-001 1.306344e+002
550000000 -7.330150e-001 -1.547572e+002 -6.016876e+001 6.534470e+001 -6.053732e+001 6.646407e+001 -1.850406e-001 1.306124e+002
550625000 -7.597107e-001 -1.551087e+002 -6.153957e+001 7.346381e+001 -6.053159e+001 6.949631e+001 -1.864894e-001 1.304874e+002
551250000 -7.662682e-001 -1.553913e+002 -5.967400e+001 7.313830e+001 -5.919581e+001 6.630521e+001 -1.880037e-001 1.302982e+002
551875000 -7.870254e-001 -1.557025e+002 -6.175514e+001 7.499718e+001 -6.166908e+001 6.814341e+001 -1.851227e-001 1.301365e+002
552500000 -7.961841e-001 -1.560559e+002 -6.035671e+001 5.525378e+001 -6.149147e+001 5.056516e+001 -1.883721e-001 1.300204e+002
553125000 -8.064104e-001 -1.562744e+002 -6.050480e+001 6.102590e+001 -6.171742e+001 5.698315e+001 -1.877914e-001 1.299296e+002
553750000 -8.290024e-001 -1.566228e+002 -5.946878e+001 7.157528e+001 -6.004718e+001 5.454654e+001 -1.924606e-001 1.296635e+002
554375000 -8.337863e-001 -1.568822e+002 -5.860849e+001 7.290439e+001 -5.904592e+001 6.387240e+001 -1.800612e-001 1.295815e+002
555000000 -8.467840e-001 -1.572785e+002 -5.999931e+001 5.112049e+001 -5.890682e+001 7.072183e+001 -1.954595e-001 1.295025e+002
555625000 -8.662074e-001 -1.574948e+002 -5.920932e+001 6.542622e+001 -5.907367e+001 5.917376e+001 -1.799436e-001 1.293489e+002
556250000 -8.806564e-001 -1.578164e+002 -5.958699e+001 5.570365e+001 -6.009095e+001 5.766377e+001 -1.851763e-001 1.292010e+002
556875000 -8.898894e-001 -1.581372e+002 -5.848876e+001 5.408833e+001 -5.960445e+001 5.609111e+001 -1.775738e-001 1.291467e+002
557500000 -9.103477e-001 -1.583862e+002 -5.787542e+001 5.950354e+001 -5.956473e+001 6.150632e+001 -1.727673e-001 1.290631e+002
558125000 -9.180325e-001 -1.587075e+002 -5.999274e+001 6.259849e+001 -5.961532e+001 4.127393e+001 -1.747101e-001 1.289962e+002
558750000 -9.187171e-001 -1.589557e+002 -5.991275e+001 5.588008e+001 -5.907707e+001 5.077880e+001 -1.638181e-001 1.290274e+002
559375000 -9.448832e-001 -1.592922e+002 -5.842621e+001 5.496819e+001 -5.910649e+001 4.027734e+001 -1.585370e-001 1.289548e+002
560000000 -9.533163e-001 -1.595065e+002 -6.039209e+001 3.599631e+001 -6.038306e+001 4.163424e+001 -1.431079e-001 1.289255e+002
560625000 -9.583135e-001 -1.597800e+002 -6.039605e+001 3.491734e+001 -5.878969e+001 4.003341e+001 -1.471618e-001 1.290166e+002
561250000 -9.694778e-001 -1.601301e+002 -5.927698e+001 4.668638e+001 -5.930896e+001 3.584771e+001 -1.466277e-001 1.290130e+002
561875000 -9.846516e-001 -1.604136e+002 -6.029654e+001 3.506824e+001 -5.843628e+001 3.880430e+001 -1.517642e-001 1.290780e+002
562500000 -9.910569e-001 -1.607388e+002 -6.005175e+001 2.997356e+001 -5.850497e+001 3.954020e+001 -1.541452e-001 1.291311e+002
563125000 -9.961454e-001 -1.610435e+002 -5.826004e+001 2.808293e+001 -5.896247e+001 2.182338e+001 -1.431784e-001 1.291811e+002
563750000 -1.015263e+000 -1.614469e+002 -6.018761e+001 3.923769e+001 -5.839701e+001 3.949458e+001 -1.435987e-001 1.292300e+002
564375000 -1.034606e+000 -1.617840e+002 -5.946874e+001 3.557686e+001 -5.794834e+001 3.477898e+001 -1.450795e-001 1.292486e+002
565000000 -1.048355e+000 -1.622436e+002 -6.094355e+001 2.678643e+001 -5.975514e+001 4.333282e+001 -1.608516e-001 1.292893e+002
565625000 -1.076499e+000 -1.625882e+002 -5.972818e+001 3.901013e+001 -5.891188e+001 2.635214e+001 -1.632300e-001 1.292891e+002
566250000 -1.090362e+000 -1.630138e+002 -6.016655e+001 2.514581e+001 -5.922348e+001 2.754829e+001 -1.682886e-001 1.292662e+002
566875000 -1.128396e+000 -1.633817e+002 -5.957864e+001 3.140379e+001 -5.946978e+001 2.750091e+001 -1.675575e-001 1.292161e+002
567500000 -1.150424e+000 -1.637902e+002 -5.734781e+001 4.238212e+001 -6.020549e+001 3.756260e+001 -1.670256e-001 1.291326e+002
568125000 -1.176345e+000 -1.641475e+002 -5.722095e+001 4.083596e+001 -5.875857e+001 2.470394e+001 -1.725709e-001 1.291519e+002
568750000 -1.198972e+000 -1.645155e+002 -5.842212e+001 3.270882e+001 -5.922483e+001 2.451368e+001 -1.746710e-001 1.290907e+002
569375000 -1.220186e+000 -1.648753e+002 -5.908411e+001 2.465666e+001 -6.070263e+001 2.639664e+001 -1.770248e-001 1.290709e+002
570000000 -1.238833e+000 -1.653065e+002 -5.972815e+001 3.585617e+001 -5.808175e+001 1.662661e+001 -1.795504e-001 1.289553e+002
570625000 -1.250062e+000 -1.656982e+002 -5.797413e+001 2.659356e+001 -5.936525e+001 1.788489e+001 -1.739514e-001 1.289279e+002
571250000 -1.265975e+000 -1.660530e+002 -5.812156e+001 3.457017e+001 -6.041801e+001 2.702521e+001 -1.765682e-001 1.288757e+002
571875000 -1.289889e+000 -1.664607e+002 -5.901083e+001 1.742883e+001 -5.841496e+001 2.044741e+001 -1.746553e-001 1.288049e+002
572500000 -1.312415e+000 -1.668824e+002 -5.989436e+001 1.722901e+001 -5.948135e+001 1.610184e+001 -1.822532e-001 1.287383e+002
573125000 -1.336496e+000 -1.672597e+002 -5.847281e+001 2.633400e+001 -5.866704e+001 2.519735e+001 -1.616411e-001 1.286831e+002
573750000 -1.351821e+000 -1.676427e+002 -6.023841e+001 1.474397e+001 -5.893915e+001 2.046136e+001 -1.812244e-001 1.285896e+002
574375000 -1.380352e+000 -1.680004e+002 -5.860858e+001 1.053880e+001 -5.856406e+001 1.259387e+001 -1.764948e-001 1.286369e+002
575000000 -1.400568e+000 -1.684165e+002 -5.924326e+001 1.660743e+001 -5.715489e+001 1.089002e+001 -1.756242e-001 1.285407e+002
575625000 -1.427699e+000 -1.687261e+002 -6.057478e+001 2.055404e+001 -5.903088e+001 1.924749e+001 -1.807954e-001 1.285128e+002
576250000 -1.438302e+000 -1.690255e+002 -5.865601e+001 1.773564e+001 -5.950991e+001 2.438607e+001 -1.817429e-001 1.283776e+002
576875000 -1.450164e+000 -1.693339e+002 -5.863174e+001 1.336302e+001 -5.944901e+001 4.743128e+000 -1.850170e-001 1.283211e+002
577500000 -1.472761e+000 -1.696455e+002 -5.858018e+001 1.231516e+001 -5.863945e+001 2.004901e+001 -1.764857e-001 1.281823e+002
578125000 -1.482816e+000 -1.701047e+002 -5.930125e+001 1.559530e+001 -5.863755e+001 1.007197e+001 -1.913135e-001 1.281127e+002
578750000 -1.492631e+000 -1.704683e+002 -5.968950e+001 3.875512e+000 -5.723393e+001 1.066723e+001 -1.952351e-001 1.279595e+002
579375000 -1.502356e+000 -1.707956e+002 -5.797893e+001 1.135185e+001 -5.906223e+001 7.973577e+000 -2.016371e-001 1.278492e+002
580000000 -1.526491e+000 -1.712227e+002 -6.027080e+001 1.768336e+001 -6.086154e+001 1.496458e+001 -2.009470e-001 1.276565e+002
580625000 -1.540851e+000 -1.715807e+002 -5.930662e+001 1.146285e+001 -5.852300e+001 1.208286e+001 -2.020668e-001 1.274642e+002
581250000 -1.559219e+000 -1.719401e+002 -5.809905e+001 1.717991e+000 -5.811420e+001 6.356322e+000 -2.096626e-001 1.273172e+002
581875000 -1.578695e+000 -1.723294e+002 -5.835427e+001 1.668432e+001 -5.848619e+001 9.474172e+000 -2.171565e-001 1.271101e+002
582500000 -1.588058e+000 -1.727074e+002 -5.947740e+001 -9.459245e-001 -5.870304e+001 1.130481e+001 -2.099957e-001 1.268657e+002
583125000 -1.588672e+000 -1.732076e+002 -5.952842e+001 1.954066e+001 -6.001403e+001 1.037460e+001 -2.215012e-001 1.265798e+002
583750000 -1.608061e+000 -1.736774e+002 -5.805688e+001 1.109156e+001 -5.776285e+001 4.584460e+000 -2.262054e-001 1.263557e+002
584375000 -1.618871e+000 -1.741669e+002 -5.736290e+001 9.838072e+000 -5.768478e+001 7.374319e+000 -2.039530e-001 1.261572e+002
585000000 -1.630738e+000 -1.746274e+002 -5.914769e+001 -5.917418e+000 -5.748170e+001 1.254713e+001 -2.136500e-001 1.259569e+002
585625000 -1.657615e+000 -1.750503e+002 -6.084805e+001 1.169060e+001 -5.924833e+001 -1.632362e+000 -2.031488e-001 1.257726e+002
586250000 -1.664901e+000 -1.755764e+002 -5.720762e+001 9.164694e+000 -5.954016e+001 -8.441768e+000 -2.009097e-001 1.256675e+002
586875000 -1.671427e+000 -1.760937e+002 -5.876269e+001 -6.222932e+000 -5.806169e+001 1.418348e+000 -1.984166e-001 1.254642e+002
587500000 -1.700604e+000 -1.766034e+002 -5.806261e+001 2.948102e+000 -5.790231e+001 -3.126493e-001 -1.866861e-001 1.253265e+002
588125000 -1.714884e+000 -1.770692e+002 -5.787892e+001 8.397476e-002 -5.811353e+001 6.474317e+000 -1.898298e-001 1.252117e+002
588750000 -1.726702e+000 -1.775037e+002 -5.739184e+001 -7.603167e-001 -5.713387e+001 -4.534225e+000 -1.822966e-001 1.251897e+002
589375000 -1.744493e+000 -1.780124e+002 -5.748684e+001 6.676913e+000 -5.840347e+001 6.383613e-001 -1.677356e-001 1.250514e+002
590000000 -1.772263e+000 -1.784568e+002 -5.538111e+001 -1.173293e+000 -5.682555e+001 -8.216506e+000 -1.775555e-001 1.250877e+002
590625000 -1.797571e+000 -1.788527e+002 -5.706356e+001 3.538648e+000 -5.676632e+001 -6.998262e-001 -1.649324e-001 1.250274e+002
591250000 -1.823106e+000 -1.792720e+002 -5.582693e+001 -4.598071e-001 -5.593734e+001 -1.109364e+001 -1.655450e-001 1.250844e+002
591875000 -1.861149e+000 -1.796297e+002 -5.589361e+001 -9.224198e+000 -5.639754e+001 -1.616338e+001 -1.636801e-001 1.251303e+002
592500000 -1.872600e+000 -1.799668e+002 -5.682423e+001 -1.251729e+001 -5.591673e+001 -7.632892e+000 -1.560505e-001 1.251592e+002
593125000 -1.898450e+000 1.797619e+002 -5.694954e+001 -1.457058e+001 -5.451691e+001 -1.287526e+001 -1.582925e-001 1.252505e+002
593750000 -1.911653e+000 1.793946e+002 -5.704630e+001 -1.485495e+001 -5.582958e+001 -1.740367e+001 -1.485521e-001 1.253543e+002
594375000 -1.918714e+000 1.790929e+002 -5.671686e+001 -1.608784e+001 -5.741853e+001 -8.836245e+000 -1.409318e-001 1.254033e+002
595000000 -1.936920e+000 1.787203e+002 -5.602052e+001 -8.831203e+000 -5.597359e+001 -2.810554e+001 -1.528430e-001 1.254373e+002
595625000 -1.946250e+000 1.783054e+002 -5.585313e+001 -1.281004e+001 -5.728986e+001 -2.119587e+001 -1.549227e-001 1.255420e+002
596250000 -1.967834e+000 1.779647e+002 -5.675672e+001 -1.292839e+001 -5.699644e+001 -1.946946e+001 -1.527288e-001 1.256078e+002
