!Agilent Technologies,E8364B,US42250235,A.06.04.32
!Agilent E8364B: A.06.04.32
!Date: Friday, January 15, 2021 16:21:51
!Correction: S11(Full 2 Port(1,2)) S21(Full 2 Port(1,2)) S12(Full 2 Port(1,2)) S22(Full 2 Port(1,2)) 
!S2P File: Measurements: S11, S21, S12, S22:
# Hz S  dB   R 50
500000000 -1.199160e-001 -1.294819e+002 -6.738322e+001 -2.777005e+000 -6.592803e+001 2.872551e+001 -1.550011e-001 1.346434e+002
500625000 -1.196836e-001 -1.297334e+002 -6.557194e+001 6.821432e+000 -6.243499e+001 2.962990e+001 -1.561837e-001 1.345887e+002
501250000 -1.255585e-001 -1.299947e+002 -6.465571e+001 1.094168e+001 -6.180210e+001 3.727381e+000 -1.583201e-001 1.345485e+002
501875000 -1.290272e-001 -1.302449e+002 -6.354283e+001 2.589989e+001 -6.079761e+001 8.030512e+000 -1.521179e-001 1.345182e+002
502500000 -1.270126e-001 -1.304834e+002 -6.150211e+001 4.343903e+000 -6.580114e+001 -3.304019e+000 -1.584135e-001 1.344522e+002
503125000 -1.358468e-001 -1.307435e+002 -6.275227e+001 1.068977e+001 -6.418009e+001 1.473821e+001 -1.649823e-001 1.343139e+002
503750000 -1.330900e-001 -1.310136e+002 -6.478056e+001 -2.913419e+000 -6.701324e+001 -6.215415e+000 -1.644219e-001 1.342171e+002
504375000 -1.426415e-001 -1.312579e+002 -6.374438e+001 8.235946e+000 -6.344313e+001 3.941853e+000 -1.819072e-001 1.341732e+002
505000000 -1.519291e-001 -1.314864e+002 -6.518604e+001 -1.443679e+001 -6.080227e+001 -1.048604e+001 -1.758734e-001 1.340464e+002
505625000 -1.443339e-001 -1.317414e+002 -6.710442e+001 5.400583e+000 -6.239639e+001 -1.104560e+001 -1.770586e-001 1.338926e+002
506250000 -1.499825e-001 -1.319723e+002 -6.295758e+001 2.148519e+000 -6.225216e+001 -1.609368e+001 -1.822965e-001 1.337453e+002
506875000 -1.483448e-001 -1.322359e+002 -6.076638e+001 -2.724859e+001 -6.185689e+001 -1.669944e+001 -1.793039e-001 1.335173e+002
507500000 -1.529349e-001 -1.324656e+002 -6.322703e+001 -6.970641e+000 -6.276206e+001 -2.035570e+001 -1.757625e-001 1.333229e+002
508125000 -1.553940e-001 -1.327394e+002 -6.564333e+001 -2.763408e+001 -6.402763e+001 -1.806577e+001 -1.874138e-001 1.331676e+002
508750000 -1.556479e-001 -1.329781e+002 -5.978696e+001 -2.128051e+001 -6.308486e+001 -6.558032e+000 -1.894616e-001 1.329474e+002
509375000 -1.643242e-001 -1.332716e+002 -6.091012e+001 -2.282064e+001 -6.172433e+001 -4.880404e+000 -1.901774e-001 1.327944e+002
510000000 -1.569356e-001 -1.335655e+002 -6.236915e+001 -2.066738e+001 -6.157003e+001 -5.831821e+000 -1.941389e-001 1.325521e+002
510625000 -1.671358e-001 -1.337521e+002 -6.260292e+001 -1.484406e+001 -6.278278e+001 -2.398817e+001 -1.820832e-001 1.323722e+002
511250000 -1.716284e-001 -1.340399e+002 -6.160164e+001 -2.872978e+001 -6.341164e+001 -1.832684e+001 -1.977330e-001 1.321401e+002
511875000 -1.672972e-001 -1.343412e+002 -6.235558e+001 -2.676351e+001 -6.269664e+001 -2.038416e+001 -1.862215e-001 1.319032e+002
512500000 -1.743790e-001 -1.346297e+002 -6.154144e+001 -2.519476e+001 -6.316541e+001 -2.058337e+001 -1.905785e-001 1.316765e+002
513125000 -1.912084e-001 -1.348853e+002 -6.034218e+001 -2.321877e+001 -6.155976e+001 -2.011524e+001 -1.843471e-001 1.315593e+002
513750000 -1.940468e-001 -1.351983e+002 -6.131422e+001 -3.405792e+001 -6.254317e+001 -1.321219e+001 -1.874516e-001 1.313570e+002
514375000 -1.997749e-001 -1.355070e+002 -6.134909e+001 -2.497342e+001 -6.156776e+001 -3.058480e+001 -1.749849e-001 1.311580e+002
515000000 -2.039699e-001 -1.357626e+002 -6.023328e+001 -2.679065e+001 -6.246967e+001 -2.377404e+001 -1.699088e-001 1.310895e+002
515625000 -2.136421e-001 -1.361670e+002 -6.090419e+001 -2.349633e+001 -6.198998e+001 -2.156996e+001 -1.633732e-001 1.309412e+002
516250000 -2.185897e-001 -1.364866e+002 -6.075999e+001 -1.723814e+001 -6.513672e+001 -3.706145e+001 -1.795134e-001 1.308607e+002
516875000 -2.376744e-001 -1.367796e+002 -6.458708e+001 -4.088589e+001 -6.176350e+001 -3.372754e+001 -1.587986e-001 1.308548e+002
517500000 -2.340163e-001 -1.370824e+002 -6.356237e+001 -3.694126e+001 -6.106820e+001 -3.866167e+001 -1.620560e-001 1.307596e+002
518125000 -2.374019e-001 -1.374913e+002 -6.194123e+001 -3.184186e+001 -5.985314e+001 -2.457032e+001 -1.549336e-001 1.306595e+002
518750000 -2.472579e-001 -1.378033e+002 -6.075050e+001 -4.154376e+001 -6.278565e+001 -2.875103e+001 -1.520161e-001 1.307435e+002
519375000 -2.570306e-001 -1.380990e+002 -6.294618e+001 -4.576097e+001 -6.184786e+001 -3.079880e+001 -1.444320e-001 1.306324e+002
520000000 -2.647312e-001 -1.384867e+002 -6.049525e+001 -4.532948e+001 -6.119581e+001 -4.744014e+001 -1.461304e-001 1.306347e+002
520625000 -2.626192e-001 -1.388573e+002 -6.028819e+001 -4.145661e+001 -6.010306e+001 -3.983605e+001 -1.460214e-001 1.306104e+002
521250000 -2.717219e-001 -1.391806e+002 -5.925815e+001 -3.789043e+001 -6.020914e+001 -4.167963e+001 -1.450679e-001 1.306391e+002
521875000 -2.742541e-001 -1.395298e+002 -5.899586e+001 -4.075447e+001 -6.049135e+001 -4.035703e+001 -1.369352e-001 1.307436e+002
522500000 -2.838567e-001 -1.398924e+002 -5.957565e+001 -4.355179e+001 -5.842857e+001 -4.273649e+001 -1.385970e-001 1.306841e+002
523125000 -2.954558e-001 -1.402312e+002 -5.935013e+001 -5.369311e+001 -6.027941e+001 -4.679181e+001 -1.407008e-001 1.306863e+002
523750000 -3.013892e-001 -1.405711e+002 -5.944999e+001 -3.931087e+001 -6.086423e+001 -3.860253e+001 -1.413292e-001 1.307550e+002
524375000 -3.172525e-001 -1.409286e+002 -5.921658e+001 -5.079000e+001 -6.037181e+001 -4.770062e+001 -1.391870e-001 1.307430e+002
525000000 -3.161730e-001 -1.412926e+002 -6.064503e+001 -4.240145e+001 -6.152654e+001 -5.094836e+001 -1.377418e-001 1.307999e+002
525625000 -3.404202e-001 -1.415807e+002 -5.863173e+001 -5.730455e+001 -6.076863e+001 -4.913823e+001 -1.513079e-001 1.307522e+002
526250000 -3.362837e-001 -1.418673e+002 -6.157533e+001 -5.176273e+001 -5.969350e+001 -6.141946e+001 -1.424267e-001 1.308200e+002
526875000 -3.508880e-001 -1.422306e+002 -5.935222e+001 -5.924800e+001 -5.881345e+001 -5.535305e+001 -1.437861e-001 1.308363e+002
527500000 -3.597769e-001 -1.424908e+002 -5.929738e+001 -6.569601e+001 -5.983528e+001 -6.065957e+001 -1.519754e-001 1.307793e+002
528125000 -3.821672e-001 -1.428187e+002 -5.993987e+001 -6.452946e+001 -5.893640e+001 -5.901211e+001 -1.465994e-001 1.309003e+002
528750000 -3.833337e-001 -1.431359e+002 -6.048913e+001 -6.469612e+001 -6.101430e+001 -5.283967e+001 -1.462732e-001 1.309008e+002
529375000 -3.890156e-001 -1.434122e+002 -6.034822e+001 -7.701607e+001 -5.921760e+001 -7.553191e+001 -1.426051e-001 1.308930e+002
530000000 -4.059449e-001 -1.437826e+002 -5.982338e+001 -7.448364e+001 -5.934203e+001 -6.437694e+001 -1.488075e-001 1.308883e+002
530625000 -4.118153e-001 -1.440208e+002 -6.083705e+001 -7.781900e+001 -5.756271e+001 -6.108374e+001 -1.517746e-001 1.309442e+002
531250000 -4.179831e-001 -1.444367e+002 -5.931084e+001 -8.315429e+001 -5.811537e+001 -7.294912e+001 -1.446135e-001 1.308691e+002
531875000 -4.310030e-001 -1.446753e+002 -5.947595e+001 -8.166086e+001 -5.786153e+001 -6.138755e+001 -1.568280e-001 1.309000e+002
532500000 -4.312107e-001 -1.449757e+002 -5.887799e+001 -6.578600e+001 -5.962245e+001 -7.570045e+001 -1.539676e-001 1.308662e+002
533125000 -4.304274e-001 -1.453177e+002 -5.824090e+001 -7.757078e+001 -5.874507e+001 -7.401808e+001 -1.554565e-001 1.308494e+002
533750000 -4.451576e-001 -1.456749e+002 -5.951678e+001 -6.917660e+001 -5.839009e+001 -6.773263e+001 -1.717888e-001 1.308083e+002
534375000 -4.471819e-001 -1.460401e+002 -5.903017e+001 -7.048692e+001 -5.906746e+001 -7.397602e+001 -1.591912e-001 1.307621e+002
535000000 -4.537435e-001 -1.463628e+002 -5.781527e+001 -7.771889e+001 -5.851379e+001 -8.928133e+001 -1.677853e-001 1.307238e+002
535625000 -4.597266e-001 -1.467504e+002 -5.820293e+001 -9.331199e+001 -5.959901e+001 -8.538622e+001 -1.637921e-001 1.306851e+002
536250000 -4.590656e-001 -1.471137e+002 -5.730245e+001 -7.673663e+001 -5.772937e+001 -7.034189e+001 -1.569669e-001 1.305671e+002
536875000 -4.786025e-001 -1.475474e+002 -5.667874e+001 -8.246758e+001 -5.813029e+001 -7.446454e+001 -1.634846e-001 1.305232e+002
537500000 -4.825166e-001 -1.477970e+002 -5.814566e+001 -8.961609e+001 -5.885651e+001 -8.183684e+001 -1.650559e-001 1.304813e+002
538125000 -4.912734e-001 -1.482013e+002 -5.779039e+001 -7.898190e+001 -5.795729e+001 -8.990408e+001 -1.737363e-001 1.304200e+002
538750000 -5.080631e-001 -1.485396e+002 -5.696413e+001 -9.063930e+001 -5.812293e+001 -8.076446e+001 -1.698762e-001 1.302895e+002
539375000 -5.216748e-001 -1.488696e+002 -5.780898e+001 -8.851650e+001 -5.831945e+001 -9.024047e+001 -1.695090e-001 1.302426e+002
540000000 -5.249803e-001 -1.492304e+002 -5.844603e+001 -9.386141e+001 -5.777134e+001 -9.265196e+001 -1.666155e-001 1.300816e+002
540625000 -5.419330e-001 -1.496322e+002 -5.701815e+001 -9.181184e+001 -5.902986e+001 -9.079100e+001 -1.663026e-001 1.300037e+002
541250000 -5.458363e-001 -1.499131e+002 -5.719875e+001 -9.694858e+001 -5.691507e+001 -9.662138e+001 -1.634796e-001 1.299801e+002
541875000 -5.585216e-001 -1.502180e+002 -5.834909e+001 -9.736221e+001 -5.785255e+001 -9.396218e+001 -1.766879e-001 1.298402e+002
542500000 -5.695934e-001 -1.505174e+002 -5.681534e+001 -9.827071e+001 -5.763478e+001 -9.328016e+001 -1.677522e-001 1.298160e+002
543125000 -5.662013e-001 -1.508887e+002 -5.783956e+001 -8.707117e+001 -5.821027e+001 -8.923292e+001 -1.654402e-001 1.296923e+002
543750000 -5.753310e-001 -1.512017e+002 -5.821223e+001 -9.754197e+001 -5.748669e+001 -1.133395e+002 -1.711525e-001 1.296685e+002
544375000 -5.885262e-001 -1.515592e+002 -5.603395e+001 -1.047661e+002 -5.663162e+001 -1.014802e+002 -1.668888e-001 1.296217e+002
545000000 -5.990460e-001 -1.519420e+002 -5.763444e+001 -1.067095e+002 -5.788786e+001 -1.029267e+002 -1.628410e-001 1.295962e+002
545625000 -6.054810e-001 -1.522947e+002 -5.807729e+001 -1.093522e+002 -5.625868e+001 -1.029204e+002 -1.708237e-001 1.295820e+002
546250000 -6.309566e-001 -1.526408e+002 -5.739537e+001 -9.727545e+001 -5.819435e+001 -1.113917e+002 -1.714066e-001 1.294454e+002
546875000 -6.438872e-001 -1.529800e+002 -5.674277e+001 -1.057774e+002 -5.693483e+001 -1.039414e+002 -1.720996e-001 1.294706e+002
547500000 -6.654612e-001 -1.533467e+002 -5.724656e+001 -1.044577e+002 -5.626944e+001 -1.073525e+002 -1.722437e-001 1.293378e+002
548125000 -6.892630e-001 -1.536207e+002 -5.731335e+001 -1.005887e+002 -5.745817e+001 -1.033312e+002 -1.727394e-001 1.293121e+002
548750000 -7.040806e-001 -1.539812e+002 -5.853630e+001 -1.170822e+002 -5.653350e+001 -1.104351e+002 -1.812253e-001 1.291812e+002
549375000 -7.250712e-001 -1.543028e+002 -5.600723e+001 -1.151351e+002 -5.759027e+001 -1.100086e+002 -1.831421e-001 1.289668e+002
550000000 -7.406213e-001 -1.545928e+002 -5.539419e+001 -1.170638e+002 -5.676231e+001 -1.184852e+002 -1.863544e-001 1.289105e+002
550625000 -7.598496e-001 -1.549014e+002 -5.589447e+001 -1.174773e+002 -5.648499e+001 -1.236132e+002 -1.900436e-001 1.288163e+002
551250000 -7.643570e-001 -1.551913e+002 -5.570510e+001 -1.203660e+002 -5.614133e+001 -1.186617e+002 -1.864643e-001 1.287008e+002
551875000 -7.831778e-001 -1.555061e+002 -5.600824e+001 -1.162282e+002 -5.545110e+001 -1.229240e+002 -1.855870e-001 1.284762e+002
552500000 -7.989653e-001 -1.558135e+002 -5.550938e+001 -1.192255e+002 -5.507019e+001 -1.173333e+002 -1.872527e-001 1.282957e+002
553125000 -8.013307e-001 -1.560822e+002 -5.482558e+001 -1.259081e+002 -5.533872e+001 -1.254023e+002 -1.879729e-001 1.282381e+002
553750000 -8.143660e-001 -1.563896e+002 -5.542690e+001 -1.277340e+002 -5.621988e+001 -1.270967e+002 -1.889912e-001 1.280176e+002
554375000 -8.229450e-001 -1.566718e+002 -5.583245e+001 -1.225742e+002 -5.528623e+001 -1.313612e+002 -1.897226e-001 1.278778e+002
555000000 -8.299269e-001 -1.570247e+002 -5.564118e+001 -1.262359e+002 -5.520905e+001 -1.292631e+002 -1.914882e-001 1.277559e+002
555625000 -8.425395e-001 -1.573051e+002 -5.426805e+001 -1.351093e+002 -5.564976e+001 -1.324199e+002 -1.777639e-001 1.276783e+002
556250000 -8.499843e-001 -1.576487e+002 -5.522412e+001 -1.342589e+002 -5.560666e+001 -1.322739e+002 -1.783828e-001 1.275290e+002
556875000 -8.538173e-001 -1.579876e+002 -5.620118e+001 -1.378346e+002 -5.540040e+001 -1.373984e+002 -1.797133e-001 1.274274e+002
557500000 -8.764952e-001 -1.582428e+002 -5.610484e+001 -1.369341e+002 -5.402701e+001 -1.328025e+002 -1.726166e-001 1.273686e+002
558125000 -8.825082e-001 -1.585326e+002 -5.508070e+001 -1.393520e+002 -5.508113e+001 -1.430951e+002 -1.769076e-001 1.273486e+002
558750000 -8.901101e-001 -1.588674e+002 -5.544282e+001 -1.389701e+002 -5.375323e+001 -1.442816e+002 -1.631553e-001 1.272797e+002
559375000 -9.082528e-001 -1.591667e+002 -5.376482e+001 -1.359515e+002 -5.408667e+001 -1.416696e+002 -1.586930e-001 1.272573e+002
560000000 -9.219360e-001 -1.594458e+002 -5.492529e+001 -1.468223e+002 -5.439042e+001 -1.434733e+002 -1.528408e-001 1.272786e+002
560625000 -9.247310e-001 -1.597554e+002 -5.432095e+001 -1.505125e+002 -5.427896e+001 -1.492367e+002 -1.530920e-001 1.272504e+002
561250000 -9.395374e-001 -1.600935e+002 -5.470878e+001 -1.470097e+002 -5.414983e+001 -1.448083e+002 -1.433002e-001 1.272847e+002
561875000 -9.499596e-001 -1.603839e+002 -5.461187e+001 -1.472759e+002 -5.496742e+001 -1.522729e+002 -1.498420e-001 1.273553e+002
562500000 -9.624705e-001 -1.607106e+002 -5.350941e+001 -1.512258e+002 -5.445273e+001 -1.460978e+002 -1.490145e-001 1.274289e+002
563125000 -9.695206e-001 -1.610239e+002 -5.442861e+001 -1.477771e+002 -5.567584e+001 -1.505354e+002 -1.450519e-001 1.274388e+002
563750000 -9.817863e-001 -1.613918e+002 -5.401072e+001 -1.506246e+002 -5.452999e+001 -1.536134e+002 -1.515249e-001 1.275171e+002
564375000 -1.008154e+000 -1.617597e+002 -5.365842e+001 -1.558856e+002 -5.417325e+001 -1.525701e+002 -1.500546e-001 1.275245e+002
565000000 -1.020144e+000 -1.621839e+002 -5.492853e+001 -1.590305e+002 -5.343933e+001 -1.481242e+002 -1.547827e-001 1.275583e+002
565625000 -1.036100e+000 -1.625545e+002 -5.441461e+001 -1.577375e+002 -5.333223e+001 -1.563488e+002 -1.602138e-001 1.275717e+002
566250000 -1.049043e+000 -1.629650e+002 -5.421560e+001 -1.554081e+002 -5.453708e+001 -1.585600e+002 -1.703783e-001 1.275712e+002
566875000 -1.078249e+000 -1.633448e+002 -5.414268e+001 -1.632712e+002 -5.307818e+001 -1.669618e+002 -1.700301e-001 1.274461e+002
567500000 -1.098619e+000 -1.637806e+002 -5.359738e+001 -1.666890e+002 -5.395157e+001 -1.577048e+002 -1.704901e-001 1.274231e+002
568125000 -1.123556e+000 -1.641407e+002 -5.313393e+001 -1.641989e+002 -5.407447e+001 -1.644570e+002 -1.750467e-001 1.274096e+002
568750000 -1.146443e+000 -1.645290e+002 -5.417558e+001 -1.549178e+002 -5.421634e+001 -1.760708e+002 -1.728583e-001 1.273229e+002
569375000 -1.167454e+000 -1.649456e+002 -5.239929e+001 -1.673155e+002 -5.412472e+001 -1.711718e+002 -1.770958e-001 1.272419e+002
570000000 -1.186105e+000 -1.653622e+002 -5.400516e+001 -1.727620e+002 -5.411751e+001 -1.650710e+002 -1.760863e-001 1.271858e+002
570625000 -1.192239e+000 -1.657627e+002 -5.344868e+001 -1.740020e+002 -5.368917e+001 -1.736064e+002 -1.721389e-001 1.271678e+002
571250000 -1.217505e+000 -1.661702e+002 -5.284691e+001 -1.709858e+002 -5.422541e+001 -1.716825e+002 -1.766347e-001 1.271149e+002
571875000 -1.245524e+000 -1.665934e+002 -5.301310e+001 -1.743385e+002 -5.342133e+001 -1.716249e+002 -1.757513e-001 1.270277e+002
572500000 -1.265931e+000 -1.670510e+002 -5.457228e+001 -1.725008e+002 -5.396361e+001 -1.740274e+002 -1.797351e-001 1.269666e+002
573125000 -1.293648e+000 -1.674146e+002 -5.372105e+001 -1.793562e+002 -5.350996e+001 1.789613e+002 -1.712150e-001 1.269591e+002
573750000 -1.308793e+000 -1.678022e+002 -5.296155e+001 -1.796872e+002 -5.351735e+001 -1.782522e+002 -1.863430e-001 1.268417e+002
574375000 -1.340077e+000 -1.681537e+002 -5.303464e+001 1.742158e+002 -5.267789e+001 1.772072e+002 -1.751871e-001 1.268062e+002
575000000 -1.365017e+000 -1.685476e+002 -5.247589e+001 1.737354e+002 -5.383146e+001 1.784655e+002 -1.769501e-001 1.267157e+002
575625000 -1.379251e+000 -1.688831e+002 -5.339824e+001 1.676325e+002 -5.317086e+001 1.726630e+002 -1.763291e-001 1.267113e+002
576250000 -1.401914e+000 -1.692168e+002 -5.306670e+001 1.732660e+002 -5.276689e+001 1.729871e+002 -1.934081e-001 1.265973e+002
576875000 -1.414382e+000 -1.695811e+002 -5.247019e+001 1.770805e+002 -5.423070e+001 1.697956e+002 -1.869246e-001 1.265248e+002
577500000 -1.442810e+000 -1.699129e+002 -5.200124e+001 1.696168e+002 -5.306612e+001 1.695147e+002 -1.830924e-001 1.263653e+002
578125000 -1.461065e+000 -1.702798e+002 -5.300028e+001 1.691060e+002 -5.269041e+001 1.729510e+002 -1.940815e-001 1.263239e+002
578750000 -1.463001e+000 -1.706030e+002 -5.236726e+001 1.642899e+002 -5.296358e+001 1.672242e+002 -1.947799e-001 1.261394e+002
579375000 -1.481725e+000 -1.709421e+002 -5.232724e+001 1.616855e+002 -5.313197e+001 1.638308e+002 -1.960837e-001 1.259575e+002
580000000 -1.491920e+000 -1.713328e+002 -5.332883e+001 1.622905e+002 -5.341929e+001 1.635961e+002 -1.979941e-001 1.257320e+002
580625000 -1.507902e+000 -1.717047e+002 -5.190078e+001 1.599972e+002 -5.253632e+001 1.626326e+002 -2.028704e-001 1.256442e+002
581250000 -1.516288e+000 -1.720701e+002 -5.268911e+001 1.584721e+002 -5.264489e+001 1.597395e+002 -2.025868e-001 1.254249e+002
581875000 -1.534086e+000 -1.725431e+002 -5.254094e+001 1.566048e+002 -5.227913e+001 1.588280e+002 -2.098190e-001 1.252496e+002
582500000 -1.550182e+000 -1.729707e+002 -5.276598e+001 1.532268e+002 -5.249424e+001 1.527050e+002 -2.132930e-001 1.249663e+002
583125000 -1.545060e+000 -1.735431e+002 -5.260649e+001 1.548076e+002 -5.221482e+001 1.564712e+002 -2.216804e-001 1.247000e+002
583750000 -1.566170e+000 -1.740061e+002 -5.204039e+001 1.561175e+002 -5.266618e+001 1.550419e+002 -2.192085e-001 1.245332e+002
584375000 -1.579513e+000 -1.744794e+002 -5.310413e+001 1.525816e+002 -5.198491e+001 1.501905e+002 -2.116598e-001 1.242568e+002
585000000 -1.599017e+000 -1.749934e+002 -5.333648e+001 1.459557e+002 -5.193365e+001 1.557076e+002 -2.063939e-001 1.241407e+002
585625000 -1.618466e+000 -1.755154e+002 -5.272447e+001 1.502848e+002 -5.279328e+001 1.511377e+002 -1.955817e-001 1.239101e+002
586250000 -1.633330e+000 -1.759850e+002 -5.188863e+001 1.409691e+002 -5.262452e+001 1.510193e+002 -1.979358e-001 1.238274e+002
586875000 -1.640570e+000 -1.765411e+002 -5.245227e+001 1.418914e+002 -5.205061e+001 1.469711e+002 -1.984614e-001 1.235680e+002
587500000 -1.672706e+000 -1.770526e+002 -5.300520e+001 1.417640e+002 -5.245510e+001 1.437811e+002 -1.908285e-001 1.234595e+002
588125000 -1.679261e+000 -1.775298e+002 -5.225957e+001 1.430982e+002 -5.197804e+001 1.431928e+002 -1.833362e-001 1.233848e+002
588750000 -1.700683e+000 -1.780143e+002 -5.240800e+001 1.366067e+002 -5.233302e+001 1.471599e+002 -1.891923e-001 1.233453e+002
589375000 -1.717045e+000 -1.785702e+002 -5.154500e+001 1.364240e+002 -5.192298e+001 1.437327e+002 -1.714247e-001 1.231828e+002
590000000 -1.749321e+000 -1.790538e+002 -5.137894e+001 1.379819e+002 -5.216708e+001 1.411570e+002 -1.706355e-001 1.232471e+002
590625000 -1.772594e+000 -1.795517e+002 -5.252837e+001 1.386795e+002 -5.184232e+001 1.365864e+002 -1.674822e-001 1.231981e+002
591250000 -1.807056e+000 -1.799516e+002 -5.123244e+001 1.356362e+002 -5.187509e+001 1.413281e+002 -1.617983e-001 1.232012e+002
591875000 -1.843259e+000 1.796825e+002 -5.196566e+001 1.284061e+002 -5.196870e+001 1.352059e+002 -1.632185e-001 1.232527e+002
592500000 -1.879333e+000 1.793307e+002 -5.144531e+001 1.365797e+002 -5.102995e+001 1.356895e+002 -1.616635e-001 1.233332e+002
593125000 -1.905084e+000 1.790934e+002 -5.093778e+001 1.263883e+002 -5.195569e+001 1.313664e+002 -1.604505e-001 1.234154e+002
593750000 -1.928752e+000 1.787612e+002 -5.201590e+001 1.296634e+002 -5.155195e+001 1.276131e+002 -1.468413e-001 1.235078e+002
594375000 -1.944431e+000 1.784283e+002 -5.205425e+001 1.240433e+002 -5.185138e+001 1.265792e+002 -1.422306e-001 1.235612e+002
595000000 -1.962861e+000 1.780600e+002 -5.169105e+001 1.264306e+002 -5.218512e+001 1.287208e+002 -1.566656e-001 1.236413e+002
