!Agilent Technologies,E8364B,US42250235,A.06.04.32
!Agilent E8364B: A.06.04.32
!Date: Friday, January 15, 2021 12:27:05
!Correction: S11(Full 2 Port(1,2)) S21(Full 2 Port(1,2)) S12(Full 2 Port(1,2)) S22(Full 2 Port(1,2)) 
!S2P File: Measurements: S11, S21, S12, S22:
# Hz S  dB   R 50
500000000 -1.157634e-001 -1.289540e+002 -6.040962e+001 -1.641031e+002 -6.124514e+001 -1.643337e+002 -1.438532e-001 1.383583e+002
500625000 -1.186044e-001 -1.292033e+002 -6.032869e+001 -1.650081e+002 -5.962308e+001 -1.673657e+002 -1.448242e-001 1.383185e+002
501250000 -1.274267e-001 -1.294572e+002 -5.846299e+001 -1.477847e+002 -5.939103e+001 1.755903e+002 -1.454096e-001 1.382434e+002
501875000 -1.279740e-001 -1.297281e+002 -6.029525e+001 -1.651884e+002 -5.966983e+001 -1.603766e+002 -1.423526e-001 1.382136e+002
502500000 -1.322069e-001 -1.300093e+002 -6.034505e+001 -1.597427e+002 -6.031595e+001 -1.591838e+002 -1.420341e-001 1.381902e+002
503125000 -1.422781e-001 -1.303336e+002 -6.224103e+001 -1.689224e+002 -6.168610e+001 -1.710442e+002 -1.421730e-001 1.380643e+002
503750000 -1.377348e-001 -1.305761e+002 -5.882342e+001 -1.673743e+002 -5.970617e+001 -1.624493e+002 -1.473655e-001 1.379857e+002
504375000 -1.512774e-001 -1.308597e+002 -6.037183e+001 -1.504244e+002 -6.063271e+001 -1.689572e+002 -1.570861e-001 1.379498e+002
505000000 -1.581354e-001 -1.311539e+002 -5.807404e+001 -1.649156e+002 -6.021974e+001 1.779586e+002 -1.532076e-001 1.379731e+002
505625000 -1.516770e-001 -1.313763e+002 -6.054028e+001 -1.712860e+002 -5.858812e+001 -1.778670e+002 -1.527416e-001 1.378116e+002
506250000 -1.561722e-001 -1.316890e+002 -6.054904e+001 -1.646805e+002 -6.103035e+001 -1.676967e+002 -1.470614e-001 1.377181e+002
506875000 -1.653007e-001 -1.319541e+002 -6.008382e+001 -1.798085e+002 -5.846455e+001 -1.659717e+002 -1.539848e-001 1.376666e+002
507500000 -1.680417e-001 -1.322424e+002 -6.241468e+001 -1.722790e+002 -5.899868e+001 1.768515e+002 -1.499991e-001 1.375829e+002
508125000 -1.657029e-001 -1.325329e+002 -6.082102e+001 -1.668023e+002 -5.929803e+001 1.592105e+002 -1.466894e-001 1.375168e+002
508750000 -1.604779e-001 -1.327855e+002 -6.071379e+001 -1.763810e+002 -5.853571e+001 1.738289e+002 -1.456971e-001 1.374771e+002
509375000 -1.660424e-001 -1.331388e+002 -6.139869e+001 -1.770853e+002 -6.101544e+001 1.729929e+002 -1.415618e-001 1.374089e+002
510000000 -1.731340e-001 -1.334669e+002 -5.833843e+001 1.755783e+002 -5.930002e+001 1.747783e+002 -1.430254e-001 1.373771e+002
510625000 -1.733747e-001 -1.337077e+002 -5.879823e+001 1.702714e+002 -6.044467e+001 -1.770557e+002 -1.360723e-001 1.374075e+002
511250000 -1.817279e-001 -1.340379e+002 -6.249963e+001 1.768817e+002 -5.983121e+001 1.742443e+002 -1.539389e-001 1.372680e+002
511875000 -1.809252e-001 -1.343622e+002 -5.989548e+001 1.712500e+002 -6.083510e+001 1.692341e+002 -1.453096e-001 1.372166e+002
512500000 -1.784731e-001 -1.346201e+002 -6.063281e+001 1.658745e+002 -5.888489e+001 1.722384e+002 -1.439868e-001 1.371523e+002
513125000 -1.786594e-001 -1.349694e+002 -5.981253e+001 1.775606e+002 -5.775008e+001 -1.798032e+002 -1.431296e-001 1.371773e+002
513750000 -1.913793e-001 -1.352499e+002 -6.035004e+001 1.706123e+002 -6.151195e+001 1.653172e+002 -1.572991e-001 1.371312e+002
514375000 -1.860148e-001 -1.355543e+002 -5.833095e+001 1.734676e+002 -6.031508e+001 1.685330e+002 -1.495139e-001 1.369760e+002
515000000 -1.904704e-001 -1.358533e+002 -5.891904e+001 1.739008e+002 -5.968879e+001 1.799238e+002 -1.510883e-001 1.369189e+002
515625000 -2.007920e-001 -1.362109e+002 -5.829349e+001 1.579014e+002 -5.779575e+001 1.720082e+002 -1.483008e-001 1.368453e+002
516250000 -2.023030e-001 -1.364631e+002 -6.063277e+001 1.733089e+002 -6.030388e+001 1.621794e+002 -1.626155e-001 1.367828e+002
516875000 -2.124213e-001 -1.367968e+002 -5.751007e+001 1.776819e+002 -5.879923e+001 1.621568e+002 -1.562098e-001 1.366962e+002
517500000 -2.066646e-001 -1.371037e+002 -5.937118e+001 1.665727e+002 -5.923632e+001 1.610211e+002 -1.622710e-001 1.366278e+002
518125000 -2.155420e-001 -1.374474e+002 -6.030491e+001 1.696732e+002 -5.857679e+001 1.650109e+002 -1.608063e-001 1.365234e+002
518750000 -2.244230e-001 -1.377461e+002 -5.813347e+001 1.649152e+002 -5.958179e+001 1.586805e+002 -1.570918e-001 1.364265e+002
519375000 -2.346819e-001 -1.379879e+002 -5.767772e+001 1.544503e+002 -5.827058e+001 1.639741e+002 -1.510952e-001 1.363011e+002
520000000 -2.377975e-001 -1.383328e+002 -5.981890e+001 1.663658e+002 -5.830112e+001 1.551143e+002 -1.566423e-001 1.361568e+002
520625000 -2.425361e-001 -1.386661e+002 -5.784224e+001 1.755427e+002 -5.931594e+001 1.477069e+002 -1.578903e-001 1.360309e+002
521250000 -2.497355e-001 -1.389383e+002 -5.715251e+001 1.597375e+002 -5.813229e+001 1.576723e+002 -1.547583e-001 1.359847e+002
521875000 -2.506634e-001 -1.393164e+002 -5.781493e+001 1.537145e+002 -5.900722e+001 1.598452e+002 -1.425391e-001 1.358867e+002
522500000 -2.575465e-001 -1.395726e+002 -5.710102e+001 1.448116e+002 -5.762170e+001 1.586992e+002 -1.477205e-001 1.358066e+002
523125000 -2.696020e-001 -1.398868e+002 -5.662682e+001 1.569255e+002 -5.837045e+001 1.593740e+002 -1.486367e-001 1.357666e+002
523750000 -2.676280e-001 -1.402336e+002 -5.664847e+001 1.542860e+002 -5.790769e+001 1.508931e+002 -1.471608e-001 1.357579e+002
524375000 -2.861606e-001 -1.405460e+002 -5.817819e+001 1.550212e+002 -5.883931e+001 1.426967e+002 -1.481579e-001 1.356331e+002
525000000 -2.899663e-001 -1.408435e+002 -5.868403e+001 1.487008e+002 -5.937138e+001 1.474901e+002 -1.477665e-001 1.356332e+002
525625000 -2.995053e-001 -1.410718e+002 -5.893810e+001 1.413028e+002 -5.660979e+001 1.432072e+002 -1.541670e-001 1.355492e+002
526250000 -2.892599e-001 -1.413566e+002 -5.676585e+001 1.419359e+002 -5.831184e+001 1.413339e+002 -1.499379e-001 1.355287e+002
526875000 -3.055846e-001 -1.417295e+002 -5.662634e+001 1.383164e+002 -5.836664e+001 1.457541e+002 -1.364063e-001 1.355158e+002
527500000 -3.086759e-001 -1.420462e+002 -5.578641e+001 1.412204e+002 -5.920214e+001 1.432111e+002 -1.490021e-001 1.355378e+002
528125000 -3.191902e-001 -1.424042e+002 -5.810660e+001 1.402921e+002 -5.753704e+001 1.478035e+002 -1.529854e-001 1.355349e+002
528750000 -3.145437e-001 -1.427189e+002 -5.709164e+001 1.304420e+002 -5.662352e+001 1.330155e+002 -1.430626e-001 1.355669e+002
529375000 -3.245291e-001 -1.430174e+002 -5.774237e+001 1.244792e+002 -5.839301e+001 1.448860e+002 -1.459208e-001 1.354443e+002
530000000 -3.280976e-001 -1.433979e+002 -5.820822e+001 1.319888e+002 -5.814648e+001 1.371578e+002 -1.506939e-001 1.355638e+002
530625000 -3.438535e-001 -1.436910e+002 -5.611324e+001 1.352731e+002 -5.649603e+001 1.361094e+002 -1.441354e-001 1.354212e+002
531250000 -3.429113e-001 -1.440472e+002 -5.665742e+001 1.324727e+002 -5.817594e+001 1.386170e+002 -1.442225e-001 1.353787e+002
531875000 -3.534774e-001 -1.443741e+002 -5.783101e+001 1.308813e+002 -5.778652e+001 1.302993e+002 -1.507179e-001 1.353282e+002
532500000 -3.592691e-001 -1.446379e+002 -5.826858e+001 1.338110e+002 -5.634461e+001 1.306711e+002 -1.535242e-001 1.353076e+002
533125000 -3.601892e-001 -1.450568e+002 -5.666831e+001 1.393337e+002 -5.825959e+001 1.400048e+002 -1.582952e-001 1.353190e+002
533750000 -3.713627e-001 -1.453979e+002 -5.680458e+001 1.335259e+002 -5.750566e+001 1.359879e+002 -1.586115e-001 1.352419e+002
534375000 -3.810359e-001 -1.457316e+002 -5.701559e+001 1.230799e+002 -5.800092e+001 1.266228e+002 -1.411040e-001 1.352010e+002
535000000 -3.860515e-001 -1.460407e+002 -5.768229e+001 1.270391e+002 -5.648423e+001 1.293550e+002 -1.558806e-001 1.351990e+002
535625000 -3.944232e-001 -1.463923e+002 -5.811675e+001 1.252137e+002 -5.628082e+001 1.312215e+002 -1.485789e-001 1.351379e+002
536250000 -4.027152e-001 -1.467213e+002 -5.650811e+001 1.244747e+002 -5.587460e+001 1.268535e+002 -1.376552e-001 1.349891e+002
536875000 -4.093270e-001 -1.470773e+002 -5.770963e+001 1.325226e+002 -5.732114e+001 1.302040e+002 -1.519015e-001 1.350189e+002
537500000 -4.146204e-001 -1.474258e+002 -5.724786e+001 1.160357e+002 -5.714679e+001 1.239687e+002 -1.444874e-001 1.350473e+002
538125000 -4.217514e-001 -1.477945e+002 -5.657311e+001 1.270683e+002 -5.770568e+001 1.260837e+002 -1.519767e-001 1.349739e+002
538750000 -4.313358e-001 -1.481142e+002 -5.779785e+001 1.244226e+002 -5.566969e+001 1.275398e+002 -1.534488e-001 1.349660e+002
539375000 -4.464682e-001 -1.484907e+002 -5.700622e+001 1.125111e+002 -5.662252e+001 1.254321e+002 -1.494923e-001 1.349111e+002
540000000 -4.507554e-001 -1.488303e+002 -5.637906e+001 1.283418e+002 -5.688884e+001 1.178117e+002 -1.478247e-001 1.348029e+002
540625000 -4.566477e-001 -1.492314e+002 -5.551396e+001 1.190200e+002 -5.603111e+001 1.187044e+002 -1.448928e-001 1.348291e+002
541250000 -4.607629e-001 -1.494990e+002 -5.648609e+001 1.178838e+002 -5.625386e+001 1.178448e+002 -1.456650e-001 1.347746e+002
541875000 -4.724114e-001 -1.498997e+002 -5.632484e+001 1.264654e+002 -5.620190e+001 1.243974e+002 -1.632854e-001 1.347384e+002
542500000 -4.796689e-001 -1.502755e+002 -5.514437e+001 1.177592e+002 -5.553014e+001 1.207296e+002 -1.521696e-001 1.346959e+002
543125000 -4.876738e-001 -1.507122e+002 -5.732233e+001 1.149779e+002 -5.613187e+001 1.189255e+002 -1.515718e-001 1.345611e+002
543750000 -4.987420e-001 -1.510874e+002 -5.661420e+001 1.249195e+002 -5.550675e+001 1.116484e+002 -1.629387e-001 1.345801e+002
544375000 -5.213930e-001 -1.514284e+002 -5.505800e+001 1.119467e+002 -5.617771e+001 1.133981e+002 -1.631697e-001 1.344971e+002
545000000 -5.200025e-001 -1.518309e+002 -5.584100e+001 1.136117e+002 -5.540010e+001 1.156652e+002 -1.573852e-001 1.344273e+002
545625000 -5.385361e-001 -1.521726e+002 -5.534346e+001 1.139624e+002 -5.646697e+001 1.099378e+002 -1.637083e-001 1.343408e+002
546250000 -5.592137e-001 -1.525367e+002 -5.508184e+001 1.092772e+002 -5.519887e+001 1.117325e+002 -1.728673e-001 1.342304e+002
546875000 -5.691274e-001 -1.529553e+002 -5.581379e+001 1.121131e+002 -5.598783e+001 1.099835e+002 -1.683133e-001 1.341280e+002
547500000 -5.800619e-001 -1.533052e+002 -5.575835e+001 1.191395e+002 -5.579790e+001 1.122907e+002 -1.677428e-001 1.340638e+002
548125000 -6.020053e-001 -1.536396e+002 -5.411520e+001 1.060798e+002 -5.550004e+001 1.083083e+002 -1.609042e-001 1.339646e+002
548750000 -6.217173e-001 -1.540899e+002 -5.434515e+001 1.030170e+002 -5.559738e+001 1.087287e+002 -1.573441e-001 1.338016e+002
549375000 -6.365714e-001 -1.544296e+002 -5.449583e+001 9.850923e+001 -5.560540e+001 1.117730e+002 -1.703619e-001 1.336311e+002
550000000 -6.522664e-001 -1.547563e+002 -5.435769e+001 1.041600e+002 -5.409866e+001 1.012100e+002 -1.673343e-001 1.336148e+002
550625000 -6.722283e-001 -1.551070e+002 -5.576255e+001 9.859569e+001 -5.399308e+001 9.793704e+001 -1.584072e-001 1.335478e+002
551250000 -6.798617e-001 -1.554270e+002 -5.428991e+001 1.020743e+002 -5.446094e+001 9.868247e+001 -1.563822e-001 1.334178e+002
551875000 -6.983922e-001 -1.557632e+002 -5.465526e+001 9.825822e+001 -5.414917e+001 1.023970e+002 -1.606097e-001 1.333740e+002
552500000 -7.125663e-001 -1.561447e+002 -5.363639e+001 9.663892e+001 -5.437939e+001 9.770368e+001 -1.516886e-001 1.332906e+002
553125000 -7.163366e-001 -1.564756e+002 -5.481096e+001 9.907025e+001 -5.512915e+001 9.974088e+001 -1.565499e-001 1.333195e+002
553750000 -7.332597e-001 -1.568060e+002 -5.393318e+001 9.923965e+001 -5.502274e+001 9.552392e+001 -1.548435e-001 1.332051e+002
554375000 -7.465066e-001 -1.571279e+002 -5.453249e+001 9.346564e+001 -5.404194e+001 9.889198e+001 -1.519783e-001 1.331858e+002
555000000 -7.537512e-001 -1.574907e+002 -5.381585e+001 9.551343e+001 -5.526125e+001 9.320595e+001 -1.515175e-001 1.331888e+002
555625000 -7.742571e-001 -1.578480e+002 -5.296421e+001 9.134957e+001 -5.417678e+001 9.480418e+001 -1.491511e-001 1.331964e+002
556250000 -7.890878e-001 -1.581772e+002 -5.404912e+001 9.392134e+001 -5.473090e+001 8.908768e+001 -1.482548e-001 1.331521e+002
556875000 -7.973857e-001 -1.585885e+002 -5.375769e+001 8.811342e+001 -5.440594e+001 9.343031e+001 -1.630063e-001 1.331312e+002
557500000 -8.186085e-001 -1.588760e+002 -5.410404e+001 9.135220e+001 -5.410694e+001 9.162212e+001 -1.547909e-001 1.331440e+002
558125000 -8.379490e-001 -1.592741e+002 -5.280679e+001 8.659558e+001 -5.314900e+001 9.051015e+001 -1.583252e-001 1.331401e+002
558750000 -8.447272e-001 -1.596844e+002 -5.282199e+001 8.195085e+001 -5.335654e+001 8.580386e+001 -1.431610e-001 1.330984e+002
559375000 -8.661009e-001 -1.599850e+002 -5.365970e+001 8.338981e+001 -5.288773e+001 8.818785e+001 -1.537391e-001 1.331127e+002
560000000 -8.807333e-001 -1.603603e+002 -5.387590e+001 8.295525e+001 -5.317546e+001 8.570812e+001 -1.527960e-001 1.330383e+002
560625000 -9.034398e-001 -1.607024e+002 -5.273617e+001 8.100759e+001 -5.342697e+001 8.683260e+001 -1.499685e-001 1.330157e+002
561250000 -9.171214e-001 -1.610965e+002 -5.275391e+001 7.582813e+001 -5.287785e+001 8.558852e+001 -1.494849e-001 1.329766e+002
561875000 -9.352361e-001 -1.614938e+002 -5.284088e+001 8.328017e+001 -5.279906e+001 8.150978e+001 -1.649556e-001 1.329551e+002
562500000 -9.572281e-001 -1.618479e+002 -5.269883e+001 7.666070e+001 -5.291299e+001 7.755646e+001 -1.626074e-001 1.329297e+002
563125000 -9.621432e-001 -1.621769e+002 -5.240564e+001 7.752641e+001 -5.251231e+001 7.658836e+001 -1.517325e-001 1.328760e+002
563750000 -9.846697e-001 -1.625652e+002 -5.277913e+001 6.761645e+001 -5.289438e+001 7.522876e+001 -1.647507e-001 1.327646e+002
564375000 -1.000214e+000 -1.629350e+002 -5.273442e+001 8.002345e+001 -5.221558e+001 7.344881e+001 -1.721001e-001 1.327088e+002
565000000 -1.023270e+000 -1.633535e+002 -5.270277e+001 7.391389e+001 -5.241058e+001 6.859591e+001 -1.719275e-001 1.325679e+002
565625000 -1.043646e+000 -1.636877e+002 -5.201237e+001 6.703347e+001 -5.238176e+001 7.086053e+001 -1.814878e-001 1.325204e+002
566250000 -1.062744e+000 -1.641175e+002 -5.257935e+001 7.231738e+001 -5.258025e+001 7.129489e+001 -1.772146e-001 1.323656e+002
566875000 -1.088368e+000 -1.645608e+002 -5.228350e+001 6.473695e+001 -5.186618e+001 6.938634e+001 -1.796631e-001 1.322346e+002
567500000 -1.107236e+000 -1.650005e+002 -5.241359e+001 6.996096e+001 -5.253856e+001 7.046120e+001 -1.754232e-001 1.321432e+002
568125000 -1.137154e+000 -1.653157e+002 -5.182693e+001 6.315669e+001 -5.235856e+001 6.461172e+001 -1.855449e-001 1.320256e+002
568750000 -1.157034e+000 -1.657989e+002 -5.195650e+001 6.330858e+001 -5.183223e+001 6.385289e+001 -1.825613e-001 1.318629e+002
569375000 -1.184233e+000 -1.661071e+002 -5.115973e+001 6.607590e+001 -5.200744e+001 6.364534e+001 -1.864698e-001 1.317680e+002
570000000 -1.211136e+000 -1.665734e+002 -5.254323e+001 5.808343e+001 -5.228989e+001 6.115451e+001 -1.772387e-001 1.315783e+002
570625000 -1.227626e+000 -1.669537e+002 -5.222551e+001 6.440846e+001 -5.171505e+001 5.931095e+001 -1.723167e-001 1.314732e+002
571250000 -1.257117e+000 -1.673776e+002 -5.127650e+001 5.718175e+001 -5.205156e+001 5.899139e+001 -1.786099e-001 1.313968e+002
571875000 -1.296510e+000 -1.677359e+002 -5.159650e+001 5.819235e+001 -5.212935e+001 5.881458e+001 -1.709712e-001 1.312858e+002
572500000 -1.328598e+000 -1.681236e+002 -5.191697e+001 6.009758e+001 -5.203954e+001 6.005493e+001 -1.689917e-001 1.311443e+002
573125000 -1.368395e+000 -1.684473e+002 -5.137228e+001 5.701914e+001 -5.181034e+001 5.356277e+001 -1.614812e-001 1.310372e+002
573750000 -1.386402e+000 -1.686972e+002 -5.180630e+001 5.664753e+001 -5.136243e+001 5.533204e+001 -1.753507e-001 1.309565e+002
574375000 -1.414830e+000 -1.690211e+002 -5.123480e+001 5.692341e+001 -5.152183e+001 5.363612e+001 -1.686865e-001 1.308886e+002
575000000 -1.437316e+000 -1.693744e+002 -5.167963e+001 5.219726e+001 -5.123362e+001 5.466796e+001 -1.658620e-001 1.308645e+002
575625000 -1.453050e+000 -1.696594e+002 -5.162010e+001 5.356035e+001 -5.119470e+001 5.091292e+001 -1.656425e-001 1.308127e+002
576250000 -1.474121e+000 -1.699733e+002 -5.103381e+001 5.026917e+001 -5.079806e+001 4.824187e+001 -1.641208e-001 1.308013e+002
576875000 -1.487102e+000 -1.703170e+002 -5.098712e+001 4.947572e+001 -5.069368e+001 4.777222e+001 -1.563606e-001 1.308171e+002
577500000 -1.517839e+000 -1.706903e+002 -5.101079e+001 4.354639e+001 -5.092451e+001 4.870547e+001 -1.523709e-001 1.307821e+002
578125000 -1.543422e+000 -1.710548e+002 -5.123053e+001 4.671249e+001 -5.102680e+001 4.740293e+001 -1.473694e-001 1.308522e+002
578750000 -1.566262e+000 -1.713428e+002 -5.090992e+001 4.512901e+001 -5.025646e+001 4.521596e+001 -1.424476e-001 1.308038e+002
579375000 -1.584207e+000 -1.716588e+002 -5.041327e+001 4.404612e+001 -5.073389e+001 4.182629e+001 -1.450644e-001 1.307685e+002
580000000 -1.600576e+000 -1.719886e+002 -5.064775e+001 4.363508e+001 -4.995995e+001 4.372747e+001 -1.518005e-001 1.308657e+002
580625000 -1.626370e+000 -1.722496e+002 -5.012776e+001 4.625005e+001 -5.037126e+001 3.867134e+001 -1.408058e-001 1.308294e+002
581250000 -1.641346e+000 -1.726226e+002 -5.080999e+001 3.721210e+001 -5.029779e+001 4.170044e+001 -1.499035e-001 1.308533e+002
581875000 -1.664382e+000 -1.729631e+002 -5.051669e+001 3.387367e+001 -5.053307e+001 3.713609e+001 -1.519611e-001 1.308379e+002
582500000 -1.683558e+000 -1.733053e+002 -5.036842e+001 3.829222e+001 -5.019750e+001 3.403625e+001 -1.523282e-001 1.308096e+002
583125000 -1.696325e+000 -1.736943e+002 -4.999195e+001 3.424039e+001 -4.970939e+001 3.498158e+001 -1.575020e-001 1.307643e+002
583750000 -1.715946e+000 -1.740688e+002 -5.115745e+001 3.326495e+001 -5.009309e+001 3.619629e+001 -1.702553e-001 1.306166e+002
584375000 -1.738745e+000 -1.744435e+002 -5.044123e+001 3.337556e+001 -4.954992e+001 2.980622e+001 -1.702370e-001 1.306280e+002
585000000 -1.768038e+000 -1.748271e+002 -4.963048e+001 3.375828e+001 -4.990916e+001 3.318005e+001 -1.751061e-001 1.305372e+002
585625000 -1.794947e+000 -1.752241e+002 -4.965909e+001 3.310430e+001 -5.008586e+001 3.111351e+001 -1.685799e-001 1.304091e+002
586250000 -1.814060e+000 -1.756018e+002 -4.998856e+001 2.554183e+001 -5.010275e+001 2.632323e+001 -1.729506e-001 1.304207e+002
586875000 -1.836812e+000 -1.759645e+002 -5.008604e+001 2.794995e+001 -5.037099e+001 2.771146e+001 -1.789788e-001 1.302255e+002
587500000 -1.869411e+000 -1.763541e+002 -4.987910e+001 2.389798e+001 -5.007548e+001 2.425245e+001 -1.714885e-001 1.300680e+002
588125000 -1.888256e+000 -1.767132e+002 -5.005064e+001 2.651002e+001 -4.951900e+001 2.764815e+001 -1.817756e-001 1.299641e+002
588750000 -1.913318e+000 -1.771093e+002 -4.979184e+001 2.135338e+001 -4.957957e+001 2.142078e+001 -1.814493e-001 1.298566e+002
589375000 -1.933768e+000 -1.775416e+002 -4.921873e+001 2.081161e+001 -4.941587e+001 1.869650e+001 -1.688981e-001 1.296750e+002
590000000 -1.968127e+000 -1.779461e+002 -4.962230e+001 2.317061e+001 -4.931328e+001 2.118897e+001 -1.749750e-001 1.296963e+002
590625000 -1.989637e+000 -1.783223e+002 -4.915546e+001 1.985151e+001 -4.933361e+001 1.829027e+001 -1.711940e-001 1.295373e+002
591250000 -2.013423e+000 -1.787175e+002 -4.964763e+001 1.623184e+001 -4.932339e+001 1.699389e+001 -1.668454e-001 1.294806e+002
591875000 -2.055365e+000 -1.791086e+002 -4.874970e+001 1.519077e+001 -4.889642e+001 1.764433e+001 -1.676437e-001 1.294938e+002
592500000 -2.081868e+000 -1.795403e+002 -4.958099e+001 1.896884e+001 -4.890327e+001 1.185848e+001 -1.512482e-001 1.294688e+002
593125000 -2.124168e+000 -1.799254e+002 -4.899451e+001 1.234709e+001 -4.944859e+001 1.436448e+001 -1.635316e-001 1.294600e+002
593750000 -2.157338e+000 1.797141e+002 -4.917056e+001 7.296093e+000 -4.878291e+001 1.136971e+001 -1.465158e-001 1.295193e+002
594375000 -2.184478e+000 1.793648e+002 -4.870732e+001 1.071099e+001 -4.926591e+001 1.039373e+001 -1.395678e-001 1.295596e+002
595000000 -2.226101e+000 1.790811e+002 -4.860323e+001 9.952657e+000 -4.892173e+001 8.537916e+000 -1.628903e-001 1.295705e+002
595625000 -2.260203e+000 1.786999e+002 -4.854420e+001 1.051527e+001 -4.902884e+001 8.482429e+000 -1.519284e-001 1.295880e+002
596250000 -2.279122e+000 1.784727e+002 -4.930212e+001 9.274142e+000 -4.849100e+001 5.000481e+000 -1.532898e-001 1.296172e+002
