!Agilent Technologies,E8364B,US42250235,A.06.04.32
!Agilent E8364B: A.06.04.32
!Date: Friday, January 15, 2021 12:30:48
!Correction: S11(Full 2 Port(1,2)) S21(Full 2 Port(1,2)) S12(Full 2 Port(1,2)) S22(Full 2 Port(1,2)) 
!S2P File: Measurements: S11, S21, S12, S22:
# Hz S  dB   R 50
500000000 -9.832542e-002 -1.291364e+002 -6.322484e+001 9.325600e+001 -6.296324e+001 8.644959e+001 -1.449337e-001 1.382743e+002
500625000 -1.081133e-001 -1.293849e+002 -6.167145e+001 9.022916e+001 -6.438272e+001 9.119073e+001 -1.579949e-001 1.382565e+002
501250000 -1.206939e-001 -1.296998e+002 -6.098919e+001 8.984238e+001 -6.166909e+001 8.255855e+001 -1.495701e-001 1.382037e+002
501875000 -1.151682e-001 -1.299658e+002 -6.085957e+001 8.906140e+001 -6.224626e+001 7.852876e+001 -1.406251e-001 1.381462e+002
502500000 -1.134575e-001 -1.302726e+002 -6.554730e+001 8.129250e+001 -6.186106e+001 8.052494e+001 -1.446944e-001 1.381286e+002
503125000 -1.266998e-001 -1.305220e+002 -6.210937e+001 6.970108e+001 -6.008330e+001 9.728884e+001 -1.426337e-001 1.380006e+002
503750000 -1.317310e-001 -1.307517e+002 -6.294036e+001 7.051396e+001 -6.063922e+001 7.407317e+001 -1.524591e-001 1.379724e+002
504375000 -1.439232e-001 -1.311064e+002 -6.119992e+001 6.378979e+001 -6.268048e+001 7.644056e+001 -1.666459e-001 1.378952e+002
505000000 -1.509503e-001 -1.313623e+002 -6.044077e+001 7.558199e+001 -6.091442e+001 8.065061e+001 -1.653091e-001 1.378806e+002
505625000 -1.501996e-001 -1.316411e+002 -6.266914e+001 6.583738e+001 -6.157997e+001 7.659007e+001 -1.618131e-001 1.377833e+002
506250000 -1.649892e-001 -1.319409e+002 -5.989929e+001 6.864074e+001 -6.096203e+001 7.204956e+001 -1.583397e-001 1.376902e+002
506875000 -1.637190e-001 -1.322144e+002 -6.105777e+001 7.289232e+001 -6.276974e+001 6.625558e+001 -1.539106e-001 1.376285e+002
507500000 -1.680397e-001 -1.325045e+002 -6.013660e+001 6.927283e+001 -6.127063e+001 6.919575e+001 -1.554195e-001 1.375117e+002
508125000 -1.749006e-001 -1.328079e+002 -6.180941e+001 7.422717e+001 -6.063512e+001 6.623499e+001 -1.489606e-001 1.374709e+002
508750000 -1.775731e-001 -1.330683e+002 -6.224803e+001 6.254835e+001 -6.150752e+001 6.425111e+001 -1.569863e-001 1.374028e+002
509375000 -1.829744e-001 -1.334714e+002 -6.292080e+001 6.739604e+001 -6.183902e+001 6.150182e+001 -1.493768e-001 1.373679e+002
510000000 -1.898713e-001 -1.337487e+002 -6.057468e+001 5.526786e+001 -5.953038e+001 7.373072e+001 -1.515860e-001 1.373081e+002
510625000 -1.910560e-001 -1.339749e+002 -6.294332e+001 5.186645e+001 -6.127196e+001 6.703867e+001 -1.353266e-001 1.373568e+002
511250000 -1.987505e-001 -1.342366e+002 -6.152679e+001 7.014684e+001 -6.139989e+001 5.478426e+001 -1.533723e-001 1.372074e+002
511875000 -1.950605e-001 -1.345909e+002 -5.981748e+001 5.405124e+001 -5.984091e+001 5.651963e+001 -1.476720e-001 1.371982e+002
512500000 -2.002930e-001 -1.348996e+002 -5.907011e+001 7.073396e+001 -5.927111e+001 6.489085e+001 -1.543673e-001 1.370963e+002
513125000 -2.098472e-001 -1.352007e+002 -6.226012e+001 6.137889e+001 -5.981775e+001 5.654573e+001 -1.554582e-001 1.371129e+002
513750000 -2.210137e-001 -1.354800e+002 -5.947882e+001 5.063701e+001 -6.172984e+001 6.334011e+001 -1.592864e-001 1.370632e+002
514375000 -2.189908e-001 -1.358212e+002 -5.708586e+001 4.914317e+001 -5.924283e+001 4.695229e+001 -1.595531e-001 1.369441e+002
515000000 -2.246653e-001 -1.360693e+002 -5.929105e+001 4.665212e+001 -6.158805e+001 5.577961e+001 -1.519924e-001 1.369361e+002
515625000 -2.326988e-001 -1.364051e+002 -5.896517e+001 5.224236e+001 -5.896555e+001 5.079573e+001 -1.487001e-001 1.368236e+002
516250000 -2.376838e-001 -1.367056e+002 -6.030468e+001 5.609434e+001 -5.866291e+001 5.132171e+001 -1.556450e-001 1.367222e+002
516875000 -2.460934e-001 -1.369922e+002 -6.155219e+001 3.968549e+001 -6.105923e+001 4.528416e+001 -1.629470e-001 1.366666e+002
517500000 -2.561761e-001 -1.373054e+002 -6.052443e+001 5.379376e+001 -6.059632e+001 3.432810e+001 -1.691192e-001 1.365344e+002
518125000 -2.591702e-001 -1.376829e+002 -6.096745e+001 5.577738e+001 -6.031645e+001 4.971764e+001 -1.666173e-001 1.364552e+002
518750000 -2.706656e-001 -1.379780e+002 -5.849332e+001 4.985117e+001 -5.993042e+001 5.259218e+001 -1.632284e-001 1.363405e+002
519375000 -2.850913e-001 -1.382008e+002 -5.897004e+001 4.818177e+001 -5.900261e+001 3.400817e+001 -1.571376e-001 1.362508e+002
520000000 -2.882897e-001 -1.385367e+002 -5.967186e+001 4.052118e+001 -5.961089e+001 5.208867e+001 -1.650038e-001 1.361587e+002
520625000 -3.021718e-001 -1.388262e+002 -5.972588e+001 3.278695e+001 -5.804073e+001 3.944866e+001 -1.608531e-001 1.360522e+002
521250000 -3.095874e-001 -1.391303e+002 -5.958607e+001 4.624236e+001 -5.955544e+001 3.808787e+001 -1.603467e-001 1.359497e+002
521875000 -3.095698e-001 -1.394287e+002 -5.984045e+001 3.800620e+001 -5.831049e+001 3.986879e+001 -1.586962e-001 1.359007e+002
522500000 -3.193334e-001 -1.397386e+002 -5.920380e+001 2.549886e+001 -5.821385e+001 4.234818e+001 -1.600939e-001 1.357750e+002
523125000 -3.366764e-001 -1.400296e+002 -5.678690e+001 4.123922e+001 -5.878035e+001 3.698348e+001 -1.548821e-001 1.357051e+002
523750000 -3.439974e-001 -1.403010e+002 -5.869652e+001 4.191532e+001 -5.874314e+001 3.386820e+001 -1.527624e-001 1.356474e+002
524375000 -3.646502e-001 -1.405775e+002 -5.847509e+001 3.126498e+001 -5.930449e+001 3.134334e+001 -1.539854e-001 1.356422e+002
525000000 -3.579308e-001 -1.408448e+002 -5.751231e+001 3.010027e+001 -5.756194e+001 2.826121e+001 -1.496102e-001 1.355852e+002
525625000 -3.765715e-001 -1.410845e+002 -5.780495e+001 2.209253e+001 -5.891315e+001 4.224673e+001 -1.575899e-001 1.355655e+002
526250000 -3.693337e-001 -1.414142e+002 -5.691978e+001 1.629446e+001 -5.670399e+001 2.369254e+001 -1.520852e-001 1.354907e+002
526875000 -3.787596e-001 -1.416771e+002 -5.897819e+001 1.673182e+001 -5.682700e+001 2.436087e+001 -1.472208e-001 1.355197e+002
527500000 -3.914521e-001 -1.419548e+002 -5.778563e+001 3.429945e+001 -5.786573e+001 2.265158e+001 -1.499141e-001 1.354594e+002
528125000 -4.030554e-001 -1.422573e+002 -5.748891e+001 2.532947e+001 -5.768182e+001 1.927907e+001 -1.471826e-001 1.355240e+002
528750000 -4.015379e-001 -1.425765e+002 -5.724463e+001 1.237277e+001 -5.736076e+001 2.046426e+001 -1.519326e-001 1.355364e+002
529375000 -4.094808e-001 -1.429144e+002 -5.670691e+001 2.009170e+001 -5.803004e+001 2.329797e+001 -1.543391e-001 1.354812e+002
530000000 -4.132425e-001 -1.432533e+002 -5.812089e+001 1.288043e+001 -5.834695e+001 1.304885e+001 -1.545250e-001 1.354256e+002
530625000 -4.194038e-001 -1.435493e+002 -5.671643e+001 3.478308e+000 -5.837146e+001 6.439624e+000 -1.547554e-001 1.354350e+002
531250000 -4.188706e-001 -1.438839e+002 -5.709383e+001 -4.265481e+000 -5.689027e+001 9.468023e+000 -1.499145e-001 1.353565e+002
531875000 -4.296972e-001 -1.441237e+002 -5.846317e+001 2.772061e+000 -5.741466e+001 1.176560e+001 -1.576061e-001 1.353265e+002
532500000 -4.417918e-001 -1.444152e+002 -5.793910e+001 1.297506e+001 -5.743917e+001 1.255884e+001 -1.560050e-001 1.353378e+002
533125000 -4.435239e-001 -1.447805e+002 -5.814736e+001 7.617253e+000 -5.734464e+001 8.309792e+000 -1.747534e-001 1.352950e+002
533750000 -4.479235e-001 -1.451041e+002 -5.797160e+001 -1.871467e+000 -5.673404e+001 3.578048e+000 -1.780596e-001 1.352089e+002
534375000 -4.459758e-001 -1.454199e+002 -5.600657e+001 1.145697e+001 -5.779218e+001 -1.620756e-001 -1.577249e-001 1.351653e+002
535000000 -4.580154e-001 -1.456996e+002 -5.697757e+001 4.217447e+000 -5.833200e+001 7.188206e+000 -1.563950e-001 1.351468e+002
535625000 -4.636225e-001 -1.460721e+002 -5.670469e+001 -8.631377e+000 -5.876686e+001 -8.585903e-001 -1.550406e-001 1.350700e+002
536250000 -4.701907e-001 -1.463780e+002 -5.674315e+001 -3.069188e+000 -5.714566e+001 2.902284e+000 -1.579700e-001 1.349745e+002
536875000 -4.736303e-001 -1.466821e+002 -5.664805e+001 4.572447e-001 -5.597116e+001 -3.987764e-001 -1.600768e-001 1.349162e+002
537500000 -4.768265e-001 -1.469944e+002 -5.689658e+001 2.004439e+000 -5.698004e+001 -6.589320e+000 -1.540601e-001 1.349856e+002
538125000 -4.793274e-001 -1.473352e+002 -5.538852e+001 6.860958e-001 -5.636697e+001 9.083060e-001 -1.573155e-001 1.349526e+002
538750000 -4.969389e-001 -1.476869e+002 -5.661701e+001 -8.716148e+000 -5.601270e+001 -1.430857e+001 -1.608968e-001 1.349559e+002
539375000 -5.056620e-001 -1.479734e+002 -5.572570e+001 -1.430529e+001 -5.649453e+001 -3.191122e+000 -1.588224e-001 1.348605e+002
540000000 -5.132885e-001 -1.483787e+002 -5.694994e+001 -2.520770e+000 -5.814574e+001 -9.109821e+000 -1.542017e-001 1.348308e+002
540625000 -5.143343e-001 -1.487315e+002 -5.584222e+001 -1.486870e+001 -5.628022e+001 -9.632288e+000 -1.536738e-001 1.348047e+002
541250000 -5.207844e-001 -1.490404e+002 -5.659550e+001 -9.547723e+000 -5.720389e+001 -1.059327e+001 -1.495170e-001 1.347502e+002
541875000 -5.302919e-001 -1.493754e+002 -5.570229e+001 -1.287287e+001 -5.699204e+001 -1.985136e+001 -1.696085e-001 1.346503e+002
542500000 -5.435144e-001 -1.497464e+002 -5.645894e+001 -1.646954e+001 -5.645024e+001 -2.513464e+001 -1.497736e-001 1.346426e+002
543125000 -5.410869e-001 -1.501174e+002 -5.750375e+001 -1.270774e+001 -5.695296e+001 -1.304458e+001 -1.576018e-001 1.345001e+002
543750000 -5.512755e-001 -1.504530e+002 -5.560530e+001 -1.195783e+001 -5.537241e+001 -1.702957e+001 -1.710005e-001 1.345258e+002
544375000 -5.677018e-001 -1.507934e+002 -5.629117e+001 -1.704113e+001 -5.555355e+001 -2.197813e+001 -1.650301e-001 1.344684e+002
545000000 -5.732272e-001 -1.511283e+002 -5.622964e+001 -1.592176e+001 -5.649944e+001 -2.493778e+001 -1.662024e-001 1.344344e+002
545625000 -5.844903e-001 -1.514758e+002 -5.647621e+001 -1.816425e+001 -5.612963e+001 -2.523732e+001 -1.684598e-001 1.342528e+002
546250000 -6.040512e-001 -1.518290e+002 -5.415392e+001 -2.021255e+001 -5.660131e+001 -2.006594e+001 -1.729230e-001 1.341707e+002
546875000 -6.038206e-001 -1.522239e+002 -5.527303e+001 -2.687726e+001 -5.597559e+001 -2.733727e+001 -1.688330e-001 1.341378e+002
547500000 -6.193165e-001 -1.525720e+002 -5.642113e+001 -2.604450e+001 -5.589750e+001 -3.001493e+001 -1.767724e-001 1.340408e+002
548125000 -6.286997e-001 -1.528628e+002 -5.552870e+001 -2.486699e+001 -5.530340e+001 -3.221502e+001 -1.753200e-001 1.339071e+002
548750000 -6.472474e-001 -1.532609e+002 -5.512133e+001 -2.402195e+001 -5.579516e+001 -2.742507e+001 -1.782681e-001 1.338063e+002
549375000 -6.589687e-001 -1.536107e+002 -5.510802e+001 -3.029747e+001 -5.568431e+001 -2.987651e+001 -1.738609e-001 1.335598e+002
550000000 -6.701806e-001 -1.538827e+002 -5.500074e+001 -3.286692e+001 -5.466798e+001 -3.461312e+001 -1.726656e-001 1.336071e+002
550625000 -6.818213e-001 -1.541973e+002 -5.568644e+001 -3.617083e+001 -5.516492e+001 -2.452922e+001 -1.664073e-001 1.335099e+002
551250000 -6.788080e-001 -1.544902e+002 -5.558111e+001 -3.870506e+001 -5.570402e+001 -3.309044e+001 -1.647139e-001 1.334185e+002
551875000 -6.923782e-001 -1.548238e+002 -5.570430e+001 -3.800974e+001 -5.540528e+001 -3.429489e+001 -1.657142e-001 1.333462e+002
552500000 -6.997300e-001 -1.551813e+002 -5.503979e+001 -4.036353e+001 -5.416721e+001 -4.215511e+001 -1.632461e-001 1.332361e+002
553125000 -6.910079e-001 -1.555001e+002 -5.459544e+001 -3.769697e+001 -5.500562e+001 -4.479606e+001 -1.608874e-001 1.332434e+002
553750000 -7.040228e-001 -1.558546e+002 -5.529667e+001 -3.768175e+001 -5.528342e+001 -4.360598e+001 -1.612808e-001 1.332114e+002
554375000 -7.098905e-001 -1.561613e+002 -5.494948e+001 -4.599652e+001 -5.542503e+001 -4.011115e+001 -1.567313e-001 1.331772e+002
555000000 -7.186991e-001 -1.565783e+002 -5.451884e+001 -3.942439e+001 -5.548592e+001 -4.616721e+001 -1.585087e-001 1.331447e+002
555625000 -7.327636e-001 -1.569083e+002 -5.618176e+001 -3.870833e+001 -5.492796e+001 -3.745685e+001 -1.563624e-001 1.331791e+002
556250000 -7.430912e-001 -1.572910e+002 -5.514626e+001 -4.121910e+001 -5.546255e+001 -5.178912e+001 -1.555774e-001 1.330840e+002
556875000 -7.429363e-001 -1.577156e+002 -5.513617e+001 -4.681002e+001 -5.570343e+001 -4.792361e+001 -1.594935e-001 1.330833e+002
557500000 -7.592478e-001 -1.579826e+002 -5.483507e+001 -4.474694e+001 -5.433126e+001 -4.767829e+001 -1.541798e-001 1.330764e+002
558125000 -7.658271e-001 -1.583568e+002 -5.572452e+001 -4.670613e+001 -5.639558e+001 -4.651760e+001 -1.708064e-001 1.331151e+002
558750000 -7.678248e-001 -1.587547e+002 -5.473436e+001 -5.075208e+001 -5.479831e+001 -5.031978e+001 -1.531738e-001 1.330746e+002
559375000 -7.849296e-001 -1.591003e+002 -5.495407e+001 -4.602952e+001 -5.482393e+001 -5.313079e+001 -1.619799e-001 1.330384e+002
560000000 -8.001499e-001 -1.595031e+002 -5.458593e+001 -5.142943e+001 -5.418502e+001 -4.736430e+001 -1.519451e-001 1.329560e+002
560625000 -8.114047e-001 -1.598893e+002 -5.500455e+001 -4.952672e+001 -5.385969e+001 -5.182228e+001 -1.606124e-001 1.329558e+002
561250000 -8.158442e-001 -1.602799e+002 -5.438820e+001 -5.538747e+001 -5.456611e+001 -5.286979e+001 -1.650788e-001 1.329363e+002
561875000 -8.261181e-001 -1.606905e+002 -5.434601e+001 -5.660517e+001 -5.404744e+001 -5.823879e+001 -1.695128e-001 1.328711e+002
562500000 -8.411776e-001 -1.610487e+002 -5.367638e+001 -6.298717e+001 -5.539235e+001 -5.653498e+001 -1.726500e-001 1.328432e+002
563125000 -8.490510e-001 -1.614350e+002 -5.360123e+001 -5.933961e+001 -5.476997e+001 -6.065274e+001 -1.676680e-001 1.328100e+002
563750000 -8.683540e-001 -1.618512e+002 -5.304144e+001 -6.298900e+001 -5.400729e+001 -6.539465e+001 -1.736909e-001 1.327104e+002
564375000 -8.804815e-001 -1.622458e+002 -5.418271e+001 -5.356999e+001 -5.430600e+001 -6.770316e+001 -1.795427e-001 1.326329e+002
565000000 -8.907851e-001 -1.626550e+002 -5.360549e+001 -6.516038e+001 -5.395991e+001 -6.598754e+001 -1.778888e-001 1.324709e+002
565625000 -9.036577e-001 -1.630746e+002 -5.472582e+001 -6.583705e+001 -5.367171e+001 -6.406645e+001 -1.801517e-001 1.324557e+002
566250000 -9.176369e-001 -1.635327e+002 -5.414308e+001 -6.154557e+001 -5.345506e+001 -6.483281e+001 -1.835180e-001 1.323121e+002
566875000 -9.401107e-001 -1.639550e+002 -5.318015e+001 -7.198141e+001 -5.264948e+001 -6.726194e+001 -1.842764e-001 1.321215e+002
567500000 -9.606459e-001 -1.644329e+002 -5.438977e+001 -7.280421e+001 -5.290593e+001 -7.181032e+001 -1.792170e-001 1.320519e+002
568125000 -9.866812e-001 -1.648220e+002 -5.274520e+001 -7.346587e+001 -5.276762e+001 -7.036382e+001 -1.917199e-001 1.319517e+002
568750000 -9.999159e-001 -1.652369e+002 -5.219890e+001 -7.125839e+001 -5.274299e+001 -6.336710e+001 -1.886521e-001 1.317705e+002
569375000 -1.021054e+000 -1.657494e+002 -5.271584e+001 -6.839612e+001 -5.229142e+001 -7.466058e+001 -1.877479e-001 1.317066e+002
570000000 -1.034411e+000 -1.661743e+002 -5.241102e+001 -7.869169e+001 -5.235352e+001 -8.148653e+001 -1.871426e-001 1.315215e+002
570625000 -1.050158e+000 -1.665600e+002 -5.264392e+001 -7.616763e+001 -5.263479e+001 -7.537968e+001 -1.841185e-001 1.314654e+002
571250000 -1.087505e+000 -1.669907e+002 -5.282989e+001 -8.397899e+001 -5.234088e+001 -7.675586e+001 -1.836528e-001 1.313329e+002
571875000 -1.112118e+000 -1.673989e+002 -5.238599e+001 -7.965224e+001 -5.214347e+001 -8.312405e+001 -1.738887e-001 1.312009e+002
572500000 -1.146670e+000 -1.678676e+002 -5.174114e+001 -7.927353e+001 -5.149222e+001 -8.232625e+001 -1.805479e-001 1.310977e+002
573125000 -1.171501e+000 -1.681911e+002 -5.230605e+001 -8.614311e+001 -5.261919e+001 -8.840848e+001 -1.661006e-001 1.309919e+002
573750000 -1.188337e+000 -1.685786e+002 -5.246420e+001 -8.602923e+001 -5.181903e+001 -8.498945e+001 -1.832704e-001 1.309204e+002
574375000 -1.218624e+000 -1.689483e+002 -5.235037e+001 -8.755598e+001 -5.146799e+001 -8.754244e+001 -1.728727e-001 1.309062e+002
575000000 -1.236268e+000 -1.693063e+002 -5.190917e+001 -8.946601e+001 -5.253394e+001 -8.637620e+001 -1.677515e-001 1.308129e+002
575625000 -1.251330e+000 -1.696913e+002 -5.246280e+001 -8.753410e+001 -5.225330e+001 -9.057122e+001 -1.713462e-001 1.308114e+002
576250000 -1.271697e+000 -1.700749e+002 -5.233092e+001 -9.085631e+001 -5.159936e+001 -8.828419e+001 -1.703867e-001 1.307816e+002
576875000 -1.288449e+000 -1.704767e+002 -5.247972e+001 -9.259251e+001 -5.204364e+001 -9.408686e+001 -1.638515e-001 1.307203e+002
577500000 -1.317289e+000 -1.708441e+002 -5.335155e+001 -9.416240e+001 -5.158884e+001 -9.572689e+001 -1.635751e-001 1.307348e+002
578125000 -1.337313e+000 -1.712949e+002 -5.202201e+001 -9.810731e+001 -5.224107e+001 -9.898428e+001 -1.586818e-001 1.307586e+002
578750000 -1.355727e+000 -1.716653e+002 -5.169466e+001 -9.921396e+001 -5.207570e+001 -9.737114e+001 -1.599940e-001 1.306936e+002
579375000 -1.376319e+000 -1.720160e+002 -5.165742e+001 -9.675611e+001 -5.201413e+001 -1.007991e+002 -1.630608e-001 1.307395e+002
580000000 -1.391177e+000 -1.723986e+002 -5.181032e+001 -9.879548e+001 -5.138242e+001 -1.009826e+002 -1.657926e-001 1.307690e+002
580625000 -1.415047e+000 -1.727703e+002 -5.164755e+001 -1.060915e+002 -5.178091e+001 -1.010191e+002 -1.567688e-001 1.307501e+002
581250000 -1.435627e+000 -1.731562e+002 -5.194152e+001 -1.027354e+002 -5.134443e+001 -1.053739e+002 -1.620863e-001 1.307990e+002
581875000 -1.456461e+000 -1.735945e+002 -5.166499e+001 -1.056410e+002 -5.146674e+001 -1.075301e+002 -1.619270e-001 1.307944e+002
582500000 -1.483130e+000 -1.740000e+002 -5.181960e+001 -1.091248e+002 -5.163155e+001 -1.046274e+002 -1.582769e-001 1.307323e+002
583125000 -1.501354e+000 -1.745030e+002 -5.144855e+001 -1.053984e+002 -5.166453e+001 -1.088498e+002 -1.811838e-001 1.306485e+002
583750000 -1.528583e+000 -1.749101e+002 -5.152845e+001 -1.120785e+002 -5.119660e+001 -1.128438e+002 -1.875528e-001 1.306141e+002
584375000 -1.552661e+000 -1.753560e+002 -5.157571e+001 -1.082465e+002 -5.139127e+001 -1.106323e+002 -1.719198e-001 1.305521e+002
585000000 -1.579719e+000 -1.758021e+002 -5.205068e+001 -1.120411e+002 -5.139602e+001 -1.150992e+002 -1.792871e-001 1.304930e+002
585625000 -1.622144e+000 -1.762399e+002 -5.210511e+001 -1.113428e+002 -5.183995e+001 -1.134527e+002 -1.780660e-001 1.303638e+002
586250000 -1.650604e+000 -1.766886e+002 -5.130978e+001 -1.223368e+002 -5.140886e+001 -1.152686e+002 -1.774068e-001 1.303660e+002
586875000 -1.671207e+000 -1.771402e+002 -5.205663e+001 -1.231861e+002 -5.059286e+001 -1.188384e+002 -1.924292e-001 1.301843e+002
587500000 -1.716305e+000 -1.775613e+002 -5.225007e+001 -1.191549e+002 -5.152514e+001 -1.194073e+002 -1.855914e-001 1.300705e+002
588125000 -1.745740e+000 -1.779710e+002 -5.116624e+001 -1.182483e+002 -5.149335e+001 -1.192482e+002 -1.856158e-001 1.299300e+002
588750000 -1.770194e+000 -1.784010e+002 -5.153459e+001 -1.206149e+002 -5.174238e+001 -1.226937e+002 -1.867295e-001 1.298304e+002
589375000 -1.800755e+000 -1.788757e+002 -5.118443e+001 -1.226965e+002 -5.111232e+001 -1.222755e+002 -1.729794e-001 1.296441e+002
590000000 -1.835343e+000 -1.792683e+002 -5.086097e+001 -1.246814e+002 -5.112196e+001 -1.227424e+002 -1.792686e-001 1.296386e+002
590625000 -1.861937e+000 -1.797496e+002 -5.152170e+001 -1.218402e+002 -5.030177e+001 -1.258711e+002 -1.704584e-001 1.295236e+002
591250000 -1.899534e+000 1.797594e+002 -5.124086e+001 -1.272623e+002 -5.104004e+001 -1.256852e+002 -1.783535e-001 1.294643e+002
591875000 -1.937945e+000 1.793102e+002 -5.135526e+001 -1.320823e+002 -5.097460e+001 -1.292243e+002 -1.758328e-001 1.294233e+002
592500000 -1.974857e+000 1.788362e+002 -5.014673e+001 -1.298167e+002 -5.049274e+001 -1.304537e+002 -1.648398e-001 1.294471e+002
593125000 -2.026184e+000 1.784180e+002 -5.051911e+001 -1.271178e+002 -5.029325e+001 -1.292571e+002 -1.725055e-001 1.294761e+002
593750000 -2.074065e+000 1.778684e+002 -5.058041e+001 -1.331892e+002 -5.064873e+001 -1.333156e+002 -1.473825e-001 1.295075e+002
594375000 -2.110297e+000 1.775889e+002 -5.086078e+001 -1.319265e+002 -5.003243e+001 -1.354554e+002 -1.540855e-001 1.295331e+002
595000000 -2.167170e+000 1.771774e+002 -5.134910e+001 -1.333360e+002 -5.070897e+001 -1.339471e+002 -1.649228e-001 1.295020e+002
