!Agilent Technologies,E8364B,US42250235,A.06.04.32
!Agilent E8364B: A.06.04.32
!Date: Friday, January 15, 2021 11:44:06
!Correction: S11(Full 2 Port(1,2)) S21(Full 2 Port(1,2)) S12(Full 2 Port(1,2)) S22(Full 2 Port(1,2)) 
!S2P File: Measurements: S11, S21, S12, S22:
# Hz S  dB   R 50
500000000 -4.597536e-002 -1.285601e+002 -5.595494e+001 1.399995e+002 -5.641472e+001 1.395284e+002 -1.303023e-001 1.386863e+002
500625000 -4.115553e-002 -1.288118e+002 -5.470393e+001 1.341861e+002 -5.660192e+001 1.341766e+002 -1.396237e-001 1.386860e+002
501250000 -5.181624e-002 -1.290741e+002 -5.647278e+001 1.397728e+002 -5.646746e+001 1.384416e+002 -1.345792e-001 1.386808e+002
501875000 -5.171251e-002 -1.293896e+002 -5.625763e+001 1.414203e+002 -5.701533e+001 1.428201e+002 -1.243351e-001 1.387041e+002
502500000 -4.678698e-002 -1.296866e+002 -5.473380e+001 1.396741e+002 -5.595074e+001 1.389650e+002 -1.253589e-001 1.386748e+002
503125000 -5.577991e-002 -1.299752e+002 -5.590610e+001 1.302081e+002 -5.632880e+001 1.363339e+002 -1.312542e-001 1.385630e+002
503750000 -4.758793e-002 -1.303041e+002 -5.614433e+001 1.314958e+002 -5.608975e+001 1.380541e+002 -1.358002e-001 1.385441e+002
504375000 -6.310966e-002 -1.305980e+002 -5.481033e+001 1.440674e+002 -5.630578e+001 1.393434e+002 -1.510766e-001 1.385361e+002
505000000 -5.824482e-002 -1.308820e+002 -5.671758e+001 1.380735e+002 -5.668630e+001 1.319125e+002 -1.497377e-001 1.385033e+002
505625000 -6.076112e-002 -1.311808e+002 -5.655871e+001 1.350722e+002 -5.520672e+001 1.358056e+002 -1.508559e-001 1.384512e+002
506250000 -7.150747e-002 -1.314659e+002 -5.535331e+001 1.337600e+002 -5.608369e+001 1.342842e+002 -1.480060e-001 1.382887e+002
506875000 -6.679404e-002 -1.317394e+002 -5.510352e+001 1.350777e+002 -5.581847e+001 1.335978e+002 -1.385662e-001 1.381964e+002
507500000 -6.993731e-002 -1.320716e+002 -5.589318e+001 1.399870e+002 -5.496895e+001 1.285150e+002 -1.455577e-001 1.380985e+002
508125000 -7.461968e-002 -1.323668e+002 -5.513597e+001 1.375309e+002 -5.538203e+001 1.358365e+002 -1.444693e-001 1.380555e+002
508750000 -7.876956e-002 -1.326287e+002 -5.548896e+001 1.300966e+002 -5.503302e+001 1.267740e+002 -1.484390e-001 1.379506e+002
509375000 -8.000386e-002 -1.329877e+002 -5.489972e+001 1.322834e+002 -5.520258e+001 1.352828e+002 -1.445319e-001 1.379152e+002
510000000 -7.511836e-002 -1.333158e+002 -5.495249e+001 1.318421e+002 -5.501649e+001 1.293453e+002 -1.510104e-001 1.378410e+002
510625000 -8.573645e-002 -1.335838e+002 -5.457778e+001 1.287185e+002 -5.470427e+001 1.321859e+002 -1.363204e-001 1.378294e+002
511250000 -8.931161e-002 -1.338826e+002 -5.575227e+001 1.269825e+002 -5.457328e+001 1.284239e+002 -1.480160e-001 1.376516e+002
511875000 -8.846738e-002 -1.342148e+002 -5.379177e+001 1.224803e+002 -5.591550e+001 1.232808e+002 -1.375801e-001 1.375717e+002
512500000 -8.721074e-002 -1.345011e+002 -5.475188e+001 1.302602e+002 -5.450206e+001 1.310438e+002 -1.437240e-001 1.375277e+002
513125000 -9.607757e-002 -1.347838e+002 -5.375612e+001 1.311720e+002 -5.398933e+001 1.285634e+002 -1.524059e-001 1.375433e+002
513750000 -1.067438e-001 -1.351196e+002 -5.473110e+001 1.259222e+002 -5.402720e+001 1.220392e+002 -1.493394e-001 1.374740e+002
514375000 -1.052500e-001 -1.354611e+002 -5.515953e+001 1.361412e+002 -5.461865e+001 1.285124e+002 -1.427384e-001 1.373707e+002
515000000 -1.056138e-001 -1.357372e+002 -5.452073e+001 1.233019e+002 -5.514228e+001 1.256502e+002 -1.351167e-001 1.373729e+002
515625000 -1.134440e-001 -1.360890e+002 -5.475227e+001 1.232362e+002 -5.415226e+001 1.227192e+002 -1.259531e-001 1.372499e+002
516250000 -1.086082e-001 -1.363924e+002 -5.461679e+001 1.238106e+002 -5.428669e+001 1.309110e+002 -1.390449e-001 1.372269e+002
516875000 -1.230647e-001 -1.367129e+002 -5.389560e+001 1.265956e+002 -5.365157e+001 1.240283e+002 -1.425965e-001 1.372415e+002
517500000 -1.261877e-001 -1.370609e+002 -5.353463e+001 1.209869e+002 -5.319041e+001 1.188293e+002 -1.536762e-001 1.371622e+002
518125000 -1.299150e-001 -1.374251e+002 -5.325473e+001 1.258898e+002 -5.392057e+001 1.263874e+002 -1.365604e-001 1.371159e+002
518750000 -1.364135e-001 -1.377711e+002 -5.277873e+001 1.233384e+002 -5.272190e+001 1.208023e+002 -1.433983e-001 1.370694e+002
519375000 -1.433669e-001 -1.380017e+002 -5.394560e+001 1.203161e+002 -5.420140e+001 1.229642e+002 -1.411533e-001 1.369868e+002
520000000 -1.525038e-001 -1.384235e+002 -5.348601e+001 1.205837e+002 -5.212315e+001 1.238576e+002 -1.410909e-001 1.368392e+002
520625000 -1.576774e-001 -1.387478e+002 -5.307629e+001 1.177700e+002 -5.363527e+001 1.199028e+002 -1.518132e-001 1.367939e+002
521250000 -1.581094e-001 -1.390432e+002 -5.314127e+001 1.233780e+002 -5.203461e+001 1.191367e+002 -1.464598e-001 1.367342e+002
521875000 -1.642051e-001 -1.394734e+002 -5.217962e+001 1.190510e+002 -5.221275e+001 1.194600e+002 -1.423407e-001 1.366703e+002
522500000 -1.659788e-001 -1.397860e+002 -5.240525e+001 1.189765e+002 -5.175536e+001 1.187316e+002 -1.522058e-001 1.365055e+002
523125000 -1.807365e-001 -1.401257e+002 -5.218314e+001 1.183270e+002 -5.218971e+001 1.223710e+002 -1.531933e-001 1.364724e+002
523750000 -1.751849e-001 -1.404881e+002 -5.183038e+001 1.133092e+002 -5.123965e+001 1.179891e+002 -1.512742e-001 1.364080e+002
524375000 -2.010015e-001 -1.408506e+002 -5.188837e+001 1.143040e+002 -5.175598e+001 1.218338e+002 -1.477380e-001 1.363111e+002
525000000 -1.908227e-001 -1.412027e+002 -5.184953e+001 1.121340e+002 -5.096891e+001 1.136535e+002 -1.510422e-001 1.362646e+002
525625000 -2.105470e-001 -1.415623e+002 -5.191871e+001 1.173814e+002 -5.185883e+001 1.182363e+002 -1.485150e-001 1.361587e+002
526250000 -2.023178e-001 -1.418782e+002 -5.163948e+001 1.147266e+002 -5.045159e+001 1.152486e+002 -1.525057e-001 1.361540e+002
526875000 -2.209396e-001 -1.422306e+002 -5.170386e+001 1.103613e+002 -5.133083e+001 1.147070e+002 -1.376484e-001 1.360307e+002
527500000 -2.257674e-001 -1.426015e+002 -5.130943e+001 1.135056e+002 -5.076455e+001 1.133476e+002 -1.499675e-001 1.360257e+002
528125000 -2.451062e-001 -1.430135e+002 -5.083350e+001 1.142460e+002 -5.079616e+001 1.145466e+002 -1.489877e-001 1.359998e+002
528750000 -2.405516e-001 -1.433566e+002 -5.086790e+001 1.094327e+002 -5.063471e+001 1.126376e+002 -1.469105e-001 1.359982e+002
529375000 -2.524281e-001 -1.437534e+002 -5.051887e+001 1.084479e+002 -5.021789e+001 1.112250e+002 -1.405740e-001 1.358743e+002
530000000 -2.687835e-001 -1.441096e+002 -5.044381e+001 1.092104e+002 -5.110798e+001 1.096530e+002 -1.366011e-001 1.358985e+002
530625000 -2.766710e-001 -1.444603e+002 -5.001594e+001 1.130213e+002 -5.001441e+001 1.069717e+002 -1.377485e-001 1.358229e+002
531250000 -2.842240e-001 -1.448668e+002 -5.012321e+001 1.135143e+002 -5.061414e+001 1.093964e+002 -1.276374e-001 1.358401e+002
531875000 -3.018496e-001 -1.452436e+002 -5.027075e+001 1.064105e+002 -5.022113e+001 1.081962e+002 -1.414880e-001 1.357979e+002
532500000 -3.139475e-001 -1.455366e+002 -4.981746e+001 1.049801e+002 -5.012933e+001 1.088635e+002 -1.362147e-001 1.358428e+002
533125000 -3.196632e-001 -1.459160e+002 -4.998278e+001 1.071659e+002 -4.941798e+001 1.039501e+002 -1.387726e-001 1.358246e+002
533750000 -3.293829e-001 -1.463361e+002 -4.954049e+001 1.035692e+002 -5.033779e+001 1.076502e+002 -1.501267e-001 1.357989e+002
534375000 -3.434695e-001 -1.466733e+002 -4.878349e+001 1.049162e+002 -4.907750e+001 1.066550e+002 -1.323340e-001 1.357815e+002
535000000 -3.613656e-001 -1.470143e+002 -4.931055e+001 1.040266e+002 -4.959533e+001 1.034160e+002 -1.376371e-001 1.357924e+002
535625000 -3.678053e-001 -1.474516e+002 -4.929207e+001 1.010090e+002 -4.946482e+001 1.058678e+002 -1.427160e-001 1.357839e+002
536250000 -3.796790e-001 -1.478102e+002 -4.939386e+001 1.043811e+002 -4.902448e+001 1.044579e+002 -1.373080e-001 1.357042e+002
536875000 -4.000516e-001 -1.481977e+002 -4.888734e+001 1.002786e+002 -4.877940e+001 1.020493e+002 -1.429896e-001 1.356587e+002
537500000 -4.068677e-001 -1.484831e+002 -4.828149e+001 1.004183e+002 -4.831123e+001 1.018395e+002 -1.443678e-001 1.357046e+002
538125000 -4.219852e-001 -1.488904e+002 -4.841489e+001 1.035601e+002 -4.826423e+001 1.020677e+002 -1.446440e-001 1.356628e+002
538750000 -4.475802e-001 -1.493003e+002 -4.798965e+001 1.004862e+002 -4.801461e+001 9.810301e+001 -1.487355e-001 1.355825e+002
539375000 -4.627807e-001 -1.496492e+002 -4.837462e+001 9.798820e+001 -4.818121e+001 9.925445e+001 -1.517623e-001 1.355783e+002
540000000 -4.763430e-001 -1.500418e+002 -4.810429e+001 9.680150e+001 -4.771054e+001 9.677744e+001 -1.518124e-001 1.354176e+002
540625000 -4.948573e-001 -1.504249e+002 -4.787356e+001 9.950085e+001 -4.779422e+001 9.973106e+001 -1.570144e-001 1.354138e+002
541250000 -5.121599e-001 -1.507558e+002 -4.789169e+001 9.717159e+001 -4.773981e+001 9.691891e+001 -1.472960e-001 1.352871e+002
541875000 -5.318698e-001 -1.511345e+002 -4.738274e+001 9.560770e+001 -4.759198e+001 9.619334e+001 -1.651579e-001 1.351815e+002
542500000 -5.529483e-001 -1.515444e+002 -4.751931e+001 9.666187e+001 -4.752874e+001 9.514683e+001 -1.619894e-001 1.350862e+002
543125000 -5.620651e-001 -1.519569e+002 -4.723877e+001 9.299022e+001 -4.728386e+001 9.594534e+001 -1.626726e-001 1.349404e+002
543750000 -5.789567e-001 -1.523233e+002 -4.712304e+001 9.381602e+001 -4.723177e+001 9.519007e+001 -1.687343e-001 1.348554e+002
544375000 -6.074941e-001 -1.527478e+002 -4.641510e+001 9.406805e+001 -4.675054e+001 9.319333e+001 -1.613650e-001 1.347306e+002
545000000 -6.219487e-001 -1.531311e+002 -4.717078e+001 9.071306e+001 -4.659958e+001 9.056651e+001 -1.592392e-001 1.346380e+002
545625000 -6.478400e-001 -1.535512e+002 -4.690739e+001 9.087000e+001 -4.635223e+001 9.032026e+001 -1.675213e-001 1.345406e+002
546250000 -6.809179e-001 -1.539211e+002 -4.655827e+001 8.722571e+001 -4.672556e+001 8.785232e+001 -1.644995e-001 1.344216e+002
546875000 -7.003712e-001 -1.543617e+002 -4.624393e+001 8.768449e+001 -4.608089e+001 8.749558e+001 -1.635314e-001 1.343539e+002
547500000 -7.261003e-001 -1.547396e+002 -4.650305e+001 8.308228e+001 -4.594616e+001 8.546942e+001 -1.627483e-001 1.342670e+002
548125000 -7.567068e-001 -1.551090e+002 -4.600528e+001 8.716082e+001 -4.614930e+001 8.594349e+001 -1.522291e-001 1.340992e+002
548750000 -7.799547e-001 -1.555859e+002 -4.550973e+001 8.353600e+001 -4.557286e+001 8.311279e+001 -1.566625e-001 1.340757e+002
549375000 -8.096498e-001 -1.559450e+002 -4.560167e+001 8.280727e+001 -4.552613e+001 8.352512e+001 -1.554570e-001 1.338598e+002
550000000 -8.411667e-001 -1.563605e+002 -4.561773e+001 8.138916e+001 -4.584880e+001 8.347527e+001 -1.553978e-001 1.339583e+002
550625000 -8.722133e-001 -1.567702e+002 -4.544766e+001 8.222726e+001 -4.528480e+001 8.168147e+001 -1.420860e-001 1.338685e+002
551250000 -8.978741e-001 -1.571424e+002 -4.514163e+001 7.853387e+001 -4.493470e+001 7.691743e+001 -1.422878e-001 1.338548e+002
551875000 -9.376085e-001 -1.575368e+002 -4.504664e+001 7.795393e+001 -4.486134e+001 7.728059e+001 -1.424963e-001 1.338405e+002
552500000 -9.688296e-001 -1.578653e+002 -4.478883e+001 7.445413e+001 -4.464381e+001 7.626295e+001 -1.421937e-001 1.338033e+002
553125000 -9.941099e-001 -1.582704e+002 -4.430717e+001 7.402193e+001 -4.495355e+001 7.593185e+001 -1.468957e-001 1.338325e+002
553750000 -1.032379e+000 -1.586115e+002 -4.482541e+001 7.203183e+001 -4.453967e+001 7.279522e+001 -1.446894e-001 1.337798e+002
554375000 -1.069042e+000 -1.589251e+002 -4.478903e+001 7.322182e+001 -4.438702e+001 7.085417e+001 -1.460155e-001 1.337885e+002
555000000 -1.103994e+000 -1.592720e+002 -4.460399e+001 7.134459e+001 -4.426662e+001 7.107177e+001 -1.499511e-001 1.338033e+002
555625000 -1.140363e+000 -1.595814e+002 -4.433409e+001 6.753418e+001 -4.408103e+001 7.047472e+001 -1.411660e-001 1.338580e+002
556250000 -1.188305e+000 -1.599319e+002 -4.370793e+001 6.666669e+001 -4.404187e+001 6.964542e+001 -1.507863e-001 1.337383e+002
556875000 -1.201926e+000 -1.602283e+002 -4.367302e+001 6.563901e+001 -4.424123e+001 6.835632e+001 -1.616420e-001 1.337555e+002
557500000 -1.254908e+000 -1.605507e+002 -4.419750e+001 6.708482e+001 -4.402105e+001 6.616221e+001 -1.479998e-001 1.337268e+002
558125000 -1.287614e+000 -1.608083e+002 -4.366341e+001 6.444159e+001 -4.389832e+001 6.288564e+001 -1.628058e-001 1.337357e+002
558750000 -1.320636e+000 -1.610914e+002 -4.364143e+001 6.270837e+001 -4.337367e+001 6.270810e+001 -1.490893e-001 1.336424e+002
559375000 -1.358812e+000 -1.613973e+002 -4.348749e+001 6.289301e+001 -4.337383e+001 6.112493e+001 -1.563589e-001 1.336068e+002
560000000 -1.404811e+000 -1.616920e+002 -4.311152e+001 6.025100e+001 -4.335429e+001 6.183361e+001 -1.549357e-001 1.335235e+002
560625000 -1.435382e+000 -1.619790e+002 -4.331080e+001 5.941090e+001 -4.339623e+001 5.883046e+001 -1.571767e-001 1.334406e+002
561250000 -1.476567e+000 -1.622438e+002 -4.312118e+001 5.759899e+001 -4.323707e+001 5.782416e+001 -1.577574e-001 1.333852e+002
561875000 -1.513958e+000 -1.624529e+002 -4.302229e+001 5.728817e+001 -4.301556e+001 5.635715e+001 -1.587328e-001 1.333053e+002
562500000 -1.555216e+000 -1.627186e+002 -4.272100e+001 5.462529e+001 -4.293691e+001 5.444226e+001 -1.584355e-001 1.333104e+002
563125000 -1.585805e+000 -1.629133e+002 -4.283462e+001 5.234024e+001 -4.313646e+001 5.193597e+001 -1.467767e-001 1.331795e+002
563750000 -1.632824e+000 -1.631373e+002 -4.267136e+001 5.280220e+001 -4.284844e+001 5.069489e+001 -1.659129e-001 1.331067e+002
564375000 -1.667927e+000 -1.633354e+002 -4.246374e+001 5.004353e+001 -4.258037e+001 5.070773e+001 -1.603477e-001 1.330491e+002
565000000 -1.702418e+000 -1.636041e+002 -4.265373e+001 4.947546e+001 -4.252758e+001 4.901415e+001 -1.596061e-001 1.329504e+002
565625000 -1.737472e+000 -1.637346e+002 -4.237805e+001 4.771348e+001 -4.236014e+001 4.881916e+001 -1.665105e-001 1.328913e+002
566250000 -1.765060e+000 -1.640148e+002 -4.245708e+001 4.495445e+001 -4.254462e+001 4.577474e+001 -1.626822e-001 1.328296e+002
566875000 -1.803572e+000 -1.642113e+002 -4.214853e+001 4.513233e+001 -4.227478e+001 4.492062e+001 -1.679354e-001 1.327110e+002
567500000 -1.830136e+000 -1.645213e+002 -4.210382e+001 4.445260e+001 -4.225259e+001 4.326946e+001 -1.680501e-001 1.326430e+002
568125000 -1.866345e+000 -1.646770e+002 -4.213526e+001 4.194016e+001 -4.195867e+001 4.239865e+001 -1.655713e-001 1.325812e+002
568750000 -1.896441e+000 -1.649081e+002 -4.206662e+001 4.133026e+001 -4.195504e+001 4.078439e+001 -1.665408e-001 1.324962e+002
569375000 -1.932611e+000 -1.651290e+002 -4.197307e+001 3.800829e+001 -4.164273e+001 3.869429e+001 -1.633292e-001 1.324727e+002
570000000 -1.959999e+000 -1.653828e+002 -4.190419e+001 3.904055e+001 -4.164250e+001 3.820431e+001 -1.625474e-001 1.323138e+002
570625000 -1.992366e+000 -1.655963e+002 -4.177460e+001 3.702623e+001 -4.164850e+001 3.719420e+001 -1.656359e-001 1.323268e+002
571250000 -2.032776e+000 -1.657489e+002 -4.153825e+001 3.567002e+001 -4.154573e+001 3.534616e+001 -1.599864e-001 1.322128e+002
571875000 -2.071867e+000 -1.659081e+002 -4.148354e+001 3.274706e+001 -4.146824e+001 3.275034e+001 -1.627893e-001 1.321243e+002
572500000 -2.101840e+000 -1.660766e+002 -4.159654e+001 3.264486e+001 -4.132346e+001 3.256200e+001 -1.795839e-001 1.320243e+002
573125000 -2.129029e+000 -1.661933e+002 -4.149900e+001 3.094593e+001 -4.116574e+001 3.205495e+001 -1.594074e-001 1.319401e+002
573750000 -2.148419e+000 -1.663812e+002 -4.131542e+001 3.003591e+001 -4.144922e+001 2.980735e+001 -1.654747e-001 1.318886e+002
574375000 -2.176060e+000 -1.664563e+002 -4.144558e+001 2.772096e+001 -4.140924e+001 2.775630e+001 -1.614496e-001 1.317560e+002
575000000 -2.191804e+000 -1.665975e+002 -4.109687e+001 2.572804e+001 -4.127771e+001 2.546318e+001 -1.679744e-001 1.316846e+002
575625000 -2.205040e+000 -1.667471e+002 -4.131798e+001 2.519773e+001 -4.101399e+001 2.439983e+001 -1.678410e-001 1.315925e+002
576250000 -2.224282e+000 -1.668566e+002 -4.108973e+001 2.497170e+001 -4.105937e+001 2.354691e+001 -1.731064e-001 1.314708e+002
576875000 -2.233705e+000 -1.670267e+002 -4.110546e+001 2.164834e+001 -4.117864e+001 2.213452e+001 -1.626599e-001 1.314565e+002
577500000 -2.248254e+000 -1.671124e+002 -4.078906e+001 2.083906e+001 -4.089458e+001 2.229048e+001 -1.662830e-001 1.313596e+002
578125000 -2.259210e+000 -1.672586e+002 -4.119721e+001 1.895118e+001 -4.085925e+001 2.091627e+001 -1.567812e-001 1.313586e+002
578750000 -2.263103e+000 -1.674485e+002 -4.099240e+001 1.779105e+001 -4.069447e+001 1.891149e+001 -1.527901e-001 1.313063e+002
579375000 -2.267168e+000 -1.675722e+002 -4.087593e+001 1.664268e+001 -4.077027e+001 1.654865e+001 -1.558519e-001 1.313065e+002
580000000 -2.271463e+000 -1.677032e+002 -4.102637e+001 1.427595e+001 -4.096283e+001 1.566175e+001 -1.562095e-001 1.312102e+002
580625000 -2.283087e+000 -1.678455e+002 -4.064575e+001 1.263132e+001 -4.075916e+001 1.337298e+001 -1.537692e-001 1.312148e+002
581250000 -2.289147e+000 -1.680050e+002 -4.082031e+001 1.099936e+001 -4.060288e+001 1.193690e+001 -1.502161e-001 1.311922e+002
581875000 -2.294868e+000 -1.681529e+002 -4.062823e+001 1.054066e+001 -4.065757e+001 1.134747e+001 -1.547927e-001 1.312077e+002
582500000 -2.304499e+000 -1.682822e+002 -4.062918e+001 9.224295e+000 -4.050002e+001 8.580442e+000 -1.534181e-001 1.312073e+002
583125000 -2.296350e+000 -1.684659e+002 -4.059309e+001 7.921263e+000 -4.072765e+001 7.049887e+000 -1.525773e-001 1.311392e+002
583750000 -2.295600e+000 -1.686249e+002 -4.069372e+001 6.731557e+000 -4.065971e+001 6.006949e+000 -1.654373e-001 1.310721e+002
584375000 -2.292354e+000 -1.688490e+002 -4.072026e+001 6.067129e+000 -4.060549e+001 4.980526e+000 -1.511397e-001 1.310889e+002
585000000 -2.275738e+000 -1.690196e+002 -4.075129e+001 3.826760e+000 -4.072111e+001 3.062212e+000 -1.625958e-001 1.310027e+002
585625000 -2.278656e+000 -1.691943e+002 -4.066150e+001 2.402542e+000 -4.070261e+001 1.724732e+000 -1.589754e-001 1.310256e+002
586250000 -2.267311e+000 -1.695039e+002 -4.067275e+001 2.348322e+000 -4.064594e+001 2.481712e+000 -1.621505e-001 1.309823e+002
586875000 -2.253758e+000 -1.697946e+002 -4.072512e+001 -9.035737e-002 -4.054877e+001 3.070529e-001 -1.705185e-001 1.309380e+002
587500000 -2.258503e+000 -1.700374e+002 -4.087471e+001 5.177730e-001 -4.057539e+001 -5.023942e-001 -1.677178e-001 1.308116e+002
588125000 -2.241415e+000 -1.703349e+002 -4.073149e+001 -2.371836e+000 -4.062858e+001 -2.073837e+000 -1.700647e-001 1.307701e+002
588750000 -2.233770e+000 -1.705995e+002 -4.077448e+001 -2.591512e+000 -4.050649e+001 -1.899196e+000 -1.765735e-001 1.307190e+002
589375000 -2.229053e+000 -1.709361e+002 -4.059152e+001 -1.882251e+000 -4.084142e+001 -4.122223e+000 -1.635972e-001 1.305466e+002
590000000 -2.227571e+000 -1.712704e+002 -4.071309e+001 -3.706967e+000 -4.053377e+001 -5.095829e+000 -1.736775e-001 1.305210e+002
590625000 -2.220095e+000 -1.716136e+002 -4.076107e+001 -3.932196e+000 -4.069189e+001 -4.884211e+000 -1.679452e-001 1.303732e+002
591250000 -2.217381e+000 -1.719740e+002 -4.074181e+001 -6.542247e+000 -4.071263e+001 -6.589639e+000 -1.764846e-001 1.302903e+002
591875000 -2.226187e+000 -1.723038e+002 -4.077393e+001 -6.396431e+000 -4.048151e+001 -6.192852e+000 -1.710713e-001 1.302336e+002
592500000 -2.222204e+000 -1.726858e+002 -4.066403e+001 -7.587307e+000 -4.059606e+001 -8.549129e+000 -1.711700e-001 1.301862e+002
593125000 -2.239806e+000 -1.729917e+002 -4.074085e+001 -8.450455e+000 -4.054941e+001 -8.113559e+000 -1.718155e-001 1.301214e+002
593750000 -2.248281e+000 -1.733592e+002 -4.036211e+001 -9.953804e+000 -4.030457e+001 -1.047187e+001 -1.651334e-001 1.301019e+002
594375000 -2.245018e+000 -1.736052e+002 -4.034780e+001 -1.107937e+001 -4.027164e+001 -1.227994e+001 -1.530863e-001 1.300807e+002
595000000 -2.258193e+000 -1.738913e+002 -4.040038e+001 -1.266295e+001 -4.022413e+001 -1.255721e+001 -1.699359e-001 1.300690e+002
595625000 -2.257466e+000 -1.742615e+002 -4.040022e+001 -1.291653e+001 -4.026243e+001 -1.315070e+001 -1.586874e-001 1.300099e+002
596250000 -2.249762e+000 -1.745551e+002 -4.050185e+001 -1.461204e+001 -4.030050e+001 -1.512214e+001 -1.638420e-001 1.299968e+002
