!Agilent Technologies,E8364B,US42250235,A.06.04.32
!Agilent E8364B: A.06.04.32
!Date: Friday, January 15, 2021 12:29:11
!Correction: S11(Full 2 Port(1,2)) S21(Full 2 Port(1,2)) S12(Full 2 Port(1,2)) S22(Full 2 Port(1,2)) 
!S2P File: Measurements: S11, S21, S12, S22:
# Hz S  dB   R 50
500000000 -1.122993e-001 -1.291208e+002 -6.024913e+001 1.137577e+002 -6.134842e+001 1.179332e+002 -1.510269e-001 1.384456e+002
500625000 -1.049311e-001 -1.293737e+002 -6.288099e+001 1.071408e+002 -6.225406e+001 1.226438e+002 -1.571365e-001 1.384799e+002
501250000 -1.172167e-001 -1.296291e+002 -6.064164e+001 1.083596e+002 -6.182865e+001 1.048015e+002 -1.493573e-001 1.383319e+002
501875000 -1.196711e-001 -1.299853e+002 -6.249218e+001 1.148130e+002 -6.045821e+001 1.011164e+002 -1.538760e-001 1.383252e+002
502500000 -1.177949e-001 -1.302298e+002 -6.194453e+001 1.240446e+002 -5.966284e+001 9.607447e+001 -1.435639e-001 1.383087e+002
503125000 -1.310445e-001 -1.305603e+002 -6.135921e+001 8.789046e+001 -6.286865e+001 1.007819e+002 -1.452654e-001 1.382032e+002
503750000 -1.314591e-001 -1.308354e+002 -6.054410e+001 8.607765e+001 -6.022206e+001 1.040807e+002 -1.484197e-001 1.381276e+002
504375000 -1.456714e-001 -1.310925e+002 -6.022591e+001 1.057588e+002 -6.215629e+001 1.079369e+002 -1.638916e-001 1.380525e+002
505000000 -1.578860e-001 -1.314046e+002 -5.857510e+001 9.198069e+001 -6.207245e+001 8.402925e+001 -1.584701e-001 1.380358e+002
505625000 -1.549303e-001 -1.316268e+002 -5.809544e+001 9.501638e+001 -6.018739e+001 9.141925e+001 -1.519419e-001 1.379686e+002
506250000 -1.645903e-001 -1.319216e+002 -6.055970e+001 9.806631e+001 -6.072800e+001 8.410681e+001 -1.558324e-001 1.378717e+002
506875000 -1.652586e-001 -1.322057e+002 -5.801328e+001 8.969941e+001 -6.111505e+001 9.760670e+001 -1.517019e-001 1.377319e+002
507500000 -1.725482e-001 -1.325217e+002 -5.948258e+001 9.420357e+001 -5.867190e+001 8.882949e+001 -1.467302e-001 1.376952e+002
508125000 -1.853157e-001 -1.328171e+002 -6.242503e+001 7.801964e+001 -6.031936e+001 7.695525e+001 -1.442496e-001 1.376583e+002
508750000 -1.810177e-001 -1.330150e+002 -6.033176e+001 9.553563e+001 -6.089437e+001 7.822696e+001 -1.603743e-001 1.376006e+002
509375000 -1.916854e-001 -1.334065e+002 -6.072818e+001 9.749368e+001 -5.999034e+001 8.812754e+001 -1.496963e-001 1.375685e+002
510000000 -1.888624e-001 -1.337081e+002 -6.085379e+001 8.605647e+001 -5.973091e+001 8.264926e+001 -1.555945e-001 1.375337e+002
510625000 -2.003797e-001 -1.339718e+002 -5.986958e+001 8.637965e+001 -5.883111e+001 8.591663e+001 -1.405969e-001 1.374828e+002
511250000 -2.003397e-001 -1.341912e+002 -6.029722e+001 7.778272e+001 -5.900107e+001 8.157596e+001 -1.600359e-001 1.373784e+002
511875000 -2.057346e-001 -1.345940e+002 -5.926169e+001 8.055006e+001 -5.948454e+001 6.939664e+001 -1.467098e-001 1.373583e+002
512500000 -2.027051e-001 -1.348533e+002 -5.896239e+001 8.013146e+001 -5.898220e+001 7.668747e+001 -1.443471e-001 1.373122e+002
513125000 -2.161295e-001 -1.351776e+002 -5.830709e+001 7.305199e+001 -5.942366e+001 8.186974e+001 -1.501273e-001 1.373390e+002
513750000 -2.169549e-001 -1.354167e+002 -6.043540e+001 8.539915e+001 -5.823638e+001 8.225832e+001 -1.688586e-001 1.372238e+002
514375000 -2.206851e-001 -1.357231e+002 -6.017124e+001 6.451749e+001 -5.966880e+001 8.155807e+001 -1.620570e-001 1.371371e+002
515000000 -2.232491e-001 -1.360262e+002 -6.032132e+001 7.309982e+001 -5.999186e+001 7.403592e+001 -1.634967e-001 1.370588e+002
515625000 -2.300693e-001 -1.363710e+002 -5.824772e+001 6.174421e+001 -5.865251e+001 7.557356e+001 -1.573169e-001 1.370139e+002
516250000 -2.359261e-001 -1.366376e+002 -5.916233e+001 7.786153e+001 -6.013897e+001 6.549103e+001 -1.634697e-001 1.368727e+002
516875000 -2.512732e-001 -1.369792e+002 -5.906894e+001 8.252545e+001 -6.084817e+001 7.875887e+001 -1.629324e-001 1.368735e+002
517500000 -2.451640e-001 -1.372897e+002 -5.848822e+001 7.368057e+001 -5.779564e+001 6.754773e+001 -1.710029e-001 1.367137e+002
518125000 -2.555291e-001 -1.375922e+002 -5.873129e+001 5.569167e+001 -5.782470e+001 5.123381e+001 -1.715481e-001 1.366301e+002
518750000 -2.689097e-001 -1.379033e+002 -5.875751e+001 7.237296e+001 -5.836306e+001 6.391581e+001 -1.645605e-001 1.365565e+002
519375000 -2.783020e-001 -1.381176e+002 -5.763979e+001 5.763562e+001 -5.838835e+001 6.098218e+001 -1.639283e-001 1.364450e+002
520000000 -2.872250e-001 -1.384846e+002 -5.880130e+001 5.997316e+001 -6.041262e+001 5.457829e+001 -1.699273e-001 1.363241e+002
520625000 -2.905415e-001 -1.388130e+002 -5.787186e+001 6.495541e+001 -5.971821e+001 5.561767e+001 -1.684410e-001 1.361798e+002
521250000 -3.027838e-001 -1.390841e+002 -5.879071e+001 5.474840e+001 -5.846667e+001 5.244843e+001 -1.626612e-001 1.361384e+002
521875000 -3.104321e-001 -1.393648e+002 -5.878981e+001 5.982377e+001 -5.800252e+001 5.243924e+001 -1.590791e-001 1.360529e+002
522500000 -3.176853e-001 -1.396801e+002 -5.948479e+001 6.014752e+001 -5.920398e+001 5.767605e+001 -1.581959e-001 1.359097e+002
523125000 -3.326267e-001 -1.399796e+002 -5.777374e+001 5.098204e+001 -5.838268e+001 5.379310e+001 -1.611879e-001 1.359686e+002
523750000 -3.280612e-001 -1.402572e+002 -5.775742e+001 6.425201e+001 -5.725670e+001 5.141803e+001 -1.534628e-001 1.358725e+002
524375000 -3.502328e-001 -1.405953e+002 -5.868005e+001 6.171488e+001 -5.664309e+001 4.905199e+001 -1.497824e-001 1.358205e+002
525000000 -3.535122e-001 -1.408648e+002 -5.791290e+001 5.104000e+001 -5.558747e+001 5.400565e+001 -1.515019e-001 1.357930e+002
525625000 -3.696835e-001 -1.410768e+002 -5.658603e+001 4.709910e+001 -5.686680e+001 4.847950e+001 -1.602411e-001 1.356746e+002
526250000 -3.650724e-001 -1.413389e+002 -5.612511e+001 5.358895e+001 -5.920311e+001 4.711284e+001 -1.503479e-001 1.356900e+002
526875000 -3.702626e-001 -1.417070e+002 -5.709003e+001 3.788339e+001 -5.762506e+001 4.972113e+001 -1.392497e-001 1.356627e+002
527500000 -3.867891e-001 -1.419434e+002 -5.706708e+001 4.472133e+001 -5.721749e+001 4.329509e+001 -1.519076e-001 1.356385e+002
528125000 -3.950183e-001 -1.422829e+002 -5.663524e+001 4.984807e+001 -5.763537e+001 3.967039e+001 -1.482647e-001 1.357446e+002
528750000 -3.964832e-001 -1.425378e+002 -5.692398e+001 3.547237e+001 -5.804989e+001 3.304688e+001 -1.440218e-001 1.357546e+002
529375000 -3.953254e-001 -1.428480e+002 -5.550225e+001 4.669598e+001 -5.578131e+001 3.328334e+001 -1.557002e-001 1.356558e+002
530000000 -4.010934e-001 -1.431645e+002 -5.771465e+001 3.563176e+001 -5.692426e+001 2.991011e+001 -1.508971e-001 1.356725e+002
530625000 -4.093857e-001 -1.435075e+002 -5.498383e+001 4.025307e+001 -5.726326e+001 3.725469e+001 -1.571073e-001 1.355341e+002
531250000 -4.071482e-001 -1.438139e+002 -5.819386e+001 4.252268e+001 -5.667640e+001 3.593267e+001 -1.437534e-001 1.355412e+002
531875000 -4.265568e-001 -1.441148e+002 -5.676958e+001 2.904335e+001 -5.662610e+001 3.765921e+001 -1.567103e-001 1.355227e+002
532500000 -4.185424e-001 -1.443736e+002 -5.763379e+001 4.142331e+001 -5.695881e+001 4.075280e+001 -1.533122e-001 1.355151e+002
533125000 -4.248888e-001 -1.447507e+002 -5.701391e+001 4.127967e+001 -5.714417e+001 2.634085e+001 -1.624471e-001 1.354776e+002
533750000 -4.303950e-001 -1.451141e+002 -5.575087e+001 3.054880e+001 -5.729906e+001 3.275222e+001 -1.657321e-001 1.354078e+002
534375000 -4.345466e-001 -1.454596e+002 -5.641813e+001 3.362883e+001 -5.728294e+001 2.122826e+001 -1.519860e-001 1.353441e+002
535000000 -4.470157e-001 -1.457535e+002 -5.621645e+001 2.897524e+001 -5.715636e+001 2.338050e+001 -1.620429e-001 1.353181e+002
535625000 -4.490271e-001 -1.460580e+002 -5.628964e+001 2.819316e+001 -5.643179e+001 2.029052e+001 -1.532168e-001 1.352318e+002
536250000 -4.626756e-001 -1.463978e+002 -5.684243e+001 3.128759e+001 -5.480612e+001 2.559948e+001 -1.496764e-001 1.351701e+002
536875000 -4.660656e-001 -1.467188e+002 -5.583205e+001 2.384625e+001 -5.603345e+001 1.952407e+001 -1.633417e-001 1.351645e+002
537500000 -4.636905e-001 -1.470131e+002 -5.470808e+001 2.294360e+001 -5.590989e+001 1.887045e+001 -1.489669e-001 1.351525e+002
538125000 -4.696963e-001 -1.474100e+002 -5.570294e+001 2.118837e+001 -5.560313e+001 1.423491e+001 -1.612613e-001 1.351551e+002
538750000 -4.828048e-001 -1.477416e+002 -5.669387e+001 2.216034e+001 -5.545216e+001 1.644653e+001 -1.567189e-001 1.351171e+002
539375000 -4.967566e-001 -1.480869e+002 -5.489935e+001 2.667464e+001 -5.481306e+001 1.759847e+001 -1.521972e-001 1.350255e+002
540000000 -4.941148e-001 -1.484122e+002 -5.480002e+001 1.815199e+001 -5.606351e+001 1.678244e+001 -1.584223e-001 1.349943e+002
540625000 -5.121120e-001 -1.487812e+002 -5.477784e+001 1.923491e+001 -5.428461e+001 1.631488e+001 -1.588730e-001 1.349700e+002
541250000 -5.106834e-001 -1.491022e+002 -5.556532e+001 1.019786e+001 -5.467714e+001 1.532897e+001 -1.610349e-001 1.349687e+002
541875000 -5.218161e-001 -1.494543e+002 -5.507533e+001 1.332974e+001 -5.474905e+001 7.437873e+000 -1.635896e-001 1.348621e+002
542500000 -5.318207e-001 -1.497378e+002 -5.468024e+001 1.611387e+001 -5.501012e+001 1.602244e+001 -1.630190e-001 1.348279e+002
543125000 -5.275916e-001 -1.501434e+002 -5.483748e+001 1.013697e+001 -5.506713e+001 9.725904e+000 -1.554582e-001 1.347466e+002
543750000 -5.396375e-001 -1.505221e+002 -5.480294e+001 6.592484e+000 -5.426308e+001 6.468402e+000 -1.692002e-001 1.347213e+002
544375000 -5.552772e-001 -1.509031e+002 -5.463183e+001 5.304077e+000 -5.494799e+001 5.530477e+000 -1.619761e-001 1.346102e+002
545000000 -5.579759e-001 -1.512064e+002 -5.498927e+001 9.691301e+000 -5.369627e+001 3.937963e+000 -1.586550e-001 1.346038e+002
545625000 -5.678840e-001 -1.515694e+002 -5.487619e+001 2.609521e-001 -5.381979e+001 2.058963e-001 -1.749848e-001 1.344882e+002
546250000 -5.881115e-001 -1.519225e+002 -5.466086e+001 3.980740e+000 -5.463956e+001 1.577547e+000 -1.752450e-001 1.343929e+002
546875000 -5.984206e-001 -1.523033e+002 -5.433622e+001 1.187913e+001 -5.514997e+001 -4.007633e+000 -1.688035e-001 1.342892e+002
547500000 -6.154156e-001 -1.526558e+002 -5.471832e+001 7.778668e+000 -5.415787e+001 -2.219027e+000 -1.743022e-001 1.342280e+002
548125000 -6.287296e-001 -1.529565e+002 -5.334628e+001 -1.907878e+000 -5.452806e+001 -5.142954e+000 -1.704759e-001 1.340611e+002
548750000 -6.347157e-001 -1.533649e+002 -5.415783e+001 -1.450264e+000 -5.407694e+001 -7.410992e+000 -1.742318e-001 1.340478e+002
549375000 -6.520705e-001 -1.537225e+002 -5.391718e+001 -7.526827e+000 -5.402467e+001 -3.059978e+000 -1.768060e-001 1.338031e+002
550000000 -6.574528e-001 -1.539919e+002 -5.343702e+001 -7.741080e+000 -5.336115e+001 -1.343764e+001 -1.683397e-001 1.337942e+002
550625000 -6.779723e-001 -1.543249e+002 -5.382774e+001 -1.420871e+000 -5.385223e+001 -8.236887e+000 -1.686258e-001 1.337114e+002
551250000 -6.750935e-001 -1.546513e+002 -5.359438e+001 -1.001747e+001 -5.368507e+001 -1.643360e+001 -1.748999e-001 1.336086e+002
551875000 -6.924856e-001 -1.549773e+002 -5.284168e+001 -8.259869e+000 -5.378252e+001 -1.445729e+001 -1.621920e-001 1.335439e+002
552500000 -6.918457e-001 -1.553004e+002 -5.323431e+001 -1.216531e+001 -5.349984e+001 -1.416314e+001 -1.653742e-001 1.334242e+002
553125000 -6.902380e-001 -1.556607e+002 -5.323845e+001 -1.226353e+001 -5.390897e+001 -1.916616e+001 -1.525054e-001 1.334470e+002
553750000 -7.092792e-001 -1.559576e+002 -5.409530e+001 -1.025201e+001 -5.350360e+001 -2.237295e+001 -1.699161e-001 1.333874e+002
554375000 -7.088038e-001 -1.562783e+002 -5.439121e+001 -1.434225e+001 -5.367945e+001 -1.925972e+001 -1.573763e-001 1.333385e+002
555000000 -7.151356e-001 -1.567020e+002 -5.311775e+001 -2.374103e+001 -5.321081e+001 -1.654715e+001 -1.555419e-001 1.333365e+002
555625000 -7.310445e-001 -1.569940e+002 -5.428810e+001 -1.816796e+001 -5.314814e+001 -2.048953e+001 -1.514397e-001 1.333702e+002
556250000 -7.377586e-001 -1.573995e+002 -5.405288e+001 -1.866691e+001 -5.345731e+001 -2.144155e+001 -1.559193e-001 1.332617e+002
556875000 -7.483887e-001 -1.578091e+002 -5.303859e+001 -1.749191e+001 -5.273603e+001 -2.938561e+001 -1.606627e-001 1.333771e+002
557500000 -7.568624e-001 -1.581471e+002 -5.279734e+001 -2.869241e+001 -5.384922e+001 -3.080509e+001 -1.526083e-001 1.332910e+002
558125000 -7.714206e-001 -1.585263e+002 -5.356044e+001 -2.490365e+001 -5.346754e+001 -3.089127e+001 -1.722912e-001 1.332762e+002
558750000 -7.753954e-001 -1.588999e+002 -5.311165e+001 -2.906950e+001 -5.292810e+001 -2.838817e+001 -1.601940e-001 1.332456e+002
559375000 -7.929590e-001 -1.592800e+002 -5.318341e+001 -2.433199e+001 -5.279261e+001 -3.158187e+001 -1.563344e-001 1.332533e+002
560000000 -8.147933e-001 -1.596407e+002 -5.406274e+001 -2.950237e+001 -5.308934e+001 -2.721614e+001 -1.571954e-001 1.331474e+002
560625000 -8.218719e-001 -1.600163e+002 -5.318345e+001 -3.545514e+001 -5.326226e+001 -2.955575e+001 -1.580993e-001 1.332022e+002
561250000 -8.365132e-001 -1.604279e+002 -5.277077e+001 -2.833633e+001 -5.269007e+001 -3.520205e+001 -1.588184e-001 1.330765e+002
561875000 -8.472458e-001 -1.608219e+002 -5.336588e+001 -3.328076e+001 -5.338708e+001 -3.318958e+001 -1.647653e-001 1.330828e+002
562500000 -8.628450e-001 -1.612182e+002 -5.244035e+001 -3.340413e+001 -5.308234e+001 -3.894348e+001 -1.727131e-001 1.331111e+002
563125000 -8.676600e-001 -1.615207e+002 -5.305225e+001 -3.176458e+001 -5.192042e+001 -3.860943e+001 -1.671211e-001 1.329908e+002
563750000 -8.887479e-001 -1.619626e+002 -5.337050e+001 -3.144207e+001 -5.224257e+001 -4.417523e+001 -1.743825e-001 1.329103e+002
564375000 -9.018768e-001 -1.623015e+002 -5.207186e+001 -3.477826e+001 -5.225309e+001 -3.941264e+001 -1.718045e-001 1.328902e+002
565000000 -9.138983e-001 -1.627393e+002 -5.241468e+001 -3.140947e+001 -5.255598e+001 -3.815557e+001 -1.786076e-001 1.327574e+002
565625000 -9.313855e-001 -1.631278e+002 -5.319325e+001 -3.416559e+001 -5.210635e+001 -4.116877e+001 -1.795813e-001 1.326704e+002
566250000 -9.361974e-001 -1.635894e+002 -5.280523e+001 -3.947249e+001 -5.203731e+001 -4.279224e+001 -1.756476e-001 1.325426e+002
566875000 -9.599095e-001 -1.640012e+002 -5.186753e+001 -4.415650e+001 -5.217314e+001 -4.106278e+001 -1.809202e-001 1.324066e+002
567500000 -9.753875e-001 -1.644970e+002 -5.260048e+001 -4.465058e+001 -5.152962e+001 -4.628185e+001 -1.875936e-001 1.322992e+002
568125000 -1.002423e+000 -1.648823e+002 -5.225401e+001 -4.726810e+001 -5.151415e+001 -4.825375e+001 -1.857979e-001 1.321736e+002
568750000 -1.020548e+000 -1.652798e+002 -5.152224e+001 -4.391499e+001 -5.207514e+001 -4.578196e+001 -1.873408e-001 1.320445e+002
569375000 -1.043511e+000 -1.657346e+002 -5.223305e+001 -4.645963e+001 -5.161451e+001 -4.456904e+001 -1.965347e-001 1.319128e+002
570000000 -1.071238e+000 -1.662086e+002 -5.263960e+001 -4.663314e+001 -5.158687e+001 -5.177029e+001 -1.831198e-001 1.317072e+002
570625000 -1.083072e+000 -1.666045e+002 -5.103818e+001 -4.542121e+001 -5.134009e+001 -4.649379e+001 -1.789491e-001 1.316361e+002
571250000 -1.106584e+000 -1.670284e+002 -5.119163e+001 -5.137849e+001 -5.113318e+001 -4.900756e+001 -1.838259e-001 1.315668e+002
571875000 -1.137722e+000 -1.674128e+002 -5.117236e+001 -4.957213e+001 -5.102027e+001 -5.482485e+001 -1.712190e-001 1.314398e+002
572500000 -1.162538e+000 -1.678459e+002 -5.084454e+001 -5.050069e+001 -5.055919e+001 -5.264118e+001 -1.749640e-001 1.312771e+002
573125000 -1.189324e+000 -1.681985e+002 -5.164115e+001 -5.815449e+001 -5.085085e+001 -5.981970e+001 -1.685171e-001 1.312359e+002
573750000 -1.213337e+000 -1.685978e+002 -5.065216e+001 -5.605540e+001 -5.014013e+001 -5.404033e+001 -1.807360e-001 1.311270e+002
574375000 -1.243080e+000 -1.689277e+002 -5.007500e+001 -5.703104e+001 -5.006512e+001 -5.955323e+001 -1.692959e-001 1.311176e+002
575000000 -1.260734e+000 -1.693030e+002 -5.061949e+001 -6.238573e+001 -5.035552e+001 -6.160658e+001 -1.631071e-001 1.310632e+002
575625000 -1.284580e+000 -1.696536e+002 -5.046219e+001 -5.929697e+001 -5.023354e+001 -6.374396e+001 -1.652967e-001 1.310031e+002
576250000 -1.302191e+000 -1.700770e+002 -5.016240e+001 -6.426333e+001 -4.999817e+001 -6.623628e+001 -1.628411e-001 1.309352e+002
576875000 -1.314348e+000 -1.704317e+002 -5.108416e+001 -6.508075e+001 -5.034714e+001 -6.770323e+001 -1.604960e-001 1.309935e+002
577500000 -1.345234e+000 -1.708108e+002 -4.948916e+001 -6.438943e+001 -5.009507e+001 -6.632312e+001 -1.591483e-001 1.309227e+002
578125000 -1.371588e+000 -1.712251e+002 -5.077612e+001 -6.788619e+001 -5.018706e+001 -7.001295e+001 -1.462061e-001 1.309495e+002
578750000 -1.386801e+000 -1.715518e+002 -5.102785e+001 -6.870388e+001 -4.997497e+001 -7.168057e+001 -1.479271e-001 1.309683e+002
579375000 -1.403033e+000 -1.719081e+002 -5.072174e+001 -6.781091e+001 -4.981330e+001 -7.803588e+001 -1.502031e-001 1.309798e+002
580000000 -1.422278e+000 -1.722458e+002 -5.039822e+001 -7.625524e+001 -4.958314e+001 -7.714915e+001 -1.476404e-001 1.309927e+002
580625000 -1.442643e+000 -1.726115e+002 -4.974782e+001 -7.425949e+001 -4.909541e+001 -7.384563e+001 -1.565723e-001 1.310111e+002
581250000 -1.462460e+000 -1.729826e+002 -4.997918e+001 -7.456060e+001 -4.951407e+001 -8.081786e+001 -1.554395e-001 1.310341e+002
581875000 -1.485129e+000 -1.734119e+002 -4.975627e+001 -7.655566e+001 -4.899692e+001 -8.120818e+001 -1.583845e-001 1.310107e+002
582500000 -1.500412e+000 -1.738086e+002 -4.912457e+001 -8.055569e+001 -4.955108e+001 -7.974345e+001 -1.594425e-001 1.309457e+002
583125000 -1.512330e+000 -1.742992e+002 -4.964525e+001 -7.667414e+001 -4.883426e+001 -8.216585e+001 -1.737483e-001 1.308556e+002
583750000 -1.544815e+000 -1.747178e+002 -4.972676e+001 -7.725533e+001 -4.874580e+001 -8.404123e+001 -1.795706e-001 1.308461e+002
584375000 -1.568187e+000 -1.751350e+002 -4.925987e+001 -8.135172e+001 -4.869088e+001 -8.599148e+001 -1.771351e-001 1.307769e+002
585000000 -1.596541e+000 -1.756336e+002 -4.933580e+001 -8.513805e+001 -4.905513e+001 -8.683089e+001 -1.883920e-001 1.307039e+002
585625000 -1.643500e+000 -1.760288e+002 -4.987997e+001 -8.778200e+001 -4.868154e+001 -8.889375e+001 -1.806804e-001 1.306458e+002
586250000 -1.662092e+000 -1.764813e+002 -4.967070e+001 -8.965170e+001 -4.865622e+001 -9.061772e+001 -1.819452e-001 1.305984e+002
586875000 -1.698813e+000 -1.768441e+002 -4.968899e+001 -9.269566e+001 -4.874992e+001 -8.808814e+001 -1.835706e-001 1.303860e+002
587500000 -1.738710e+000 -1.772368e+002 -4.944614e+001 -8.831200e+001 -4.855353e+001 -9.152064e+001 -1.746615e-001 1.302691e+002
588125000 -1.757695e+000 -1.776104e+002 -4.908455e+001 -9.111205e+001 -4.889554e+001 -9.625446e+001 -1.826244e-001 1.301514e+002
588750000 -1.784209e+000 -1.779987e+002 -4.942443e+001 -9.515942e+001 -4.889128e+001 -9.546264e+001 -1.868747e-001 1.301038e+002
589375000 -1.803055e+000 -1.784328e+002 -4.900281e+001 -9.670135e+001 -4.848961e+001 -9.673008e+001 -1.737680e-001 1.299670e+002
590000000 -1.827492e+000 -1.789070e+002 -4.943117e+001 -9.432614e+001 -4.860173e+001 -9.691334e+001 -1.770628e-001 1.298849e+002
590625000 -1.849552e+000 -1.793448e+002 -4.889193e+001 -1.010338e+002 -4.882175e+001 -1.020375e+002 -1.710733e-001 1.297449e+002
591250000 -1.881581e+000 -1.798245e+002 -4.891939e+001 -9.978593e+001 -4.825142e+001 -1.053407e+002 -1.740009e-001 1.296849e+002
591875000 -1.917372e+000 1.797427e+002 -4.912885e+001 -9.760526e+001 -4.789353e+001 -1.000821e+002 -1.749098e-001 1.296753e+002
592500000 -1.950986e+000 1.792111e+002 -4.889367e+001 -1.013147e+002 -4.804607e+001 -1.042997e+002 -1.675815e-001 1.296831e+002
593125000 -1.981326e+000 1.787800e+002 -4.942637e+001 -1.029705e+002 -4.821247e+001 -1.094120e+002 -1.688728e-001 1.296745e+002
593750000 -2.026528e+000 1.782869e+002 -4.893434e+001 -1.043397e+002 -4.811239e+001 -1.085424e+002 -1.519448e-001 1.296838e+002
594375000 -2.061773e+000 1.778435e+002 -4.858977e+001 -1.067660e+002 -4.811745e+001 -1.089695e+002 -1.563874e-001 1.297346e+002
595000000 -2.106433e+000 1.774193e+002 -4.821511e+001 -1.048312e+002 -4.813502e+001 -1.097616e+002 -1.648268e-001 1.297612e+002
595625000 -2.161035e+000 1.769288e+002 -4.812875e+001 -1.092751e+002 -4.790473e+001 -1.118614e+002 -1.531126e-001 1.297691e+002
