!Agilent Technologies,E8364B,US42250235,A.06.04.32
!Agilent E8364B: A.06.04.32
!Date: Friday, January 15, 2021 12:13:24
!Correction: S11(Full 2 Port(1,2)) S21(Full 2 Port(1,2)) S12(Full 2 Port(1,2)) S22(Full 2 Port(1,2)) 
!S2P File: Measurements: S11, S21, S12, S22:
# Hz S  dB   R 50
500000000 -1.231556e-001 -1.289041e+002 -5.997282e+001 -1.504547e+002 -6.210728e+001 -1.438165e+002 -1.247953e-001 1.388259e+002
500625000 -1.223685e-001 -1.290981e+002 -6.048492e+001 -1.423217e+002 -6.131693e+001 -1.496039e+002 -1.283692e-001 1.387934e+002
501250000 -1.360637e-001 -1.294052e+002 -6.022791e+001 -1.459559e+002 -5.981931e+001 -1.458913e+002 -1.200339e-001 1.386951e+002
501875000 -1.294768e-001 -1.296610e+002 -5.931890e+001 -1.577631e+002 -6.163263e+001 -1.472753e+002 -1.255465e-001 1.386943e+002
502500000 -1.288051e-001 -1.299465e+002 -6.291703e+001 -1.674308e+002 -6.070925e+001 -1.692036e+002 -1.154770e-001 1.386968e+002
503125000 -1.441130e-001 -1.302056e+002 -6.084989e+001 -1.590004e+002 -6.066616e+001 -1.760133e+002 -1.193139e-001 1.385190e+002
503750000 -1.401207e-001 -1.304658e+002 -6.183853e+001 -1.587093e+002 -6.112759e+001 -1.619934e+002 -1.224057e-001 1.384933e+002
504375000 -1.519819e-001 -1.307793e+002 -6.137634e+001 -1.735150e+002 -6.191759e+001 -1.557622e+002 -1.328113e-001 1.384375e+002
505000000 -1.499999e-001 -1.310592e+002 -5.856221e+001 -1.552032e+002 -5.862184e+001 -1.532454e+002 -1.274512e-001 1.384267e+002
505625000 -1.506307e-001 -1.313257e+002 -6.010490e+001 -1.598471e+002 -5.857446e+001 -1.614694e+002 -1.271403e-001 1.383347e+002
506250000 -1.547701e-001 -1.316485e+002 -5.958124e+001 -1.642788e+002 -5.935556e+001 -1.643672e+002 -1.294328e-001 1.382683e+002
506875000 -1.596845e-001 -1.319597e+002 -6.030929e+001 -1.746591e+002 -5.993213e+001 -1.704418e+002 -1.250972e-001 1.381786e+002
507500000 -1.658505e-001 -1.322132e+002 -5.988944e+001 -1.666541e+002 -6.036277e+001 -1.621908e+002 -1.273378e-001 1.381397e+002
508125000 -1.641798e-001 -1.325243e+002 -5.899459e+001 -1.679378e+002 -6.127099e+001 -1.610094e+002 -1.296461e-001 1.380781e+002
508750000 -1.766087e-001 -1.327382e+002 -5.924720e+001 1.730651e+002 -6.030865e+001 -1.739758e+002 -1.222405e-001 1.380722e+002
509375000 -1.790470e-001 -1.331470e+002 -5.898244e+001 -1.683951e+002 -5.901035e+001 -1.696918e+002 -1.189307e-001 1.380294e+002
510000000 -1.733224e-001 -1.333970e+002 -6.020783e+001 -1.627537e+002 -6.059506e+001 -1.692308e+002 -1.205458e-001 1.379095e+002
510625000 -1.833809e-001 -1.336699e+002 -5.841708e+001 -1.696889e+002 -5.956658e+001 -1.738589e+002 -1.151083e-001 1.379533e+002
511250000 -1.792725e-001 -1.339644e+002 -5.943093e+001 -1.705692e+002 -5.984660e+001 -1.653418e+002 -1.250529e-001 1.378609e+002
511875000 -1.837123e-001 -1.342746e+002 -6.321180e+001 -1.730918e+002 -6.061763e+001 -1.742952e+002 -1.155530e-001 1.378305e+002
512500000 -1.791396e-001 -1.345460e+002 -6.072638e+001 -1.736290e+002 -5.871087e+001 -1.682751e+002 -1.180968e-001 1.377631e+002
513125000 -1.881233e-001 -1.348356e+002 -6.002430e+001 -1.723706e+002 -5.880423e+001 -1.682840e+002 -1.261831e-001 1.377501e+002
513750000 -1.845799e-001 -1.350972e+002 -6.133375e+001 -1.695146e+002 -5.981603e+001 1.764675e+002 -1.303426e-001 1.376665e+002
514375000 -1.946259e-001 -1.354368e+002 -5.912772e+001 -1.759286e+002 -5.939989e+001 -1.760437e+002 -1.258746e-001 1.375382e+002
515000000 -1.888747e-001 -1.356983e+002 -5.876139e+001 -1.775697e+002 -5.886562e+001 1.753409e+002 -1.281933e-001 1.374665e+002
515625000 -1.929542e-001 -1.360882e+002 -5.772866e+001 1.784418e+002 -5.954390e+001 1.718850e+002 -1.235703e-001 1.374372e+002
516250000 -2.053928e-001 -1.363720e+002 -6.052004e+001 -1.747451e+002 -5.972321e+001 1.787706e+002 -1.393106e-001 1.372906e+002
516875000 -2.072571e-001 -1.366549e+002 -6.095779e+001 -1.702673e+002 -6.114543e+001 -1.752701e+002 -1.297593e-001 1.372271e+002
517500000 -2.069405e-001 -1.370104e+002 -5.854495e+001 1.791736e+002 -6.059330e+001 1.789500e+002 -1.409809e-001 1.371178e+002
518125000 -2.060516e-001 -1.372837e+002 -5.933568e+001 1.791954e+002 -5.898677e+001 -1.723157e+002 -1.390072e-001 1.369935e+002
518750000 -2.169764e-001 -1.376012e+002 -5.813500e+001 1.693195e+002 -5.875677e+001 -1.770802e+002 -1.420657e-001 1.369431e+002
519375000 -2.220410e-001 -1.378345e+002 -5.737458e+001 1.778681e+002 -5.771061e+001 1.666911e+002 -1.401076e-001 1.367842e+002
520000000 -2.234619e-001 -1.382016e+002 -5.806464e+001 1.666429e+002 -5.854932e+001 1.763231e+002 -1.382730e-001 1.366393e+002
520625000 -2.292319e-001 -1.385026e+002 -6.109408e+001 1.707868e+002 -6.006153e+001 1.763234e+002 -1.299216e-001 1.365010e+002
521250000 -2.343351e-001 -1.388155e+002 -5.781931e+001 1.690942e+002 -5.947658e+001 1.732821e+002 -1.363719e-001 1.364171e+002
521875000 -2.329464e-001 -1.391796e+002 -5.728313e+001 1.683474e+002 -5.877074e+001 1.682424e+002 -1.248512e-001 1.363832e+002
522500000 -2.334765e-001 -1.394722e+002 -5.703664e+001 1.648133e+002 -5.745843e+001 1.758102e+002 -1.283848e-001 1.362533e+002
523125000 -2.462071e-001 -1.398280e+002 -5.717492e+001 1.723448e+002 -5.845507e+001 1.714998e+002 -1.272507e-001 1.362406e+002
523750000 -2.435388e-001 -1.401501e+002 -5.859147e+001 1.660275e+002 -5.778852e+001 1.734422e+002 -1.272261e-001 1.361962e+002
524375000 -2.597023e-001 -1.404475e+002 -5.681078e+001 1.693226e+002 -5.863007e+001 -1.791844e+002 -1.131291e-001 1.361162e+002
525000000 -2.594379e-001 -1.408346e+002 -5.617829e+001 1.713285e+002 -5.865071e+001 1.675188e+002 -1.155959e-001 1.361812e+002
525625000 -2.711653e-001 -1.410461e+002 -5.727021e+001 1.790169e+002 -6.043406e+001 1.736262e+002 -1.192628e-001 1.361322e+002
526250000 -2.696135e-001 -1.414222e+002 -5.833638e+001 1.673487e+002 -5.814468e+001 1.733957e+002 -1.170135e-001 1.360707e+002
526875000 -2.756641e-001 -1.417858e+002 -5.633769e+001 1.598661e+002 -5.757660e+001 1.662695e+002 -1.064338e-001 1.361039e+002
527500000 -2.823180e-001 -1.421022e+002 -5.682740e+001 1.657010e+002 -5.960468e+001 1.768998e+002 -1.175722e-001 1.361105e+002
528125000 -3.046117e-001 -1.424450e+002 -5.734792e+001 1.623219e+002 -5.769239e+001 1.586319e+002 -1.224478e-001 1.361280e+002
528750000 -3.072470e-001 -1.427631e+002 -5.778354e+001 1.709124e+002 -5.847718e+001 1.680876e+002 -1.207637e-001 1.362293e+002
529375000 -3.179057e-001 -1.430522e+002 -5.641446e+001 1.730793e+002 -5.593604e+001 1.651354e+002 -1.169674e-001 1.361353e+002
530000000 -3.283837e-001 -1.434455e+002 -5.572705e+001 1.656098e+002 -5.605454e+001 1.649352e+002 -1.257201e-001 1.361552e+002
530625000 -3.388707e-001 -1.437589e+002 -5.671367e+001 1.602230e+002 -5.723019e+001 1.548487e+002 -1.256954e-001 1.361096e+002
531250000 -3.390439e-001 -1.440586e+002 -5.614281e+001 1.526951e+002 -5.573330e+001 1.593819e+002 -1.119397e-001 1.360548e+002
531875000 -3.639860e-001 -1.443548e+002 -5.547264e+001 1.596000e+002 -5.660531e+001 1.573104e+002 -1.161319e-001 1.360103e+002
532500000 -3.614821e-001 -1.446627e+002 -5.593961e+001 1.542584e+002 -5.574663e+001 1.574628e+002 -1.293378e-001 1.359952e+002
533125000 -3.727279e-001 -1.449849e+002 -5.517063e+001 1.587710e+002 -5.649204e+001 1.605342e+002 -1.274096e-001 1.358950e+002
533750000 -3.709860e-001 -1.452777e+002 -5.593696e+001 1.488680e+002 -5.644633e+001 1.576515e+002 -1.448263e-001 1.358453e+002
534375000 -3.748431e-001 -1.456254e+002 -5.693418e+001 1.570307e+002 -5.696654e+001 1.527831e+002 -1.332041e-001 1.357904e+002
535000000 -3.797576e-001 -1.459570e+002 -5.521552e+001 1.468692e+002 -5.643193e+001 1.496893e+002 -1.323438e-001 1.357126e+002
535625000 -3.793041e-001 -1.463177e+002 -5.584016e+001 1.550206e+002 -5.650823e+001 1.464834e+002 -1.257482e-001 1.356646e+002
536250000 -3.873554e-001 -1.466645e+002 -5.555797e+001 1.495863e+002 -5.618419e+001 1.465243e+002 -1.272421e-001 1.355501e+002
536875000 -3.961329e-001 -1.470032e+002 -5.479734e+001 1.455351e+002 -5.606205e+001 1.414784e+002 -1.319528e-001 1.355722e+002
537500000 -4.003269e-001 -1.473167e+002 -5.532727e+001 1.500504e+002 -5.597198e+001 1.482798e+002 -1.257479e-001 1.355372e+002
538125000 -4.054857e-001 -1.477397e+002 -5.532946e+001 1.396309e+002 -5.661007e+001 1.468757e+002 -1.325352e-001 1.354915e+002
538750000 -4.206166e-001 -1.480871e+002 -5.608205e+001 1.511154e+002 -5.632978e+001 1.440658e+002 -1.266882e-001 1.354158e+002
539375000 -4.301854e-001 -1.484380e+002 -5.640196e+001 1.482792e+002 -5.600943e+001 1.458010e+002 -1.259836e-001 1.354684e+002
540000000 -4.347004e-001 -1.487724e+002 -5.476868e+001 1.421370e+002 -5.570675e+001 1.419323e+002 -1.293090e-001 1.353704e+002
540625000 -4.430175e-001 -1.491669e+002 -5.640126e+001 1.460082e+002 -5.519883e+001 1.421652e+002 -1.253508e-001 1.353285e+002
541250000 -4.541576e-001 -1.495074e+002 -5.428651e+001 1.431370e+002 -5.520797e+001 1.398741e+002 -1.279582e-001 1.352988e+002
541875000 -4.589857e-001 -1.498561e+002 -5.539386e+001 1.380236e+002 -5.552620e+001 1.395434e+002 -1.341174e-001 1.351898e+002
542500000 -4.727023e-001 -1.502213e+002 -5.655913e+001 1.343493e+002 -5.637630e+001 1.351893e+002 -1.253811e-001 1.351857e+002
543125000 -4.759243e-001 -1.506100e+002 -5.463330e+001 1.323073e+002 -5.585382e+001 1.328455e+002 -1.256762e-001 1.350675e+002
543750000 -4.909241e-001 -1.509433e+002 -5.700223e+001 1.375933e+002 -5.570360e+001 1.353389e+002 -1.367942e-001 1.350657e+002
544375000 -4.983225e-001 -1.513341e+002 -5.632817e+001 1.363432e+002 -5.564347e+001 1.298922e+002 -1.343922e-001 1.349913e+002
545000000 -4.978423e-001 -1.516795e+002 -5.589334e+001 1.275774e+002 -5.490637e+001 1.395788e+002 -1.332918e-001 1.349471e+002
545625000 -5.042698e-001 -1.520486e+002 -5.527920e+001 1.307264e+002 -5.543104e+001 1.316344e+002 -1.382988e-001 1.348701e+002
546250000 -5.249422e-001 -1.524689e+002 -5.566679e+001 1.241249e+002 -5.522623e+001 1.270126e+002 -1.446987e-001 1.347405e+002
546875000 -5.254723e-001 -1.528903e+002 -5.483553e+001 1.397207e+002 -5.471731e+001 1.187756e+002 -1.460752e-001 1.347095e+002
547500000 -5.453008e-001 -1.532928e+002 -5.425539e+001 1.283636e+002 -5.430602e+001 1.281199e+002 -1.463768e-001 1.346117e+002
548125000 -5.599108e-001 -1.536391e+002 -5.517766e+001 1.287839e+002 -5.523893e+001 1.294131e+002 -1.338201e-001 1.344370e+002
548750000 -5.736327e-001 -1.540838e+002 -5.514721e+001 1.281342e+002 -5.526168e+001 1.279601e+002 -1.500587e-001 1.344008e+002
549375000 -5.891517e-001 -1.544744e+002 -5.509600e+001 1.296586e+002 -5.468367e+001 1.290899e+002 -1.429908e-001 1.341873e+002
550000000 -5.972773e-001 -1.548424e+002 -5.402108e+001 1.281967e+002 -5.574516e+001 1.276556e+002 -1.472541e-001 1.341818e+002
550625000 -6.185200e-001 -1.552526e+002 -5.424438e+001 1.237049e+002 -5.476290e+001 1.250428e+002 -1.376350e-001 1.340949e+002
551250000 -6.291945e-001 -1.556180e+002 -5.354893e+001 1.240046e+002 -5.398585e+001 1.185058e+002 -1.373132e-001 1.340383e+002
551875000 -6.510544e-001 -1.560073e+002 -5.342847e+001 1.244937e+002 -5.464202e+001 1.246526e+002 -1.378226e-001 1.338925e+002
552500000 -6.642219e-001 -1.564273e+002 -5.447654e+001 1.171323e+002 -5.389943e+001 1.287835e+002 -1.312803e-001 1.338624e+002
553125000 -6.726670e-001 -1.567722e+002 -5.417107e+001 1.228679e+002 -5.387735e+001 1.163084e+002 -1.293324e-001 1.338375e+002
553750000 -7.009065e-001 -1.571717e+002 -5.372143e+001 1.201404e+002 -5.345378e+001 1.196906e+002 -1.336959e-001 1.337590e+002
554375000 -7.143827e-001 -1.574601e+002 -5.263053e+001 1.150458e+002 -5.384912e+001 1.202513e+002 -1.360866e-001 1.337281e+002
555000000 -7.348681e-001 -1.578343e+002 -5.320131e+001 1.142916e+002 -5.355286e+001 1.197875e+002 -1.375829e-001 1.337179e+002
555625000 -7.621074e-001 -1.581747e+002 -5.314495e+001 1.126527e+002 -5.345942e+001 1.138597e+002 -1.258714e-001 1.337377e+002
556250000 -7.770371e-001 -1.585624e+002 -5.337831e+001 1.131126e+002 -5.390627e+001 1.110633e+002 -1.306998e-001 1.336458e+002
556875000 -7.948114e-001 -1.589657e+002 -5.336943e+001 1.068702e+002 -5.303925e+001 1.153267e+002 -1.370362e-001 1.336665e+002
557500000 -8.154781e-001 -1.593131e+002 -5.324024e+001 1.144500e+002 -5.242803e+001 1.132592e+002 -1.254599e-001 1.336530e+002
558125000 -8.346604e-001 -1.596630e+002 -5.297184e+001 1.120770e+002 -5.300069e+001 1.117647e+002 -1.400312e-001 1.336294e+002
558750000 -8.523102e-001 -1.600310e+002 -5.277315e+001 1.032035e+002 -5.295093e+001 1.143309e+002 -1.320376e-001 1.336114e+002
559375000 -8.872194e-001 -1.603961e+002 -5.144954e+001 1.050392e+002 -5.261827e+001 1.122274e+002 -1.329302e-001 1.336319e+002
560000000 -9.127938e-001 -1.607034e+002 -5.259274e+001 1.041525e+002 -5.155325e+001 1.029025e+002 -1.228228e-001 1.335068e+002
560625000 -9.270512e-001 -1.610294e+002 -5.271257e+001 1.025082e+002 -5.273355e+001 1.043512e+002 -1.273553e-001 1.335119e+002
561250000 -9.509747e-001 -1.613484e+002 -5.178022e+001 1.056194e+002 -5.275229e+001 1.047034e+002 -1.344741e-001 1.334845e+002
561875000 -9.608861e-001 -1.616529e+002 -5.246743e+001 1.052540e+002 -5.202803e+001 1.020547e+002 -1.446984e-001 1.334164e+002
562500000 -9.830120e-001 -1.620255e+002 -5.194224e+001 1.019894e+002 -5.203303e+001 1.040947e+002 -1.368106e-001 1.334317e+002
563125000 -9.899516e-001 -1.623005e+002 -5.218866e+001 1.005231e+002 -5.203426e+001 9.915966e+001 -1.329096e-001 1.333371e+002
563750000 -1.014426e+000 -1.627077e+002 -5.152470e+001 9.920715e+001 -5.180854e+001 1.015333e+002 -1.429374e-001 1.332605e+002
564375000 -1.029815e+000 -1.630568e+002 -5.180701e+001 9.985361e+001 -5.141740e+001 9.553889e+001 -1.430150e-001 1.332287e+002
565000000 -1.044052e+000 -1.634266e+002 -5.188133e+001 9.292225e+001 -5.223866e+001 9.514812e+001 -1.436672e-001 1.331155e+002
565625000 -1.054736e+000 -1.637677e+002 -5.112057e+001 9.406094e+001 -5.137945e+001 9.598041e+001 -1.503954e-001 1.330163e+002
566250000 -1.069054e+000 -1.642051e+002 -5.126176e+001 8.894370e+001 -5.137676e+001 9.406206e+001 -1.498303e-001 1.329501e+002
566875000 -1.098290e+000 -1.646389e+002 -5.201657e+001 9.085341e+001 -5.120102e+001 9.117552e+001 -1.548178e-001 1.327818e+002
567500000 -1.111314e+000 -1.651019e+002 -5.162565e+001 9.154861e+001 -5.086517e+001 9.472758e+001 -1.470986e-001 1.326834e+002
568125000 -1.139565e+000 -1.654622e+002 -5.169718e+001 8.261495e+001 -5.101992e+001 8.937290e+001 -1.543989e-001 1.325759e+002
568750000 -1.167876e+000 -1.659003e+002 -5.117392e+001 8.802399e+001 -5.130639e+001 9.089836e+001 -1.621587e-001 1.324405e+002
569375000 -1.188662e+000 -1.662857e+002 -5.168443e+001 8.216782e+001 -5.096346e+001 8.801531e+001 -1.501207e-001 1.323580e+002
570000000 -1.209742e+000 -1.666951e+002 -5.054575e+001 8.378016e+001 -5.085113e+001 8.339462e+001 -1.484472e-001 1.321694e+002
570625000 -1.231386e+000 -1.670843e+002 -5.081305e+001 8.427824e+001 -5.120890e+001 8.702366e+001 -1.457979e-001 1.320661e+002
571250000 -1.258230e+000 -1.674954e+002 -5.072083e+001 8.405985e+001 -5.134093e+001 8.421449e+001 -1.481727e-001 1.319721e+002
571875000 -1.285805e+000 -1.679208e+002 -5.010991e+001 7.842075e+001 -5.107213e+001 8.487169e+001 -1.381953e-001 1.318529e+002
572500000 -1.317109e+000 -1.683112e+002 -5.085325e+001 8.262132e+001 -5.102049e+001 8.221040e+001 -1.472999e-001 1.317107e+002
573125000 -1.344879e+000 -1.686811e+002 -5.051586e+001 7.844897e+001 -5.063852e+001 7.978309e+001 -1.343174e-001 1.317243e+002
573750000 -1.368935e+000 -1.690809e+002 -5.082931e+001 7.834876e+001 -5.085050e+001 7.952190e+001 -1.483147e-001 1.315204e+002
574375000 -1.398172e+000 -1.695053e+002 -5.047589e+001 7.897444e+001 -5.099751e+001 7.745542e+001 -1.388407e-001 1.315101e+002
575000000 -1.434195e+000 -1.698763e+002 -5.053608e+001 8.058058e+001 -5.093645e+001 7.462818e+001 -1.406801e-001 1.314795e+002
575625000 -1.461738e+000 -1.702783e+002 -5.044111e+001 7.350748e+001 -4.989973e+001 7.621445e+001 -1.388060e-001 1.314195e+002
576250000 -1.490463e+000 -1.705995e+002 -5.010054e+001 7.502654e+001 -5.013027e+001 7.701105e+001 -1.444392e-001 1.313877e+002
576875000 -1.529419e+000 -1.709575e+002 -5.011439e+001 7.304604e+001 -4.987882e+001 7.435568e+001 -1.283840e-001 1.314047e+002
577500000 -1.568119e+000 -1.712815e+002 -4.969438e+001 7.289964e+001 -4.939717e+001 7.309556e+001 -1.240822e-001 1.313244e+002
578125000 -1.596718e+000 -1.716296e+002 -4.961637e+001 7.333097e+001 -4.935046e+001 7.251376e+001 -1.268708e-001 1.313877e+002
578750000 -1.626244e+000 -1.718975e+002 -4.897234e+001 7.250935e+001 -4.966746e+001 6.707158e+001 -1.285262e-001 1.313498e+002
579375000 -1.648698e+000 -1.722270e+002 -4.912644e+001 6.868443e+001 -4.902258e+001 6.960543e+001 -1.229063e-001 1.313083e+002
580000000 -1.680718e+000 -1.725047e+002 -4.945683e+001 6.128485e+001 -4.930001e+001 6.192577e+001 -1.223349e-001 1.313633e+002
580625000 -1.715888e+000 -1.728203e+002 -4.920193e+001 6.449474e+001 -4.918267e+001 6.419272e+001 -1.240955e-001 1.313668e+002
581250000 -1.751345e+000 -1.731119e+002 -4.916019e+001 6.580399e+001 -4.918347e+001 6.470885e+001 -1.233285e-001 1.313237e+002
581875000 -1.784750e+000 -1.734048e+002 -4.928569e+001 6.167562e+001 -4.856874e+001 6.094638e+001 -1.300069e-001 1.314013e+002
582500000 -1.817210e+000 -1.736252e+002 -4.902966e+001 5.948041e+001 -4.876099e+001 5.892974e+001 -1.316505e-001 1.313867e+002
583125000 -1.837023e+000 -1.739457e+002 -4.919646e+001 5.637925e+001 -4.871077e+001 5.763307e+001 -1.370817e-001 1.312582e+002
583750000 -1.872248e+000 -1.741706e+002 -4.891016e+001 5.556202e+001 -4.874960e+001 5.854293e+001 -1.573732e-001 1.312580e+002
584375000 -1.890621e+000 -1.745150e+002 -4.886724e+001 5.531008e+001 -4.847078e+001 5.236811e+001 -1.396203e-001 1.311590e+002
585000000 -1.907915e+000 -1.747648e+002 -4.850459e+001 5.392254e+001 -4.828167e+001 5.292226e+001 -1.461429e-001 1.311172e+002
585625000 -1.953032e+000 -1.750662e+002 -4.869418e+001 5.230903e+001 -4.845821e+001 5.465063e+001 -1.471167e-001 1.310009e+002
586250000 -1.961308e+000 -1.753516e+002 -4.812054e+001 5.195681e+001 -4.834100e+001 4.676538e+001 -1.441750e-001 1.309736e+002
586875000 -1.979072e+000 -1.756915e+002 -4.883543e+001 4.684853e+001 -4.842250e+001 4.963715e+001 -1.532309e-001 1.308178e+002
587500000 -2.010288e+000 -1.759771e+002 -4.878321e+001 4.403358e+001 -4.839463e+001 5.257217e+001 -1.470339e-001 1.306903e+002
588125000 -2.020905e+000 -1.762477e+002 -4.861646e+001 4.501440e+001 -4.859154e+001 4.794991e+001 -1.596703e-001 1.305612e+002
588750000 -2.037544e+000 -1.765277e+002 -4.826385e+001 4.415223e+001 -4.850449e+001 4.345021e+001 -1.604184e-001 1.304819e+002
589375000 -2.048046e+000 -1.768420e+002 -4.820691e+001 4.322500e+001 -4.839222e+001 4.279947e+001 -1.431755e-001 1.303402e+002
590000000 -2.059607e+000 -1.772629e+002 -4.847816e+001 4.473104e+001 -4.841436e+001 4.006442e+001 -1.494243e-001 1.303049e+002
590625000 -2.071132e+000 -1.776180e+002 -4.807862e+001 4.065236e+001 -4.814047e+001 4.208490e+001 -1.469511e-001 1.302020e+002
591250000 -2.086082e+000 -1.780123e+002 -4.838725e+001 3.810760e+001 -4.790990e+001 3.913749e+001 -1.454352e-001 1.301061e+002
591875000 -2.114333e+000 -1.784152e+002 -4.849071e+001 3.765289e+001 -4.820755e+001 4.115328e+001 -1.442780e-001 1.300423e+002
592500000 -2.136605e+000 -1.788399e+002 -4.814219e+001 3.346460e+001 -4.829123e+001 3.957182e+001 -1.399634e-001 1.301242e+002
593125000 -2.174904e+000 -1.792057e+002 -4.807076e+001 3.319065e+001 -4.781396e+001 3.751159e+001 -1.404793e-001 1.301010e+002
593750000 -2.208136e+000 -1.796075e+002 -4.787902e+001 3.431976e+001 -4.788380e+001 3.666639e+001 -1.272813e-001 1.301325e+002
594375000 -2.227992e+000 -1.798327e+002 -4.791985e+001 3.225790e+001 -4.784312e+001 3.569696e+001 -1.182411e-001 1.301515e+002
595000000 -2.251933e+000 1.798114e+002 -4.784552e+001 3.146086e+001 -4.764919e+001 3.313264e+001 -1.332101e-001 1.301671e+002
595625000 -2.271003e+000 1.794390e+002 -4.771347e+001 2.926337e+001 -4.797923e+001 3.192358e+001 -1.251475e-001 1.301760e+002
