!Agilent Technologies,E8364B,US42250235,A.06.04.32
!Agilent E8364B: A.06.04.32
!Date: Friday, January 15, 2021 12:03:51
!Correction: S11(Full 2 Port(1,2)) S21(Full 2 Port(1,2)) S12(Full 2 Port(1,2)) S22(Full 2 Port(1,2)) 
!S2P File: Measurements: S11, S21, S12, S22:
# Hz S  dB   R 50
500000000 -1.235461e-001 -1.289159e+002 -6.127863e+001 3.197278e+000 -6.000061e+001 4.714102e+000 -1.203410e-001 1.386375e+002
500625000 -1.291565e-001 -1.291758e+002 -6.273891e+001 -9.035105e+000 -5.984107e+001 -4.098205e-003 -1.179541e-001 1.386771e+002
501250000 -1.363837e-001 -1.294190e+002 -6.147532e+001 -4.632082e+000 -5.994705e+001 -8.505683e+000 -1.147325e-001 1.386377e+002
501875000 -1.367433e-001 -1.296763e+002 -5.895424e+001 -3.622719e+000 -5.845970e+001 -2.367273e+001 -1.149592e-001 1.386423e+002
502500000 -1.366847e-001 -1.300054e+002 -6.047993e+001 -2.635828e+000 -5.979557e+001 -9.864038e+000 -1.085466e-001 1.386703e+002
503125000 -1.474914e-001 -1.303122e+002 -6.041230e+001 -1.280125e+001 -5.961257e+001 -1.345959e+001 -1.191268e-001 1.385946e+002
503750000 -1.527127e-001 -1.305918e+002 -6.181107e+001 -9.132594e+000 -6.084966e+001 -4.291514e+000 -1.243722e-001 1.384762e+002
504375000 -1.572701e-001 -1.308350e+002 -6.042059e+001 -2.405503e+001 -6.041227e+001 -1.254614e+001 -1.359945e-001 1.385208e+002
505000000 -1.553046e-001 -1.311537e+002 -5.956459e+001 -7.310056e+000 -6.055860e+001 -2.030953e+001 -1.339574e-001 1.384729e+002
505625000 -1.585911e-001 -1.313952e+002 -6.174873e+001 -1.755051e+001 -6.205679e+001 -1.389495e+001 -1.300265e-001 1.383689e+002
506250000 -1.706544e-001 -1.317168e+002 -6.052663e+001 -2.884468e+001 -5.945950e+001 -2.868003e+001 -1.447174e-001 1.382837e+002
506875000 -1.666342e-001 -1.320418e+002 -6.008907e+001 -2.332954e+001 -5.903473e+001 -2.230155e+001 -1.340854e-001 1.381481e+002
507500000 -1.781861e-001 -1.322993e+002 -5.833604e+001 -1.518960e+001 -6.009108e+001 -2.710680e+001 -1.359951e-001 1.380377e+002
508125000 -1.771645e-001 -1.325887e+002 -5.860433e+001 -1.451912e+001 -5.893980e+001 -2.663351e+001 -1.370361e-001 1.379753e+002
508750000 -1.865044e-001 -1.328065e+002 -6.014599e+001 -2.091289e+001 -5.836738e+001 -3.006172e+001 -1.415196e-001 1.378742e+002
509375000 -1.953558e-001 -1.331560e+002 -5.722679e+001 -1.432856e+001 -5.848591e+001 -2.981076e+001 -1.366436e-001 1.378063e+002
510000000 -1.886569e-001 -1.334333e+002 -5.827386e+001 -2.311674e+001 -5.907553e+001 -2.954342e+001 -1.401641e-001 1.377350e+002
510625000 -1.944380e-001 -1.337215e+002 -5.939758e+001 -3.228921e+001 -6.005574e+001 -2.212857e+001 -1.273795e-001 1.377046e+002
511250000 -2.084223e-001 -1.339528e+002 -5.860344e+001 -3.265945e+001 -5.908921e+001 -2.834200e+001 -1.369775e-001 1.375302e+002
511875000 -2.021900e-001 -1.342562e+002 -5.903443e+001 -3.376494e+001 -5.925196e+001 -2.689958e+001 -1.295911e-001 1.374758e+002
512500000 -2.031646e-001 -1.345187e+002 -5.900381e+001 -2.794956e+001 -5.994035e+001 -2.684081e+001 -1.338045e-001 1.374340e+002
513125000 -2.114085e-001 -1.347881e+002 -5.934095e+001 -2.746588e+001 -5.912016e+001 -4.134446e+001 -1.276698e-001 1.374062e+002
513750000 -2.224239e-001 -1.350748e+002 -5.779500e+001 -2.964623e+001 -5.948417e+001 -4.593917e+001 -1.354765e-001 1.373318e+002
514375000 -2.192662e-001 -1.353525e+002 -5.891844e+001 -4.131710e+001 -6.012743e+001 -3.481906e+001 -1.330041e-001 1.372428e+002
515000000 -2.205116e-001 -1.356662e+002 -5.794783e+001 -3.090193e+001 -5.965574e+001 -2.732978e+001 -1.265389e-001 1.372025e+002
515625000 -2.276366e-001 -1.359645e+002 -5.842349e+001 -4.081836e+001 -5.872583e+001 -2.920443e+001 -1.280850e-001 1.371480e+002
516250000 -2.255983e-001 -1.362093e+002 -5.915181e+001 -2.760017e+001 -5.871916e+001 -3.979042e+001 -1.384452e-001 1.370762e+002
516875000 -2.364542e-001 -1.364706e+002 -5.892075e+001 -2.680078e+001 -5.740169e+001 -4.772915e+001 -1.252567e-001 1.370556e+002
517500000 -2.378165e-001 -1.368002e+002 -5.878785e+001 -3.825092e+001 -5.946390e+001 -4.956089e+001 -1.381572e-001 1.369902e+002
518125000 -2.331367e-001 -1.371191e+002 -6.115907e+001 -4.123172e+001 -5.860477e+001 -4.520013e+001 -1.394603e-001 1.368999e+002
518750000 -2.393311e-001 -1.374164e+002 -5.922604e+001 -4.588148e+001 -6.112474e+001 -3.958856e+001 -1.300076e-001 1.368855e+002
519375000 -2.506793e-001 -1.376611e+002 -5.756804e+001 -4.965339e+001 -6.066771e+001 -4.921909e+001 -1.319137e-001 1.367986e+002
520000000 -2.493291e-001 -1.380192e+002 -5.844907e+001 -5.181568e+001 -5.940853e+001 -3.472092e+001 -1.345209e-001 1.366897e+002
520625000 -2.514154e-001 -1.383254e+002 -5.913064e+001 -4.645264e+001 -5.996775e+001 -3.862148e+001 -1.359058e-001 1.365799e+002
521250000 -2.545317e-001 -1.386355e+002 -5.888757e+001 -5.235816e+001 -6.026511e+001 -3.856817e+001 -1.409965e-001 1.365109e+002
521875000 -2.547573e-001 -1.389742e+002 -5.870185e+001 -4.410744e+001 -5.843996e+001 -4.334935e+001 -1.333245e-001 1.364813e+002
522500000 -2.518586e-001 -1.392728e+002 -5.857785e+001 -4.970316e+001 -5.814549e+001 -4.244102e+001 -1.314904e-001 1.363421e+002
523125000 -2.653281e-001 -1.395977e+002 -5.836541e+001 -5.102442e+001 -5.901877e+001 -3.675094e+001 -1.366225e-001 1.362981e+002
523750000 -2.573878e-001 -1.399042e+002 -5.829939e+001 -4.481789e+001 -5.869771e+001 -4.476187e+001 -1.293366e-001 1.362358e+002
524375000 -2.732652e-001 -1.402657e+002 -5.758941e+001 -4.931009e+001 -5.843527e+001 -4.554702e+001 -1.272142e-001 1.361154e+002
525000000 -2.734892e-001 -1.405826e+002 -5.911717e+001 -4.503004e+001 -5.716634e+001 -4.619512e+001 -1.352386e-001 1.360880e+002
525625000 -2.848482e-001 -1.409045e+002 -5.715367e+001 -4.843950e+001 -5.707663e+001 -4.054272e+001 -1.367079e-001 1.359705e+002
526250000 -2.722405e-001 -1.412446e+002 -5.871900e+001 -4.833072e+001 -5.804228e+001 -6.434781e+001 -1.358377e-001 1.359355e+002
526875000 -2.825953e-001 -1.415778e+002 -5.884375e+001 -4.201707e+001 -5.809351e+001 -4.848796e+001 -1.254660e-001 1.359016e+002
527500000 -2.827552e-001 -1.419406e+002 -5.806072e+001 -5.840012e+001 -5.710079e+001 -5.292132e+001 -1.303001e-001 1.358738e+002
528125000 -3.092631e-001 -1.422606e+002 -5.740987e+001 -5.783975e+001 -5.740981e+001 -5.767558e+001 -1.254329e-001 1.358665e+002
528750000 -3.067228e-001 -1.425800e+002 -5.841472e+001 -4.866268e+001 -5.781602e+001 -5.330803e+001 -1.199325e-001 1.359143e+002
529375000 -3.136812e-001 -1.429599e+002 -5.690265e+001 -5.363625e+001 -5.793637e+001 -5.297345e+001 -1.266858e-001 1.358289e+002
530000000 -3.270674e-001 -1.433215e+002 -5.606432e+001 -5.685548e+001 -5.793013e+001 -6.220343e+001 -1.289302e-001 1.357960e+002
530625000 -3.392673e-001 -1.435714e+002 -5.724308e+001 -6.242633e+001 -5.598042e+001 -5.771101e+001 -1.272664e-001 1.357639e+002
531250000 -3.469430e-001 -1.439225e+002 -5.741507e+001 -6.603545e+001 -5.799646e+001 -5.698944e+001 -1.192671e-001 1.357592e+002
531875000 -3.630634e-001 -1.442053e+002 -5.724770e+001 -6.481109e+001 -5.771426e+001 -6.375975e+001 -1.165046e-001 1.357015e+002
532500000 -3.613854e-001 -1.444916e+002 -5.688002e+001 -5.449251e+001 -5.615974e+001 -6.246050e+001 -1.262494e-001 1.357456e+002
533125000 -3.638842e-001 -1.448143e+002 -5.651503e+001 -6.257690e+001 -5.703795e+001 -6.967927e+001 -1.348744e-001 1.357346e+002
533750000 -3.742164e-001 -1.451372e+002 -5.706380e+001 -6.688203e+001 -5.755510e+001 -5.783942e+001 -1.368463e-001 1.356801e+002
534375000 -3.773683e-001 -1.454414e+002 -5.655740e+001 -4.987336e+001 -5.637918e+001 -6.280834e+001 -1.130762e-001 1.356602e+002
535000000 -3.879199e-001 -1.457009e+002 -5.653292e+001 -5.896640e+001 -5.784671e+001 -6.314440e+001 -1.222582e-001 1.356734e+002
535625000 -3.856916e-001 -1.460201e+002 -5.666003e+001 -6.316935e+001 -5.756644e+001 -7.334045e+001 -1.227315e-001 1.356473e+002
536250000 -3.923233e-001 -1.463460e+002 -5.721119e+001 -7.770231e+001 -5.714296e+001 -6.457877e+001 -1.247614e-001 1.355759e+002
536875000 -3.949051e-001 -1.467363e+002 -5.589968e+001 -6.068407e+001 -5.770047e+001 -7.332361e+001 -1.298284e-001 1.355677e+002
537500000 -4.000628e-001 -1.470136e+002 -5.588707e+001 -6.991760e+001 -5.751344e+001 -7.550603e+001 -1.226723e-001 1.355938e+002
538125000 -4.007417e-001 -1.474005e+002 -5.760759e+001 -7.646278e+001 -5.680153e+001 -7.987042e+001 -1.317925e-001 1.355688e+002
538750000 -4.218897e-001 -1.477290e+002 -5.624987e+001 -7.547054e+001 -5.773168e+001 -7.129839e+001 -1.330493e-001 1.355201e+002
539375000 -4.267140e-001 -1.480037e+002 -5.711445e+001 -7.840326e+001 -5.660943e+001 -7.149536e+001 -1.300116e-001 1.355072e+002
540000000 -4.320905e-001 -1.484051e+002 -5.592588e+001 -7.740575e+001 -5.755220e+001 -8.323674e+001 -1.397334e-001 1.353840e+002
540625000 -4.330977e-001 -1.487384e+002 -5.582863e+001 -8.243103e+001 -5.583694e+001 -7.893642e+001 -1.391468e-001 1.353355e+002
541250000 -4.423023e-001 -1.490080e+002 -5.547987e+001 -7.925974e+001 -5.482482e+001 -7.670490e+001 -1.343212e-001 1.352672e+002
541875000 -4.482299e-001 -1.493791e+002 -5.568407e+001 -7.634127e+001 -5.621359e+001 -7.749163e+001 -1.529972e-001 1.351638e+002
542500000 -4.556359e-001 -1.497077e+002 -5.501807e+001 -8.452919e+001 -5.673666e+001 -8.118263e+001 -1.375924e-001 1.350632e+002
543125000 -4.611498e-001 -1.500875e+002 -5.640220e+001 -9.013797e+001 -5.664820e+001 -8.918112e+001 -1.430397e-001 1.349506e+002
543750000 -4.560338e-001 -1.504218e+002 -5.610458e+001 -8.468336e+001 -5.612502e+001 -8.695701e+001 -1.559834e-001 1.348995e+002
544375000 -4.737937e-001 -1.507650e+002 -5.684982e+001 -7.443600e+001 -5.604745e+001 -7.479405e+001 -1.458745e-001 1.347594e+002
545000000 -4.711684e-001 -1.511288e+002 -5.794311e+001 -8.818410e+001 -5.739248e+001 -7.366809e+001 -1.463824e-001 1.347058e+002
545625000 -4.810208e-001 -1.515423e+002 -5.592036e+001 -8.632606e+001 -5.609403e+001 -9.338466e+001 -1.477454e-001 1.345363e+002
546250000 -4.916939e-001 -1.519158e+002 -5.606033e+001 -8.201921e+001 -5.714138e+001 -9.330820e+001 -1.451327e-001 1.344142e+002
546875000 -4.956038e-001 -1.523374e+002 -5.552350e+001 -8.694957e+001 -5.809136e+001 -8.395633e+001 -1.488948e-001 1.343630e+002
547500000 -5.036772e-001 -1.527372e+002 -5.538583e+001 -8.848103e+001 -5.623232e+001 -8.601097e+001 -1.476418e-001 1.342994e+002
548125000 -5.163727e-001 -1.530564e+002 -5.565385e+001 -8.849152e+001 -5.473602e+001 -8.772141e+001 -1.370142e-001 1.341283e+002
548750000 -5.261956e-001 -1.535403e+002 -5.652565e+001 -8.877174e+001 -5.496490e+001 -8.591535e+001 -1.426540e-001 1.341111e+002
549375000 -5.354726e-001 -1.539335e+002 -5.583926e+001 -8.829448e+001 -5.627509e+001 -9.257963e+001 -1.408604e-001 1.339410e+002
550000000 -5.364506e-001 -1.543309e+002 -5.512975e+001 -9.456392e+001 -5.586374e+001 -8.376475e+001 -1.446928e-001 1.339539e+002
550625000 -5.463542e-001 -1.547044e+002 -5.514929e+001 -9.016888e+001 -5.713352e+001 -8.925604e+001 -1.279475e-001 1.338894e+002
551250000 -5.516142e-001 -1.550687e+002 -5.491311e+001 -9.591058e+001 -5.557965e+001 -9.783199e+001 -1.319516e-001 1.338674e+002
551875000 -5.676654e-001 -1.554992e+002 -5.497873e+001 -9.557623e+001 -5.668472e+001 -9.364034e+001 -1.244437e-001 1.337724e+002
552500000 -5.772973e-001 -1.558984e+002 -5.479160e+001 -8.848795e+001 -5.527116e+001 -9.505406e+001 -1.245423e-001 1.337548e+002
553125000 -5.852159e-001 -1.563402e+002 -5.453392e+001 -9.869924e+001 -5.480590e+001 -1.019380e+002 -1.314117e-001 1.338382e+002
553750000 -6.051278e-001 -1.567124e+002 -5.489511e+001 -9.132433e+001 -5.620064e+001 -9.995925e+001 -1.354383e-001 1.337268e+002
554375000 -6.127519e-001 -1.570599e+002 -5.449079e+001 -9.761928e+001 -5.557069e+001 -9.552863e+001 -1.241400e-001 1.337489e+002
555000000 -6.228305e-001 -1.574968e+002 -5.621421e+001 -9.688561e+001 -5.565501e+001 -1.004851e+002 -1.353010e-001 1.337788e+002
555625000 -6.446327e-001 -1.577914e+002 -5.537189e+001 -9.918781e+001 -5.481103e+001 -1.072525e+002 -1.253088e-001 1.337879e+002
556250000 -6.632950e-001 -1.582134e+002 -5.484543e+001 -1.007210e+002 -5.488420e+001 -1.041814e+002 -1.251458e-001 1.337075e+002
556875000 -6.700953e-001 -1.585964e+002 -5.380962e+001 -9.636134e+001 -5.456419e+001 -1.009826e+002 -1.449242e-001 1.336716e+002
557500000 -6.883423e-001 -1.589702e+002 -5.457344e+001 -1.021370e+002 -5.495693e+001 -1.058164e+002 -1.411972e-001 1.336255e+002
558125000 -7.058502e-001 -1.593369e+002 -5.453715e+001 -1.066114e+002 -5.402026e+001 -1.040007e+002 -1.519175e-001 1.336190e+002
558750000 -7.109997e-001 -1.597052e+002 -5.492366e+001 -1.076412e+002 -5.566741e+001 -1.059876e+002 -1.370590e-001 1.335723e+002
559375000 -7.280133e-001 -1.601447e+002 -5.419860e+001 -1.079390e+002 -5.445033e+001 -1.046413e+002 -1.414518e-001 1.334610e+002
560000000 -7.465862e-001 -1.605251e+002 -5.457149e+001 -1.063070e+002 -5.494959e+001 -1.128231e+002 -1.420771e-001 1.333764e+002
560625000 -7.653022e-001 -1.609018e+002 -5.304945e+001 -1.149053e+002 -5.454122e+001 -1.091760e+002 -1.498459e-001 1.333163e+002
561250000 -7.810782e-001 -1.612527e+002 -5.373790e+001 -1.143686e+002 -5.460731e+001 -1.129350e+002 -1.490916e-001 1.332030e+002
561875000 -7.978210e-001 -1.616597e+002 -5.452711e+001 -1.115651e+002 -5.505164e+001 -1.122483e+002 -1.533167e-001 1.331406e+002
562500000 -8.200476e-001 -1.620146e+002 -5.365627e+001 -1.105886e+002 -5.510117e+001 -1.152497e+002 -1.475538e-001 1.331075e+002
563125000 -8.284469e-001 -1.623685e+002 -5.446525e+001 -1.094903e+002 -5.482040e+001 -1.102437e+002 -1.424891e-001 1.330034e+002
563750000 -8.598533e-001 -1.627379e+002 -5.464742e+001 -1.161850e+002 -5.370189e+001 -1.142691e+002 -1.536472e-001 1.329444e+002
564375000 -8.804161e-001 -1.631124e+002 -5.414037e+001 -1.191932e+002 -5.367892e+001 -1.186737e+002 -1.559439e-001 1.328441e+002
565000000 -8.939437e-001 -1.634592e+002 -5.490953e+001 -1.150956e+002 -5.526694e+001 -1.203970e+002 -1.562071e-001 1.327141e+002
565625000 -9.057626e-001 -1.637980e+002 -5.322412e+001 -1.263952e+002 -5.431967e+001 -1.277438e+002 -1.566954e-001 1.326401e+002
566250000 -9.135637e-001 -1.642754e+002 -5.448778e+001 -1.203932e+002 -5.469364e+001 -1.191675e+002 -1.496833e-001 1.326054e+002
566875000 -9.323863e-001 -1.646150e+002 -5.393275e+001 -1.199768e+002 -5.479131e+001 -1.246449e+002 -1.459784e-001 1.325447e+002
567500000 -9.430248e-001 -1.650523e+002 -5.452369e+001 -1.206970e+002 -5.512410e+001 -1.258872e+002 -1.469902e-001 1.324133e+002
568125000 -9.628556e-001 -1.654554e+002 -5.485897e+001 -1.185086e+002 -5.505180e+001 -1.279489e+002 -1.475152e-001 1.323765e+002
568750000 -9.757999e-001 -1.658422e+002 -5.421722e+001 -1.196788e+002 -5.440843e+001 -1.188985e+002 -1.521394e-001 1.323054e+002
569375000 -9.887415e-001 -1.663389e+002 -5.271547e+001 -1.291008e+002 -5.417467e+001 -1.262240e+002 -1.560640e-001 1.322933e+002
570000000 -1.006920e+000 -1.667926e+002 -5.411150e+001 -1.255870e+002 -5.408334e+001 -1.258937e+002 -1.468322e-001 1.320906e+002
570625000 -1.017430e+000 -1.672241e+002 -5.348444e+001 -1.239564e+002 -5.445242e+001 -1.241993e+002 -1.488087e-001 1.320546e+002
571250000 -1.039329e+000 -1.676940e+002 -5.366246e+001 -1.242297e+002 -5.393159e+001 -1.274639e+002 -1.561189e-001 1.319617e+002
571875000 -1.061829e+000 -1.681739e+002 -5.410245e+001 -1.317681e+002 -5.489055e+001 -1.273499e+002 -1.449289e-001 1.319180e+002
572500000 -1.076230e+000 -1.686096e+002 -5.297383e+001 -1.267060e+002 -5.424695e+001 -1.257367e+002 -1.467910e-001 1.318136e+002
573125000 -1.101433e+000 -1.691298e+002 -5.317788e+001 -1.305598e+002 -5.355666e+001 -1.342447e+002 -1.472170e-001 1.317055e+002
573750000 -1.123289e+000 -1.695875e+002 -5.321545e+001 -1.319420e+002 -5.435768e+001 -1.272718e+002 -1.585231e-001 1.315943e+002
574375000 -1.146111e+000 -1.700562e+002 -5.304065e+001 -1.303327e+002 -5.328115e+001 -1.299352e+002 -1.545620e-001 1.315523e+002
575000000 -1.173323e+000 -1.706114e+002 -5.355922e+001 -1.297390e+002 -5.368763e+001 -1.304618e+002 -1.529744e-001 1.314039e+002
575625000 -1.203428e+000 -1.710916e+002 -5.265682e+001 -1.320078e+002 -5.363219e+001 -1.358312e+002 -1.525150e-001 1.313690e+002
576250000 -1.234392e+000 -1.715386e+002 -5.419789e+001 -1.319806e+002 -5.356602e+001 -1.395694e+002 -1.568652e-001 1.312767e+002
576875000 -1.270659e+000 -1.720378e+002 -5.200595e+001 -1.320305e+002 -5.352114e+001 -1.381231e+002 -1.547244e-001 1.312430e+002
577500000 -1.309009e+000 -1.724627e+002 -5.221230e+001 -1.374000e+002 -5.335273e+001 -1.359547e+002 -1.485979e-001 1.311625e+002
578125000 -1.346627e+000 -1.729290e+002 -5.334089e+001 -1.397729e+002 -5.370028e+001 -1.341070e+002 -1.455967e-001 1.311667e+002
578750000 -1.377001e+000 -1.733344e+002 -5.212825e+001 -1.393864e+002 -5.374169e+001 -1.380149e+002 -1.469969e-001 1.310507e+002
579375000 -1.401272e+000 -1.737438e+002 -5.370708e+001 -1.426650e+002 -5.268200e+001 -1.381658e+002 -1.372166e-001 1.310016e+002
580000000 -1.438124e+000 -1.741498e+002 -5.277053e+001 -1.361385e+002 -5.278963e+001 -1.422220e+002 -1.406154e-001 1.310084e+002
580625000 -1.475642e+000 -1.745898e+002 -5.246967e+001 -1.436895e+002 -5.332529e+001 -1.393722e+002 -1.299594e-001 1.310077e+002
581250000 -1.515850e+000 -1.749541e+002 -5.314426e+001 -1.414880e+002 -5.309528e+001 -1.427480e+002 -1.334343e-001 1.309932e+002
581875000 -1.552949e+000 -1.753560e+002 -5.216179e+001 -1.426283e+002 -5.303432e+001 -1.412044e+002 -1.333084e-001 1.310139e+002
582500000 -1.594221e+000 -1.757204e+002 -5.188965e+001 -1.482675e+002 -5.290061e+001 -1.437052e+002 -1.380265e-001 1.309728e+002
583125000 -1.618377e+000 -1.761854e+002 -5.186666e+001 -1.489948e+002 -5.262951e+001 -1.458886e+002 -1.424108e-001 1.308728e+002
583750000 -1.669146e+000 -1.765036e+002 -5.188189e+001 -1.462342e+002 -5.199009e+001 -1.521547e+002 -1.487085e-001 1.309092e+002
584375000 -1.704492e+000 -1.768932e+002 -5.220466e+001 -1.498287e+002 -5.218937e+001 -1.519800e+002 -1.396796e-001 1.309295e+002
585000000 -1.741504e+000 -1.772811e+002 -5.191594e+001 -1.477917e+002 -5.242410e+001 -1.559356e+002 -1.474448e-001 1.308354e+002
585625000 -1.788801e+000 -1.776466e+002 -5.189532e+001 -1.457687e+002 -5.256506e+001 -1.567078e+002 -1.411102e-001 1.308139e+002
586250000 -1.820610e+000 -1.780101e+002 -5.110314e+001 -1.551835e+002 -5.276303e+001 -1.506340e+002 -1.507365e-001 1.308331e+002
586875000 -1.850260e+000 -1.784059e+002 -5.218998e+001 -1.546225e+002 -5.234732e+001 -1.545642e+002 -1.478323e-001 1.306921e+002
587500000 -1.901918e+000 -1.787332e+002 -5.194785e+001 -1.595490e+002 -5.281881e+001 -1.528976e+002 -1.534155e-001 1.306502e+002
588125000 -1.931294e+000 -1.790658e+002 -5.182539e+001 -1.606653e+002 -5.215812e+001 -1.553491e+002 -1.565152e-001 1.305758e+002
588750000 -1.960260e+000 -1.793883e+002 -5.195654e+001 -1.579625e+002 -5.198108e+001 -1.591355e+002 -1.582513e-001 1.305195e+002
589375000 -1.992931e+000 -1.797487e+002 -5.191796e+001 -1.586686e+002 -5.189014e+001 -1.638483e+002 -1.472159e-001 1.303764e+002
590000000 -2.015463e+000 1.799294e+002 -5.146728e+001 -1.603210e+002 -5.213398e+001 -1.659319e+002 -1.602565e-001 1.303981e+002
590625000 -2.046113e+000 1.795973e+002 -5.142756e+001 -1.635518e+002 -5.251014e+001 -1.628969e+002 -1.530769e-001 1.302287e+002
591250000 -2.072129e+000 1.791689e+002 -5.187513e+001 -1.628992e+002 -5.226870e+001 -1.667908e+002 -1.634973e-001 1.301184e+002
591875000 -2.104529e+000 1.788049e+002 -5.140407e+001 -1.672954e+002 -5.206320e+001 -1.665207e+002 -1.569727e-001 1.300976e+002
592500000 -2.132442e+000 1.783006e+002 -5.110636e+001 -1.684382e+002 -5.261887e+001 -1.713653e+002 -1.443901e-001 1.300385e+002
593125000 -2.178187e+000 1.779608e+002 -5.225636e+001 -1.695336e+002 -5.201009e+001 -1.688349e+002 -1.568432e-001 1.299991e+002
593750000 -2.221977e+000 1.775319e+002 -5.150839e+001 -1.702056e+002 -5.286770e+001 -1.682047e+002 -1.386357e-001 1.299728e+002
594375000 -2.243855e+000 1.771981e+002 -5.158603e+001 -1.718622e+002 -5.213660e+001 -1.702978e+002 -1.383232e-001 1.299219e+002
